!Created with skrf (http://scikit-rf.org).
# Hz S RI R 50.0 
!freq ReS11 ImS11
300000.0 -0.0062847829 -0.0410865781
5299970.0 -1.01156e-05 -0.0002554952
10299940.0 0.0004282718 -0.0002873972
15299910.0 0.0006925511 0.0011206663
20299880.0 0.0007642538 0.0008754152
25299850.0 0.0008288808 0.0016237877
30299820.0 0.0010377484 0.0019673422
35299790.0 0.0014170878 0.0016604921
40299760.0 0.0012673392 0.0017584461
45299730.0 0.001602034 0.0022339692
50299700.0 0.0015142653 0.002650621
55299670.0 0.0019374867 0.002859322
60299640.0 0.0020148182 0.0028156517
65299610.0 0.0023356543 0.0029541873
70299580.0 0.0023287407 0.0030616855
75299550.0 0.0024908112 0.0031085942
80299520.0 0.0030434549 0.0032727552
85299490.0 0.0030868497 0.0034148665
90299460.0 0.0031728154 0.0034793687
95299430.0 0.0036386573 0.0036114015
100299400.0 0.0037900539 0.0038661616
105299370.0 0.00401342 0.0041070112
110299340.0 0.0042634746 0.0039471508
115299310.0 0.004290027 0.0040089453
120299280.0 0.0046903183 0.0038155039
125299250.0 0.0047470637 0.0040814015
130299220.0 0.0050036694 0.0041364057
135299190.0 0.0051853753 0.0038025611
140299160.0 0.0054855267 0.0037909625
145299130.0 0.0056984967 0.0038782897
150299100.0 0.0058864915 0.003790464
155299070.0 0.0061636713 0.003577384
160299040.0 0.0065119041 0.0035780267
165299010.0 0.006814623 0.0034793099
170298980.0 0.0067513451 0.0034099402
175298950.0 0.0067066744 0.0035704565
180298920.0 0.0070194566 0.0031898502
185298890.0 0.0070018493 0.0029793834
190298860.0 0.0072239676 0.0030011157
195298830.0 0.0075166695 0.0028794124
200298800.0 0.0076252382 0.0027758194
205298770.0 0.0077739102 0.0027844359
210298740.0 0.0078959979 0.0023115463
215298710.0 0.0079227752 0.0022186485
220298680.0 0.0082161716 0.0021264314
225298650.0 0.0079680273 0.0019839778
230298620.0 0.0081080315 0.0016033418
235298590.0 0.0083627305 0.0014357047
240298560.0 0.0081652253 0.0011336149
245298530.0 0.0081410928 0.0012368549
250298500.0 0.0083670295 0.0010771285
255298470.0 0.0081676812 0.0009651913
260298440.0 0.0083331719 0.0005769463
265298410.0 0.0082519146 0.0007011447
270298380.0 0.0081663164 0.0004580397
275298350.0 0.0081174527 0.0002269106
280298320.0 0.0080683399 0.0001048515
285298290.0 0.0080529737 -8.22306e-05
290298260.0 0.0079962298 -5.20983e-05
295298230.0 0.0079353856 -0.0002704993
300298200.0 0.0081565974 -0.0004544458
305298170.0 0.0078457298 -0.00040297
310298140.0 0.0078796595 -0.0006051795
315298110.0 0.0076965835 -0.0006691457
320298080.0 0.00804214 -0.0007711761
325298050.0 0.0077183756 -0.0009871127
330298020.0 0.0075273108 -0.0008818128
335297990.0 0.0075841262 -0.0011560746
340297960.0 0.007524543 -0.0009257521
345297930.0 0.0073303117 -0.0014223423
350297900.0 0.0073343486 -0.0014380475
355297870.0 0.0075302385 -0.0015357147
360297840.0 0.0073766634 -0.0015698901
365297810.0 0.0071514978 -0.0018755174
370297780.0 0.0069125927 -0.001699403
375297750.0 0.0067888086 -0.0015165967
380297720.0 0.0069767569 -0.0017294648
385297690.0 0.0066307867 -0.0017429211
390297660.0 0.0065991626 -0.0018063193
395297630.0 0.0066468547 -0.0018327668
400297600.0 0.0065726267 -0.0020137304
405297570.0 0.0063943577 -0.0020075303
410297540.0 0.0062741686 -0.0019377273
415297510.0 0.006256914 -0.0021181454
420297480.0 0.0063176771 -0.0020986453
425297450.0 0.0059417029 -0.0019136545
430297420.0 0.00596393 -0.0021584932
435297390.0 0.0059467892 -0.0021205324
440297360.0 0.0058744387 -0.0020087278
445297330.0 0.0057118226 -0.0022027753
450297300.0 0.0056634588 -0.0020003454
455297270.0 0.0056797918 -0.002119859
460297240.0 0.0055196456 -0.0020503443
465297210.0 0.0053362617 -0.0020366802
470297180.0 0.0053814774 -0.0020322496
475297150.0 0.0054801021 -0.0019543912
480297120.0 0.005179857 -0.0021855303
485297090.0 0.0052342538 -0.0020102365
490297060.0 0.00522861 -0.0021721991
495297030.0 0.0050859254 -0.0022575918
500297000.0 0.0047571554 -0.0021409222
505296970.0 0.0048502346 -0.0021778684
510296940.0 0.0049146377 -0.0020136904
515296910.0 0.0046249298 -0.0017913218
520296880.0 0.004615644 -0.0017306243
525296850.0 0.0045894655 -0.001549745
530296820.0 0.0044238904 -0.0019050049
535296790.0 0.0043801081 -0.0018663375
540296760.0 0.0042956859 -0.0017193258
545296730.0 0.0043864993 -0.0017818255
550296700.0 0.0043883445 -0.001814666
555296670.0 0.0043905303 -0.0018187782
560296640.0 0.0042364014 -0.0016577317
565296610.0 0.0042156407 -0.0018785819
570296580.0 0.0043395023 -0.0020277699
575296550.0 0.0043437183 -0.0017777629
580296520.0 0.0041822029 -0.0017219848
585296490.0 0.0040684048 -0.0017424693
590296460.0 0.0040661459 -0.0016698663
595296430.0 0.0040272811 -0.0018207276
600296400.0 0.0040456046 -0.0017752998
605296370.0 0.0040019232 -0.0015922312
610296340.0 0.0040052887 -0.001693047
615296310.0 0.0037693781 -0.0013593082
620296280.0 0.0039988016 -0.001488553
625296250.0 0.0037581522 -0.0014441189
630296220.0 0.0035363522 -0.001710073
635296190.0 0.003590093 -0.0014515234
640296160.0 0.0037304061 -0.0014823901
645296130.0 0.0037711094 -0.0014477021
650296100.0 0.0037399035 -0.0014297494
655296070.0 0.0036064253 -0.0013433887
660296040.0 0.0035058908 -0.0014965693
665296010.0 0.0035876974 -0.0013700315
670295980.0 0.0034973363 -0.0013662819
675295950.0 0.0035853778 -0.001429921
680295920.0 0.003428549 -0.0012073685
685295890.0 0.0036128303 -0.0012795266
690295860.0 0.003411894 -0.0011707504
695295830.0 0.0033512195 -0.0011753417
700295800.0 0.0032136326 -0.0012309306
705295770.0 0.0032705701 -0.0010370332
710295740.0 0.0032403889 -0.0009829483
715295710.0 0.0032907902 -0.0010965002
720295680.0 0.0033149015 -0.000885454
725295650.0 0.0033058471 -0.0009527157
730295620.0 0.0031437084 -0.0007350627
735295590.0 0.0033068182 -0.0009264979
740295560.0 0.0034467608 -0.0009157661
745295530.0 0.0032022732 -0.000965649
750295500.0 0.0032224776 -0.0008611011
755295470.0 0.0032658488 -0.0005945913
760295440.0 0.0030859473 -0.0007278494
765295410.0 0.0030935014 -0.0008988148
770295380.0 0.0031297366 -0.0009347367
775295350.0 0.003170348 -0.0007877115
780295320.0 0.00304247 -0.0006973388
785295290.0 0.003103719 -0.0006389115
790295260.0 0.0030766591 -0.0008417151
795295230.0 0.0031613627 -0.0009574965
800295200.0 0.0031721936 -0.0009578671
805295170.0 0.0031176187 -0.0008034964
810295140.0 0.0030844318 -0.0006734873
815295110.0 0.0032259927 -0.0005936393
820295080.0 0.00326078 -0.0006981037
825295050.0 0.0031929821 -0.0005503056
830295020.0 0.0030983259 -0.0005768627
835294990.0 0.0030436033 -0.0004976475
840294960.0 0.003170514 -0.0006188389
845294930.0 0.003307464 -0.0005350891
850294900.0 0.0030209119 -0.000450664
855294870.0 0.0031428324 -0.0004878953
860294840.0 0.0031340914 -0.0004580281
865294810.0 0.0029770878 -0.0003703611
870294780.0 0.0029334642 -0.0003805701
875294750.0 0.003250102 -0.0002331036
880294720.0 0.0030234348 -0.0004083395
885294690.0 0.0029459009 -0.0002254929
890294660.0 0.0031334916 -0.0003476913
895294630.0 0.0028845712 -0.0003034493
900294600.0 0.0030401569 -0.0001861797
905294570.0 0.0031781244 -0.000137106
910294540.0 0.0030446672 -0.0001923614
915294510.0 0.0030349728 -0.0002707508
920294480.0 0.0029879941 -0.0001816602
925294450.0 0.003134523 -0.0001792011
930294420.0 0.0031425982 5.40504e-05
935294390.0 0.0030661878 -3.31875e-05
940294360.0 0.0033268159 -0.0004610831
945294330.0 0.0031044157 -7.96151e-05
950294300.0 0.0031199333 -8.01341e-05
955294270.0 0.0031463251 8.95485e-05
960294240.0 0.0031698214 -6.20733e-05
965294210.0 0.0031728011 -5.83063e-05
970294180.0 0.0030301811 9.91427e-05
975294150.0 0.0031706024 0.0001033427
980294120.0 0.0030713372 -0.0002845114
985294090.0 0.0031707658 1.82015e-05
990294060.0 0.0029855373 -4.17919e-05
995294030.0 0.0032934273 -1.5161e-05
1000294000.0 0.0030239252 -0.0001032057
1005293970.0 0.0032258075 -6.58169e-05
1010293940.0 0.0030565514 -0.0001739878
1015293910.0 0.0031843171 1.34213e-05
1020293880.0 0.0034441435 6.86448e-05
1025293850.0 0.003030216 0.000126593
1030293820.0 0.0032697515 5.54204e-05
1035293790.0 0.0032359392 0.0001773454
1040293760.0 0.0034366051 9.12028e-05
1045293730.0 0.0033388141 9.92718e-05
1050293700.0 0.0033745469 6.41909e-05
1055293670.0 0.0035824679 0.0004048061
1060293640.0 0.0034634128 0.0002890426
1065293610.0 0.0035071367 0.0002172145
1070293580.0 0.0034243562 0.0003018752
1075293550.0 0.0035561275 0.0002259687
1080293520.0 0.0035146599 0.0002745387
1085293490.0 0.0037094731 0.0003018203
1090293460.0 0.0035148789 0.0003143871
1095293430.0 0.0035477156 0.0002463446
1100293400.0 0.0036829325 0.0003482346
1105293370.0 0.0037492032 0.0003038541
1110293340.0 0.0035590889 0.000144107
1115293310.0 0.0036234852 0.0004054082
1120293280.0 0.0036573646 0.0002570556
1125293250.0 0.0035982487 0.0003728226
1130293220.0 0.0036390785 0.0004310538
1135293190.0 0.0036186183 0.0004982112
1140293160.0 0.0034797944 0.0006193931
1145293130.0 0.0035782627 0.000683731
1150293100.0 0.0033893885 0.0007157937
1155293070.0 0.0033470442 0.0005765172
1160293040.0 0.0034299731 0.0007896873
1165293010.0 0.0035863554 0.0006591829
1170292980.0 0.0036897652 0.0007160279
1175292950.0 0.0037270774 0.0006735514
1180292920.0 0.0036181811 0.0006469561
1185292890.0 0.0036954716 0.0001791731
1190292860.0 0.0039920637 0.0005173782
1195292830.0 0.0040864174 0.0004852435
1200292800.0 0.0038531751 0.0002401504
1205292770.0 0.0039224825 0.0004018804
1210292740.0 0.0040536368 0.0003207238
1215292710.0 0.0040167228 0.0005074736
1220292680.0 0.004023274 0.0002536442
1225292650.0 0.0041591634 0.0004639232
1230292620.0 0.0041587045 0.0006522938
1235292590.0 0.0041414454 0.0005347997
1240292560.0 0.0042457857 0.0006391641
1245292530.0 0.0039632892 0.0003324458
1250292500.0 0.0042145111 0.0005929323
1255292470.0 0.0040724172 0.0004962248
1260292440.0 0.0045367776 0.0004879708
1265292410.0 0.0042528118 0.0004763324
1270292380.0 0.0045279258 0.0005913649
1275292350.0 0.004334506 0.0005862619
1280292320.0 0.0044203671 0.0006151885
1285292290.0 0.0043636162 0.0007175137
1290292260.0 0.0044121422 0.0006799984
1295292230.0 0.0045410129 0.0005767702
1300292200.0 0.0044706937 0.0004351534
1305292170.0 0.0047986345 0.0008424902
1310292140.0 0.0044898779 0.0004597581
1315292110.0 0.0044079279 0.0007228249
1320292080.0 0.004661877 0.0007177211
1325292050.0 0.0046860833 0.00042326
1330292020.0 0.0047505307 0.0005664461
1335291990.0 0.0046517831 0.0005999643
1340291960.0 0.0047797122 0.0004380986
1345291930.0 0.0047522167 0.0006969422
1350291900.0 0.0046882154 0.0004766301
1355291870.0 0.004964319 0.0005069895
1360291840.0 0.0049403483 0.0006102921
1365291810.0 0.0047174881 0.000642103
1370291780.0 0.0049925933 0.0006518473
1375291750.0 0.0050274598 0.0004572964
1380291720.0 0.0051540868 0.0007119828
1385291690.0 0.0051566175 0.0003837416
1390291660.0 0.0049874656 0.00074629
1395291630.0 0.0050755843 0.000424754
1400291600.0 0.0049919574 0.0003740395
1405291570.0 0.0050560049 0.0004961087
1410291540.0 0.0052566396 0.0006737606
1415291510.0 0.0051194056 0.0005775633
1420291480.0 0.0052903321 0.000693275
1425291450.0 0.005191404 0.0006368748
1430291420.0 0.0052905067 0.000459477
1435291390.0 0.0052341717 0.0005067572
1440291360.0 0.00542851 0.0006466951
1445291330.0 0.0052430838 0.0004401882
1450291300.0 0.0055182254 0.0005391509
1455291270.0 0.0052940382 0.0007534668
1460291240.0 0.0053529449 0.0004690973
1465291210.0 0.0052864375 0.0005336585
1470291180.0 0.0053885232 0.0005391551
1475291150.0 0.0055388563 0.0005406972
1480291120.0 0.0055305713 0.0005704698
1485291090.0 0.0056151 0.0005841711
1490291060.0 0.0055281291 0.0006303259
1495291030.0 0.0058186457 0.0006081156
1500291000.0 0.0057514756 0.000466924
1505290970.0 0.0056516788 0.0004470446
1510290940.0 0.0056723591 0.000774593
1515290910.0 0.0058081212 0.0004577056
1520290880.0 0.0057379978 0.0007356277
1525290850.0 0.0059974241 0.0001639209
1530290820.0 0.0057363865 0.0004876856
1535290790.0 0.0058110716 0.0003501631
1540290760.0 0.0058950364 0.0003463187
1545290730.0 0.0058195792 0.00048321
1550290700.0 0.0059028128 0.0004608063
1555290670.0 0.0061201524 0.000654884
1560290640.0 0.0061288155 0.0006555997
1565290610.0 0.0064476838 0.00039268
1570290580.0 0.0060463552 0.0004119554
1575290550.0 0.0062472904 0.0003624065
1580290520.0 0.0061437207 0.0002963997
1585290490.0 0.0062246119 0.0004233233
1590290460.0 0.0063955737 0.0003665268
1595290430.0 0.0062665716 0.0002737403
1600290400.0 0.0061446062 0.0005161797
1605290370.0 0.0063388437 0.0001658884
1610290340.0 0.0062467831 0.0003316559
1615290310.0 0.0064263515 0.00051542
1620290280.0 0.0064704541 0.0004539387
1625290250.0 0.0064197986 0.0005142537
1630290220.0 0.0064331064 0.0004911668
1635290190.0 0.0064384208 0.0004672079
1640290160.0 0.0065208015 0.0004221942
1645290130.0 0.0066468194 0.0003101933
1650290100.0 0.0066447153 0.0003672823
1655290070.0 0.0067416173 0.0003688995
1660290040.0 0.006815606 0.0004567918
1665290010.0 0.0069090096 0.000577502
1670289980.0 0.0068335523 0.0003023861
1675289950.0 0.0068266734 0.0003015813
1680289920.0 0.0069502648 0.0003308982
1685289890.0 0.0067826006 0.0002178978
1690289860.0 0.0068270376 0.0002713218
1695289830.0 0.0069404031 0.0003189544
1700289800.0 0.0068245709 0.0003172796
1705289770.0 0.0068600656 0.0003729464
1710289740.0 0.0071575725 8.12364e-05
1715289710.0 0.0069660573 0.0002610354
1720289680.0 0.0069223599 0.0003486632
1725289650.0 0.0070379157 2.67379e-05
1730289620.0 0.0070414576 0.0001120709
1735289590.0 0.0072176924 0.0003738751
1740289560.0 0.0071906414 0.0002978419
1745289530.0 0.0072731574 0.0001672944
1750289500.0 0.007229191 0.0003364812
1755289470.0 0.0073120609 0.0003197509
1760289440.0 0.0072773107 0.0002389107
1765289410.0 0.0074443609 0.0001874741
1770289380.0 0.0071793314 0.0003867323
1775289350.0 0.0075334587 0.0003864402
1780289320.0 0.0074629087 0.0001639445
1785289290.0 0.0075736557 2.06101e-05
1790289260.0 0.0074577283 0.0001907365
1795289230.0 0.0073430331 0.0004205607
1800289200.0 0.0074993113 0.0001551022
1805289170.0 0.0077169371 0.0002520225
1810289140.0 0.0075702845 0.0002421096
1815289110.0 0.0074726169 8.46965e-05
1820289080.0 0.0076073622 0.0001257508
1825289050.0 0.0074412916 0.0001368149
1830289020.0 0.0077172796 4.50887e-05
1835288990.0 0.0075886074 0.000161301
1840288960.0 0.0076523212 2.49706e-05
1845288930.0 0.0077327923 0.0003087816
1850288900.0 0.0076501906 7.66612e-05
1855288870.0 0.007593565 -4.90612e-05
1860288840.0 0.0078330099 0.0001513177
1865288810.0 0.0078308365 0.0001927244
1870288780.0 0.0079146808 -0.0002099917
1875288750.0 0.007771577 0.0001268647
1880288720.0 0.0078426689 0.0001699107
1885288690.0 0.0078222289 1.77842e-05
1890288660.0 0.0078989082 -7.51061e-05
1895288630.0 0.0079799294 0.0003488368
1900288600.0 0.0080789756 9.97771e-05
1905288570.0 0.0080912456 -0.0001755008
1910288540.0 0.0082867533 6.39106e-05
1915288510.0 0.0081499261 2.27634e-05
1920288480.0 0.0082850985 -0.0001308804
1925288450.0 0.0081197436 -0.0002117997
1930288420.0 0.0082366939 -0.0001436123
1935288390.0 0.0082489923 -0.0001574392
1940288360.0 0.0083826272 -4.72364e-05
1945288330.0 0.0081607973 0.0001189769
1950288300.0 0.0085427959 -4.84092e-05
1955288270.0 0.008495902 -2.78942e-05
1960288240.0 0.0085380747 2.88211e-05
1965288210.0 0.0083993201 -7.21573e-05
1970288180.0 0.0085030039 -0.0001234109
1975288150.0 0.0083395126 4.9107e-06
1980288120.0 0.0085672584 -0.0001313914
1985288090.0 0.0084305454 -0.0002609511
1990288060.0 0.0085111135 1.60082e-05
1995288030.0 0.0083878185 4.58027e-05
2000288000.0 0.0086156484 -8.13609e-05
2005287970.0 0.0086350117 2.72161e-05
2010287940.0 0.0086034571 -0.0002401632
2015287910.0 0.0084882447 -9.89375e-05
2020287880.0 0.0085691292 -0.0001678807
2025287850.0 0.0086167935 -0.0002562767
2030287820.0 0.0086690834 -7.40439e-05
2035287790.0 0.0087355296 -0.0002334395
2040287760.0 0.0087509833 -0.0001175645
2045287730.0 0.0087869996 -0.0003370151
2050287700.0 0.0086925122 -0.0003420122
2055287670.0 0.0087467381 -0.0002748657
2060287640.0 0.0086874924 -0.000189694
2065287610.0 0.0087797421 -0.0001925403
2070287580.0 0.0088449983 -0.0004083904
2075287550.0 0.008785295 -0.000165984
2080287520.0 0.0085339428 -0.0001244554
2085287490.0 0.0086958994 -0.0002968232
2090287460.0 0.0088954036 -0.0001566885
2095287430.0 0.008994101 -0.0003391025
2100287400.0 0.0089561669 -0.0002755251
2105287370.0 0.0089013586 -0.0002919839
2110287340.0 0.0089433779 -0.0001795774
2115287310.0 0.0091034489 -0.000350446
2120287280.0 0.0089816625 -0.0002575111
2125287250.0 0.008968876 -0.0002376428
2130287220.0 0.0088720332 -0.0002625266
2135287190.0 0.0092173319 -0.0003452021
2140287160.0 0.0090620261 -0.0002279465
2145287130.0 0.0091123213 -0.0002797522
2150287100.0 0.0089505851 -0.0003289191
2155287070.0 0.009079591 -0.0003076613
2160287040.0 0.008980865 -0.0005578795
2165287010.0 0.0090989361 -0.000342089
2170286980.0 0.0092674015 -0.0003445061
2175286950.0 0.009096476 -0.0005288237
2180286920.0 0.0091918401 -0.0003306833
2185286890.0 0.0092401616 -0.0003780123
2190286860.0 0.0093001181 -0.0004146223
2195286830.0 0.0091812447 -0.0004906352
2200286800.0 0.0093294627 -0.0005569401
2205286770.0 0.0094020071 -0.0003609425
2210286740.0 0.0092994244 -0.0005402189
2215286710.0 0.0093035171 -0.0004592063
2220286680.0 0.0094984217 -0.0003988458
2225286650.0 0.0089920845 -0.0006608088
2230286620.0 0.0092575753 -0.0003918918
2235286590.0 0.0094413757 -0.0004713386
2240286560.0 0.0094015897 -0.0006644264
2245286530.0 0.0095806803 -0.000581972
2250286500.0 0.0093641639 -0.0004408154
2255286470.0 0.0094240799 -0.0005727869
2260286440.0 0.0092832633 -0.0006305738
2265286410.0 0.0094882698 -0.0007807391
2270286380.0 0.0094763121 -0.0007549837
2275286350.0 0.0095730959 -0.0005417284
2280286320.0 0.00930993 -0.0005115487
2285286290.0 0.0095889356 -0.0006966598
2290286260.0 0.0094313988 -0.0005581995
2295286230.0 0.0094457196 -0.0006379968
2300286200.0 0.0094320662 -0.0006206873
2305286170.0 0.0095657231 -0.0005707114
2310286140.0 0.009635891 -0.0006147006
2315286110.0 0.0095363833 -0.0006259896
2320286080.0 0.0095985945 -0.0005139775
2325286050.0 0.0096548077 -0.0006387909
2330286020.0 0.0094134718 -0.0007915266
2335285990.0 0.0094301373 -0.000769442
2340285960.0 0.0094412632 -0.0008734679
2345285930.0 0.0095371078 -0.0005470185
2350285900.0 0.0095529944 -0.0008598048
2355285870.0 0.0095906345 -0.0008173883
2360285840.0 0.0096531462 -0.0005732264
2365285810.0 0.0097939053 -0.0006670727
2370285780.0 0.0094686686 -0.0008266848
2375285750.0 0.009636107 -0.0005954408
2380285720.0 0.0095671314 -0.000715626
2385285690.0 0.0097791361 -0.000575236
2390285660.0 0.0094628277 -0.0008341796
2395285630.0 0.0095765717 -0.0008305608
2400285600.0 0.0096523401 -0.0009356211
2405285570.0 0.0095923584 -0.0008921974
2410285540.0 0.0096842167 -0.0009058924
2415285510.0 0.0098354109 -0.0009390603
2420285480.0 0.0095889601 -0.0008449761
2425285450.0 0.0095798148 -0.0010082884
2430285420.0 0.0098588769 -0.0009862205
2435285390.0 0.0097557286 -0.0009078613
2440285360.0 0.0096453854 -0.0010337673
2445285330.0 0.0098169306 -0.0009169438
2450285300.0 0.009773893 -0.001118716
2455285270.0 0.0099105876 -0.0010593017
2460285240.0 0.0097549286 -0.0008917737
2465285210.0 0.0098470697 -0.0010567199
2470285180.0 0.0096364519 -0.0011525879
2475285150.0 0.0097057712 -0.0011014138
2480285120.0 0.0095639054 -0.0012789708
2485285090.0 0.009539322 -0.0011279659
2490285060.0 0.0097528276 -0.0010204907
2495285030.0 0.0097466254 -0.0010440288
2500285000.0 0.0099196693 -0.0010548747
2505284970.0 0.0096440824 -0.001209914
2510284940.0 0.009827334 -0.0011968712
2515284910.0 0.0097568094 -0.0012650335
2520284880.0 0.0096702158 -0.0013290493
2525284850.0 0.0097569357 -0.0012044966
2530284820.0 0.0097223504 -0.0014829883
2535284790.0 0.0098524913 -0.0012954192
2540284760.0 0.0096333622 -0.0014224363
2545284730.0 0.0097355094 -0.0012138747
2550284700.0 0.0097923388 -0.0014836445
2555284670.0 0.0098377355 -0.0011510878
2560284640.0 0.0096301552 -0.0014487592
