!Created with skrf (http://scikit-rf.org).
# Hz S RI R 50.0 
!freq ReS11 ImS11
300000.0 1.002058509 0.0019122388
5299970.0 1.004904627 -0.007496308
10299940.0 1.004283072 -0.0137527582
15299910.0 1.00473038 -0.0197609382
20299880.0 1.003533118 -0.0258542128
25299850.0 1.003735109 -0.0316372786
30299820.0 1.00352961 -0.0384549884
35299790.0 1.003261671 -0.0441524012
40299760.0 1.003306557 -0.050569113
45299730.0 1.003234131 -0.0562805311
50299700.0 1.002765414 -0.0621137071
55299670.0 1.002271071 -0.0685086374
60299640.0 1.001576112 -0.0748381704
65299610.0 1.001245066 -0.0803646206
70299580.0 1.000665247 -0.0865148198
75299550.0 0.9999863814 -0.092871703
80299520.0 0.9994044413 -0.0989203113
85299490.0 0.9982535027 -0.1047387863
90299460.0 0.9976562252 -0.1104403795
95299430.0 0.9974711611 -0.1173620098
100299400.0 0.9965581308 -0.123294346
105299370.0 0.9959217286 -0.1290913751
110299340.0 0.9951285739 -0.1351364034
115299310.0 0.9943462892 -0.1408144265
120299280.0 0.9934456924 -0.1479469554
125299250.0 0.9921099469 -0.1536938179
130299220.0 0.991343927 -0.1597503975
135299190.0 0.9908340887 -0.1653895123
140299160.0 0.9898464098 -0.171512608
145299130.0 0.988086443 -0.1773828525
150299100.0 0.9873396972 -0.1833796583
155299070.0 0.9861833239 -0.18928961
160299040.0 0.9851958938 -0.1952744232
165299010.0 0.9837121078 -0.201139502
170298980.0 0.9822058452 -0.2070037182
175298950.0 0.9802734535 -0.2127511668
180298920.0 0.9781546938 -0.2189478648
185298890.0 0.9772427996 -0.225303556
190298860.0 0.9769922671 -0.2308368322
195298830.0 0.9752743908 -0.2368023036
200298800.0 0.9738493928 -0.2425414422
205298770.0 0.9722114149 -0.2484235307
210298740.0 0.9706456338 -0.2543909238
215298710.0 0.9690818175 -0.2604536347
220298680.0 0.9672846855 -0.2662705167
225298650.0 0.965803572 -0.2715959985
230298620.0 0.9641790979 -0.2778789665
235298590.0 0.9623606944 -0.2841737961
240298560.0 0.960644593 -0.2894793577
245298530.0 0.9587119881 -0.2952831555
250298500.0 0.9575461948 -0.3010713464
255298470.0 0.9559892136 -0.3064858317
260298440.0 0.9535599879 -0.3122398872
265298410.0 0.95157084 -0.3179850023
270298380.0 0.9495858599 -0.3237356358
275298350.0 0.94763429 -0.3297154126
280298320.0 0.9457363094 -0.3350948328
285298290.0 0.9436273567 -0.3410356743
290298260.0 0.9415076041 -0.3467702901
295298230.0 0.9391423292 -0.3527866129
300298200.0 0.9361278281 -0.3581453039
305298170.0 0.9344023013 -0.3635550517
310298140.0 0.9320998797 -0.3698531149
315298110.0 0.9301571919 -0.3751529294
320298080.0 0.9280330655 -0.3810183694
325298050.0 0.9256378443 -0.3864244871
330298020.0 0.9229080985 -0.3916864519
335297990.0 0.9204824783 -0.3976288589
340297960.0 0.9179341974 -0.403315152
345297930.0 0.9160621978 -0.4082401115
350297900.0 0.91386786 -0.4141678198
355297870.0 0.9117328473 -0.4202501317
360297840.0 0.9089586799 -0.4257125473
365297810.0 0.9062146587 -0.431206396
370297780.0 0.9032541732 -0.4361671658
375297750.0 0.9000153854 -0.4414994614
380297720.0 0.8979184233 -0.4462361122
385297690.0 0.8946895868 -0.4522421748
390297660.0 0.8915736294 -0.4576266288
395297630.0 0.8888008976 -0.4626802325
400297600.0 0.8860189805 -0.4683436065
405297570.0 0.8825876367 -0.4735298608
410297540.0 0.880681086 -0.4790266186
415297510.0 0.8774393055 -0.4840564028
420297480.0 0.8746142002 -0.4894425441
425297450.0 0.8716047704 -0.4946541254
430297420.0 0.8682604389 -0.5000331946
435297390.0 0.8657609789 -0.5049499488
440297360.0 0.8624084587 -0.5102124084
445297330.0 0.8596672089 -0.5155902143
450297300.0 0.8556677847 -0.5205981722
455297270.0 0.8530087642 -0.5257040871
460297240.0 0.8496661574 -0.5308230754
465297210.0 0.8462895225 -0.5362884087
470297180.0 0.8431122225 -0.5408202528
475297150.0 0.840114678 -0.5463266839
480297120.0 0.8367291923 -0.5513905379
485297090.0 0.8329674072 -0.5566650549
490297060.0 0.829832869 -0.5614348147
495297030.0 0.8262054627 -0.5665325879
500297000.0 0.82297514 -0.5716999649
505296970.0 0.8195820719 -0.5764292919
510296940.0 0.8155965549 -0.5812705369
515296910.0 0.8120640422 -0.5863246362
520296880.0 0.807995515 -0.5910353774
525296850.0 0.8046542565 -0.5953629372
530296820.0 0.8015031977 -0.6007472552
535296790.0 0.7973817449 -0.6057745068
540296760.0 0.7933601985 -0.6100247603
545296730.0 0.7900420538 -0.6148767763
550296700.0 0.7863510374 -0.6199196596
555296670.0 0.7827863427 -0.6246119811
560296640.0 0.778841451 -0.629431063
565296610.0 0.775079169 -0.6339281807
570296580.0 0.7712286124 -0.6389274262
575296550.0 0.7674723622 -0.6439984643
580296520.0 0.7634170076 -0.6483053779
585296490.0 0.7594617184 -0.6527657846
590296460.0 0.7556312045 -0.6574189636
595296430.0 0.751647915 -0.661177815
600296400.0 0.747742984 -0.6661076302
605296370.0 0.7437417141 -0.6704644464
610296340.0 0.7393777718 -0.6751074196
615296310.0 0.7350012184 -0.6794381963
620296280.0 0.7315441079 -0.6837969803
625296250.0 0.7272842636 -0.6886334282
630296220.0 0.72246697 -0.6925247085
635296190.0 0.7191518447 -0.6972164772
640296160.0 0.7144903011 -0.701144685
645296130.0 0.7103466728 -0.705170391
650296100.0 0.7058798731 -0.7101118446
655296070.0 0.7017853743 -0.7141292396
660296040.0 0.6974720985 -0.7181923304
665296010.0 0.6928038717 -0.722436867
670295980.0 0.6885374997 -0.7262594107
675295950.0 0.6839684644 -0.7309161282
680295920.0 0.6801145035 -0.7355187336
685295890.0 0.6754013381 -0.7391884998
690295860.0 0.6704853073 -0.7434788217
695295830.0 0.6661049669 -0.7475924938
700295800.0 0.6620852365 -0.7511184707
705295770.0 0.6569629002 -0.7557468836
710295740.0 0.6523038362 -0.7591011914
715295710.0 0.6478200734 -0.7633041928
720295680.0 0.642937581 -0.7675324135
725295650.0 0.6382536477 -0.7713284532
730295620.0 0.6338143208 -0.7750744212
735295590.0 0.6290293613 -0.7785984361
740295560.0 0.6250571993 -0.7822733787
745295530.0 0.6197098131 -0.7859282172
750295500.0 0.6144343045 -0.7902311472
755295470.0 0.6104807922 -0.7936212426
760295440.0 0.6053407126 -0.7976987796
765295410.0 0.6003660733 -0.8011508881
770295380.0 0.5951795105 -0.8051870331
775295350.0 0.5904186281 -0.8083037074
780295320.0 0.5857590304 -0.8121141582
785295290.0 0.580605845 -0.8153703159
790295260.0 0.5751486195 -0.818771387
795295230.0 0.5706195806 -0.8229504164
800295200.0 0.5653344756 -0.8263303625
805295170.0 0.560223726 -0.8294436751
810295140.0 0.5560099565 -0.8326198126
815295110.0 0.5508487041 -0.8360901756
820295080.0 0.5460199445 -0.8398522015
825295050.0 0.5401696503 -0.8428257833
830295020.0 0.5348202421 -0.8457834226
835294990.0 0.5306154907 -0.8493078327
840294960.0 0.5247611444 -0.8522149316
845294930.0 0.5197397808 -0.8556597262
850294900.0 0.51478866 -0.8586132096
855294870.0 0.5091962862 -0.8615670308
860294840.0 0.5038174539 -0.8648629071
865294810.0 0.4990373631 -0.8679420894
870294780.0 0.4934123117 -0.8712115234
875294750.0 0.4886495255 -0.8737433734
880294720.0 0.4832078071 -0.8768425488
885294690.0 0.4774910535 -0.8798428287
890294660.0 0.4730396508 -0.8824754031
895294630.0 0.4672942778 -0.8853934419
900294600.0 0.4621259933 -0.8879816867
905294570.0 0.4563664991 -0.8912606022
910294540.0 0.4508932228 -0.8938337728
915294510.0 0.4447598399 -0.896031088
920294480.0 0.4403239613 -0.8992444356
925294450.0 0.4345168727 -0.9017349691
930294420.0 0.4288550129 -0.9049005473
935294390.0 0.4233904293 -0.9066673057
940294360.0 0.4181509029 -0.9096762657
945294330.0 0.41317052 -0.9123706988
950294300.0 0.4068864272 -0.9147444203
955294270.0 0.4010314492 -0.9170829045
960294240.0 0.3956305763 -0.9197905994
965294210.0 0.3892947185 -0.9215759431
970294180.0 0.3845593685 -0.9242294001
975294150.0 0.3780897124 -0.9265814867
980294120.0 0.3730490989 -0.9287590703
985294090.0 0.3674012233 -0.9312979407
990294060.0 0.3615438207 -0.9332733426
995294030.0 0.3564069011 -0.9360084068
1000294000.0 0.3503985805 -0.9380510398
1005293970.0 0.3449279353 -0.9400781081
1010293940.0 0.3384581339 -0.9420635266
1015293910.0 0.3329553328 -0.94344143
1020293880.0 0.327575038 -0.9463194265
1025293850.0 0.3225699182 -0.9478125167
1030293820.0 0.3162996482 -0.9506098165
1035293790.0 0.3103321655 -0.9518485201
1040293760.0 0.3044364136 -0.9536023348
1045293730.0 0.2985676814 -0.9552869945
1050293700.0 0.2928079603 -0.957768857
1055293670.0 0.2869486279 -0.9594018422
1060293640.0 0.2809238821 -0.960448358
1065293610.0 0.2748526861 -0.962555426
1070293580.0 0.2700173485 -0.9634139762
1075293550.0 0.2638718924 -0.9651890459
1080293520.0 0.2578782511 -0.9676132457
1085293490.0 0.2520485962 -0.9684307168
1090293460.0 0.2458265595 -0.9705645872
1095293430.0 0.2394280136 -0.9715693286
1100293400.0 0.2336168945 -0.9736586604
1105293370.0 0.2279932052 -0.9748867236
1110293340.0 0.2216985913 -0.9756761485
1115293310.0 0.2162433926 -0.9772817207
1120293280.0 0.210799889 -0.9782677298
1125293250.0 0.2048948997 -0.9803574374
1130293220.0 0.1989220401 -0.9810811004
1135293190.0 0.1927765006 -0.9815701575
1140293160.0 0.1859372726 -0.9833243179
1145293130.0 0.1796838849 -0.9841086217
1150293100.0 0.1736471717 -0.9856301282
1155293070.0 0.1673902482 -0.9862349923
1160293040.0 0.1616593436 -0.9873751825
1165293010.0 0.1554660305 -0.9884152925
1170292980.0 0.1495160412 -0.9895214004
1175292950.0 0.1435724765 -0.9900893734
1180292920.0 0.1378461354 -0.991115686
1185292890.0 0.1320455153 -0.9919911188
1190292860.0 0.1263433865 -0.9924767241
1195292830.0 0.1204371901 -0.9932476275
1200292800.0 0.1144166001 -0.9941869206
1205292770.0 0.1090066756 -0.9951094563
1210292740.0 0.1025424645 -0.9954282725
1215292710.0 0.0965919927 -0.9958402783
1220292680.0 0.0905992074 -0.996113984
1225292650.0 0.0841973473 -0.9969309464
1230292620.0 0.0777767415 -0.9976932219
1235292590.0 0.0714520648 -0.9978199785
1240292560.0 0.0656413476 -0.9984895131
1245292530.0 0.0596502074 -0.9984511885
1250292500.0 0.0533868848 -0.9986511437
1255292470.0 0.047634375 -0.9990005007
1260292440.0 0.0412938975 -0.999356343
1265292410.0 0.035825759 -0.9996896123
1270292380.0 0.0294788299 -0.9997314778
1275292350.0 0.0233089419 -0.9995274912
1280292320.0 0.0168247082 -1.000403886
1285292290.0 0.0104335627 -1.00017455
1290292260.0 0.0049587632 -1.000503765
1295292230.0 -0.0005215241 -1.001035276
1300292200.0 -0.0067719483 -0.9997552582
1305292170.0 -0.0130023483 -1.000281224
1310292140.0 -0.0191904872 -1.00025593
1315292110.0 -0.0258209311 -0.9997851126
1320292080.0 -0.0321056251 -0.9992973516
1325292050.0 -0.0373655241 -0.9992225068
1330292020.0 -0.0437864119 -0.9991614794
1335291990.0 -0.0504592516 -0.9985427567
1340291960.0 -0.056674375 -0.9982911702
1345291930.0 -0.0627791757 -0.9979822948
1350291900.0 -0.0690655383 -0.9972503664
1355291870.0 -0.07470185 -0.9968182284
1360291840.0 -0.0805567999 -0.9965525526
1365291810.0 -0.0864757871 -0.996312877
1370291780.0 -0.0924312357 -0.9957794748
1375291750.0 -0.0984522247 -0.9947861078
1380291720.0 -0.1040202617 -0.9937161756
1385291690.0 -0.1105892428 -0.9931133684
1390291660.0 -0.1175378966 -0.9929146457
1395291630.0 -0.1227094349 -0.991684001
1400291600.0 -0.128893821 -0.9908194082
1405291570.0 -0.1349890447 -0.9905865116
1410291540.0 -0.1410464565 -0.9894022726
1415291510.0 -0.1473105441 -0.9885952618
1420291480.0 -0.1530676149 -0.9877159279
1425291450.0 -0.1587391259 -0.9867010142
1430291420.0 -0.1645335163 -0.9858562071
1435291390.0 -0.1705743269 -0.9844862447
1440291360.0 -0.1764852098 -0.9834979818
1445291330.0 -0.1825290111 -0.9825495169
1450291300.0 -0.1883720314 -0.9808646834
1455291270.0 -0.1944038295 -0.9801497007
1460291240.0 -0.1999753481 -0.9787750467
1465291210.0 -0.2065550637 -0.9774925133
1470291180.0 -0.2122010004 -0.9762129005
1475291150.0 -0.2184361004 -0.974843287
1480291120.0 -0.2241427399 -0.9738871319
1485291090.0 -0.2299282793 -0.9720433285
1490291060.0 -0.2360528043 -0.9706929096
1495291030.0 -0.2420037274 -0.9692431443
1500291000.0 -0.247713532 -0.96738394
1505290970.0 -0.2536501369 -0.9661068859
1510290940.0 -0.2591244226 -0.9651008908
1515290910.0 -0.2649565824 -0.9627744791
1520290880.0 -0.2709545264 -0.9614789922
1525290850.0 -0.2766965712 -0.9601777766
1530290820.0 -0.282617756 -0.9581462386
1535290790.0 -0.2883292342 -0.9558062984
1540290760.0 -0.2946866005 -0.9542181275
1545290730.0 -0.3005405677 -0.9524270861
1550290700.0 -0.3064129253 -0.9505293363
1555290670.0 -0.3117254396 -0.948714428
1560290640.0 -0.3174549338 -0.946425487
1565290610.0 -0.3231750105 -0.9448824327
1570290580.0 -0.3288155992 -0.9427936682
1575290550.0 -0.3346482114 -0.9408868567
1580290520.0 -0.3406914473 -0.9386020786
1585290490.0 -0.3468456288 -0.9366819968
1590290460.0 -0.3520775658 -0.9341637503
1595290430.0 -0.357348265 -0.9319050689
1600290400.0 -0.3632355364 -0.9301388481
1605290370.0 -0.3692110414 -0.927281397
1610290340.0 -0.3751952179 -0.9252673453
1615290310.0 -0.3802475529 -0.9229180994
1620290280.0 -0.3858368661 -0.9202721565
1625290250.0 -0.3915028851 -0.9186232934
1630290220.0 -0.3968992205 -0.9160636502
1635290190.0 -0.4018152103 -0.913529955
1640290160.0 -0.407468678 -0.9106841012
1645290130.0 -0.4126794935 -0.9084650454
1650290100.0 -0.4188762221 -0.9054645095
1655290070.0 -0.424088722 -0.9035596749
1660290040.0 -0.4300905813 -0.8999572821
1665290010.0 -0.4350012625 -0.897741797
1670289980.0 -0.4402891683 -0.8956511112
1675289950.0 -0.4452739974 -0.8923755535
1680289920.0 -0.4512991404 -0.889511766
1685289890.0 -0.4568342868 -0.886286837
1690289860.0 -0.4625845922 -0.8837065548
1695289830.0 -0.4682858136 -0.8807919444
1700289800.0 -0.4731462828 -0.8783407895
1705289770.0 -0.4789196979 -0.8750320826
1710289740.0 -0.4839019851 -0.8717730027
1715289710.0 -0.4896785727 -0.8683034195
1720289680.0 -0.4944548445 -0.8658225932
1725289650.0 -0.4998548897 -0.8633520228
1730289620.0 -0.5044720402 -0.8601230639
1735289590.0 -0.510732743 -0.8569843456
1740289560.0 -0.515507884 -0.8537134592
1745289530.0 -0.5205635682 -0.8496303957
1750289500.0 -0.5255646819 -0.847225057
1755289470.0 -0.530456565 -0.8439980192
1760289440.0 -0.5359472104 -0.8406906823
1765289410.0 -0.5408164449 -0.8376357127
1770289380.0 -0.546021234 -0.8345181527
1775289350.0 -0.5508648259 -0.8307104969
1780289320.0 -0.5561764073 -0.827135045
1785289290.0 -0.5608094049 -0.8237983803
1790289260.0 -0.5662612632 -0.8202757948
1795289230.0 -0.5716469379 -0.8161824748
1800289200.0 -0.5764042297 -0.8131430044
1805289170.0 -0.5809720441 -0.8095095638
1810289140.0 -0.5860255856 -0.8058078189
1815289110.0 -0.5906925031 -0.8027842367
1820289080.0 -0.5955431072 -0.7989329867
1825289050.0 -0.5998186811 -0.7950545498
1830289020.0 -0.6042669726 -0.7914860104
1835288990.0 -0.6093430762 -0.7876318801
1840288960.0 -0.6139898694 -0.7841125107
1845288930.0 -0.6187908667 -0.7804890737
1850288900.0 -0.6242152135 -0.7766161822
1855288870.0 -0.6286762232 -0.7724791165
1860288840.0 -0.6333881397 -0.7686737026
1865288810.0 -0.6382650833 -0.7646473703
1870288780.0 -0.6429862896 -0.7608260189
1875288750.0 -0.6478658965 -0.7563935593
1880288720.0 -0.6522351555 -0.7524845628
1885288690.0 -0.6566701573 -0.7485308132
1890288660.0 -0.6613912676 -0.744007157
1895288630.0 -0.665553539 -0.7401373226
1900288600.0 -0.6702317585 -0.7358779667
1905288570.0 -0.6741811066 -0.7320862224
1910288540.0 -0.6790016574 -0.7277796409
1915288510.0 -0.6833400024 -0.723421866
1920288480.0 -0.6879636751 -0.7195925123
1925288450.0 -0.6924165083 -0.7155498227
1930288420.0 -0.6964263049 -0.7106886096
1935288390.0 -0.7008671561 -0.7062374733
1940288360.0 -0.7050430976 -0.701922616
1945288330.0 -0.7098743252 -0.6975515686
1950288300.0 -0.7142899302 -0.6928048815
1955288270.0 -0.7183298191 -0.6878845727
1960288240.0 -0.7221216579 -0.6837107242
1965288210.0 -0.7269521253 -0.6787197818
1970288180.0 -0.7308261376 -0.6746465061
1975288150.0 -0.7347289591 -0.6703759116
1980288120.0 -0.7386681907 -0.6657999399
1985288090.0 -0.7424773437 -0.6617530937
1990288060.0 -0.7461531788 -0.6571545534
1995288030.0 -0.7497270126 -0.652310389
2000288000.0 -0.7540235997 -0.6478006313
2005287970.0 -0.757551314 -0.6435770647
2010287940.0 -0.7609755425 -0.6384001683
2015287910.0 -0.765555955 -0.6337308505
2020287880.0 -0.7693847306 -0.6294395463
2025287850.0 -0.7731410596 -0.6247727681
2030287820.0 -0.7774535346 -0.6198962592
2035287790.0 -0.7812003294 -0.6146204726
2040287760.0 -0.7847120722 -0.6096319669
2045287730.0 -0.7884910331 -0.6050246842
2050287700.0 -0.7915165392 -0.5997627412
2055287670.0 -0.7956804381 -0.594984478
2060287640.0 -0.7993742099 -0.5906356513
2065287610.0 -0.8033935531 -0.5854384031
2070287580.0 -0.8059035702 -0.5804821225
2075287550.0 -0.8100902944 -0.5756802057
2080287520.0 -0.8129180234 -0.5705331358
2085287490.0 -0.8166235974 -0.5656908997
2090287460.0 -0.8203550536 -0.5610890232
2095287430.0 -0.8232863346 -0.5553787132
2100287400.0 -0.8271318255 -0.5496859055
2105287370.0 -0.8301623169 -0.5451127485
2110287340.0 -0.8335958707 -0.5401153576
2115287310.0 -0.8363883781 -0.5343539553
2120287280.0 -0.8400573344 -0.5299458201
2125287250.0 -0.8433681494 -0.5247771824
2130287220.0 -0.8463534964 -0.5189977286
2135287190.0 -0.8497414381 -0.5137964162
2140287160.0 -0.8531056364 -0.5088189415
2145287130.0 -0.8563285165 -0.5024555437
2150287100.0 -0.8594514745 -0.4979710116
2155287070.0 -0.8619966875 -0.4928780674
2160287040.0 -0.8648296324 -0.4873389844
2165287010.0 -0.8678713608 -0.4819092833
2170286980.0 -0.8704367678 -0.4763386456
2175286950.0 -0.8734234183 -0.4713309542
2180286920.0 -0.8759966494 -0.4662785913
2185286890.0 -0.8787771788 -0.4616877814
2190286860.0 -0.8808895298 -0.4561620901
2195286830.0 -0.8839699188 -0.450488975
2200286800.0 -0.886753562 -0.4452746362
2205286770.0 -0.8894575899 -0.4400349301
2210286740.0 -0.8920129829 -0.4345473509
2215286710.0 -0.8946172223 -0.4280002662
2220286680.0 -0.8970791159 -0.4230388378
2225286650.0 -0.9002958724 -0.4175635948
2230286620.0 -0.9026441652 -0.4113518982
2235286590.0 -0.9047166077 -0.4058705643
2240286560.0 -0.9075775884 -0.4010087109
2245286530.0 -0.9096802229 -0.3954807459
2250286500.0 -0.9122634057 -0.389323481
2255286470.0 -0.9151382576 -0.3834261834
2260286440.0 -0.9172509618 -0.3773141654
2265286410.0 -0.9197246062 -0.3722019346
2270286380.0 -0.921719885 -0.3662965007
2275286350.0 -0.9240856584 -0.36112427
2280286320.0 -0.9258473885 -0.3548504702
2285286290.0 -0.9276188459 -0.3486382848
2290286260.0 -0.9301663026 -0.3432103499
2295286230.0 -0.9325326487 -0.3372607314
2300286200.0 -0.9347334214 -0.3319156998
2305286170.0 -0.9364127221 -0.3259882329
2310286140.0 -0.9383281404 -0.3200130953
2315286110.0 -0.9406496569 -0.3139411458
2320286080.0 -0.9420463221 -0.3084010937
2325286050.0 -0.9442799794 -0.3028770098
2330286020.0 -0.9463606502 -0.2969068947
2335285990.0 -0.94796776 -0.2913566032
2340285960.0 -0.9494143904 -0.2854554694
2345285930.0 -0.9509016263 -0.279843637
2350285900.0 -0.9526584327 -0.2731885598
2355285870.0 -0.9540414438 -0.2678386342
2360285840.0 -0.9562131647 -0.2617860781
2365285810.0 -0.9572867907 -0.25613285
2370285780.0 -0.9587010755 -0.2499480962
2375285750.0 -0.9604582837 -0.2439283765
2380285720.0 -0.9617382234 -0.2385792109
2385285690.0 -0.9632325335 -0.2328713065
2390285660.0 -0.9647726586 -0.2266628096
2395285630.0 -0.9660441193 -0.2213575046
2400285600.0 -0.9673892409 -0.2154698633
2405285570.0 -0.9684634774 -0.2091967954
2410285540.0 -0.9691850327 -0.2037214373
2415285510.0 -0.9700477189 -0.1978319777
2420285480.0 -0.9721485038 -0.1919242491
2425285450.0 -0.9728987149 -0.1860488721
2430285420.0 -0.9739851219 -0.1798625134
2435285390.0 -0.9753103953 -0.1737438349
2440285360.0 -0.975904354 -0.1678155991
2445285330.0 -0.9768986218 -0.1620725704
2450285300.0 -0.9776809623 -0.1556504851
2455285270.0 -0.9790778133 -0.1492524275
2460285240.0 -0.9798964896 -0.1435762507
2465285210.0 -0.980945516 -0.1373970662
2470285180.0 -0.9811237557 -0.1312228568
2475285150.0 -0.9820319005 -0.1251390523
2480285120.0 -0.982948155 -0.1194986292
2485285090.0 -0.98347284 -0.1129545599
2490285060.0 -0.9845200681 -0.1064769563
2495285030.0 -0.9844504778 -0.1005806161
