!Created with skrf (http://scikit-rf.org).
# Hz S RI R 50.0 
!freq ReS11 ImS11
45000000.0 -0.08175277709960938 -0.0933074951171875
49995500.0 -0.10237884521484375 -0.08917617797851562
54991000.0 -0.12285995483398438 -0.08105087280273438
59986500.0 -0.1416473388671875 -0.07917022705078125
64982000.0 -0.1602630615234375 -0.06981658935546875
69977500.0 -0.17894744873046875 -0.05521392822265625
74973000.0 -0.19638824462890625 -0.03757476806640625
79968500.0 -0.21199798583984375 -0.016571044921875
84964000.0 -0.225555419921875 0.0074310302734375
89959500.0 -0.23622894287109375 0.03427886962890625
94955000.0 -0.2433319091796875 0.06397247314453125
99950500.0 -0.2461700439453125 0.09613800048828125
104946000.0 -0.2445831298828125 0.12994384765625
109941500.0 -0.2389068603515625 0.1645965576171875
114937000.0 -0.22740936279296875 0.19998931884765625
119932500.0 -0.2106475830078125 0.234832763671875
124928000.0 -0.1890869140625 0.268646240234375
129923500.0 -0.1617584228515625 0.2999114990234375
134919000.0 -0.1296539306640625 0.3287811279296875
139914500.0 -0.0922698974609375 0.3539276123046875
144910000.0 -0.051239013671875 0.3744964599609375
149905500.0 -0.0062408447265625 0.390289306640625
154901000.0 0.0414581298828125 0.4003448486328125
159896500.0 0.090972900390625 0.4037322998046875
164892000.0 0.14178466796875 0.4013824462890625
169887500.0 0.1930084228515625 0.39239501953125
174883000.0 0.24371337890625 0.3766632080078125
179878500.0 0.293548583984375 0.354522705078125
184874000.0 0.340545654296875 0.325836181640625
189869500.0 0.3852081298828125 0.29083251953125
194865000.0 0.426239013671875 0.250396728515625
199860500.0 0.462921142578125 0.2046966552734375
204856000.0 0.4941558837890625 0.15350341796875
209851500.0 0.5201416015625 0.09808349609375
214847000.0 0.540008544921875 0.038543701171875
219842500.0 0.55322265625 -0.02435302734375
224838000.0 0.558837890625 -0.0897216796875
229833500.0 0.55694580078125 -0.156951904296875
234829000.0 0.546783447265625 -0.224609375
239824500.0 0.528228759765625 -0.292449951171875
244820000.0 0.500823974609375 -0.35894775390625
249815500.0 0.4649658203125 -0.4229736328125
254811000.0 0.4451904296875 -0.4703521728515625
259806500.0 0.395721435546875 -0.5284423828125
264802000.0 0.338714599609375 -0.581573486328125
269797500.0 0.274139404296875 -0.6279296875
274793000.0 0.20361328125 -0.66668701171875
279788500.0 0.1273193359375 -0.696746826171875
284784000.0 0.04736328125 -0.717315673828125
289779500.0 -0.035797119140625 -0.728790283203125
294775000.0 -0.120941162109375 -0.72998046875
299770500.0 -0.20587158203125 -0.721038818359375
304766000.0 -0.290557861328125 -0.702056884765625
309761500.0 -0.372283935546875 -0.672882080078125
314757000.0 -0.45111083984375 -0.63385009765625
319752500.0 -0.525421142578125 -0.58599853515625
324748000.0 -0.594879150390625 -0.529510498046875
329743500.0 -0.658233642578125 -0.465301513671875
334739000.0 -0.715179443359375 -0.3935546875
339734500.0 -0.764190673828125 -0.31524658203125
344730000.0 -0.8046875 -0.230865478515625
349725500.0 -0.8365478515625 -0.141510009765625
354721000.0 -0.85888671875 -0.0477294921875
359716500.0 -0.870758056640625 0.04974365234375
364712000.0 -0.87158203125 0.149658203125
369707500.0 -0.8609619140625 0.251373291015625
374703000.0 -0.83831787109375 0.352935791015625
379698500.0 -0.803192138671875 0.454010009765625
384694000.0 -0.755218505859375 0.551605224609375
389689500.0 -0.6949462890625 0.644439697265625
394685000.0 -0.622039794921875 0.730499267578125
399680500.0 -0.5382080078125 0.808441162109375
404676000.0 -0.4434814453125 0.876068115234375
409671500.0 -0.34033203125 0.93328857421875
414667000.0 -0.229949951171875 0.974945068359375
419662500.0 -0.11419677734375 1.00347900390625
424658000.0 0.00531005859375 1.01715087890625
429653500.0 0.1265869140625 1.01568603515625
434649000.0 0.246826171875 0.9971923828125
439644500.0 0.36199951171875 0.965118408203125
444640000.0 0.471466064453125 0.92047119140625
449635500.0 0.574737548828125 0.864654541015625
454631000.0 0.671722412109375 0.79864501953125
459626500.0 0.76165771484375 0.72137451171875
464622000.0 0.84185791015625 0.634613037109375
469617500.0 0.911651611328125 0.5396728515625
474613000.0 0.97125244140625 0.438201904296875
479608500.0 1.0201416015625 0.3311767578125
484604000.0 1.05853271484375 0.21905517578125
489599500.0 1.0849609375 0.10272216796875
494595000.0 1.10009765625 -0.01702880859375
499590500.0 1.10321044921875 -0.1392822265625
504586000.0 1.0933837890625 -0.2633056640625
509581500.0 1.0701904296875 -0.38751220703125
514577000.0 1.0323486328125 -0.51141357421875
519572500.0 0.980072021484375 -0.633209228515625
524568000.0 0.911956787109375 -0.7510986328125
529563500.0 0.828399658203125 -0.862335205078125
534559000.0 0.729766845703125 -0.96453857421875
539554500.0 0.6165771484375 -1.05474853515625
544550000.0 0.49188232421875 -1.13031005859375
549545500.0 0.3570556640625 -1.1898193359375
554541000.0 0.21380615234375 -1.231689453125
559536500.0 0.067626953125 -1.255859375
564532000.0 -0.0814208984375 -1.26123046875
569527500.0 -0.23089599609375 -1.247802734375
574523000.0 -0.37646484375 -1.21600341796875
579518500.0 -0.5174560546875 -1.166748046875
584514000.0 -0.6505126953125 -1.10028076171875
589509500.0 -0.77392578125 -1.01904296875
594505000.0 -0.885589599609375 -0.924774169921875
599500500.0 -0.985198974609375 -0.81866455078125
604496000.0 -1.0711669921875 -0.70355224609375
609491500.0 -1.14385986328125 -0.58087158203125
614487000.0 -1.20263671875 -0.4525146484375
619482500.0 -1.2474365234375 -0.3193359375
624478000.0 -1.2789306640625 -0.18316650390625
629473500.0 -1.2967529296875 -0.04498291015625
634469000.0 -1.30096435546875 0.09478759765625
639464500.0 -1.2916259765625 0.23529052734375
644460000.0 -1.26861572265625 0.37548828125
649455500.0 -1.2318115234375 0.5146484375
654451000.0 -1.17987060546875 0.65185546875
659446500.0 -1.11346435546875 0.7857666015625
664442000.0 -1.03204345703125 0.91571044921875
669437500.0 -0.9342041015625 1.03887939453125
674433000.0 -0.81982421875 1.15350341796875
679428500.0 -0.69036865234375 1.2559814453125
684424000.0 -0.545166015625 1.3446044921875
689419500.0 -0.3861083984375 1.41607666015625
694415000.0 -0.2156982421875 1.46728515625
699410500.0 -0.03692626953125 1.496337890625
704406000.0 0.146728515625 1.500732421875
709401500.0 0.3310546875 1.4801025390625
714397000.0 0.51171875 1.43402099609375
719392500.0 0.68463134765625 1.363525390625
724388000.0 0.8455810546875 1.27099609375
729383500.0 0.99188232421875 1.15887451171875
734379000.0 1.11993408203125 1.0284423828125
739374500.0 1.22906494140625 0.88592529296875
744370000.0 1.3179931640625 0.7340087890625
749365500.0 1.38629150390625 0.5740966796875
754361000.0 1.43597412109375 0.411865234375
759356500.0 1.46661376953125 0.24786376953125
764352000.0 1.47894287109375 0.084716796875
769347500.0 1.47467041015625 -0.0772705078125
774343000.0 1.45452880859375 -0.235107421875
779338500.0 1.4189453125 -0.3892822265625
784334000.0 1.3697509765625 -0.53826904296875
789329500.0 1.30718994140625 -0.681884765625
794325000.0 1.2314453125 -0.8192138671875
799320500.0 1.1424560546875 -0.94940185546875
804316000.0 1.040283203125 -1.07196044921875
809311500.0 0.92529296875 -1.18511962890625
814307000.0 0.79742431640625 -1.28826904296875
819302500.0 0.65771484375 -1.3787841796875
824298000.0 0.5054931640625 -1.4560546875
829293500.0 0.34375 -1.51702880859375
834289000.0 0.1705322265625 -1.55950927734375
839284500.0 -0.008544921875 -1.58154296875
844280000.0 -0.12640380859375 -1.61212158203125
849275500.0 -0.31573486328125 -1.5977783203125
854271000.0 -0.50396728515625 -1.55926513671875
859266500.0 -0.68707275390625 -1.496337890625
864262000.0 -0.86090087890625 -1.40924072265625
869257500.0 -1.02301025390625 -1.30072021484375
874253000.0 -1.16888427734375 -1.1722412109375
879248500.0 -1.29718017578125 -1.02716064453125
884244000.0 -1.40472412109375 -0.868896484375
889239500.0 -1.49224853515625 -0.70037841796875
894235000.0 -1.5582275390625 -0.52532958984375
899230500.0 -1.603759765625 -0.34564208984375
904226000.0 -1.62835693359375 -0.16357421875
909221500.0 -1.63262939453125 0.0185546875
914217000.0 -1.6165771484375 0.19879150390625
919212500.0 -1.58184814453125 0.37420654296875
924208000.0 -1.52886962890625 0.5428466796875
929203500.0 -1.46002197265625 0.70306396484375
934199000.0 -1.376708984375 0.8541259765625
939194500.0 -1.27984619140625 0.9970703125
944190000.0 -1.170166015625 1.1295166015625
949185500.0 -1.04766845703125 1.25189208984375
954181000.0 -0.91253662109375 1.3634033203125
959176500.0 -0.76605224609375 1.46221923828125
964172000.0 -0.6085205078125 1.54754638671875
969167500.0 -0.43896484375 1.616943359375
974163000.0 -0.25946044921875 1.66937255859375
979158500.0 -0.072021484375 1.70196533203125
984154000.0 0.123046875 1.71343994140625
989149500.0 0.3209228515625 1.7015380859375
994145000.0 0.519775390625 1.6639404296875
999140500.0 0.7159423828125 1.601806640625
1004136000.0 0.9049072265625 1.51422119140625
1009131500.0 1.0821533203125 1.40191650390625
1014127000.0 1.24432373046875 1.26617431640625
1019122500.0 1.3875732421875 1.11065673828125
1024118000.0 1.50909423828125 0.9375
1029113500.0 1.606689453125 0.75115966796875
1034109000.0 1.6788330078125 0.555908203125
1039104500.0 1.7264404296875 0.35504150390625
1044100000.0 1.747802734375 0.15289306640625
1049095500.0 1.74542236328125 -0.04791259765625
1054091000.0 1.720703125 -0.24359130859375
1059086500.0 1.675048828125 -0.432373046875
1064082000.0 1.60986328125 -0.6126708984375
1069077500.0 1.5272216796875 -0.782470703125
1074073000.0 1.42877197265625 -0.941162109375
1079068500.0 1.31591796875 -1.0872802734375
1084064000.0 1.18988037109375 -1.22161865234375
1089059500.0 1.0517578125 -1.342529296875
1094055000.0 0.9027099609375 -1.44915771484375
1099050500.0 0.74249267578125 -1.541748046875
1104046000.0 0.57354736328125 -1.61737060546875
1109041500.0 0.3951416015625 -1.67681884765625
1114037000.0 0.21026611328125 -1.71746826171875
1119032500.0 0.01910400390625 -1.73876953125
1124028000.0 -0.17578125 -1.73895263671875
1129023500.0 -0.37261962890625 -1.7171630859375
1134019000.0 -0.56854248046875 -1.67266845703125
1139014500.0 -0.76055908203125 -1.60406494140625
1144010000.0 -0.9453125 -1.51153564453125
1149005500.0 -1.11871337890625 -1.39605712890625
1154001000.0 -1.27801513671875 -1.25836181640625
1158996500.0 -1.41937255859375 -1.1007080078125
1163992000.0 -1.5401611328125 -0.92578125
1168987500.0 -1.63677978515625 -0.736572265625
1173983000.0 -1.70965576171875 -0.53704833984375
1178978500.0 -1.75506591796875 -0.3309326171875
1183974000.0 -1.77490234375 -0.122802734375
1188969500.0 -1.76861572265625 0.08477783203125
1193965000.0 -1.73736572265625 0.28717041015625
1198960500.0 -1.68292236328125 0.48114013671875
1203956000.0 -1.607177734375 0.66497802734375
1208951500.0 -1.51190185546875 0.83599853515625
1213947000.0 -1.400146484375 0.9932861328125
1218942500.0 -1.2738037109375 1.134521484375
1223938000.0 -1.13494873046875 1.25970458984375
1228933500.0 -0.98565673828125 1.36871337890625
1233929000.0 -0.827392578125 1.46002197265625
1238924500.0 -0.6630859375 1.53436279296875
1243920000.0 -0.4925537109375 1.591064453125
1248915500.0 -0.31964111328125 1.6304931640625
1253911000.0 -0.1434326171875 1.65240478515625
1258906500.0 0.03363037109375 1.65679931640625
1263902000.0 0.21051025390625 1.6436767578125
1268897500.0 0.3865966796875 1.6129150390625
1273893000.0 0.55615234375 1.56329345703125
1278888500.0 0.72222900390625 1.496826171875
1283884000.0 0.88134765625 1.4122314453125
1288879500.0 1.0325927734375 1.31097412109375
1293875000.0 1.17181396484375 1.19305419921875
1298870500.0 1.2987060546875 1.05987548828125
1303866000.0 1.41107177734375 0.912353515625
1308861500.0 1.506591796875 0.75201416015625
1313857000.0 1.584228515625 0.58123779296875
1318852500.0 1.642333984375 0.40130615234375
1323848000.0 1.67999267578125 0.21539306640625
1328843500.0 1.6962890625 0.02581787109375
1333839000.0 1.6907958984375 -0.165283203125
1338834500.0 1.66290283203125 -0.35504150390625
1343830000.0 1.61444091796875 -0.54095458984375
1348825500.0 1.5445556640625 -0.7208251953125
1353821000.0 1.45465087890625 -0.89166259765625
1358816500.0 1.344970703125 -1.05133056640625
1363812000.0 1.21697998046875 -1.19781494140625
1368807500.0 1.07354736328125 -1.3282470703125
1373803000.0 0.9146728515625 -1.44073486328125
1378798500.0 0.74383544921875 -1.5341796875
1383794000.0 0.56365966796875 -1.6070556640625
1388789500.0 0.376220703125 -1.65777587890625
1393785000.0 0.184814453125 -1.686279296875
1398780500.0 -0.00750732421875 -1.69207763671875
1403776000.0 -0.19927978515625 -1.67486572265625
1408771500.0 -0.38446044921875 -1.635986328125
1413767000.0 -0.5643310546875 -1.575927734375
1418762500.0 -0.73321533203125 -1.49713134765625
1423758000.0 -0.89080810546875 -1.4000244140625
1428753500.0 -1.035400390625 -1.2877197265625
1433749000.0 -1.165283203125 -1.1612548828125
1438744500.0 -1.27972412109375 -1.02349853515625
1443740000.0 -1.37835693359375 -0.875244140625
1448735500.0 -1.45977783203125 -0.71929931640625
1453731000.0 -1.5247802734375 -0.55706787109375
1458726500.0 -1.57305908203125 -0.38958740234375
1463722000.0 -1.60406494140625 -0.218994140625
1468717500.0 -1.617919921875 -0.04644775390625
1473713000.0 -1.6146240234375 0.12725830078125
1478708500.0 -1.5936279296875 0.2999267578125
1483704000.0 -1.5557861328125 0.47149658203125
1488699500.0 -1.50006103515625 0.6385498046875
1493695000.0 -1.42657470703125 0.8017578125
1498690500.0 -1.335205078125 0.9571533203125
1503686000.0 -1.22552490234375 1.1043701171875
1508681500.0 -1.09930419921875 1.23992919921875
1513677000.0 -0.95556640625 1.36224365234375
1518672500.0 -0.79669189453125 1.4683837890625
1523668000.0 -0.6240234375 1.55499267578125
1528663500.0 -0.44049072265625 1.6202392578125
1533659000.0 -0.2481689453125 1.66259765625
1538654500.0 -0.051025390625 1.6802978515625
1543650000.0 0.14617919921875 1.6724853515625
1548645500.0 0.34051513671875 1.63873291015625
1553641000.0 0.5284423828125 1.58135986328125
1558636500.0 0.70489501953125 1.50079345703125
1563632000.0 0.8681640625 1.4002685546875
1568627500.0 1.01446533203125 1.28179931640625
1573623000.0 1.14495849609375 1.1490478515625
1578618500.0 1.2550048828125 1.00469970703125
1583614000.0 1.34674072265625 0.8519287109375
1588609500.0 1.41986083984375 0.69268798828125
1593605000.0 1.474365234375 0.5301513671875
1598600500.0 1.5107421875 0.3663330078125
1603596000.0 1.5302734375 0.20196533203125
1608591500.0 1.533447265625 0.039306640625
1613587000.0 1.52093505859375 -0.12066650390625
1618582500.0 1.493896484375 -0.27764892578125
1623578000.0 1.45245361328125 -0.43017578125
1628573500.0 1.39715576171875 -0.57806396484375
1633569000.0 1.32830810546875 -0.7200927734375
1638564500.0 1.2462158203125 -0.85528564453125
1643560000.0 1.15057373046875 -0.98211669921875
1648555500.0 1.04193115234375 -1.1004638671875
1653551000.0 0.920654296875 -1.2093505859375
1658546500.0 0.7872314453125 -1.30474853515625
1663542000.0 0.64276123046875 -1.38720703125
1668537500.0 0.4879150390625 -1.45343017578125
1673533000.0 0.32403564453125 -1.50311279296875
1678528500.0 0.15374755859375 -1.53277587890625
1683524000.0 -0.02008056640625 -1.5421142578125
1688519500.0 -0.195068359375 -1.530029296875
1693515000.0 -0.3671875 -1.49591064453125
1698510500.0 -0.53448486328125 -1.4407958984375
1703506000.0 -0.69232177734375 -1.36541748046875
1708501500.0 -0.83758544921875 -1.27386474609375
1713497000.0 -0.96954345703125 -1.16552734375
1718492500.0 -1.08636474609375 -1.0439453125
1723488000.0 -1.1859130859375 -0.91217041015625
1728483500.0 -1.2689208984375 -0.77239990234375
1733479000.0 -1.3349609375 -0.6270751953125
1738474500.0 -1.38427734375 -0.4793701171875
1743470000.0 -1.4185791015625 -0.32952880859375
1748465500.0 -1.43719482421875 -0.17999267578125
1753461000.0 -1.44219970703125 -0.03094482421875
1758456500.0 -1.43353271484375 0.11602783203125
1763452000.0 -1.41229248046875 0.26092529296875
1768447500.0 -1.3780517578125 0.40277099609375
1773443000.0 -1.33184814453125 0.5416259765625
1778438500.0 -1.27294921875 0.67633056640625
1783434000.0 -1.2017822265625 0.80743408203125
1788429500.0 -1.11700439453125 0.93182373046875
1793425000.0 -1.018798828125 1.05120849609375
1798420500.0 -0.90692138671875 1.1611328125
1803416000.0 -0.78216552734375 1.260986328125
1808411500.0 -0.64361572265625 1.34918212890625
1813407000.0 -0.49346923828125 1.421875
1818402500.0 -0.33154296875 1.4776611328125
1823398000.0 -0.16241455078125 1.513916015625
1828393500.0 0.013671875 1.5281982421875
1833389000.0 0.19073486328125 1.5201416015625
1838384500.0 0.366455078125 1.48870849609375
1843380000.0 0.53692626953125 1.43426513671875
1848375500.0 0.69866943359375 1.3583984375
1853371000.0 0.8475341796875 1.2633056640625
1858366500.0 0.98028564453125 1.15185546875
1863362000.0 1.09698486328125 1.02667236328125
1868357500.0 1.19580078125 0.89093017578125
1873353000.0 1.27691650390625 0.747802734375
1878348500.0 1.33978271484375 0.60040283203125
1883344000.0 1.38592529296875 0.450439453125
1888339500.0 1.4156494140625 0.2998046875
1893335000.0 1.430419921875 0.15020751953125
1898330500.0 1.43072509765625 0.0020751953125
1903326000.0 1.41796875 -0.1436767578125
1908321500.0 1.3927001953125 -0.28607177734375
1913317000.0 1.35577392578125 -0.4248046875
1918312500.0 1.306884765625 -0.56097412109375
1923308000.0 1.2457275390625 -0.69189453125
1928303500.0 1.17218017578125 -0.8179931640625
1933299000.0 1.0869140625 -0.9388427734375
1938294500.0 0.989013671875 -1.05303955078125
1943290000.0 0.87835693359375 -1.1583251953125
1948285500.0 0.75494384765625 -1.25372314453125
1953281000.0 0.61932373046875 -1.337646484375
1958276500.0 0.4725341796875 -1.40667724609375
1963272000.0 0.3153076171875 -1.46063232421875
1968267500.0 0.15081787109375 -1.4949951171875
1973263000.0 -0.020263671875 -1.509765625
1978258500.0 -0.1932373046875 -1.5028076171875
1983254000.0 -0.36505126953125 -1.47406005859375
1988249500.0 -0.532470703125 -1.42340087890625
1993245000.0 -0.6927490234375 -1.35205078125
1998240500.0 -0.84051513671875 -1.2611083984375
2003236000.0 -0.9754638671875 -1.1539306640625
2008231500.0 -1.09503173828125 -1.0325927734375
2013227000.0 -1.19805908203125 -0.89910888671875
2018222500.0 -1.28326416015625 -0.75714111328125
2023218000.0 -1.35113525390625 -0.60870361328125
2028213500.0 -1.402099609375 -0.45684814453125
2033209000.0 -1.4361572265625 -0.30224609375
2038204500.0 -1.4541015625 -0.1475830078125
2043200000.0 -1.45574951171875 0.006591796875
2048195500.0 -1.44366455078125 0.15948486328125
2053191000.0 -1.41632080078125 0.30853271484375
2058186500.0 -1.37542724609375 0.45404052734375
2063182000.0 -1.32080078125 0.59539794921875
2068177500.0 -1.2528076171875 0.7310791015625
2073173000.0 -1.17108154296875 0.86041259765625
2078168500.0 -1.07635498046875 0.9818115234375
2083164000.0 -0.96826171875 1.09393310546875
2088159500.0 -0.848388671875 1.1953125
2093155000.0 -0.71600341796875 1.2838134765625
2098150500.0 -0.57379150390625 1.3587646484375
2103146000.0 -0.423095703125 1.41766357421875
2108141500.0 -0.26446533203125 1.459228515625
2113137000.0 -0.1011962890625 1.4822998046875
2118132500.0 0.06414794921875 1.4857177734375
2123128000.0 0.22918701171875 1.46881103515625
2128123500.0 0.39056396484375 1.43304443359375
2133119000.0 0.5462646484375 1.37896728515625
2138114500.0 0.693603515625 1.3072509765625
2143110000.0 0.82989501953125 1.21966552734375
2148105500.0 0.95428466796875 1.11810302734375
2153101000.0 1.065673828125 1.0050048828125
2158096500.0 1.16278076171875 0.88201904296875
2163092000.0 1.24603271484375 0.75079345703125
2168087500.0 1.31341552734375 0.6138916015625
2173083000.0 1.3671875 0.4725341796875
2178078500.0 1.40673828125 0.32794189453125
2183074000.0 1.43157958984375 0.1805419921875
2188069500.0 1.443603515625 0.03216552734375
