!Created with skrf (http://scikit-rf.org).
# Hz S RI R 50.0 
!freq ReS11 ImS11
300000.0 -0.0050830483 -0.0408439097
5299970.0 0.0006820021 -0.000685625
10299940.0 0.0012084513 -0.0005221517
15299910.0 0.0013198059 0.0005677026
20299880.0 0.0012693967 -4.883e-05
25299850.0 0.001414716 0.0006971611
30299820.0 0.0014495111 0.0007361463
35299790.0 0.0015646836 0.0005342549
40299760.0 0.0018000496 0.0003979452
45299730.0 0.0017674762 0.0006702741
50299700.0 0.0018757621 0.0009108921
55299670.0 0.0018331882 0.0008312682
60299640.0 0.0017926415 0.0010464368
65299610.0 0.001821422 0.000729128
70299580.0 0.0018274135 0.0008939169
75299550.0 0.0018223001 0.0010255043
80299520.0 0.0020198146 0.0009634352
85299490.0 0.00216138 0.0010924182
90299460.0 0.0021320727 0.0010226025
95299430.0 0.0020738263 0.0009308094
100299400.0 0.0020097022 0.0010911315
105299370.0 0.0022253226 0.0012558178
110299340.0 0.0023092541 0.0010757915
115299310.0 0.0021759564 0.0011268199
120299280.0 0.0022031074 0.001283192
125299250.0 0.0022628106 0.0013314336
130299220.0 0.0021198618 0.0013025095
135299190.0 0.0020704259 0.0016691976
140299160.0 0.0022790128 0.0015805518
145299130.0 0.0021624869 0.0014520666
150299100.0 0.0020848546 0.0013937014
155299070.0 0.0022001309 0.001253062
160299040.0 0.0024261272 0.001549501
165299010.0 0.0024207941 0.0016974328
170298980.0 0.0025614069 0.0018530382
175298950.0 0.0023814339 0.0018193275
180298920.0 0.0024130751 0.001565815
185298890.0 0.002190811 0.0017165319
190298860.0 0.0023683121 0.0017063051
195298830.0 0.0025220106 0.0018641249
200298800.0 0.0027424443 0.0018623868
205298770.0 0.0026494246 0.0017445143
210298740.0 0.0027029006 0.0018792491
215298710.0 0.0026151579 0.0018331886
220298680.0 0.0027699405 0.0018694577
225298650.0 0.0027276197 0.0019257825
230298620.0 0.0027336909 0.0018815321
235298590.0 0.002796643 0.0018510521
240298560.0 0.0029997783 0.0019628768
245298530.0 0.0028043871 0.0018747946
250298500.0 0.0027598385 0.0019667303
255298470.0 0.0028837805 0.0021506594
260298440.0 0.0028646795 0.0021768786
265298410.0 0.0028702142 0.0021341178
270298380.0 0.0030265148 0.0020689799
275298350.0 0.002823681 0.002209585
280298320.0 0.0027998247 0.0021040327
285298290.0 0.0027417023 0.002191923
290298260.0 0.0031920062 0.0022725205
295298230.0 0.0031494329 0.0021936049
300298200.0 0.0032413928 0.0022412785
305298170.0 0.0031082843 0.0022836569
310298140.0 0.0031640605 0.0023558049
315298110.0 0.003076231 0.0023546972
320298080.0 0.0032160897 0.0024219727
325298050.0 0.0032393313 0.0023324453
330298020.0 0.0032681173 0.0023436204
335297990.0 0.0032747393 0.0024156067
340297960.0 0.0031513229 0.0023100805
345297930.0 0.0031889788 0.0022113753
350297900.0 0.0035831627 0.00229885
355297870.0 0.0036728517 0.0022396808
360297840.0 0.0034444155 0.0024150721
365297810.0 0.0034583851 0.0022721128
370297780.0 0.0034258499 0.0025534504
375297750.0 0.0034454248 0.0024832289
380297720.0 0.0033973221 0.0024670172
385297690.0 0.0034326142 0.0025258604
390297660.0 0.0035350541 0.0024874061
395297630.0 0.0035388877 0.0024753999
400297600.0 0.0036965679 0.0024537091
405297570.0 0.0034333102 0.0026442488
410297540.0 0.0035375742 0.0025225931
415297510.0 0.0036919267 0.002527901
420297480.0 0.0035161291 0.002547561
425297450.0 0.0037339521 0.002702039
430297420.0 0.0035789808 0.0025453899
435297390.0 0.0037567233 0.002636359
440297360.0 0.0037786858 0.0026454433
445297330.0 0.0038223252 0.0025541874
450297300.0 0.0039602735 0.0025499722
455297270.0 0.0037503023 0.0025306051
460297240.0 0.0037604577 0.002469832
465297210.0 0.0037147445 0.0027637699
470297180.0 0.0039672711 0.0027449
475297150.0 0.0039295957 0.0026689794
480297120.0 0.0040007344 0.0025744552
485297090.0 0.0039012659 0.0025859212
490297060.0 0.0039186072 0.0027897443
495297030.0 0.0039393785 0.0027689752
500297000.0 0.0040191102 0.0027892865
505296970.0 0.0041137208 0.0028355689
510296940.0 0.0039150258 0.002956849
515296910.0 0.0039300953 0.002780349
520296880.0 0.0039953446 0.0027926153
525296850.0 0.0040145342 0.002652098
530296820.0 0.0040161203 0.0028627637
535296790.0 0.0041733062 0.0030865267
540296760.0 0.0039855521 0.0026778481
545296730.0 0.0042646557 0.0029189292
550296700.0 0.0043099428 0.0028979823
555296670.0 0.0040868723 0.0029641369
560296640.0 0.0043586266 0.0028163178
565296610.0 0.0045068133 0.0028829696
570296580.0 0.0043754564 0.0027651633
575296550.0 0.0042039074 0.002947896
580296520.0 0.0044597565 0.0027016111
585296490.0 0.0045650428 0.0027560372
590296460.0 0.0043928993 0.0028031739
595296430.0 0.0045808108 0.0027604818
600296400.0 0.0046501943 0.002546686
605296370.0 0.0045586123 0.002736702
610296340.0 0.0045542922 0.0029376344
615296310.0 0.0045822585 0.0026923636
620296280.0 0.0045319593 0.0026935046
625296250.0 0.0046631495 0.0027569976
630296220.0 0.0045792336 0.002693425
635296190.0 0.0046533885 0.0027174649
640296160.0 0.0047390606 0.0027395532
645296130.0 0.0045350476 0.0028449682
650296100.0 0.0045748995 0.0026617517
655296070.0 0.0045247237 0.002958818
660296040.0 0.0049116557 0.0027656388
665296010.0 0.0049906431 0.0028942509
670295980.0 0.0049250253 0.0027186493
675295950.0 0.0048846664 0.0026614382
680295920.0 0.0050759785 0.0028687351
685295890.0 0.0049835373 0.0027279873
690295860.0 0.005102423 0.0025801795
695295830.0 0.0048359479 0.0026927182
700295800.0 0.004893505 0.002714862
705295770.0 0.0050922989 0.0027155318
710295740.0 0.004902625 0.0028758029
715295710.0 0.0049873987 0.0028290048
720295680.0 0.0049862973 0.0026588737
725295650.0 0.005081307 0.002576774
730295620.0 0.0051017302 0.00270147
735295590.0 0.0050580406 0.0027529161
740295560.0 0.0050536334 0.0026736528
745295530.0 0.0051643204 0.0025550529
750295500.0 0.0051923803 0.0026485021
755295470.0 0.0050398088 0.0027850774
760295440.0 0.0052056884 0.0027495458
765295410.0 0.0052003918 0.0027212113
770295380.0 0.0050806004 0.0026701203
775295350.0 0.0053112611 0.0025753025
780295320.0 0.005402428 0.0026031301
785295290.0 0.0052288558 0.0026460222
790295260.0 0.0053597489 0.0024470451
795295230.0 0.0055297968 0.0026374974
800295200.0 0.0052117116 0.0023835979
805295170.0 0.0054312352 0.0024939735
810295140.0 0.0055592536 0.002477964
815295110.0 0.0054302385 0.0025159904
820295080.0 0.0056380411 0.0023090867
825295050.0 0.0053826021 0.0024858571
830295020.0 0.005627329 0.00246285
835294990.0 0.0054800942 0.0024175195
840294960.0 0.0056236338 0.0023440237
845294930.0 0.0056801651 0.0023809366
850294900.0 0.005704523 0.0024706532
855294870.0 0.0057761644 0.0025404867
860294840.0 0.0056663907 0.0023380076
865294810.0 0.0055988855 0.0022721975
870294780.0 0.0056998268 0.0024468859
875294750.0 0.0058861464 0.0024043252
880294720.0 0.0059703165 0.0021827113
885294690.0 0.0057947901 0.002320031
890294660.0 0.0059984113 0.0020238235
895294630.0 0.0059628571 0.0021738169
900294600.0 0.0060402579 0.0022161141
905294570.0 0.0058842788 0.0021406281
910294540.0 0.0057810791 0.0023223044
915294510.0 0.0059436858 0.0022634967
920294480.0 0.0059952944 0.0021764341
925294450.0 0.0058907734 0.0021933416
930294420.0 0.0058339428 0.0019315416
935294390.0 0.0061483994 0.0020293612
940294360.0 0.0062332023 0.002149041
945294330.0 0.0061057553 0.0019627197
950294300.0 0.0062261738 0.0020789701
955294270.0 0.006231105 0.0019816642
960294240.0 0.0059280381 0.0020283413
965294210.0 0.0060191585 0.0020975271
970294180.0 0.0063221559 0.0020686806
975294150.0 0.006174969 0.0018487003
980294120.0 0.0062652203 0.0019205472
985294090.0 0.0061548372 0.0019002637
990294060.0 0.0062605292 0.0017685782
995294030.0 0.0062997255 0.0019491117
1000294000.0 0.0062475505 0.0018441977
1005293970.0 0.0063218102 0.0019161448
1010293940.0 0.0062871305 0.0017857951
1015293910.0 0.0063503353 0.0015863312
1020293880.0 0.006566473 0.0018484725
1025293850.0 0.0061692268 0.0015780083
1030293820.0 0.0065115234 0.0016654565
1035293790.0 0.0066610703 0.0016281283
1040293760.0 0.0063891504 0.0017260118
1045293730.0 0.0063928911 0.0015545275
1050293700.0 0.0065164305 0.0017236674
1055293670.0 0.0066993108 0.0014340993
1060293640.0 0.0067246627 0.001492203
1065293610.0 0.0066120029 0.0014124195
1070293580.0 0.0066709414 0.0015333385
1075293550.0 0.0068255569 0.0014056799
1080293520.0 0.006896804 0.0013969564
1085293490.0 0.0068302789 0.0013087676
1090293460.0 0.0068959226 0.0013742892
1095293430.0 0.0068943535 0.001189014
1100293400.0 0.0067151628 0.0012065955
1105293370.0 0.0070036564 0.001254089
1110293340.0 0.0070381383 0.001296321
1115293310.0 0.0070871003 0.0012848173
1120293280.0 0.0069772108 0.0014242607
1125293250.0 0.0071780019 0.0011956964
1130293220.0 0.0071337344 0.001464298
1135293190.0 0.0069434787 0.0013525268
1140293160.0 0.006709203 0.0013898596
1145293130.0 0.0069663541 0.0015011943
1150293100.0 0.0068422286 0.0014923091
1155293070.0 0.0067321426 0.0015755889
1160293040.0 0.0068688212 0.0013543639
1165293010.0 0.0068742907 0.0012020122
1170292980.0 0.0069727234 0.0011610632
1175292950.0 0.0067904572 0.0010671227
1180292920.0 0.007017888 0.0010145309
1185292890.0 0.0070215786 0.0009082045
1190292860.0 0.0073238898 0.0009929954
1195292830.0 0.0071961902 0.0011080944
1200292800.0 0.0075153068 0.0009256007
1205292770.0 0.0073492964 0.0007618949
1210292740.0 0.0074898491 0.0008228855
1215292710.0 0.0073875355 0.0007245846
1220292680.0 0.0075393368 0.0007454383
1225292650.0 0.0073207673 0.0007572073
1230292620.0 0.0073924537 0.0006587929
1235292590.0 0.0076238734 0.0008295155
1240292560.0 0.0075203408 0.0006062943
1245292530.0 0.0073436121 0.0005732107
1250292500.0 0.0077324735 0.0005923264
1255292470.0 0.0078394951 0.000481782
1260292440.0 0.0078162656 0.0005290174
1265292410.0 0.0077216668 0.0005005351
1270292380.0 0.0076750079 0.0003878787
1275292350.0 0.007831632 0.0005269683
1280292320.0 0.007702775 0.0003261453
1285292290.0 0.0078365237 0.0002858917
1290292260.0 0.0076565963 0.000572126
1295292230.0 0.007798231 0.0003413058
1300292200.0 0.0075786359 0.0005490331
1305292170.0 0.0079254475 2.00099e-05
1310292140.0 0.0078687645 4.37875e-05
1315292110.0 0.0079062536 0.0003488018
1320292080.0 0.0081456476 0.0003976472
1325292050.0 0.0078434129 3.64689e-05
1330292020.0 0.008006421 0.0001142961
1335291990.0 0.0080067809 0.0001621068
1340291960.0 0.008033174 1.52058e-05
1345291930.0 0.0081911321 9.22237e-05
1350291900.0 0.0081627359 0.0001109938
1355291870.0 0.0079587162 3.1869e-06
1360291840.0 0.0080633028 -0.000103032
1365291810.0 0.0081891403 -5.21159e-05
1370291780.0 0.0080626825 -7.3724e-06
1375291750.0 0.0082811715 -0.0002644799
1380291720.0 0.0081101498 -8.52041e-05
1385291690.0 0.0083603911 -6.50055e-05
1390291660.0 0.0083371184 -0.0001076342
1395291630.0 0.0083756588 -0.0001625131
1400291600.0 0.0083079782 -0.0003693289
1405291570.0 0.0082206408 -0.0005012922
1410291540.0 0.0082839443 -0.00031998
1415291510.0 0.0082653601 -0.0001907208
1420291480.0 0.0083000773 -0.000189435
1425291450.0 0.0084972079 -0.0001222415
1430291420.0 0.0084680221 -0.0004587041
1435291390.0 0.0085165983 -0.0004170855
1440291360.0 0.0085475129 -0.0005941326
1445291330.0 0.0086333795 -0.000379285
1450291300.0 0.0085117142 -0.0006289379
1455291270.0 0.0083563055 -0.000566865
1460291240.0 0.0086023741 -0.0005676043
1465291210.0 0.0085314316 -0.0006399464
1470291180.0 0.0086203613 -0.0005167896
1475291150.0 0.0085495749 -0.0008577354
1480291120.0 0.0085449568 -0.0008758602
1485291090.0 0.0085214211 -0.0008226402
1490291060.0 0.0084655021 -0.0007413588
1495291030.0 0.0086857145 -0.0006609357
1500291000.0 0.0085804079 -0.0008661419
1505290970.0 0.0086331992 -0.0008204164
1510290940.0 0.0085681119 -0.0009375119
1515290910.0 0.0087711165 -0.0010754172
1520290880.0 0.0086930354 -0.0009696717
1525290850.0 0.0088246874 -0.0011606812
1530290820.0 0.0089163841 -0.0007950986
1535290790.0 0.0088226549 -0.0009427821
1540290760.0 0.008866661 -0.000991438
1545290730.0 0.0089158063 -0.0009620142
1550290700.0 0.008772238 -0.0009557257
1555290670.0 0.0087695512 -0.0011321966
1560290640.0 0.0087892103 -0.0010766298
1565290610.0 0.0088761403 -0.0011582417
1570290580.0 0.0089714257 -0.0013446407
1575290550.0 0.0088850157 -0.0012266079
1580290520.0 0.0088304552 -0.0013903936
1585290490.0 0.0089041931 -0.0010861002
1590290460.0 0.009079424 -0.0014049857
1595290430.0 0.0089178091 -0.0013335563
1600290400.0 0.0090661474 -0.0012264489
1605290370.0 0.0090949774 -0.0012371611
1610290340.0 0.0089482143 -0.0015476201
1615290310.0 0.0089961305 -0.0012631065
1620290280.0 0.0090777794 -0.0014170845
1625290250.0 0.0093179356 -0.0014362801
1630290220.0 0.0092201282 -0.001533157
1635290190.0 0.0091126027 -0.001759771
1640290160.0 0.0092652447 -0.0018003362
1645290130.0 0.0094076258 -0.0016050371
1650290100.0 0.0093621114 -0.0016864785
1655290070.0 0.009241297 -0.0017806766
1660290040.0 0.0091799748 -0.0017269898
1665290010.0 0.009189548 -0.0016380317
1670289980.0 0.0092230045 -0.0017253884
1675289950.0 0.0095294462 -0.001931197
1680289920.0 0.0093064165 -0.002006235
1685289890.0 0.0094603064 -0.0020862728
1690289860.0 0.0091352094 -0.0020783341
1695289830.0 0.0091473062 -0.001777089
1700289800.0 0.0093404753 -0.0019450042
1705289770.0 0.0093883801 -0.0021661432
1710289740.0 0.0092718928 -0.001882067
1715289710.0 0.0093699728 -0.0017002827
1720289680.0 0.0093904848 -0.002199717
1725289650.0 0.0093041891 -0.0020342341
1730289620.0 0.0093500819 -0.0021176174
1735289590.0 0.0092428375 -0.0021486374
1740289560.0 0.0092537706 -0.0021380353
1745289530.0 0.0092920947 -0.0022043751
1750289500.0 0.0094766045 -0.0024060131
1755289470.0 0.0096278787 -0.0025181652
1760289440.0 0.009455088 -0.0022006621
1765289410.0 0.0094764552 -0.0019846666
1770289380.0 0.009645532 -0.0022794232
1775289350.0 0.0094437272 -0.0023765771
1780289320.0 0.0094017068 -0.0023520292
1785289290.0 0.0094816079 -0.0022600522
1790289260.0 0.009421095 -0.0023977872
1795289230.0 0.0095001412 -0.0023983927
1800289200.0 0.0096153562 -0.0025536489
1805289170.0 0.0093671586 -0.0024835984
1810289140.0 0.0094276347 -0.0024549185
1815289110.0 0.0093538625 -0.0024356631
1820289080.0 0.0095848516 -0.0024151989
1825289050.0 0.0094473618 -0.0024218679
1830289020.0 0.0093521077 -0.0028506403
1835288990.0 0.0095599639 -0.002669556
1840288960.0 0.0095729778 -0.002606481
1845288930.0 0.0096318863 -0.0027516222
1850288900.0 0.0094427653 -0.002796809
1855288870.0 0.009535502 -0.0027509912
1860288840.0 0.0095468904 -0.0027596961
1865288810.0 0.0093867934 -0.0028447573
1870288780.0 0.0096231299 -0.0026010689
1875288750.0 0.0095410762 -0.0028566681
1880288720.0 0.009648127 -0.0028273366
1885288690.0 0.0096152355 -0.0028991839
1890288660.0 0.0096464624 -0.0028211656
1895288630.0 0.0097477046 -0.0029536919
1900288600.0 0.0097430709 -0.0029234003
1905288570.0 0.0097486058 -0.0030884233
1910288540.0 0.0098583689 -0.0031715965
1915288510.0 0.0096240579 -0.00314508
1920288480.0 0.0098235273 -0.0029763441
1925288450.0 0.0095067868 -0.0029091828
1930288420.0 0.0096879572 -0.0030003594
1935288390.0 0.0096999061 -0.0030213919
1940288360.0 0.0098005537 -0.003069564
1945288330.0 0.0094311758 -0.0029732075
1950288300.0 0.0097694669 -0.0031007465
1955288270.0 0.0097892836 -0.0032143818
1960288240.0 0.0098800344 -0.003319398
1965288210.0 0.0097507774 -0.0031246634
1970288180.0 0.0098627296 -0.0031739085
1975288150.0 0.0097320706 -0.0033190934
1980288120.0 0.0099115665 -0.0030478982
1985288090.0 0.0098754097 -0.0032209149
1990288060.0 0.0098800714 -0.0030792831
1995288030.0 0.0098325981 -0.003053443
2000288000.0 0.0094860511 -0.0030908025
2005287970.0 0.0096973323 -0.0035756941
2010287940.0 0.0097471905 -0.0032494275
2015287910.0 0.0097231229 -0.0034119691
2020287880.0 0.0098343549 -0.0031845016
2025287850.0 0.0097816343 -0.0031972231
2030287820.0 0.0096777079 -0.0035075542
2035287790.0 0.009777727 -0.0032514059
2040287760.0 0.0096612037 -0.003307176
2045287730.0 0.0096639093 -0.0034176113
2050287700.0 0.0097485556 -0.0034410553
2055287670.0 0.0095780428 -0.0034808092
2060287640.0 0.0097271289 -0.0034616363
2065287610.0 0.0096398214 -0.0034825124
2070287580.0 0.009460069 -0.0034833909
2075287550.0 0.0095771688 -0.0035424016
2080287520.0 0.0096456392 -0.0035006947
2085287490.0 0.0096778883 -0.0034470734
2090287460.0 0.0098901695 -0.0036592915
2095287430.0 0.009695628 -0.0038086733
2100287400.0 0.0094592639 -0.0035805336
2105287370.0 0.0098309959 -0.0037281007
2110287340.0 0.0096333322 -0.0035508802
2115287310.0 0.0097283529 -0.0036132264
2120287280.0 0.0094423795 -0.0036322603
2125287250.0 0.0095347292 -0.0037159353
2130287220.0 0.0095362875 -0.0036318843
2135287190.0 0.0096770695 -0.0033672521
2140287160.0 0.0093397624 -0.0035335171
2145287130.0 0.0096482685 -0.00360872
2150287100.0 0.0096968877 -0.0038618159
2155287070.0 0.0096215912 -0.0035802499
2160287040.0 0.0097642492 -0.0037519629
2165287010.0 0.0097140954 -0.0037572983
2170286980.0 0.0095580422 -0.0035385529
2175286950.0 0.0097510116 -0.0038604671
2180286920.0 0.009332129 -0.0037427509
2185286890.0 0.0097035412 -0.0038627501
2190286860.0 0.0095697308 -0.0038292345
2195286830.0 0.0095237535 -0.0038068071
2200286800.0 0.0096732433 -0.0038774172
2205286770.0 0.0097889245 -0.0040003511
2210286740.0 0.00951715 -0.003977798
2215286710.0 0.009335055 -0.0039762143
2220286680.0 0.0095337747 -0.0037800107
2225286650.0 0.0096210673 -0.0039074789
2230286620.0 0.0095656789 -0.0039157342
2235286590.0 0.0094643619 -0.0039879984
2240286560.0 0.0095055821 -0.0039760817
2245286530.0 0.0094520605 -0.0039804206
2250286500.0 0.0093822637 -0.0038445274
2255286470.0 0.0093933423 -0.0039886179
2260286440.0 0.0094604384 -0.0040803107
2265286410.0 0.009560032 -0.0039984912
2270286380.0 0.0092080345 -0.0039449973
2275286350.0 0.0094345784 -0.0040850642
2280286320.0 0.0094724846 -0.0040353249
2285286290.0 0.0094306616 -0.0038178624
2290286260.0 0.0093746403 -0.0041250173
2295286230.0 0.0092078782 -0.0040709334
2300286200.0 0.0095107179 -0.0041451014
2305286170.0 0.0091640742 -0.004175316
2310286140.0 0.0092062596 -0.0041715349
2315286110.0 0.0091449962 -0.0040005651
2320286080.0 0.0091055277 -0.0039815354
2325286050.0 0.0091926023 -0.0041583928
2330286020.0 0.0091910892 -0.004304489
2335285990.0 0.0094120439 -0.004106914
2340285960.0 0.0093152639 -0.0039511987
2345285930.0 0.0090064526 -0.0040907714
2350285900.0 0.0093489393 -0.0039670035
2355285870.0 0.0090069655 -0.0040122833
2360285840.0 0.008867511 -0.0040150896
2365285810.0 0.0090587058 -0.0043194502
2370285780.0 0.008891187 -0.0040449906
2375285750.0 0.0089785595 -0.0041136387
2380285720.0 0.0090962178 -0.0040980861
2385285690.0 0.0087994009 -0.0038952649
2390285660.0 0.0088060862 -0.0041177282
2395285630.0 0.0089218761 -0.0042532335
2400285600.0 0.0090338261 -0.0041646071
2405285570.0 0.0087093092 -0.0043118197
2410285540.0 0.0089371673 -0.0042558408
2415285510.0 0.0087715646 -0.0042055541
2420285480.0 0.0088718751 -0.0040860817
2425285450.0 0.0088245267 -0.0042105999
2430285420.0 0.0090366863 -0.0041346054
2435285390.0 0.0089015155 -0.0044090857
2440285360.0 0.0086056758 -0.0042850572
2445285330.0 0.0088686869 -0.0044298044
2450285300.0 0.0088233135 -0.0043757192
2455285270.0 0.0087157359 -0.0042447745
2460285240.0 0.008551141 -0.0043969395
2465285210.0 0.0086075191 -0.0041692539
2470285180.0 0.0084755494 -0.0045548885
2475285150.0 0.0085762175 -0.0043435634
2480285120.0 0.0087121014 -0.0042443392
2485285090.0 0.0085764381 -0.0042680985
2490285060.0 0.0086675601 -0.0044143558
2495285030.0 0.0084916169 -0.0043815407
2500285000.0 0.0086673312 -0.0042749341
2505284970.0 0.0086177263 -0.0043131976
2510284940.0 0.0088413594 -0.0042682033
2515284910.0 0.0087515015 -0.0043496231
2520284880.0 0.0084957561 -0.0043836851
2525284850.0 0.0085408256 -0.0045078148
2530284820.0 0.0085117387 -0.0043261657
2535284790.0 0.0085535932 -0.0044778779
2540284760.0 0.0083832878 -0.0043586754
2545284730.0 0.0082777875 -0.0044442375
2550284700.0 0.0085021102 -0.0043105544
2555284670.0 0.0083312033 -0.004545971
2560284640.0 0.0082884745 -0.0042682136
