!Created with skrf (http://scikit-rf.org).
# Hz S RI R 50.0 
!freq ReS11 ImS11
300000.0 -0.0062453629 -0.0460588478
5299970.0 0.0002405317 -0.00043191
10299940.0 0.0006963665 -0.0003896644
15299910.0 0.0010211041 0.0011418744
20299880.0 0.001098477 0.0007653288
25299850.0 0.0012753921 0.0013674673
30299820.0 0.0015213624 0.0017006192
35299790.0 0.0015659381 0.001639131
40299760.0 0.0019053996 0.0017184345
45299730.0 0.0019747088 0.0019843545
50299700.0 0.0022946067 0.002200128
55299670.0 0.002157719 0.0024398503
60299640.0 0.002750379 0.0024365679
65299610.0 0.0027361574 0.0026680401
70299580.0 0.0028354101 0.0026028354
75299550.0 0.0029194038 0.0026542558
80299520.0 0.0031975081 0.0027183586
85299490.0 0.0034162364 0.0028015851
90299460.0 0.0036221647 0.0026111494
95299430.0 0.0038915959 0.0027927064
100299400.0 0.0042095136 0.0029340812
105299370.0 0.0041617678 0.0030106593
110299340.0 0.0043489515 0.0029250243
115299310.0 0.0045680604 0.0030721507
120299280.0 0.0048091788 0.0030201261
125299250.0 0.0049030685 0.0028810457
130299220.0 0.0050092679 0.0029853138
135299190.0 0.0050345977 0.0028022998
140299160.0 0.005080643 0.0027509323
145299130.0 0.0051459794 0.0025850303
150299100.0 0.0056309561 0.0023959856
155299070.0 0.0056586708 0.0024942216
160299040.0 0.0056666284 0.0023769991
165299010.0 0.0059307726 0.0023236333
170298980.0 0.0059838095 0.0024051068
175298950.0 0.0060240272 0.0021587796
180298920.0 0.0060230033 0.0023075282
185298890.0 0.006185449 0.0020874161
190298860.0 0.0061178604 0.0021056814
195298830.0 0.0062904705 0.0019822108
200298800.0 0.0064649664 0.0019485018
205298770.0 0.0064979275 0.001929149
210298740.0 0.0066419571 0.0019134238
215298710.0 0.0067135872 0.001654406
220298680.0 0.0068173455 0.0015212365
225298650.0 0.0069245032 0.0015104078
230298620.0 0.0068656993 0.0015876687
235298590.0 0.0069904114 0.0013768326
240298560.0 0.0070646533 0.0012187515
245298530.0 0.0070766167 0.0010821179
250298500.0 0.0071900365 0.0010534483
255298470.0 0.0070517824 0.0009181008
260298440.0 0.0070673116 0.0008413693
265298410.0 0.0070585993 0.0007211138
270298380.0 0.0071213783 0.000780113
275298350.0 0.0071808933 0.0004002344
280298320.0 0.0071108023 0.0005108724
285298290.0 0.0071968996 0.0004077526
290298260.0 0.0072565637 0.0002272523
295298230.0 0.0071688116 0.0004032471
300298200.0 0.0072431143 0.0001094595
305298170.0 0.007265801 -3.0542e-05
310298140.0 0.0073023234 -0.0001698686
315298110.0 0.0072379849 -3.86944e-05
320298080.0 0.0072635458 -0.0001584931
325298050.0 0.0072794736 -0.0001704636
330298020.0 0.0073198724 -0.0002966785
335297990.0 0.0072155854 -0.0004313537
340297960.0 0.0070767164 -0.0006132074
345297930.0 0.0075480369 -0.0004783642
350297900.0 0.0072052168 -0.0006883342
355297870.0 0.0075035183 -0.0007491595
360297840.0 0.0073545399 -0.001016712
365297810.0 0.007153283 -0.0010382668
370297780.0 0.0073690446 -0.0008874968
375297750.0 0.0072750703 -0.0009872512
380297720.0 0.0072333171 -0.0009203775
385297690.0 0.0071882328 -0.0010558294
390297660.0 0.007331594 -0.0013001282
395297630.0 0.0070956435 -0.0011022787
400297600.0 0.0071413996 -0.0013466251
405297570.0 0.0072417037 -0.0014075315
410297540.0 0.0071706803 -0.0013793415
415297510.0 0.0071149311 -0.0014639251
420297480.0 0.0070658938 -0.0017452924
425297450.0 0.0070692335 -0.0016178791
430297420.0 0.007189103 -0.0017719392
435297390.0 0.0071081944 -0.0017904789
440297360.0 0.0068689766 -0.0018014883
445297330.0 0.0068754097 -0.0018752477
450297300.0 0.0068852215 -0.0020374764
455297270.0 0.0067315855 -0.0018954044
460297240.0 0.0067676073 -0.0019796301
465297210.0 0.006885049 -0.0020184303
470297180.0 0.0068266388 -0.0020484172
475297150.0 0.0068442764 -0.0021668509
480297120.0 0.0067350771 -0.002152207
485297090.0 0.0066041734 -0.00240451
490297060.0 0.0068156794 -0.0022521566
495297030.0 0.0063603526 -0.0022010429
500297000.0 0.0065240492 -0.0022428513
505296970.0 0.0063608356 -0.0023794282
510296940.0 0.0064179967 -0.0022478018
515296910.0 0.0064677952 -0.0024292838
520296880.0 0.0064534485 -0.0024276872
525296850.0 0.0063089719 -0.0023475938
530296820.0 0.006196678 -0.0025559916
535296790.0 0.0062212387 -0.0025106452
540296760.0 0.0063218787 -0.0026076419
545296730.0 0.0061108205 -0.0025999994
550296700.0 0.0060941829 -0.0026099081
555296670.0 0.0060029433 -0.0027567731
560296640.0 0.0061566969 -0.0028399155
565296610.0 0.0062605344 -0.0028927113
570296580.0 0.0061354648 -0.0032193394
575296550.0 0.0061852656 -0.0031001532
580296520.0 0.0061242427 -0.0029659043
585296490.0 0.006289754 -0.0030490317
590296460.0 0.0059454336 -0.0032005591
595296430.0 0.0060457047 -0.0030795086
600296400.0 0.0062944498 -0.0031355196
605296370.0 0.0061012884 -0.0032772748
610296340.0 0.0061338222 -0.0033905805
615296310.0 0.0059791581 -0.0032923894
620296280.0 0.0061014923 -0.0032962077
625296250.0 0.0056369628 -0.0034270983
630296220.0 0.0058846184 -0.003221827
635296190.0 0.0059456307 -0.0032442646
640296160.0 0.0057600572 -0.0033502364
645296130.0 0.0057866739 -0.0035849717
650296100.0 0.0055337225 -0.0034676359
655296070.0 0.0056431315 -0.0036209662
660296040.0 0.0057773199 -0.0035545264
665296010.0 0.0055788051 -0.0036826595
670295980.0 0.0057922233 -0.0035392684
675295950.0 0.0056523827 -0.0039535235
680295920.0 0.0056598227 -0.0038037914
685295890.0 0.0056510992 -0.0035208446
690295860.0 0.0055049135 -0.0038629761
695295830.0 0.0053742082 -0.0037776297
700295800.0 0.0056201711 -0.0038198417
705295770.0 0.0055427227 -0.0038576312
710295740.0 0.0052655918 -0.0038530902
715295710.0 0.0052860251 -0.0038089443
720295680.0 0.0052693942 -0.003947425
725295650.0 0.0054005413 -0.0039561962
730295620.0 0.0054283308 -0.0039479805
735295590.0 0.0056339438 -0.0041069165
740295560.0 0.0052597092 -0.0039657675
745295530.0 0.0051477298 -0.0040321081
750295500.0 0.0051330039 -0.0040938918
755295470.0 0.0051448093 -0.0040723204
760295440.0 0.0053164146 -0.0042192321
765295410.0 0.0051701107 -0.0039646796
770295380.0 0.0050671449 -0.0043587592
775295350.0 0.0051874021 -0.0041164673
780295320.0 0.0051298605 -0.0042429495
785295290.0 0.0050680663 -0.0045195012
790295260.0 0.0049029062 -0.0043444645
795295230.0 0.0048028369 -0.0043750803
800295200.0 0.0050653002 -0.0041496787
805295170.0 0.005119527 -0.0045005396
810295140.0 0.0048161316 -0.004471937
815295110.0 0.0050128523 -0.0044472118
820295080.0 0.0049085303 -0.0045596147
825295050.0 0.0048232826 -0.00464202
830295020.0 0.0048438009 -0.0046999849
835294990.0 0.004945155 -0.0046628089
840294960.0 0.0047910368 -0.0046848531
845294930.0 0.0048395529 -0.0044832088
850294900.0 0.0049155956 -0.0045327361
855294870.0 0.0048136596 -0.004702431
860294840.0 0.0047536153 -0.0047081041
865294810.0 0.0045889139 -0.0049928224
870294780.0 0.0046042604 -0.0049458816
875294750.0 0.0045352844 -0.0047150517
880294720.0 0.0045846147 -0.004860953
885294690.0 0.0046845913 -0.0051523285
890294660.0 0.0045555725 -0.0049948027
895294630.0 0.0044336796 -0.0049655651
900294600.0 0.0044122038 -0.0048571131
905294570.0 0.0045125187 -0.0051369857
910294540.0 0.0045609085 -0.0050407144
915294510.0 0.0045230946 -0.0050439496
920294480.0 0.0042009249 -0.0051075372
925294450.0 0.0044567156 -0.0052346165
930294420.0 0.0041768649 -0.0049748866
935294390.0 0.0041910059 -0.0053230591
940294360.0 0.0042183381 -0.0051897129
945294330.0 0.0042622924 -0.0053543702
950294300.0 0.00427274 -0.0053042797
955294270.0 0.0042844519 -0.0053712902
960294240.0 0.004208572 -0.0053129633
965294210.0 0.0041603616 -0.0054782401
970294180.0 0.0040650586 -0.0054528564
975294150.0 0.0040433677 -0.0054900387
980294120.0 0.0039903521 -0.005818842
985294090.0 0.0040318865 -0.0055964359
990294060.0 0.0040697926 -0.0057485429
995294030.0 0.0038654786 -0.0057257321
1000294000.0 0.0038890605 -0.0056544598
1005293970.0 0.0040008795 -0.005681174
1010293940.0 0.0039877861 -0.0058675827
1015293910.0 0.003986741 -0.0056314749
1020293880.0 0.0041215385 -0.0057085468
1025293850.0 0.0038150082 -0.0059304185
1030293820.0 0.0039387918 -0.0058280675
1035293790.0 0.0037925167 -0.0060107735
1040293760.0 0.0037628014 -0.0060136242
1045293730.0 0.0039074409 -0.0061319862
1050293700.0 0.0038920056 -0.0061251273
1055293670.0 0.0037899806 -0.0061074907
1060293640.0 0.0039851018 -0.0058962307
1065293610.0 0.0037138721 -0.0061027716
1070293580.0 0.0038144365 -0.0063318513
1075293550.0 0.0037766372 -0.0060771858
1080293520.0 0.0035737081 -0.0061335457
1085293490.0 0.0036877796 -0.0062817938
1090293460.0 0.0036098277 -0.0060991408
1095293430.0 0.0037475191 -0.0062436428
1100293400.0 0.0034631768 -0.0063958285
1105293370.0 0.0034979506 -0.0061742868
1110293340.0 0.0034044222 -0.0063342697
1115293310.0 0.0036019512 -0.0062949384
1120293280.0 0.0036348013 -0.0063589603
1125293250.0 0.003353292 -0.0062733861
1130293220.0 0.0033958274 -0.0061508605
1135293190.0 0.0031919528 -0.0062247044
1140293160.0 0.003029243 -0.0064294718
1145293130.0 0.0031440674 -0.0061850319
1150293100.0 0.0030133453 -0.0063276055
1155293070.0 0.0029876116 -0.0061806561
1160293040.0 0.0030111973 -0.0061021078
1165293010.0 0.0029011216 -0.0063368861
1170292980.0 0.0030714534 -0.0063716357
1175292950.0 0.0029174482 -0.006517602
1180292920.0 0.0029585174 -0.0067155537
1185292890.0 0.0029689424 -0.0065763252
1190292860.0 0.0031328876 -0.0067615277
1195292830.0 0.003093794 -0.0068500539
1200292800.0 0.003072222 -0.0067681533
1205292770.0 0.0030754285 -0.0066364453
1210292740.0 0.0031749764 -0.0067793799
1215292710.0 0.0030866824 -0.0068462813
1220292680.0 0.0030613234 -0.0068554545
1225292650.0 0.0029276928 -0.0069327712
1230292620.0 0.0027603025 -0.0067409395
1235292590.0 0.002941266 -0.006989894
1240292560.0 0.0028635176 -0.0070893294
1245292530.0 0.0030225054 -0.007013787
1250292500.0 0.0027780876 -0.0069927922
1255292470.0 0.0029362277 -0.007097638
1260292440.0 0.0028536335 -0.0071682653
1265292410.0 0.0028916898 -0.0070111702
1270292380.0 0.0028064076 -0.0071352087
1275292350.0 0.0026993484 -0.0070529151
1280292320.0 0.0029909568 -0.0071587379
1285292290.0 0.0026691352 -0.006946794
1290292260.0 0.0027208567 -0.007192952
1295292230.0 0.0027769758 -0.0071748685
1300292200.0 0.0027021064 -0.0073617485
1305292170.0 0.0027248676 -0.0072759057
1310292140.0 0.0024565313 -0.0073893242
1315292110.0 0.0027096 -0.0073087924
1320292080.0 0.0028991165 -0.0074168056
1325292050.0 0.0026947762 -0.0071978794
1330292020.0 0.0026734402 -0.0073567796
1335291990.0 0.0026118148 -0.0075396809
1340291960.0 0.002529493 -0.0074183172
1345291930.0 0.0025392051 -0.0073305831
1350291900.0 0.0022271345 -0.0074089094
1355291870.0 0.0026787143 -0.0074032205
1360291840.0 0.0024717216 -0.0073143927
1365291810.0 0.0023629621 -0.0073804828
1370291780.0 0.0023830434 -0.0074048963
1375291750.0 0.0024527803 -0.0073825013
1380291720.0 0.0024558531 -0.0073518386
1385291690.0 0.0024184704 -0.0074311564
1390291660.0 0.0022425625 -0.007511977
1395291630.0 0.0022752576 -0.0075794754
1400291600.0 0.002263864 -0.0075983276
1405291570.0 0.0021282167 -0.0075492754
1410291540.0 0.0021930242 -0.0074480575
1415291510.0 0.0023162621 -0.0074208337
1420291480.0 0.0020881649 -0.0076763656
1425291450.0 0.0019623892 -0.0076044638
1430291420.0 0.0021461632 -0.0077375492
1435291390.0 0.0023945912 -0.0076495291
1440291360.0 0.00209445 -0.0075914989
1445291330.0 0.0020196987 -0.0076678376
1450291300.0 0.0022444524 -0.007503647
1455291270.0 0.0019535545 -0.0075917802
1460291240.0 0.0021737246 -0.0076313814
1465291210.0 0.0020826746 -0.0075902706
1470291180.0 0.0018640669 -0.007790197
1475291150.0 0.0019288471 -0.0076673658
1480291120.0 0.0019183056 -0.0076592201
1485291090.0 0.001824483 -0.0075003601
1490291060.0 0.0018680353 -0.0078172075
1495291030.0 0.0016714908 -0.0076275076
1500291000.0 0.0016913243 -0.0079053772
1505290970.0 0.0018135558 -0.0079579416
1510290940.0 0.0017208268 -0.0079566626
1515290910.0 0.0017864351 -0.0077381769
1520290880.0 0.0016984099 -0.0078205694
1525290850.0 0.0018874435 -0.0077004084
1530290820.0 0.0018567515 -0.0079397982
1535290790.0 0.0016887347 -0.0078441269
1540290760.0 0.001816543 -0.0078910787
1545290730.0 0.0018117126 -0.0078519989
1550290700.0 0.0017631035 -0.0078131955
1555290670.0 0.0017146343 -0.0078899258
1560290640.0 0.0017804889 -0.0079252838
1565290610.0 0.0016090587 -0.0079431937
1570290580.0 0.0016250091 -0.0079980212
1575290550.0 0.0018315446 -0.0077877517
1580290520.0 0.0015688335 -0.0078374295
1585290490.0 0.0013266129 -0.0079886445
1590290460.0 0.0012991581 -0.0077289473
1595290430.0 0.0014208244 -0.0079143566
1600290400.0 0.0016037416 -0.0077600225
1605290370.0 0.0013768606 -0.0079014499
1610290340.0 0.0012369377 -0.0077202487
1615290310.0 0.0013107763 -0.0078347306
1620290280.0 0.0014726283 -0.0079667768
1625290250.0 0.0012091513 -0.0078347847
1630290220.0 0.0014175721 -0.0077821473
1635290190.0 0.0012768582 -0.0079216348
1640290160.0 0.0013081153 -0.00795447
1645290130.0 0.0013367661 -0.0079986836
1650290100.0 0.0014469111 -0.0078513599
1655290070.0 0.0013942271 -0.0077956905
1660290040.0 0.0013351066 -0.0080808262
1665290010.0 0.0012880146 -0.0082232863
1670289980.0 0.0012019885 -0.0078919399
1675289950.0 0.0012853015 -0.0081700894
1680289920.0 0.001111936 -0.0078643658
1685289890.0 0.0011127025 -0.0078746866
1690289860.0 0.0012668728 -0.008111657
1695289830.0 0.0009990674 -0.0080498502
1700289800.0 0.0011682133 -0.0079313355
1705289770.0 0.0009686631 -0.0079393972
1710289740.0 0.0010597867 -0.007899142
1715289710.0 0.0011722949 -0.0078025288
1720289680.0 0.0011436747 -0.007961383
1725289650.0 0.0012344672 -0.0078642169
1730289620.0 0.0009202526 -0.0080741597
1735289590.0 0.0010975516 -0.0078501417
1740289560.0 0.0011716795 -0.0078418327
1745289530.0 0.0009347466 -0.0077112422
1750289500.0 0.0010045917 -0.0079363703
1755289470.0 0.0008885329 -0.0078143825
1760289440.0 0.0010449304 -0.0079791455
1765289410.0 0.00082871 -0.0079353526
1770289380.0 0.0009745517 -0.0079162572
1775289350.0 0.0013296396 -0.0080220364
1780289320.0 0.0008965637 -0.0079913327
1785289290.0 0.000933723 -0.0078283018
1790289260.0 0.0008321242 -0.0079029426
1795289230.0 0.0008431731 -0.0078575269
1800289200.0 0.0008501092 -0.0079612721
1805289170.0 0.0007540198 -0.0079889807
1810289140.0 0.0007239282 -0.0078899785
1815289110.0 0.0005843251 -0.0079083818
1820289080.0 0.0010267453 -0.0076818985
1825289050.0 0.0007171652 -0.0077276005
1830289020.0 0.0008116011 -0.0078285403
1835288990.0 0.0005074904 -0.0079515243
1840288960.0 0.0007345956 -0.007743524
1845288930.0 0.0007928103 -0.0078367983
1850288900.0 0.0007552471 -0.007678754
1855288870.0 0.0004583371 -0.0077758347
1860288840.0 0.0007557286 -0.0077089108
1865288810.0 0.0006495236 -0.0079023158
1870288780.0 0.0006677461 -0.0077070574
1875288750.0 0.0005009144 -0.0076120411
1880288720.0 0.0006167549 -0.0076324526
1885288690.0 0.0004296075 -0.0076369985
1890288660.0 0.0006323772 -0.007555118
1895288630.0 0.0006261587 -0.0075435995
1900288600.0 0.0006191456 -0.0076524189
1905288570.0 0.0007410802 -0.0076165215
1910288540.0 0.0007200825 -0.0076275671
1915288510.0 0.0005521305 -0.0077260969
1920288480.0 0.0006452371 -0.0076419731
1925288450.0 0.0004860488 -0.0075659031
1930288420.0 0.0007352194 -0.0074681893
1935288390.0 0.0005166351 -0.0074764605
1940288360.0 0.0003521372 -0.0074484685
1945288330.0 0.0004927799 -0.0072830831
1950288300.0 0.000550357 -0.0073949432
1955288270.0 0.0005343678 -0.0075737237
1960288240.0 0.0004794271 -0.0073195224
1965288210.0 0.000409409 -0.0072922154
1970288180.0 0.0005267847 -0.0073105317
1975288150.0 0.0005372487 -0.007134049
1980288120.0 0.0005243321 -0.0074031512
1985288090.0 0.000454502 -0.0073487553
1990288060.0 0.0003930068 -0.0072387444
1995288030.0 0.0002921262 -0.007122127
2000288000.0 0.0004075716 -0.0072375788
2005287970.0 0.0002197787 -0.0071622869
2010287940.0 0.0003867819 -0.0070440323
2015287910.0 0.0003290846 -0.0073475209
2020287880.0 0.0003503936 -0.0071682791
2025287850.0 0.0002649087 -0.0070846914
2030287820.0 0.0003976504 -0.0070767117
2035287790.0 0.0003283808 -0.0071491698
2040287760.0 0.0002245637 -0.0069235667
2045287730.0 8.25477e-05 -0.0070109433
2050287700.0 0.0002230191 -0.0070168888
2055287670.0 0.0002188468 -0.0070671051
2060287640.0 0.0001146203 -0.0070794617
2065287610.0 0.000347257 -0.0070775392
2070287580.0 0.0002812991 -0.0070626962
2075287550.0 0.0002454914 -0.0072192213
2080287520.0 0.0002017655 -0.0068570585
2085287490.0 0.0003852367 -0.0067930392
2090287460.0 -0.0001799363 -0.006898135
2095287430.0 8.54667e-05 -0.0069766792
2100287400.0 0.00036122 -0.0068479178
2105287370.0 0.0001076011 -0.0069531476
2110287340.0 -1.04342e-05 -0.0067055947
2115287310.0 0.0001414574 -0.0069556969
2120287280.0 0.0001769595 -0.0068511073
2125287250.0 0.0003148927 -0.0066761577
2130287220.0 2.98524e-05 -0.006738122
2135287190.0 0.0001730003 -0.0066037004
2140287160.0 1.87022e-05 -0.006685008
2145287130.0 0.0001095533 -0.0065636924
2150287100.0 4.59893e-05 -0.0065590566
2155287070.0 0.0003269539 -0.0065080268
2160287040.0 -4.33317e-05 -0.006661695
2165287010.0 -1.59476e-05 -0.0063937524
2170286980.0 0.0002570502 -0.0066386551
2175286950.0 -3.95199e-05 -0.0067188799
2180286920.0 3.65389e-05 -0.0065926624
2185286890.0 -4.84317e-05 -0.0064325322
2190286860.0 8.56442e-05 -0.0064359654
2195286830.0 -7.91609e-05 -0.0062480384
2200286800.0 6.31163e-05 -0.0064138151
2205286770.0 -4.06007e-05 -0.0062581625
2210286740.0 -9.66478e-05 -0.0062484585
2215286710.0 -4.35837e-05 -0.0064521506
2220286680.0 -8.90191e-05 -0.0062743401
2225286650.0 -8.44637e-05 -0.0064469065
2230286620.0 -6.67151e-05 -0.0062896253
2235286590.0 9.74698e-05 -0.0061817651
2240286560.0 -0.0003634621 -0.0060959556
2245286530.0 -0.000157022 -0.0060348921
2250286500.0 -0.0001428433 -0.0063615777
2255286470.0 -7.79877e-05 -0.0062174819
2260286440.0 -7.50134e-05 -0.0061226384
2265286410.0 -9.75146e-05 -0.0059751053
2270286380.0 -2.26058e-05 -0.0057979578
2275286350.0 -8.66776e-05 -0.0059787406
2280286320.0 -6.32743e-05 -0.0061524328
2285286290.0 3.38997e-05 -0.0059227571
2290286260.0 -3.33588e-05 -0.0060840417
2295286230.0 -0.0002591037 -0.005734539
2300286200.0 -0.0002823316 -0.0059941407
2305286170.0 -0.0005338384 -0.0056808893
2310286140.0 -0.000186463 -0.0057224073
2315286110.0 -0.0002752536 -0.0059017126
2320286080.0 -0.0002647016 -0.0058876664
2325286050.0 -0.0004055131 -0.0055282808
2330286020.0 -0.0003724695 -0.0056112369
2335285990.0 -0.0002083696 -0.0054977405
2340285960.0 -0.0005913008 -0.0055849103
2345285930.0 -0.0001723901 -0.0056728521
2350285900.0 -0.0004920939 -0.0057255174
2355285870.0 -0.0003003049 -0.0057451193
2360285840.0 -0.0002357543 -0.0056524007
2365285810.0 -0.000488882 -0.0054949792
2370285780.0 -0.0001519982 -0.0055409641
2375285750.0 -0.0003681075 -0.0054158228
2380285720.0 -0.0002333359 -0.0054485746
2385285690.0 -0.0004712607 -0.0054776883
2390285660.0 -0.0004305233 -0.0053528692
2395285630.0 -0.0002299841 -0.0053466932
2400285600.0 -0.0004060687 -0.0053382959
2405285570.0 -0.0003050261 -0.0054858766
2410285540.0 -0.0002979238 -0.0054211572
2415285510.0 -0.0002398296 -0.0052891005
2420285480.0 -0.0002869583 -0.005496299
2425285450.0 -0.0003970986 -0.0053067645
2430285420.0 -0.0002356071 -0.0052779324
2435285390.0 -0.0007059504 -0.0051405015
2440285360.0 -0.0003185696 -0.0053862698
2445285330.0 -0.0004247959 -0.005187004
2450285300.0 -0.0005204276 -0.0053173603
2455285270.0 -0.0005402334 -0.0052976515
2460285240.0 -0.0005385311 -0.005159278
2465285210.0 -0.0003838883 -0.005185594
2470285180.0 -0.0006659279 -0.0052541219
2475285150.0 -0.0002566728 -0.0050013246
2480285120.0 -0.0004524976 -0.0050490432
2485285090.0 -0.0006751734 -0.0048276056
2490285060.0 -0.0007192505 -0.0049020109
2495285030.0 -0.000605125 -0.0050080171
2500285000.0 -0.0005613309 -0.0049393588
2505284970.0 -0.0003218527 -0.0050147141
2510284940.0 -0.000627528 -0.0049132749
2515284910.0 -0.000523912 -0.0049433269
2520284880.0 -0.0006560496 -0.0050307744
2525284850.0 -0.0005823833 -0.0048738148
