!Created with skrf (http://scikit-rf.org).
# Hz S RI R 50.0 
!freq ReS11 ImS11
45000000.0 -0.0816802978515625 -0.09322357177734375
49995500.0 -0.10242080688476562 -0.08906173706054688
54991000.0 -0.12298202514648438 -0.081024169921875
59986500.0 -0.14110565185546875 -0.07888031005859375
64982000.0 -0.1604461669921875 -0.06964874267578125
69977500.0 -0.1790771484375 -0.0550079345703125
74973000.0 -0.19640350341796875 -0.037322998046875
79968500.0 -0.2119293212890625 -0.0163726806640625
84964000.0 -0.2253875732421875 0.00762939453125
89959500.0 -0.23587799072265625 0.0347442626953125
94955000.0 -0.243011474609375 0.0645751953125
99950500.0 -0.245880126953125 0.09676361083984375
104946000.0 -0.2444915771484375 0.130462646484375
109941500.0 -0.23816680908203125 0.1653594970703125
114937000.0 -0.22686767578125 0.20062255859375
119932500.0 -0.20938873291015625 0.23554229736328125
124928000.0 -0.188079833984375 0.269134521484375
129923500.0 -0.16058349609375 0.3003082275390625
134919000.0 -0.1282196044921875 0.3288116455078125
139914500.0 -0.09088134765625 0.353973388671875
144910000.0 -0.049713134765625 0.374420166015625
149905500.0 -0.0045166015625 0.3897857666015625
154901000.0 0.043121337890625 0.3995361328125
159896500.0 0.0928955078125 0.4029693603515625
164892000.0 0.14361572265625 0.4002227783203125
169887500.0 0.19476318359375 0.3907318115234375
174883000.0 0.2453765869140625 0.3748321533203125
179878500.0 0.2949066162109375 0.352294921875
184874000.0 0.34185791015625 0.323333740234375
189869500.0 0.3861236572265625 0.2881622314453125
194865000.0 0.4271697998046875 0.2475128173828125
199860500.0 0.4633636474609375 0.201446533203125
204856000.0 0.4942779541015625 0.1500244140625
209851500.0 0.520050048828125 0.094482421875
214847000.0 0.5394287109375 0.034881591796875
219842500.0 0.552032470703125 -0.0281982421875
224838000.0 0.557037353515625 -0.093475341796875
229833500.0 0.554656982421875 -0.160614013671875
234829000.0 0.544036865234375 -0.22833251953125
239824500.0 0.524688720703125 -0.2958984375
244820000.0 0.4969024658203125 -0.3619842529296875
249815500.0 0.460174560546875 -0.425628662109375
254811000.0 0.440185546875 -0.472869873046875
259806500.0 0.3902587890625 -0.5303955078125
264802000.0 0.33282470703125 -0.58270263671875
269797500.0 0.26788330078125 -0.628570556640625
274793000.0 0.1971435546875 -0.66644287109375
279788500.0 0.120697021484375 -0.695648193359375
284784000.0 0.040863037109375 -0.71575927734375
289779500.0 -0.04254150390625 -0.72607421875
294775000.0 -0.127532958984375 -0.7261962890625
299770500.0 -0.21234130859375 -0.716552734375
304766000.0 -0.296142578125 -0.696685791015625
309761500.0 -0.377777099609375 -0.6668701171875
314757000.0 -0.45599365234375 -0.627227783203125
319752500.0 -0.529449462890625 -0.578369140625
324748000.0 -0.597869873046875 -0.5216064453125
329743500.0 -0.660552978515625 -0.45703125
334739000.0 -0.71636962890625 -0.384857177734375
339734500.0 -0.764495849609375 -0.306060791015625
344730000.0 -0.8040771484375 -0.221466064453125
349725500.0 -0.834869384765625 -0.131927490234375
354721000.0 -0.8558349609375 -0.0379638671875
359716500.0 -0.866851806640625 0.0592041015625
364712000.0 -0.866180419921875 0.15887451171875
369707500.0 -0.854583740234375 0.260406494140625
374703000.0 -0.8306884765625 0.361907958984375
379698500.0 -0.7945556640625 0.46160888671875
384694000.0 -0.745758056640625 0.55853271484375
389689500.0 -0.683624267578125 0.6500244140625
394685000.0 -0.6103515625 0.735260009765625
399680500.0 -0.525146484375 0.811370849609375
404676000.0 -0.43035888671875 0.87750244140625
409671500.0 -0.326873779296875 0.93310546875
414667000.0 -0.216400146484375 0.973052978515625
419662500.0 -0.10076904296875 0.99981689453125
424658000.0 0.01873779296875 1.011962890625
429653500.0 0.13934326171875 1.00860595703125
434649000.0 0.2589111328125 0.98870849609375
439644500.0 0.37310791015625 0.955078125
444640000.0 0.4810791015625 0.909332275390625
449635500.0 0.5831298828125 0.85235595703125
454631000.0 0.679107666015625 0.785736083984375
459626500.0 0.76727294921875 0.707183837890625
464622000.0 0.846038818359375 0.619720458984375
469617500.0 0.914337158203125 0.52423095703125
474613000.0 0.972259521484375 0.42266845703125
479608500.0 1.01947021484375 0.3153076171875
484604000.0 1.055908203125 0.202880859375
489599500.0 1.08074951171875 0.0867919921875
494595000.0 1.09429931640625 -0.03289794921875
499590500.0 1.0953369140625 -0.155029296875
504586000.0 1.0838623046875 -0.2783203125
509581500.0 1.058349609375 -0.40185546875
514577000.0 1.01904296875 -0.52508544921875
519572500.0 0.964813232421875 -0.6456298828125
524568000.0 0.895111083984375 -0.761688232421875
529563500.0 0.809539794921875 -0.871368408203125
534559000.0 0.709564208984375 -0.970916748046875
539554500.0 0.5953369140625 -1.058349609375
544550000.0 0.46990966796875 -1.13140869140625
549545500.0 0.33428955078125 -1.18798828125
554541000.0 0.19195556640625 -1.22735595703125
559536500.0 0.04541015625 -1.24822998046875
564532000.0 -0.10260009765625 -1.2509765625
569527500.0 -0.25018310546875 -1.2349853515625
574523000.0 -0.39495849609375 -1.20086669921875
579518500.0 -0.53369140625 -1.14947509765625
584514000.0 -0.66455078125 -1.0811767578125
589509500.0 -0.785614013671875 -0.99853515625
594505000.0 -0.894989013671875 -0.902740478515625
599500500.0 -0.991973876953125 -0.796356201171875
604496000.0 -1.07568359375 -0.680419921875
609491500.0 -1.145751953125 -0.5572509765625
614487000.0 -1.201904296875 -0.42864990234375
619482500.0 -1.2447509765625 -0.2957763671875
624478000.0 -1.27362060546875 -0.1597900390625
629473500.0 -1.288818359375 -0.02197265625
634469000.0 -1.2906494140625 0.1171875
639464500.0 -1.2791748046875 0.25677490234375
644460000.0 -1.253662109375 0.39617919921875
649455500.0 -1.21453857421875 0.53424072265625
654451000.0 -1.160400390625 0.6697998046875
659446500.0 -1.09185791015625 0.8023681640625
664442000.0 -1.00787353515625 0.9300537109375
669437500.0 -0.90826416015625 1.05084228515625
674433000.0 -0.7921142578125 1.16217041015625
679428500.0 -0.66009521484375 1.26190185546875
684424000.0 -0.51397705078125 1.34698486328125
689419500.0 -0.35430908203125 1.41455078125
694415000.0 -0.1837158203125 1.46136474609375
699410500.0 -0.00494384765625 1.4864501953125
704406000.0 0.177490234375 1.4866943359375
709401500.0 0.36029052734375 1.4617919921875
714397000.0 0.53839111328125 1.41168212890625
719392500.0 0.70806884765625 1.33770751953125
724388000.0 0.8658447265625 1.242431640625
729383500.0 1.00823974609375 1.12799072265625
734379000.0 1.13201904296875 0.99591064453125
739374500.0 1.2366943359375 0.85235595703125
744370000.0 1.32171630859375 0.699462890625
749365500.0 1.38665771484375 0.5400390625
754361000.0 1.43255615234375 0.37841796875
759356500.0 1.45941162109375 0.2149658203125
764352000.0 1.4686279296875 0.05255126953125
769347500.0 1.46099853515625 -0.10748291015625
774343000.0 1.43792724609375 -0.264404296875
779338500.0 1.39935302734375 -0.41668701171875
784334000.0 1.34832763671875 -0.56378173828125
789329500.0 1.28265380859375 -0.70513916015625
794325000.0 1.20440673828125 -0.84002685546875
799320500.0 1.113037109375 -0.96795654296875
804316000.0 1.00872802734375 -1.08740234375
809311500.0 0.89141845703125 -1.19769287109375
814307000.0 0.7623291015625 -1.29718017578125
819302500.0 0.6209716796875 -1.3846435546875
824298000.0 0.46746826171875 -1.45745849609375
829293500.0 0.304443359375 -1.51434326171875
834289000.0 0.13079833984375 -1.55242919921875
839284500.0 -0.04833984375 -1.57012939453125
844280000.0 -0.1658935546875 -1.59637451171875
849275500.0 -0.35357666015625 -1.577392578125
854271000.0 -0.5391845703125 -1.53399658203125
859266500.0 -0.71954345703125 -1.46624755859375
864262000.0 -0.88970947265625 -1.37542724609375
869257500.0 -1.04705810546875 -1.2630615234375
874253000.0 -1.1884765625 -1.13153076171875
879248500.0 -1.31134033203125 -0.98492431640625
884244000.0 -1.41436767578125 -0.82513427734375
889239500.0 -1.49609375 -0.65576171875
894235000.0 -1.55743408203125 -0.4805908203125
899230500.0 -1.59722900390625 -0.30181884765625
904226000.0 -1.617431640625 -0.1204833984375
909221500.0 -1.61700439453125 0.06011962890625
914217000.0 -1.5965576171875 0.2381591796875
919212500.0 -1.55718994140625 0.41119384765625
924208000.0 -1.5010986328125 0.57672119140625
929203500.0 -1.42926025390625 0.7342529296875
934199000.0 -1.3428955078125 0.88250732421875
939194500.0 -1.24310302734375 1.021484375
944190000.0 -1.13104248046875 1.15045166015625
949185500.0 -1.00604248046875 1.2689208984375
954181000.0 -0.869140625 1.3768310546875
959176500.0 -0.72076416015625 1.471435546875
964172000.0 -0.56085205078125 1.55133056640625
969167500.0 -0.390869140625 1.61627197265625
974163000.0 -0.21075439453125 1.6630859375
979158500.0 -0.0225830078125 1.6900634765625
984154000.0 0.1708984375 1.69586181640625
989149500.0 0.36810302734375 1.6778564453125
994145000.0 0.56396484375 1.634765625
999140500.0 0.757080078125 1.56695556640625
1004136000.0 0.941650390625 1.4736328125
1009131500.0 1.1143798828125 1.35650634765625
1014127000.0 1.2705078125 1.2169189453125
1019122500.0 1.408203125 1.05780029296875
1024118000.0 1.5223388671875 0.8828125
1029113500.0 1.613525390625 0.6951904296875
1034109000.0 1.67926025390625 0.49945068359375
1039104500.0 1.71978759765625 0.29925537109375
1044100000.0 1.735107421875 0.0982666015625
1049095500.0 1.72662353515625 -0.10009765625
1054091000.0 1.695556640625 -0.292724609375
1059086500.0 1.64501953125 -0.47845458984375
1064082000.0 1.57525634765625 -0.6546630859375
1069077500.0 1.488525390625 -0.820556640625
1074073000.0 1.386474609375 -0.97491455078125
1079068500.0 1.27008056640625 -1.11737060546875
1084064000.0 1.14154052734375 -1.2464599609375
1089059500.0 1.000732421875 -1.36187744140625
1094055000.0 0.84979248046875 -1.4647216796875
1099050500.0 0.68768310546875 -1.5509033203125
1104046000.0 0.5172119140625 -1.62091064453125
1109041500.0 0.33819580078125 -1.67498779296875
1114037000.0 0.15325927734375 -1.70928955078125
1119032500.0 -0.0377197265625 -1.72430419921875
1124028000.0 -0.23077392578125 -1.71832275390625
1129023500.0 -0.426513671875 -1.6900634765625
1134019000.0 -0.6195068359375 -1.6387939453125
1139014500.0 -0.80780029296875 -1.56378173828125
1144010000.0 -0.988037109375 -1.4659423828125
1149005500.0 -1.15631103515625 -1.34466552734375
1154001000.0 -1.3092041015625 -1.2025146484375
1158996500.0 -1.44451904296875 -1.04083251953125
1163992000.0 -1.55706787109375 -0.8629150390625
1168987500.0 -1.64678955078125 -0.671630859375
1173983000.0 -1.7108154296875 -0.47137451171875
1178978500.0 -1.7489013671875 -0.26556396484375
1183974000.0 -1.76025390625 -0.05865478515625
1188969500.0 -1.74688720703125 0.14617919921875
1193965000.0 -1.70867919921875 0.34478759765625
1198960500.0 -1.64813232421875 0.53533935546875
1203956000.0 -1.5662841796875 0.714111328125
1208951500.0 -1.46649169921875 0.8798828125
1213947000.0 -1.350341796875 1.0318603515625
1218942500.0 -1.22027587890625 1.166748046875
1223938000.0 -1.078369140625 1.2869873046875
1228933500.0 -0.92706298828125 1.388916015625
1233929000.0 -0.7679443359375 1.47442626953125
1238924500.0 -0.6021728515625 1.54205322265625
1243920000.0 -0.4312744140625 1.592529296875
1248915500.0 -0.25848388671875 1.62579345703125
1253911000.0 -0.0826416015625 1.6412353515625
1258906500.0 0.09344482421875 1.639892578125
1263902000.0 0.26922607421875 1.620849609375
1268897500.0 0.44134521484375 1.58355712890625
1273893000.0 0.6083984375 1.52813720703125
1278888500.0 0.77142333984375 1.45611572265625
1283884000.0 0.9266357421875 1.3668212890625
1288879500.0 1.07208251953125 1.2601318359375
1293875000.0 1.206787109375 1.1380615234375
1298870500.0 1.32763671875 1.00067138671875
1303866000.0 1.43365478515625 0.8497314453125
1308861500.0 1.52264404296875 0.68695068359375
1313857000.0 1.59307861328125 0.51409912109375
1318852500.0 1.64361572265625 0.33331298828125
1323848000.0 1.67376708984375 0.14666748046875
1328843500.0 1.68218994140625 -0.0416259765625
1333839000.0 1.6693115234375 -0.2315673828125
1338834500.0 1.6343994140625 -0.41937255859375
1343830000.0 1.57830810546875 -0.601806640625
1348825500.0 1.50146484375 -0.77703857421875
1353821000.0 1.40509033203125 -0.9432373046875
1358816500.0 1.2889404296875 -1.096923828125
1363812000.0 1.15594482421875 -1.23699951171875
1368807500.0 1.0076904296875 -1.360595703125
1373803000.0 0.845947265625 -1.46588134765625
1378798500.0 0.67236328125 -1.55126953125
1383794000.0 0.49029541015625 -1.6156005859375
1388789500.0 0.30194091796875 -1.658203125
1393785000.0 0.1114501953125 -1.6778564453125
1398780500.0 -0.079345703125 -1.67498779296875
1403776000.0 -0.2679443359375 -1.6502685546875
1408771500.0 -0.4512939453125 -1.60369873046875
1413767000.0 -0.6260986328125 -1.53692626953125
1418762500.0 -0.7906494140625 -1.4512939453125
1423758000.0 -0.9429931640625 -1.3487548828125
1428753500.0 -1.08123779296875 -1.23101806640625
1433749000.0 -1.20465087890625 -1.1002197265625
1438744500.0 -1.31231689453125 -0.958740234375
1443740000.0 -1.40411376953125 -0.8076171875
1448735500.0 -1.47802734375 -0.64971923828125
1453731000.0 -1.53607177734375 -0.48602294921875
1458726500.0 -1.57720947265625 -0.3175048828125
1463722000.0 -1.60089111328125 -0.1466064453125
1468717500.0 -1.6075439453125 0.0264892578125
1473713000.0 -1.5968017578125 0.19891357421875
1478708500.0 -1.56878662109375 0.37042236328125
1483704000.0 -1.52337646484375 0.538818359375
1488699500.0 -1.46014404296875 0.70330810546875
1493695000.0 -1.3792724609375 0.86260986328125
1498690500.0 -1.28076171875 1.01385498046875
1503686000.0 -1.1649169921875 1.15496826171875
1508681500.0 -1.03155517578125 1.28436279296875
1513677000.0 -0.88262939453125 1.3994140625
1518672500.0 -0.71893310546875 1.4959716796875
1523668000.0 -0.54254150390625 1.57421875
1528663500.0 -0.3563232421875 1.62969970703125
1533659000.0 -0.16302490234375 1.66156005859375
1538654500.0 0.033935546875 1.6688232421875
1543650000.0 0.2294921875 1.649658203125
1548645500.0 0.4210205078125 1.60675048828125
1553641000.0 0.60369873046875 1.5396728515625
1558636500.0 0.77423095703125 1.4505615234375
1563632000.0 0.93060302734375 1.34210205078125
1568627500.0 1.0703125 1.21728515625
1573623000.0 1.1912841796875 1.0794677734375
1578618500.0 1.2935791015625 0.9310302734375
1583614000.0 1.37640380859375 0.775146484375
1588609500.0 1.44097900390625 0.614501953125
1593605000.0 1.487060546875 0.4508056640625
1598600500.0 1.51531982421875 0.28662109375
1603596000.0 1.5263671875 0.12274169921875
1608591500.0 1.52166748046875 -0.03875732421875
1613587000.0 1.50189208984375 -0.19720458984375
1618582500.0 1.46710205078125 -0.3516845703125
1623578000.0 1.41851806640625 -0.5008544921875
1628573500.0 1.3563232421875 -0.64556884765625
1633569000.0 1.281005859375 -0.78338623046875
1638564500.0 1.19171142578125 -0.91400146484375
1643560000.0 1.090087890625 -1.0357666015625
1648555500.0 0.9759521484375 -1.1484375
1653551000.0 0.84893798828125 -1.25
1658546500.0 0.7105712890625 -1.33807373046875
1663542000.0 0.5626220703125 -1.4117431640625
1668537500.0 0.40380859375 -1.46942138671875
1673533000.0 0.23858642578125 -1.50927734375
1678528500.0 0.06744384765625 -1.529296875
1683524000.0 -0.10577392578125 -1.528564453125
1688519500.0 -0.27947998046875 -1.50640869140625
1693515000.0 -0.4486083984375 -1.462646484375
1698510500.0 -0.61151123046875 -1.397705078125
1703506000.0 -0.76287841796875 -1.31512451171875
1708501500.0 -0.90179443359375 -1.215576171875
1713497000.0 -1.0263671875 -1.100341796875
1718492500.0 -1.13482666015625 -0.9735107421875
1723488000.0 -1.22613525390625 -0.837646484375
1728483500.0 -1.30072021484375 -0.69482421875
1733479000.0 -1.35809326171875 -0.54791259765625
1738474500.0 -1.39959716796875 -0.3984375
1743470000.0 -1.42547607421875 -0.24798583984375
1748465500.0 -1.4366455078125 -0.0987548828125
1753461000.0 -1.4332275390625 0.04937744140625
1758456500.0 -1.41748046875 0.19512939453125
1763452000.0 -1.38885498046875 0.33843994140625
1768447500.0 -1.3477783203125 0.47845458984375
1773443000.0 -1.294189453125 0.61468505859375
1778438500.0 -1.22845458984375 0.74700927734375
1783434000.0 -1.14959716796875 0.87335205078125
1788429500.0 -1.0577392578125 0.993896484375
1793425000.0 -0.95294189453125 1.10711669921875
1798420500.0 -0.834716796875 1.211181640625
1803416000.0 -0.70318603515625 1.30401611328125
1808411500.0 -0.55889892578125 1.3834228515625
1813407000.0 -0.40350341796875 1.4466552734375
1818402500.0 -0.238525390625 1.4925537109375
1823398000.0 -0.0657958984375 1.517333984375
1828393500.0 0.1107177734375 1.52056884765625
1833389000.0 0.28717041015625 1.500244140625
1838384500.0 0.46075439453125 1.45660400390625
1843380000.0 0.6270751953125 1.39111328125
1848375500.0 0.78179931640625 1.304931640625
1853371000.0 0.92291259765625 1.2003173828125
1858366500.0 1.0477294921875 1.0804443359375
1863362000.0 1.1553955078125 0.9488525390625
1868357500.0 1.24444580078125 0.80792236328125
1873353000.0 1.3155517578125 0.66107177734375
1878348500.0 1.36846923828125 0.51116943359375
1883344000.0 1.4052734375 0.3592529296875
1888339500.0 1.42498779296875 0.20819091796875
1893335000.0 1.43096923828125 0.05841064453125
1898330500.0 1.42327880859375 -0.08941650390625
1903326000.0 1.40191650390625 -0.23333740234375
1908321500.0 1.368408203125 -0.3739013671875
1913317000.0 1.32305908203125 -0.510498046875
1918312500.0 1.26556396484375 -0.64324951171875
1923308000.0 1.19671630859375 -0.77069091796875
1928303500.0 1.11541748046875 -0.89306640625
1933299000.0 1.0220947265625 -1.0086669921875
1938294500.0 0.91650390625 -1.11669921875
1943290000.0 0.79815673828125 -1.215576171875
1948285500.0 0.66790771484375 -1.30364990234375
1953281000.0 0.5255126953125 -1.37835693359375
1958276500.0 0.373046875 -1.43804931640625
1963272000.0 0.21124267578125 -1.479736328125
1968267500.0 0.043212890625 -1.50238037109375
1973263000.0 -0.12933349609375 -1.50445556640625
1978258500.0 -0.302001953125 -1.484130859375
1983254000.0 -0.471923828125 -1.4423828125
1988249500.0 -0.63531494140625 -1.37872314453125
1993245000.0 -0.78839111328125 -1.2950439453125
1998240500.0 -0.9300537109375 -1.19317626953125
2003236000.0 -1.05609130859375 -1.07598876953125
2008231500.0 -1.1654052734375 -0.946044921875
2013227000.0 -1.25750732421875 -0.80548095703125
2018222500.0 -1.33197021484375 -0.657958984375
2023218000.0 -1.38836669921875 -0.5057373046875
2028213500.0 -1.4278564453125 -0.35040283203125
2033209000.0 -1.4501953125 -0.1951904296875
2038204500.0 -1.4564208984375 -0.03955078125
2043200000.0 -1.4482421875 0.1142578125
2048195500.0 -1.4249267578125 0.26495361328125
2053191000.0 -1.38702392578125 0.411865234375
2058186500.0 -1.33544921875 0.55462646484375
2063182000.0 -1.27081298828125 0.6917724609375
2068177500.0 -1.19268798828125 0.8226318359375
2073173000.0 -1.1011962890625 0.94561767578125
2078168500.0 -0.99688720703125 1.05975341796875
2083164000.0 -0.88055419921875 1.163818359375
2088159500.0 -0.752685546875 1.25592041015625
2093155000.0 -0.614013671875 1.33404541015625
2098150500.0 -0.46533203125 1.3978271484375
2103146000.0 -0.30975341796875 1.44415283203125
2108141500.0 -0.14801025390625 1.47308349609375
2113137000.0 0.01617431640625 1.48236083984375
2118132500.0 0.181396484375 1.47247314453125
2123128000.0 0.344482421875 1.442138671875
2128123500.0 0.501708984375 1.39337158203125
2133119000.0 0.651611328125 1.3270263671875
2138114500.0 0.79168701171875 1.24365234375
2143110000.0 0.9210205078125 1.14605712890625
2148105500.0 1.03631591796875 1.03546142578125
2153101000.0 1.13775634765625 0.9140625
2158096500.0 1.22430419921875 0.78515625
2163092000.0 1.29656982421875 0.64886474609375
2168087500.0 1.35382080078125 0.5076904296875
2173083000.0 1.39605712890625 0.362548828125
2178078500.0 1.42486572265625 0.21563720703125
2183074000.0 1.43902587890625 0.0670166015625
2188069500.0 1.43914794921875 -0.08160400390625
