!Created with skrf (http://scikit-rf.org).
# Hz S RI R 50.0 
!freq ReS11 ImS11
300000.0 -1.020678572 -0.1666826532
5299970.0 -1.002912137 0.0064567057
10299940.0 -1.000578801 0.0119092851
15299910.0 -1.000007689 0.022669411
20299880.0 -0.9997060185 0.0264625741
25299850.0 -0.9991432583 0.0343505119
30299820.0 -0.998902986 0.0421033902
35299790.0 -0.99808721 0.0458313323
40299760.0 -0.9973906441 0.0526481009
45299730.0 -0.9968514056 0.0589000357
50299700.0 -0.9962860387 0.0656452431
55299670.0 -0.9957129775 0.0725912958
60299640.0 -0.9947342952 0.0778292173
65299610.0 -0.9943183306 0.0844374007
70299580.0 -0.9932675081 0.0906690253
75299550.0 -0.9930470577 0.0966961804
80299520.0 -0.9925625251 0.1031827007
85299490.0 -0.9913186885 0.1094109444
90299460.0 -0.9904668639 0.1150992718
95299430.0 -0.9891656868 0.1215754164
100299400.0 -0.9883983901 0.1284841852
105299370.0 -0.9876367419 0.1343740918
110299340.0 -0.9869974467 0.1401191919
115299310.0 -0.9855425146 0.1465696253
120299280.0 -0.9843831103 0.1528433783
125299250.0 -0.9835322075 0.1588863123
130299220.0 -0.982233863 0.1651072378
135299190.0 -0.9819319202 0.1709449504
140299160.0 -0.9800319125 0.1771196836
145299130.0 -0.9793173372 0.183938159
150299100.0 -0.9775624288 0.1894421526
155299070.0 -0.9763868106 0.1952163007
160299040.0 -0.9752745431 0.2016805056
165299010.0 -0.9738171287 0.2082766864
170298980.0 -0.9716649499 0.2138544942
175298950.0 -0.9688501879 0.2194334919
180298920.0 -0.9670152847 0.2246370529
185298890.0 -0.9666873833 0.231247926
190298860.0 -0.9670470135 0.2380517696
195298830.0 -0.9651217148 0.2440556233
200298800.0 -0.963491818 0.2501877223
205298770.0 -0.9613070455 0.2561304335
210298740.0 -0.959957851 0.2625329661
215298710.0 -0.9588418478 0.2682704223
220298680.0 -0.9567271756 0.2742667779
225298650.0 -0.9548559351 0.2802065045
230298620.0 -0.9532504375 0.2859992531
235298590.0 -0.9511226369 0.2916855791
240298560.0 -0.949258338 0.2982407494
245298530.0 -0.9477790832 0.3038231877
250298500.0 -0.9455861073 0.309665067
255298470.0 -0.9431927078 0.3155042859
260298440.0 -0.9417336979 0.3214834674
265298410.0 -0.9399977551 0.3269514619
270298380.0 -0.9371644431 0.3331622765
275298350.0 -0.9350115722 0.3388872302
280298320.0 -0.9331829603 0.3447594034
285298290.0 -0.9305255976 0.3503607191
290298260.0 -0.9286318075 0.3561769231
295298230.0 -0.9265916541 0.3619415612
300298200.0 -0.9239737285 0.3678816692
305298170.0 -0.9212294171 0.3739818243
310298140.0 -0.9195228044 0.3795096046
315298110.0 -0.9168921487 0.3847582778
320298080.0 -0.9144660353 0.390568609
325298050.0 -0.9118356745 0.3965911565
330298020.0 -0.9092774952 0.4017970526
335297990.0 -0.9065841728 0.4080535387
340297960.0 -0.904323162 0.413580009
345297930.0 -0.9017383804 0.4191328781
350297900.0 -0.8993374075 0.4251987361
355297870.0 -0.8967456048 0.4305260675
360297840.0 -0.8950604051 0.4355363222
365297810.0 -0.8915350128 0.4417147227
370297780.0 -0.8887825512 0.4461754545
375297750.0 -0.8850094494 0.4522545673
380297720.0 -0.8826284226 0.4579576044
385297690.0 -0.8796581558 0.4633400784
390297660.0 -0.8764428245 0.4684650627
395297630.0 -0.8735695763 0.4739784814
400297600.0 -0.8702959163 0.4796665846
405297570.0 -0.86775507 0.4851707006
410297540.0 -0.8641543519 0.4902002235
415297510.0 -0.8609878737 0.4957612367
420297480.0 -0.8578701856 0.5014477217
425297450.0 -0.8548197038 0.5061799436
430297420.0 -0.8515735981 0.511366238
435297390.0 -0.8486420937 0.5172019968
440297360.0 -0.8451211609 0.5224548844
445297330.0 -0.8419749809 0.5276991467
450297300.0 -0.8385850485 0.5329128842
455297270.0 -0.8358792838 0.5384629909
460297240.0 -0.8319424978 0.5428019631
465297210.0 -0.8278936694 0.5486336264
470297180.0 -0.8246609174 0.5534081942
475297150.0 -0.8214677479 0.5586727649
480297120.0 -0.8177707699 0.5640578322
485297090.0 -0.8145523496 0.568861131
490297060.0 -0.8108090306 0.57409933
495297030.0 -0.8079391815 0.5783123771
500297000.0 -0.8037998273 0.5837740913
505296970.0 -0.799754269 0.5889343988
510296940.0 -0.7961318667 0.5938673621
515296910.0 -0.7934579004 0.5990828493
520296880.0 -0.7891861134 0.6038701915
525296850.0 -0.7858622629 0.6085996091
530296820.0 -0.7822088179 0.6139024558
535296790.0 -0.7780258437 0.6186250003
540296760.0 -0.7743261358 0.6231127089
545296730.0 -0.7705048275 0.6283870205
550296700.0 -0.7661361375 0.6330580979
555296670.0 -0.7618637954 0.6375167233
560296640.0 -0.7577301066 0.6416968826
565296610.0 -0.7533660594 0.646670044
570296580.0 -0.7492436287 0.6516059107
575296550.0 -0.7454535206 0.6562763722
580296520.0 -0.7414586758 0.6608006983
585296490.0 -0.7367176644 0.6646384987
590296460.0 -0.7325384441 0.6697434599
595296430.0 -0.7285619448 0.6741061807
600296400.0 -0.7244545374 0.6790015495
605296370.0 -0.7200173042 0.6831076533
610296340.0 -0.7158885587 0.6872525793
615296310.0 -0.7114351272 0.6919001951
620296280.0 -0.7071860387 0.6963523511
625296250.0 -0.7031176085 0.7003393708
630296220.0 -0.6988275675 0.7045288534
635296190.0 -0.6945956644 0.7094823676
640296160.0 -0.6905389829 0.7127498481
645296130.0 -0.6854845597 0.7175778442
650296100.0 -0.6807854355 0.7218025197
655296070.0 -0.6761155312 0.7263997533
660296040.0 -0.6717398742 0.7305116428
665296010.0 -0.6669689481 0.7341208469
670295980.0 -0.6623680552 0.7379823227
675295950.0 -0.6578862216 0.7427606183
680295920.0 -0.6531364157 0.7468832126
685295890.0 -0.648151161 0.750818993
690295860.0 -0.6438732295 0.754475746
695295830.0 -0.6393304487 0.7583715111
700295800.0 -0.6341669872 0.7626038684
705295770.0 -0.6298735156 0.7663078126
710295740.0 -0.6252120286 0.7700464467
715295710.0 -0.6198401644 0.7745980472
720295680.0 -0.6155371666 0.7782517131
725295650.0 -0.6101585483 0.7818308849
730295620.0 -0.6054723387 0.7853277784
735295590.0 -0.6010925791 0.7889496545
740295560.0 -0.5956628371 0.7925139318
745295530.0 -0.5909308888 0.7963148229
750295500.0 -0.5859934478 0.8001560335
755295470.0 -0.580719289 0.8038157092
760295440.0 -0.5764164513 0.8072436981
765295410.0 -0.5709445271 0.8107295407
770295380.0 -0.5657132869 0.8142302369
775295350.0 -0.5609019189 0.8177655675
780295320.0 -0.555618069 0.8211220774
785295290.0 -0.5503434605 0.8247542593
790295260.0 -0.5449273281 0.8284161581
795295230.0 -0.5401693936 0.8313811861
800295200.0 -0.5344831953 0.8351151703
805295170.0 -0.5293191904 0.8384660516
810295140.0 -0.5243046883 0.8415318934
815295110.0 -0.519137245 0.8443503254
820295080.0 -0.5136641728 0.8477004646
825295050.0 -0.5084505371 0.8507298243
830295020.0 -0.5029059098 0.8537908011
835294990.0 -0.4977509738 0.8570219574
840294960.0 -0.4927101712 0.8597605338
845294930.0 -0.4872708448 0.8630319747
850294900.0 -0.4814570364 0.8659106721
855294870.0 -0.4763089869 0.8691797118
860294840.0 -0.4713214027 0.8715587815
865294810.0 -0.4652397315 0.874789453
870294780.0 -0.4596737466 0.8776997622
875294750.0 -0.4551979625 0.8799693264
880294720.0 -0.4491888377 0.8827826151
885294690.0 -0.4433086835 0.8854489882
890294660.0 -0.4380997956 0.8883511951
895294630.0 -0.4325346572 0.8903977652
900294600.0 -0.4273293587 0.8934562987
905294570.0 -0.4216119199 0.8957282464
910294540.0 -0.416057801 0.8984742606
915294510.0 -0.4108027181 0.9012003465
920294480.0 -0.4048585389 0.9031058408
925294450.0 -0.3992341111 0.9056737048
930294420.0 -0.393574628 0.9086193954
935294390.0 -0.3878857589 0.9101776218
940294360.0 -0.3821395663 0.9135860529
945294330.0 -0.3767120242 0.9150727131
950294300.0 -0.3708472872 0.9172232204
955294270.0 -0.3655085254 0.9199738168
960294240.0 -0.3596784204 0.9220422878
965294210.0 -0.3536149753 0.9241081655
970294180.0 -0.3474684992 0.9265371569
975294150.0 -0.3421217052 0.9286072458
980294120.0 -0.3371008802 0.9306557008
985294090.0 -0.3306211179 0.9320232712
990294060.0 -0.3250598569 0.9345992056
995294030.0 -0.3191608332 0.9364035299
1000294000.0 -0.3131482704 0.9384272254
1005293970.0 -0.3077025459 0.9401341219
1010293940.0 -0.3021100649 0.941855716
1015293910.0 -0.2957337278 0.9444462825
1020293880.0 -0.2900156847 0.9453651809
1025293850.0 -0.2844107985 0.9473109507
1030293820.0 -0.2783467391 0.9491610942
1035293790.0 -0.272336243 0.9504949325
1040293760.0 -0.2664291545 0.9522471129
1045293730.0 -0.2603813077 0.9535448216
1050293700.0 -0.2542389853 0.9555586807
1055293670.0 -0.2490126784 0.956823417
1060293640.0 -0.2427640939 0.958766674
1065293610.0 -0.2372346117 0.959695547
1070293580.0 -0.2307864266 0.9613378155
1075293550.0 -0.2252874147 0.9625862356
1080293520.0 -0.2195486404 0.9639781363
1085293490.0 -0.2129055329 0.9651294777
1090293460.0 -0.2071700059 0.9669747404
1095293430.0 -0.1999437474 0.9680321185
1100293400.0 -0.1948521356 0.9690478771
1105293370.0 -0.1888463677 0.9698270227
1110293340.0 -0.1827947563 0.9710975647
1115293310.0 -0.1764565262 0.9725046964
1120293280.0 -0.1709535638 0.9735208206
1125293250.0 -0.1653363441 0.9743332634
1130293220.0 -0.159105347 0.9754435792
1135293190.0 -0.1533790588 0.9763455557
1140293160.0 -0.1470473813 0.9775517623
1145293130.0 -0.1408791026 0.9781419615
1150293100.0 -0.1347265349 0.9794267742
1155293070.0 -0.1286831961 0.9798472727
1160293040.0 -0.122099796 0.9808216178
1165293010.0 -0.116344486 0.9817028864
1170292980.0 -0.1108418041 0.9814221361
1175292950.0 -0.1043753503 0.9828090317
1180292920.0 -0.0986668274 0.982546619
1185292890.0 -0.0928222286 0.9837226841
1190292860.0 -0.0868645791 0.9840950057
1195292830.0 -0.0805959707 0.9851582247
1200292800.0 -0.0747683383 0.9847757083
1205292770.0 -0.0687482064 0.9855163795
1210292740.0 -0.0625962128 0.985302094
1215292710.0 -0.0562974693 0.9861728789
1220292680.0 -0.0502721598 0.9865080122
1225292650.0 -0.0437402929 0.9863056641
1230292620.0 -0.0375786536 0.986698485
1235292590.0 -0.0320847396 0.9873563322
1240292560.0 -0.0261505219 0.9868755469
1245292530.0 -0.0197421393 0.9870291012
1250292500.0 -0.0132862471 0.9875578402
1255292470.0 -0.0070201321 0.9873872154
1260292440.0 -0.0010065442 0.9877839183
1265292410.0 0.0049962144 0.9873462526
1270292380.0 0.0107182831 0.9874493372
1275292350.0 0.0166536701 0.9869264159
1280292320.0 0.0231200388 0.9877653141
1285292290.0 0.028856579 0.9868367419
1290292260.0 0.0349302165 0.986934142
1295292230.0 0.0406125321 0.9862189932
1300292200.0 0.046874451 0.9861335364
1305292170.0 0.0529014486 0.9856750025
1310292140.0 0.0591849625 0.9854692291
1315292110.0 0.0652625777 0.9849445707
1320292080.0 0.071231314 0.9846136139
1325292050.0 0.0776193435 0.984086562
1330292020.0 0.0835580309 0.9839630474
1335291990.0 0.0900371518 0.9827872091
1340291960.0 0.0966593376 0.9825506178
1345291930.0 0.1026933438 0.9817780445
1350291900.0 0.1087660267 0.9809515161
1355291870.0 0.1139212747 0.9805468403
1360291840.0 0.119900012 0.979367822
1365291810.0 0.1260915594 0.9790012269
1370291780.0 0.1322201752 0.9779891528
1375291750.0 0.1381736308 0.9774863284
1380291720.0 0.1439402743 0.9761986481
1385291690.0 0.1502519323 0.9751866156
1390291660.0 0.1563845527 0.974765866
1395291630.0 0.1618942593 0.9737491236
1400291600.0 0.1684437367 0.9729491598
1405291570.0 0.1737564254 0.9718264802
1410291540.0 0.181047396 0.9703309705
1415291510.0 0.1864496638 0.9693533223
1420291480.0 0.1923055174 0.9679525997
1425291450.0 0.1980512806 0.9673474278
1430291420.0 0.2037577306 0.9656280406
1435291390.0 0.2096573346 0.9646535903
1440291360.0 0.2157655943 0.9629654205
1445291330.0 0.2214220077 0.9616199505
1450291300.0 0.2270130051 0.9605313124
1455291270.0 0.2327621205 0.9590642726
1460291240.0 0.2388896003 0.9569137264
1465291210.0 0.2445836812 0.955802692
1470291180.0 0.2506017439 0.9538507705
1475291150.0 0.2565811106 0.9527319544
1480291120.0 0.2623130408 0.950803083
1485291090.0 0.2686723334 0.9494418251
1490291060.0 0.2743888787 0.9473286309
1495291030.0 0.2801385036 0.945904636
1500291000.0 0.2853991831 0.9445415486
1505290970.0 0.2914440044 0.9424463178
1510290940.0 0.2976647773 0.9405740869
1515290910.0 0.3033130715 0.938677412
1520290880.0 0.3087682905 0.9370688635
1525290850.0 0.3145412976 0.9359458242
1530290820.0 0.3205700258 0.9334142605
1535290790.0 0.3262513427 0.9313405084
1540290760.0 0.3322399736 0.9288751022
1545290730.0 0.3380001898 0.9267942184
1550290700.0 0.3437450214 0.9246671514
1555290670.0 0.3493535858 0.9227619271
1560290640.0 0.354830139 0.9200238787
1565290610.0 0.3601912648 0.9182962749
1570290580.0 0.3659071778 0.9168584002
1575290550.0 0.3713770335 0.9137314885
1580290520.0 0.37803622 0.9107981279
1585290490.0 0.3834311191 0.9094591297
1590290460.0 0.3888332628 0.9068534902
1595290430.0 0.3944675247 0.9044219625
1600290400.0 0.3992478031 0.9021697272
1605290370.0 0.4044326722 0.8992957618
1610290340.0 0.4109444017 0.8969229143
1615290310.0 0.4166401006 0.894727902
1620290280.0 0.4214958683 0.89202075
1625290250.0 0.4273289586 0.8895309965
1630290220.0 0.4321686718 0.8865627365
1635290190.0 0.4377842362 0.8838399799
1640290160.0 0.4426145417 0.8816339242
1645290130.0 0.4483960109 0.8790788731
1650290100.0 0.4534048193 0.8755685448
1655290070.0 0.4592256171 0.8731478748
1660290040.0 0.4644038316 0.8694895164
1665290010.0 0.4699701437 0.8668820036
1670289980.0 0.4752035166 0.8642941442
1675289950.0 0.4802071104 0.8614534432
1680289920.0 0.4855680984 0.8578429256
1685289890.0 0.491235408 0.8552888114
1690289860.0 0.4968954697 0.852074547
1695289830.0 0.5021498465 0.8489593381
1700289800.0 0.5072645441 0.8457887236
1705289770.0 0.5121581011 0.8429568376
1710289740.0 0.5173090594 0.8399762658
1715289710.0 0.5233232062 0.8362689308
1720289680.0 0.5279094629 0.8329291574
1725289650.0 0.5327519301 0.8297456806
1730289620.0 0.5382574234 0.8262762179
1735289590.0 0.5430303389 0.8234692888
1740289560.0 0.5478696099 0.8196630715
1745289530.0 0.5531335335 0.8167057206
1750289500.0 0.5579412552 0.8134840611
1755289470.0 0.5628968667 0.8099127848
1760289440.0 0.5677876076 0.8064915304
1765289410.0 0.5721534917 0.8027736631
1770289380.0 0.5769271643 0.7995740051
1775289350.0 0.5817717968 0.7965865593
1780289320.0 0.5865722003 0.7927749943
1785289290.0 0.5916663223 0.7891050325
1790289260.0 0.5969067541 0.7857852432
1795289230.0 0.6017489504 0.7816251404
1800289200.0 0.6068713648 0.7779885889
1805289170.0 0.6113377388 0.7737595816
1810289140.0 0.616563571 0.7704179653
1815289110.0 0.6204990658 0.7668691534
1820289080.0 0.6253357402 0.7630228236
1825289050.0 0.6292108904 0.7593056261
1830289020.0 0.6333215921 0.7556581194
1835288990.0 0.6387460036 0.7521244138
1840288960.0 0.6430649469 0.7482487019
1845288930.0 0.6480423305 0.7437968304
1850288900.0 0.6520958644 0.7395945314
1855288870.0 0.6570127854 0.7361030051
1860288840.0 0.6615966419 0.7313474078
1865288810.0 0.6660367632 0.7275314377
1870288780.0 0.6705438347 0.723248309
1875288750.0 0.6751103365 0.7190179707
1880288720.0 0.6797807649 0.7143771296
1885288690.0 0.6843242981 0.7104986307
1890288660.0 0.688880917 0.7065229834
1895288630.0 0.6923925608 0.7023712452
1900288600.0 0.6963654098 0.6976197641
1905288570.0 0.7008799646 0.6938723958
1910288540.0 0.705363935 0.6890888908
1915288510.0 0.7102943006 0.685428034
1920288480.0 0.7136021793 0.6802018646
1925288450.0 0.7182910283 0.6762515666
1930288420.0 0.722074979 0.6715308424
1935288390.0 0.7268317234 0.6668677664
1940288360.0 0.7307086328 0.6634104068
1945288330.0 0.7347335309 0.6579568711
1950288300.0 0.7389394615 0.6532267728
1955288270.0 0.7429014117 0.6489819424
1960288240.0 0.7470968421 0.6436417032
1965288210.0 0.7509057806 0.6390879125
1970288180.0 0.7550167158 0.6346072668
1975288150.0 0.7585211921 0.6303346521
1980288120.0 0.762961581 0.6257854357
1985288090.0 0.7662027973 0.6212880594
1990288060.0 0.7698863616 0.6167796275
1995288030.0 0.7734336677 0.6120838531
2000288000.0 0.7768369953 0.6079660126
2005287970.0 0.7801850418 0.6037691024
2010287940.0 0.7838390122 0.5988179986
2015287910.0 0.7878927159 0.5937048629
2020287880.0 0.7915187413 0.5886700469
2025287850.0 0.7949011032 0.5842501981
2030287820.0 0.7983408906 0.5781599758
2035287790.0 0.8016478026 0.5740346372
2040287760.0 0.8057637729 0.5692575706
2045287730.0 0.8087944142 0.5642295092
2050287700.0 0.8125770459 0.559260484
2055287670.0 0.8154184933 0.5537233769
2060287640.0 0.8190536091 0.5500062342
2065287610.0 0.8222073629 0.5444989745
2070287580.0 0.8255862743 0.5391157655
2075287550.0 0.8292747145 0.5340072437
2080287520.0 0.8324500469 0.5290948408
2085287490.0 0.8352720261 0.5241816112
2090287460.0 0.8389318551 0.5191171013
2095287430.0 0.8420318423 0.513436773
2100287400.0 0.8450469665 0.508876462
2105287370.0 0.8485179115 0.5034559718
2110287340.0 0.8514121667 0.4984591101
2115287310.0 0.8543606198 0.4926550707
2120287280.0 0.8566944117 0.4876989068
2125287250.0 0.8604520568 0.4820106028
2130287220.0 0.8629166325 0.4771690589
2135287190.0 0.8661468041 0.471928072
2140287160.0 0.8695965914 0.4660562208
2145287130.0 0.8719608832 0.4607537249
2150287100.0 0.874655081 0.4559770307
2155287070.0 0.8772244466 0.4508586109
2160287040.0 0.8801999132 0.4455786235
2165287010.0 0.8827395982 0.4401155641
2170286980.0 0.8851135128 0.434855872
2175286950.0 0.8879213964 0.4296150079
2180286920.0 0.8903125696 0.4240989478
2185286890.0 0.8932555087 0.4190390469
2190286860.0 0.8957560263 0.4141053342
2195286830.0 0.8981973272 0.4084540591
2200286800.0 0.9004547376 0.402867651
2205286770.0 0.9023211336 0.3975224733
2210286740.0 0.90434003 0.3926698103
2215286710.0 0.9070465919 0.3867653686
2220286680.0 0.9098750668 0.3814254885
2225286650.0 0.9118171378 0.3751653648
2230286620.0 0.9137712493 0.3699238498
2235286590.0 0.9164026851 0.3640897694
2240286560.0 0.9186758274 0.3585468031
2245286530.0 0.9207678206 0.353427468
2250286500.0 0.9232605331 0.346989155
2255286470.0 0.9254263618 0.3413831075
2260286440.0 0.9274459851 0.3352819763
2265286410.0 0.9291045129 0.329612183
2270286380.0 0.9315804222 0.3244358519
2275286350.0 0.9335375116 0.3184362041
2280286320.0 0.935065613 0.3130070469
2285286290.0 0.9371244302 0.3069041666
2290286260.0 0.9390243795 0.3014254179
2295286230.0 0.9408732234 0.2956914026
2300286200.0 0.9422726718 0.2898781331
2305286170.0 0.9442392748 0.2833863588
2310286140.0 0.9461793023 0.2784975217
2315286110.0 0.9474911733 0.2727556378
2320286080.0 0.9492475424 0.2669822643
2325286050.0 0.9509140803 0.2611821759
2330286020.0 0.9522218217 0.2551825512
2335285990.0 0.9537929743 0.2494846709
2340285960.0 0.9555086193 0.2438995976
2345285930.0 0.9569213981 0.2380127609
2350285900.0 0.9585877601 0.2317758323
2355285870.0 0.9599654857 0.2262008349
2360285840.0 0.9611115106 0.2202553638
2365285810.0 0.962631004 0.214318943
2370285780.0 0.9642574825 0.2087623663
2375285750.0 0.9653130242 0.2031101127
2380285720.0 0.9661570737 0.1968682541
2385285690.0 0.9669180559 0.191486197
2390285660.0 0.9687695821 0.1856963848
2395285630.0 0.9694259281 0.1793436547
2400285600.0 0.9702833858 0.1732848614
2405285570.0 0.9716943197 0.1679952252
2410285540.0 0.9723395165 0.1621715494
2415285510.0 0.9733743848 0.1565941167
2420285480.0 0.974268799 0.1506730183
2425285450.0 0.974945671 0.1444511637
2430285420.0 0.9761314279 0.1383502327
2435285390.0 0.9769736523 0.1329102864
2440285360.0 0.9771656488 0.1267775155
2445285330.0 0.9783799623 0.1213829231
2450285300.0 0.9791667465 0.1148552518
2455285270.0 0.9801387339 0.1085498617
2460285240.0 0.9802228607 0.1031585038
2465285210.0 0.9810789992 0.0966379728
2470285180.0 0.9815974506 0.0908042359
2475285150.0 0.9822762852 0.0848160612
2480285120.0 0.982559431 0.0789620229
2485285090.0 0.9826043114 0.0729447796
2490285060.0 0.9832982994 0.0669010311
2495285030.0 0.9838650047 0.0608780226
2500285000.0 0.9841056325 0.0541226346
2505284970.0 0.9847993179 0.0480992764
2510284940.0 0.9845058567 0.0421960576
2515284910.0 0.9847554021 0.0366385329
2520284880.0 0.9854049693 0.0302033524
2525284850.0 0.9849447026 0.0243869253
2530284820.0 0.9851257049 0.0181118662
2535284790.0 0.9854287566 0.0126660136
2540284760.0 0.9849468433 0.0070014646
2545284730.0 0.9853769839 0.0006654081
2550284700.0 0.985155003 -0.0048491118
2555284670.0 0.9851803586 -0.0109317002
