!Created with skrf (http://scikit-rf.org).
# Hz S RI R 50.0 
!freq ReS11 ImS11
45000000.0 0.0691680908203125 0.08703994750976562
49995500.0 0.08797836303710938 0.08700180053710938
54991000.0 0.10828018188476562 0.08314132690429688
59986500.0 0.1270904541015625 0.08464813232421875
64982000.0 0.147857666015625 0.078216552734375
69977500.0 0.16919708251953125 0.06591796875
74973000.0 0.1896209716796875 0.04972076416015625
79968500.0 0.2083282470703125 0.02902984619140625
84964000.0 0.22464752197265625 0.00452423095703125
89959500.0 0.23741912841796875 -0.02358245849609375
94955000.0 0.2459259033203125 -0.05515289306640625
99950500.0 0.24939727783203125 -0.0891876220703125
104946000.0 0.24802398681640625 -0.12457275390625
109941500.0 0.24163818359375 -0.16030120849609375
114937000.0 0.2290496826171875 -0.19623565673828125
119932500.0 0.21138763427734375 -0.23104095458984375
124928000.0 0.188934326171875 -0.2641448974609375
129923500.0 0.1615447998046875 -0.294403076171875
134919000.0 0.1297607421875 -0.321990966796875
139914500.0 0.093505859375 -0.3460845947265625
144910000.0 0.0537261962890625 -0.365966796875
149905500.0 0.0106353759765625 -0.38140869140625
154901000.0 -0.034942626953125 -0.3916473388671875
159896500.0 -0.0825347900390625 -0.3964080810546875
164892000.0 -0.1317596435546875 -0.395355224609375
169887500.0 -0.18182373046875 -0.3883209228515625
174883000.0 -0.2321929931640625 -0.3746795654296875
179878500.0 -0.28173828125 -0.3543243408203125
184874000.0 -0.329315185546875 -0.3276824951171875
189869500.0 -0.375152587890625 -0.2939453125
194865000.0 -0.4170074462890625 -0.2541656494140625
199860500.0 -0.4547119140625 -0.2088775634765625
204856000.0 -0.486785888671875 -0.15740966796875
209851500.0 -0.512359619140625 -0.101715087890625
214847000.0 -0.53192138671875 -0.0419921875
219842500.0 -0.544158935546875 0.02081298828125
224838000.0 -0.5484619140625 0.08544921875
229833500.0 -0.5450439453125 0.1512451171875
234829000.0 -0.533538818359375 0.216339111328125
239824500.0 -0.513946533203125 0.281097412109375
244820000.0 -0.4874267578125 0.34368896484375
249815500.0 -0.4531707763671875 0.403533935546875
254811000.0 -0.4348602294921875 0.446624755859375
259806500.0 -0.39013671875 0.50079345703125
264802000.0 -0.338623046875 0.551300048828125
269797500.0 -0.28045654296875 0.59619140625
274793000.0 -0.21710205078125 0.6351318359375
279788500.0 -0.14825439453125 0.667633056640625
284784000.0 -0.074798583984375 0.69293212890625
289779500.0 0.00323486328125 0.710418701171875
294775000.0 0.08428955078125 0.71923828125
299770500.0 0.1680908203125 0.718719482421875
304766000.0 0.25311279296875 0.708160400390625
309761500.0 0.338531494140625 0.68719482421875
314757000.0 0.422515869140625 0.6549072265625
319752500.0 0.50384521484375 0.611541748046875
324748000.0 0.580963134765625 0.55792236328125
329743500.0 0.652679443359375 0.49359130859375
334739000.0 0.716796875 0.41937255859375
339734500.0 0.77191162109375 0.33648681640625
344730000.0 0.8160400390625 0.24603271484375
349725500.0 0.84906005859375 0.149871826171875
354721000.0 0.870513916015625 0.049407958984375
359716500.0 0.87860107421875 -0.053192138671875
364712000.0 0.874114990234375 -0.157135009765625
369707500.0 0.8572998046875 -0.259765625
374703000.0 0.82794189453125 -0.36029052734375
379698500.0 0.786773681640625 -0.456695556640625
384694000.0 0.73504638671875 -0.54827880859375
389689500.0 0.672637939453125 -0.632904052734375
394685000.0 0.601409912109375 -0.710479736328125
399680500.0 0.522064208984375 -0.7802734375
404676000.0 0.435211181640625 -0.841400146484375
409671500.0 0.34161376953125 -0.894805908203125
414667000.0 0.242767333984375 -0.935516357421875
419662500.0 0.1380615234375 -0.96722412109375
424658000.0 0.028900146484375 -0.987762451171875
429653500.0 -0.084503173828125 -0.996246337890625
434649000.0 -0.20025634765625 -0.99072265625
439644500.0 -0.3150634765625 -0.971893310546875
444640000.0 -0.42919921875 -0.94085693359375
449635500.0 -0.540557861328125 -0.896881103515625
454631000.0 -0.65057373046875 -0.83966064453125
459626500.0 -0.755401611328125 -0.766510009765625
464622000.0 -0.850799560546875 -0.678497314453125
469617500.0 -0.93572998046875 -0.5772705078125
474613000.0 -1.00823974609375 -0.46441650390625
479608500.0 -1.0653076171875 -0.3411865234375
484604000.0 -1.10601806640625 -0.21051025390625
489599500.0 -1.12847900390625 -0.0748291015625
494595000.0 -1.13299560546875 0.06231689453125
499590500.0 -1.1190185546875 0.1978759765625
504586000.0 -1.08758544921875 0.329833984375
509581500.0 -1.04046630859375 0.4544677734375
514577000.0 -0.97869873046875 0.570220947265625
519572500.0 -0.9044189453125 0.67559814453125
524568000.0 -0.821197509765625 0.769805908203125
529563500.0 -0.730987548828125 0.8525390625
534559000.0 -0.6351318359375 0.924560546875
539554500.0 -0.535064697265625 0.986663818359375
544550000.0 -0.43145751953125 1.0401611328125
549545500.0 -0.322998046875 1.08575439453125
554541000.0 -0.208740234375 1.12237548828125
559536500.0 -0.0908203125 1.1495361328125
564532000.0 0.0328369140625 1.16534423828125
569527500.0 0.1605224609375 1.16845703125
574523000.0 0.29083251953125 1.15802001953125
579518500.0 0.42205810546875 1.133056640625
584514000.0 0.55255126953125 1.0924072265625
589509500.0 0.6805419921875 1.0364990234375
594505000.0 0.804229736328125 0.964752197265625
599500500.0 0.921295166015625 0.876495361328125
604496000.0 1.029541015625 0.77313232421875
609491500.0 1.126708984375 0.65460205078125
614487000.0 1.209228515625 0.5224609375
619482500.0 1.27606201171875 0.378173828125
624478000.0 1.3238525390625 0.2242431640625
629473500.0 1.3514404296875 0.063232421875
634469000.0 1.3572998046875 -0.101318359375
639464500.0 1.3406982421875 -0.2655029296875
644460000.0 1.3023681640625 -0.4267578125
649455500.0 1.24261474609375 -0.58038330078125
654451000.0 1.16424560546875 -0.72418212890625
659446500.0 1.0694580078125 -0.85595703125
664442000.0 0.95989990234375 -0.972747802734375
669437500.0 0.8388671875 -1.07427978515625
674433000.0 0.70867919921875 -1.15966796875
679428500.0 0.5721435546875 -1.22821044921875
684424000.0 0.43109130859375 -1.28082275390625
689419500.0 0.2872314453125 -1.317626953125
694415000.0 0.14239501953125 -1.3389892578125
699410500.0 -0.00213623046875 -1.34613037109375
704406000.0 -0.14544677734375 -1.3394775390625
709401500.0 -0.2872314453125 -1.31964111328125
714397000.0 -0.426513671875 -1.28656005859375
719392500.0 -0.5631103515625 -1.24041748046875
724388000.0 -0.69598388671875 -1.18212890625
729383500.0 -0.82476806640625 -1.1102294921875
734379000.0 -0.94775390625 -1.024169921875
739374500.0 -1.06402587890625 -0.92437744140625
744370000.0 -1.171630859375 -0.8101806640625
749365500.0 -1.26947021484375 -0.68328857421875
754361000.0 -1.35443115234375 -0.54168701171875
759356500.0 -1.42376708984375 -0.3876953125
764352000.0 -1.475830078125 -0.22235107421875
769347500.0 -1.50689697265625 -0.0477294921875
774343000.0 -1.5157470703125 0.13330078125
779338500.0 -1.50067138671875 0.31646728515625
784334000.0 -1.46209716796875 0.498291015625
789329500.0 -1.395751953125 0.6746826171875
794325000.0 -1.30706787109375 0.84130859375
799320500.0 -1.1971435546875 0.99395751953125
804316000.0 -1.06842041015625 1.12945556640625
809311500.0 -0.92413330078125 1.24591064453125
814307000.0 -0.76849365234375 1.3411865234375
819302500.0 -0.605224609375 1.41534423828125
824298000.0 -0.43585205078125 1.46783447265625
829293500.0 -0.26641845703125 1.5003662109375
834289000.0 -0.09649658203125 1.512451171875
839284500.0 0.068603515625 1.5062255859375
844280000.0 0.16998291015625 1.5120849609375
849275500.0 0.32952880859375 1.4818115234375
854271000.0 0.4840087890625 1.43548583984375
859266500.0 0.63232421875 1.375732421875
864262000.0 0.7734375 1.302734375
869257500.0 0.9073486328125 1.2166748046875
874253000.0 1.0322265625 1.1182861328125
879248500.0 1.1488037109375 1.0084228515625
884244000.0 1.2552490234375 0.88690185546875
889239500.0 1.35107421875 0.75494384765625
894235000.0 1.43536376953125 0.6124267578125
899230500.0 1.50653076171875 0.4591064453125
904226000.0 1.56414794921875 0.29534912109375
909221500.0 1.604736328125 0.12158203125
914217000.0 1.62548828125 -0.061767578125
919212500.0 1.62384033203125 -0.250732421875
924208000.0 1.5980224609375 -0.44140625
929203500.0 1.54779052734375 -0.63043212890625
934199000.0 1.472412109375 -0.8138427734375
939194500.0 1.37249755859375 -0.9876708984375
944190000.0 1.24993896484375 -1.1483154296875
949185500.0 1.10601806640625 -1.2911376953125
954181000.0 0.94549560546875 -1.4136962890625
959176500.0 0.77130126953125 -1.51434326171875
964172000.0 0.58721923828125 -1.59039306640625
969167500.0 0.39764404296875 -1.6422119140625
974163000.0 0.20599365234375 -1.66986083984375
979158500.0 0.014892578125 -1.67474365234375
984154000.0 -0.171630859375 -1.65875244140625
989149500.0 -0.35284423828125 -1.62261962890625
994145000.0 -0.52581787109375 -1.56787109375
999140500.0 -0.69097900390625 -1.49761962890625
1004136000.0 -0.8455810546875 -1.4112548828125
1009131500.0 -0.99102783203125 -1.31219482421875
1014127000.0 -1.1253662109375 -1.19915771484375
1019122500.0 -1.24810791015625 -1.07415771484375
1024118000.0 -1.359375 -0.937744140625
1029113500.0 -1.45770263671875 -0.789794921875
1034109000.0 -1.54168701171875 -0.63177490234375
1039104500.0 -1.610595703125 -0.462890625
1044100000.0 -1.66162109375 -0.2857666015625
1049095500.0 -1.694580078125 -0.10101318359375
1054091000.0 -1.706787109375 0.08953857421875
1059086500.0 -1.69677734375 0.28369140625
1064082000.0 -1.66485595703125 0.4786376953125
1069077500.0 -1.608154296875 0.6710205078125
1074073000.0 -1.52740478515625 0.85760498046875
1079068500.0 -1.4222412109375 1.0341796875
1084064000.0 -1.294921875 1.19793701171875
1089059500.0 -1.14697265625 1.34478759765625
1094055000.0 -0.98089599609375 1.47119140625
1099050500.0 -0.800537109375 1.57489013671875
1104046000.0 -0.60888671875 1.6551513671875
1109041500.0 -0.41107177734375 1.70941162109375
1114037000.0 -0.21026611328125 1.73858642578125
1119032500.0 -0.00927734375 1.74322509765625
1124028000.0 0.18780517578125 1.72467041015625
1129023500.0 0.3779296875 1.68359375
1134019000.0 0.56060791015625 1.622802734375
1139014500.0 0.733154296875 1.54376220703125
1144010000.0 0.89337158203125 1.44775390625
1149005500.0 1.0408935546875 1.33697509765625
1154001000.0 1.1751708984375 1.21282958984375
1158996500.0 1.29644775390625 1.07720947265625
1163992000.0 1.40228271484375 0.93096923828125
1168987500.0 1.492431640625 0.7752685546875
1173983000.0 1.5672607421875 0.611572265625
1178978500.0 1.6251220703125 0.44073486328125
1183974000.0 1.66632080078125 0.264404296875
1188969500.0 1.6884765625 0.0836181640625
1193965000.0 1.692626953125 -0.0992431640625
1198960500.0 1.67791748046875 -0.284423828125
1203956000.0 1.64349365234375 -0.46746826171875
1208951500.0 1.588134765625 -0.6484375
1213947000.0 1.512939453125 -0.823486328125
1218942500.0 1.4171142578125 -0.9908447265625
1223938000.0 1.30218505859375 -1.148193359375
1228933500.0 1.169189453125 -1.29180908203125
1233929000.0 1.01849365234375 -1.42071533203125
1238924500.0 0.85302734375 -1.53106689453125
1243920000.0 0.67474365234375 -1.621826171875
1248915500.0 0.48663330078125 -1.69134521484375
1253911000.0 0.28997802734375 -1.73760986328125
1258906500.0 0.08966064453125 -1.76068115234375
1263902000.0 -0.1112060546875 -1.759033203125
1268897500.0 -0.31317138671875 -1.73602294921875
1273893000.0 -0.5057373046875 -1.6864013671875
1278888500.0 -0.691650390625 -1.61651611328125
1283884000.0 -0.86798095703125 -1.52587890625
1288879500.0 -1.0321044921875 -1.41644287109375
1293875000.0 -1.1827392578125 -1.28924560546875
1298870500.0 -1.31695556640625 -1.1470947265625
1303866000.0 -1.43389892578125 -0.99139404296875
1308861500.0 -1.53240966796875 -0.8243408203125
1313857000.0 -1.6119384765625 -0.64739990234375
1318852500.0 -1.67047119140625 -0.46368408203125
1323848000.0 -1.708740234375 -0.27532958984375
1328843500.0 -1.7259521484375 -0.08441162109375
1333839000.0 -1.722412109375 0.10687255859375
1338834500.0 -1.6968994140625 0.29571533203125
1343830000.0 -1.65203857421875 0.48028564453125
1348825500.0 -1.5870361328125 0.658447265625
1353821000.0 -1.50390625 0.8277587890625
1358816500.0 -1.40228271484375 0.98687744140625
1363812000.0 -1.28466796875 1.13311767578125
1368807500.0 -1.15191650390625 1.265625
1373803000.0 -1.00653076171875 1.38323974609375
1378798500.0 -0.8494873046875 1.48529052734375
1383794000.0 -0.68231201171875 1.56903076171875
1388789500.0 -0.50701904296875 1.6351318359375
1393785000.0 -0.32568359375 1.6820068359375
1398780500.0 -0.139892578125 1.70947265625
1403776000.0 0.04864501953125 1.7171630859375
1408771500.0 0.23822021484375 1.7049560546875
1413767000.0 0.4251708984375 1.671630859375
1418762500.0 0.60992431640625 1.61834716796875
1423758000.0 0.78863525390625 1.54376220703125
1428753500.0 0.9588623046875 1.44927978515625
1433749000.0 1.11865234375 1.33538818359375
1438744500.0 1.26611328125 1.20269775390625
1443740000.0 1.397705078125 1.05224609375
1448735500.0 1.51092529296875 0.88629150390625
1453731000.0 1.60430908203125 0.70672607421875
1458726500.0 1.674560546875 0.51593017578125
1463722000.0 1.72076416015625 0.31854248046875
1468717500.0 1.74188232421875 0.1165771484375
1473713000.0 1.73822021484375 -0.08526611328125
1478708500.0 1.70892333984375 -0.2840576171875
1483704000.0 1.65643310546875 -0.47601318359375
1488699500.0 1.58160400390625 -0.65728759765625
1493695000.0 1.48687744140625 -0.82659912109375
1498690500.0 1.37493896484375 -0.98089599609375
1503686000.0 1.24810791015625 -1.1187744140625
1508681500.0 1.10919189453125 -1.2392578125
1513677000.0 0.960693359375 -1.3421630859375
1518672500.0 0.80462646484375 -1.42755126953125
1523668000.0 0.6436767578125 -1.4949951171875
1528663500.0 0.47918701171875 -1.5452880859375
1533659000.0 0.3125 -1.5792236328125
1538654500.0 0.1458740234375 -1.59576416015625
1543650000.0 -0.02117919921875 -1.59735107421875
1548645500.0 -0.18634033203125 -1.58331298828125
1553641000.0 -0.34893798828125 -1.55340576171875
1558636500.0 -0.5087890625 -1.50860595703125
1563632000.0 -0.66357421875 -1.44830322265625
1568627500.0 -0.81329345703125 -1.372802734375
1573623000.0 -0.9561767578125 -1.2825927734375
1578618500.0 -1.09033203125 -1.17669677734375
1583614000.0 -1.21502685546875 -1.056396484375
1588609500.0 -1.3260498046875 -0.9212646484375
1593605000.0 -1.42340087890625 -0.77301025390625
1598600500.0 -1.5042724609375 -0.61334228515625
1603596000.0 -1.56646728515625 -0.443359375
1608591500.0 -1.60882568359375 -0.26556396484375
1613587000.0 -1.62994384765625 -0.0831298828125
1618582500.0 -1.62890625 0.10076904296875
1623578000.0 -1.6055908203125 0.2833251953125
1628573500.0 -1.5601806640625 0.46136474609375
1633569000.0 -1.494384765625 0.6318359375
1638564500.0 -1.40911865234375 0.7911376953125
1643560000.0 -1.30657958984375 0.938720703125
1648555500.0 -1.1893310546875 1.071044921875
1653551000.0 -1.06005859375 1.18817138671875
1658546500.0 -0.92095947265625 1.2891845703125
1663542000.0 -0.773681640625 1.37298583984375
1668537500.0 -0.62078857421875 1.43988037109375
1673533000.0 -0.4642333984375 1.490966796875
1678528500.0 -0.30511474609375 1.52593994140625
1683524000.0 -0.14471435546875 1.54608154296875
1688519500.0 0.01544189453125 1.54974365234375
1693515000.0 0.17474365234375 1.53985595703125
1698510500.0 0.333251953125 1.51470947265625
1703506000.0 0.4896240234375 1.4752197265625
1708501500.0 0.64129638671875 1.42144775390625
1713497000.0 0.789306640625 1.3526611328125
1718492500.0 0.93304443359375 1.26898193359375
1723488000.0 1.06915283203125 1.1695556640625
1728483500.0 1.19720458984375 1.0540771484375
1733479000.0 1.314208984375 0.923095703125
1738474500.0 1.41839599609375 0.77667236328125
1743470000.0 1.505615234375 0.6160888671875
1748465500.0 1.57470703125 0.44281005859375
1753461000.0 1.62213134765625 0.25927734375
1758456500.0 1.64569091796875 0.06982421875
1763452000.0 1.6455078125 -0.1236572265625
1768447500.0 1.61865234375 -0.31524658203125
1773443000.0 1.56689453125 -0.50115966796875
1778438500.0 1.49237060546875 -0.677734375
1783434000.0 1.39599609375 -0.84124755859375
1788429500.0 1.28155517578125 -0.988525390625
1793425000.0 1.15264892578125 -1.1185302734375
1798420500.0 1.0120849609375 -1.22979736328125
1803416000.0 0.86273193359375 -1.32171630859375
1808411500.0 0.70855712890625 -1.3946533203125
1813407000.0 0.55108642578125 -1.44940185546875
1818402500.0 0.39208984375 -1.4881591796875
1823398000.0 0.23394775390625 -1.5101318359375
1828393500.0 0.07696533203125 -1.5177001953125
1833389000.0 -0.0784912109375 -1.51123046875
1838384500.0 -0.23077392578125 -1.49114990234375
1843380000.0 -0.38037109375 -1.4581298828125
1848375500.0 -0.52618408203125 -1.41204833984375
1853371000.0 -0.6693115234375 -1.35321044921875
1858366500.0 -0.80670166015625 -1.28125
1863362000.0 -0.93896484375 -1.19586181640625
1868357500.0 -1.0653076171875 -1.0963134765625
1873353000.0 -1.1826171875 -0.982421875
1878348500.0 -1.28900146484375 -0.85467529296875
1883344000.0 -1.3836669921875 -0.712890625
1888339500.0 -1.4635009765625 -0.55810546875
1893335000.0 -1.52508544921875 -0.39208984375
1898330500.0 -1.56646728515625 -0.21722412109375
1903326000.0 -1.58587646484375 -0.035888671875
1908321500.0 -1.58154296875 0.1480712890625
1913317000.0 -1.55340576171875 0.33038330078125
1918312500.0 -1.50146484375 0.5074462890625
1923308000.0 -1.4276123046875 0.6754150390625
1928303500.0 -1.3333740234375 0.830810546875
1933299000.0 -1.2220458984375 0.97113037109375
1938294500.0 -1.0960693359375 1.0947265625
1943290000.0 -0.95928955078125 1.19970703125
1948285500.0 -0.81439208984375 1.28607177734375
1953281000.0 -0.66448974609375 1.35455322265625
1958276500.0 -0.51129150390625 1.4056396484375
1963272000.0 -0.357177734375 1.43951416015625
1968267500.0 -0.20367431640625 1.4580078125
1973263000.0 -0.05126953125 1.46173095703125
1978258500.0 0.09820556640625 1.4510498046875
1983254000.0 0.2445068359375 1.427001953125
1988249500.0 0.38751220703125 1.390625
1993245000.0 0.526123046875 1.3411865234375
1998240500.0 0.659423828125 1.2794189453125
2003236000.0 0.7867431640625 1.20526123046875
2008231500.0 0.9072265625 1.11895751953125
2013227000.0 1.019775390625 1.0203857421875
2018222500.0 1.12353515625 0.91021728515625
2023218000.0 1.21575927734375 0.7889404296875
2028213500.0 1.2960205078125 0.6566162109375
2033209000.0 1.36199951171875 0.5159912109375
2038204500.0 1.4129638671875 0.36651611328125
2043200000.0 1.44671630859375 0.21209716796875
2048195500.0 1.46295166015625 0.05340576171875
2053191000.0 1.4603271484375 -0.10675048828125
2058186500.0 1.4388427734375 -0.26495361328125
2063182000.0 1.39996337890625 -0.42022705078125
2068177500.0 1.34368896484375 -0.568603515625
2073173000.0 1.2711181640625 -0.70916748046875
2078168500.0 1.1842041015625 -0.83929443359375
2083164000.0 1.08453369140625 -0.958251953125
2088159500.0 0.9739990234375 -1.0640869140625
2093155000.0 0.85382080078125 -1.15771484375
2098150500.0 0.7261962890625 -1.23809814453125
2103146000.0 0.59222412109375 -1.3037109375
2108141500.0 0.45379638671875 -1.35638427734375
2113137000.0 0.3116455078125 -1.39508056640625
2118132500.0 0.16656494140625 -1.4200439453125
2123128000.0 0.01934814453125 -1.43121337890625
2128123500.0 -0.12786865234375 -1.4283447265625
2133119000.0 -0.275634765625 -1.41204833984375
2138114500.0 -0.4219970703125 -1.38116455078125
2143110000.0 -0.56634521484375 -1.3359375
2148105500.0 -0.707275390625 -1.27520751953125
2153101000.0 -0.84307861328125 -1.20013427734375
2158096500.0 -0.97265625 -1.1092529296875
2163092000.0 -1.09307861328125 -1.00341796875
2168087500.0 -1.20318603515625 -0.8828125
2173083000.0 -1.299560546875 -0.74871826171875
2178078500.0 -1.3814697265625 -0.60211181640625
2183074000.0 -1.44525146484375 -0.4454345703125
2188069500.0 -1.48980712890625 -0.28082275390625
2193065000.0 -1.5147705078125 -0.1107177734375
