!Created with skrf (http://scikit-rf.org).
# Hz S RI R 50.0 
!freq ReS11 ImS11
45000000.0 -0.08162307739257812 -0.09337234497070312
49995500.0 -0.10219955444335938 -0.08931350708007812
54991000.0 -0.12275314331054688 -0.08148574829101562
59986500.0 -0.14110565185546875 -0.07953643798828125
64982000.0 -0.16014862060546875 -0.0702667236328125
69977500.0 -0.17890167236328125 -0.05580902099609375
74973000.0 -0.1964263916015625 -0.038299560546875
79968500.0 -0.21208953857421875 -0.01739501953125
84964000.0 -0.22568511962890625 0.00650787353515625
89959500.0 -0.236541748046875 0.0333251953125
94955000.0 -0.2436370849609375 0.06290435791015625
99950500.0 -0.2468414306640625 0.09515380859375
104946000.0 -0.24578857421875 0.128692626953125
109941500.0 -0.23974609375 0.16318511962890625
114937000.0 -0.22881317138671875 0.19884490966796875
119932500.0 -0.212066650390625 0.2336883544921875
124928000.0 -0.1906280517578125 0.2674713134765625
129923500.0 -0.16400146484375 0.2992095947265625
134919000.0 -0.13189697265625 0.3278961181640625
139914500.0 -0.0948638916015625 0.3535919189453125
144910000.0 -0.053955078125 0.3744049072265625
149905500.0 -0.00933837890625 0.3905029296875
154901000.0 0.038116455078125 0.401031494140625
159896500.0 0.0875091552734375 0.4048309326171875
164892000.0 0.1384429931640625 0.402923583984375
169887500.0 0.1895904541015625 0.394287109375
174883000.0 0.240447998046875 0.3793182373046875
179878500.0 0.2901458740234375 0.35748291015625
184874000.0 0.337615966796875 0.3294525146484375
189869500.0 0.382659912109375 0.2951202392578125
194865000.0 0.4240570068359375 0.255279541015625
199860500.0 0.4611053466796875 0.210113525390625
204856000.0 0.493072509765625 0.1591339111328125
209851500.0 0.519561767578125 0.104034423828125
214847000.0 0.540069580078125 0.0450439453125
219842500.0 0.5540771484375 -0.01763916015625
224838000.0 0.56048583984375 -0.082733154296875
229833500.0 0.55938720703125 -0.149932861328125
234829000.0 0.55035400390625 -0.21771240234375
239824500.0 0.532470703125 -0.285491943359375
244820000.0 0.50634765625 -0.352203369140625
249815500.0 0.4713287353515625 -0.4168701171875
254811000.0 0.4519195556640625 -0.4645233154296875
259806500.0 0.40380859375 -0.523468017578125
264802000.0 0.347808837890625 -0.5772705078125
269797500.0 0.2840576171875 -0.624603271484375
274793000.0 0.214141845703125 -0.664154052734375
279788500.0 0.138671875 -0.6951904296875
284784000.0 0.059112548828125 -0.71783447265625
289779500.0 -0.02410888671875 -0.730377197265625
294775000.0 -0.10894775390625 -0.73284912109375
299770500.0 -0.194122314453125 -0.72540283203125
304766000.0 -0.278656005859375 -0.707977294921875
309761500.0 -0.361083984375 -0.680267333984375
314757000.0 -0.440673828125 -0.64251708984375
319752500.0 -0.5155029296875 -0.595794677734375
324748000.0 -0.58587646484375 -0.540863037109375
329743500.0 -0.650360107421875 -0.4779052734375
334739000.0 -0.70855712890625 -0.407257080078125
339734500.0 -0.75897216796875 -0.32977294921875
344730000.0 -0.801239013671875 -0.246490478515625
349725500.0 -0.83465576171875 -0.15777587890625
354721000.0 -0.858856201171875 -0.064666748046875
359716500.0 -0.872589111328125 0.032196044921875
364712000.0 -0.87542724609375 0.132080078125
369707500.0 -0.866668701171875 0.233489990234375
374703000.0 -0.846435546875 0.335906982421875
379698500.0 -0.8134765625 0.43707275390625
384694000.0 -0.7679443359375 0.535614013671875
389689500.0 -0.709716796875 0.629547119140625
394685000.0 -0.638946533203125 0.7174072265625
399680500.0 -0.55694580078125 0.797088623046875
404676000.0 -0.464599609375 0.86651611328125
409671500.0 -0.362335205078125 0.92681884765625
414667000.0 -0.25335693359375 0.97076416015625
419662500.0 -0.13861083984375 1.00213623046875
424658000.0 -0.019287109375 1.018798828125
429653500.0 0.10186767578125 1.02056884765625
434649000.0 0.22265625 1.005126953125
439644500.0 0.33856201171875 0.9754638671875
444640000.0 0.449310302734375 0.93377685546875
449635500.0 0.55389404296875 0.880859375
454631000.0 0.6527099609375 0.817230224609375
459626500.0 0.744476318359375 0.742279052734375
464622000.0 0.8267822265625 0.657135009765625
469617500.0 0.89886474609375 0.5640869140625
474613000.0 0.961090087890625 0.464324951171875
479608500.0 1.01263427734375 0.35858154296875
484604000.0 1.05364990234375 0.24761962890625
489599500.0 1.0831298828125 0.13226318359375
494595000.0 1.1014404296875 0.01324462890625
499590500.0 1.1075439453125 -0.10858154296875
504586000.0 1.1011962890625 -0.23223876953125
509581500.0 1.081298828125 -0.35675048828125
514577000.0 1.0474853515625 -0.4815673828125
519572500.0 0.9986572265625 -0.6041259765625
524568000.0 0.93487548828125 -0.723846435546875
529563500.0 0.855224609375 -0.83709716796875
534559000.0 0.76031494140625 -0.942138671875
539554500.0 0.6505126953125 -1.03594970703125
544550000.0 0.52825927734375 -1.115478515625
549545500.0 0.3958740234375 -1.179443359375
554541000.0 0.254150390625 -1.22637939453125
559536500.0 0.1090087890625 -1.2554931640625
564532000.0 -0.039794921875 -1.26611328125
569527500.0 -0.18939208984375 -1.257568359375
574523000.0 -0.3370361328125 -1.23089599609375
579518500.0 -0.47943115234375 -1.18634033203125
584514000.0 -0.6148681640625 -1.12451171875
589509500.0 -0.74102783203125 -1.0474853515625
594505000.0 -0.856658935546875 -0.956695556640625
599500500.0 -0.95953369140625 -0.854095458984375
604496000.0 -1.0499267578125 -0.74151611328125
609491500.0 -1.1265869140625 -0.62127685546875
614487000.0 -1.18963623046875 -0.49432373046875
619482500.0 -1.23895263671875 -0.3626708984375
624478000.0 -1.27484130859375 -0.22760009765625
629473500.0 -1.29705810546875 -0.08984375
634469000.0 -1.30596923828125 0.04937744140625
639464500.0 -1.3013916015625 0.18988037109375
644460000.0 -1.28314208984375 0.33062744140625
649455500.0 -1.250732421875 0.4708251953125
654451000.0 -1.2042236328125 0.6090087890625
659446500.0 -1.142822265625 0.744873046875
664442000.0 -1.06622314453125 0.87713623046875
669437500.0 -0.97381591796875 1.0032958984375
674433000.0 -0.86468505859375 1.1217041015625
679428500.0 -0.73956298828125 1.22900390625
684424000.0 -0.59857177734375 1.32293701171875
689419500.0 -0.44342041015625 1.40081787109375
694415000.0 -0.27581787109375 1.45916748046875
699410500.0 -0.0989990234375 1.49609375
704406000.0 0.08367919921875 1.5086669921875
709401500.0 0.26873779296875 1.49615478515625
714397000.0 0.451904296875 1.45819091796875
719392500.0 0.62786865234375 1.3958740234375
724388000.0 0.79327392578125 1.31036376953125
729383500.0 0.94476318359375 1.204833984375
734379000.0 1.0789794921875 1.0799560546875
739374500.0 1.195068359375 0.94219970703125
744370000.0 1.29144287109375 0.79345703125
749365500.0 1.36669921875 0.63519287109375
754361000.0 1.4237060546875 0.4749755859375
759356500.0 1.4609375 0.31158447265625
764352000.0 1.480224609375 0.14788818359375
769347500.0 1.4825439453125 -0.0140380859375
774343000.0 1.468994140625 -0.17340087890625
779338500.0 1.43994140625 -0.3289794921875
784334000.0 1.39581298828125 -0.48077392578125
789329500.0 1.3392333984375 -0.62615966796875
794325000.0 1.26898193359375 -0.76690673828125
799320500.0 1.1854248046875 -0.90032958984375
804316000.0 1.08880615234375 -1.02667236328125
809311500.0 0.97869873046875 -1.1444091796875
814307000.0 0.85626220703125 -1.25274658203125
819302500.0 0.720947265625 -1.34942626953125
824298000.0 0.57257080078125 -1.4326171875
829293500.0 0.414794921875 -1.50115966796875
834289000.0 0.24468994140625 -1.55120849609375
839284500.0 0.068359375 -1.58184814453125
844280000.0 -0.049072265625 -1.61810302734375
849275500.0 -0.23712158203125 -1.6138916015625
854271000.0 -0.42657470703125 -1.58563232421875
859266500.0 -0.6124267578125 -1.53216552734375
864262000.0 -0.79083251953125 -1.455078125
869257500.0 -0.95782470703125 -1.35498046875
874253000.0 -1.11090087890625 -1.2342529296875
879248500.0 -1.2470703125 -1.09637451171875
884244000.0 -1.36444091796875 -0.943359375
889239500.0 -1.46087646484375 -0.779052734375
894235000.0 -1.5361328125 -0.607177734375
899230500.0 -1.59100341796875 -0.42919921875
904226000.0 -1.62548828125 -0.24786376953125
909221500.0 -1.6392822265625 -0.06524658203125
914217000.0 -1.63214111328125 0.11639404296875
919212500.0 -1.6058349609375 0.2940673828125
924208000.0 -1.560546875 0.46527099609375
929203500.0 -1.49993896484375 0.62969970703125
934199000.0 -1.423828125 0.78558349609375
939194500.0 -1.333740234375 0.93243408203125
944190000.0 -1.2301025390625 1.07025146484375
949185500.0 -1.1146240234375 1.19921875
954181000.0 -0.98577880859375 1.3165283203125
959176500.0 -0.84442138671875 1.422119140625
964172000.0 -0.69110107421875 1.51519775390625
969167500.0 -0.5267333984375 1.593505859375
974163000.0 -0.35089111328125 1.6546630859375
979158500.0 -0.16632080078125 1.6976318359375
984154000.0 0.02655029296875 1.7198486328125
989149500.0 0.2242431640625 1.71893310546875
994145000.0 0.4244384765625 1.69464111328125
999140500.0 0.6226806640625 1.64385986328125
1004136000.0 0.81573486328125 1.5679931640625
1009131500.0 1.00030517578125 1.4674072265625
1014127000.0 1.17041015625 1.34234619140625
1019122500.0 1.32330322265625 1.19549560546875
1024118000.0 1.45562744140625 1.03021240234375
1029113500.0 1.565673828125 0.849853515625
1034109000.0 1.650146484375 0.65875244140625
1039104500.0 1.7098388671875 0.46026611328125
1044100000.0 1.74444580078125 0.25885009765625
1049095500.0 1.75433349609375 0.0572509765625
1054091000.0 1.74078369140625 -0.14007568359375
1059086500.0 1.70635986328125 -0.33319091796875
1064082000.0 1.651611328125 -0.517578125
1069077500.0 1.5784912109375 -0.69244384765625
1074073000.0 1.48907470703125 -0.85723876953125
1079068500.0 1.3843994140625 -1.01019287109375
1084064000.0 1.2659912109375 -1.152099609375
1089059500.0 1.13507080078125 -1.2808837890625
1094055000.0 0.99188232421875 -1.39630126953125
1099050500.0 0.83734130859375 -1.49700927734375
1104046000.0 0.67333984375 -1.58306884765625
1109041500.0 0.49981689453125 -1.65234375
1114037000.0 0.31829833984375 -1.7047119140625
1119032500.0 0.12939453125 -1.7371826171875
1124028000.0 -0.0643310546875 -1.750732421875
1129023500.0 -0.26165771484375 -1.7412109375
1134019000.0 -0.458740234375 -1.7098388671875
1139014500.0 -0.6544189453125 -1.6541748046875
1144010000.0 -0.8441162109375 -1.57470703125
1149005500.0 -1.0252685546875 -1.471923828125
1154001000.0 -1.19415283203125 -1.34600830078125
1158996500.0 -1.34600830078125 -1.19873046875
1163992000.0 -1.478759765625 -1.03271484375
1168987500.0 -1.59002685546875 -0.850341796875
1173983000.0 -1.6766357421875 -0.65643310546875
1178978500.0 -1.73724365234375 -0.4534912109375
1183974000.0 -1.77178955078125 -0.24591064453125
1188969500.0 -1.78033447265625 -0.03778076171875
1193965000.0 -1.76318359375 0.16693115234375
1198960500.0 -1.7225341796875 0.3663330078125
1203956000.0 -1.65911865234375 0.55548095703125
1208951500.0 -1.57537841796875 0.73406982421875
1213947000.0 -1.47406005859375 0.89947509765625
1218942500.0 -1.3570556640625 1.05078125
1223938000.0 -1.225830078125 1.18585205078125
1228933500.0 -1.08306884765625 1.30487060546875
1233929000.0 -0.9306640625 1.40716552734375
1238924500.0 -0.77099609375 1.4927978515625
1243920000.0 -0.6044921875 1.56072998046875
1248915500.0 -0.43353271484375 1.6123046875
1253911000.0 -0.25921630859375 1.6456298828125
1258906500.0 -0.082275390625 1.66180419921875
1263902000.0 0.0946044921875 1.66064453125
1268897500.0 0.2734375 1.6427001953125
1273893000.0 0.44647216796875 1.6048583984375
1278888500.0 0.6162109375 1.54962158203125
1283884000.0 0.780517578125 1.4766845703125
1288879500.0 0.93743896484375 1.3863525390625
1293875000.0 1.08502197265625 1.27886962890625
1298870500.0 1.2216796875 1.15496826171875
1303866000.0 1.3443603515625 1.0159912109375
1308861500.0 1.45111083984375 0.86370849609375
1313857000.0 1.54095458984375 0.69927978515625
1318852500.0 1.61236572265625 0.52471923828125
1323848000.0 1.66363525390625 0.34197998046875
1328843500.0 1.6942138671875 0.1549072265625
1333839000.0 1.70330810546875 -0.0361328125
1338834500.0 1.6905517578125 -0.22747802734375
1343830000.0 1.65673828125 -0.41632080078125
1348825500.0 1.6007080078125 -0.6005859375
1353821000.0 1.5242919921875 -0.77825927734375
1358816500.0 1.4271240234375 -0.94635009765625
1363812000.0 1.31170654296875 -1.10260009765625
1368807500.0 1.17816162109375 -1.2437744140625
1373803000.0 1.02947998046875 -1.36883544921875
1378798500.0 0.86639404296875 -1.47607421875
1383794000.0 0.692138671875 -1.56353759765625
1388789500.0 0.50927734375 -1.62939453125
1393785000.0 0.320556640625 -1.67327880859375
1398780500.0 0.1285400390625 -1.69464111328125
1403776000.0 -0.0638427734375 -1.69287109375
1408771500.0 -0.25274658203125 -1.66900634765625
1413767000.0 -0.43701171875 -1.6236572265625
1418762500.0 -0.61297607421875 -1.55810546875
1423758000.0 -0.77862548828125 -1.473876953125
1428753500.0 -0.93194580078125 -1.37255859375
1433749000.0 -1.0723876953125 -1.25677490234375
1438744500.0 -1.19757080078125 -1.12786865234375
1443740000.0 -1.30755615234375 -0.987548828125
1448735500.0 -1.40179443359375 -0.837890625
1453731000.0 -1.478759765625 -0.68109130859375
1458726500.0 -1.54071044921875 -0.517333984375
1463722000.0 -1.58447265625 -0.350341796875
1468717500.0 -1.61199951171875 -0.179443359375
1473713000.0 -1.62225341796875 -0.0068359375
1478708500.0 -1.61572265625 0.16693115234375
1483704000.0 -1.59112548828125 0.33935546875
1488699500.0 -1.5499267578125 0.51043701171875
1493695000.0 -1.4908447265625 0.67803955078125
1498690500.0 -1.41278076171875 0.83935546875
1503686000.0 -1.3172607421875 0.99456787109375
1508681500.0 -1.2039794921875 1.139404296875
1513677000.0 -1.07269287109375 1.27313232421875
1518672500.0 -0.9248046875 1.3919677734375
1523668000.0 -0.7620849609375 1.49407958984375
1528663500.0 -0.585693359375 1.5765380859375
1533659000.0 -0.39947509765625 1.63641357421875
1538654500.0 -0.20538330078125 1.67279052734375
1543650000.0 -0.0087890625 1.683349609375
1548645500.0 0.18841552734375 1.6695556640625
1553641000.0 0.38140869140625 1.6302490234375
1558636500.0 0.56500244140625 1.56719970703125
1563632000.0 0.73834228515625 1.4820556640625
1568627500.0 0.89739990234375 1.3782958984375
1573623000.0 1.0400390625 1.25714111328125
1578618500.0 1.1650390625 1.12249755859375
1583614000.0 1.27130126953125 0.9779052734375
1588609500.0 1.35894775390625 0.8250732421875
1593605000.0 1.42877197265625 0.666748046875
1598600500.0 1.4796142578125 0.5054931640625
1603596000.0 1.51409912109375 0.34259033203125
1608591500.0 1.53167724609375 0.17974853515625
1613587000.0 1.53326416015625 0.01837158203125
1618582500.0 1.51983642578125 -0.14080810546875
1623578000.0 1.49163818359375 -0.29669189453125
1628573500.0 1.44940185546875 -0.4486083984375
1633569000.0 1.3934326171875 -0.5963134765625
1638564500.0 1.32354736328125 -0.7379150390625
1643560000.0 1.24041748046875 -0.87310791015625
1648555500.0 1.14300537109375 -1.00042724609375
1653551000.0 1.033203125 -1.1187744140625
1658546500.0 0.90960693359375 -1.2261962890625
1663542000.0 0.773681640625 -1.3218994140625
1668537500.0 0.62713623046875 -1.40301513671875
1673533000.0 0.46917724609375 -1.4676513671875
1678528500.0 0.3035888671875 -1.5147705078125
1683524000.0 0.13165283203125 -1.5418701171875
1688519500.0 -0.04339599609375 -1.5474853515625
1693515000.0 -0.21868896484375 -1.53155517578125
1698510500.0 -0.390625 -1.49383544921875
1703506000.0 -0.55706787109375 -1.434814453125
1708501500.0 -0.71209716796875 -1.357177734375
1713497000.0 -0.85516357421875 -1.26239013671875
1718492500.0 -0.984619140625 -1.15203857421875
1723488000.0 -1.09796142578125 -1.0296630859375
1728483500.0 -1.19488525390625 -0.8968505859375
1733479000.0 -1.27490234375 -0.75775146484375
1738474500.0 -1.3389892578125 -0.61395263671875
1743470000.0 -1.3865966796875 -0.467041015625
1748465500.0 -1.41943359375 -0.3184814453125
1753461000.0 -1.437744140625 -0.170166015625
1758456500.0 -1.4425048828125 -0.02239990234375
1763452000.0 -1.43438720703125 0.12408447265625
1768447500.0 -1.4127197265625 0.26824951171875
1773443000.0 -1.37896728515625 0.41033935546875
1778438500.0 -1.3331298828125 0.5496826171875
1783434000.0 -1.27392578125 0.684814453125
1788429500.0 -1.2021484375 0.8162841796875
1793425000.0 -1.1168212890625 0.9423828125
1798420500.0 -1.01776123046875 1.0621337890625
1803416000.0 -0.90460205078125 1.17230224609375
1808411500.0 -0.77764892578125 1.27252197265625
1813407000.0 -0.637451171875 1.360107421875
1818402500.0 -0.484619140625 1.43182373046875
1823398000.0 -0.32110595703125 1.48614501953125
1828393500.0 -0.15020751953125 1.51959228515625
1833389000.0 0.02630615234375 1.53143310546875
1838384500.0 0.2039794921875 1.52069091796875
1843380000.0 0.37939453125 1.486572265625
1848375500.0 0.54833984375 1.42926025390625
1853371000.0 0.70751953125 1.35186767578125
1858366500.0 0.852783203125 1.255126953125
1863362000.0 0.984130859375 1.14324951171875
1868357500.0 1.09796142578125 1.0186767578125
1873353000.0 1.19439697265625 0.88397216796875
1878348500.0 1.2734375 0.7427978515625
1883344000.0 1.335205078125 0.597412109375
1888339500.0 1.3807373046875 0.4490966796875
1893335000.0 1.4105224609375 0.30084228515625
1898330500.0 1.4259033203125 0.15277099609375
1903326000.0 1.42767333984375 0.0064697265625
1908321500.0 1.41650390625 -0.13787841796875
1913317000.0 1.39300537109375 -0.2799072265625
1918312500.0 1.35760498046875 -0.4188232421875
1923308000.0 1.30999755859375 -0.5545654296875
1928303500.0 1.25042724609375 -0.68695068359375
1933299000.0 1.1783447265625 -0.813720703125
1938294500.0 1.0936279296875 -0.93609619140625
1943290000.0 0.996337890625 -1.05096435546875
1948285500.0 0.88531494140625 -1.15765380859375
1953281000.0 0.761474609375 -1.25439453125
1958276500.0 0.62554931640625 -1.33868408203125
1963272000.0 0.47802734375 -1.4090576171875
1968267500.0 0.3201904296875 -1.46197509765625
1973263000.0 0.15472412109375 -1.496337890625
1978258500.0 -0.0157470703125 -1.51080322265625
1983254000.0 -0.1888427734375 -1.5035400390625
1988249500.0 -0.35980224609375 -1.4742431640625
1993245000.0 -0.52667236328125 -1.42352294921875
1998240500.0 -0.68475341796875 -1.35211181640625
2003236000.0 -0.83306884765625 -1.26251220703125
2008231500.0 -0.9664306640625 -1.15643310546875
2013227000.0 -1.0848388671875 -1.03631591796875
2018222500.0 -1.187255859375 -0.90557861328125
2023218000.0 -1.27288818359375 -0.765869140625
2028213500.0 -1.34130859375 -0.6201171875
2033209000.0 -1.3931884765625 -0.47021484375
2038204500.0 -1.4295654296875 -0.3175048828125
2043200000.0 -1.4495849609375 -0.16455078125
2048195500.0 -1.45428466796875 -0.01165771484375
2053191000.0 -1.4449462890625 0.14013671875
2058186500.0 -1.42071533203125 0.28973388671875
2063182000.0 -1.38250732421875 0.43548583984375
2068177500.0 -1.33087158203125 0.57769775390625
2073173000.0 -1.26531982421875 0.71502685546875
2078168500.0 -1.185546875 0.845947265625
2083164000.0 -1.09234619140625 0.96893310546875
2088159500.0 -0.98626708984375 1.08380126953125
2093155000.0 -0.8671875 1.18756103515625
2098150500.0 -0.73602294921875 1.2789306640625
2103146000.0 -0.5938720703125 1.35638427734375
2108141500.0 -0.44244384765625 1.41717529296875
2113137000.0 -0.28411865234375 1.4608154296875
2118132500.0 -0.12060546875 1.48468017578125
2123128000.0 0.04498291015625 1.48980712890625
2128123500.0 0.21051025390625 1.4752197265625
2133119000.0 0.37261962890625 1.44134521484375
2138114500.0 0.52838134765625 1.38848876953125
2143110000.0 0.67578125 1.31854248046875
2148105500.0 0.813232421875 1.23260498046875
2153101000.0 0.9388427734375 1.1331787109375
2158096500.0 1.051025390625 1.02227783203125
2163092000.0 1.14935302734375 0.9013671875
2168087500.0 1.23394775390625 0.77252197265625
2173083000.0 1.30413818359375 0.63739013671875
2178078500.0 1.36065673828125 0.49737548828125
2183074000.0 1.40240478515625 0.35369873046875
2188069500.0 1.43109130859375 0.20770263671875
