!Created with skrf (http://scikit-rf.org).
# Hz S RI R 50.0 
!freq ReS11 ImS11
300000.0 -0.0038738113 -0.04338713
5299970.0 0.0008170577 -0.0006251429
10299940.0 0.0011147813 -0.0007813411
15299910.0 0.0011985214 0.0006269468
20299880.0 0.0014955577 0.0002587278
25299850.0 0.0014865522 0.0005119945
30299820.0 0.001533604 0.0008592286
35299790.0 0.0014279242 0.0004010604
40299760.0 0.0016842493 0.0006425759
45299730.0 0.0016899549 0.0006690182
50299700.0 0.0015761568 0.0008274238
55299670.0 0.00177268 0.0010473821
60299640.0 0.002032184 0.0010469085
65299610.0 0.0017254443 0.0008638525
70299580.0 0.0019218835 0.000882792
75299550.0 0.0020128423 0.0007426307
80299520.0 0.0021397466 0.0009880532
85299490.0 0.0019762571 0.0010907225
90299460.0 0.0021974102 0.0011756145
95299430.0 0.0022598551 0.0012383944
100299400.0 0.0023235179 0.0012806103
105299370.0 0.0024463669 0.0012770541
110299340.0 0.0022435739 0.0013906631
115299310.0 0.0024539268 0.0013159256
120299280.0 0.0024559139 0.0013808119
125299250.0 0.0025876048 0.0014479721
130299220.0 0.0025385834 0.0015604536
135299190.0 0.0026066262 0.0016409177
140299160.0 0.0022973475 0.0015229737
145299130.0 0.0024473608 0.0013631362
150299100.0 0.0028169618 0.001434694
155299070.0 0.0025925329 0.0015890628
160299040.0 0.0027242179 0.0016953468
165299010.0 0.0028049857 0.0014179793
170298980.0 0.0028534605 0.0013975485
175298950.0 0.0028433163 0.0016798464
180298920.0 0.0028198642 0.0016346367
185298890.0 0.0030064154 0.0016607425
190298860.0 0.0029799642 0.0015573389
195298830.0 0.0028891653 0.0017439219
200298800.0 0.0031182806 0.0016316869
205298770.0 0.0031265431 0.0016920592
210298740.0 0.0031273254 0.0017614426
215298710.0 0.0032174824 0.0016849512
220298680.0 0.0033205851 0.0015837807
225298650.0 0.0034155387 0.0017925393
230298620.0 0.0033111921 0.0017462779
235298590.0 0.0034651154 0.0017322964
240298560.0 0.0033617362 0.0017129281
245298530.0 0.0035817838 0.0017566286
250298500.0 0.0035962379 0.0017096822
255298470.0 0.0036224863 0.0016855832
260298440.0 0.0034662566 0.0016780997
265298410.0 0.0037787743 0.0018709071
270298380.0 0.0036707712 0.0018495971
275298350.0 0.0036945952 0.0018380173
280298320.0 0.003661689 0.0021005486
285298290.0 0.0037834272 0.0016560214
290298260.0 0.0037968877 0.0018230518
295298230.0 0.0037502526 0.0017818291
300298200.0 0.0038073604 0.0019013899
305298170.0 0.0038680961 0.001842471
310298140.0 0.004054471 0.0019259793
315298110.0 0.0041337515 0.0016372878
320298080.0 0.0040550075 0.001743046
325298050.0 0.0041293503 0.0016885674
330298020.0 0.004123804 0.0018315452
335297990.0 0.0040776402 0.0016442339
340297960.0 0.0042789269 0.0017207511
345297930.0 0.0042121733 0.0017210116
350297900.0 0.0046609377 0.0015860169
355297870.0 0.0044139328 0.0015500185
360297840.0 0.0043976253 0.0014119221
365297810.0 0.0044603796 0.0014894079
370297780.0 0.0045232926 0.001781088
375297750.0 0.0045272774 0.0017809489
380297720.0 0.0044286105 0.0018784179
385297690.0 0.0044082013 0.0017371114
390297660.0 0.0046439874 0.0015132879
395297630.0 0.0046981227 0.0015341915
400297600.0 0.0046651775 0.0016248195
405297570.0 0.0049086795 0.0014867169
410297540.0 0.0046505059 0.0015392792
415297510.0 0.0047147024 0.0015712503
420297480.0 0.0048838752 0.0015216285
425297450.0 0.004942357 0.0014091451
430297420.0 0.004950943 0.0016484055
435297390.0 0.0049957375 0.0014526857
440297360.0 0.0050255002 0.0014552731
445297330.0 0.0049290064 0.0015875842
450297300.0 0.0048575606 0.0011701094
455297270.0 0.0050919553 0.0013268711
460297240.0 0.0050393249 0.001346899
465297210.0 0.005015363 0.0013274972
470297180.0 0.0049620754 0.0013898726
475297150.0 0.0051802673 0.0014956093
480297120.0 0.0050461246 0.0012394704
485297090.0 0.0052454005 0.0012196356
490297060.0 0.0052850281 0.0012939744
495297030.0 0.0054463526 0.0009411501
500297000.0 0.0050730027 0.0010693745
505296970.0 0.0053024435 0.0012289959
510296940.0 0.0051659947 0.0011357267
515296910.0 0.0053917132 0.0012037973
520296880.0 0.005246617 0.0011050208
525296850.0 0.0051318544 0.0010446687
530296820.0 0.0051536184 0.0011421127
535296790.0 0.005390574 0.0009333005
540296760.0 0.0052901324 0.001028961
545296730.0 0.005426443 0.0009215978
550296700.0 0.0055482112 0.0008021999
555296670.0 0.0054587044 0.0008768418
560296640.0 0.0056814657 0.0009024696
565296610.0 0.0056389926 0.0006997876
570296580.0 0.0056296958 0.0006650636
575296550.0 0.0056853353 0.0006902068
580296520.0 0.0056168796 0.0005686843
585296490.0 0.0058317064 0.0004907709
590296460.0 0.0059001533 0.0005044622
595296430.0 0.0059012388 0.0005935955
600296400.0 0.0057698915 0.0003222149
605296370.0 0.005937341 0.0005766596
610296340.0 0.005631981 0.0004137038
615296310.0 0.0057904454 0.0002578361
620296280.0 0.0060595961 0.0002148372
625296250.0 0.0058109106 0.0004126299
630296220.0 0.0058841713 0.0002092275
635296190.0 0.0058335786 0.000178553
640296160.0 0.005917843 0.0001384626
645296130.0 0.0059916951 0.0003679437
650296100.0 0.0057935344 0.0001558241
655296070.0 0.0058512452 0.0001057495
660296040.0 0.0059522379 5.08441e-05
665296010.0 0.0059658009 -0.0001038811
670295980.0 0.006092248 -0.0001871324
675295950.0 0.0063057075 -0.0001950434
680295920.0 0.0062971347 -0.0001701052
685295890.0 0.0062206778 -9.3837e-05
690295860.0 0.006093489 8.8414e-06
695295830.0 0.0059961046 -0.0001411178
700295800.0 0.0061009688 -0.000243341
705295770.0 0.0061126624 -0.0001978541
710295740.0 0.0061700379 -0.0002189842
715295710.0 0.0060832774 -0.0003760381
720295680.0 0.0060741694 -0.0002349868
725295650.0 0.0060005217 -0.000563721
730295620.0 0.0061578294 -0.0004210979
735295590.0 0.0061765696 -0.000638157
740295560.0 0.0062068816 -0.0003817876
745295530.0 0.0061341087 -0.0003817746
750295500.0 0.0063084563 -0.0005340921
755295470.0 0.0062570045 -0.0008134563
760295440.0 0.0063890595 -0.0005761887
765295410.0 0.0062353585 -0.000831133
770295380.0 0.0063018248 -0.0008364333
775295350.0 0.0062259637 -0.0008334072
780295320.0 0.0064066978 -0.0010055785
785295290.0 0.0064705728 -0.0010088498
790295260.0 0.0062250688 -0.0009435717
795295230.0 0.0062811786 -0.0009093456
800295200.0 0.0062922342 -0.0010260994
805295170.0 0.0062759944 -0.0011979358
810295140.0 0.0063948062 -0.0011544985
815295110.0 0.0063620026 -0.0014893674
820295080.0 0.0062667692 -0.0013032187
825295050.0 0.0064271613 -0.0012634064
830295020.0 0.0063348395 -0.0013846658
835294990.0 0.0064308408 -0.0013754122
840294960.0 0.0063144428 -0.001496484
845294930.0 0.0063779539 -0.001541029
850294900.0 0.0064973338 -0.0015727275
855294870.0 0.006459058 -0.001622516
860294840.0 0.0065629262 -0.0016006193
865294810.0 0.0066115571 -0.0016399426
870294780.0 0.0064764716 -0.0018273136
875294750.0 0.0064549468 -0.0017854615
880294720.0 0.0063419194 -0.0017340275
885294690.0 0.0063687612 -0.0017909996
890294660.0 0.0064356235 -0.0017986877
895294630.0 0.0063027913 -0.0020096387
900294600.0 0.0066415534 -0.001954332
905294570.0 0.0065466734 -0.0020672698
910294540.0 0.0067909138 -0.0019980294
915294510.0 0.006480928 -0.0022894554
920294480.0 0.0063829172 -0.0022571963
925294450.0 0.0066073881 -0.0021136303
930294420.0 0.0064487389 -0.0023426526
935294390.0 0.0065920241 -0.0024144302
940294360.0 0.0064808093 -0.0023573794
945294330.0 0.0065318899 -0.0024923288
950294300.0 0.0067843525 -0.0027185573
955294270.0 0.0066408319 -0.0025430272
960294240.0 0.0065124341 -0.002664087
965294210.0 0.006628599 -0.0029226474
970294180.0 0.0063764938 -0.0031579296
975294150.0 0.0065349521 -0.0027930767
980294120.0 0.0065590882 -0.0030543101
985294090.0 0.0065547443 -0.002954177
990294060.0 0.0065851393 -0.0031083317
995294030.0 0.0065454307 -0.0030634945
1000294000.0 0.006505438 -0.0031818643
1005293970.0 0.0065804672 -0.0031521927
1010293940.0 0.0065384392 -0.0032180497
1015293910.0 0.0065522361 -0.0033629626
1020293880.0 0.0065914226 -0.0034503227
1025293850.0 0.0067692761 -0.003292309
1030293820.0 0.0065461454 -0.003548761
1035293790.0 0.0065578596 -0.0036523962
1040293760.0 0.0066729138 -0.0034475639
1045293730.0 0.0064291788 -0.00352599
1050293700.0 0.0065263423 -0.0036334648
1055293670.0 0.0067220408 -0.0036080905
1060293640.0 0.0065506036 -0.0039234818
1065293610.0 0.0065554452 -0.0037942234
1070293580.0 0.0064984177 -0.0038964122
1075293550.0 0.0064631814 -0.0037998369
1080293520.0 0.0066899609 -0.0038820953
1085293490.0 0.0067918831 -0.0041004438
1090293460.0 0.0065259053 -0.0039857754
1095293430.0 0.0065904357 -0.0041436739
1100293400.0 0.0065937044 -0.0042642224
1105293370.0 0.0066440626 -0.0042734485
1110293340.0 0.0066069783 -0.0041670954
1115293310.0 0.0065706933 -0.004450317
1120293280.0 0.0067161695 -0.00420596
1125293250.0 0.0066933707 -0.0043677476
1130293220.0 0.006441901 -0.0042680024
1135293190.0 0.0062978186 -0.0042951389
1140293160.0 0.0064331364 -0.0044263875
1145293130.0 0.006310515 -0.0044277367
1150293100.0 0.0061819737 -0.0044442964
1155293070.0 0.0062897411 -0.0042698884
1160293040.0 0.0061098642 -0.0046179177
1165293010.0 0.006092343 -0.0045410139
1170292980.0 0.0060410742 -0.0044279135
1175292950.0 0.0060061373 -0.0046997402
1180292920.0 0.0063762925 -0.0048387073
1185292890.0 0.0061320869 -0.0048272158
1190292860.0 0.0064066896 -0.0050575196
1195292830.0 0.0065901346 -0.004777741
1200292800.0 0.0063052274 -0.005119529
1205292770.0 0.0065923407 -0.0053231423
1210292740.0 0.0066082834 -0.0052956236
1215292710.0 0.0064999589 -0.0055135128
1220292680.0 0.0064015305 -0.0055101202
1225292650.0 0.0064200129 -0.0054793957
1230292620.0 0.0062976327 -0.0052951516
1235292590.0 0.0064497344 -0.0055561297
1240292560.0 0.0064035994 -0.0056645278
1245292530.0 0.0063793825 -0.0056829394
1250292500.0 0.0062456358 -0.0057951844
1255292470.0 0.0064217176 -0.0057354936
1260292440.0 0.0064118372 -0.0055369595
1265292410.0 0.0065542514 -0.0056967467
1270292380.0 0.0062076027 -0.0056434695
1275292350.0 0.0064525219 -0.0058945773
1280292320.0 0.0063486239 -0.0057047954
1285292290.0 0.006162608 -0.0059994286
1290292260.0 0.006498079 -0.0059088702
1295292230.0 0.0064997694 -0.0061805969
1300292200.0 0.0062386098 -0.0061565247
1305292170.0 0.0061970271 -0.0061023892
1310292140.0 0.0063591274 -0.0062306099
1315292110.0 0.0064190058 -0.006198747
1320292080.0 0.0063597419 -0.006347143
1325292050.0 0.0061164211 -0.0064428654
1330292020.0 0.0063615348 -0.0064883126
1335291990.0 0.0062395555 -0.0065284185
1340291960.0 0.0064089152 -0.0066742586
1345291930.0 0.0063407538 -0.0065200713
1350291900.0 0.0061423044 -0.0065818385
1355291870.0 0.0064003619 -0.0068612935
1360291840.0 0.0062115822 -0.0066941203
1365291810.0 0.0061121557 -0.0066055713
1370291780.0 0.0061431538 -0.0067434891
1375291750.0 0.0061350154 -0.0068721953
1380291720.0 0.0060515182 -0.0067088712
1385291690.0 0.0062769016 -0.0067452415
1390291660.0 0.0061797557 -0.0070216115
1395291630.0 0.0060855949 -0.0069723209
1400291600.0 0.0060641516 -0.0071008843
1405291570.0 0.0062391858 -0.0070842994
1410291540.0 0.0059641073 -0.0072329963
1415291510.0 0.006212486 -0.0073339684
1420291480.0 0.006024137 -0.00742536
1425291450.0 0.0061151911 -0.0073669476
1430291420.0 0.005912854 -0.0071043131
1435291390.0 0.0057933088 -0.0074623327
1440291360.0 0.0058786296 -0.007531135
1445291330.0 0.0057680491 -0.0072067862
1450291300.0 0.0058426977 -0.0073835595
1455291270.0 0.0059036027 -0.0076292854
1460291240.0 0.0058099932 -0.0076867115
1465291210.0 0.0059615124 -0.0075954688
1470291180.0 0.0059224623 -0.0075837314
1475291150.0 0.0058405629 -0.007738284
1480291120.0 0.0056975365 -0.0079059915
1485291090.0 0.005802563 -0.0077246095
1490291060.0 0.0059220071 -0.0076802325
1495291030.0 0.0055532701 -0.0079080967
1500291000.0 0.0056248413 -0.0079265184
1505290970.0 0.0057365381 -0.0076528872
1510290940.0 0.005608636 -0.0078900597
1515290910.0 0.0055851217 -0.0079800912
1520290880.0 0.0057113495 -0.0080396786
1525290850.0 0.0055636091 -0.0079550514
1530290820.0 0.0054802526 -0.0081082221
1535290790.0 0.005748619 -0.0080339362
1540290760.0 0.0056158757 -0.0080058576
1545290730.0 0.0056176352 -0.0083165387
1550290700.0 0.0057637243 -0.0083499376
1555290670.0 0.0054816953 -0.0082307217
1560290640.0 0.0055228865 -0.008377176
1565290610.0 0.0055843834 -0.0085017496
1570290580.0 0.0054692211 -0.0084095008
1575290550.0 0.0054450677 -0.0084479443
1580290520.0 0.0056054109 -0.008403945
1585290490.0 0.0053671997 -0.0085850114
1590290460.0 0.0055618934 -0.0085073482
1595290430.0 0.0053436327 -0.0084870506
1600290400.0 0.0054150234 -0.0085964242
1605290370.0 0.0054312068 -0.0085627075
1610290340.0 0.0053018714 -0.0086646555
1615290310.0 0.0054278562 -0.0086965825
1620290280.0 0.0054163571 -0.0087020763
1625290250.0 0.0054520298 -0.0088062711
1630290220.0 0.0050369872 -0.0087230009
1635290190.0 0.0054096196 -0.008865636
1640290160.0 0.0053194328 -0.0088236787
1645290130.0 0.0053819209 -0.0088403692
1650290100.0 0.0051691675 -0.008897775
1655290070.0 0.0054606386 -0.0089016031
1660290040.0 0.0053860786 -0.0089529003
1665290010.0 0.0052248137 -0.0088491615
1670289980.0 0.0052500356 -0.0091300405
1675289950.0 0.0051307909 -0.0088836472
1680289920.0 0.00508772 -0.0093208788
1685289890.0 0.0051251578 -0.009243027
1690289860.0 0.0051848343 -0.0094377329
1695289830.0 0.005113788 -0.0091363444
1700289800.0 0.0052195773 -0.0092343865
1705289770.0 0.0050031976 -0.0094784215
1710289740.0 0.0048569257 -0.0093945083
1715289710.0 0.0051644993 -0.0093062786
1720289680.0 0.0050745934 -0.0092873579
1725289650.0 0.0048232068 -0.0090293948
1730289620.0 0.0049074714 -0.0095836047
1735289590.0 0.0050283882 -0.0092927938
1740289560.0 0.004808762 -0.0092853691
1745289530.0 0.0046528256 -0.0091828187
1750289500.0 0.0049118305 -0.0094727139
1755289470.0 0.0048628568 -0.009516063
1760289440.0 0.0046997861 -0.0095144408
1765289410.0 0.0047442321 -0.0096135773
1770289380.0 0.0048091753 -0.0094210509
1775289350.0 0.0046198868 -0.0096849524
1780289320.0 0.0046208998 -0.0094688475
1785289290.0 0.0047609898 -0.0095528356
1790289260.0 0.0046344037 -0.0097131728
1795289230.0 0.004408432 -0.0096810905
1800289200.0 0.0047894114 -0.0098021903
1805289170.0 0.004630732 -0.009607249
1810289140.0 0.0046762107 -0.0096426996
1815289110.0 0.0044935009 -0.009659149
1820289080.0 0.0044731313 -0.0097894051
1825289050.0 0.0044338165 -0.0097629033
1830289020.0 0.0046062325 -0.0097477291
1835288990.0 0.0043787111 -0.0097397865
1840288960.0 0.0043842114 -0.0097249214
1845288930.0 0.0043076053 -0.009763597
1850288900.0 0.0042945431 -0.0097971883
1855288870.0 0.0042380449 -0.0098692111
1860288840.0 0.0041965143 -0.0098106894
1865288810.0 0.004155157 -0.0097614848
1870288780.0 0.0041695992 -0.0099062481
1875288750.0 0.0042759702 -0.0098150137
1880288720.0 0.0042568538 -0.0100572684
1885288690.0 0.0042803176 -0.0100632836
1890288660.0 0.0043629515 -0.0100730101
1895288630.0 0.0038292335 -0.009973748
1900288600.0 0.0040795152 -0.0100270364
1905288570.0 0.0040882653 -0.0099255435
1910288540.0 0.0041644151 -0.0101541222
1915288510.0 0.0040603534 -0.0100474794
1920288480.0 0.0041030994 -0.0101957354
1925288450.0 0.0040596714 -0.0101348183
1930288420.0 0.0040001986 -0.0101056375
1935288390.0 0.0039775122 -0.0100264176
1940288360.0 0.0039503144 -0.0099923126
1945288330.0 0.0038115488 -0.0100238573
1950288300.0 0.0039133197 -0.0100706535
1955288270.0 0.0037957446 -0.0102385048
1960288240.0 0.0038223485 -0.010161298
1965288210.0 0.003645564 -0.0101294085
1970288180.0 0.0039507809 -0.0102369435
1975288150.0 0.0036874483 -0.0100089302
1980288120.0 0.00363929 -0.0102512232
1985288090.0 0.0037902502 -0.0101743734
1990288060.0 0.0037804893 -0.0102459953
1995288030.0 0.0033779554 -0.0100883923
2000288000.0 0.0035720544 -0.0102042508
2005287970.0 0.0035677912 -0.0102540949
2010287940.0 0.0036987632 -0.0100753973
2015287910.0 0.0035397128 -0.0101554173
2020287880.0 0.0034808573 -0.0099965321
2025287850.0 0.003331268 -0.010298828
2030287820.0 0.0033806088 -0.0101950525
2035287790.0 0.0033773143 -0.0102821205
2040287760.0 0.0033546369 -0.009976856
2045287730.0 0.003298817 -0.0102808918
2050287700.0 0.0032252442 -0.0103973472
2055287670.0 0.0032237729 -0.0102971173
2060287640.0 0.0033336442 -0.0103488361
2065287610.0 0.0030947303 -0.0103239488
2070287580.0 0.0032308376 -0.0103388247
2075287550.0 0.0030937377 -0.0101988916
2080287520.0 0.0029331636 -0.0103038414
2085287490.0 0.0030141354 -0.0101465014
2090287460.0 0.0031416487 -0.0103834522
2095287430.0 0.0030798279 -0.0103512246
2100287400.0 0.0031594965 -0.010328153
2105287370.0 0.0030017038 -0.0102532656
2110287340.0 0.0029893257 -0.0100954314
2115287310.0 0.0028094303 -0.0103135278
2120287280.0 0.00281928 -0.0103555652
2125287250.0 0.0029641669 -0.0104238443
2130287220.0 0.0027996346 -0.0102365469
2135287190.0 0.0028742373 -0.0102700207
2140287160.0 0.0027050999 -0.0102504982
2145287130.0 0.0029322057 -0.0103409382
2150287100.0 0.0026384841 -0.0102329025
2155287070.0 0.0027488207 -0.0100140841
2160287040.0 0.0026178555 -0.0101496775
2165287010.0 0.0026082482 -0.0101836339
2170286980.0 0.0027153367 -0.0100414559
2175286950.0 0.0024203962 -0.0101530033
2180286920.0 0.0025859502 -0.010413259
2185286890.0 0.0024747899 -0.0103980844
2190286860.0 0.0024988449 -0.0102192051
2195286830.0 0.0024305799 -0.0101994128
2200286800.0 0.002572222 -0.0102911531
2205286770.0 0.0022714211 -0.0100569639
2210286740.0 0.0024053978 -0.0102914494
2215286710.0 0.0024002952 -0.0103047815
2220286680.0 0.0022619438 -0.0101696093
2225286650.0 0.0023377664 -0.0102266605
2230286620.0 0.0022562551 -0.0102032783
2235286590.0 0.0021493236 -0.0103499505
2240286560.0 0.0022283932 -0.010226029
2245286530.0 0.0022182226 -0.0101912266
2250286500.0 0.0021552845 -0.0102250907
2255286470.0 0.0022797601 -0.0101655793
2260286440.0 0.0022626244 -0.0101980394
2265286410.0 0.0021795554 -0.0100913934
2270286380.0 0.0020086205 -0.0102055445
2275286350.0 0.0020349638 -0.0101637697
2280286320.0 0.0018438178 -0.0101170835
2285286290.0 0.0017278559 -0.0101268734
2290286260.0 0.0020434448 -0.0101277123
2295286230.0 0.0018476491 -0.0101614128
2300286200.0 0.0017858634 -0.0102890586
2305286170.0 0.0016523487 -0.0101004386
2310286140.0 0.0016349 -0.0101848835
2315286110.0 0.0016796563 -0.0100921157
2320286080.0 0.0013949177 -0.0099601451
2325286050.0 0.0015415305 -0.0102297293
2330286020.0 0.0015586655 -0.0100468614
2335285990.0 0.0017420073 -0.0098705773
2340285960.0 0.0013494724 -0.0099954137
2345285930.0 0.0014417114 -0.0099207826
2350285900.0 0.0012443771 -0.0100420235
2355285870.0 0.0013912403 -0.0100098708
2360285840.0 0.0011909139 -0.0099245234
2365285810.0 0.0013171343 -0.0099002119
2370285780.0 0.0010541376 -0.0100895768
2375285750.0 0.0010988555 -0.0098917041
2380285720.0 0.0011092632 -0.0101502142
2385285690.0 0.0011013239 -0.009881514
2390285660.0 0.0010476408 -0.0099534558
2395285630.0 0.0010952927 -0.010080658
2400285600.0 0.0008671977 -0.0098584661
2405285570.0 0.0008983548 -0.0099433765
2410285540.0 0.0008795676 -0.0097894533
2415285510.0 0.0008006326 -0.0100663437
2420285480.0 0.0008852654 -0.009759007
2425285450.0 0.0009708524 -0.0098568093
2430285420.0 0.0007667299 -0.0097020366
2435285390.0 0.0006785026 -0.0099677501
2440285360.0 0.0005492858 -0.0098488081
2445285330.0 0.0007977157 -0.0097038507
2450285300.0 0.0007637583 -0.00984242
2455285270.0 0.0007219227 -0.0096938185
2460285240.0 0.0006386622 -0.0097247129
2465285210.0 0.0006036716 -0.0096801675
2470285180.0 0.0005356696 -0.0096478705
2475285150.0 0.0002166259 -0.0097004245
2480285120.0 0.0002366886 -0.0097357283
2485285090.0 0.000302479 -0.0097350645
2490285060.0 0.0001542069 -0.009575753
2495285030.0 0.0001701699 -0.0097118455
2500285000.0 0.0004412445 -0.0096097726
2505284970.0 0.000339968 -0.0095125944
2510284940.0 0.0002047094 -0.0096875796
2515284910.0 0.0002558826 -0.0095578653
2520284880.0 0.0001402074 -0.0099023125
2525284850.0 0.0003045534 -0.0097974444
2530284820.0 0.0001299309 -0.0096764811
2535284790.0 -4.96228e-05 -0.0097206762
2540284760.0 -0.0001380569 -0.0093603142
