!Created with skrf (http://scikit-rf.org).
# Hz S RI R 50.0 
!freq ReS11 ImS11
45000000.0 0.06927871704101562 0.08711624145507812
49995500.0 0.088287353515625 0.08699417114257812
54991000.0 0.10860443115234375 0.08315658569335938
59986500.0 0.1277923583984375 0.08437347412109375
64982000.0 0.14841461181640625 0.07805633544921875
69977500.0 0.1697845458984375 0.06572723388671875
74973000.0 0.1902008056640625 0.0493927001953125
79968500.0 0.20888519287109375 0.02841949462890625
84964000.0 0.224945068359375 0.0038299560546875
89959500.0 0.2381439208984375 -0.0245361328125
94955000.0 0.24616241455078125 -0.05615997314453125
99950500.0 0.24977874755859375 -0.0902557373046875
104946000.0 0.248046875 -0.12570953369140625
109941500.0 0.2410430908203125 -0.16153717041015625
114937000.0 0.22853851318359375 -0.197662353515625
119932500.0 0.2106781005859375 -0.23239898681640625
124928000.0 0.188079833984375 -0.265533447265625
129923500.0 0.160430908203125 -0.295806884765625
134919000.0 0.12835693359375 -0.323150634765625
139914500.0 0.0919647216796875 -0.34735107421875
144910000.0 0.051910400390625 -0.366973876953125
149905500.0 0.008514404296875 -0.382171630859375
154901000.0 -0.037353515625 -0.3922119140625
159896500.0 -0.0851593017578125 -0.39654541015625
164892000.0 -0.134490966796875 -0.3951568603515625
169887500.0 -0.184783935546875 -0.3876953125
174883000.0 -0.235198974609375 -0.373779296875
179878500.0 -0.28460693359375 -0.352874755859375
184874000.0 -0.33258056640625 -0.32568359375
189869500.0 -0.3778076171875 -0.291290283203125
194865000.0 -0.4199371337890625 -0.2512969970703125
199860500.0 -0.457244873046875 -0.2052459716796875
204856000.0 -0.488739013671875 -0.153717041015625
209851500.0 -0.514190673828125 -0.0972900390625
214847000.0 -0.532989501953125 -0.037506103515625
219842500.0 -0.54473876953125 0.025726318359375
224838000.0 -0.548309326171875 0.090606689453125
229833500.0 -0.544342041015625 0.156524658203125
234829000.0 -0.531982421875 0.221710205078125
239824500.0 -0.51220703125 0.286529541015625
244820000.0 -0.484710693359375 0.3489227294921875
249815500.0 -0.449859619140625 0.4087677001953125
254811000.0 -0.4309844970703125 0.452239990234375
259806500.0 -0.38531494140625 0.5062255859375
264802000.0 -0.333282470703125 0.556182861328125
269797500.0 -0.274444580078125 0.6007080078125
274793000.0 -0.2103271484375 0.639190673828125
279788500.0 -0.140716552734375 0.6710205078125
284784000.0 -0.066375732421875 0.69561767578125
289779500.0 0.011932373046875 0.71221923828125
294775000.0 0.093841552734375 0.71990966796875
299770500.0 0.17779541015625 0.71832275390625
304766000.0 0.26312255859375 0.706695556640625
309761500.0 0.348724365234375 0.684234619140625
314757000.0 0.432647705078125 0.650726318359375
319752500.0 0.513946533203125 0.6060791015625
324748000.0 0.590423583984375 0.55078125
329743500.0 0.661346435546875 0.485321044921875
334739000.0 0.72491455078125 0.4100341796875
339734500.0 0.778411865234375 0.325592041015625
344730000.0 0.8218994140625 0.234222412109375
349725500.0 0.853240966796875 0.137176513671875
354721000.0 0.872894287109375 0.035888671875
359716500.0 0.87982177734375 -0.067169189453125
364712000.0 0.873291015625 -0.171112060546875
369707500.0 0.8544921875 -0.274078369140625
374703000.0 0.82373046875 -0.37469482421875
379698500.0 0.780975341796875 -0.4705810546875
384694000.0 0.727203369140625 -0.561248779296875
389689500.0 0.663604736328125 -0.64544677734375
394685000.0 0.5908203125 -0.7220458984375
399680500.0 0.509796142578125 -0.7906494140625
404676000.0 0.421417236328125 -0.850738525390625
409671500.0 0.32672119140625 -0.90264892578125
414667000.0 0.226470947265625 -0.94189453125
419662500.0 0.121002197265625 -0.971954345703125
424658000.0 0.011077880859375 -0.990509033203125
429653500.0 -0.103271484375 -0.997039794921875
434649000.0 -0.219635009765625 -0.9893798828125
439644500.0 -0.33465576171875 -0.968292236328125
444640000.0 -0.44879150390625 -0.934783935546875
449635500.0 -0.560089111328125 -0.88818359375
454631000.0 -0.669036865234375 -0.828369140625
459626500.0 -0.7723388671875 -0.752777099609375
464622000.0 -0.867218017578125 -0.662109375
469617500.0 -0.950225830078125 -0.558502197265625
474613000.0 -1.019775390625 -0.44354248046875
479608500.0 -1.0743408203125 -0.31884765625
484604000.0 -1.112548828125 -0.18682861328125
489599500.0 -1.13201904296875 -0.05023193359375
494595000.0 -1.13360595703125 0.0875244140625
499590500.0 -1.11614990234375 0.22332763671875
504586000.0 -1.08197021484375 0.3546142578125
509581500.0 -1.03125 0.4783935546875
514577000.0 -0.9669189453125 0.593048095703125
519572500.0 -0.890625 0.696746826171875
524568000.0 -0.80474853515625 0.78936767578125
529563500.0 -0.71234130859375 0.870330810546875
534559000.0 -0.614501953125 0.940185546875
539554500.0 -0.5128173828125 1.0006103515625
544550000.0 -0.4075927734375 1.05194091796875
549545500.0 -0.29827880859375 1.09490966796875
554541000.0 -0.18267822265625 1.1292724609375
559536500.0 -0.063232421875 1.1536865234375
564532000.0 0.06103515625 1.16680908203125
569527500.0 0.1893310546875 1.1673583984375
574523000.0 0.32012939453125 1.15362548828125
579518500.0 0.45166015625 1.12493896484375
584514000.0 0.5819091796875 1.0810546875
589509500.0 0.7093505859375 1.0216064453125
594505000.0 0.83184814453125 0.94598388671875
599500500.0 0.947235107421875 0.854278564453125
604496000.0 1.05352783203125 0.74713134765625
609491500.0 1.1474609375 0.625
614487000.0 1.22735595703125 0.4898681640625
619482500.0 1.28973388671875 0.34271240234375
624478000.0 1.33343505859375 0.1865234375
629473500.0 1.35589599609375 0.02435302734375
634469000.0 1.35662841796875 -0.14117431640625
639464500.0 1.334716796875 -0.30584716796875
644460000.0 1.2911376953125 -0.4656982421875
649455500.0 1.2269287109375 -0.6177978515625
654451000.0 1.143798828125 -0.759521484375
659446500.0 1.04443359375 -0.88824462890625
664442000.0 0.931396484375 -1.00189208984375
669437500.0 0.80755615234375 -1.10009765625
674433000.0 0.6748046875 -1.1815185546875
679428500.0 0.5357666015625 -1.24615478515625
684424000.0 0.39312744140625 -1.29498291015625
689419500.0 0.24810791015625 -1.3275146484375
694415000.0 0.1025390625 -1.3450927734375
699410500.0 -0.04296875 -1.3482666015625
704406000.0 -0.1864013671875 -1.33740234375
709401500.0 -0.3282470703125 -1.31341552734375
714397000.0 -0.46710205078125 -1.276123046875
719392500.0 -0.603271484375 -1.22607421875
724388000.0 -0.73504638671875 -1.16363525390625
729383500.0 -0.86260986328125 -1.0869140625
734379000.0 -0.984039306640625 -0.996612548828125
739374500.0 -1.0980224609375 -0.892333984375
744370000.0 -1.20257568359375 -0.77423095703125
749365500.0 -1.2965087890625 -0.642822265625
754361000.0 -1.3775634765625 -0.4974365234375
759356500.0 -1.44219970703125 -0.33935546875
764352000.0 -1.48858642578125 -0.170654296875
769347500.0 -1.51361083984375 0.00634765625
774343000.0 -1.51568603515625 0.18865966796875
779338500.0 -1.49420166015625 0.37249755859375
784334000.0 -1.44659423828125 0.55401611328125
789329500.0 -1.3736572265625 0.72845458984375
794325000.0 -1.2781982421875 0.89239501953125
799320500.0 -1.161865234375 1.04083251953125
804316000.0 -1.02691650390625 1.1717529296875
809311500.0 -0.878173828125 1.282470703125
814307000.0 -0.71881103515625 1.3721923828125
819302500.0 -0.552001953125 1.43975830078125
824298000.0 -0.3809814453125 1.48565673828125
829293500.0 -0.21014404296875 1.512451171875
834289000.0 -0.03955078125 1.51800537109375
839284500.0 0.12640380859375 1.50604248046875
844280000.0 0.22747802734375 1.50897216796875
849275500.0 0.3873291015625 1.47210693359375
854271000.0 0.540771484375 1.4208984375
859266500.0 0.68756103515625 1.35552978515625
864262000.0 0.82659912109375 1.2764892578125
869257500.0 0.958251953125 1.18524169921875
874253000.0 1.0810546875 1.0816650390625
879248500.0 1.19403076171875 0.966064453125
884244000.0 1.29644775390625 0.8394775390625
889239500.0 1.38812255859375 0.702880859375
894235000.0 1.466796875 0.5552978515625
899230500.0 1.53265380859375 0.39862060546875
904226000.0 1.5841064453125 0.23046875
909221500.0 1.6175537109375 0.0531005859375
914217000.0 1.63043212890625 -0.13275146484375
919212500.0 1.620361328125 -0.32318115234375
924208000.0 1.58526611328125 -0.51434326171875
929203500.0 1.52569580078125 -0.7025146484375
934199000.0 1.44122314453125 -0.8843994140625
939194500.0 1.33184814453125 -1.0545654296875
944190000.0 1.200927734375 -1.20953369140625
949185500.0 1.050048828125 -1.34619140625
954181000.0 0.8828125 -1.4619140625
959176500.0 0.703125 -1.55377197265625
964172000.0 0.51513671875 -1.62103271484375
969167500.0 0.32244873046875 -1.66424560546875
974163000.0 0.1290283203125 -1.6832275390625
979158500.0 -0.062255859375 -1.67938232421875
984154000.0 -0.2490234375 -1.6546630859375
989149500.0 -0.42828369140625 -1.61004638671875
994145000.0 -0.5999755859375 -1.54815673828125
999140500.0 -0.76220703125 -1.47021484375
1004136000.0 -0.91448974609375 -1.377197265625
1009131500.0 -1.05535888671875 -1.27056884765625
1014127000.0 -1.185546875 -1.15118408203125
1019122500.0 -1.3048095703125 -1.02001953125
1024118000.0 -1.40997314453125 -0.877685546875
1029113500.0 -1.501953125 -0.72393798828125
1034109000.0 -1.5797119140625 -0.5601806640625
1039104500.0 -1.6409912109375 -0.3870849609375
1044100000.0 -1.6845703125 -0.20587158203125
1049095500.0 -1.70928955078125 -0.01788330078125
1054091000.0 -1.71197509765625 0.17572021484375
1059086500.0 -1.6927490234375 0.3712158203125
1064082000.0 -1.6497802734375 0.56683349609375
1069077500.0 -1.58203125 0.75836181640625
1074073000.0 -1.4903564453125 0.9422607421875
1079068500.0 -1.37493896484375 1.11505126953125
1084064000.0 -1.237060546875 1.2733154296875
1089059500.0 -1.08013916015625 1.41253662109375
1094055000.0 -0.90606689453125 1.53045654296875
1099050500.0 -0.718505859375 1.62493896484375
1104046000.0 -0.52166748046875 1.69415283203125
1109041500.0 -0.319580078125 1.73797607421875
1114037000.0 -0.115966796875 1.75628662109375
1119032500.0 0.085205078125 1.74957275390625
1124028000.0 0.28216552734375 1.71990966796875
1129023500.0 0.47119140625 1.668701171875
1134019000.0 0.65087890625 1.59771728515625
1139014500.0 0.81976318359375 1.50927734375
1144010000.0 0.975341796875 1.40435791015625
1149005500.0 1.1182861328125 1.28546142578125
1154001000.0 1.2469482421875 1.15386962890625
1158996500.0 1.36102294921875 1.0107421875
1163992000.0 1.46038818359375 0.85809326171875
1168987500.0 1.54302978515625 0.6962890625
1173983000.0 1.61016845703125 0.52734375
1178978500.0 1.6595458984375 0.3514404296875
1183974000.0 1.690673828125 0.1717529296875
1188969500.0 1.70416259765625 -0.01190185546875
1193965000.0 1.6986083984375 -0.197998046875
1198960500.0 1.67291259765625 -0.384033203125
1203956000.0 1.62689208984375 -0.56744384765625
1208951500.0 1.56060791015625 -0.7471923828125
1213947000.0 1.47393798828125 -0.9193115234375
1218942500.0 1.36737060546875 -1.08319091796875
1223938000.0 1.24114990234375 -1.2354736328125
1228933500.0 1.09674072265625 -1.37298583984375
1233929000.0 0.9366455078125 -1.49285888671875
1238924500.0 0.7625732421875 -1.59417724609375
1243920000.0 0.57659912109375 -1.67431640625
1248915500.0 0.38153076171875 -1.73193359375
1253911000.0 0.180419921875 -1.76611328125
1258906500.0 -0.02337646484375 -1.775634765625
1263902000.0 -0.226806640625 -1.7618408203125
1268897500.0 -0.42730712890625 -1.723388671875
1273893000.0 -0.617431640625 -1.66107177734375
1278888500.0 -0.8006591796875 -1.57867431640625
1283884000.0 -0.97222900390625 -1.475830078125
1288879500.0 -1.12994384765625 -1.35455322265625
1293875000.0 -1.27215576171875 -1.21630859375
1298870500.0 -1.398193359375 -1.06451416015625
1303866000.0 -1.505615234375 -0.90020751953125
1308861500.0 -1.59320068359375 -0.72515869140625
1313857000.0 -1.66143798828125 -0.54254150390625
1318852500.0 -1.7078857421875 -0.35400390625
1323848000.0 -1.73406982421875 -0.1619873046875
1328843500.0 -1.73895263671875 0.0308837890625
1333839000.0 -1.721435546875 0.22283935546875
1338834500.0 -1.68402099609375 0.41192626953125
1343830000.0 -1.62628173828125 0.5936279296875
1348825500.0 -1.54888916015625 0.76873779296875
1353821000.0 -1.45330810546875 0.9329833984375
1358816500.0 -1.3406982421875 1.08636474609375
1363812000.0 -1.21240234375 1.2261962890625
1368807500.0 -1.0701904296875 1.35150146484375
1373803000.0 -0.91552734375 1.45965576171875
1378798500.0 -0.7503662109375 1.55120849609375
1383794000.0 -0.57635498046875 1.62408447265625
1388789500.0 -0.3951416015625 1.6787109375
1393785000.0 -0.208984375 1.71368408203125
1398780500.0 -0.01904296875 1.728515625
1403776000.0 0.1715087890625 1.72332763671875
1408771500.0 0.36212158203125 1.6973876953125
1413767000.0 0.54949951171875 1.65093994140625
1418762500.0 0.73150634765625 1.5828857421875
1423758000.0 0.90655517578125 1.4952392578125
1428753500.0 1.072021484375 1.38702392578125
1433749000.0 1.22540283203125 1.25921630859375
1438744500.0 1.36346435546875 1.1136474609375
1443740000.0 1.48394775390625 0.9517822265625
1448735500.0 1.5859375 0.77545166015625
1453731000.0 1.6661376953125 0.58673095703125
1458726500.0 1.72119140625 0.38934326171875
1463722000.0 1.7513427734375 0.18634033203125
1468717500.0 1.75701904296875 -0.0184326171875
1473713000.0 1.73699951171875 -0.2210693359375
1478708500.0 1.6915283203125 -0.41802978515625
1483704000.0 1.62335205078125 -0.6058349609375
1488699500.0 1.5341796875 -0.78216552734375
1493695000.0 1.42578125 -0.94342041015625
1498690500.0 1.30157470703125 -1.08905029296875
1503686000.0 1.163818359375 -1.21759033203125
1508681500.0 1.01544189453125 -1.328125
1513677000.0 0.85882568359375 -1.41961669921875
1518672500.0 0.69677734375 -1.49298095703125
1523668000.0 0.530029296875 -1.5491943359375
1528663500.0 0.36151123046875 -1.58758544921875
1533659000.0 0.19195556640625 -1.6083984375
1538654500.0 0.02227783203125 -1.61383056640625
1543650000.0 -0.14532470703125 -1.60308837890625
1548645500.0 -0.3109130859375 -1.57659912109375
1553641000.0 -0.4737548828125 -1.53485107421875
1558636500.0 -0.63116455078125 -1.4775390625
1563632000.0 -0.78399658203125 -1.40472412109375
1568627500.0 -0.9298095703125 -1.31707763671875
1573623000.0 -1.06732177734375 -1.2137451171875
1578618500.0 -1.19482421875 -1.09564208984375
1583614000.0 -1.3114013671875 -0.96282958984375
1588609500.0 -1.41363525390625 -0.8162841796875
1593605000.0 -1.4998779296875 -0.65777587890625
1598600500.0 -1.5677490234375 -0.4884033203125
1603596000.0 -1.61572265625 -0.3104248046875
1608591500.0 -1.642822265625 -0.12677001953125
1613587000.0 -1.64727783203125 0.0595703125
1618582500.0 -1.62921142578125 0.24493408203125
1623578000.0 -1.588623046875 0.4273681640625
1628573500.0 -1.52642822265625 0.6026611328125
1633569000.0 -1.44427490234375 0.76788330078125
1638564500.0 -1.343505859375 0.9200439453125
1643560000.0 -1.22723388671875 1.05859375
1648555500.0 -1.09747314453125 1.1810302734375
1653551000.0 -0.95721435546875 1.28643798828125
1658546500.0 -0.80841064453125 1.374755859375
1663542000.0 -0.6534423828125 1.44580078125
1668537500.0 -0.49456787109375 1.49981689453125
1673533000.0 -0.33294677734375 1.5374755859375
1678528500.0 -0.170166015625 1.55908203125
1683524000.0 -0.00726318359375 1.56494140625
1688519500.0 0.15435791015625 1.55584716796875
1693515000.0 0.31451416015625 1.53167724609375
1698510500.0 0.47235107421875 1.49310302734375
1703506000.0 0.62652587890625 1.439208984375
1708501500.0 0.77557373046875 1.3721923828125
1713497000.0 0.9205322265625 1.2890625
1718492500.0 1.05853271484375 1.1907958984375
1723488000.0 1.18756103515625 1.07684326171875
1728483500.0 1.306640625 0.9471435546875
1733479000.0 1.41326904296875 0.80224609375
1738474500.0 1.50390625 0.6431884765625
1743470000.0 1.57635498046875 0.470458984375
1748465500.0 1.62786865234375 0.2877197265625
1753461000.0 1.65655517578125 0.09674072265625
1758456500.0 1.66015625 -0.0977783203125
1763452000.0 1.63763427734375 -0.2921142578125
1768447500.0 1.590087890625 -0.481689453125
1773443000.0 1.51800537109375 -0.6627197265625
1778438500.0 1.42327880859375 -0.83062744140625
1783434000.0 1.30963134765625 -0.9837646484375
1788429500.0 1.1795654296875 -1.11865234375
1793425000.0 1.03741455078125 -1.23394775390625
1798420500.0 0.88592529296875 -1.33013916015625
1803416000.0 0.728271484375 -1.4058837890625
1808411500.0 0.56756591796875 -1.4632568359375
1813407000.0 0.40545654296875 -1.50262451171875
1818402500.0 0.2437744140625 -1.52545166015625
1823398000.0 0.0833740234375 -1.53277587890625
1828393500.0 -0.07415771484375 -1.525390625
1833389000.0 -0.22845458984375 -1.5042724609375
1838384500.0 -0.3792724609375 -1.4698486328125
1843380000.0 -0.52703857421875 -1.4229736328125
1848375500.0 -0.669677734375 -1.363037109375
1853371000.0 -0.80780029296875 -1.29010009765625
1858366500.0 -0.9405517578125 -1.2041015625
1863362000.0 -1.06658935546875 -1.10443115234375
1868357500.0 -1.18408203125 -0.9906005859375
1873353000.0 -1.29083251953125 -0.86297607421875
1878348500.0 -1.38671875 -0.7218017578125
1883344000.0 -1.466552734375 -0.56768798828125
1888339500.0 -1.530029296875 -0.4019775390625
1893335000.0 -1.573486328125 -0.2266845703125
1898330500.0 -1.594970703125 -0.04443359375
1903326000.0 -1.5927734375 0.14056396484375
1908321500.0 -1.56646728515625 0.32470703125
1913317000.0 -1.5166015625 0.50469970703125
1918312500.0 -1.44366455078125 0.67620849609375
1923308000.0 -1.349365234375 0.83428955078125
1928303500.0 -1.2369384765625 0.97821044921875
1933299000.0 -1.109619140625 1.10467529296875
1938294500.0 -0.97027587890625 1.2127685546875
1943290000.0 -0.822509765625 1.30120849609375
1948285500.0 -0.66961669921875 1.37091064453125
1953281000.0 -0.512939453125 1.42218017578125
1958276500.0 -0.3553466796875 1.4564208984375
1963272000.0 -0.198974609375 1.47369384765625
1968267500.0 -0.04345703125 1.47601318359375
1973263000.0 0.10772705078125 1.46380615234375
1978258500.0 0.25555419921875 1.4381103515625
1983254000.0 0.39971923828125 1.39923095703125
1988249500.0 0.5389404296875 1.347412109375
1993245000.0 0.67279052734375 1.28375244140625
1998240500.0 0.8004150390625 1.20751953125
2003236000.0 0.92169189453125 1.1199951171875
2008231500.0 1.0343017578125 1.02032470703125
2013227000.0 1.13714599609375 0.90814208984375
2018222500.0 1.2296142578125 0.78533935546875
2023218000.0 1.3095703125 0.65240478515625
2028213500.0 1.37506103515625 0.50994873046875
2033209000.0 1.42584228515625 0.35955810546875
2038204500.0 1.45916748046875 0.203125
2043200000.0 1.47454833984375 0.0423583984375
2048195500.0 1.47125244140625 -0.11956787109375
2053191000.0 1.448974609375 -0.28021240234375
2058186500.0 1.40899658203125 -0.4376220703125
2063182000.0 1.35003662109375 -0.58740234375
2068177500.0 1.275634765625 -0.7296142578125
2073173000.0 1.18585205078125 -0.86114501953125
2078168500.0 1.08282470703125 -0.98077392578125
2083164000.0 0.96881103515625 -1.087158203125
2088159500.0 0.8453369140625 -1.1810302734375
2093155000.0 0.71453857421875 -1.2596435546875
2098150500.0 0.57720947265625 -1.32476806640625
2103146000.0 0.43585205078125 -1.37518310546875
2108141500.0 0.29083251953125 -1.41107177734375
2113137000.0 0.14337158203125 -1.4337158203125
2118132500.0 -0.00537109375 -1.44158935546875
2123128000.0 -0.15386962890625 -1.435791015625
2128123500.0 -0.30242919921875 -1.4156494140625
2133119000.0 -0.449462890625 -1.3818359375
2138114500.0 -0.5931396484375 -1.333251953125
2143110000.0 -0.73406982421875 -1.26934814453125
2148105500.0 -0.8690185546875 -1.19110107421875
2153101000.0 -0.99737548828125 -1.09771728515625
2158096500.0 -1.11749267578125 -0.989013671875
2163092000.0 -1.22540283203125 -0.8662109375
2168087500.0 -1.3206787109375 -0.72991943359375
2173083000.0 -1.400390625 -0.58123779296875
2178078500.0 -1.46295166015625 -0.4222412109375
2183074000.0 -1.505615234375 -0.2550048828125
2188069500.0 -1.52838134765625 -0.08319091796875
2193065000.0 -1.52911376953125 0.0908203125
