!Created with skrf (http://scikit-rf.org).
# Hz S RI R 50.0 
!freq ReS11 ImS11
45000000.0 -0.0816802978515625 -0.0932159423828125
49995500.0 -0.10232925415039062 -0.08909988403320312
54991000.0 -0.12286758422851562 -0.0810546875
59986500.0 -0.14165496826171875 -0.078704833984375
64982000.0 -0.1604156494140625 -0.069610595703125
69977500.0 -0.17905426025390625 -0.0550079345703125
74973000.0 -0.1964263916015625 -0.037384033203125
79968500.0 -0.212005615234375 -0.016448974609375
84964000.0 -0.2255859375 0.00769805908203125
89959500.0 -0.23624420166015625 0.034881591796875
94955000.0 -0.24306488037109375 0.0645751953125
99950500.0 -0.2459564208984375 0.096771240234375
104946000.0 -0.2447967529296875 0.1304779052734375
109941500.0 -0.23819732666015625 0.16538238525390625
114937000.0 -0.22684478759765625 0.2008209228515625
119932500.0 -0.2098236083984375 0.23560333251953125
124928000.0 -0.188140869140625 0.269134521484375
129923500.0 -0.16058349609375 0.3004302978515625
134919000.0 -0.128143310546875 0.3291015625
139914500.0 -0.0909881591796875 0.354034423828125
144910000.0 -0.0494384765625 0.3745269775390625
149905500.0 -0.0042724609375 0.3899383544921875
154901000.0 0.043212890625 0.3995208740234375
159896500.0 0.0929718017578125 0.40289306640625
164892000.0 0.1436767578125 0.40032958984375
169887500.0 0.1947479248046875 0.3908538818359375
174883000.0 0.245361328125 0.375
179878500.0 0.2950439453125 0.3524169921875
184874000.0 0.3419952392578125 0.32354736328125
189869500.0 0.38641357421875 0.288177490234375
194865000.0 0.4272308349609375 0.2476348876953125
199860500.0 0.4635467529296875 0.2015228271484375
204856000.0 0.49444580078125 0.15020751953125
209851500.0 0.5198974609375 0.09442138671875
214847000.0 0.5394287109375 0.034912109375
219842500.0 0.552154541015625 -0.028167724609375
224838000.0 0.557098388671875 -0.09344482421875
229833500.0 0.5548095703125 -0.16064453125
234829000.0 0.5440673828125 -0.22821044921875
239824500.0 0.524871826171875 -0.29595947265625
244820000.0 0.49688720703125 -0.362060546875
249815500.0 0.460418701171875 -0.4259185791015625
254811000.0 0.43988037109375 -0.4730987548828125
259806500.0 0.390289306640625 -0.530670166015625
264802000.0 0.333038330078125 -0.583160400390625
269797500.0 0.26812744140625 -0.628631591796875
274793000.0 0.19708251953125 -0.6666259765625
279788500.0 0.120635986328125 -0.696044921875
284784000.0 0.04052734375 -0.71612548828125
289779500.0 -0.042694091796875 -0.726318359375
294775000.0 -0.1275634765625 -0.726318359375
299770500.0 -0.2125244140625 -0.716888427734375
304766000.0 -0.29632568359375 -0.697052001953125
309761500.0 -0.37799072265625 -0.667236328125
314757000.0 -0.4560546875 -0.62744140625
319752500.0 -0.529815673828125 -0.578704833984375
324748000.0 -0.59832763671875 -0.521759033203125
329743500.0 -0.660888671875 -0.457244873046875
334739000.0 -0.716766357421875 -0.384918212890625
339734500.0 -0.764801025390625 -0.30609130859375
344730000.0 -0.80450439453125 -0.221649169921875
349725500.0 -0.8353271484375 -0.131805419921875
354721000.0 -0.856414794921875 -0.038330078125
359716500.0 -0.866973876953125 0.05926513671875
364712000.0 -0.866943359375 0.159149169921875
369707500.0 -0.85504150390625 0.260345458984375
374703000.0 -0.83123779296875 0.361846923828125
379698500.0 -0.794830322265625 0.461822509765625
384694000.0 -0.74591064453125 0.558563232421875
389689500.0 -0.683990478515625 0.650390625
394685000.0 -0.61041259765625 0.735504150390625
399680500.0 -0.525726318359375 0.8118896484375
404676000.0 -0.430511474609375 0.87823486328125
409671500.0 -0.326904296875 0.933380126953125
414667000.0 -0.21661376953125 0.973541259765625
419662500.0 -0.10107421875 1.00030517578125
424658000.0 0.01837158203125 1.0123291015625
429653500.0 0.1395263671875 1.0091552734375
434649000.0 0.25909423828125 0.989166259765625
439644500.0 0.372955322265625 0.95556640625
444640000.0 0.4815673828125 0.909576416015625
449635500.0 0.583648681640625 0.8526611328125
454631000.0 0.679412841796875 0.7857666015625
459626500.0 0.76788330078125 0.70758056640625
464622000.0 0.8463134765625 0.619873046875
469617500.0 0.91461181640625 0.524627685546875
474613000.0 0.972564697265625 0.4227294921875
479608500.0 1.01971435546875 0.3154296875
484604000.0 1.05621337890625 0.202880859375
489599500.0 1.08123779296875 0.08648681640625
494595000.0 1.09454345703125 -0.032958984375
499590500.0 1.0960693359375 -0.155029296875
504586000.0 1.084228515625 -0.27838134765625
509581500.0 1.0589599609375 -0.402099609375
514577000.0 1.01934814453125 -0.5252685546875
519572500.0 0.964874267578125 -0.64581298828125
524568000.0 0.895111083984375 -0.761962890625
529563500.0 0.810150146484375 -0.871368408203125
534559000.0 0.709503173828125 -0.971527099609375
539554500.0 0.59552001953125 -1.05902099609375
544550000.0 0.4698486328125 -1.13201904296875
549545500.0 0.33441162109375 -1.18853759765625
554541000.0 0.19183349609375 -1.227783203125
559536500.0 0.04522705078125 -1.24847412109375
564532000.0 -0.1026611328125 -1.25115966796875
569527500.0 -0.25067138671875 -1.2354736328125
574523000.0 -0.3951416015625 -1.2012939453125
579518500.0 -0.53399658203125 -1.149658203125
584514000.0 -0.66510009765625 -1.08184814453125
589509500.0 -0.7860107421875 -0.9991455078125
594505000.0 -0.895477294921875 -0.90313720703125
599500500.0 -0.9923095703125 -0.7965087890625
604496000.0 -1.076171875 -0.68048095703125
609491500.0 -1.14605712890625 -0.55731201171875
614487000.0 -1.20233154296875 -0.42877197265625
619482500.0 -1.24517822265625 -0.2957763671875
624478000.0 -1.27374267578125 -0.15997314453125
629473500.0 -1.289306640625 -0.0218505859375
634469000.0 -1.29119873046875 0.11737060546875
639464500.0 -1.279541015625 0.257080078125
644460000.0 -1.25421142578125 0.39654541015625
649455500.0 -1.2147216796875 0.5343017578125
654451000.0 -1.16082763671875 0.6702880859375
659446500.0 -1.09234619140625 0.80267333984375
664442000.0 -1.00823974609375 0.93035888671875
669437500.0 -0.90838623046875 1.05096435546875
674433000.0 -0.79254150390625 1.16253662109375
679428500.0 -0.6600341796875 1.26239013671875
684424000.0 -0.51422119140625 1.34735107421875
689419500.0 -0.35418701171875 1.41473388671875
694415000.0 -0.183349609375 1.4620361328125
699410500.0 -0.00494384765625 1.48675537109375
704406000.0 0.17742919921875 1.4871826171875
709401500.0 0.3603515625 1.4622802734375
714397000.0 0.53875732421875 1.41217041015625
719392500.0 0.708251953125 1.33819580078125
724388000.0 0.866455078125 1.24285888671875
729383500.0 1.00836181640625 1.12835693359375
734379000.0 1.132568359375 0.99627685546875
739374500.0 1.237548828125 0.85260009765625
744370000.0 1.3223876953125 0.69964599609375
749365500.0 1.38739013671875 0.54034423828125
754361000.0 1.432861328125 0.37841796875
759356500.0 1.45977783203125 0.2149658203125
764352000.0 1.46893310546875 0.05267333984375
769347500.0 1.4615478515625 -0.107666015625
774343000.0 1.43841552734375 -0.26446533203125
779338500.0 1.39996337890625 -0.4168701171875
784334000.0 1.3485107421875 -0.56390380859375
789329500.0 1.28314208984375 -0.70513916015625
794325000.0 1.20465087890625 -0.84051513671875
799320500.0 1.113525390625 -0.96820068359375
804316000.0 1.00897216796875 -1.08795166015625
809311500.0 0.89190673828125 -1.19805908203125
814307000.0 0.76275634765625 -1.297607421875
819302500.0 0.62091064453125 -1.3853759765625
824298000.0 0.46734619140625 -1.45806884765625
829293500.0 0.3043212890625 -1.51495361328125
834289000.0 0.13067626953125 -1.55303955078125
839284500.0 -0.04803466796875 -1.57037353515625
844280000.0 -0.16571044921875 -1.596923828125
849275500.0 -0.353515625 -1.578125
854271000.0 -0.53912353515625 -1.53448486328125
859266500.0 -0.7198486328125 -1.466796875
864262000.0 -0.89044189453125 -1.37579345703125
869257500.0 -1.04815673828125 -1.26348876953125
874253000.0 -1.189208984375 -1.132080078125
879248500.0 -1.3121337890625 -0.98480224609375
884244000.0 -1.41497802734375 -0.82525634765625
889239500.0 -1.4969482421875 -0.656005859375
894235000.0 -1.557861328125 -0.48052978515625
899230500.0 -1.59844970703125 -0.301513671875
904226000.0 -1.6177978515625 -0.1209716796875
909221500.0 -1.61798095703125 0.060546875
914217000.0 -1.59716796875 0.2381591796875
919212500.0 -1.55792236328125 0.41107177734375
924208000.0 -1.5015869140625 0.5771484375
929203500.0 -1.4298095703125 0.73492431640625
934199000.0 -1.34332275390625 0.8829345703125
939194500.0 -1.24346923828125 1.02154541015625
944190000.0 -1.13104248046875 1.1512451171875
949185500.0 -1.006591796875 1.2698974609375
954181000.0 -0.8695068359375 1.37725830078125
959176500.0 -0.72137451171875 1.47186279296875
964172000.0 -0.5609130859375 1.55230712890625
969167500.0 -0.39044189453125 1.61700439453125
974163000.0 -0.2109375 1.663818359375
979158500.0 -0.023193359375 1.69073486328125
984154000.0 0.17138671875 1.69677734375
989149500.0 0.36871337890625 1.67877197265625
994145000.0 0.56475830078125 1.63580322265625
999140500.0 0.75677490234375 1.56744384765625
1004136000.0 0.9417724609375 1.4744873046875
1009131500.0 1.1148681640625 1.357421875
1014127000.0 1.27197265625 1.21734619140625
1019122500.0 1.40826416015625 1.0582275390625
1024118000.0 1.5234375 0.88323974609375
1029113500.0 1.61395263671875 0.69561767578125
1034109000.0 1.6798095703125 0.49945068359375
1039104500.0 1.72039794921875 0.29931640625
1044100000.0 1.7359619140625 0.09857177734375
1049095500.0 1.727294921875 -0.10028076171875
1054091000.0 1.69683837890625 -0.29364013671875
1059086500.0 1.64569091796875 -0.4788818359375
1064082000.0 1.57586669921875 -0.65533447265625
1069077500.0 1.48883056640625 -0.82098388671875
1074073000.0 1.38690185546875 -0.975830078125
1079068500.0 1.27056884765625 -1.11737060546875
1084064000.0 1.14190673828125 -1.2471923828125
1089059500.0 1.00164794921875 -1.3631591796875
1094055000.0 0.84967041015625 -1.4644775390625
1099050500.0 0.687744140625 -1.55181884765625
1104046000.0 0.517578125 -1.6224365234375
1109041500.0 0.33905029296875 -1.67572021484375
1114037000.0 0.153076171875 -1.71051025390625
1119032500.0 -0.0377197265625 -1.72491455078125
1124028000.0 -0.2315673828125 -1.7186279296875
1129023500.0 -0.42706298828125 -1.69091796875
1134019000.0 -0.6201171875 -1.63958740234375
1139014500.0 -0.80810546875 -1.564697265625
1144010000.0 -0.9886474609375 -1.46649169921875
1149005500.0 -1.15704345703125 -1.34527587890625
1154001000.0 -1.3101806640625 -1.20294189453125
1158996500.0 -1.4447021484375 -1.04119873046875
1163992000.0 -1.5579833984375 -0.86309814453125
1168987500.0 -1.64739990234375 -0.67193603515625
1173983000.0 -1.71142578125 -0.47174072265625
1178978500.0 -1.74993896484375 -0.2655029296875
1183974000.0 -1.76171875 -0.058349609375
1188969500.0 -1.74755859375 0.14630126953125
1193965000.0 -1.70904541015625 0.3448486328125
1198960500.0 -1.64862060546875 0.53564453125
1203956000.0 -1.56695556640625 0.71441650390625
1208951500.0 -1.4671630859375 0.8807373046875
1213947000.0 -1.35113525390625 1.03228759765625
1218942500.0 -1.2205810546875 1.16778564453125
1223938000.0 -1.078857421875 1.28717041015625
1228933500.0 -0.92767333984375 1.39013671875
1233929000.0 -0.76800537109375 1.475341796875
1238924500.0 -0.60247802734375 1.54296875
1243920000.0 -0.43121337890625 1.59356689453125
1248915500.0 -0.25787353515625 1.626708984375
1253911000.0 -0.082275390625 1.64202880859375
1258906500.0 0.09356689453125 1.64031982421875
1263902000.0 0.2694091796875 1.62164306640625
1268897500.0 0.441650390625 1.58380126953125
1273893000.0 0.60906982421875 1.5289306640625
1278888500.0 0.77166748046875 1.4564208984375
1283884000.0 0.92669677734375 1.3670654296875
1288879500.0 1.07281494140625 1.26116943359375
1293875000.0 1.20703125 1.13824462890625
1298870500.0 1.32830810546875 1.0008544921875
1303866000.0 1.4345703125 0.85009765625
1308861500.0 1.52325439453125 0.68731689453125
1313857000.0 1.59375 0.5142822265625
1318852500.0 1.6448974609375 0.3331298828125
1323848000.0 1.6739501953125 0.147216796875
1328843500.0 1.6829833984375 -0.04205322265625
1333839000.0 1.66973876953125 -0.23138427734375
1338834500.0 1.63482666015625 -0.41925048828125
1343830000.0 1.57916259765625 -0.601806640625
1348825500.0 1.5018310546875 -0.777587890625
1353821000.0 1.40509033203125 -0.944091796875
1358816500.0 1.28997802734375 -1.0980224609375
1363812000.0 1.15655517578125 -1.237548828125
1368807500.0 1.00811767578125 -1.361328125
1373803000.0 0.84619140625 -1.46630859375
1378798500.0 0.6722412109375 -1.55218505859375
1383794000.0 0.49078369140625 -1.6160888671875
1388789500.0 0.30267333984375 -1.65869140625
1393785000.0 0.11114501953125 -1.6787109375
1398780500.0 -0.080078125 -1.676025390625
1403776000.0 -0.2684326171875 -1.6510009765625
1408771500.0 -0.45184326171875 -1.6044921875
1413767000.0 -0.62646484375 -1.5374755859375
1418762500.0 -0.79083251953125 -1.45184326171875
1423758000.0 -0.9432373046875 -1.34912109375
1428753500.0 -1.08197021484375 -1.23175048828125
1433749000.0 -1.20526123046875 -1.100830078125
1438744500.0 -1.313232421875 -0.959228515625
1443740000.0 -1.404296875 -0.8082275390625
1448735500.0 -1.479248046875 -0.64996337890625
1453731000.0 -1.5374755859375 -0.4857177734375
1458726500.0 -1.5775146484375 -0.31781005859375
1463722000.0 -1.6019287109375 -0.1463623046875
1468717500.0 -1.60791015625 0.02618408203125
1473713000.0 -1.59735107421875 0.19891357421875
1478708500.0 -1.569580078125 0.37054443359375
1483704000.0 -1.52392578125 0.539306640625
1488699500.0 -1.4605712890625 0.703857421875
1493695000.0 -1.37994384765625 0.8631591796875
1498690500.0 -1.281494140625 1.01422119140625
1503686000.0 -1.1654052734375 1.15594482421875
1508681500.0 -1.03192138671875 1.285400390625
1513677000.0 -0.8828125 1.40045166015625
1518672500.0 -0.7188720703125 1.497314453125
1523668000.0 -0.542724609375 1.5745849609375
1528663500.0 -0.35614013671875 1.6302490234375
1533659000.0 -0.16278076171875 1.66253662109375
1538654500.0 0.03411865234375 1.6690673828125
1543650000.0 0.22991943359375 1.65081787109375
1548645500.0 0.42095947265625 1.6072998046875
1553641000.0 0.603759765625 1.54052734375
1558636500.0 0.774658203125 1.45123291015625
1563632000.0 0.930908203125 1.3427734375
1568627500.0 1.07025146484375 1.2176513671875
1573623000.0 1.19189453125 1.080078125
1578618500.0 1.2943115234375 0.93145751953125
1583614000.0 1.3770751953125 0.77581787109375
1588609500.0 1.44146728515625 0.61468505859375
1593605000.0 1.48736572265625 0.4512939453125
1598600500.0 1.51611328125 0.2867431640625
1603596000.0 1.5272216796875 0.12286376953125
1608591500.0 1.52227783203125 -0.0390625
1613587000.0 1.502685546875 -0.19720458984375
1618582500.0 1.46820068359375 -0.35162353515625
1623578000.0 1.4190673828125 -0.50146484375
1628573500.0 1.35662841796875 -0.64599609375
1633569000.0 1.28125 -0.783203125
1638564500.0 1.1925048828125 -0.91448974609375
1643560000.0 1.09014892578125 -1.036865234375
1648555500.0 0.9761962890625 -1.14923095703125
1653551000.0 0.849365234375 -1.25006103515625
1658546500.0 0.7108154296875 -1.33868408203125
1663542000.0 0.56219482421875 -1.412353515625
1668537500.0 0.40411376953125 -1.47003173828125
1673533000.0 0.23876953125 -1.5101318359375
1678528500.0 0.06689453125 -1.5299072265625
1683524000.0 -0.10638427734375 -1.52935791015625
1688519500.0 -0.27947998046875 -1.50640869140625
1693515000.0 -0.448974609375 -1.463134765625
1698510500.0 -0.61163330078125 -1.39794921875
1703506000.0 -0.76300048828125 -1.315673828125
1708501500.0 -0.90203857421875 -1.21588134765625
1713497000.0 -1.0260009765625 -1.10089111328125
1718492500.0 -1.13531494140625 -0.9737548828125
1723488000.0 -1.226806640625 -0.837890625
1728483500.0 -1.3011474609375 -0.6949462890625
1733479000.0 -1.35845947265625 -0.5478515625
1738474500.0 -1.39971923828125 -0.39862060546875
1743470000.0 -1.42584228515625 -0.2484130859375
1748465500.0 -1.43670654296875 -0.09912109375
1753461000.0 -1.43402099609375 0.04974365234375
1758456500.0 -1.418212890625 0.19537353515625
1763452000.0 -1.38934326171875 0.3385009765625
1768447500.0 -1.3482666015625 0.478515625
1773443000.0 -1.2945556640625 0.61505126953125
1778438500.0 -1.228515625 0.746826171875
1783434000.0 -1.14990234375 0.87353515625
1788429500.0 -1.058349609375 0.99407958984375
1793425000.0 -0.95306396484375 1.1075439453125
1798420500.0 -0.83489990234375 1.211669921875
1803416000.0 -0.70318603515625 1.30438232421875
1808411500.0 -0.55926513671875 1.38433837890625
1813407000.0 -0.4033203125 1.44744873046875
1818402500.0 -0.23828125 1.49298095703125
1823398000.0 -0.06597900390625 1.51812744140625
1828393500.0 0.11077880859375 1.5208740234375
1833389000.0 0.28729248046875 1.5006103515625
1838384500.0 0.46112060546875 1.45758056640625
1843380000.0 0.62713623046875 1.39166259765625
1848375500.0 0.78240966796875 1.3055419921875
1853371000.0 0.92388916015625 1.20098876953125
1858366500.0 1.04840087890625 1.08099365234375
1863362000.0 1.156005859375 0.94903564453125
1868357500.0 1.24493408203125 0.80816650390625
1873353000.0 1.316162109375 0.66131591796875
1878348500.0 1.36920166015625 0.510986328125
1883344000.0 1.40594482421875 0.35919189453125
1888339500.0 1.42608642578125 0.2080078125
1893335000.0 1.4317626953125 0.05816650390625
1898330500.0 1.42376708984375 -0.08935546875
1903326000.0 1.40252685546875 -0.2333984375
1908321500.0 1.3692626953125 -0.37432861328125
1913317000.0 1.32342529296875 -0.510986328125
1918312500.0 1.26617431640625 -0.643310546875
1923308000.0 1.197265625 -0.77105712890625
1928303500.0 1.11590576171875 -0.89337158203125
1933299000.0 1.02252197265625 -1.00927734375
1938294500.0 0.91650390625 -1.117431640625
1943290000.0 0.79852294921875 -1.2164306640625
1948285500.0 0.6678466796875 -1.30413818359375
1953281000.0 0.525634765625 -1.378662109375
1958276500.0 0.37274169921875 -1.438232421875
1963272000.0 0.21160888671875 -1.48028564453125
1968267500.0 0.04296875 -1.50311279296875
1973263000.0 -0.12939453125 -1.5048828125
1978258500.0 -0.30194091796875 -1.48480224609375
1983254000.0 -0.47174072265625 -1.44256591796875
1988249500.0 -0.63568115234375 -1.3792724609375
1993245000.0 -0.78924560546875 -1.29534912109375
1998240500.0 -0.93060302734375 -1.19366455078125
2003236000.0 -1.0560302734375 -1.0760498046875
2008231500.0 -1.166015625 -0.9461669921875
2013227000.0 -1.25811767578125 -0.805419921875
2018222500.0 -1.3326416015625 -0.65802001953125
2023218000.0 -1.3887939453125 -0.50567626953125
2028213500.0 -1.428466796875 -0.3505859375
2033209000.0 -1.45037841796875 -0.19500732421875
2038204500.0 -1.45770263671875 -0.0390625
2043200000.0 -1.4486083984375 0.11407470703125
2048195500.0 -1.42510986328125 0.26531982421875
2053191000.0 -1.3873291015625 0.41265869140625
2058186500.0 -1.3358154296875 0.55523681640625
2063182000.0 -1.2711181640625 0.6920166015625
2068177500.0 -1.19256591796875 0.82305908203125
2073173000.0 -1.10125732421875 0.9462890625
2078168500.0 -0.9974365234375 1.06060791015625
2083164000.0 -0.88092041015625 1.16424560546875
2088159500.0 -0.7528076171875 1.25653076171875
2093155000.0 -0.6142578125 1.3345947265625
2098150500.0 -0.4656982421875 1.398193359375
2103146000.0 -0.30987548828125 1.44500732421875
2108141500.0 -0.14813232421875 1.47344970703125
2113137000.0 0.01605224609375 1.482666015625
2118132500.0 0.181640625 1.47259521484375
2123128000.0 0.3446044921875 1.44287109375
2128123500.0 0.50213623046875 1.393798828125
2133119000.0 0.65228271484375 1.3272705078125
2138114500.0 0.79266357421875 1.24407958984375
2143110000.0 0.92120361328125 1.14605712890625
2148105500.0 1.03643798828125 1.03570556640625
2153101000.0 1.1380615234375 0.91461181640625
2158096500.0 1.224853515625 0.784912109375
2163092000.0 1.29742431640625 0.6485595703125
2168087500.0 1.354248046875 0.50750732421875
2173083000.0 1.39691162109375 0.36236572265625
2178078500.0 1.4249267578125 0.2158203125
2183074000.0 1.439453125 0.06695556640625
2188069500.0 1.4395751953125 -0.08209228515625
2193065000.0 1.42608642578125 -0.230224609375
2198060500.0 1.3983154296875 -0.3778076171875
