!Created with skrf (http://scikit-rf.org).
# Hz S RI R 50.0 
!freq ReS11 ImS11
45000000.0 -0.0038002729415893555 -0.0008674860000610352
49995500.0 -0.0040454864501953125 -0.00037479400634765625
54991000.0 -0.004230976104736328 6.961822509765625e-05
59986500.0 -0.0045015811920166016 0.0003688335418701172
64982000.0 -0.004738330841064453 0.00091552734375
69977500.0 -0.0048296451568603516 0.0014646053314208984
74973000.0 -0.0048656463623046875 0.001962423324584961
79968500.0 -0.004673004150390625 0.0026988983154296875
84964000.0 -0.004476070404052734 0.003283262252807617
89959500.0 -0.004341602325439453 0.003921031951904297
94955000.0 -0.004000425338745117 0.004454612731933594
99950500.0 -0.003557443618774414 0.004984617233276367
104946000.0 -0.0029582977294921875 0.005492687225341797
109941500.0 -0.0024268627166748047 0.0059642791748046875
114937000.0 -0.0017559528350830078 0.006350517272949219
119932500.0 -0.0010657310485839844 0.006677865982055664
124928000.0 -0.0003407001495361328 0.006869316101074219
129923500.0 0.00049591064453125 0.006963014602661133
134919000.0 0.0014290809631347656 0.006996870040893555
139914500.0 0.0021924972534179688 0.0069310665130615234
144910000.0 0.003017425537109375 0.006810426712036133
149905500.0 0.0037789344787597656 0.00640869140625
154901000.0 0.004614591598510742 0.006147623062133789
159896500.0 0.00532221794128418 0.005623340606689453
164892000.0 0.006072044372558594 0.005129098892211914
169887500.0 0.00662994384765625 0.0044748783111572266
174883000.0 0.007208585739135742 0.003722667694091797
179878500.0 0.0076220035552978516 0.0029256343841552734
184874000.0 0.008040428161621094 0.0020689964294433594
189869500.0 0.00835418701171875 0.0012316703796386719
194865000.0 0.008599281311035156 0.00026798248291015625
199860500.0 0.008692264556884766 -0.0007586479187011719
204856000.0 0.008625984191894531 -0.0017476081848144531
209851500.0 0.008430004119873047 -0.0025811195373535156
214847000.0 0.008173942565917969 -0.00357818603515625
219842500.0 0.007840633392333984 -0.004573822021484375
224838000.0 0.007434368133544922 -0.005449533462524414
229833500.0 0.006859302520751953 -0.006247997283935547
234829000.0 0.0061604976654052734 -0.0071108341217041016
239824500.0 0.005398273468017578 -0.0077550411224365234
244820000.0 0.004505157470703125 -0.008427143096923828
249815500.0 0.0035767555236816406 -0.008949756622314453
254811000.0 0.0030641555786132812 -0.00941610336303711
259806500.0 0.002117156982421875 -0.009639739990234375
264802000.0 0.0010232925415039062 -0.009990692138671875
269797500.0 -2.574920654296875e-05 -0.0101776123046875
274793000.0 -0.001056671142578125 -0.010282039642333984
279788500.0 -0.0022125244140625 -0.010094165802001953
284784000.0 -0.003459453582763672 -0.009912967681884766
289779500.0 -0.004460811614990234 -0.009508609771728516
294775000.0 -0.005527019500732422 -0.009255409240722656
299770500.0 -0.006452083587646484 -0.008576393127441406
304766000.0 -0.007365226745605469 -0.007923126220703125
309761500.0 -0.00834798812866211 -0.007111549377441406
314757000.0 -0.009148597717285156 -0.0062084197998046875
319752500.0 -0.009679794311523438 -0.005218982696533203
324748000.0 -0.010335922241210938 -0.004198551177978516
329743500.0 -0.010677337646484375 -0.003085613250732422
334739000.0 -0.011092185974121094 -0.0019254684448242188
339734500.0 -0.011383533477783203 -0.0007214546203613281
344730000.0 -0.011413097381591797 0.0007205009460449219
349725500.0 -0.01139688491821289 0.0017843246459960938
354721000.0 -0.011137008666992188 0.0029850006103515625
359716500.0 -0.010799884796142578 0.0041904449462890625
364712000.0 -0.010314464569091797 0.005391597747802734
369707500.0 -0.009790420532226562 0.0064849853515625
374703000.0 -0.00899362564086914 0.007587432861328125
379698500.0 -0.00818634033203125 0.00844717025756836
384694000.0 -0.007262229919433594 0.009274482727050781
389689500.0 -0.006241321563720703 0.010189533233642578
394685000.0 -0.005101203918457031 0.010694503784179688
399680500.0 -0.003968715667724609 0.011332988739013672
404676000.0 -0.0027437210083007812 0.011744976043701172
409671500.0 -0.0014829635620117188 0.011914730072021484
414667000.0 -0.00024080276489257812 0.012041091918945312
419662500.0 0.0011706352233886719 0.012035846710205078
424658000.0 0.002460479736328125 0.01187753677368164
429653500.0 0.0036563873291015625 0.011578559875488281
434649000.0 0.004960060119628906 0.011200428009033203
439644500.0 0.006138324737548828 0.010623931884765625
444640000.0 0.007094860076904297 0.009874343872070312
449635500.0 0.008079051971435547 0.009047985076904297
454631000.0 0.009067535400390625 0.008106708526611328
459626500.0 0.009935379028320312 0.007132530212402344
464622000.0 0.010672569274902344 0.006157398223876953
469617500.0 0.011257171630859375 0.004994392395019531
474613000.0 0.011750221252441406 0.0038132667541503906
479608500.0 0.012143611907958984 0.0024933815002441406
484604000.0 0.012299060821533203 0.0011348724365234375
489599500.0 0.012392997741699219 -0.00011920928955078125
494595000.0 0.012340068817138672 -0.0013947486877441406
499590500.0 0.012082099914550781 -0.0027561187744140625
504586000.0 0.011698722839355469 -0.003964900970458984
509581500.0 0.011218070983886719 -0.005087375640869141
514577000.0 0.01062917709350586 -0.006287097930908203
519572500.0 0.009887218475341797 -0.007264614105224609
524568000.0 0.009160995483398438 -0.008193016052246094
529563500.0 0.008176326751708984 -0.009116649627685547
534559000.0 0.0072422027587890625 -0.009919166564941406
539554500.0 0.006269931793212891 -0.010540962219238281
544550000.0 0.005142688751220703 -0.011049270629882812
549545500.0 0.003972053527832031 -0.011580467224121094
554541000.0 0.0028905868530273438 -0.011864662170410156
559536500.0 0.001636505126953125 -0.012126445770263672
564532000.0 0.0003819465637207031 -0.012331485748291016
569527500.0 -0.0007801055908203125 -0.012319564819335938
574523000.0 -0.002055644989013672 -0.012263298034667969
579518500.0 -0.0033416748046875 -0.0119476318359375
584514000.0 -0.0043849945068359375 -0.011578083038330078
589509500.0 -0.005657196044921875 -0.011029243469238281
594505000.0 -0.006785869598388672 -0.010525703430175781
599500500.0 -0.007750034332275391 -0.009805679321289062
604496000.0 -0.008685588836669922 -0.009023666381835938
609491500.0 -0.009631633758544922 -0.008038520812988281
614487000.0 -0.010365009307861328 -0.006980419158935547
619482500.0 -0.011054039001464844 -0.006055355072021484
624478000.0 -0.011516094207763672 -0.004904747009277344
629473500.0 -0.011920928955078125 -0.003680706024169922
634469000.0 -0.012323856353759766 -0.0024466514587402344
639464500.0 -0.01241922378540039 -0.0012326240539550781
644460000.0 -0.012516498565673828 2.47955322265625e-05
649455500.0 -0.01248025894165039 0.0011754035949707031
654451000.0 -0.012273311614990234 0.0024156570434570312
659446500.0 -0.012077808380126953 0.0036001205444335938
664442000.0 -0.011586666107177734 0.004824161529541016
669437500.0 -0.011092662811279297 0.005921363830566406
674433000.0 -0.010463714599609375 0.006918907165527344
679428500.0 -0.009701728820800781 0.008112907409667969
684424000.0 -0.008930206298828125 0.008948802947998047
689419500.0 -0.007943153381347656 0.009709358215332031
694415000.0 -0.00693511962890625 0.010431289672851562
699410500.0 -0.005925655364990234 0.011082172393798828
704406000.0 -0.004820823669433594 0.011573314666748047
709401500.0 -0.0037741661071777344 0.012094974517822266
714397000.0 -0.002570629119873047 0.012395381927490234
719392500.0 -0.0013318061828613281 0.01259613037109375
724388000.0 -9.679794311523438e-05 0.012637138366699219
729383500.0 0.0011725425720214844 0.0126800537109375
734379000.0 0.0023126602172851562 0.012478828430175781
739374500.0 0.0034842491149902344 0.012204170227050781
744370000.0 0.0047206878662109375 0.01172018051147461
749365500.0 0.005768775939941406 0.011321067810058594
754361000.0 0.006817817687988281 0.010675907135009766
759356500.0 0.007869243621826172 0.01003408432006836
764352000.0 0.008759498596191406 0.009227275848388672
769347500.0 0.009599685668945312 0.00843954086303711
774343000.0 0.01032257080078125 0.007433414459228516
779338500.0 0.01107931137084961 0.0065460205078125
784334000.0 0.011585235595703125 0.005438327789306641
789329500.0 0.012151718139648438 0.0042743682861328125
794325000.0 0.012552261352539062 0.0031371116638183594
799320500.0 0.012776374816894531 0.0019164085388183594
804316000.0 0.012845993041992188 0.0006175041198730469
809311500.0 0.012997627258300781 -0.00047016143798828125
814307000.0 0.012927055358886719 -0.0016918182373046875
819302500.0 0.012670040130615234 -0.0029349327087402344
824298000.0 0.012383460998535156 -0.004015922546386719
829293500.0 0.012038707733154297 -0.005168914794921875
834289000.0 0.0114898681640625 -0.006306648254394531
839284500.0 0.01089620590209961 -0.00734710693359375
844280000.0 0.010741710662841797 -0.008121967315673828
849275500.0 0.009995460510253906 -0.009054183959960938
854271000.0 0.00906515121459961 -0.009870052337646484
859266500.0 0.008141517639160156 -0.010753631591796875
864262000.0 0.007115840911865234 -0.011406421661376953
869257500.0 0.006034374237060547 -0.012151241302490234
874253000.0 0.005025386810302734 -0.012724876403808594
879248500.0 0.0038475990295410156 -0.01323080062866211
884244000.0 0.0026264190673828125 -0.013521194458007812
889239500.0 0.00146484375 -0.013866901397705078
894235000.0 0.000240325927734375 -0.013837814331054688
899230500.0 -0.0012035369873046875 -0.014045238494873047
904226000.0 -0.002402782440185547 -0.013881206512451172
909221500.0 -0.0037474632263183594 -0.013803482055664062
914217000.0 -0.0048999786376953125 -0.013431549072265625
919212500.0 -0.006247520446777344 -0.013073444366455078
924208000.0 -0.007466793060302734 -0.012501239776611328
929203500.0 -0.008668899536132812 -0.011912345886230469
934199000.0 -0.009806156158447266 -0.011157989501953125
939194500.0 -0.010917186737060547 -0.01025390625
944190000.0 -0.011963844299316406 -0.00927114486694336
949185500.0 -0.012901782989501953 -0.008138179779052734
954181000.0 -0.013686656951904297 -0.006964206695556641
959176500.0 -0.014427661895751953 -0.005784511566162109
964172000.0 -0.014968395233154297 -0.004311561584472656
969167500.0 -0.015322208404541016 -0.0030221939086914062
974163000.0 -0.01572418212890625 -0.0015316009521484375
979158500.0 -0.01578235626220703 -7.724761962890625e-05
984154000.0 -0.015899658203125 0.0015325546264648438
989149500.0 -0.015961647033691406 0.0030546188354492188
994145000.0 -0.015553951263427734 0.004616737365722656
999140500.0 -0.01529550552368164 0.006011962890625
1004136000.0 -0.014861583709716797 0.007462978363037109
1009131500.0 -0.014044761657714844 0.008928298950195312
1014127000.0 -0.013330459594726562 0.01031351089477539
1019122500.0 -0.012255668640136719 0.011540412902832031
1024118000.0 -0.011256694793701172 0.012796401977539062
1029113500.0 -0.010107994079589844 0.013915538787841797
1034109000.0 -0.008858680725097656 0.014963150024414062
1039104500.0 -0.007449150085449219 0.015984535217285156
1044100000.0 -0.005917549133300781 0.016516685485839844
1049095500.0 -0.004330635070800781 0.017148971557617188
1054091000.0 -0.0025234222412109375 0.01780986785888672
1059086500.0 -0.0008611679077148438 0.018134117126464844
1064082000.0 0.0007915496826171875 0.018265724182128906
1069077500.0 0.0026836395263671875 0.018320083618164062
1074073000.0 0.0044231414794921875 0.01805877685546875
1079068500.0 0.0061054229736328125 0.017808914184570312
1084064000.0 0.0077495574951171875 0.017149925231933594
1089059500.0 0.009610176086425781 0.01658153533935547
1094055000.0 0.01129150390625 0.015743255615234375
1099050500.0 0.012822151184082031 0.01451873779296875
1104046000.0 0.014185905456542969 0.013416290283203125
1109041500.0 0.015720367431640625 0.011965751647949219
1114037000.0 0.016860008239746094 0.010486602783203125
1119032500.0 0.017951011657714844 0.0088958740234375
1124028000.0 0.018825531005859375 0.007088661193847656
1129023500.0 0.01964569091796875 0.0053577423095703125
1134019000.0 0.020178794860839844 0.00344085693359375
1139014500.0 0.0205230712890625 0.001384735107421875
1144010000.0 0.020696640014648438 -0.0006494522094726562
1149005500.0 0.020847320556640625 -0.0026798248291015625
1154001000.0 0.020684242248535156 -0.004741668701171875
1158996500.0 0.0201568603515625 -0.006724357604980469
1163992000.0 0.019533157348632812 -0.008849143981933594
1168987500.0 0.018752098083496094 -0.01071929931640625
1173983000.0 0.017765045166015625 -0.0125885009765625
1178978500.0 0.01651477813720703 -0.014410972595214844
1183974000.0 0.015017509460449219 -0.01602458953857422
1188969500.0 0.013452529907226562 -0.017576217651367188
1193965000.0 0.011883735656738281 -0.018890380859375
1198960500.0 0.010030746459960938 -0.020196914672851562
1203956000.0 0.008008003234863281 -0.021146774291992188
1208951500.0 0.005963325500488281 -0.022012710571289062
1213947000.0 0.003753662109375 -0.02263164520263672
1218942500.0 0.0014972686767578125 -0.023011207580566406
1223938000.0 -0.000797271728515625 -0.023232460021972656
1228933500.0 -0.0030574798583984375 -0.02318572998046875
1233929000.0 -0.00531005859375 -0.02284717559814453
1238924500.0 -0.0075855255126953125 -0.022428512573242188
1243920000.0 -0.009903907775878906 -0.021694183349609375
1248915500.0 -0.011990547180175781 -0.020809173583984375
1253911000.0 -0.014072418212890625 -0.01969146728515625
1258906500.0 -0.01607990264892578 -0.018268585205078125
1263902000.0 -0.01788330078125 -0.016874313354492188
1268897500.0 -0.019542694091796875 -0.015005111694335938
1273893000.0 -0.02114391326904297 -0.013222694396972656
1278888500.0 -0.022411346435546875 -0.011065483093261719
1283884000.0 -0.023726463317871094 -0.008836746215820312
1288879500.0 -0.024503707885742188 -0.006691932678222656
1293875000.0 -0.025328636169433594 -0.004141807556152344
1298870500.0 -0.025740623474121094 -0.0017366409301757812
1303866000.0 -0.02602863311767578 0.0008230209350585938
1308861500.0 -0.025861740112304688 0.0034637451171875
1313857000.0 -0.025621414184570312 0.006070137023925781
1318852500.0 -0.02508544921875 0.008708000183105469
1323848000.0 -0.02419757843017578 0.011198043823242188
1328843500.0 -0.02315998077392578 0.013579368591308594
1333839000.0 -0.021841049194335938 0.01601123809814453
1338834500.0 -0.020122528076171875 0.01833820343017578
1343830000.0 -0.018265724182128906 0.02032184600830078
1348825500.0 -0.01640796661376953 0.022170066833496094
1353821000.0 -0.014117240905761719 0.023878097534179688
1358816500.0 -0.0118408203125 0.02534770965576172
1363812000.0 -0.009154319763183594 0.02655792236328125
1368807500.0 -0.006625175476074219 0.027436256408691406
1373803000.0 -0.0037927627563476562 0.028045654296875
1378798500.0 -0.0009450912475585938 0.028580665588378906
1383794000.0 0.0019063949584960938 0.02874469757080078
1388789500.0 0.004730224609375 0.028394699096679688
1393785000.0 0.007748603820800781 0.027930259704589844
1398780500.0 0.010577201843261719 0.027257919311523438
1403776000.0 0.013401985168457031 0.02614879608154297
1408771500.0 0.016021728515625 0.02479076385498047
1413767000.0 0.018459320068359375 0.023077964782714844
1418762500.0 0.020914077758789062 0.021331787109375
1423758000.0 0.022974014282226562 0.019097328186035156
1428753500.0 0.024954795837402344 0.016791343688964844
1433749000.0 0.02661609649658203 0.014295578002929688
1438744500.0 0.028084754943847656 0.011523246765136719
1443740000.0 0.029129981994628906 0.008656501770019531
1448735500.0 0.030076980590820312 0.005738258361816406
1453731000.0 0.030653953552246094 0.0026884078979492188
1458726500.0 0.03071880340576172 -0.00041294097900390625
1463722000.0 0.030814170837402344 -0.0035486221313476562
1468717500.0 0.030335426330566406 -0.006763458251953125
1473713000.0 0.029679298400878906 -0.009852409362792969
1478708500.0 0.02863788604736328 -0.012684822082519531
1483704000.0 0.027327537536621094 -0.015570640563964844
1488699500.0 0.02561187744140625 -0.018258094787597656
1493695000.0 0.023789405822753906 -0.020929336547851562
1498690500.0 0.02156543731689453 -0.023241043090820312
1503686000.0 0.01907634735107422 -0.025351524353027344
1508681500.0 0.01659679412841797 -0.02730083465576172
1513677000.0 0.01387786865234375 -0.02891063690185547
1518672500.0 0.010761260986328125 -0.030226707458496094
1523668000.0 0.007689476013183594 -0.031244277954101562
1528663500.0 0.004512786865234375 -0.03204345703125
1533659000.0 0.0013275146484375 -0.032207489013671875
1538654500.0 -0.002079010009765625 -0.03232383728027344
1543650000.0 -0.00533294677734375 -0.03201866149902344
1548645500.0 -0.008472442626953125 -0.03138542175292969
1553641000.0 -0.011709213256835938 -0.030426979064941406
1558636500.0 -0.014666557312011719 -0.02920055389404297
1563632000.0 -0.01750659942626953 -0.027530670166015625
1568627500.0 -0.02017974853515625 -0.025754928588867188
1573623000.0 -0.022741317749023438 -0.023744583129882812
1578618500.0 -0.024970054626464844 -0.02122974395751953
1583614000.0 -0.026947021484375 -0.018598556518554688
1588609500.0 -0.028716087341308594 -0.01589202880859375
1593605000.0 -0.030233383178710938 -0.012892723083496094
1598600500.0 -0.031513214111328125 -0.00991058349609375
1603596000.0 -0.03227806091308594 -0.00669097900390625
1608591500.0 -0.03286933898925781 -0.0035076141357421875
1613587000.0 -0.0330352783203125 -0.0002498626708984375
1618582500.0 -0.032978057861328125 0.0030670166015625
1623578000.0 -0.03264808654785156 0.0062713623046875
1628573500.0 -0.031688690185546875 0.009441375732421875
1633569000.0 -0.030735015869140625 0.012531280517578125
1638564500.0 -0.029308319091796875 0.015580177307128906
1643560000.0 -0.02772808074951172 0.018337249755859375
1648555500.0 -0.025801658630371094 0.02106761932373047
1653551000.0 -0.023672103881835938 0.023584365844726562
1658546500.0 -0.02127361297607422 0.025811195373535156
1663542000.0 -0.01861095428466797 0.027845382690429688
1668537500.0 -0.015867233276367188 0.0295562744140625
1673533000.0 -0.01284027099609375 0.03092670440673828
1678528500.0 -0.009799957275390625 0.032184600830078125
1683524000.0 -0.0066070556640625 0.032985687255859375
1688519500.0 -0.0032405853271484375 0.03355216979980469
1693515000.0 5.340576171875e-05 0.03382682800292969
1698510500.0 0.00351715087890625 0.03375434875488281
1703506000.0 0.006748199462890625 0.03335762023925781
1708501500.0 0.010091781616210938 0.03264427185058594
1713497000.0 0.013263702392578125 0.031452178955078125
1718492500.0 0.01632976531982422 0.030030250549316406
1723488000.0 0.019254684448242188 0.02832317352294922
1728483500.0 0.022057533264160156 0.026254653930664062
1733479000.0 0.024560928344726562 0.024041175842285156
1738474500.0 0.02690887451171875 0.02138042449951172
1743470000.0 0.028951644897460938 0.01871013641357422
1748465500.0 0.030794143676757812 0.01576519012451172
1753461000.0 0.03213691711425781 0.012660980224609375
1758456500.0 0.03316307067871094 0.009342193603515625
1763452000.0 0.03409576416015625 0.0060176849365234375
1768447500.0 0.03459358215332031 0.00263214111328125
1773443000.0 0.034687042236328125 -0.0007839202880859375
1778438500.0 0.03448486328125 -0.00429534912109375
1783434000.0 0.03399085998535156 -0.0076999664306640625
1788429500.0 0.032924652099609375 -0.011096954345703125
1793425000.0 0.031707763671875 -0.014177322387695312
1798420500.0 0.030153274536132812 -0.01739978790283203
1803416000.0 0.028299331665039062 -0.02028942108154297
1808411500.0 0.026126861572265625 -0.02303600311279297
1813407000.0 0.02372264862060547 -0.02545452117919922
1818402500.0 0.02108287811279297 -0.027692794799804688
1823398000.0 0.018194198608398438 -0.02969074249267578
1828393500.0 0.015161514282226562 -0.03135871887207031
1833389000.0 0.011949539184570312 -0.03267097473144531
1838384500.0 0.008693695068359375 -0.033634185791015625
1843380000.0 0.0053958892822265625 -0.03440284729003906
