!Created with skrf (http://scikit-rf.org).
# Hz S RI R 50.0 
!freq ReS11 ImS11
45000000.0 -0.0038690567016601562 -0.0007238388061523438
49995500.0 -0.004235744476318359 -0.0002982616424560547
54991000.0 -0.0044057369232177734 0.0002765655517578125
59986500.0 -0.004720449447631836 0.0006117820739746094
64982000.0 -0.004793882369995117 0.0010986328125
69977500.0 -0.004792690277099609 0.0018124580383300781
74973000.0 -0.004727363586425781 0.0024247169494628906
79968500.0 -0.004650592803955078 0.003133535385131836
84964000.0 -0.004392385482788086 0.0036575794219970703
89959500.0 -0.004009723663330078 0.004332780838012695
94955000.0 -0.0035343170166015625 0.004937648773193359
99950500.0 -0.002959728240966797 0.0053942203521728516
104946000.0 -0.0024776458740234375 0.005818605422973633
109941500.0 -0.0018568038940429688 0.006230831146240234
114937000.0 -0.0010242462158203125 0.0065059661865234375
119932500.0 -0.00013136863708496094 0.006774187088012695
124928000.0 0.0006041526794433594 0.006782054901123047
129923500.0 0.0014057159423828125 0.00673365592956543
134919000.0 0.0022084712982177734 0.006611347198486328
139914500.0 0.002984285354614258 0.006392240524291992
144910000.0 0.0037755966186523438 0.006103515625
149905500.0 0.004511833190917969 0.005617618560791016
154901000.0 0.00525665283203125 0.005087375640869141
159896500.0 0.005785942077636719 0.004548549652099609
164892000.0 0.0064351558685302734 0.003866910934448242
169887500.0 0.006793022155761719 0.0031566619873046875
174883000.0 0.007142782211303711 0.0022966861724853516
179878500.0 0.007467985153198242 0.0015411376953125
184874000.0 0.007578611373901367 0.0006213188171386719
189869500.0 0.007689476013183594 -0.0001780986785888672
194865000.0 0.007649421691894531 -0.0010199546813964844
199860500.0 0.007597684860229492 -0.0018918514251708984
204856000.0 0.007306098937988281 -0.0027894973754882812
209851500.0 0.0069501399993896484 -0.0035238265991210938
214847000.0 0.006573200225830078 -0.004358768463134766
219842500.0 0.0060880184173583984 -0.005049943923950195
224838000.0 0.005545139312744141 -0.005712032318115234
229833500.0 0.004834651947021484 -0.006252765655517578
234829000.0 0.004249095916748047 -0.006806135177612305
239824500.0 0.0034012794494628906 -0.007210731506347656
244820000.0 0.0026504993438720703 -0.007479667663574219
249815500.0 0.0018224716186523438 -0.007824897766113281
254811000.0 0.0012912750244140625 -0.008066177368164062
259806500.0 0.0004363059997558594 -0.008206844329833984
264802000.0 -0.0003447532653808594 -0.008222103118896484
269797500.0 -0.0012216567993164062 -0.008036613464355469
274793000.0 -0.0020856857299804688 -0.00789785385131836
279788500.0 -0.002943754196166992 -0.00771784782409668
284784000.0 -0.0036547183990478516 -0.007322072982788086
289779500.0 -0.004469633102416992 -0.007060527801513672
294775000.0 -0.005059003829956055 -0.0065021514892578125
299770500.0 -0.0059015750885009766 -0.00599360466003418
304766000.0 -0.006471157073974609 -0.005432844161987305
309761500.0 -0.0069391727447509766 -0.004777669906616211
314757000.0 -0.0073621273040771484 -0.004040241241455078
319752500.0 -0.007747650146484375 -0.0032019615173339844
324748000.0 -0.007993698120117188 -0.002410888671875
329743500.0 -0.008266925811767578 -0.0015163421630859375
334739000.0 -0.008316516876220703 -0.0006952285766601562
339734500.0 -0.008462905883789062 9.250640869140625e-05
344730000.0 -0.008379459381103516 0.0010576248168945312
349725500.0 -0.008214473724365234 0.001789093017578125
354721000.0 -0.0080413818359375 0.002566814422607422
359716500.0 -0.00772547721862793 0.0034008026123046875
364712000.0 -0.007402181625366211 0.004313945770263672
369707500.0 -0.0068683624267578125 0.004862070083618164
374703000.0 -0.006438732147216797 0.00556635856628418
379698500.0 -0.00581669807434082 0.00623321533203125
384694000.0 -0.005169391632080078 0.0067920684814453125
389689500.0 -0.004461526870727539 0.007178544998168945
394685000.0 -0.0037250518798828125 0.007711887359619141
399680500.0 -0.00295257568359375 0.008142948150634766
404676000.0 -0.0020952224731445312 0.008296012878417969
409671500.0 -0.0014214515686035156 0.008445262908935547
414667000.0 -0.0004291534423828125 0.008559703826904297
419662500.0 0.00032520294189453125 0.008633613586425781
424658000.0 0.0012269020080566406 0.008484363555908203
429653500.0 0.002124309539794922 0.008375167846679688
434649000.0 0.002917766571044922 0.008240699768066406
439644500.0 0.003528594970703125 0.007814884185791016
444640000.0 0.004331350326538086 0.007546901702880859
449635500.0 0.005094289779663086 0.007092952728271484
454631000.0 0.005727291107177734 0.0066242218017578125
459626500.0 0.0064618587493896484 0.00587010383605957
464622000.0 0.007020473480224609 0.0052890777587890625
469617500.0 0.007521152496337891 0.004678249359130859
474613000.0 0.007954120635986328 0.003871440887451172
479608500.0 0.008349418640136719 0.003177165985107422
484604000.0 0.008578777313232422 0.0023522377014160156
489599500.0 0.008819580078125 0.0014414787292480469
494595000.0 0.009037971496582031 0.00046825408935546875
499590500.0 0.008893489837646484 -0.00028228759765625
504586000.0 0.008857250213623047 -0.0011167526245117188
509581500.0 0.008871078491210938 -0.0020856857299804688
514577000.0 0.008649349212646484 -0.002880573272705078
519572500.0 0.00828409194946289 -0.0037374496459960938
524568000.0 0.008057594299316406 -0.004490852355957031
529563500.0 0.007520914077758789 -0.005182504653930664
534559000.0 0.0071070194244384766 -0.005957603454589844
539554500.0 0.0064966678619384766 -0.006556510925292969
544550000.0 0.0059528350830078125 -0.0072460174560546875
549545500.0 0.00519108772277832 -0.007728099822998047
554541000.0 0.004563331604003906 -0.008300304412841797
559536500.0 0.0037736892700195312 -0.008766651153564453
564532000.0 0.0029630661010742188 -0.009174823760986328
569527500.0 0.0021195411682128906 -0.00951242446899414
574523000.0 0.0011453628540039062 -0.00971078872680664
579518500.0 0.00030040740966796875 -0.009808540344238281
584514000.0 -0.0007181167602539062 -0.00986480712890625
589509500.0 -0.0016922950744628906 -0.009842872619628906
594505000.0 -0.0026264190673828125 -0.009706497192382812
599500500.0 -0.00359344482421875 -0.009557723999023438
604496000.0 -0.004456520080566406 -0.009172916412353516
609491500.0 -0.005430698394775391 -0.008815765380859375
614487000.0 -0.006272792816162109 -0.008303165435791016
619482500.0 -0.007168292999267578 -0.0077936649322509766
624478000.0 -0.008028507232666016 -0.007075309753417969
629473500.0 -0.008677005767822266 -0.006378650665283203
634469000.0 -0.009343147277832031 -0.005452156066894531
639464500.0 -0.00981760025024414 -0.004547595977783203
644460000.0 -0.010334968566894531 -0.0036635398864746094
649455500.0 -0.010811805725097656 -0.0027055740356445312
654451000.0 -0.011055469512939453 -0.0016713142395019531
659446500.0 -0.011274337768554688 -0.0005474090576171875
664442000.0 -0.011385917663574219 0.00044345855712890625
669437500.0 -0.011336803436279297 0.0015978813171386719
674433000.0 -0.01122426986694336 0.002719879150390625
679428500.0 -0.011075019836425781 0.003727436065673828
684424000.0 -0.010694503784179688 0.004897594451904297
689419500.0 -0.010274887084960938 0.005932331085205078
694415000.0 -0.009708881378173828 0.007007598876953125
699410500.0 -0.009074211120605469 0.008014202117919922
704406000.0 -0.008282184600830078 0.008858203887939453
709401500.0 -0.007483005523681641 0.009723663330078125
714397000.0 -0.0065784454345703125 0.010524749755859375
719392500.0 -0.0055484771728515625 0.01118326187133789
724388000.0 -0.004515647888183594 0.011800765991210938
729383500.0 -0.003398895263671875 0.01226663589477539
734379000.0 -0.0021834373474121094 0.012522220611572266
739374500.0 -0.0009031295776367188 0.012908935546875
744370000.0 0.00040435791015625 0.013159751892089844
749365500.0 0.0016031265258789062 0.013030529022216797
754361000.0 0.002830028533935547 0.01297903060913086
759356500.0 0.004131793975830078 0.012739181518554688
764352000.0 0.005452156066894531 0.012414932250976562
769347500.0 0.006687164306640625 0.011915206909179688
774343000.0 0.007868289947509766 0.011218547821044922
779338500.0 0.009030342102050781 0.010558605194091797
784334000.0 0.010091781616210938 0.009653568267822266
789329500.0 0.011111259460449219 0.008707523345947266
794325000.0 0.01203012466430664 0.007641792297363281
799320500.0 0.012875080108642578 0.006489753723144531
804316000.0 0.013470172882080078 0.005259513854980469
809311500.0 0.0140380859375 0.00396728515625
814307000.0 0.014527320861816406 0.0025005340576171875
819302500.0 0.014794349670410156 0.0011363029479980469
824298000.0 0.01496124267578125 -0.0002741813659667969
829293500.0 0.014918327331542969 -0.0017313957214355469
834289000.0 0.01489877700805664 -0.0032215118408203125
839284500.0 0.014576435089111328 -0.004697322845458984
844280000.0 0.014698505401611328 -0.0054378509521484375
849275500.0 0.014231204986572266 -0.006955146789550781
854271000.0 0.013490676879882812 -0.008453845977783203
859266500.0 0.012674808502197266 -0.009813785552978516
864262000.0 0.011871814727783203 -0.011067390441894531
869257500.0 0.01078653335571289 -0.012279987335205078
874253000.0 0.009684562683105469 -0.013319969177246094
879248500.0 0.00837564468383789 -0.01426076889038086
884244000.0 0.007096767425537109 -0.015224933624267578
889239500.0 0.005572319030761719 -0.015952110290527344
894235000.0 0.004034996032714844 -0.01650238037109375
899230500.0 0.0024814605712890625 -0.01697063446044922
904226000.0 0.0009145736694335938 -0.017518043518066406
909221500.0 -0.0009307861328125 -0.01759815216064453
914217000.0 -0.0026903152465820312 -0.017714500427246094
919212500.0 -0.0044097900390625 -0.01742839813232422
924208000.0 -0.006217002868652344 -0.017065048217773438
929203500.0 -0.007868766784667969 -0.016719818115234375
934199000.0 -0.009454727172851562 -0.015905380249023438
939194500.0 -0.011274337768554688 -0.015164852142333984
944190000.0 -0.012773990631103516 -0.013920783996582031
949185500.0 -0.014275550842285156 -0.012842655181884766
954181000.0 -0.01555013656616211 -0.01140737533569336
959176500.0 -0.016727447509765625 -0.010000228881835938
964172000.0 -0.017940521240234375 -0.008296966552734375
969167500.0 -0.018741607666015625 -0.006464958190917969
974163000.0 -0.019464492797851562 -0.004694938659667969
979158500.0 -0.019927978515625 -0.0028009414672851562
984154000.0 -0.02031993865966797 -0.0006208419799804688
989149500.0 -0.020513534545898438 0.0013151168823242188
994145000.0 -0.020383834838867188 0.0033617019653320312
999140500.0 -0.020073890686035156 0.005469322204589844
1004136000.0 -0.01967906951904297 0.007378578186035156
1009131500.0 -0.019054412841796875 0.009456634521484375
1014127000.0 -0.018136024475097656 0.011350631713867188
1019122500.0 -0.01703929901123047 0.013361930847167969
1024118000.0 -0.015694618225097656 0.014995574951171875
1029113500.0 -0.014229774475097656 0.016630172729492188
1034109000.0 -0.012605667114257812 0.018065452575683594
1039104500.0 -0.010819435119628906 0.01942920684814453
1044100000.0 -0.008826255798339844 0.020585060119628906
1049095500.0 -0.0068073272705078125 0.02151775360107422
1054091000.0 -0.004612922668457031 0.022200584411621094
1059086500.0 -0.0024204254150390625 0.02280139923095703
1064082000.0 -0.00011348724365234375 0.023179054260253906
1069077500.0 0.0022029876708984375 0.023237228393554688
1074073000.0 0.004700660705566406 0.023057937622070312
1079068500.0 0.0069103240966796875 0.0225677490234375
1084064000.0 0.009274482727050781 0.021933555603027344
1089059500.0 0.0114288330078125 0.020914077758789062
1094055000.0 0.013641357421875 0.0199432373046875
1099050500.0 0.015625 0.018495559692382812
1104046000.0 0.017549514770507812 0.01709270477294922
1109041500.0 0.01930999755859375 0.015232086181640625
1114037000.0 0.020834922790527344 0.013256072998046875
1119032500.0 0.02225971221923828 0.011096954345703125
1124028000.0 0.023476600646972656 0.008908271789550781
1129023500.0 0.024417877197265625 0.0066204071044921875
1134019000.0 0.025071144104003906 0.004094123840332031
1139014500.0 0.025449752807617188 0.0016756057739257812
1144010000.0 0.02564716339111328 -0.0010499954223632812
1149005500.0 0.025690078735351562 -0.0036592483520507812
1154001000.0 0.025281906127929688 -0.006267547607421875
1158996500.0 0.024688720703125 -0.008884429931640625
1163992000.0 0.023718833923339844 -0.011330604553222656
1168987500.0 0.022510528564453125 -0.013770103454589844
1173983000.0 0.021178245544433594 -0.01606273651123047
1178978500.0 0.01950359344482422 -0.018149375915527344
1183974000.0 0.0176849365234375 -0.02026081085205078
1188969500.0 0.015618324279785156 -0.021993637084960938
1193965000.0 0.013360977172851562 -0.023705482482910156
1198960500.0 0.011104583740234375 -0.024913787841796875
1203956000.0 0.008441925048828125 -0.02613544464111328
1208951500.0 0.00582122802734375 -0.026838302612304688
1213947000.0 0.0031919479370117188 -0.02739429473876953
1218942500.0 0.000377655029296875 -0.027647972106933594
1223938000.0 -0.0024576187133789062 -0.027727127075195312
1228933500.0 -0.005263328552246094 -0.0275115966796875
1233929000.0 -0.00794219970703125 -0.02707672119140625
1238924500.0 -0.01070404052734375 -0.026198387145996094
1243920000.0 -0.013288497924804688 -0.025056838989257812
1248915500.0 -0.015901565551757812 -0.02377796173095703
1253911000.0 -0.018198013305664062 -0.02210712432861328
1258906500.0 -0.0205230712890625 -0.020366668701171875
1263902000.0 -0.022498130798339844 -0.018177032470703125
1268897500.0 -0.024252891540527344 -0.016060829162597656
1273893000.0 -0.025918960571289062 -0.01351165771484375
1278888500.0 -0.027313232421875 -0.010908126831054688
1283884000.0 -0.028444290161132812 -0.008246421813964844
1288879500.0 -0.029132843017578125 -0.005301475524902344
1293875000.0 -0.029692649841308594 -0.002307891845703125
1298870500.0 -0.030063629150390625 0.0006456375122070312
1303866000.0 -0.03000164031982422 0.0035810470581054688
1308861500.0 -0.02971172332763672 0.006796836853027344
1313857000.0 -0.02890777587890625 0.009714126586914062
1318852500.0 -0.027914047241210938 0.012659072875976562
1323848000.0 -0.02664470672607422 0.015425682067871094
1328843500.0 -0.02505016326904297 0.01819610595703125
1333839000.0 -0.02323150634765625 0.020631790161132812
1338834500.0 -0.02100372314453125 0.023016929626464844
1343830000.0 -0.018691062927246094 0.025076866149902344
1348825500.0 -0.016142845153808594 0.02695465087890625
1353821000.0 -0.013438224792480469 0.028659820556640625
1358816500.0 -0.01042938232421875 0.0299224853515625
1363812000.0 -0.007411956787109375 0.0309906005859375
1368807500.0 -0.0042362213134765625 0.031673431396484375
1373803000.0 -0.0009746551513671875 0.03211784362792969
1378798500.0 0.0023174285888671875 0.03204154968261719
1383794000.0 0.005611419677734375 0.03188514709472656
1388789500.0 0.008852005004882812 0.031243324279785156
1393785000.0 0.011937141418457031 0.030284881591796875
1398780500.0 0.014963150024414062 0.02904224395751953
1403776000.0 0.018044471740722656 0.027435302734375
1408771500.0 0.020796775817871094 0.025638580322265625
1413767000.0 0.023238182067871094 0.023401260375976562
1418762500.0 0.025760650634765625 0.020891189575195312
1423758000.0 0.02772235870361328 0.018316268920898438
1428753500.0 0.02942657470703125 0.015415191650390625
1433749000.0 0.030936241149902344 0.012400627136230469
1438744500.0 0.032100677490234375 0.0092010498046875
1443740000.0 0.03299140930175781 0.005855560302734375
1448735500.0 0.0333099365234375 0.002490997314453125
1453731000.0 0.0336456298828125 -0.00106048583984375
1458726500.0 0.03339576721191406 -0.004337310791015625
1463722000.0 0.03294944763183594 -0.007762908935546875
1468717500.0 0.03204345703125 -0.011140823364257812
1473713000.0 0.03079986572265625 -0.01441192626953125
1478708500.0 0.029218673706054688 -0.017374038696289062
1483704000.0 0.027376174926757812 -0.020307540893554688
1488699500.0 0.025096893310546875 -0.023056983947753906
1493695000.0 0.02276897430419922 -0.025514602661132812
1498690500.0 0.02006053924560547 -0.02775287628173828
1503686000.0 0.017126083374023438 -0.029639244079589844
1508681500.0 0.014049530029296875 -0.03141593933105469
1513677000.0 0.01087188720703125 -0.032558441162109375
1518672500.0 0.0075168609619140625 -0.033512115478515625
1523668000.0 0.00402069091796875 -0.03420066833496094
1528663500.0 0.000537872314453125 -0.03441619873046875
1533659000.0 -0.002899169921875 -0.03438568115234375
1538654500.0 -0.0063762664794921875 -0.03385353088378906
1543650000.0 -0.009809494018554688 -0.03302955627441406
1548645500.0 -0.013050079345703125 -0.03183746337890625
1553641000.0 -0.016187667846679688 -0.030495643615722656
1558636500.0 -0.01921367645263672 -0.02872943878173828
1563632000.0 -0.02199554443359375 -0.026615142822265625
1568627500.0 -0.02452850341796875 -0.024333953857421875
1573623000.0 -0.026958465576171875 -0.021642684936523438
1578618500.0 -0.028906822204589844 -0.018866539001464844
1583614000.0 -0.03066253662109375 -0.015786170959472656
1588609500.0 -0.03209495544433594 -0.012760162353515625
1593605000.0 -0.03318023681640625 -0.00937652587890625
1598600500.0 -0.03385734558105469 -0.006103515625
1603596000.0 -0.034412384033203125 -0.0026798248291015625
1608591500.0 -0.034397125244140625 0.000865936279296875
1613587000.0 -0.03414154052734375 0.004146575927734375
1618582500.0 -0.03349876403808594 0.0075855255126953125
1623578000.0 -0.03254890441894531 0.01079559326171875
1628573500.0 -0.03128623962402344 0.013978958129882812
1633569000.0 -0.029824256896972656 0.016875267028808594
1638564500.0 -0.027894973754882812 0.019814491271972656
1643560000.0 -0.02580738067626953 0.02244853973388672
1648555500.0 -0.023494720458984375 0.024929046630859375
1653551000.0 -0.021027565002441406 0.027082443237304688
1658546500.0 -0.01818370819091797 0.029114723205566406
1663542000.0 -0.015329360961914062 0.03069019317626953
1668537500.0 -0.012090682983398438 0.03199005126953125
1673533000.0 -0.008989334106445312 0.03300285339355469
1678528500.0 -0.00563812255859375 0.03384971618652344
1683524000.0 -0.002262115478515625 0.0342559814453125
1688519500.0 0.0010929107666015625 0.034320831298828125
1693515000.0 0.0044612884521484375 0.03410148620605469
1698510500.0 0.007816314697265625 0.03344535827636719
1703506000.0 0.011213302612304688 0.03252410888671875
1708501500.0 0.014287948608398438 0.03129386901855469
1713497000.0 0.01740264892578125 0.029677391052246094
1718492500.0 0.020194053649902344 0.027872085571289062
1723488000.0 0.0229949951171875 0.025691986083984375
1728483500.0 0.025382041931152344 0.023345947265625
1733479000.0 0.027650833129882812 0.020752906799316406
1738474500.0 0.029479026794433594 0.017789840698242188
1743470000.0 0.031057357788085938 0.014871597290039062
1748465500.0 0.03241539001464844 0.011646270751953125
1753461000.0 0.03333854675292969 0.008373260498046875
1758456500.0 0.034076690673828125 0.0049228668212890625
1763452000.0 0.03440093994140625 0.0016536712646484375
1768447500.0 0.034328460693359375 -0.0018558502197265625
1773443000.0 0.03395271301269531 -0.005237579345703125
1778438500.0 0.03322601318359375 -0.008630752563476562
1783434000.0 0.032176971435546875 -0.011844635009765625
1788429500.0 0.030857086181640625 -0.014952659606933594
1793425000.0 0.029219627380371094 -0.017876625061035156
1798420500.0 0.02717876434326172 -0.02080059051513672
1803416000.0 0.025018692016601562 -0.02323436737060547
1808411500.0 0.022554397583007812 -0.025549888610839844
1813407000.0 0.019763946533203125 -0.027746200561523438
1818402500.0 0.01694965362548828 -0.02948760986328125
1823398000.0 0.013857841491699219 -0.03094482421875
1828393500.0 0.010906219482421875 -0.032070159912109375
1833389000.0 0.0075588226318359375 -0.03293037414550781
1838384500.0 0.004261016845703125 -0.033519744873046875
1843380000.0 0.0009174346923828125 -0.03374481201171875
