!Created with skrf (http://scikit-rf.org).
# Hz S RI R 50.0 
!freq ReS11 ImS11
45000000.0 -0.0814208984375 -0.09360122680664062
49995500.0 -0.1019744873046875 -0.08957290649414062
54991000.0 -0.122711181640625 -0.08174514770507812
59986500.0 -0.1413116455078125 -0.0796661376953125
64982000.0 -0.1601715087890625 -0.0706634521484375
69977500.0 -0.1788177490234375 -0.05621337890625
74973000.0 -0.1963958740234375 -0.03876495361328125
79968500.0 -0.2119293212890625 -0.01786041259765625
84964000.0 -0.22557830810546875 0.00592803955078125
89959500.0 -0.23671722412109375 0.03285980224609375
94955000.0 -0.243896484375 0.0625
99950500.0 -0.247100830078125 0.094573974609375
104946000.0 -0.24614715576171875 0.1281280517578125
109941500.0 -0.240325927734375 0.16281890869140625
114937000.0 -0.229095458984375 0.19821929931640625
119932500.0 -0.21288299560546875 0.233306884765625
124928000.0 -0.191619873046875 0.267120361328125
129923500.0 -0.1645660400390625 0.2986297607421875
134919000.0 -0.1328582763671875 0.3276214599609375
139914500.0 -0.0960693359375 0.3530731201171875
144910000.0 -0.0552215576171875 0.37432861328125
149905500.0 -0.010406494140625 0.390533447265625
154901000.0 0.03704833984375 0.40093994140625
159896500.0 0.08636474609375 0.4051055908203125
164892000.0 0.1370849609375 0.403411865234375
169887500.0 0.1884613037109375 0.394989013671875
174883000.0 0.23919677734375 0.3799591064453125
179878500.0 0.288848876953125 0.358551025390625
184874000.0 0.3365020751953125 0.33056640625
189869500.0 0.381439208984375 0.2962493896484375
194865000.0 0.423004150390625 0.2566375732421875
199860500.0 0.460205078125 0.2114105224609375
204856000.0 0.492462158203125 0.1608734130859375
209851500.0 0.5189208984375 0.105865478515625
214847000.0 0.539703369140625 0.0469970703125
219842500.0 0.55401611328125 -0.015625
224838000.0 0.560577392578125 -0.0806884765625
229833500.0 0.559783935546875 -0.147735595703125
234829000.0 0.550933837890625 -0.21551513671875
239824500.0 0.533355712890625 -0.283416748046875
244820000.0 0.507537841796875 -0.350250244140625
249815500.0 0.472686767578125 -0.414703369140625
254811000.0 0.4537811279296875 -0.4626617431640625
259806500.0 0.405975341796875 -0.521575927734375
264802000.0 0.34991455078125 -0.575592041015625
269797500.0 0.28656005859375 -0.623016357421875
274793000.0 0.21685791015625 -0.663116455078125
279788500.0 0.14166259765625 -0.694427490234375
284784000.0 0.062042236328125 -0.717071533203125
289779500.0 -0.021240234375 -0.730499267578125
294775000.0 -0.105712890625 -0.73321533203125
299770500.0 -0.191131591796875 -0.726165771484375
304766000.0 -0.27532958984375 -0.708892822265625
309761500.0 -0.3580322265625 -0.681732177734375
314757000.0 -0.437774658203125 -0.644500732421875
319752500.0 -0.5128173828125 -0.598175048828125
324748000.0 -0.58343505859375 -0.543609619140625
329743500.0 -0.648162841796875 -0.4808349609375
334739000.0 -0.70635986328125 -0.410491943359375
339734500.0 -0.75726318359375 -0.33349609375
344730000.0 -0.7998046875 -0.2503662109375
349725500.0 -0.833831787109375 -0.161865234375
354721000.0 -0.85809326171875 -0.06890869140625
359716500.0 -0.872314453125 0.027923583984375
364712000.0 -0.87579345703125 0.127655029296875
369707500.0 -0.867828369140625 0.229278564453125
374703000.0 -0.848175048828125 0.331329345703125
379698500.0 -0.815460205078125 0.4327392578125
384694000.0 -0.77032470703125 0.531341552734375
389689500.0 -0.713104248046875 0.62530517578125
394685000.0 -0.642578125 0.7135009765625
399680500.0 -0.561248779296875 0.79376220703125
404676000.0 -0.46905517578125 0.86370849609375
409671500.0 -0.367584228515625 0.92425537109375
414667000.0 -0.2587890625 0.9686279296875
419662500.0 -0.1444091796875 1.000732421875
424658000.0 -0.025390625 1.0181884765625
429653500.0 0.09625244140625 1.02020263671875
434649000.0 0.216552734375 1.005859375
439644500.0 0.33306884765625 0.977081298828125
444640000.0 0.443756103515625 0.936248779296875
449635500.0 0.548370361328125 0.883544921875
454631000.0 0.64739990234375 0.820709228515625
459626500.0 0.739654541015625 0.746124267578125
464622000.0 0.82208251953125 0.661865234375
469617500.0 0.89495849609375 0.56939697265625
474613000.0 0.957489013671875 0.469940185546875
479608500.0 1.00982666015625 0.36480712890625
484604000.0 1.05133056640625 0.25390625
489599500.0 1.08160400390625 0.13897705078125
494595000.0 1.10040283203125 0.02020263671875
499590500.0 1.107421875 -0.101318359375
504586000.0 1.1019287109375 -0.22491455078125
509581500.0 1.08251953125 -0.34942626953125
514577000.0 1.04998779296875 -0.473876953125
519572500.0 1.0020751953125 -0.59698486328125
524568000.0 0.939056396484375 -0.716705322265625
529563500.0 0.860504150390625 -0.830322265625
534559000.0 0.766204833984375 -0.935638427734375
539554500.0 0.65728759765625 -1.0301513671875
544550000.0 0.53631591796875 -1.11053466796875
549545500.0 0.404296875 -1.1754150390625
554541000.0 0.26312255859375 -1.223388671875
559536500.0 0.11846923828125 -1.25360107421875
564532000.0 -0.0303955078125 -1.265380859375
569527500.0 -0.17974853515625 -1.25836181640625
574523000.0 -0.32720947265625 -1.23272705078125
579518500.0 -0.47015380859375 -1.1893310546875
584514000.0 -0.60614013671875 -1.12884521484375
589509500.0 -0.7325439453125 -1.052490234375
594505000.0 -0.848388671875 -0.96270751953125
599500500.0 -0.95233154296875 -0.86114501953125
604496000.0 -1.043212890625 -0.7491455078125
609491500.0 -1.12091064453125 -0.62957763671875
614487000.0 -1.18475341796875 -0.50335693359375
619482500.0 -1.23541259765625 -0.37225341796875
624478000.0 -1.27197265625 -0.2376708984375
629473500.0 -1.29522705078125 -0.10040283203125
634469000.0 -1.30511474609375 0.03912353515625
639464500.0 -1.3016357421875 0.179443359375
644460000.0 -1.284423828125 0.31988525390625
649455500.0 -1.253662109375 0.4599609375
654451000.0 -1.2076416015625 0.5985107421875
659446500.0 -1.14813232421875 0.73468017578125
664442000.0 -1.07232666015625 0.8668212890625
669437500.0 -0.98101806640625 0.99365234375
674433000.0 -0.87322998046875 1.112548828125
679428500.0 -0.74920654296875 1.220947265625
684424000.0 -0.6097412109375 1.315673828125
689419500.0 -0.45599365234375 1.39501953125
694415000.0 -0.2889404296875 1.45465087890625
699410500.0 -0.11297607421875 1.49298095703125
704406000.0 0.06951904296875 1.50738525390625
709401500.0 0.25439453125 1.4971923828125
714397000.0 0.437255859375 1.4610595703125
719392500.0 0.61334228515625 1.40081787109375
724388000.0 0.7799072265625 1.317138671875
729383500.0 0.932373046875 1.2130126953125
734379000.0 1.0675048828125 1.08984375
739374500.0 1.18499755859375 0.95263671875
744370000.0 1.282958984375 0.8055419921875
749365500.0 1.35943603515625 0.648193359375
754361000.0 1.4180908203125 0.48870849609375
759356500.0 1.45697021484375 0.3253173828125
764352000.0 1.4781494140625 0.162109375
769347500.0 1.48162841796875 0.00018310546875
774343000.0 1.46942138671875 -0.15924072265625
779338500.0 1.44256591796875 -0.31500244140625
784334000.0 1.39892578125 -0.4669189453125
789329500.0 1.34442138671875 -0.61322021484375
794325000.0 1.27569580078125 -0.7537841796875
799320500.0 1.1929931640625 -0.8880615234375
804316000.0 1.097900390625 -1.01507568359375
809311500.0 0.9891357421875 -1.13360595703125
814307000.0 0.867919921875 -1.242431640625
819302500.0 0.73370361328125 -1.34014892578125
824298000.0 0.58660888671875 -1.4246826171875
829293500.0 0.429931640625 -1.49481201171875
834289000.0 0.2606201171875 -1.54681396484375
839284500.0 0.08514404296875 -1.5789794921875
844280000.0 -0.03143310546875 -1.61663818359375
849275500.0 -0.21905517578125 -1.61480712890625
854271000.0 -0.40869140625 -1.58819580078125
859266500.0 -0.5947265625 -1.5372314453125
864262000.0 -0.77392578125 -1.46234130859375
869257500.0 -0.94207763671875 -1.3643798828125
874253000.0 -1.0966796875 -1.24609375
879248500.0 -1.23394775390625 -1.109375
884244000.0 -1.35211181640625 -0.95855712890625
889239500.0 -1.450927734375 -0.795654296875
894235000.0 -1.52825927734375 -0.6241455078125
899230500.0 -1.5853271484375 -0.4473876953125
904226000.0 -1.62188720703125 -0.26641845703125
909221500.0 -1.63702392578125 -0.08416748046875
914217000.0 -1.6326904296875 0.09783935546875
919212500.0 -1.6080322265625 0.2755126953125
924208000.0 -1.5655517578125 0.447509765625
929203500.0 -1.505859375 0.61236572265625
934199000.0 -1.4315185546875 0.76885986328125
939194500.0 -1.34326171875 0.91705322265625
944190000.0 -1.2418212890625 1.0556640625
949185500.0 -1.12725830078125 1.1849365234375
954181000.0 -0.999755859375 1.30419921875
959176500.0 -0.86041259765625 1.41131591796875
964172000.0 -0.70843505859375 1.505615234375
969167500.0 -0.54473876953125 1.58502197265625
974163000.0 -0.37066650390625 1.64849853515625
979158500.0 -0.18603515625 1.6934814453125
984154000.0 0.00531005859375 1.71820068359375
989149500.0 0.2032470703125 1.7198486328125
994145000.0 0.4027099609375 1.69732666015625
999140500.0 0.6014404296875 1.6495361328125
1004136000.0 0.79498291015625 1.5765380859375
1009131500.0 0.97998046875 1.47784423828125
1014127000.0 1.1522216796875 1.355712890625
1019122500.0 1.306396484375 1.21142578125
1024118000.0 1.44061279296875 1.0479736328125
1029113500.0 1.5528564453125 0.8695068359375
1034109000.0 1.63983154296875 0.67974853515625
1039104500.0 1.70245361328125 0.48223876953125
1044100000.0 1.73992919921875 0.28118896484375
1049095500.0 1.7523193359375 0.08026123046875
1054091000.0 1.7418212890625 -0.1180419921875
1059086500.0 1.70965576171875 -0.31103515625
1064082000.0 1.65679931640625 -0.4957275390625
1069077500.0 1.5863037109375 -0.671875
1074073000.0 1.4991455078125 -0.837158203125
1079068500.0 1.3963623046875 -0.991943359375
1084064000.0 1.28033447265625 -1.134521484375
1089059500.0 1.15081787109375 -1.2642822265625
1094055000.0 1.00921630859375 -1.3814697265625
1099050500.0 0.856689453125 -1.4847412109375
1104046000.0 0.694091796875 -1.572265625
1109041500.0 0.521240234375 -1.6441650390625
1114037000.0 0.34112548828125 -1.6978759765625
1119032500.0 0.15283203125 -1.73358154296875
1124028000.0 -0.03985595703125 -1.7486572265625
1129023500.0 -0.23712158203125 -1.7423095703125
1134019000.0 -0.43438720703125 -1.713134765625
1139014500.0 -0.63031005859375 -1.6610107421875
1144010000.0 -0.8206787109375 -1.5843505859375
1149005500.0 -1.00262451171875 -1.48443603515625
1154001000.0 -1.17236328125 -1.361572265625
1158996500.0 -1.326171875 -1.21673583984375
1163992000.0 -1.461181640625 -1.05328369140625
1168987500.0 -1.57476806640625 -0.87347412109375
1173983000.0 -1.6646728515625 -0.6807861328125
1178978500.0 -1.72833251953125 -0.47900390625
1183974000.0 -1.76617431640625 -0.27252197265625
1188969500.0 -1.77801513671875 -0.0643310546875
1193965000.0 -1.7642822265625 0.1405029296875
1198960500.0 -1.7261962890625 0.339599609375
1203956000.0 -1.666259765625 0.53033447265625
1208951500.0 -1.58575439453125 0.70989990234375
1213947000.0 -1.486572265625 0.87640380859375
1218942500.0 -1.371337890625 1.02947998046875
1223938000.0 -1.24267578125 1.16650390625
1228933500.0 -1.1019287109375 1.2874755859375
1233929000.0 -0.951416015625 1.3922119140625
1238924500.0 -0.7928466796875 1.4798583984375
1243920000.0 -0.627685546875 1.55072021484375
1248915500.0 -0.457275390625 1.60357666015625
1253911000.0 -0.2838134765625 1.63946533203125
1258906500.0 -0.1072998046875 1.6588134765625
1263902000.0 0.0694580078125 1.65960693359375
1268897500.0 0.24761962890625 1.64459228515625
1273893000.0 0.421142578125 1.6094970703125
1278888500.0 0.59149169921875 1.55682373046875
1283884000.0 0.75701904296875 1.48626708984375
1288879500.0 0.9150390625 1.39892578125
1293875000.0 1.0635986328125 1.29351806640625
1298870500.0 1.20123291015625 1.17242431640625
1303866000.0 1.32574462890625 1.03564453125
1308861500.0 1.4349365234375 0.885498046875
1313857000.0 1.52728271484375 0.72271728515625
1318852500.0 1.60113525390625 0.54937744140625
1323848000.0 1.65533447265625 0.36865234375
1328843500.0 1.689208984375 0.18212890625
1333839000.0 1.70050048828125 -0.0076904296875
1338834500.0 1.69110107421875 -0.1993408203125
1343830000.0 1.6607666015625 -0.388427734375
1348825500.0 1.6080322265625 -0.57305908203125
1353821000.0 1.534423828125 -0.7509765625
1358816500.0 1.4404296875 -0.9205322265625
1363812000.0 1.32781982421875 -1.07843017578125
1368807500.0 1.197509765625 -1.22161865234375
1373803000.0 1.05145263671875 -1.349365234375
1378798500.0 0.89068603515625 -1.4591064453125
1383794000.0 0.718017578125 -1.5491943359375
1388789500.0 0.53643798828125 -1.61822509765625
1393785000.0 0.34918212890625 -1.6649169921875
1398780500.0 0.1573486328125 -1.689697265625
1403776000.0 -0.03448486328125 -1.69158935546875
1408771500.0 -0.22369384765625 -1.67138671875
1413767000.0 -0.4088134765625 -1.62933349609375
1418762500.0 -0.5858154296875 -1.5667724609375
1423758000.0 -0.7523193359375 -1.48541259765625
1428753500.0 -0.90716552734375 -1.38720703125
1433749000.0 -1.04925537109375 -1.2735595703125
1438744500.0 -1.17657470703125 -1.14678955078125
1443740000.0 -1.28863525390625 -1.008544921875
1448735500.0 -1.384765625 -0.86102294921875
1453731000.0 -1.4652099609375 -0.7059326171875
1458726500.0 -1.52825927734375 -0.5440673828125
1463722000.0 -1.57568359375 -0.377197265625
1468717500.0 -1.60589599609375 -0.20733642578125
1473713000.0 -1.61871337890625 -0.034912109375
1478708500.0 -1.614990234375 0.137939453125
1483704000.0 -1.59375 0.3104248046875
1488699500.0 -1.55535888671875 0.48150634765625
1493695000.0 -1.499267578125 0.64923095703125
1498690500.0 -1.4244384765625 0.8118896484375
1503686000.0 -1.332275390625 0.96759033203125
1508681500.0 -1.2218017578125 1.11419677734375
1513677000.0 -1.09381103515625 1.2496337890625
1518672500.0 -0.94873046875 1.37066650390625
1523668000.0 -0.7886962890625 1.47589111328125
1528663500.0 -0.61480712890625 1.5606689453125
1533659000.0 -0.4302978515625 1.62445068359375
1538654500.0 -0.238037109375 1.66412353515625
1543650000.0 -0.04144287109375 1.6795654296875
1548645500.0 0.1553955078125 1.66925048828125
1553641000.0 0.3485107421875 1.6343994140625
1558636500.0 0.5333251953125 1.57501220703125
1563632000.0 0.70770263671875 1.49395751953125
1568627500.0 0.8687744140625 1.39349365234375
1573623000.0 1.0135498046875 1.27569580078125
1578618500.0 1.1409912109375 1.14373779296875
1583614000.0 1.25048828125 1.00128173828125
1588609500.0 1.340576171875 0.8504638671875
1593605000.0 1.41314697265625 0.6934814453125
1598600500.0 1.46734619140625 0.5333251953125
1603596000.0 1.504638671875 0.37127685546875
1608591500.0 1.525390625 0.20928955078125
1613587000.0 1.5296630859375 0.04815673828125
1618582500.0 1.51947021484375 -0.111083984375
1623578000.0 1.49456787109375 -0.26739501953125
1628573500.0 1.4549560546875 -0.41986083984375
1633569000.0 1.40191650390625 -0.56793212890625
1638564500.0 1.33465576171875 -0.710205078125
1643560000.0 1.25433349609375 -0.8465576171875
1648555500.0 1.1602783203125 -0.97509765625
1653551000.0 1.052490234375 -1.09503173828125
1658546500.0 0.931640625 -1.20501708984375
1663542000.0 0.79840087890625 -1.3033447265625
1668537500.0 0.653564453125 -1.38653564453125
1673533000.0 0.4986572265625 -1.45465087890625
1678528500.0 0.3338623046875 -1.50421142578125
1683524000.0 0.1634521484375 -1.53509521484375
1688519500.0 -0.0111083984375 -1.5447998046875
1693515000.0 -0.18634033203125 -1.5328369140625
1698510500.0 -0.35870361328125 -1.49859619140625
1703506000.0 -0.52593994140625 -1.44384765625
1708501500.0 -0.682373046875 -1.36981201171875
1713497000.0 -0.8270263671875 -1.278076171875
1718492500.0 -0.95831298828125 -1.17083740234375
1723488000.0 -1.07403564453125 -1.05059814453125
1728483500.0 -1.17388916015625 -0.92071533203125
1733479000.0 -1.2568359375 -0.7830810546875
1738474500.0 -1.32391357421875 -0.640869140625
1743470000.0 -1.37420654296875 -0.49481201171875
1748465500.0 -1.41009521484375 -0.34716796875
1753461000.0 -1.43109130859375 -0.19952392578125
1758456500.0 -1.4385986328125 -0.0521240234375
1763452000.0 -1.43310546875 0.09393310546875
1768447500.0 -1.4149169921875 0.2386474609375
1773443000.0 -1.38330078125 0.380859375
1778438500.0 -1.3406982421875 0.52020263671875
1783434000.0 -1.28411865234375 0.65618896484375
1788429500.0 -1.21527099609375 0.7882080078125
1793425000.0 -1.1331787109375 0.9150390625
1798420500.0 -1.036865234375 1.0362548828125
1803416000.0 -0.9268798828125 1.1485595703125
1808411500.0 -0.80255126953125 1.2506103515625
1813407000.0 -0.66497802734375 1.34051513671875
1818402500.0 -0.5152587890625 1.41558837890625
1823398000.0 -0.35333251953125 1.4732666015625
1828393500.0 -0.183837890625 1.5107421875
1833389000.0 -0.00885009765625 1.52703857421875
1838384500.0 0.16851806640625 1.5203857421875
1843380000.0 0.34393310546875 1.49029541015625
1848375500.0 0.51324462890625 1.4376220703125
1853371000.0 0.67449951171875 1.3641357421875
1858366500.0 0.8218994140625 1.27130126953125
1863362000.0 0.95538330078125 1.1629638671875
1868357500.0 1.07183837890625 1.04107666015625
1873353000.0 1.1712646484375 0.90899658203125
1878348500.0 1.2535400390625 0.76983642578125
1883344000.0 1.3184814453125 0.6259765625
1888339500.0 1.36688232421875 0.47930908203125
1893335000.0 1.39996337890625 0.33123779296875
1898330500.0 1.4188232421875 0.184326171875
1903326000.0 1.4239501953125 0.03790283203125
1908321500.0 1.41546630859375 -0.10614013671875
1913317000.0 1.39532470703125 -0.24835205078125
1918312500.0 1.36248779296875 -0.38720703125
1923308000.0 1.318115234375 -0.52337646484375
1928303500.0 1.26123046875 -0.65576171875
1933299000.0 1.19232177734375 -0.78399658203125
1938294500.0 1.11041259765625 -0.906982421875
1943290000.0 1.01580810546875 -1.02337646484375
1948285500.0 0.90838623046875 -1.13189697265625
1953281000.0 0.78759765625 -1.23126220703125
1958276500.0 0.65435791015625 -1.31793212890625
1963272000.0 0.5089111328125 -1.391357421875
1968267500.0 0.35382080078125 -1.44781494140625
1973263000.0 0.19036865234375 -1.486572265625
1978258500.0 0.02099609375 -1.5047607421875
1983254000.0 -0.151123046875 -1.5020751953125
1988249500.0 -0.3223876953125 -1.4771728515625
1993245000.0 -0.489501953125 -1.43109130859375
1998240500.0 -0.64886474609375 -1.364501953125
2003236000.0 -0.7979736328125 -1.2786865234375
2008231500.0 -0.9337158203125 -1.1763916015625
2013227000.0 -1.05499267578125 -1.05999755859375
2018222500.0 -1.16021728515625 -0.93218994140625
2023218000.0 -1.24908447265625 -0.7950439453125
2028213500.0 -1.32147216796875 -0.65142822265625
2033209000.0 -1.3773193359375 -0.50335693359375
2038204500.0 -1.4166259765625 -0.3521728515625
2043200000.0 -1.4404296875 -0.2003173828125
2048195500.0 -1.4490966796875 -0.0479736328125
2053191000.0 -1.443359375 0.10357666015625
2058186500.0 -1.42291259765625 0.25262451171875
2063182000.0 -1.38836669921875 0.399169921875
2068177500.0 -1.34027099609375 0.5421142578125
2073173000.0 -1.2781982421875 0.6802978515625
2078168500.0 -1.202392578125 0.81243896484375
2083164000.0 -1.112548828125 0.93798828125
2088159500.0 -1.00982666015625 1.05450439453125
2093155000.0 -0.89410400390625 1.1611328125
2098150500.0 -0.76568603515625 1.25445556640625
2103146000.0 -0.6265869140625 1.33514404296875
2108141500.0 -0.4774169921875 1.39990234375
2113137000.0 -0.321044921875 1.44720458984375
2118132500.0 -0.15899658203125 1.475830078125
2123128000.0 0.006103515625 1.4853515625
2128123500.0 0.17071533203125 1.47515869140625
2133119000.0 0.33294677734375 1.4453125
2138114500.0 0.48974609375 1.3973388671875
2143110000.0 0.638916015625 1.33154296875
2148105500.0 0.7781982421875 1.24957275390625
2153101000.0 0.90570068359375 1.1539306640625
2158096500.0 1.02044677734375 1.0462646484375
2163092000.0 1.12152099609375 0.927978515625
2168087500.0 1.20953369140625 0.80194091796875
2173083000.0 1.282958984375 0.66912841796875
2178078500.0 1.34222412109375 0.5311279296875
2183074000.0 1.387939453125 0.38861083984375
2188069500.0 1.420166015625 0.24395751953125
2193065000.0 1.4384765625 0.096923828125
