!Created with skrf (http://scikit-rf.org).
# Hz S RI R 50.0 
!freq ReS11 ImS11
45000000.0 -0.008636474609375 -0.0064411163330078125
49995500.0 -0.010251998901367188 -0.005859851837158203
54991000.0 -0.011717796325683594 -0.004969120025634766
59986500.0 -0.013211727142333984 -0.004555702209472656
64982000.0 -0.014660835266113281 -0.0035881996154785156
69977500.0 -0.015985488891601562 -0.0020494461059570312
74973000.0 -0.017144203186035156 -0.00044155120849609375
79968500.0 -0.018088340759277344 0.001651763916015625
84964000.0 -0.018848419189453125 0.0038633346557617188
89959500.0 -0.019247055053710938 0.006323814392089844
94955000.0 -0.019380569458007812 0.00881195068359375
99950500.0 -0.01900196075439453 0.011562347412109375
104946000.0 -0.018387794494628906 0.01430511474609375
109941500.0 -0.017279624938964844 0.01702117919921875
114937000.0 -0.015779495239257812 0.019753456115722656
119932500.0 -0.013764381408691406 0.022157669067382812
124928000.0 -0.011502265930175781 0.02463817596435547
129923500.0 -0.008762359619140625 0.02664470672607422
134919000.0 -0.005755424499511719 0.028461456298828125
139914500.0 -0.0024585723876953125 0.02986431121826172
144910000.0 0.001209259033203125 0.030757904052734375
149905500.0 0.0048809051513671875 0.031391143798828125
154901000.0 0.008853912353515625 0.03147125244140625
159896500.0 0.012819290161132812 0.03104400634765625
164892000.0 0.01690387725830078 0.03004932403564453
169887500.0 0.020833969116210938 0.028741836547851562
174883000.0 0.024648666381835938 0.02671527862548828
179878500.0 0.028228759765625 0.02431011199951172
184874000.0 0.0316619873046875 0.021282196044921875
189869500.0 0.03477668762207031 0.017774581909179688
194865000.0 0.03746604919433594 0.013950347900390625
199860500.0 0.039764404296875 0.009754180908203125
204856000.0 0.04138374328613281 0.0052242279052734375
209851500.0 0.04266166687011719 0.000213623046875
214847000.0 0.04321479797363281 -0.0048313140869140625
219842500.0 0.04331779479980469 -0.010026931762695312
224838000.0 0.04270362854003906 -0.01537322998046875
229833500.0 0.041492462158203125 -0.020658493041992188
234829000.0 0.039554595947265625 -0.025774002075195312
239824500.0 0.03690338134765625 -0.030725479125976562
244820000.0 0.03365516662597656 -0.03552818298339844
249815500.0 0.029895782470703125 -0.03997230529785156
254811000.0 0.02764129638671875 -0.04322624206542969
259806500.0 0.022912979125976562 -0.04681968688964844
264802000.0 0.017734527587890625 -0.05007743835449219
269797500.0 0.0120086669921875 -0.0527496337890625
274793000.0 0.0060253143310546875 -0.05471038818359375
279788500.0 -0.0002765655517578125 -0.055973052978515625
284784000.0 -0.0067958831787109375 -0.05650138854980469
289779500.0 -0.01345062255859375 -0.05616950988769531
294775000.0 -0.0201263427734375 -0.0549774169921875
299770500.0 -0.02680206298828125 -0.05323600769042969
304766000.0 -0.03329658508300781 -0.050617218017578125
309761500.0 -0.03955841064453125 -0.04705047607421875
314757000.0 -0.04517555236816406 -0.042781829833984375
319752500.0 -0.050510406494140625 -0.037700653076171875
324748000.0 -0.055225372314453125 -0.03199958801269531
329743500.0 -0.05940437316894531 -0.02576446533203125
334739000.0 -0.06268310546875 -0.018924713134765625
339734500.0 -0.0652923583984375 -0.01160430908203125
344730000.0 -0.0669403076171875 -0.003936767578125
349725500.0 -0.06775665283203125 0.003910064697265625
354721000.0 -0.06756591796875 0.0118408203125
359716500.0 -0.06643295288085938 0.019794464111328125
364712000.0 -0.06443023681640625 0.02768707275390625
369707500.0 -0.06134033203125 0.03534889221191406
374703000.0 -0.05734062194824219 0.042728424072265625
379698500.0 -0.05248832702636719 0.04962158203125
384694000.0 -0.046783447265625 0.05603790283203125
389689500.0 -0.04033470153808594 0.061634063720703125
394685000.0 -0.033023834228515625 0.06665420532226562
399680500.0 -0.02516937255859375 0.07057952880859375
404676000.0 -0.01699066162109375 0.07381820678710938
409671500.0 -0.008411407470703125 0.07599258422851562
414667000.0 0.0006103515625 0.07701873779296875
419662500.0 0.00966644287109375 0.07710647583007812
424658000.0 0.01877593994140625 0.07614517211914062
429653500.0 0.02776336669921875 0.07388687133789062
434649000.0 0.03653717041015625 0.07047653198242188
439644500.0 0.044757843017578125 0.06631851196289062
444640000.0 0.05256462097167969 0.06091499328613281
449635500.0 0.05970954895019531 0.054840087890625
454631000.0 0.06608963012695312 0.04792022705078125
459626500.0 0.07185745239257812 0.040195465087890625
464622000.0 0.0764617919921875 0.03163909912109375
469617500.0 0.0800933837890625 0.022747039794921875
474613000.0 0.082763671875 0.01324462890625
479608500.0 0.08423614501953125 0.00348663330078125
484604000.0 0.08458328247070312 -0.00638580322265625
489599500.0 0.08373641967773438 -0.016204833984375
494595000.0 0.081756591796875 -0.02600860595703125
499590500.0 0.07848358154296875 -0.035526275634765625
504586000.0 0.07425689697265625 -0.0447235107421875
509581500.0 0.0689239501953125 -0.05319976806640625
514577000.0 0.06254196166992188 -0.061046600341796875
519572500.0 0.0553131103515625 -0.0681915283203125
524568000.0 0.047229766845703125 -0.07440185546875
529563500.0 0.0385589599609375 -0.07962417602539062
534559000.0 0.029369354248046875 -0.08379745483398438
539554500.0 0.019626617431640625 -0.08685684204101562
544550000.0 0.009685516357421875 -0.08907699584960938
549545500.0 -0.00030517578125 -0.09001922607421875
554541000.0 -0.01067352294921875 -0.08983612060546875
559536500.0 -0.020915985107421875 -0.08856964111328125
564532000.0 -0.03112030029296875 -0.08607864379882812
569527500.0 -0.041027069091796875 -0.08255386352539062
574523000.0 -0.050640106201171875 -0.07768630981445312
579518500.0 -0.0595855712890625 -0.07169723510742188
584514000.0 -0.06785964965820312 -0.06473159790039062
589509500.0 -0.07528305053710938 -0.05673980712890625
594505000.0 -0.08163070678710938 -0.047817230224609375
599500500.0 -0.08700180053710938 -0.0381927490234375
604496000.0 -0.09135818481445312 -0.02791595458984375
609491500.0 -0.09427261352539062 -0.017303466796875
614487000.0 -0.09603118896484375 -0.00629425048828125
619482500.0 -0.096527099609375 0.004894256591796875
624478000.0 -0.09581375122070312 0.01605224609375
629473500.0 -0.09374237060546875 0.02703857421875
634469000.0 -0.09024810791015625 0.037784576416015625
639464500.0 -0.085601806640625 0.048091888427734375
644460000.0 -0.07977294921875 0.057941436767578125
649455500.0 -0.0727691650390625 0.0670318603515625
654451000.0 -0.06478500366210938 0.07513046264648438
659446500.0 -0.055812835693359375 0.08245849609375
664442000.0 -0.046207427978515625 0.08871078491210938
669437500.0 -0.035533905029296875 0.09383392333984375
674433000.0 -0.02452850341796875 0.09769058227539062
679428500.0 -0.013072967529296875 0.10013580322265625
684424000.0 -0.001323699951171875 0.10124969482421875
689419500.0 0.010578155517578125 0.10097503662109375
694415000.0 0.022357940673828125 0.09932708740234375
699410500.0 0.033809661865234375 0.0962066650390625
704406000.0 0.044940948486328125 0.09167098999023438
709401500.0 0.05529022216796875 0.08599853515625
714397000.0 0.064910888671875 0.07913970947265625
719392500.0 0.07375717163085938 0.07102203369140625
724388000.0 0.0816650390625 0.062145233154296875
729383500.0 0.0884246826171875 0.05229949951171875
734379000.0 0.09380340576171875 0.041805267333984375
739374500.0 0.09819412231445312 0.030559539794921875
744370000.0 0.1011505126953125 0.01911163330078125
749365500.0 0.10271072387695312 0.007244110107421875
754361000.0 0.10295486450195312 -0.00470733642578125
759356500.0 0.10170364379882812 -0.01654815673828125
764352000.0 0.09924697875976562 -0.02808380126953125
769347500.0 0.0952911376953125 -0.03945159912109375
774343000.0 0.09022140502929688 -0.0502471923828125
779338500.0 0.08370208740234375 -0.060245513916015625
784334000.0 0.07639312744140625 -0.06955337524414062
789329500.0 0.06789779663085938 -0.07801055908203125
794325000.0 0.058322906494140625 -0.08532333374023438
799320500.0 0.048091888427734375 -0.0914459228515625
804316000.0 0.0372161865234375 -0.09635162353515625
809311500.0 0.0258331298828125 -0.09994888305664062
814307000.0 0.014186859130859375 -0.10239791870117188
819302500.0 0.00222015380859375 -0.10326385498046875
824298000.0 -0.00970458984375 -0.10268783569335938
829293500.0 -0.021518707275390625 -0.10097122192382812
834289000.0 -0.0329742431640625 -0.09762954711914062
839284500.0 -0.044063568115234375 -0.0931243896484375
844280000.0 -0.05110931396484375 -0.09090042114257812
849275500.0 -0.061100006103515625 -0.08409500122070312
854271000.0 -0.07030487060546875 -0.076507568359375
859266500.0 -0.07855224609375 -0.06788253784179688
864262000.0 -0.08582687377929688 -0.05840301513671875
869257500.0 -0.09155654907226562 -0.04814910888671875
874253000.0 -0.09644317626953125 -0.037166595458984375
879248500.0 -0.10006332397460938 -0.02593231201171875
884244000.0 -0.10204696655273438 -0.01450347900390625
889239500.0 -0.1029815673828125 -0.002773284912109375
894235000.0 -0.10245895385742188 0.00888824462890625
899230500.0 -0.10079574584960938 0.020427703857421875
904226000.0 -0.09793853759765625 0.031768798828125
909221500.0 -0.09373092651367188 0.04296112060546875
914217000.0 -0.088226318359375 0.053348541259765625
919212500.0 -0.08139801025390625 0.06311416625976562
924208000.0 -0.07368850708007812 0.07220840454101562
929203500.0 -0.06470870971679688 0.08018112182617188
934199000.0 -0.05509185791015625 0.08699798583984375
939194500.0 -0.044513702392578125 0.09275054931640625
944190000.0 -0.03360748291015625 0.0971832275390625
949185500.0 -0.022014617919921875 0.10041427612304688
954181000.0 -0.01026153564453125 0.10217666625976562
959176500.0 0.001628875732421875 0.1027374267578125
964172000.0 0.013614654541015625 0.10167694091796875
969167500.0 0.025421142578125 0.0994873046875
974163000.0 0.03670501708984375 0.0957489013671875
979158500.0 0.04754638671875 0.09070587158203125
984154000.0 0.057842254638671875 0.08426666259765625
989149500.0 0.06724929809570312 0.07672882080078125
994145000.0 0.0755157470703125 0.068389892578125
999140500.0 0.08288192749023438 0.0588226318359375
1004136000.0 0.08907318115234375 0.048503875732421875
1009131500.0 0.09395217895507812 0.037792205810546875
1014127000.0 0.09742355346679688 0.026271820068359375
1019122500.0 0.0996246337890625 0.014678955078125
1024118000.0 0.10053634643554688 0.002895355224609375
1029113500.0 0.09980010986328125 -0.0089111328125
1034109000.0 0.09780502319335938 -0.020610809326171875
1039104500.0 0.09449005126953125 -0.0318603515625
1044100000.0 0.08986282348632812 -0.04253387451171875
1049095500.0 0.08407211303710938 -0.052642822265625
1054091000.0 0.07703018188476562 -0.06203460693359375
1059086500.0 0.06898117065429688 -0.0703582763671875
1064082000.0 0.059947967529296875 -0.077728271484375
1069077500.0 0.050281524658203125 -0.08397674560546875
1074073000.0 0.040012359619140625 -0.08917236328125
1079068500.0 0.02911376953125 -0.09290313720703125
1084064000.0 0.01795196533203125 -0.09564208984375
1089059500.0 0.00650787353515625 -0.096649169921875
1094055000.0 -0.004913330078125 -0.09657669067382812
1099050500.0 -0.01616668701171875 -0.09515762329101562
1104046000.0 -0.02730560302734375 -0.09222030639648438
1109041500.0 -0.03797149658203125 -0.08821868896484375
1114037000.0 -0.04782867431640625 -0.08281707763671875
1119032500.0 -0.057277679443359375 -0.07633209228515625
1124028000.0 -0.06574630737304688 -0.068756103515625
1129023500.0 -0.07335281372070312 -0.060321807861328125
1134019000.0 -0.07969284057617188 -0.050998687744140625
1139014500.0 -0.08489227294921875 -0.041065216064453125
1144010000.0 -0.08892440795898438 -0.030467987060546875
1149005500.0 -0.09165573120117188 -0.019649505615234375
1154001000.0 -0.09292984008789062 -0.008502960205078125
1158996500.0 -0.09296417236328125 0.002471923828125
1163992000.0 -0.0916290283203125 0.01366424560546875
1168987500.0 -0.08907318115234375 0.024383544921875
1173983000.0 -0.08520126342773438 0.034755706787109375
1178978500.0 -0.08018875122070312 0.044612884521484375
1183974000.0 -0.07400131225585938 0.053558349609375
1188969500.0 -0.06681442260742188 0.061656951904296875
1193965000.0 -0.058849334716796875 0.06903457641601562
1198960500.0 -0.050045013427734375 0.07517242431640625
1203956000.0 -0.040569305419921875 0.08017349243164062
1208951500.0 -0.030597686767578125 0.08430099487304688
1213947000.0 -0.0202789306640625 0.08674240112304688
1218942500.0 -0.009906768798828125 0.088348388671875
1223938000.0 0.000629425048828125 0.08858871459960938
1228933500.0 0.011035919189453125 0.0876007080078125
1233929000.0 0.0213775634765625 0.0854034423828125
1238924500.0 0.031158447265625 0.08209228515625
1243920000.0 0.040462493896484375 0.07757568359375
1248915500.0 0.04932403564453125 0.0721282958984375
1253911000.0 0.057415008544921875 0.06568145751953125
1258906500.0 0.06450653076171875 0.058223724365234375
1263902000.0 0.07082366943359375 0.05011749267578125
1268897500.0 0.0761566162109375 0.041351318359375
1273893000.0 0.08057785034179688 0.0320587158203125
1278888500.0 0.0836334228515625 0.02237701416015625
1283884000.0 0.08553314208984375 0.01221466064453125
1288879500.0 0.08635330200195312 0.001953125
1293875000.0 0.08590316772460938 -0.008304595947265625
1298870500.0 0.08430099487304688 -0.01848602294921875
1303866000.0 0.08140182495117188 -0.02841949462890625
1308861500.0 0.07741928100585938 -0.037921905517578125
1313857000.0 0.07236480712890625 -0.04685211181640625
1318852500.0 0.0661163330078125 -0.055210113525390625
1323848000.0 0.05893707275390625 -0.06264495849609375
1328843500.0 0.051097869873046875 -0.0692291259765625
1333839000.0 0.04236602783203125 -0.07487869262695312
1338834500.0 0.033046722412109375 -0.07931900024414062
1343830000.0 0.02330780029296875 -0.08271026611328125
1348825500.0 0.013332366943359375 -0.0850830078125
1353821000.0 0.002964019775390625 -0.08611679077148438
1358816500.0 -0.00728607177734375 -0.08572006225585938
1363812000.0 -0.01761627197265625 -0.08423995971679688
1368807500.0 -0.027576446533203125 -0.08153152465820312
1373803000.0 -0.0372161865234375 -0.07760238647460938
1378798500.0 -0.04613494873046875 -0.07265090942382812
1383794000.0 -0.05460357666015625 -0.06652069091796875
1388789500.0 -0.062221527099609375 -0.05960273742675781
1393785000.0 -0.0689239501953125 -0.051784515380859375
1398780500.0 -0.07452011108398438 -0.043224334716796875
1403776000.0 -0.07921981811523438 -0.033977508544921875
1408771500.0 -0.08280181884765625 -0.0242156982421875
1413767000.0 -0.08514785766601562 -0.014003753662109375
1418762500.0 -0.08631134033203125 -0.003887176513671875
1423758000.0 -0.08623123168945312 0.006591796875
1428753500.0 -0.0849609375 0.016765594482421875
1433749000.0 -0.0823211669921875 0.026721954345703125
1438744500.0 -0.07872772216796875 0.036350250244140625
1443740000.0 -0.07387924194335938 0.045497894287109375
1448735500.0 -0.06801223754882812 0.0540924072265625
1453731000.0 -0.061061859130859375 0.06190299987792969
1458726500.0 -0.0534820556640625 0.06888198852539062
1463722000.0 -0.04500579833984375 0.07477188110351562
1468717500.0 -0.035858154296875 0.07966995239257812
1473713000.0 -0.0261383056640625 0.08344268798828125
1478708500.0 -0.016086578369140625 0.08610153198242188
1483704000.0 -0.00574493408203125 0.08771133422851562
1488699500.0 0.00458526611328125 0.08786773681640625
1493695000.0 0.015026092529296875 0.08684921264648438
1498690500.0 0.02529144287109375 0.08454132080078125
1503686000.0 0.035228729248046875 0.08110427856445312
1508681500.0 0.04459381103515625 0.07662582397460938
1513677000.0 0.05352020263671875 0.07081985473632812
1518672500.0 0.06156158447265625 0.06421279907226562
1523668000.0 0.06867218017578125 0.056491851806640625
1528663500.0 0.07503509521484375 0.048038482666015625
1533659000.0 0.08025741577148438 0.039112091064453125
1538654500.0 0.08444595336914062 0.02935791015625
1543650000.0 0.08742523193359375 0.01922607421875
1548645500.0 0.08919143676757812 0.008758544921875
1553641000.0 0.08966445922851562 -0.00154876708984375
1558636500.0 0.08899307250976562 -0.012027740478515625
1563632000.0 0.08704376220703125 -0.0222625732421875
1568627500.0 0.08401870727539062 -0.0322113037109375
1573623000.0 0.079833984375 -0.041873931884765625
1578618500.0 0.07456207275390625 -0.0507965087890625
1583614000.0 0.068267822265625 -0.0592041015625
1588609500.0 0.061107635498046875 -0.066741943359375
1593605000.0 0.05316162109375 -0.07336044311523438
1598600500.0 0.044345855712890625 -0.079132080078125
1603596000.0 0.03515625 -0.08381271362304688
1608591500.0 0.025333404541015625 -0.0873870849609375
1613587000.0 0.01538848876953125 -0.08992385864257812
1618582500.0 0.005123138427734375 -0.0912017822265625
1623578000.0 -0.005199432373046875 -0.09153366088867188
1628573500.0 -0.01567840576171875 -0.0904541015625
1633569000.0 -0.025745391845703125 -0.0885162353515625
1638564500.0 -0.035732269287109375 -0.08522796630859375
1643560000.0 -0.0451202392578125 -0.08089447021484375
1648555500.0 -0.05422210693359375 -0.07551193237304688
1653551000.0 -0.0625762939453125 -0.06919097900390625
1658546500.0 -0.07017898559570312 -0.062061309814453125
1663542000.0 -0.0770263671875 -0.05379486083984375
1668537500.0 -0.08279037475585938 -0.044803619384765625
1673533000.0 -0.08765792846679688 -0.035491943359375
1678528500.0 -0.09149551391601562 -0.0255279541015625
1683524000.0 -0.09411239624023438 -0.015117645263671875
1688519500.0 -0.09552764892578125 -0.00457763671875
1693515000.0 -0.09588623046875 0.0062408447265625
1698510500.0 -0.094970703125 0.017009735107421875
1703506000.0 -0.09279632568359375 0.027744293212890625
1708501500.0 -0.08943939208984375 0.037998199462890625
1713497000.0 -0.08498382568359375 0.04796600341796875
1718492500.0 -0.07935333251953125 0.0574951171875
1723488000.0 -0.07275772094726562 0.06632232666015625
1728483500.0 -0.06525802612304688 0.07423019409179688
1733479000.0 -0.056644439697265625 0.08136367797851562
1738474500.0 -0.047359466552734375 0.08753585815429688
1743470000.0 -0.03759002685546875 0.0926971435546875
1748465500.0 -0.027072906494140625 0.0966796875
1753461000.0 -0.016269683837890625 0.09951019287109375
1758456500.0 -0.0050506591796875 0.10112762451171875
1763452000.0 0.00640869140625 0.10157394409179688
1768447500.0 0.01764678955078125 0.10064697265625
1773443000.0 0.02896881103515625 0.09843826293945312
1778438500.0 0.039775848388671875 0.09495925903320312
1783434000.0 0.050479888916015625 0.0902862548828125
1788429500.0 0.0604705810546875 0.08446502685546875
1793425000.0 0.0697784423828125 0.0775146484375
1798420500.0 0.07831954956054688 0.06954574584960938
1803416000.0 0.08592987060546875 0.06061553955078125
1808411500.0 0.09256362915039062 0.05097198486328125
1813407000.0 0.09795379638671875 0.04042816162109375
1818402500.0 0.10206222534179688 0.029315948486328125
1823398000.0 0.10508346557617188 0.01790618896484375
1828393500.0 0.10675811767578125 0.006023406982421875
1833389000.0 0.10705184936523438 -0.00586700439453125
1838384500.0 0.10611724853515625 -0.017719268798828125
1843380000.0 0.10372543334960938 -0.029407501220703125
1848375500.0 0.1002197265625 -0.040828704833984375
1853371000.0 0.09528732299804688 -0.0518951416015625
1858366500.0 0.08938980102539062 -0.062175750732421875
1863362000.0 0.082061767578125 -0.07184982299804688
1868357500.0 0.074005126953125 -0.08066940307617188
1873353000.0 0.064788818359375 -0.08855056762695312
1878348500.0 0.05480194091796875 -0.09542083740234375
1883344000.0 0.04434967041015625 -0.10118484497070312
1888339500.0 0.033046722412109375 -0.10569000244140625
1893335000.0 0.021312713623046875 -0.1091156005859375
1898330500.0 0.009281158447265625 -0.11118316650390625
1903326000.0 -0.0029296875 -0.11191558837890625
1908321500.0 -0.01519012451171875 -0.1113128662109375
1913317000.0 -0.027500152587890625 -0.1092987060546875
