!Created with skrf (http://scikit-rf.org).
# Hz S RI R 50.0 
!freq ReS11 ImS11
300000.0 -1.020184542 -0.1904787514
5299970.0 -1.003018195 0.0070650951
10299940.0 -1.000879347 0.0123975714
15299910.0 -0.9997253255 0.0237028763
20299880.0 -0.9991525366 0.0275994969
25299850.0 -0.9983981716 0.0362873882
30299820.0 -0.9978261 0.0435629383
35299790.0 -0.9968413628 0.0481567551
40299760.0 -0.9961355053 0.0548305202
45299730.0 -0.9954209708 0.0607514346
50299700.0 -0.9945785113 0.0675767286
55299670.0 -0.9936541619 0.0740245617
60299640.0 -0.9934716593 0.0804670139
65299610.0 -0.9921362784 0.0859533017
70299580.0 -0.9917275733 0.0926693806
75299550.0 -0.9909342909 0.0987140245
80299520.0 -0.9895413757 0.1048144482
85299490.0 -0.9888585314 0.1110974949
90299460.0 -0.9873881862 0.117593313
95299430.0 -0.986930117 0.123509779
100299400.0 -0.9861172295 0.1301367376
105299370.0 -0.98499902 0.1361532439
110299340.0 -0.9838680973 0.1419164611
115299310.0 -0.9827665253 0.1485500373
120299280.0 -0.9820102028 0.1547147238
125299250.0 -0.9804490918 0.1606741881
130299220.0 -0.9794988675 0.1665797481
135299190.0 -0.9777814237 0.1736625719
140299160.0 -0.9769080373 0.1789995357
145299130.0 -0.9756167164 0.1849999885
150299100.0 -0.9742066517 0.1913216501
155299070.0 -0.9731971028 0.1971967868
160299040.0 -0.9717323509 0.2034088307
165299010.0 -0.9702810759 0.2097458603
170298980.0 -0.9688444899 0.2152763098
175298950.0 -0.9650875766 0.2212315514
180298920.0 -0.9632454754 0.2263525327
185298890.0 -0.9627612099 0.2328211777
190298860.0 -0.9633406205 0.2400771925
195298830.0 -0.9612526448 0.2459288889
200298800.0 -0.9596045329 0.2516515051
205298770.0 -0.957644423 0.2579073271
210298740.0 -0.9557131463 0.2637528974
215298710.0 -0.9539862558 0.2696636996
220298680.0 -0.9523699588 0.2758220596
225298650.0 -0.9506462545 0.2818222616
230298620.0 -0.9484013911 0.28746338
235298590.0 -0.9469066068 0.2933641706
240298560.0 -0.9446470647 0.2994126159
245298530.0 -0.9428487649 0.3053970721
250298500.0 -0.9408168867 0.310813986
255298470.0 -0.9385924673 0.3168113902
260298440.0 -0.9364874857 0.3222989266
265298410.0 -0.93408708 0.3284920074
270298380.0 -0.9327582742 0.3346520947
275298350.0 -0.9299727432 0.3405083811
280298320.0 -0.9273505012 0.3458375921
285298290.0 -0.925381608 0.3513596027
290298260.0 -0.9228103874 0.3573330802
295298230.0 -0.920682943 0.3628914303
300298200.0 -0.9184160526 0.3683939695
305298170.0 -0.9163411367 0.3744174992
310298140.0 -0.9136570518 0.3801184996
315298110.0 -0.9112373569 0.3854171983
320298080.0 -0.9083528014 0.3912314883
325298050.0 -0.9059780472 0.3967903659
330298020.0 -0.9031350616 0.4021862776
335297990.0 -0.9003236336 0.4081126311
340297960.0 -0.8978544897 0.4130544693
345297930.0 -0.8948565606 0.4193048712
350297900.0 -0.8932331811 0.4245884248
355297870.0 -0.8902727796 0.4300267306
360297840.0 -0.8881406563 0.4356561803
365297810.0 -0.8844395645 0.4408929031
370297780.0 -0.8824367528 0.446295801
375297750.0 -0.8789177147 0.4515987678
380297720.0 -0.87597164 0.4574802202
385297690.0 -0.8728448456 0.4622778445
390297660.0 -0.8702027439 0.4683838084
395297630.0 -0.8665777249 0.473516772
400297600.0 -0.8634825008 0.4786225555
405297570.0 -0.8604343228 0.4844192324
410297540.0 -0.8571735042 0.489190448
415297510.0 -0.8540846207 0.493923576
420297480.0 -0.8512013508 0.499726777
425297450.0 -0.8480791943 0.5052097522
430297420.0 -0.8447538818 0.5101513538
435297390.0 -0.8414530128 0.5152582336
440297360.0 -0.8385326546 0.5203147474
445297330.0 -0.8343628853 0.5253295245
450297300.0 -0.8312020403 0.5309957497
455297270.0 -0.8285332156 0.5362396694
460297240.0 -0.824594095 0.5408643278
465297210.0 -0.8214253329 0.5462195592
470297180.0 -0.8175213012 0.5506512197
475297150.0 -0.8137876436 0.5561284657
480297120.0 -0.8106166325 0.5611867276
485297090.0 -0.8076229994 0.5654957975
490297060.0 -0.8037699171 0.5710194357
495297030.0 -0.7998806051 0.5750822403
500297000.0 -0.7964342237 0.5799771522
505296970.0 -0.7928743039 0.5846982757
510296940.0 -0.7897467718 0.5905496336
515296910.0 -0.7860046552 0.5947986421
520296880.0 -0.7826169051 0.600034578
525296850.0 -0.7785060729 0.6047547393
530296820.0 -0.7756891543 0.6093204948
535296790.0 -0.771324819 0.6145061731
540296760.0 -0.7672592084 0.619250136
545296730.0 -0.7631174331 0.6234319448
550296700.0 -0.7588347439 0.6285992284
555296670.0 -0.7551720791 0.632472523
560296640.0 -0.750603541 0.6372988494
565296610.0 -0.7467211078 0.6415461383
570296580.0 -0.7423616168 0.6464909462
575296550.0 -0.7382224156 0.651192864
580296520.0 -0.7345098501 0.6559142244
585296490.0 -0.7300372256 0.6597746896
590296460.0 -0.7259655709 0.6646476956
595296430.0 -0.7214401113 0.6683037482
600296400.0 -0.7181763174 0.6729785253
605296370.0 -0.7137677314 0.6775005985
610296340.0 -0.7094373525 0.681500888
615296310.0 -0.7046374583 0.6859265529
620296280.0 -0.7006378255 0.6901651062
625296250.0 -0.6967268267 0.6942512493
630296220.0 -0.6922414208 0.6984728672
635296190.0 -0.687738324 0.7025170906
640296160.0 -0.6833409576 0.7066540028
645296130.0 -0.6794916001 0.7103982997
650296100.0 -0.6747532095 0.7152608059
655296070.0 -0.6699897808 0.7191264334
660296040.0 -0.6653393617 0.7236465164
665296010.0 -0.6609419292 0.7279744981
670295980.0 -0.6570496126 0.7311723178
675295950.0 -0.6518868493 0.7347407254
680295920.0 -0.6471757199 0.7393106361
685295890.0 -0.6431540892 0.7436497859
690295860.0 -0.6386779316 0.7471560961
695295830.0 -0.633537209 0.7509884773
700295800.0 -0.6290379521 0.7549770554
705295770.0 -0.6244829829 0.7588589478
710295740.0 -0.6195965806 0.7626822038
715295710.0 -0.6149012367 0.7665863747
720295680.0 -0.6102884339 0.7698681714
725295650.0 -0.605416769 0.7731913982
730295620.0 -0.6004310011 0.7771215355
735295590.0 -0.5961417358 0.7811217911
740295560.0 -0.5911332977 0.7844793202
745295530.0 -0.5859253076 0.7880979784
750295500.0 -0.5815690501 0.7918691572
755295470.0 -0.5759694444 0.7956267495
760295440.0 -0.5711437599 0.7985639646
765295410.0 -0.5663224549 0.8022846559
770295380.0 -0.5609106405 0.805085086
775295350.0 -0.5557501314 0.8089917004
780295320.0 -0.5510925691 0.8122609668
785295290.0 -0.545954092 0.8156867128
790295260.0 -0.540800082 0.8189350363
795295230.0 -0.5356468313 0.8222483994
800295200.0 -0.5305882323 0.8255601207
805295170.0 -0.5256084666 0.8289165572
810295140.0 -0.520058286 0.8316772851
815295110.0 -0.5150513658 0.8350893931
820295080.0 -0.5102059527 0.838183144
825295050.0 -0.5047714967 0.8411996446
830295020.0 -0.4995893737 0.8439764077
835294990.0 -0.4941430863 0.847153968
840294960.0 -0.4893821967 0.8505990162
845294930.0 -0.4843480615 0.8531325063
850294900.0 -0.4784389044 0.8560802896
855294870.0 -0.4734968354 0.8586102577
860294840.0 -0.4678511852 0.8616448612
865294810.0 -0.4623625008 0.8648980335
870294780.0 -0.4574577886 0.867144616
875294750.0 -0.4516472878 0.8698442397
880294720.0 -0.4467967309 0.8721062082
885294690.0 -0.4411318411 0.8754069769
890294660.0 -0.435750243 0.8783661688
895294630.0 -0.4304057783 0.8806645034
900294600.0 -0.4250547635 0.8829798832
905294570.0 -0.4196812062 0.8847506733
910294540.0 -0.4144285813 0.8877617535
915294510.0 -0.4086357854 0.8901212033
920294480.0 -0.4031620807 0.8925449297
925294450.0 -0.3978875559 0.8952697531
930294420.0 -0.3917136911 0.8974963001
935294390.0 -0.3865841805 0.8998073981
940294360.0 -0.3814061321 0.9017705635
945294330.0 -0.3752589115 0.9043935054
950294300.0 -0.3698422195 0.9067027922
955294270.0 -0.3640344744 0.9089770159
960294240.0 -0.3583750027 0.9107343748
965294210.0 -0.3524777562 0.9130680464
970294180.0 -0.3470146739 0.9157626094
975294150.0 -0.3419343688 0.917426444
980294120.0 -0.336479169 0.9194505687
985294090.0 -0.3306714892 0.9216756345
990294060.0 -0.3248552251 0.9234572457
995294030.0 -0.3191756463 0.9252739337
1000294000.0 -0.3132150688 0.9272072625
1005293970.0 -0.3072734568 0.9289311497
1010293940.0 -0.301873468 0.9305696335
1015293910.0 -0.2961965556 0.9326158672
1020293880.0 -0.2904975945 0.9341921034
1025293850.0 -0.2850087238 0.9360427036
1030293820.0 -0.2792255723 0.9380998357
1035293790.0 -0.2733997336 0.9390465755
1040293760.0 -0.267265657 0.9409332004
1045293730.0 -0.2612542357 0.9423584059
1050293700.0 -0.255636323 0.943749646
1055293670.0 -0.2498268697 0.9459959172
1060293640.0 -0.243962444 0.9470687752
1065293610.0 -0.2384474684 0.9486320397
1070293580.0 -0.232819286 0.9497379235
1075293550.0 -0.2269603241 0.9510742959
1080293520.0 -0.2212330348 0.9524897749
1085293490.0 -0.2151465815 0.9544847562
1090293460.0 -0.2087270456 0.9554055383
1095293430.0 -0.2031388775 0.9564580831
1100293400.0 -0.1966896352 0.9578759169
1105293370.0 -0.1905591062 0.9589175431
1110293340.0 -0.185141719 0.9602418294
1115293310.0 -0.1791697952 0.9612216469
1120293280.0 -0.1735132972 0.9623699452
1125293250.0 -0.1678189334 0.9631364955
1130293220.0 -0.1623672975 0.9643144722
1135293190.0 -0.1553773948 0.9652553716
1140293160.0 -0.1498672239 0.9663088228
1145293130.0 -0.1441165206 0.9672905508
1150293100.0 -0.1378215473 0.9679870936
1155293070.0 -0.1318250295 0.9686021208
1160293040.0 -0.1258326425 0.9695592525
1165293010.0 -0.119953605 0.9704339809
1170292980.0 -0.1147558301 0.9705967798
1175292950.0 -0.108348577 0.9719404373
1180292920.0 -0.1022602633 0.9717967738
1185292890.0 -0.0964726525 0.9725236956
1190292860.0 -0.0904433713 0.9732123797
1195292830.0 -0.0845440112 0.9738951941
1200292800.0 -0.0787796847 0.9740365681
1205292770.0 -0.0726769674 0.9746521854
1210292740.0 -0.0669152865 0.9751471596
1215292710.0 -0.0605862591 0.9758485584
1220292680.0 -0.0541201952 0.9763097538
1225292650.0 -0.0483168186 0.9763053204
1230292620.0 -0.0423910886 0.9762624033
1235292590.0 -0.0361175933 0.9764345877
1240292560.0 -0.0303380521 0.9768112306
1245292530.0 -0.024985154 0.9768360691
1250292500.0 -0.0184041768 0.9769277536
1255292470.0 -0.0124013778 0.9773386969
1260292440.0 -0.0061594704 0.9771645521
1265292410.0 -0.000108872 0.9778606374
1270292380.0 0.0056007124 0.9771922972
1275292350.0 0.0116122332 0.9772516237
1280292320.0 0.0176443542 0.977035989
1285292290.0 0.0243107452 0.9769385684
1290292260.0 0.0299412514 0.976395937
1295292230.0 0.0355731116 0.9768989547
1300292200.0 0.0416190327 0.9763001701
1305292170.0 0.0478161257 0.9758582764
1310292140.0 0.0536297441 0.9759712023
1315292110.0 0.0595685602 0.975375445
1320292080.0 0.0655184531 0.9753093918
1325292050.0 0.0714932537 0.9747375129
1330292020.0 0.0776212676 0.9742077594
1335291990.0 0.0840497882 0.973018692
1340291960.0 0.090230166 0.9731410045
1345291930.0 0.0958431844 0.9729768599
1350291900.0 0.1022363875 0.9721560248
1355291870.0 0.1080963521 0.9713229199
1360291840.0 0.1140036643 0.9707287405
1365291810.0 0.1192476744 0.9698424969
1370291780.0 0.1249605804 0.9689746732
1375291750.0 0.1314369179 0.9685199057
1380291720.0 0.1377917238 0.9672308789
1385291690.0 0.1433814927 0.9665627858
1390291660.0 0.1489839282 0.9663619155
1395291630.0 0.1558486785 0.9654482175
1400291600.0 0.1616536258 0.9641946306
1405291570.0 0.1676038015 0.9634149062
1410291540.0 0.1731991153 0.961837283
1415291510.0 0.1789078186 0.9605813433
1420291480.0 0.1851274304 0.9601650025
1425291450.0 0.1912118828 0.9591412304
1430291420.0 0.1964683771 0.9577147548
1435291390.0 0.2021227659 0.9564649237
1440291360.0 0.2082704224 0.9553188044
1445291330.0 0.2142404318 0.953788445
1450291300.0 0.2198207559 0.9522468409
1455291270.0 0.2257054658 0.9516945406
1460291240.0 0.2316779813 0.9496860831
1465291210.0 0.2377938863 0.9482551142
1470291180.0 0.2431643469 0.9469319913
1475291150.0 0.2498594285 0.9450230157
1480291120.0 0.2549374977 0.943830538
1485291090.0 0.2611434818 0.9421491364
1490291060.0 0.267483263 0.9404713373
1495291030.0 0.2724673559 0.9392083479
1500291000.0 0.278691331 0.9370801346
1505290970.0 0.2843181011 0.9355789589
1510290940.0 0.289849561 0.9341203104
1515290910.0 0.2955046713 0.9321178195
1520290880.0 0.3012201737 0.9302907486
1525290850.0 0.3070693857 0.9289428894
1530290820.0 0.3134428806 0.9269337259
1535290790.0 0.3185772114 0.9252572931
1540290760.0 0.3245289335 0.9230635836
1545290730.0 0.3301553803 0.9206229091
1550290700.0 0.3361115215 0.9185793424
1555290670.0 0.3412281986 0.9164883082
1560290640.0 0.3472241035 0.9141038975
1565290610.0 0.3527488889 0.91278052
1570290580.0 0.3584798641 0.9103142215
1575290550.0 0.3638591064 0.908090901
1580290520.0 0.3698963748 0.9060300571
1585290490.0 0.3755572634 0.9030135129
1590290460.0 0.3816818959 0.9009559371
1595290430.0 0.3866806406 0.8987822428
1600290400.0 0.3920534165 0.8973113337
1605290370.0 0.3975753084 0.8945538711
1610290340.0 0.4030760043 0.8918696518
1615290310.0 0.4085161194 0.8893762678
1620290280.0 0.4139703685 0.8868078537
1625290250.0 0.4199486363 0.8846280341
1630290220.0 0.4250731584 0.8818409226
1635290190.0 0.4299381183 0.8790214512
1640290160.0 0.4353669164 0.8766042486
1645290130.0 0.4409495062 0.8739360761
1650290100.0 0.4468263137 0.8713225103
1655290070.0 0.4515790937 0.8684744214
1660290040.0 0.4571611143 0.8654895402
1665290010.0 0.4625918298 0.8625439343
1670289980.0 0.4678548665 0.8597285268
1675289950.0 0.4728651059 0.8572084941
1680289920.0 0.4783985067 0.853590389
1685289890.0 0.4839792109 0.8510436427
1690289860.0 0.4896844919 0.8481881172
1695289830.0 0.4951163122 0.8452267761
1700289800.0 0.5003164396 0.841286323
1705289770.0 0.5054630487 0.8384683182
1710289740.0 0.5106778529 0.8354723687
1715289710.0 0.5159074219 0.8327378224
1720289680.0 0.5206754841 0.8294982338
1725289650.0 0.5264601327 0.8260160508
1730289620.0 0.5308318154 0.8229326194
1735289590.0 0.5361580545 0.8202052977
1740289560.0 0.5411571273 0.8162895063
1745289530.0 0.5460810096 0.8130730349
1750289500.0 0.5510062886 0.8097551128
1755289470.0 0.5562742726 0.8059952783
1760289440.0 0.5611573415 0.8032476762
1765289410.0 0.5665345525 0.7991642033
1770289380.0 0.5712750669 0.7965771018
1775289350.0 0.5759034186 0.7933716228
1780289320.0 0.5806075061 0.7891705045
1785289290.0 0.5866973534 0.785739489
1790289260.0 0.5905918331 0.7820177055
1795289230.0 0.5957360727 0.7775631885
1800289200.0 0.6006255388 0.7743228445
1805289170.0 0.6051782879 0.7711562894
1810289140.0 0.6104343114 0.7673962013
1815289110.0 0.6146907369 0.7639528375
1820289080.0 0.6192329347 0.7602296291
1825289050.0 0.6238327883 0.7562366702
1830289020.0 0.6282363594 0.7524519944
1835288990.0 0.6330488783 0.7485784725
1840288960.0 0.6380689513 0.7447744022
1845288930.0 0.6422595378 0.7413377339
1850288900.0 0.6466973192 0.737078953
1855288870.0 0.6514959791 0.7326011702
1860288840.0 0.6562744332 0.7284413349
1865288810.0 0.6612322507 0.7248839534
1870288780.0 0.665567198 0.7207011883
1875288750.0 0.6700820626 0.716221955
1880288720.0 0.6740570968 0.7118503433
1885288690.0 0.6792276172 0.7076881607
1890288660.0 0.6837569647 0.7038207713
1895288630.0 0.6880932249 0.6992506808
1900288600.0 0.6919240314 0.6951600386
1905288570.0 0.6964871955 0.6912911082
1910288540.0 0.7003505366 0.6867693622
1915288510.0 0.7049305913 0.6824166297
1920288480.0 0.7091856348 0.6776442599
1925288450.0 0.7133733441 0.6737071058
1930288420.0 0.7181929151 0.6685020786
1935288390.0 0.7218905467 0.6642590315
1940288360.0 0.726126856 0.6599493753
1945288330.0 0.7306351902 0.6558263701
1950288300.0 0.7348931357 0.6507793391
1955288270.0 0.7389223036 0.6461787812
1960288240.0 0.7427335431 0.641304272
1965288210.0 0.7465482676 0.6366327199
1970288180.0 0.7509285419 0.6318612325
1975288150.0 0.7549732653 0.6280111277
1980288120.0 0.7588786239 0.6233021999
1985288090.0 0.7622256885 0.6191892135
1990288060.0 0.7661609369 0.6141094919
1995288030.0 0.7697423459 0.6096711141
2000288000.0 0.7732741075 0.6051443853
2005287970.0 0.7768987341 0.6009645507
2010287940.0 0.7805755947 0.595671317
2015287910.0 0.7843311472 0.5906191767
2020287880.0 0.7882574044 0.585965599
2025287850.0 0.7915724273 0.5810967747
2030287820.0 0.7956510822 0.5761420033
2035287790.0 0.798831035 0.5714783929
2040287760.0 0.8022010617 0.5657499269
2045287730.0 0.8061113259 0.5612543964
2050287700.0 0.8098944537 0.556070307
2055287670.0 0.8127148905 0.551215964
2060287640.0 0.8162470704 0.5465642084
2065287610.0 0.8198088275 0.5411814087
2070287580.0 0.8228462478 0.5359712537
2075287550.0 0.8261682897 0.5315811652
2080287520.0 0.8299934676 0.5267563704
2085287490.0 0.833293638 0.5215277246
2090287460.0 0.8362374888 0.5157675446
2095287430.0 0.8399366693 0.5107437885
2100287400.0 0.8427183667 0.5051658273
2105287370.0 0.8460566334 0.4999198978
2110287340.0 0.849104232 0.4949591027
2115287310.0 0.8524212676 0.4898384026
2120287280.0 0.8554466654 0.4841706958
2125287250.0 0.8584399873 0.4792089644
2130287220.0 0.8614049266 0.4737218446
2135287190.0 0.8646692004 0.4683684459
2140287160.0 0.8670323623 0.4629370171
2145287130.0 0.8699768261 0.4573959392
2150287100.0 0.8729044953 0.4523200068
2155287070.0 0.8760078448 0.4472644784
2160287040.0 0.8784336999 0.4412906274
2165287010.0 0.8807739177 0.4361063125
2170286980.0 0.8839747182 0.4311561638
2175286950.0 0.8864931768 0.4257607401
2180286920.0 0.8893211331 0.4203761485
2185286890.0 0.8914715015 0.4152655862
2190286860.0 0.8945797992 0.4094351818
2195286830.0 0.8960032471 0.4043353065
2200286800.0 0.8991103696 0.3988672792
2205286770.0 0.9016852491 0.3931655691
2210286740.0 0.9043764683 0.3882325013
2215286710.0 0.9061975036 0.3821754017
2220286680.0 0.9089905308 0.3765460731
2225286650.0 0.9115476649 0.3707577958
2230286620.0 0.9131692863 0.3650905946
2235286590.0 0.9158310986 0.3593465465
2240286560.0 0.9179564868 0.3532874837
2245286530.0 0.9200941942 0.3483882416
2250286500.0 0.9225566704 0.3418178305
2255286470.0 0.9244047658 0.3365686633
2260286440.0 0.9268681885 0.3303101727
2265286410.0 0.9289864942 0.3248450368
2270286380.0 0.9305339341 0.3188424302
2275286350.0 0.932218765 0.3136388566
2280286320.0 0.93477239 0.3076010231
2285286290.0 0.9368532265 0.3017479289
2290286260.0 0.9384341576 0.2958157986
2295286230.0 0.9400486377 0.2902909507
2300286200.0 0.942260457 0.2845637816
2305286170.0 0.943935498 0.2781721867
2310286140.0 0.9457163506 0.2733617342
2315286110.0 0.947066657 0.2665514635
2320286080.0 0.9495767001 0.2607930649
2325286050.0 0.9507856921 0.2548084936
2330286020.0 0.9525732977 0.2494817321
2335285990.0 0.9537858069 0.2432567751
2340285960.0 0.9553011147 0.2376652575
2345285930.0 0.956861667 0.231879973
2350285900.0 0.9581153067 0.2255930033
2355285870.0 0.959476431 0.2192378968
2360285840.0 0.9609026525 0.2131600817
2365285810.0 0.9621007689 0.2078353319
2370285780.0 0.9640355684 0.2017352671
2375285750.0 0.9649280805 0.1957440475
2380285720.0 0.9658565053 0.189957401
2385285690.0 0.9671673893 0.1846846597
2390285660.0 0.9680586225 0.1784754149
2395285630.0 0.9692678701 0.1726462712
2400285600.0 0.9704376852 0.1660150689
2405285570.0 0.9712152346 0.1609788961
2410285540.0 0.9718795857 0.1551416616
2415285510.0 0.9731254107 0.1491253121
2420285480.0 0.9738748022 0.1431666264
2425285450.0 0.9747525072 0.1368566667
2430285420.0 0.9759706896 0.1312210781
2435285390.0 0.976407135 0.1247453583
2440285360.0 0.9781870233 0.1189575697
2445285330.0 0.9779674505 0.112599509
2450285300.0 0.9788420758 0.1069042934
2455285270.0 0.9797343842 0.1010837612
2460285240.0 0.9804286067 0.0946338039
2465285210.0 0.9808265333 0.0885395736
2470285180.0 0.9813030056 0.0823596316
2475285150.0 0.9813052123 0.0760370959
2480285120.0 0.9819492708 0.0705542787
2485285090.0 0.9828846619 0.0637005283
2490285060.0 0.9834229576 0.0576475087
2495285030.0 0.9829491253 0.0518798747
2500285000.0 0.9838365552 0.0451507672
2505284970.0 0.9839354392 0.039134583
2510284940.0 0.9840006476 0.0330295195
2515284910.0 0.9842051781 0.0269405152
2520284880.0 0.9848946836 0.0212256224
2525284850.0 0.9845015467 0.0149423193
2530284820.0 0.9839472481 0.0088867567
2535284790.0 0.9847338048 0.0030747345
2540284760.0 0.9843807992 -0.0025178782
2545284730.0 0.9846646214 -0.0085067934
2550284700.0 0.9849587952 -0.0149615669
2555284670.0 0.9844809613 -0.0210621643
