!Created with skrf (http://scikit-rf.org).
# Hz S RI R 50.0 
!freq ReS11 ImS11
300000.0 -0.0071272045 -0.0421057978
5299970.0 0.0004250063 -0.0002303844
10299940.0 0.0005517391 -0.0002514352
15299910.0 0.0006546421 0.0010893926
20299880.0 0.0009081371 0.0007420134
25299850.0 0.0009657573 0.0014326414
30299820.0 0.0013323909 0.0017754725
35299790.0 0.0014022899 0.0015282333
40299760.0 0.0015765571 0.0019207343
45299730.0 0.0016877065 0.0022773893
50299700.0 0.0016929382 0.0024669629
55299670.0 0.0018412276 0.0027012478
60299640.0 0.0022298043 0.0028472859
65299610.0 0.0023243913 0.0029333472
70299580.0 0.0026160094 0.0030377092
75299550.0 0.0026161056 0.0030736737
80299520.0 0.0028492755 0.0032071047
85299490.0 0.003289427 0.0032571401
90299460.0 0.0032155085 0.0035692401
95299430.0 0.0035534817 0.0035618445
100299400.0 0.0038496176 0.0038660204
105299370.0 0.0041842057 0.0038435553
110299340.0 0.0045301706 0.0038148753
115299310.0 0.0045571257 0.0039848748
120299280.0 0.0047226336 0.0040848417
125299250.0 0.0049782501 0.0037684109
130299220.0 0.005362871 0.0038930754
135299190.0 0.0051942534 0.0040557883
140299160.0 0.0055204454 0.0039135508
145299130.0 0.0057500448 0.0038634193
150299100.0 0.0059901849 0.0040236887
155299070.0 0.0064051991 0.0035454758
160299040.0 0.0065559288 0.0035397456
165299010.0 0.0067794362 0.0034613237
170298980.0 0.0068068217 0.0034348693
175298950.0 0.0069183686 0.0034016556
180298920.0 0.0071708334 0.0034403661
185298890.0 0.0074159705 0.003104447
190298860.0 0.0074832921 0.0031406521
195298830.0 0.0074375856 0.0027646764
200298800.0 0.0078183684 0.0026874115
205298770.0 0.0078810447 0.0024417551
210298740.0 0.0080450302 0.0024345678
215298710.0 0.0079092636 0.0022806027
220298680.0 0.0082556042 0.0021826731
225298650.0 0.0080940105 0.0016945359
230298620.0 0.0082545785 0.0016975121
235298590.0 0.0084217439 0.0016026921
240298560.0 0.008488204 0.0012191671
245298530.0 0.0081967808 0.0012012881
250298500.0 0.0083708652 0.001131289
255298470.0 0.0083854414 0.0009263456
260298440.0 0.0084642675 0.0005305474
265298410.0 0.0082642698 0.0005262371
270298380.0 0.0083655013 0.0003819135
275298350.0 0.0085214665 0.0001307969
280298320.0 0.0084205415 0.0002618658
285298290.0 0.0083682534 -9.89598e-05
290298260.0 0.0082838208 5.49555e-05
295298230.0 0.0083053389 -0.000448993
300298200.0 0.008141423 -0.0003666128
305298170.0 0.0079929131 -0.0005052225
310298140.0 0.0078507775 -0.0006506138
315298110.0 0.0078351841 -0.0004903559
320298080.0 0.0078354567 -0.000879219
325298050.0 0.0078247315 -0.0010627234
330298020.0 0.0077877324 -0.0011354386
335297990.0 0.0077575675 -0.0013682248
340297960.0 0.0079121766 -0.0011950152
345297930.0 0.0074144058 -0.0013340916
350297900.0 0.0078090617 -0.0013672515
355297870.0 0.0074718467 -0.0015410942
360297840.0 0.0073507565 -0.0017299247
365297810.0 0.0073318323 -0.0016959788
370297780.0 0.0071750933 -0.0017544856
375297750.0 0.0069120719 -0.0018965528
380297720.0 0.0066736939 -0.001682931
385297690.0 0.0068652347 -0.0016239024
390297660.0 0.0068682445 -0.0016449775
395297630.0 0.0067163214 -0.00196697
400297600.0 0.0066778517 -0.0019177719
405297570.0 0.0065741705 -0.0019726247
410297540.0 0.0065315733 -0.0020032268
415297510.0 0.0063998209 -0.001910517
420297480.0 0.006375803 -0.0019236326
425297450.0 0.0062179836 -0.0020661641
430297420.0 0.0061518227 -0.002217453
435297390.0 0.0060949948 -0.0022024203
440297360.0 0.005948221 -0.0021072741
445297330.0 0.0060474887 -0.0021325375
450297300.0 0.0057396213 -0.0021770418
455297270.0 0.0055842158 -0.0022951736
460297240.0 0.0055749885 -0.0020567839
465297210.0 0.00557793 -0.0021615972
470297180.0 0.0054892581 -0.0018846532
475297150.0 0.0053637655 -0.0021107001
480297120.0 0.0054031186 -0.0019493372
485297090.0 0.0053046911 -0.0018588649
490297060.0 0.0051275012 -0.0020451692
495297030.0 0.0050426865 -0.0020892517
500297000.0 0.0049177217 -0.0020724414
505296970.0 0.0049607801 -0.0021234208
510296940.0 0.004884331 -0.0018647916
515296910.0 0.0046714491 -0.0017422468
520296880.0 0.0047112184 -0.0018395771
525296850.0 0.0048843154 -0.0017612357
530296820.0 0.0045331337 -0.0018806103
535296790.0 0.0047886145 -0.001704477
540296760.0 0.0046185296 -0.0019021767
545296730.0 0.0044231545 -0.0018086549
550296700.0 0.0044341814 -0.0018334215
555296670.0 0.0043741209 -0.0019440084
560296640.0 0.0044828511 -0.0018591961
565296610.0 0.0044417268 -0.0019364949
570296580.0 0.0043800186 -0.0021258568
575296550.0 0.0042330657 -0.0018780581
580296520.0 0.0042955932 -0.0017828296
585296490.0 0.0043140263 -0.0020394331
590296460.0 0.0042825288 -0.0016532754
595296430.0 0.0042326746 -0.0016067069
600296400.0 0.0041346933 -0.0016700916
605296370.0 0.0040911052 -0.0019084906
610296340.0 0.0039245852 -0.0016957563
615296310.0 0.0039677429 -0.0015584301
620296280.0 0.0041065259 -0.0018027852
625296250.0 0.0039465649 -0.0016971183
630296220.0 0.0035796633 -0.0014557009
635296190.0 0.0036948898 -0.0016918328
640296160.0 0.0038500313 -0.0015424812
645296130.0 0.003771867 -0.001328711
650296100.0 0.003812254 -0.001487252
655296070.0 0.0037515224 -0.0015722269
660296040.0 0.0038121804 -0.001413782
665296010.0 0.0036853542 -0.0014584284
670295980.0 0.0036369353 -0.0015625451
675295950.0 0.0037112975 -0.0013928158
680295920.0 0.0037577555 -0.0014737904
685295890.0 0.003725046 -0.0012193463
690295860.0 0.0034903081 -0.0012430648
695295830.0 0.003448022 -0.0011435671
700295800.0 0.0034112227 -0.0011516822
705295770.0 0.0035100344 -0.0011748719
710295740.0 0.0033947151 -0.000974387
715295710.0 0.0034607281 -0.0012211247
720295680.0 0.0032749428 -0.0011201939
725295650.0 0.0034240243 -0.0010535696
730295620.0 0.0032992589 -0.0009291926
735295590.0 0.0033673247 -0.0010533404
740295560.0 0.0034622397 -0.0008044529
745295530.0 0.0032679765 -0.0010779925
750295500.0 0.0033638392 -0.0010653996
755295470.0 0.0032400612 -0.0008669987
760295440.0 0.0033490164 -0.0009865293
765295410.0 0.0030806412 -0.0008238884
770295380.0 0.0033047066 -0.000895394
775295350.0 0.0031369243 -0.0008549788
780295320.0 0.0033322448 -0.0008115314
785295290.0 0.0032060167 -0.0007549488
790295260.0 0.0031691336 -0.0008190862
795295230.0 0.0030817645 -0.0007624314
800295200.0 0.0031101125 -0.0008498006
805295170.0 0.0032580998 -0.0006500784
810295140.0 0.0031047536 -0.0006491251
815295110.0 0.0032097587 -0.0008508774
820295080.0 0.0032491147 -0.0007655127
825295050.0 0.0030869202 -0.0006787803
830295020.0 0.0030166934 -0.0005335978
835294990.0 0.0029289266 -0.0007999817
840294960.0 0.0029099342 -0.0006665765
845294930.0 0.0030588821 -0.0006022772
850294900.0 0.0030543982 -0.0006549499
855294870.0 0.0029903184 -0.0006581271
860294840.0 0.0031647915 -0.0005097085
865294810.0 0.0031318748 -0.0005547486
870294780.0 0.0031116917 -0.0003466025
875294750.0 0.0030709408 -0.0006108981
880294720.0 0.0032319113 -0.0003181767
885294690.0 0.0032787027 -0.0003386852
890294660.0 0.0031483926 -0.0003394689
895294630.0 0.0032507527 -0.0003911379
900294600.0 0.0031503883 -0.0003390347
905294570.0 0.0032956094 -0.0003946577
910294540.0 0.003156331 -0.0001529605
915294510.0 0.0032057344 -0.0002734952
920294480.0 0.0032612931 -0.000243045
925294450.0 0.0031998804 -0.0003194679
930294420.0 0.003273911 -6.75044e-05
935294390.0 0.0033356665 -0.0001869806
940294360.0 0.0031177808 -0.0002325156
945294330.0 0.0032121412 -8.96071e-05
950294300.0 0.0031029706 -0.0002410396
955294270.0 0.0031122211 -0.0002501051
960294240.0 0.0032574386 -5.66581e-05
965294210.0 0.0033212749 -0.0002315096
970294180.0 0.0029727856 -0.0002042293
975294150.0 0.0030794545 -0.0001784942
980294120.0 0.0030458584 -0.0001324801
985294090.0 0.0031646084 -0.0001035513
990294060.0 0.0032611963 -0.000293428
995294030.0 0.0032346609 -0.0001357037
1000294000.0 0.0033106271 -6.71195e-05
1005293970.0 0.003451334 -7.27912e-05
1010293940.0 0.0031904645 2.08803e-05
1015293910.0 0.003241986 0.000129493
1020293880.0 0.0032860789 1.1742e-05
1025293850.0 0.0032559902 -7.07585e-05
1030293820.0 0.0032920383 -5.51401e-05
1035293790.0 0.0034503317 0.0001093791
1040293760.0 0.0034330788 6.74311e-05
1045293730.0 0.0035439232 0.0001685453
1050293700.0 0.0034003645 0.0001546971
1055293670.0 0.0034315341 -0.0001777427
1060293640.0 0.0034584438 -6.91055e-05
1065293610.0 0.0033837974 3.215e-06
1070293580.0 0.0033879599 0.0002757178
1075293550.0 0.0033937641 0.0001875337
1080293520.0 0.0035033426 0.0001536663
1085293490.0 0.0034866156 0.0001865623
1090293460.0 0.0036233661 0.0002523742
1095293430.0 0.0035071342 0.0001883045
1100293400.0 0.0035876658 0.0001458644
1105293370.0 0.0035322968 4.32189e-05
1110293340.0 0.0037706794 0.0001067061
1115293310.0 0.0036263559 0.0003401389
1120293280.0 0.0037834989 0.0005302849
1125293250.0 0.0038246086 0.000156304
1130293220.0 0.0036885731 0.0002558925
1135293190.0 0.0037560963 0.0004628253
1140293160.0 0.0034289192 0.0004336995
1145293130.0 0.0035758043 0.0005216649
1150293100.0 0.0035057372 0.0006162997
1155293070.0 0.0034356349 0.0004334227
1160293040.0 0.0035343674 0.0006527759
1165293010.0 0.0034413445 0.0005039353
1170292980.0 0.0034503136 0.0004343486
1175292950.0 0.0035985878 0.0005619737
1180292920.0 0.0036842695 0.0004712289
1185292890.0 0.0038765023 0.0003273884
1190292860.0 0.0041436337 0.0002538722
1195292830.0 0.0039485198 0.0004886654
1200292800.0 0.0040429824 0.0003019178
1205292770.0 0.0040800641 0.000600307
1210292740.0 0.0040943979 0.0003720048
1215292710.0 0.0041601338 0.0004065641
1220292680.0 0.004185434 0.000323598
1225292650.0 0.003990131 0.0003344496
1230292620.0 0.0039777949 0.000663336
1235292590.0 0.0041648342 0.0003668998
1240292560.0 0.004151951 0.0003236492
1245292530.0 0.0040583256 0.0005704152
1250292500.0 0.0043243146 0.0004208598
1255292470.0 0.0042392181 0.0001798855
1260292440.0 0.0042690272 0.00040525
1265292410.0 0.0044414896 0.0004889331
1270292380.0 0.0044147489 0.0004970352
1275292350.0 0.0043622635 0.0003067956
1280292320.0 0.0046414739 0.0005482651
1285292290.0 0.0043697661 0.0004800159
1290292260.0 0.0044072771 0.000229609
1295292230.0 0.0045259094 0.0004411105
1300292200.0 0.0045928879 0.0004484311
1305292170.0 0.0046398501 0.0002509067
1310292140.0 0.0049205019 0.0004934272
1315292110.0 0.0047587885 0.0003983447
1320292080.0 0.0048670988 0.000393461
1325292050.0 0.0045704905 0.0003539493
1330292020.0 0.0044701849 0.0004667444
1335291990.0 0.0046610668 0.0004072893
1340291960.0 0.0049746509 0.0005260735
1345291930.0 0.0047900438 0.0004940694
1350291900.0 0.0047737973 0.0004584953
1355291870.0 0.0048149349 0.0004203361
1360291840.0 0.0048689151 0.0002969737
1365291810.0 0.0047990673 0.0004209795
1370291780.0 0.0049429848 0.000557857
1375291750.0 0.0049206387 0.0005495267
1380291720.0 0.0049725898 0.0003708502
1385291690.0 0.005047558 0.0003395398
1390291660.0 0.0048765052 0.0003040363
1395291630.0 0.0050546396 0.0006564683
1400291600.0 0.0052152233 0.0004623567
1405291570.0 0.0050000095 0.0004106417
1410291540.0 0.0053938349 0.0004494887
1415291510.0 0.0053552445 0.0004369411
1420291480.0 0.0053052059 0.0005385841
1425291450.0 0.0053461956 0.0004087202
1430291420.0 0.0053234492 0.0003517736
1435291390.0 0.005175515 0.0005496631
1440291360.0 0.0051782626 0.0004750062
1445291330.0 0.0051047969 0.0005715869
1450291300.0 0.0052202755 0.0006548799
1455291270.0 0.0052468036 0.0003531508
1460291240.0 0.0054604384 0.0004991368
1465291210.0 0.0055128634 0.0005018746
1470291180.0 0.005427241 0.0004561676
1475291150.0 0.0054907865 0.0005690373
1480291120.0 0.005447783 0.0003696744
1485291090.0 0.0053630901 0.0002990776
1490291060.0 0.0057518289 0.0002684942
1495291030.0 0.0056654138 0.0003810311
1500291000.0 0.0055552228 0.0004300639
1505290970.0 0.0057100741 0.0003387013
1510290940.0 0.0058916701 0.0005600288
1515290910.0 0.0056952858 0.0007186461
1520290880.0 0.0057929335 0.0004063329
1525290850.0 0.0057414771 0.0003979175
1530290820.0 0.0057766719 0.0004589787
1535290790.0 0.0060021869 0.0003921021
1540290760.0 0.0059184933 0.0003777573
1545290730.0 0.0057708994 0.0006550713
1550290700.0 0.0058248934 0.000346456
1555290670.0 0.0060158734 0.0004964907
1560290640.0 0.0062685791 0.0002202226
1565290610.0 0.0061510229 0.0005318731
1570290580.0 0.0062894064 0.0003909128
1575290550.0 0.0059618759 0.0002187171
1580290520.0 0.0059854488 0.0004015027
1585290490.0 0.006265724 0.000361653
1590290460.0 0.0062130402 0.0001083507
1595290430.0 0.0061072904 0.000168452
1600290400.0 0.0062392605 0.0002164922
1605290370.0 0.0063904004 0.0005155474
1610290340.0 0.0063760953 0.0003192714
1615290310.0 0.0064741748 0.000278457
1620290280.0 0.0064015457 0.0002318107
1625290250.0 0.0063707126 0.0001309241
1630290220.0 0.0064027315 0.0003644959
1635290190.0 0.0064679404 0.0001063295
1640290160.0 0.006696571 0.0004886449
1645290130.0 0.0066247901 0.000402879
1650290100.0 0.0068019759 0.0002628925
1655290070.0 0.006783631 -1.02693e-05
1660290040.0 0.0066511776 0.0002715702
1665290010.0 0.0064578119 0.0001023338
1670289980.0 0.0067691044 0.0003426671
1675289950.0 0.0069191938 0.0002077194
1680289920.0 0.0066893331 0.0001407497
1685289890.0 0.0067331246 3.0916e-06
1690289860.0 0.0067093379 0.0001152631
1695289830.0 0.006864152 0.0003142912
1700289800.0 0.0069920686 0.0001156801
1705289770.0 0.0069195478 8.0209e-05
1710289740.0 0.0067900289 0.0002191236
1715289710.0 0.0068913091 0.0003302337
1720289680.0 0.0069395093 8.80542e-05
1725289650.0 0.0069612121 2.13538e-05
1730289620.0 0.0070895389 4.14454e-05
1735289590.0 0.0069738989 5.97461e-05
1740289560.0 0.0070730118 6.69942e-05
1745289530.0 0.0071122404 0.0001331564
1750289500.0 0.0072254418 -2.50321e-05
1755289470.0 0.0073788575 0.0002369883
1760289440.0 0.0073190248 1.28183e-05
1765289410.0 0.0073304747 6.29681e-05
1770289380.0 0.0072692484 0.0002343223
1775289350.0 0.0075118549 7.41893e-05
1780289320.0 0.0073146543 8.06244e-05
1785289290.0 0.0074008025 0.0001496112
1790289260.0 0.0074786053 0.0001123087
1795289230.0 0.0075987683 3.00116e-05
1800289200.0 0.0073289715 5.54249e-05
1805289170.0 0.0077737588 0.0003436421
1810289140.0 0.0075063263 4.49131e-05
1815289110.0 0.0075325107 -0.0002017473
1820289080.0 0.0074573855 8.9961e-05
1825289050.0 0.0075299506 0.0002360901
1830289020.0 0.0075643438 8.69843e-05
1835288990.0 0.0077499329 4.11557e-05
1840288960.0 0.0075885532 -0.0001650561
1845288930.0 0.007672466 7.02825e-05
1850288900.0 0.0076729392 -0.0001388062
1855288870.0 0.0077157801 -2.20269e-05
1860288840.0 0.0078083029 -7.499e-06
1865288810.0 0.0077424291 9.24426e-05
1870288780.0 0.0077709825 3.0771e-06
1875288750.0 0.0079470809 -9.56861e-05
1880288720.0 0.0076396348 -9.03901e-05
1885288690.0 0.0078132633 -0.0003245643
1890288660.0 0.0079081579 -0.0001361505
1895288630.0 0.0080493641 -0.0002708791
1900288600.0 0.008091873 0.0001095944
1905288570.0 0.0080833336 -0.0002288678
1910288540.0 0.0084385767 -0.0001833768
1915288510.0 0.0080696158 -0.0001428443
1920288480.0 0.0080986599 -0.0001393593
1925288450.0 0.0081745676 -0.0001464306
1930288420.0 0.008111386 -0.0001344959
1935288390.0 0.0082950487 -0.0002499005
1940288360.0 0.0082457881 -0.0001143736
1945288330.0 0.0082384615 -0.0001672854
1950288300.0 0.0083420132 -0.0001318273
1955288270.0 0.0082692358 -1.66856e-05
1960288240.0 0.008483075 -4.56079e-05
1965288210.0 0.0084215554 -0.00033766
1970288180.0 0.0081297775 -0.0001133018
1975288150.0 0.0083875726 -0.0002392464
1980288120.0 0.0082718634 -0.0002171363
1985288090.0 0.0084850263 -0.0001733214
1990288060.0 0.0084432799 -0.0002030216
1995288030.0 0.008571498 -8.09153e-05
2000288000.0 0.0084732744 -0.0001433491
2005287970.0 0.0084228125 -0.000140147
2010287940.0 0.0083286063 -0.0003679371
2015287910.0 0.0085683431 -1.6277e-05
2020287880.0 0.0085115451 -7.15615e-05
2025287850.0 0.0086146555 -0.0002993771
2030287820.0 0.0085811042 -0.0001852559
2035287790.0 0.0086584708 -0.0003934319
2040287760.0 0.0085763083 -2.60818e-05
2045287730.0 0.0085513559 1.04494e-05
2050287700.0 0.0086002145 -0.0001435183
2055287670.0 0.00872201 -0.0004220103
2060287640.0 0.008780112 -0.0001756948
2065287610.0 0.0086908537 -0.00034119
2070287580.0 0.008858778 -0.0003243484
2075287550.0 0.0087509531 -0.0003337531
2080287520.0 0.0088185529 -7.7886e-06
2085287490.0 0.0087273594 -0.0001254448
2090287460.0 0.0088851781 -0.000244358
2095287430.0 0.008890625 -0.0002309666
2100287400.0 0.008645185 -0.0003078373
2105287370.0 0.0089530639 -0.0001606283
2110287340.0 0.0089127713 -0.000347215
2115287310.0 0.0088783661 -0.0003112947
2120287280.0 0.008865523 -0.0003200198
2125287250.0 0.0090938965 -0.0004997788
2130287220.0 0.008960529 -0.0002874271
2135287190.0 0.0088669518 -0.0002520391
2140287160.0 0.0091025881 -0.0003581561
2145287130.0 0.0091220337 -0.0005100016
2150287100.0 0.0090185846 -0.0004577776
2155287070.0 0.0092099456 -0.0004706174
2160287040.0 0.0090688166 -0.0003915691
2165287010.0 0.008958198 -0.0004329353
2170286980.0 0.0090902308 -0.0003014237
2175286950.0 0.0091844862 -0.0004042648
2180286920.0 0.0091741754 -0.0005561719
2185286890.0 0.0090809515 -0.0002616072
2190286860.0 0.0091029317 -0.0005896345
2195286830.0 0.0091310958 -0.0004513731
2200286800.0 0.0090149672 -0.0003773667
2205286770.0 0.0093172198 -0.0003663038
2210286740.0 0.0091297328 -0.0005132532
2215286710.0 0.0093320922 -0.0005255621
2220286680.0 0.0095053135 -0.000432915
2225286650.0 0.0092541902 -0.0005908458
2230286620.0 0.0093656934 -0.0005032535
2235286590.0 0.0092134564 -0.0004632917
2240286560.0 0.0095080821 -0.0005143436
2245286530.0 0.009500608 -0.0005345157
2250286500.0 0.0094349811 -0.0005917043
2255286470.0 0.0093905816 -0.0004982382
2260286440.0 0.0095033831 -0.0005269187
2265286410.0 0.009459168 -0.000753642
2270286380.0 0.0095933412 -0.0006435291
2275286350.0 0.0094667235 -0.0007178327
2280286320.0 0.009539522 -0.000658983
2285286290.0 0.0093727949 -0.0006669771
2290286260.0 0.0093707332 -0.0007787893
2295286230.0 0.0094980216 -0.0008404437
2300286200.0 0.0094481351 -0.0006667752
2305286170.0 0.0094017684 -0.0008512842
2310286140.0 0.009646923 -0.00073443
2315286110.0 0.0095273472 -0.0007835593
2320286080.0 0.0096190261 -0.0007066071
2325286050.0 0.0095544083 -0.0006975606
2330286020.0 0.0094766463 -0.0007388285
2335285990.0 0.0094929206 -0.0007408611
2340285960.0 0.0094631559 -0.0008123542
2345285930.0 0.0096068892 -0.0007066359
2350285900.0 0.0094545569 -0.0005512481
2355285870.0 0.009596075 -0.0009256008
2360285840.0 0.0094143888 -0.0008189096
2365285810.0 0.0094702832 -0.0006635644
2370285780.0 0.0094999919 -0.0007515792
2375285750.0 0.0095570112 -0.0007468328
2380285720.0 0.0097179593 -0.0008423862
2385285690.0 0.0095731287 -0.0006960355
2390285660.0 0.0095559094 -0.000983646
2395285630.0 0.0095784235 -0.0007428063
2400285600.0 0.0096917282 -0.0010116527
2405285570.0 0.0093813731 -0.0009286422
2410285540.0 0.0094646036 -0.0008230023
2415285510.0 0.0097522016 -0.0009033785
2420285480.0 0.0096078275 -0.0007802907
2425285450.0 0.009664919 -0.0008613507
2430285420.0 0.0096838125 -0.0008658495
2435285390.0 0.0096110813 -0.0009815471
2440285360.0 0.0097354132 -0.0007989824
2445285330.0 0.0096585082 -0.0011183956
2450285300.0 0.0098627203 -0.001039754
2455285270.0 0.0098169774 -0.0009961184
2460285240.0 0.0098371422 -0.0008451893
2465285210.0 0.0094096435 -0.0009812886
2470285180.0 0.0094194119 -0.0010146307
2475285150.0 0.0095516543 -0.0010690563
2480285120.0 0.0097276013 -0.0009583919
2485285090.0 0.0095194729 -0.0011245305
2490285060.0 0.0096221697 -0.0010529979
2495285030.0 0.0094866655 -0.0011120641
2500285000.0 0.0097459777 -0.0009846272
2505284970.0 0.00957449 -0.0009760281
2510284940.0 0.0097537198 -0.0011314804
2515284910.0 0.0097626455 -0.0011279764
2520284880.0 0.0096874656 -0.0012275621
2525284850.0 0.0098659483 -0.0013816047
2530284820.0 0.0096273919 -0.0016006258
2535284790.0 0.0099317332 -0.0012454516
2540284760.0 0.0095651037 -0.0012497929
2545284730.0 0.0098453834 -0.001183176
2550284700.0 0.0098667302 -0.0013860429
2555284670.0 0.0098166226 -0.0014452005
2560284640.0 0.009834689 -0.0011630793
