!Created with skrf (http://scikit-rf.org).
# Hz S RI R 50.0 
!freq ReS11 ImS11
45000000.0 0.06931304931640625 0.08730697631835938
49995500.0 0.08832168579101562 0.08725738525390625
54991000.0 0.10856246948242188 0.08342361450195312
59986500.0 0.12750244140625 0.08502197265625
64982000.0 0.1486968994140625 0.07852935791015625
69977500.0 0.169891357421875 0.0662689208984375
74973000.0 0.1905059814453125 0.04990386962890625
79968500.0 0.20917510986328125 0.02927398681640625
84964000.0 0.22557830810546875 0.0048828125
89959500.0 0.2385711669921875 -0.0236968994140625
94955000.0 0.2471923828125 -0.0553131103515625
99950500.0 0.250823974609375 -0.0892486572265625
104946000.0 0.24948883056640625 -0.12494659423828125
109941500.0 0.24268341064453125 -0.16068267822265625
114937000.0 0.2303314208984375 -0.1969451904296875
119932500.0 0.2126617431640625 -0.231903076171875
124928000.0 0.1902008056640625 -0.26513671875
129923500.0 0.16278076171875 -0.295562744140625
134919000.0 0.13079833984375 -0.323211669921875
139914500.0 0.0944366455078125 -0.3473968505859375
144910000.0 0.0546875 -0.3675994873046875
149905500.0 0.0113677978515625 -0.3830718994140625
154901000.0 -0.034423828125 -0.3933563232421875
159896500.0 -0.0821533203125 -0.39813232421875
164892000.0 -0.13165283203125 -0.397125244140625
169887500.0 -0.1819305419921875 -0.3900299072265625
174883000.0 -0.2326202392578125 -0.3762969970703125
179878500.0 -0.2823028564453125 -0.355987548828125
184874000.0 -0.3302154541015625 -0.3291015625
189869500.0 -0.3758392333984375 -0.29571533203125
194865000.0 -0.4180450439453125 -0.2561187744140625
199860500.0 -0.455810546875 -0.21051025390625
204856000.0 -0.488006591796875 -0.1591949462890625
209851500.0 -0.513946533203125 -0.103271484375
214847000.0 -0.53363037109375 -0.04339599609375
219842500.0 -0.5458984375 0.019439697265625
224838000.0 -0.5504150390625 0.084136962890625
229833500.0 -0.547119140625 0.150115966796875
234829000.0 -0.53594970703125 0.215728759765625
239824500.0 -0.516937255859375 0.280517578125
244820000.0 -0.490142822265625 0.343353271484375
249815500.0 -0.45611572265625 0.4036865234375
254811000.0 -0.437744140625 0.44744873046875
259806500.0 -0.393218994140625 0.502166748046875
264802000.0 -0.341766357421875 0.5528564453125
269797500.0 -0.283538818359375 0.59832763671875
274793000.0 -0.2200927734375 0.6376953125
279788500.0 -0.150909423828125 0.670623779296875
284784000.0 -0.077117919921875 0.696197509765625
289779500.0 0.001007080078125 0.71368408203125
294775000.0 0.08270263671875 0.722686767578125
299770500.0 0.166595458984375 0.722686767578125
304766000.0 0.252105712890625 0.712432861328125
309761500.0 0.33740234375 0.6917724609375
314757000.0 0.42236328125 0.65960693359375
319752500.0 0.504241943359375 0.61663818359375
324748000.0 0.58172607421875 0.562591552734375
329743500.0 0.6539306640625 0.498382568359375
334739000.0 0.718292236328125 0.4244384765625
339734500.0 0.774078369140625 0.34112548828125
344730000.0 0.81890869140625 0.2508544921875
349725500.0 0.852691650390625 0.154510498046875
354721000.0 0.874420166015625 0.05352783203125
359716500.0 0.883148193359375 -0.049468994140625
364712000.0 0.878875732421875 -0.1534423828125
369707500.0 0.862518310546875 -0.2569580078125
374703000.0 0.833526611328125 -0.35772705078125
379698500.0 0.79315185546875 -0.455078125
384694000.0 0.74127197265625 -0.5469970703125
389689500.0 0.679290771484375 -0.6324462890625
394685000.0 0.6080322265625 -0.71075439453125
399680500.0 0.528717041015625 -0.781097412109375
404676000.0 0.441680908203125 -0.842803955078125
409671500.0 0.348175048828125 -0.897552490234375
414667000.0 0.249114990234375 -0.9384765625
419662500.0 0.144287109375 -0.97100830078125
424658000.0 0.034576416015625 -0.992340087890625
429653500.0 -0.0791015625 -1.00164794921875
434649000.0 -0.19573974609375 -0.99627685546875
439644500.0 -0.310882568359375 -0.9781494140625
444640000.0 -0.4254150390625 -0.9478759765625
449635500.0 -0.5377197265625 -0.904083251953125
454631000.0 -0.648101806640625 -0.847198486328125
459626500.0 -0.75347900390625 -0.7740478515625
464622000.0 -0.850250244140625 -0.686798095703125
469617500.0 -0.93621826171875 -0.585479736328125
474613000.0 -1.0093994140625 -0.47271728515625
479608500.0 -1.06793212890625 -0.34967041015625
484604000.0 -1.10955810546875 -0.21893310546875
489599500.0 -1.13336181640625 -0.0830078125
494595000.0 -1.138916015625 0.05499267578125
499590500.0 -1.12579345703125 0.19134521484375
504586000.0 -1.09564208984375 0.323974609375
509581500.0 -1.0484619140625 0.4493408203125
514577000.0 -0.98724365234375 0.56634521484375
519572500.0 -0.91339111328125 0.672821044921875
524568000.0 -0.830352783203125 0.768157958984375
529563500.0 -0.740081787109375 0.8516845703125
534559000.0 -0.6444091796875 0.924774169921875
539554500.0 -0.54400634765625 0.98779296875
544550000.0 -0.4400634765625 1.0421142578125
549545500.0 -0.3319091796875 1.088134765625
554541000.0 -0.21734619140625 1.12591552734375
559536500.0 -0.09930419921875 1.1539306640625
564532000.0 0.0245361328125 1.17059326171875
569527500.0 0.1527099609375 1.1748046875
574523000.0 0.283447265625 1.16473388671875
579518500.0 0.41522216796875 1.1407470703125
584514000.0 0.54638671875 1.10125732421875
589509500.0 0.6754150390625 1.0460205078125
594505000.0 0.800079345703125 0.974853515625
599500500.0 0.917999267578125 0.887664794921875
604496000.0 1.02740478515625 0.78485107421875
609491500.0 1.12591552734375 0.6668701171875
614487000.0 1.21002197265625 0.53485107421875
619482500.0 1.27874755859375 0.390380859375
624478000.0 1.32794189453125 0.236328125
629473500.0 1.3570556640625 0.074951171875
634469000.0 1.364013671875 -0.090087890625
639464500.0 1.3489990234375 -0.2550048828125
644460000.0 1.31182861328125 -0.41705322265625
649455500.0 1.253662109375 -0.57196044921875
654451000.0 1.17633056640625 -0.71728515625
659446500.0 1.08135986328125 -0.85015869140625
664442000.0 0.9730224609375 -0.968994140625
669437500.0 0.8525390625 -1.072265625
674433000.0 0.7225341796875 -1.1590576171875
679428500.0 0.5855712890625 -1.22918701171875
684424000.0 0.44439697265625 -1.2830810546875
689419500.0 0.30023193359375 -1.32135009765625
694415000.0 0.15478515625 -1.34405517578125
699410500.0 0.00958251953125 -1.35211181640625
704406000.0 -0.13446044921875 -1.3470458984375
709401500.0 -0.2769775390625 -1.32794189453125
714397000.0 -0.41741943359375 -1.29583740234375
719392500.0 -0.5546875 -1.25048828125
724388000.0 -0.6888427734375 -1.19317626953125
729383500.0 -0.81854248046875 -1.12213134765625
734379000.0 -0.9423828125 -1.03662109375
739374500.0 -1.05975341796875 -0.9373779296875
744370000.0 -1.1688232421875 -0.8240966796875
749365500.0 -1.26812744140625 -0.6978759765625
754361000.0 -1.35467529296875 -0.55645751953125
759356500.0 -1.42578125 -0.4024658203125
764352000.0 -1.4791259765625 -0.2374267578125
769347500.0 -1.51251220703125 -0.062744140625
774343000.0 -1.52325439453125 0.11859130859375
779338500.0 -1.51025390625 0.302978515625
784334000.0 -1.4732666015625 0.48577880859375
789329500.0 -1.408935546875 0.66357421875
794325000.0 -1.32171630859375 0.8316650390625
799320500.0 -1.212890625 0.98626708984375
804316000.0 -1.08489990234375 1.12408447265625
809311500.0 -0.94140625 1.2425537109375
814307000.0 -0.78631591796875 1.34014892578125
819302500.0 -0.62274169921875 1.41668701171875
824298000.0 -0.4532470703125 1.4710693359375
829293500.0 -0.283203125 1.5057373046875
834289000.0 -0.1126708984375 1.51953125
839284500.0 0.0535888671875 1.51495361328125
844280000.0 0.15692138671875 1.522705078125
849275500.0 0.31768798828125 1.493408203125
854271000.0 0.47344970703125 1.44921875
859266500.0 0.62310791015625 1.3900146484375
864262000.0 0.76580810546875 1.31756591796875
869257500.0 0.901611328125 1.23223876953125
874253000.0 1.0283203125 1.1341552734375
879248500.0 1.14630126953125 1.02471923828125
884244000.0 1.25396728515625 0.90399169921875
889239500.0 1.35205078125 0.7718505859375
894235000.0 1.43731689453125 0.6292724609375
899230500.0 1.51055908203125 0.47613525390625
904226000.0 1.5699462890625 0.31201171875
909221500.0 1.61236572265625 0.137451171875
914217000.0 1.6348876953125 -0.0457763671875
919212500.0 1.6353759765625 -0.23492431640625
924208000.0 1.61181640625 -0.427001953125
929203500.0 1.56317138671875 -0.61785888671875
934199000.0 1.48956298828125 -0.803466796875
939194500.0 1.390869140625 -0.97900390625
944190000.0 1.26953125 -1.14208984375
949185500.0 1.1268310546875 -1.2872314453125
954181000.0 0.9666748046875 -1.41290283203125
959176500.0 0.79254150390625 -1.51544189453125
964172000.0 0.60809326171875 -1.593994140625
969167500.0 0.41796875 -1.64837646484375
974163000.0 0.22479248046875 -1.67840576171875
979158500.0 0.03302001953125 -1.68609619140625
984154000.0 -0.15557861328125 -1.67144775390625
989149500.0 -0.33819580078125 -1.63690185546875
994145000.0 -0.51287841796875 -1.5838623046875
999140500.0 -0.67974853515625 -1.51483154296875
1004136000.0 -0.83740234375 -1.4295654296875
1009131500.0 -0.98394775390625 -1.33062744140625
1014127000.0 -1.12042236328125 -1.21868896484375
1019122500.0 -1.24542236328125 -1.09375
1024118000.0 -1.35833740234375 -0.9578857421875
1029113500.0 -1.4586181640625 -0.810302734375
1034109000.0 -1.54510498046875 -0.65191650390625
1039104500.0 -1.61590576171875 -0.4830322265625
1044100000.0 -1.66937255859375 -0.30596923828125
1049095500.0 -1.70416259765625 -0.1202392578125
1054091000.0 -1.71929931640625 0.071533203125
1059086500.0 -1.71209716796875 0.2672119140625
1064082000.0 -1.68145751953125 0.46343994140625
1069077500.0 -1.62701416015625 0.6583251953125
1074073000.0 -1.5474853515625 0.8465576171875
1079068500.0 -1.4443359375 1.02618408203125
1084064000.0 -1.31781005859375 1.1922607421875
1089059500.0 -1.17041015625 1.3419189453125
1094055000.0 -1.0048828125 1.47100830078125
1099050500.0 -0.82415771484375 1.57867431640625
1104046000.0 -0.63238525390625 1.6607666015625
1109041500.0 -0.4332275390625 1.71820068359375
1114037000.0 -0.23089599609375 1.75030517578125
1119032500.0 -0.0279541015625 1.75665283203125
1124028000.0 0.17041015625 1.739990234375
1129023500.0 0.36334228515625 1.7010498046875
1134019000.0 0.54803466796875 1.64208984375
1139014500.0 0.72186279296875 1.5633544921875
1144010000.0 0.8848876953125 1.4686279296875
1149005500.0 1.0347900390625 1.358154296875
1154001000.0 1.17193603515625 1.234375
1158996500.0 1.29498291015625 1.09912109375
1163992000.0 1.4029541015625 0.9525146484375
1168987500.0 1.49530029296875 0.796142578125
1173983000.0 1.57257080078125 0.63262939453125
1178978500.0 1.6322021484375 0.4610595703125
1183974000.0 1.6754150390625 0.28363037109375
1188969500.0 1.70068359375 0.10235595703125
1193965000.0 1.70648193359375 -0.08197021484375
1198960500.0 1.6934814453125 -0.26824951171875
1203956000.0 1.66015625 -0.45281982421875
1208951500.0 1.6065673828125 -0.63507080078125
1213947000.0 1.53289794921875 -0.81298828125
1218942500.0 1.438720703125 -0.982666015625
1223938000.0 1.32464599609375 -1.1416015625
1228933500.0 1.192138671875 -1.2884521484375
1233929000.0 1.0416259765625 -1.41943359375
1238924500.0 0.87689208984375 -1.5328369140625
1243920000.0 0.69842529296875 -1.626708984375
1248915500.0 0.50927734375 -1.6986083984375
1253911000.0 0.31243896484375 -1.7474365234375
1258906500.0 0.1104736328125 -1.77252197265625
1263902000.0 -0.09295654296875 -1.773681640625
1268897500.0 -0.29608154296875 -1.75299072265625
1273893000.0 -0.49078369140625 -1.7052001953125
1278888500.0 -0.67962646484375 -1.63739013671875
1283884000.0 -0.8587646484375 -1.5477294921875
1288879500.0 -1.0257568359375 -1.4388427734375
1293875000.0 -1.17864990234375 -1.3121337890625
1298870500.0 -1.3153076171875 -1.1700439453125
1303866000.0 -1.4344482421875 -1.0146484375
1308861500.0 -1.53631591796875 -0.8468017578125
1313857000.0 -1.6185302734375 -0.66937255859375
1318852500.0 -1.67950439453125 -0.48455810546875
1323848000.0 -1.7193603515625 -0.2955322265625
1328843500.0 -1.73907470703125 -0.10308837890625
1333839000.0 -1.7373046875 0.08966064453125
1338834500.0 -1.71380615234375 0.280517578125
1343830000.0 -1.670654296875 0.46673583984375
1348825500.0 -1.6068115234375 0.64739990234375
1353821000.0 -1.5242919921875 0.8184814453125
1358816500.0 -1.423828125 0.97991943359375
1363812000.0 -1.30718994140625 1.12921142578125
1368807500.0 -1.1748046875 1.26458740234375
1373803000.0 -1.02935791015625 1.38470458984375
1378798500.0 -0.87225341796875 1.48834228515625
1383794000.0 -0.70452880859375 1.57476806640625
1388789500.0 -0.5286865234375 1.64349365234375
1393785000.0 -0.34564208984375 1.6932373046875
1398780500.0 -0.1585693359375 1.7227783203125
1403776000.0 0.03131103515625 1.73211669921875
1408771500.0 0.22222900390625 1.72210693359375
1413767000.0 0.411376953125 1.6905517578125
1418762500.0 0.59832763671875 1.63861083984375
1423758000.0 0.7789306640625 1.5655517578125
1428753500.0 0.9520263671875 1.47210693359375
1433749000.0 1.11468505859375 1.3590087890625
1438744500.0 1.26434326171875 1.226318359375
1443740000.0 1.39935302734375 1.0760498046875
1448735500.0 1.515380859375 0.90966796875
1453731000.0 1.61083984375 0.72930908203125
1458726500.0 1.68450927734375 0.53759765625
1463722000.0 1.73284912109375 0.3392333984375
1468717500.0 1.7568359375 0.13555908203125
1473713000.0 1.75482177734375 -0.0684814453125
1478708500.0 1.72796630859375 -0.26934814453125
1483704000.0 1.6761474609375 -0.46337890625
1488699500.0 1.60321044921875 -0.6475830078125
1493695000.0 1.50909423828125 -0.81982421875
1498690500.0 1.3974609375 -0.9766845703125
1503686000.0 1.2706298828125 -1.117431640625
1508681500.0 1.13116455078125 -1.24066162109375
1513677000.0 0.98199462890625 -1.34588623046875
1518672500.0 0.82537841796875 -1.4339599609375
1523668000.0 0.66290283203125 -1.5035400390625
1528663500.0 0.4974365234375 -1.55596923828125
1533659000.0 0.32977294921875 -1.59100341796875
1538654500.0 0.160888671875 -1.60931396484375
1543650000.0 -0.00726318359375 -1.61236572265625
1548645500.0 -0.17437744140625 -1.5994873046875
1553641000.0 -0.33880615234375 -1.57086181640625
1558636500.0 -0.5001220703125 -1.52655029296875
1563632000.0 -0.6573486328125 -1.46728515625
1568627500.0 -0.80908203125 -1.39239501953125
1573623000.0 -0.95416259765625 -1.30218505859375
1578618500.0 -1.0904541015625 -1.1961669921875
1583614000.0 -1.216796875 -1.0758056640625
1588609500.0 -1.32958984375 -0.9405517578125
1593605000.0 -1.42962646484375 -0.7916259765625
1598600500.0 -1.51318359375 -0.6309814453125
1603596000.0 -1.577392578125 -0.4599609375
1608591500.0 -1.621826171875 -0.28070068359375
1613587000.0 -1.644775390625 -0.09661865234375
1618582500.0 -1.64508056640625 0.08905029296875
1623578000.0 -1.6226806640625 0.2728271484375
1628573500.0 -1.57861328125 0.4532470703125
1633569000.0 -1.51312255859375 0.625732421875
1638564500.0 -1.4285888671875 0.78790283203125
1643560000.0 -1.3262939453125 0.9371337890625
1648555500.0 -1.208740234375 1.07183837890625
1653551000.0 -1.0792236328125 1.1917724609375
1658546500.0 -0.939453125 1.2938232421875
1663542000.0 -0.79150390625 1.3802490234375
1668537500.0 -0.6378173828125 1.44915771484375
1673533000.0 -0.47979736328125 1.5018310546875
1678528500.0 -0.319091796875 1.538330078125
1683524000.0 -0.1578369140625 1.55902099609375
1688519500.0 0.003662109375 1.56475830078125
1693515000.0 0.1649169921875 1.555908203125
1698510500.0 0.3250732421875 1.53167724609375
1703506000.0 0.48272705078125 1.49298095703125
1708501500.0 0.6368408203125 1.43994140625
1713497000.0 0.78692626953125 1.3719482421875
1718492500.0 0.93243408203125 1.28839111328125
1723488000.0 1.0706787109375 1.18878173828125
1728483500.0 1.20098876953125 1.0732421875
1733479000.0 1.32061767578125 0.94189453125
1738474500.0 1.42657470703125 0.7950439453125
1743470000.0 1.51678466796875 0.63330078125
1748465500.0 1.58734130859375 0.4588623046875
1753461000.0 1.63739013671875 0.27374267578125
1758456500.0 1.6634521484375 0.0816650390625
1763452000.0 1.66326904296875 -0.11285400390625
1768447500.0 1.637939453125 -0.30706787109375
1773443000.0 1.5872802734375 -0.4959716796875
1778438500.0 1.51275634765625 -0.6754150390625
1783434000.0 1.4166259765625 -0.84130859375
1788429500.0 1.3018798828125 -0.9912109375
1793425000.0 1.1719970703125 -1.12347412109375
1798420500.0 1.03021240234375 -1.23626708984375
1803416000.0 0.87969970703125 -1.33074951171875
1808411500.0 0.7239990234375 -1.4051513671875
1813407000.0 0.56488037109375 -1.46197509765625
1818402500.0 0.40460205078125 -1.50146484375
1823398000.0 0.2442626953125 -1.52471923828125
1828393500.0 0.0858154296875 -1.532958984375
1833389000.0 -0.07086181640625 -1.527099609375
1838384500.0 -0.22528076171875 -1.50738525390625
1843380000.0 -0.37615966796875 -1.47515869140625
1848375500.0 -0.5244140625 -1.429443359375
1853371000.0 -0.6685791015625 -1.3707275390625
1858366500.0 -0.80816650390625 -1.29876708984375
1863362000.0 -0.94219970703125 -1.21295166015625
1868357500.0 -1.07049560546875 -1.1134033203125
1873353000.0 -1.189208984375 -0.99896240234375
1878348500.0 -1.298828125 -0.87060546875
1883344000.0 -1.39501953125 -0.72796630859375
1888339500.0 -1.476318359375 -0.5723876953125
1893335000.0 -1.5391845703125 -0.40484619140625
1898330500.0 -1.582763671875 -0.22747802734375
1903326000.0 -1.603271484375 -0.0440673828125
1908321500.0 -1.60003662109375 0.14154052734375
1913317000.0 -1.57293701171875 0.32684326171875
1918312500.0 -1.52099609375 0.5067138671875
1923308000.0 -1.44732666015625 0.6768798828125
1928303500.0 -1.3529052734375 0.8349609375
1933299000.0 -1.2401123046875 0.97735595703125
1938294500.0 -1.11309814453125 1.103271484375
1943290000.0 -0.97515869140625 1.2099609375
1948285500.0 -0.8284912109375 1.29864501953125
1953281000.0 -0.67669677734375 1.36798095703125
1958276500.0 -0.52166748046875 1.42041015625
1963272000.0 -0.3658447265625 1.455322265625
1968267500.0 -0.21044921875 1.47418212890625
1973263000.0 -0.05682373046875 1.47784423828125
1978258500.0 0.0948486328125 1.4677734375
1983254000.0 0.2431640625 1.44451904296875
1988249500.0 0.3878173828125 1.4071044921875
1993245000.0 0.52813720703125 1.3577880859375
1998240500.0 0.6627197265625 1.29583740234375
2003236000.0 0.79229736328125 1.22125244140625
2008231500.0 0.91448974609375 1.13482666015625
2013227000.0 1.02886962890625 1.03472900390625
2018222500.0 1.13397216796875 0.92364501953125
2023218000.0 1.22772216796875 0.801025390625
2028213500.0 1.30963134765625 0.66790771484375
2033209000.0 1.37713623046875 0.525390625
2038204500.0 1.42840576171875 0.37432861328125
2043200000.0 1.46307373046875 0.2181396484375
2048195500.0 1.479736328125 0.0570068359375
2053191000.0 1.47735595703125 -0.10504150390625
2058186500.0 1.45654296875 -0.2655029296875
2063182000.0 1.41717529296875 -0.4222412109375
2068177500.0 1.3602294921875 -0.57269287109375
2073173000.0 1.286865234375 -0.71502685546875
2078168500.0 1.19927978515625 -0.84698486328125
2083164000.0 1.09844970703125 -0.96728515625
2088159500.0 0.9864501953125 -1.0753173828125
2093155000.0 0.86492919921875 -1.170166015625
2098150500.0 0.73602294921875 -1.25091552734375
2103146000.0 0.60076904296875 -1.31787109375
2108141500.0 0.46044921875 -1.37115478515625
2113137000.0 0.31634521484375 -1.41033935546875
2118132500.0 0.169921875 -1.4359130859375
2123128000.0 0.0213623046875 -1.44744873046875
2128123500.0 -0.1275634765625 -1.4449462890625
2133119000.0 -0.27691650390625 -1.428466796875
2138114500.0 -0.42474365234375 -1.3970947265625
2143110000.0 -0.57061767578125 -1.35137939453125
2148105500.0 -0.71392822265625 -1.290771484375
2153101000.0 -0.8516845703125 -1.214599609375
2158096500.0 -0.98284912109375 -1.123046875
2163092000.0 -1.1051025390625 -1.015869140625
2168087500.0 -1.2164306640625 -0.89447021484375
2173083000.0 -1.31427001953125 -0.75848388671875
2178078500.0 -1.39752197265625 -0.6103515625
2183074000.0 -1.4627685546875 -0.45111083984375
2188069500.0 -1.50836181640625 -0.28448486328125
2193065000.0 -1.5335693359375 -0.1121826171875
