!Created with skrf (http://scikit-rf.org).
# Hz S RI R 50.0 
!freq ReS11 ImS11
45000000.0 -0.0039026737213134766 -0.0007904767990112305
49995500.0 -0.004182577133178711 -0.0003230571746826172
54991000.0 -0.004378080368041992 0.00029397010803222656
59986500.0 -0.004736900329589844 0.0007228851318359375
64982000.0 -0.004886150360107422 0.0011909008026123047
69977500.0 -0.004800558090209961 0.0017888545989990234
74973000.0 -0.004939079284667969 0.002457141876220703
79968500.0 -0.0047473907470703125 0.0030775070190429688
84964000.0 -0.004422903060913086 0.003742694854736328
89959500.0 -0.0039520263671875 0.004467487335205078
94955000.0 -0.0036602020263671875 0.005032062530517578
99950500.0 -0.002996683120727539 0.005561113357543945
104946000.0 -0.0022678375244140625 0.005896329879760742
109941500.0 -0.001708984375 0.00630640983581543
114937000.0 -0.0009596347808837891 0.0065937042236328125
119932500.0 -9.131431579589844e-05 0.006838560104370117
124928000.0 0.00079345703125 0.0068662166595458984
129923500.0 0.00173187255859375 0.006836652755737305
134919000.0 0.0025277137756347656 0.006662130355834961
139914500.0 0.0033164024353027344 0.006346940994262695
144910000.0 0.0041310787200927734 0.006043434143066406
149905500.0 0.004730701446533203 0.005474567413330078
154901000.0 0.005525350570678711 0.004967212677001953
159896500.0 0.005952358245849609 0.004293680191040039
164892000.0 0.006534576416015625 0.0036296844482421875
169887500.0 0.0069811344146728516 0.002822399139404297
174883000.0 0.007276296615600586 0.001983642578125
179878500.0 0.007538318634033203 0.0011692047119140625
184874000.0 0.007610797882080078 0.00027060508728027344
189869500.0 0.0076215267181396484 -0.0006232261657714844
194865000.0 0.0076448917388916016 -0.0014307498931884766
199860500.0 0.007299184799194336 -0.002262592315673828
204856000.0 0.007062196731567383 -0.0031309127807617188
209851500.0 0.00664520263671875 -0.003788471221923828
214847000.0 0.0062220096588134766 -0.004566192626953125
219842500.0 0.005578756332397461 -0.0051727294921875
224838000.0 0.005090951919555664 -0.005712985992431641
229833500.0 0.0044133663177490234 -0.006270885467529297
234829000.0 0.0037724971771240234 -0.006680011749267578
239824500.0 0.003105640411376953 -0.007064104080200195
244820000.0 0.0023353099822998047 -0.007378339767456055
249815500.0 0.0015306472778320312 -0.007512092590332031
254811000.0 0.0010323524475097656 -0.007791042327880859
259806500.0 0.000293731689453125 -0.007870674133300781
264802000.0 -0.00048828125 -0.007886886596679688
269797500.0 -0.0012345314025878906 -0.0077953338623046875
274793000.0 -0.002018451690673828 -0.007611989974975586
279788500.0 -0.0026619434356689453 -0.0073528289794921875
284784000.0 -0.003330230712890625 -0.007097959518432617
289779500.0 -0.0041697025299072266 -0.006791353225708008
294775000.0 -0.0048215389251708984 -0.006392240524291992
299770500.0 -0.005509853363037109 -0.005861997604370117
304766000.0 -0.006104469299316406 -0.005404233932495117
309761500.0 -0.00666499137878418 -0.004785299301147461
314757000.0 -0.00708770751953125 -0.0041964054107666016
319752500.0 -0.007475614547729492 -0.003526449203491211
324748000.0 -0.007811069488525391 -0.002752542495727539
329743500.0 -0.00806427001953125 -0.00188446044921875
334739000.0 -0.008229732513427734 -0.001338958740234375
339734500.0 -0.008358001708984375 -0.00034999847412109375
344730000.0 -0.00850057601928711 0.0003323554992675781
349725500.0 -0.008433818817138672 0.0011906623840332031
354721000.0 -0.008374214172363281 0.002021312713623047
359716500.0 -0.008113861083984375 0.0029578208923339844
364712000.0 -0.007912158966064453 0.0037360191345214844
369707500.0 -0.007620573043823242 0.0045719146728515625
374703000.0 -0.007158756256103516 0.005349159240722656
379698500.0 -0.0067138671875 0.006025791168212891
384694000.0 -0.006071329116821289 0.006711244583129883
389689500.0 -0.005419731140136719 0.007277965545654297
394685000.0 -0.0047855377197265625 0.007918834686279297
399680500.0 -0.00391387939453125 0.008364200592041016
404676000.0 -0.0031270980834960938 0.00887155532836914
409671500.0 -0.0022225379943847656 0.009078502655029297
414667000.0 -0.0013709068298339844 0.009569644927978516
419662500.0 -0.00039005279541015625 0.009730815887451172
424658000.0 0.0006289482116699219 0.009799480438232422
429653500.0 0.0016236305236816406 0.009691715240478516
434649000.0 0.00260162353515625 0.0095672607421875
439644500.0 0.0035538673400878906 0.009435653686523438
444640000.0 0.004446983337402344 0.009013652801513672
449635500.0 0.0054874420166015625 0.008581161499023438
454631000.0 0.006373882293701172 0.008164405822753906
459626500.0 0.007218599319458008 0.0075986385345458984
464622000.0 0.008026123046875 0.0068378448486328125
469617500.0 0.008726119995117188 0.006108283996582031
474613000.0 0.009473800659179688 0.005014896392822266
479608500.0 0.010022640228271484 0.004122257232666016
484604000.0 0.010536670684814453 0.003089427947998047
489599500.0 0.010799407958984375 0.0019621849060058594
494595000.0 0.011128902435302734 0.00092315673828125
499590500.0 0.011275291442871094 -0.00019979476928710938
504586000.0 0.011313915252685547 -0.0012989044189453125
509581500.0 0.011176586151123047 -0.0025281906127929688
514577000.0 0.010999679565429688 -0.0037255287170410156
519572500.0 0.010516643524169922 -0.004808902740478516
524568000.0 0.010049819946289062 -0.005948543548583984
529563500.0 0.009554386138916016 -0.006939411163330078
534559000.0 0.008828163146972656 -0.007935047149658203
539554500.0 0.008066654205322266 -0.008854389190673828
544550000.0 0.007214069366455078 -0.009786605834960938
549545500.0 0.006352424621582031 -0.010456085205078125
554541000.0 0.0052585601806640625 -0.011134147644042969
559536500.0 0.0040760040283203125 -0.011820793151855469
564532000.0 0.00299072265625 -0.012337684631347656
569527500.0 0.0017995834350585938 -0.012660026550292969
574523000.0 0.0004792213439941406 -0.012955188751220703
579518500.0 -0.0008673667907714844 -0.012988090515136719
584514000.0 -0.0022039413452148438 -0.01306295394897461
589509500.0 -0.003620624542236328 -0.012852668762207031
594505000.0 -0.004977226257324219 -0.012395858764648438
599500500.0 -0.006264686584472656 -0.011988162994384766
604496000.0 -0.007521152496337891 -0.011392593383789062
609491500.0 -0.008821964263916016 -0.010689735412597656
614487000.0 -0.009929656982421875 -0.009758949279785156
619482500.0 -0.010866165161132812 -0.008812427520751953
624478000.0 -0.011878490447998047 -0.007627010345458984
629473500.0 -0.012768745422363281 -0.006483554840087891
634469000.0 -0.01337289810180664 -0.005166053771972656
639464500.0 -0.014027118682861328 -0.0037221908569335938
644460000.0 -0.01436471939086914 -0.0023174285888671875
649455500.0 -0.0148162841796875 -0.0008740425109863281
654451000.0 -0.0148468017578125 0.0007309913635253906
659446500.0 -0.014791488647460938 0.0022687911987304688
664442000.0 -0.014608383178710938 0.0038461685180664062
669437500.0 -0.014286518096923828 0.005422115325927734
674433000.0 -0.013714790344238281 0.006916522979736328
679428500.0 -0.012969970703125 0.008327960968017578
684424000.0 -0.01217794418334961 0.009705543518066406
689419500.0 -0.011192798614501953 0.010987281799316406
694415000.0 -0.01007699966430664 0.012168407440185547
699410500.0 -0.00879812240600586 0.013185977935791016
704406000.0 -0.007414817810058594 0.01415252685546875
709401500.0 -0.005997180938720703 0.014849662780761719
714397000.0 -0.00439453125 0.015512466430664062
719392500.0 -0.0027952194213867188 0.016023635864257812
724388000.0 -0.00107574462890625 0.016242027282714844
729383500.0 0.0005693435668945312 0.016420364379882812
734379000.0 0.0021810531616210938 0.016338348388671875
739374500.0 0.0039691925048828125 0.01605987548828125
744370000.0 0.0055789947509765625 0.01565837860107422
749365500.0 0.0072021484375 0.01511526107788086
754361000.0 0.008809089660644531 0.014416217803955078
759356500.0 0.010328292846679688 0.013524055480957031
764352000.0 0.011751651763916016 0.012434959411621094
769347500.0 0.01306772232055664 0.011235237121582031
774343000.0 0.01421499252319336 0.009877681732177734
779338500.0 0.01510477066040039 0.008457660675048828
784334000.0 0.01606273651123047 0.0068492889404296875
789329500.0 0.016775131225585938 0.005161285400390625
794325000.0 0.017210960388183594 0.0034265518188476562
799320500.0 0.017569541931152344 0.0016307830810546875
804316000.0 0.017704010009765625 -8.296966552734375e-05
809311500.0 0.0175628662109375 -0.00194549560546875
814307000.0 0.017419815063476562 -0.0038270950317382812
819302500.0 0.01697254180908203 -0.0055751800537109375
824298000.0 0.016391754150390625 -0.007267951965332031
829293500.0 0.01562976837158203 -0.008871078491210938
834289000.0 0.014678955078125 -0.010653972625732422
839284500.0 0.013626575469970703 -0.012053966522216797
844280000.0 0.012998580932617188 -0.012968063354492188
849275500.0 0.011668682098388672 -0.014293193817138672
854271000.0 0.010173797607421875 -0.015360355377197266
859266500.0 0.008630752563476562 -0.016432762145996094
864262000.0 0.00701141357421875 -0.01736927032470703
869257500.0 0.005221366882324219 -0.01787090301513672
874253000.0 0.0035381317138671875 -0.01861858367919922
879248500.0 0.00171661376953125 -0.018756866455078125
884244000.0 -0.00021076202392578125 -0.018901824951171875
889239500.0 -0.0021734237670898438 -0.018861770629882812
894235000.0 -0.004012107849121094 -0.01861858367919922
899230500.0 -0.005916595458984375 -0.018319129943847656
904226000.0 -0.007740974426269531 -0.017642974853515625
909221500.0 -0.009639739990234375 -0.016847610473632812
914217000.0 -0.011269569396972656 -0.01601886749267578
919212500.0 -0.012885570526123047 -0.014758110046386719
924208000.0 -0.014253616333007812 -0.013485908508300781
929203500.0 -0.01573657989501953 -0.01201629638671875
934199000.0 -0.016852378845214844 -0.010413169860839844
939194500.0 -0.017864227294921875 -0.008770942687988281
944190000.0 -0.01878833770751953 -0.006922721862792969
949185500.0 -0.01945781707763672 -0.005023956298828125
954181000.0 -0.019947052001953125 -0.0029573440551757812
959176500.0 -0.02014923095703125 -0.0009641647338867188
964172000.0 -0.020137786865234375 0.0011444091796875
969167500.0 -0.02007770538330078 0.0031490325927734375
974163000.0 -0.019596099853515625 0.0051441192626953125
979158500.0 -0.019128799438476562 0.00714874267578125
984154000.0 -0.01839160919189453 0.009084701538085938
989149500.0 -0.01738739013671875 0.011006355285644531
994145000.0 -0.016251564025878906 0.012751579284667969
999140500.0 -0.014840126037597656 0.014239311218261719
1004136000.0 -0.013463020324707031 0.01569080352783203
1009131500.0 -0.01177215576171875 0.017034530639648438
1014127000.0 -0.010048866271972656 0.01803874969482422
1019122500.0 -0.008225440979003906 0.019120216369628906
1024118000.0 -0.0061893463134765625 0.019832611083984375
1029113500.0 -0.004223823547363281 0.020479202270507812
1034109000.0 -0.0021181106567382812 0.0208282470703125
1039104500.0 8.58306884765625e-06 0.020964622497558594
1044100000.0 0.0020742416381835938 0.02082538604736328
1049095500.0 0.0042209625244140625 0.020565032958984375
1054091000.0 0.006312370300292969 0.01994037628173828
1059086500.0 0.008157730102539062 0.01946544647216797
1064082000.0 0.010228157043457031 0.01848316192626953
1069077500.0 0.011865615844726562 0.01732921600341797
1074073000.0 0.013716697692871094 0.016109466552734375
1079068500.0 0.015224456787109375 0.014714717864990234
1084064000.0 0.016780853271484375 0.013087272644042969
1089059500.0 0.018044471740722656 0.011325836181640625
1094055000.0 0.018937110900878906 0.009568214416503906
1099050500.0 0.0199127197265625 0.0076160430908203125
1104046000.0 0.02044391632080078 0.0055294036865234375
1109041500.0 0.02110767364501953 0.0034770965576171875
1114037000.0 0.021274566650390625 0.0013103485107421875
1119032500.0 0.021272659301757812 -0.0008525848388671875
1124028000.0 0.02105426788330078 -0.0029478073120117188
1129023500.0 0.020728111267089844 -0.0050811767578125
1134019000.0 0.020117759704589844 -0.007058143615722656
1139014500.0 0.019364356994628906 -0.009119987487792969
1144010000.0 0.018326759338378906 -0.010966300964355469
1149005500.0 0.01710033416748047 -0.01276397705078125
1154001000.0 0.01581287384033203 -0.014371871948242188
1158996500.0 0.01435089111328125 -0.01587200164794922
1163992000.0 0.012591361999511719 -0.017192840576171875
1168987500.0 0.010924339294433594 -0.01838970184326172
1173983000.0 0.008886337280273438 -0.019351959228515625
1178978500.0 0.007121086120605469 -0.02011394500732422
1183974000.0 0.005005836486816406 -0.020752906799316406
1188969500.0 0.0027751922607421875 -0.021093368530273438
1193965000.0 0.0007152557373046875 -0.02118968963623047
1198960500.0 -0.0015020370483398438 -0.021188735961914062
1203956000.0 -0.0034761428833007812 -0.020895004272460938
1208951500.0 -0.005446434020996094 -0.020483016967773438
1213947000.0 -0.0075588226318359375 -0.01983165740966797
1218942500.0 -0.009416580200195312 -0.018937110900878906
1223938000.0 -0.01117706298828125 -0.0178985595703125
1228933500.0 -0.012815475463867188 -0.016890525817871094
1233929000.0 -0.014400959014892578 -0.015423297882080078
1238924500.0 -0.015814781188964844 -0.013886451721191406
1243920000.0 -0.01714324951171875 -0.012262344360351562
1248915500.0 -0.01824951171875 -0.010529518127441406
1253911000.0 -0.019080162048339844 -0.008779525756835938
1258906500.0 -0.019861221313476562 -0.006882667541503906
1263902000.0 -0.02035045623779297 -0.004853248596191406
1268897500.0 -0.020793914794921875 -0.002895355224609375
1273893000.0 -0.021079063415527344 -0.0009031295776367188
1278888500.0 -0.020946502685546875 0.0011930465698242188
1283884000.0 -0.02074432373046875 0.0033044815063476562
1288879500.0 -0.02041339874267578 0.0053501129150390625
1293875000.0 -0.01978015899658203 0.007137298583984375
1298870500.0 -0.019010543823242188 0.009054183959960938
1303866000.0 -0.018018722534179688 0.010881423950195312
1308861500.0 -0.01689434051513672 0.012637138366699219
1313857000.0 -0.015598773956298828 0.014202117919921875
1318852500.0 -0.014168739318847656 0.01562786102294922
1323848000.0 -0.012422561645507812 0.017055511474609375
1328843500.0 -0.010802268981933594 0.018136024475097656
1333839000.0 -0.008971214294433594 0.01904296875
1338834500.0 -0.00705718994140625 0.019804954528808594
1343830000.0 -0.005015373229980469 0.020508766174316406
1348825500.0 -0.0031232833862304688 0.02081012725830078
1353821000.0 -0.0010232925415039062 0.021076202392578125
1358816500.0 0.0011701583862304688 0.021071434020996094
1363812000.0 0.0031061172485351562 0.020758628845214844
1368807500.0 0.005158424377441406 0.020427703857421875
1373803000.0 0.007082939147949219 0.01982402801513672
1378798500.0 0.009045600891113281 0.01904010772705078
1383794000.0 0.01082611083984375 0.01810455322265625
1388789500.0 0.012598991394042969 0.016922950744628906
1393785000.0 0.014104843139648438 0.01570606231689453
1398780500.0 0.015565872192382812 0.01406717300415039
1403776000.0 0.016788482666015625 0.0124969482421875
1408771500.0 0.017961502075195312 0.010835647583007812
1413767000.0 0.0190582275390625 0.009011268615722656
1418762500.0 0.019657135009765625 0.007160186767578125
1423758000.0 0.020209312438964844 0.005200386047363281
1428753500.0 0.020601272583007812 0.0031299591064453125
1433749000.0 0.020813941955566406 0.0011835098266601562
1438744500.0 0.020775794982910156 -0.0009098052978515625
1443740000.0 0.02060222625732422 -0.0030069351196289062
1448735500.0 0.020135879516601562 -0.0049114227294921875
1453731000.0 0.019605636596679688 -0.006836891174316406
1458726500.0 0.01877307891845703 -0.008765220642089844
1463722000.0 0.01786518096923828 -0.010346412658691406
1468717500.0 0.01663684844970703 -0.012101173400878906
1473713000.0 0.01537942886352539 -0.013757705688476562
1478708500.0 0.01399374008178711 -0.015076160430908203
1483704000.0 0.012442588806152344 -0.01638507843017578
1488699500.0 0.010838508605957031 -0.01748371124267578
1493695000.0 0.008960723876953125 -0.018362045288085938
1498690500.0 0.007212638854980469 -0.019113540649414062
1503686000.0 0.0052852630615234375 -0.019695281982421875
1508681500.0 0.0032854080200195312 -0.02011871337890625
1513677000.0 0.0013799667358398438 -0.020284652709960938
1518672500.0 -0.0006275177001953125 -0.020252227783203125
1523668000.0 -0.0024042129516601562 -0.020074844360351562
1528663500.0 -0.0043277740478515625 -0.019692420959472656
1533659000.0 -0.006321907043457031 -0.019161224365234375
1538654500.0 -0.008164405822753906 -0.01839923858642578
1543650000.0 -0.009839057922363281 -0.01750946044921875
1548645500.0 -0.011404991149902344 -0.01653575897216797
1553641000.0 -0.012912273406982422 -0.015224933624267578
1558636500.0 -0.014299392700195312 -0.013840675354003906
1563632000.0 -0.015391826629638672 -0.012481689453125
1568627500.0 -0.016571044921875 -0.010894775390625
1573623000.0 -0.017473220825195312 -0.00920867919921875
1578618500.0 -0.01833629608154297 -0.007521629333496094
1583614000.0 -0.01883983612060547 -0.005675315856933594
1588609500.0 -0.01915740966796875 -0.003912925720214844
1593605000.0 -0.019394874572753906 -0.0020599365234375
1598600500.0 -0.019530296325683594 -0.000244140625
1603596000.0 -0.01927947998046875 0.0017175674438476562
1608591500.0 -0.019028663635253906 0.0034580230712890625
1613587000.0 -0.01857280731201172 0.0051212310791015625
1618582500.0 -0.01798725128173828 0.006992340087890625
1623578000.0 -0.017225265502929688 0.008431434631347656
1628573500.0 -0.016275405883789062 0.010132789611816406
1633569000.0 -0.01522970199584961 0.011425971984863281
1638564500.0 -0.013950347900390625 0.012969017028808594
1643560000.0 -0.012713909149169922 0.01410818099975586
1648555500.0 -0.011376380920410156 0.015041351318359375
1653551000.0 -0.009825706481933594 0.016147613525390625
1658546500.0 -0.008311271667480469 0.017022132873535156
1663542000.0 -0.0067539215087890625 0.01772594451904297
1668537500.0 -0.0050716400146484375 0.01809978485107422
1673533000.0 -0.0033178329467773438 0.01853466033935547
1678528500.0 -0.00159454345703125 0.018705368041992188
1683524000.0 0.00020503997802734375 0.01867198944091797
1688519500.0 0.0018568038940429688 0.018596649169921875
1693515000.0 0.003631591796875 0.018230438232421875
1698510500.0 0.005290031433105469 0.017948150634765625
1703506000.0 0.007079124450683594 0.017218589782714844
1708501500.0 0.008563041687011719 0.016511917114257812
1713497000.0 0.009999752044677734 0.015604019165039062
1718492500.0 0.011379241943359375 0.014637947082519531
1723488000.0 0.012739181518554688 0.013408660888671875
1728483500.0 0.01399993896484375 0.012239933013916016
1733479000.0 0.014996528625488281 0.010796546936035156
1738474500.0 0.01595306396484375 0.009417533874511719
1743470000.0 0.016663551330566406 0.007828712463378906
1748465500.0 0.017316818237304688 0.006154060363769531
1753461000.0 0.017869949340820312 0.0045757293701171875
1758456500.0 0.018129348754882812 0.0028886795043945312
1763452000.0 0.018260955810546875 0.0012578964233398438
1768447500.0 0.01830291748046875 -0.0005178451538085938
1773443000.0 0.01806354522705078 -0.00226593017578125
1778438500.0 0.017879486083984375 -0.0038776397705078125
1783434000.0 0.017337799072265625 -0.005535125732421875
1788429500.0 0.016689300537109375 -0.007138252258300781
1793425000.0 0.015959739685058594 -0.008553504943847656
1798420500.0 0.015051841735839844 -0.009999752044677734
1803416000.0 0.014024734497070312 -0.01140451431274414
1808411500.0 0.012837409973144531 -0.01255178451538086
1813407000.0 0.011738300323486328 -0.013674736022949219
1818402500.0 0.010263442993164062 -0.014645099639892578
1823398000.0 0.00890970230102539 -0.015531539916992188
1828393500.0 0.007416725158691406 -0.016344070434570312
1833389000.0 0.005827903747558594 -0.016847610473632812
1838384500.0 0.004340171813964844 -0.01723003387451172
