!Created with skrf (http://scikit-rf.org).
# Hz S RI R 50.0 
!freq ReS11 ImS11
45000000.0 0.06903457641601562 0.08731842041015625
49995500.0 0.08782577514648438 0.0872344970703125
54991000.0 0.10808563232421875 0.08354568481445312
59986500.0 0.1271514892578125 0.0849609375
64982000.0 0.14801025390625 0.07892608642578125
69977500.0 0.16931915283203125 0.06679534912109375
74973000.0 0.1898345947265625 0.050537109375
79968500.0 0.20853424072265625 0.029876708984375
84964000.0 0.22524261474609375 0.00557708740234375
89959500.0 0.23805999755859375 -0.022705078125
94955000.0 0.246673583984375 -0.05422210693359375
99950500.0 0.2505645751953125 -0.088165283203125
104946000.0 0.2491912841796875 -0.1234130859375
109941500.0 0.2425994873046875 -0.1593780517578125
114937000.0 0.23081207275390625 -0.19539642333984375
119932500.0 0.21318817138671875 -0.23033905029296875
124928000.0 0.190948486328125 -0.26348876953125
129923500.0 0.1639404296875 -0.2939605712890625
134919000.0 0.1319427490234375 -0.3216552734375
139914500.0 0.096160888671875 -0.3460845947265625
144910000.0 0.05645751953125 -0.3662872314453125
149905500.0 0.0135040283203125 -0.3819732666015625
154901000.0 -0.0321502685546875 -0.3925323486328125
159896500.0 -0.07977294921875 -0.397613525390625
164892000.0 -0.128997802734375 -0.397064208984375
169887500.0 -0.1790924072265625 -0.3903656005859375
174883000.0 -0.229644775390625 -0.37701416015625
179878500.0 -0.279083251953125 -0.357147216796875
184874000.0 -0.32733154296875 -0.3308258056640625
189869500.0 -0.3731842041015625 -0.2975616455078125
194865000.0 -0.4156494140625 -0.25823974609375
199860500.0 -0.453643798828125 -0.213287353515625
204856000.0 -0.4859619140625 -0.1622314453125
209851500.0 -0.512176513671875 -0.10662841796875
214847000.0 -0.53216552734375 -0.04718017578125
219842500.0 -0.545074462890625 0.015411376953125
224838000.0 -0.549957275390625 0.080169677734375
229833500.0 -0.547332763671875 0.1458740234375
234829000.0 -0.536468505859375 0.21112060546875
239824500.0 -0.517913818359375 0.2760009765625
244820000.0 -0.4917449951171875 0.33880615234375
249815500.0 -0.4583282470703125 0.399139404296875
254811000.0 -0.4403228759765625 0.4427337646484375
259806500.0 -0.396514892578125 0.4975738525390625
264802000.0 -0.34539794921875 0.5482177734375
269797500.0 -0.2879638671875 0.593994140625
274793000.0 -0.225128173828125 0.633819580078125
279788500.0 -0.15667724609375 0.667144775390625
284784000.0 -0.083282470703125 0.693389892578125
289779500.0 -0.005859375 0.711700439453125
294775000.0 0.075439453125 0.721435546875
299770500.0 0.1588134765625 0.72216796875
304766000.0 0.2440185546875 0.712799072265625
309761500.0 0.329833984375 0.693023681640625
314757000.0 0.4141845703125 0.661956787109375
319752500.0 0.496368408203125 0.619720458984375
324748000.0 0.574188232421875 0.56707763671875
329743500.0 0.64654541015625 0.50390625
334739000.0 0.711700439453125 0.430938720703125
339734500.0 0.76788330078125 0.34857177734375
344730000.0 0.814117431640625 0.258941650390625
349725500.0 0.849029541015625 0.163299560546875
354721000.0 0.871337890625 0.0633544921875
359716500.0 0.88134765625 -0.039398193359375
364712000.0 0.878631591796875 -0.143585205078125
369707500.0 0.863372802734375 -0.246490478515625
374703000.0 0.835418701171875 -0.347503662109375
379698500.0 0.796051025390625 -0.444854736328125
384694000.0 0.745635986328125 -0.536956787109375
389689500.0 0.684814453125 -0.622802734375
394685000.0 0.61468505859375 -0.70172119140625
399680500.0 0.536376953125 -0.772674560546875
404676000.0 0.45068359375 -0.835235595703125
409671500.0 0.358062744140625 -0.89056396484375
414667000.0 0.259796142578125 -0.9327392578125
419662500.0 0.15582275390625 -0.96636962890625
424658000.0 0.04705810546875 -0.988616943359375
429653500.0 -0.0662841796875 -0.999298095703125
434649000.0 -0.18218994140625 -0.995758056640625
439644500.0 -0.297119140625 -0.979522705078125
444640000.0 -0.411407470703125 -0.950469970703125
449635500.0 -0.524139404296875 -0.908935546875
454631000.0 -0.63482666015625 -0.853759765625
459626500.0 -0.74041748046875 -0.782684326171875
464622000.0 -0.838134765625 -0.696868896484375
469617500.0 -0.925628662109375 -0.597198486328125
474613000.0 -0.99981689453125 -0.486175537109375
479608500.0 -1.059814453125 -0.36444091796875
484604000.0 -1.10357666015625 -0.23455810546875
489599500.0 -1.1297607421875 -0.09967041015625
494595000.0 -1.13641357421875 0.037841796875
499590500.0 -1.1260986328125 0.17401123046875
504586000.0 -1.09759521484375 0.30670166015625
509581500.0 -1.05316162109375 0.43280029296875
514577000.0 -0.99359130859375 0.55023193359375
519572500.0 -0.921905517578125 0.657501220703125
524568000.0 -0.840240478515625 0.753570556640625
529563500.0 -0.751617431640625 0.838470458984375
534559000.0 -0.65692138671875 0.912628173828125
539554500.0 -0.557861328125 0.976898193359375
544550000.0 -0.455322265625 1.032470703125
549545500.0 -0.34814453125 1.08013916015625
554541000.0 -0.23486328125 1.1192626953125
559536500.0 -0.11737060546875 1.14892578125
564532000.0 0.00579833984375 1.16729736328125
569527500.0 0.13311767578125 1.1737060546875
574523000.0 0.263427734375 1.1661376953125
579518500.0 0.3951416015625 1.1441650390625
584514000.0 0.52630615234375 1.1068115234375
589509500.0 0.65557861328125 1.05413818359375
594505000.0 0.780609130859375 0.98541259765625
599500500.0 0.89959716796875 0.90081787109375
604496000.0 1.01080322265625 0.8004150390625
609491500.0 1.1104736328125 0.68463134765625
614487000.0 1.19720458984375 0.55511474609375
619482500.0 1.26776123046875 0.4124755859375
624478000.0 1.31988525390625 0.2601318359375
629473500.0 1.35223388671875 0.1002197265625
634469000.0 1.3621826171875 -0.0640869140625
639464500.0 1.35064697265625 -0.229248046875
644460000.0 1.31646728515625 -0.3912353515625
649455500.0 1.2615966796875 -0.54693603515625
654451000.0 1.1875 -0.69354248046875
659446500.0 1.095458984375 -0.82781982421875
664442000.0 0.989410400390625 -0.948455810546875
669437500.0 0.8712158203125 -1.0537109375
674433000.0 0.74285888671875 -1.1429443359375
679428500.0 0.60791015625 -1.2154541015625
684424000.0 0.46795654296875 -1.27197265625
689419500.0 0.324462890625 -1.31280517578125
694415000.0 0.18035888671875 -1.338134765625
699410500.0 0.03564453125 -1.34893798828125
704406000.0 -0.108154296875 -1.34613037109375
709401500.0 -0.2506103515625 -1.32989501953125
714397000.0 -0.39111328125 -1.30029296875
719392500.0 -0.528564453125 -1.25811767578125
724388000.0 -0.66278076171875 -1.20306396484375
729383500.0 -0.79364013671875 -1.13525390625
734379000.0 -0.91839599609375 -1.05224609375
739374500.0 -1.03717041015625 -0.95587158203125
744370000.0 -1.14739990234375 -0.84588623046875
749365500.0 -1.249267578125 -0.72216796875
754361000.0 -1.33782958984375 -0.58343505859375
759356500.0 -1.41217041015625 -0.43206787109375
764352000.0 -1.46875 -0.26910400390625
769347500.0 -1.505859375 -0.09588623046875
774343000.0 -1.52099609375 0.08416748046875
779338500.0 -1.51177978515625 0.267822265625
784334000.0 -1.47998046875 0.45068359375
789329500.0 -1.419677734375 0.62921142578125
794325000.0 -1.33746337890625 0.798828125
799320500.0 -1.232666015625 0.95526123046875
804316000.0 -1.1087646484375 1.0953369140625
809311500.0 -0.9683837890625 1.21728515625
814307000.0 -0.81573486328125 1.31854248046875
819302500.0 -0.65435791015625 1.3984375
824298000.0 -0.48663330078125 1.45697021484375
829293500.0 -0.31781005859375 1.4954833984375
834289000.0 -0.1475830078125 1.51336669921875
839284500.0 0.01824951171875 1.51226806640625
844280000.0 0.12060546875 1.52215576171875
849275500.0 0.28118896484375 1.496826171875
854271000.0 0.4373779296875 1.4556884765625
859266500.0 0.5882568359375 1.40032958984375
864262000.0 0.73162841796875 1.33154296875
869257500.0 0.86865234375 1.24969482421875
874253000.0 0.99761962890625 1.15509033203125
879248500.0 1.11700439453125 1.048828125
884244000.0 1.227294921875 0.9310302734375
889239500.0 1.327392578125 0.8021240234375
894235000.0 1.41595458984375 0.66259765625
899230500.0 1.49267578125 0.5120849609375
904226000.0 1.5555419921875 0.3511962890625
909221500.0 1.60223388671875 0.17864990234375
914217000.0 1.62939453125 -0.0029296875
919212500.0 1.635009765625 -0.1917724609375
924208000.0 1.616455078125 -0.38262939453125
929203500.0 1.57330322265625 -0.57366943359375
934199000.0 1.5052490234375 -0.760009765625
939194500.0 1.41241455078125 -0.9383544921875
944190000.0 1.29595947265625 -1.1031494140625
949185500.0 1.158203125 -1.25189208984375
954181000.0 1.00250244140625 -1.3814697265625
959176500.0 0.83184814453125 -1.48846435546875
964172000.0 0.6502685546875 -1.5721435546875
969167500.0 0.46197509765625 -1.6319580078125
974163000.0 0.27069091796875 -1.66766357421875
979158500.0 0.07952880859375 -1.6798095703125
984154000.0 -0.1083984375 -1.67108154296875
989149500.0 -0.2918701171875 -1.64141845703125
994145000.0 -0.4683837890625 -1.593505859375
999140500.0 -0.6363525390625 -1.5286865234375
1004136000.0 -0.7947998046875 -1.44854736328125
1009131500.0 -0.94378662109375 -1.35333251953125
1014127000.0 -1.08209228515625 -1.24554443359375
1019122500.0 -1.21075439453125 -1.12469482421875
1024118000.0 -1.32666015625 -0.99224853515625
1029113500.0 -1.43060302734375 -0.84771728515625
1034109000.0 -1.52008056640625 -0.69293212890625
1039104500.0 -1.59466552734375 -0.5272216796875
1044100000.0 -1.65325927734375 -0.35223388671875
1049095500.0 -1.69329833984375 -0.16900634765625
1054091000.0 -1.7135009765625 0.02117919921875
1059086500.0 -1.71136474609375 0.21539306640625
1064082000.0 -1.68719482421875 0.41082763671875
1069077500.0 -1.63885498046875 0.60565185546875
1074073000.0 -1.56634521484375 0.79595947265625
1079068500.0 -1.46917724609375 0.977783203125
1084064000.0 -1.34881591796875 1.1466064453125
1089059500.0 -1.20697021484375 1.29962158203125
1094055000.0 -1.04644775390625 1.43377685546875
1099050500.0 -0.87017822265625 1.546142578125
1104046000.0 -0.68182373046875 1.6343994140625
1109041500.0 -0.4854736328125 1.6981201171875
1114037000.0 -0.28466796875 1.7364501953125
1119032500.0 -0.083740234375 1.749755859375
1124028000.0 0.115478515625 1.7392578125
1129023500.0 0.308837890625 1.70635986328125
1134019000.0 0.49444580078125 1.65313720703125
1139014500.0 0.67059326171875 1.580322265625
1144010000.0 0.8359375 1.4903564453125
1149005500.0 0.9886474609375 1.38543701171875
1154001000.0 1.128662109375 1.2664794921875
1158996500.0 1.25537109375 1.135009765625
1163992000.0 1.3671875 0.9925537109375
1168987500.0 1.46356201171875 0.84027099609375
1173983000.0 1.54547119140625 0.67938232421875
1178978500.0 1.6107177734375 0.51055908203125
1183974000.0 1.6583251953125 0.3359375
1188969500.0 1.68841552734375 0.15655517578125
1193965000.0 1.70037841796875 -0.0267333984375
1198960500.0 1.693603515625 -0.2119140625
1203956000.0 1.66650390625 -0.396728515625
1208951500.0 1.6192626953125 -0.5792236328125
1213947000.0 1.55169677734375 -0.75726318359375
1218942500.0 1.46380615234375 -0.9288330078125
1223938000.0 1.356201171875 -1.0909423828125
1228933500.0 1.22955322265625 -1.2410888671875
1233929000.0 1.08526611328125 -1.376220703125
1238924500.0 0.92510986328125 -1.49432373046875
1243920000.0 0.75140380859375 -1.59344482421875
1248915500.0 0.56658935546875 -1.6717529296875
1253911000.0 0.37298583984375 -1.72723388671875
1258906500.0 0.17333984375 -1.759765625
1263902000.0 -0.0291748046875 -1.7689208984375
1268897500.0 -0.2318115234375 -1.755615234375
1273893000.0 -0.427734375 -1.7159423828125
1278888500.0 -0.61737060546875 -1.65411376953125
1283884000.0 -0.79901123046875 -1.57208251953125
1288879500.0 -0.9693603515625 -1.470458984375
1293875000.0 -1.12579345703125 -1.3499755859375
1298870500.0 -1.26763916015625 -1.21356201171875
1303866000.0 -1.3924560546875 -1.06243896484375
1308861500.0 -1.4998779296875 -0.89990234375
1313857000.0 -1.587646484375 -0.72625732421875
1318852500.0 -1.65533447265625 -0.54437255859375
1323848000.0 -1.7027587890625 -0.35723876953125
1328843500.0 -1.72857666015625 -0.16668701171875
1333839000.0 -1.7342529296875 0.02569580078125
1338834500.0 -1.71734619140625 0.2164306640625
1343830000.0 -1.68109130859375 0.4031982421875
1348825500.0 -1.62457275390625 0.5855712890625
1353821000.0 -1.54833984375 0.75885009765625
1358816500.0 -1.4544677734375 0.9229736328125
1363812000.0 -1.34332275390625 1.0755615234375
1368807500.0 -1.217041015625 1.215087890625
1373803000.0 -1.0762939453125 1.33966064453125
1378798500.0 -0.92401123046875 1.4488525390625
1383794000.0 -0.76055908203125 1.541015625
1388789500.0 -0.58807373046875 1.61541748046875
1393785000.0 -0.40875244140625 1.67095947265625
1398780500.0 -0.2236328125 1.707763671875
1403776000.0 -0.0352783203125 1.72467041015625
1408771500.0 0.1544189453125 1.72137451171875
1413767000.0 0.34423828125 1.6976318359375
1418762500.0 0.5311279296875 1.65313720703125
1423758000.0 0.7135009765625 1.588134765625
1428753500.0 0.888916015625 1.5020751953125
1433749000.0 1.0546875 1.39630126953125
1438744500.0 1.20928955078125 1.27105712890625
1443740000.0 1.348388671875 1.12738037109375
1448735500.0 1.47100830078125 0.9671630859375
1453731000.0 1.5733642578125 0.79217529296875
1458726500.0 1.65484619140625 0.6051025390625
1463722000.0 1.7117919921875 0.4091796875
1468717500.0 1.74359130859375 0.207763671875
1473713000.0 1.75115966796875 0.00445556640625
1478708500.0 1.73333740234375 -0.1968994140625
1483704000.0 1.690673828125 -0.39276123046875
1488699500.0 1.62469482421875 -0.5797119140625
1493695000.0 1.5382080078125 -0.75494384765625
1498690500.0 1.4334716796875 -0.91607666015625
1503686000.0 1.312744140625 -1.06201171875
1508681500.0 1.17877197265625 -1.19085693359375
1513677000.0 1.0341796875 -1.30181884765625
1518672500.0 0.88134765625 -1.39532470703125
1523668000.0 0.72247314453125 -1.4718017578125
1528663500.0 0.5592041015625 -1.52984619140625
1533659000.0 0.3931884765625 -1.5714111328125
1538654500.0 0.22607421875 -1.5968017578125
1543650000.0 0.05853271484375 -1.60577392578125
1548645500.0 -0.1083984375 -1.59967041015625
1553641000.0 -0.27276611328125 -1.577392578125
1558636500.0 -0.4345703125 -1.539794921875
1563632000.0 -0.5933837890625 -1.4869384765625
1568627500.0 -0.74652099609375 -1.4190673828125
1573623000.0 -0.89434814453125 -1.33526611328125
1578618500.0 -1.03350830078125 -1.23626708984375
1583614000.0 -1.1634521484375 -1.12200927734375
1588609500.0 -1.28253173828125 -0.99298095703125
1593605000.0 -1.38726806640625 -0.849609375
1598600500.0 -1.47662353515625 -0.6937255859375
1603596000.0 -1.547607421875 -0.52734375
1608591500.0 -1.6004638671875 -0.35150146484375
1613587000.0 -1.6318359375 -0.17010498046875
1618582500.0 -1.6402587890625 0.01409912109375
1623578000.0 -1.6268310546875 0.1981201171875
1628573500.0 -1.5919189453125 0.37896728515625
1633569000.0 -1.5350341796875 0.55377197265625
1638564500.0 -1.45794677734375 0.71917724609375
1643560000.0 -1.36370849609375 0.8729248046875
1648555500.0 -1.25323486328125 1.0123291015625
1653551000.0 -1.12933349609375 1.1373291015625
1658546500.0 -0.99468994140625 1.2454833984375
1663542000.0 -0.85125732421875 1.33837890625
1668537500.0 -0.701171875 1.414306640625
1673533000.0 -0.546142578125 1.4736328125
1678528500.0 -0.38763427734375 1.51708984375
1683524000.0 -0.22845458984375 1.54473876953125
1688519500.0 -0.06781005859375 1.55731201171875
1693515000.0 0.093017578125 1.5556640625
1698510500.0 0.25286865234375 1.53887939453125
1703506000.0 0.41162109375 1.50732421875
1708501500.0 0.5670166015625 1.4610595703125
1713497000.0 0.7183837890625 1.40057373046875
1718492500.0 0.8665771484375 1.32427978515625
1723488000.0 1.00830078125 1.23248291015625
1728483500.0 1.14251708984375 1.12420654296875
1733479000.0 1.2667236328125 0.9996337890625
1738474500.0 1.37872314453125 0.8594970703125
1743470000.0 1.4765625 0.7041015625
1748465500.0 1.55548095703125 0.53485107421875
1753461000.0 1.61376953125 0.35455322265625
1758456500.0 1.6500244140625 0.1651611328125
1763452000.0 1.6610107421875 -0.02801513671875
1768447500.0 1.6463623046875 -0.22247314453125
1773443000.0 1.6064453125 -0.4132080078125
1778438500.0 1.5421142578125 -0.59600830078125
1783434000.0 1.455078125 -0.76617431640625
1788429500.0 1.3486328125 -0.92242431640625
1793425000.0 1.22589111328125 -1.0611572265625
1798420500.0 1.09014892578125 -1.181884765625
1803416000.0 0.94476318359375 -1.283203125
1808411500.0 0.792724609375 -1.36602783203125
1813407000.0 0.63653564453125 -1.4306640625
1818402500.0 0.4781494140625 -1.47772216796875
1823398000.0 0.3192138671875 -1.508544921875
1828393500.0 0.1612548828125 -1.52435302734375
1833389000.0 0.00433349609375 -1.5257568359375
1838384500.0 -0.15020751953125 -1.51348876953125
1843380000.0 -0.3016357421875 -1.48785400390625
1848375500.0 -0.451416015625 -1.44940185546875
1853371000.0 -0.5972900390625 -1.3978271484375
1858366500.0 -0.73980712890625 -1.3330078125
1863362000.0 -0.87677001953125 -1.25445556640625
1868357500.0 -1.0081787109375 -1.16192626953125
1873353000.0 -1.1322021484375 -1.0545654296875
1878348500.0 -1.24652099609375 -0.932861328125
1883344000.0 -1.349609375 -0.796875
1888339500.0 -1.43817138671875 -0.6468505859375
1893335000.0 -1.50982666015625 -0.48455810546875
1898330500.0 -1.56256103515625 -0.311767578125
1903326000.0 -1.59332275390625 -0.130859375
1908321500.0 -1.600830078125 0.05401611328125
1913317000.0 -1.58465576171875 0.23968505859375
1918312500.0 -1.54351806640625 0.42108154296875
1923308000.0 -1.4803466796875 0.5955810546875
1928303500.0 -1.39520263671875 0.758056640625
1933299000.0 -1.29119873046875 0.90728759765625
1938294500.0 -1.171630859375 1.0399169921875
1943290000.0 -1.039306640625 1.1546630859375
1948285500.0 -0.8975830078125 1.251220703125
1953281000.0 -0.749755859375 1.3294677734375
1958276500.0 -0.5977783203125 1.3896484375
1963272000.0 -0.44354248046875 1.43310546875
1968267500.0 -0.2886962890625 1.46051025390625
1973263000.0 -0.13519287109375 1.47247314453125
1978258500.0 0.01708984375 1.46978759765625
1983254000.0 0.166259765625 1.45343017578125
1988249500.0 0.31201171875 1.4241943359375
1993245000.0 0.4547119140625 1.3817138671875
1998240500.0 0.59173583984375 1.3267822265625
2003236000.0 0.72430419921875 1.259033203125
2008231500.0 0.85064697265625 1.17938232421875
2013227000.0 0.96942138671875 1.08642578125
2018222500.0 1.0794677734375 0.98114013671875
2023218000.0 1.1788330078125 0.86456298828125
2028213500.0 1.267333984375 0.7366943359375
2033209000.0 1.3419189453125 0.59869384765625
2038204500.0 1.40191650390625 0.45172119140625
2043200000.0 1.4442138671875 0.2984619140625
2048195500.0 1.47021484375 0.13922119140625
2053191000.0 1.47705078125 -0.02197265625
2058186500.0 1.46533203125 -0.18255615234375
2063182000.0 1.43511962890625 -0.3408203125
2068177500.0 1.3875732421875 -0.49420166015625
2073173000.0 1.32281494140625 -0.63983154296875
2078168500.0 1.24273681640625 -0.7763671875
2083164000.0 1.14947509765625 -0.902099609375
2088159500.0 1.04388427734375 -1.015625
2093155000.0 0.92816162109375 -1.11627197265625
2098150500.0 0.80419921875 -1.20452880859375
2103146000.0 0.673095703125 -1.2789306640625
2108141500.0 0.536376953125 -1.33929443359375
2113137000.0 0.3953857421875 -1.38671875
2118132500.0 0.25048828125 -1.41998291015625
2123128000.0 0.10382080078125 -1.43902587890625
2128123500.0 -0.0445556640625 -1.44500732421875
2133119000.0 -0.1937255859375 -1.43695068359375
2138114500.0 -0.34197998046875 -1.414794921875
2143110000.0 -0.489501953125 -1.3773193359375
2148105500.0 -0.63427734375 -1.32525634765625
2153101000.0 -0.77520751953125 -1.2578125
2158096500.0 -0.91033935546875 -1.1749267578125
2163092000.0 -1.037841796875 -1.07635498046875
2168087500.0 -1.1556396484375 -0.96258544921875
2173083000.0 -1.26116943359375 -0.834228515625
2178078500.0 -1.35308837890625 -0.69244384765625
2183074000.0 -1.42730712890625 -0.53887939453125
2188069500.0 -1.48345947265625 -0.3763427734375
2193065000.0 -1.52001953125 -0.2066650390625
