!Created with skrf (http://scikit-rf.org).
# Hz S RI R 50.0 
!freq ReS11 ImS11
45000000.0 -0.0038248300552368164 -0.0009654760360717773
49995500.0 -0.004210472106933594 -0.0005402565002441406
54991000.0 -0.004431247711181641 -6.246566772460938e-05
59986500.0 -0.004835605621337891 0.00026726722717285156
64982000.0 -0.004884243011474609 0.0007982254028320312
69977500.0 -0.005100250244140625 0.0013833045959472656
74973000.0 -0.005089521408081055 0.0018837451934814453
79968500.0 -0.00514984130859375 0.0025131702423095703
84964000.0 -0.004952669143676758 0.003211498260498047
89959500.0 -0.004655361175537109 0.0039501190185546875
94955000.0 -0.004335641860961914 0.0045244693756103516
99950500.0 -0.0039141178131103516 0.005158424377441406
104946000.0 -0.0034809112548828125 0.005679607391357422
109941500.0 -0.002928018569946289 0.006221771240234375
114937000.0 -0.002064943313598633 0.006633281707763672
119932500.0 -0.0014193058013916016 0.007059335708618164
124928000.0 -0.0007047653198242188 0.007272481918334961
129923500.0 7.510185241699219e-05 0.007408618927001953
134919000.0 0.0010106563568115234 0.007471323013305664
139914500.0 0.0018155574798583984 0.007393836975097656
144910000.0 0.002885103225708008 0.007272243499755859
149905500.0 0.003652811050415039 0.006970405578613281
154901000.0 0.004492759704589844 0.006691694259643555
159896500.0 0.005265474319458008 0.006325960159301758
164892000.0 0.0060617923736572266 0.005739450454711914
169887500.0 0.006781339645385742 0.005057334899902344
174883000.0 0.007407426834106445 0.004384040832519531
179878500.0 0.00797271728515625 0.0035338401794433594
184874000.0 0.008471965789794922 0.0027494430541992188
189869500.0 0.008896350860595703 0.0018310546875
194865000.0 0.00910043716430664 0.0008487701416015625
199860500.0 0.009143829345703125 -0.00016736984252929688
204856000.0 0.009214401245117188 -0.001232147216796875
209851500.0 0.009054183959960938 -0.0022096633911132812
214847000.0 0.008931159973144531 -0.0033206939697265625
219842500.0 0.008655548095703125 -0.0043659210205078125
224838000.0 0.008305072784423828 -0.005242824554443359
229833500.0 0.007737636566162109 -0.006212711334228516
234829000.0 0.0070760250091552734 -0.0071849822998046875
239824500.0 0.006304740905761719 -0.007909297943115234
244820000.0 0.005526065826416016 -0.008614540100097656
249815500.0 0.004507541656494141 -0.009259700775146484
254811000.0 0.003968238830566406 -0.00978708267211914
259806500.0 0.002948284149169922 -0.01016998291015625
264802000.0 0.0018320083618164062 -0.010619163513183594
269797500.0 0.0007328987121582031 -0.01091909408569336
274793000.0 -0.00032329559326171875 -0.010982990264892578
279788500.0 -0.0016460418701171875 -0.010944843292236328
284784000.0 -0.0028638839721679688 -0.010849475860595703
289779500.0 -0.003951072692871094 -0.010600090026855469
294775000.0 -0.005110740661621094 -0.010399341583251953
299770500.0 -0.006161212921142578 -0.009688377380371094
304766000.0 -0.007246971130371094 -0.009097099304199219
309761500.0 -0.008424758911132812 -0.008280754089355469
314757000.0 -0.009197711944580078 -0.007451057434082031
319752500.0 -0.010094165802001953 -0.006435871124267578
324748000.0 -0.010707855224609375 -0.0053348541259765625
329743500.0 -0.0112762451171875 -0.0041713714599609375
334739000.0 -0.011855602264404297 -0.0030012130737304688
339734500.0 -0.012125492095947266 -0.0017638206481933594
344730000.0 -0.012372970581054688 -0.0004162788391113281
349725500.0 -0.012338638305664062 0.0009760856628417969
354721000.0 -0.012215137481689453 0.00229644775390625
359716500.0 -0.011970043182373047 0.003551483154296875
364712000.0 -0.01164102554321289 0.004845619201660156
369707500.0 -0.011028289794921875 0.005952358245849609
374703000.0 -0.010442733764648438 0.007088661193847656
379698500.0 -0.009668350219726562 0.008359432220458984
384694000.0 -0.008759021759033203 0.009332656860351562
389689500.0 -0.007619380950927734 0.01036214828491211
394685000.0 -0.006667613983154297 0.011189937591552734
399680500.0 -0.005405902862548828 0.011785507202148438
404676000.0 -0.004129886627197266 0.012348175048828125
409671500.0 -0.0026721954345703125 0.012801647186279297
414667000.0 -0.0013546943664550781 0.013138771057128906
419662500.0 -4.1961669921875e-05 0.013181209564208984
424658000.0 0.0014147758483886719 0.013032913208007812
429653500.0 0.0028252601623535156 0.012997627258300781
434649000.0 0.0041828155517578125 0.012674808502197266
439644500.0 0.005460262298583984 0.012126922607421875
444640000.0 0.006730556488037109 0.011566638946533203
449635500.0 0.00801229476928711 0.01084136962890625
454631000.0 0.009037017822265625 0.00986337661743164
459626500.0 0.010053634643554688 0.008955955505371094
464622000.0 0.011003971099853516 0.0077762603759765625
469617500.0 0.011799335479736328 0.006704807281494141
474613000.0 0.012427806854248047 0.005333423614501953
479608500.0 0.012966156005859375 0.004025936126708984
484604000.0 0.013356208801269531 0.0026903152465820312
489599500.0 0.013635635375976562 0.0012197494506835938
494595000.0 0.013684272766113281 -0.000171661376953125
499590500.0 0.01353311538696289 -0.0015387535095214844
504586000.0 0.01330423355102539 -0.0029196739196777344
509581500.0 0.01306009292602539 -0.004312992095947266
514577000.0 0.01260995864868164 -0.0056324005126953125
519572500.0 0.011862754821777344 -0.006876468658447266
524568000.0 0.01109933853149414 -0.007954597473144531
529563500.0 0.010295867919921875 -0.009205818176269531
534559000.0 0.009244441986083984 -0.010062694549560547
539554500.0 0.008320331573486328 -0.011055946350097656
544550000.0 0.007172584533691406 -0.011796951293945312
549545500.0 0.005986690521240234 -0.012514591217041016
554541000.0 0.0046825408935546875 -0.013028621673583984
559536500.0 0.003494739532470703 -0.013408660888671875
564532000.0 0.0020918846130371094 -0.013796329498291016
569527500.0 0.0006246566772460938 -0.014069080352783203
574523000.0 -0.0007791519165039062 -0.013988018035888672
579518500.0 -0.0021309852600097656 -0.013908863067626953
584514000.0 -0.0036263465881347656 -0.013741016387939453
589509500.0 -0.004925727844238281 -0.013310432434082031
594505000.0 -0.006285190582275391 -0.012874126434326172
599500500.0 -0.007640838623046875 -0.012086868286132812
604496000.0 -0.008756637573242188 -0.011347293853759766
609491500.0 -0.009943008422851562 -0.010459423065185547
614487000.0 -0.010962486267089844 -0.009445667266845703
619482500.0 -0.011925220489501953 -0.008350849151611328
624478000.0 -0.012656688690185547 -0.007164478302001953
629473500.0 -0.013363838195800781 -0.005797386169433594
634469000.0 -0.013909339904785156 -0.004393577575683594
639464500.0 -0.01437997817993164 -0.003124237060546875
644460000.0 -0.014624595642089844 -0.0016303062438964844
649455500.0 -0.014850616455078125 -0.00017023086547851562
654451000.0 -0.014760971069335938 0.0013051033020019531
659446500.0 -0.014597415924072266 0.002795696258544922
664442000.0 -0.014240741729736328 0.004191398620605469
669437500.0 -0.013835906982421875 0.005653858184814453
674433000.0 -0.013239383697509766 0.007018089294433594
679428500.0 -0.0125274658203125 0.008244037628173828
684424000.0 -0.011666297912597656 0.009506702423095703
689419500.0 -0.01086282730102539 0.010662555694580078
694415000.0 -0.009724617004394531 0.011766910552978516
699410500.0 -0.00842428207397461 0.012558460235595703
704406000.0 -0.007206916809082031 0.013451576232910156
709401500.0 -0.0058460235595703125 0.01410055160522461
714397000.0 -0.004515171051025391 0.014750480651855469
719392500.0 -0.0030350685119628906 0.015131950378417969
724388000.0 -0.0015869140625 0.015406131744384766
729383500.0 4.76837158203125e-07 0.015436172485351562
734379000.0 0.0014772415161132812 0.015461921691894531
739374500.0 0.0029730796813964844 0.015355587005615234
744370000.0 0.004444599151611328 0.014997482299804688
749365500.0 0.005908012390136719 0.014602184295654297
754361000.0 0.007391929626464844 0.013935565948486328
759356500.0 0.008728504180908203 0.013297080993652344
764352000.0 0.009977340698242188 0.012331008911132812
769347500.0 0.011201858520507812 0.011408329010009766
774343000.0 0.012343883514404297 0.010277271270751953
779338500.0 0.013323307037353516 0.009072303771972656
784334000.0 0.01403951644897461 0.0076770782470703125
789329500.0 0.014928817749023438 0.0062713623046875
794325000.0 0.01549673080444336 0.0048465728759765625
799320500.0 0.01590728759765625 0.0033063888549804688
804316000.0 0.016243934631347656 0.0017461776733398438
809311500.0 0.016437530517578125 0.00022983551025390625
814307000.0 0.01648426055908203 -0.0013952255249023438
819302500.0 0.01629161834716797 -0.002971649169921875
824298000.0 0.01593017578125 -0.00452423095703125
829293500.0 0.015530586242675781 -0.006140708923339844
834289000.0 0.014918804168701172 -0.007676124572753906
839284500.0 0.014208316802978516 -0.009097099304199219
844280000.0 0.013964653015136719 -0.00991964340209961
849275500.0 0.013018608093261719 -0.011237621307373047
854271000.0 0.011903762817382812 -0.012537002563476562
859266500.0 0.010783672332763672 -0.013659954071044922
864262000.0 0.009434700012207031 -0.014733314514160156
869257500.0 0.0080108642578125 -0.01556253433227539
874253000.0 0.006461143493652344 -0.016364097595214844
879248500.0 0.004878997802734375 -0.01688098907470703
884244000.0 0.0033845901489257812 -0.017533302307128906
889239500.0 0.0015916824340820312 -0.017826080322265625
894235000.0 3.337860107421875e-05 -0.018032073974609375
899230500.0 -0.0017566680908203125 -0.017992019653320312
904226000.0 -0.0034313201904296875 -0.017905235290527344
909221500.0 -0.00531005859375 -0.017777442932128906
914217000.0 -0.006892204284667969 -0.017175674438476562
919212500.0 -0.008577346801757812 -0.016702651977539062
924208000.0 -0.010275840759277344 -0.015932083129882812
929203500.0 -0.011841773986816406 -0.014951705932617188
934199000.0 -0.013407230377197266 -0.013750076293945312
939194500.0 -0.01467752456665039 -0.012444496154785156
944190000.0 -0.01588916778564453 -0.011069297790527344
949185500.0 -0.017040252685546875 -0.009443283081054688
954181000.0 -0.01812267303466797 -0.007898330688476562
959176500.0 -0.01877117156982422 -0.006129264831542969
964172000.0 -0.019394874572753906 -0.00423431396484375
969167500.0 -0.019969940185546875 -0.002506256103515625
974163000.0 -0.020246505737304688 -0.0005054473876953125
979158500.0 -0.020303726196289062 0.001537322998046875
984154000.0 -0.020234107971191406 0.0036334991455078125
989149500.0 -0.01992321014404297 0.0055141448974609375
994145000.0 -0.019377708435058594 0.0074291229248046875
999140500.0 -0.018561363220214844 0.009396553039550781
1004136000.0 -0.017681121826171875 0.011193275451660156
1009131500.0 -0.01661396026611328 0.012935638427734375
1014127000.0 -0.015439987182617188 0.014679908752441406
1019122500.0 -0.013945579528808594 0.016265869140625
1024118000.0 -0.012395858764648438 0.017583847045898438
1029113500.0 -0.010700225830078125 0.018819808959960938
1034109000.0 -0.008871078491210938 0.019945144653320312
1039104500.0 -0.006865501403808594 0.02095508575439453
1044100000.0 -0.0048046112060546875 0.02149677276611328
1049095500.0 -0.0026845932006835938 0.02206134796142578
1054091000.0 -0.000492095947265625 0.022327423095703125
1059086500.0 0.0016908645629882812 0.022336959838867188
1064082000.0 0.004065513610839844 0.022348403930664062
1069077500.0 0.0062103271484375 0.022005081176757812
1074073000.0 0.008374214172363281 0.021246910095214844
1079068500.0 0.010596275329589844 0.020455360412597656
1084064000.0 0.012425422668457031 0.019486427307128906
1089059500.0 0.014542579650878906 0.01836109161376953
1094055000.0 0.016435623168945312 0.016783714294433594
1099050500.0 0.017976760864257812 0.015154838562011719
1104046000.0 0.01947021484375 0.013408660888671875
1109041500.0 0.020925521850585938 0.011467933654785156
1114037000.0 0.022241592407226562 0.00937652587890625
1119032500.0 0.02307605743408203 0.007185935974121094
1124028000.0 0.023720741271972656 0.004906654357910156
1129023500.0 0.02419281005859375 0.0024929046630859375
1134019000.0 0.024433135986328125 0.000102996826171875
1139014500.0 0.02444171905517578 -0.0024013519287109375
1144010000.0 0.024188995361328125 -0.0048465728759765625
1149005500.0 0.02380084991455078 -0.007159233093261719
1154001000.0 0.023047447204589844 -0.009552955627441406
1158996500.0 0.02204132080078125 -0.011981964111328125
1163992000.0 0.020936012268066406 -0.014068603515625
1168987500.0 0.019489288330078125 -0.016295433044433594
1173983000.0 0.017812728881835938 -0.018190383911132812
1178978500.0 0.016027450561523438 -0.019918441772460938
1183974000.0 0.013965606689453125 -0.021538734436035156
1188969500.0 0.011820793151855469 -0.022920608520507812
1193965000.0 0.009485244750976562 -0.024193763732910156
1198960500.0 0.007098197937011719 -0.024992942810058594
1203956000.0 0.0046138763427734375 -0.025653839111328125
1208951500.0 0.00188446044921875 -0.026183128356933594
1213947000.0 -0.0007162094116210938 -0.026442527770996094
1218942500.0 -0.0031948089599609375 -0.026189804077148438
1223938000.0 -0.005824089050292969 -0.025934219360351562
1228933500.0 -0.008402824401855469 -0.025274276733398438
1233929000.0 -0.010935783386230469 -0.024453163146972656
1238924500.0 -0.013279914855957031 -0.023308753967285156
1243920000.0 -0.01564311981201172 -0.02197265625
1248915500.0 -0.01777362823486328 -0.020279884338378906
1253911000.0 -0.019750595092773438 -0.01853466033935547
1258906500.0 -0.02151203155517578 -0.016664505004882812
1263902000.0 -0.023268699645996094 -0.014462471008300781
1268897500.0 -0.024659156799316406 -0.012253761291503906
1273893000.0 -0.025844573974609375 -0.009789466857910156
1278888500.0 -0.026787757873535156 -0.007153511047363281
1283884000.0 -0.027693748474121094 -0.004486083984375
1288879500.0 -0.02797698974609375 -0.0018205642700195312
1293875000.0 -0.028087615966796875 0.0010242462158203125
1298870500.0 -0.02818584442138672 0.0038623809814453125
1303866000.0 -0.02763843536376953 0.006640434265136719
1308861500.0 -0.026923179626464844 0.009444236755371094
1313857000.0 -0.026060104370117188 0.012080192565917969
1318852500.0 -0.024808883666992188 0.01480865478515625
1323848000.0 -0.023220062255859375 0.017212867736816406
1328843500.0 -0.02153778076171875 0.019536972045898438
1333839000.0 -0.019517898559570312 0.021750450134277344
1338834500.0 -0.01726531982421875 0.02363872528076172
1343830000.0 -0.014949798583984375 0.02530956268310547
1348825500.0 -0.01242828369140625 0.026798248291015625
1353821000.0 -0.009581565856933594 0.028120994567871094
1358816500.0 -0.0068206787109375 0.028955459594726562
1363812000.0 -0.0038805007934570312 0.029595375061035156
1368807500.0 -0.0008172988891601562 0.03007030487060547
1373803000.0 0.0022192001342773438 0.030065536499023438
1378798500.0 0.005196571350097656 0.02973175048828125
1383794000.0 0.008291244506835938 0.029262542724609375
1388789500.0 0.011132240295410156 0.028371810913085938
1393785000.0 0.014039039611816406 0.027072906494140625
1398780500.0 0.016730308532714844 0.025646209716796875
1403776000.0 0.019339561462402344 0.023926734924316406
1408771500.0 0.021669387817382812 0.02193164825439453
1413767000.0 0.023792266845703125 0.01973438262939453
1418762500.0 0.02574920654296875 0.017198562622070312
1423758000.0 0.02739429473876953 0.014654159545898438
1428753500.0 0.028768539428710938 0.011799812316894531
1433749000.0 0.030038833618164062 0.008795738220214844
1438744500.0 0.030724525451660156 0.005656242370605469
1443740000.0 0.0312652587890625 0.0025157928466796875
1448735500.0 0.03138542175292969 -0.0005893707275390625
1453731000.0 0.031269073486328125 -0.0036907196044921875
1458726500.0 0.030831336975097656 -0.006890296936035156
1463722000.0 0.02996063232421875 -0.010004043579101562
1468717500.0 0.028882980346679688 -0.012935638427734375
1473713000.0 0.027434349060058594 -0.01582050323486328
1478708500.0 0.0258636474609375 -0.018507003784179688
1483704000.0 0.023880958557128906 -0.02111339569091797
1488699500.0 0.02155780792236328 -0.023352622985839844
1493695000.0 0.019021034240722656 -0.025458335876464844
1498690500.0 0.016393661499023438 -0.02741241455078125
1503686000.0 0.013766288757324219 -0.02888202667236328
1508681500.0 0.010642051696777344 -0.030103683471679688
1513677000.0 0.007495880126953125 -0.03125762939453125
1518672500.0 0.004451751708984375 -0.03170013427734375
1523668000.0 0.001190185546875 -0.0319366455078125
1528663500.0 -0.0020122528076171875 -0.03195953369140625
1533659000.0 -0.0052642822265625 -0.03161811828613281
1538654500.0 -0.008302688598632812 -0.030991554260253906
1543650000.0 -0.011444091796875 -0.030055999755859375
1548645500.0 -0.014469146728515625 -0.028642654418945312
1553641000.0 -0.017212867736816406 -0.027065277099609375
1558636500.0 -0.019746780395507812 -0.02533721923828125
1563632000.0 -0.022253990173339844 -0.023143768310546875
1568627500.0 -0.024530410766601562 -0.02085590362548828
1573623000.0 -0.02642345428466797 -0.018258094787597656
1578618500.0 -0.028046607971191406 -0.015431404113769531
1583614000.0 -0.0294342041015625 -0.012598037719726562
1588609500.0 -0.03061676025390625 -0.009507179260253906
1593605000.0 -0.031368255615234375 -0.006565093994140625
1598600500.0 -0.03184318542480469 -0.003368377685546875
1603596000.0 -0.03201866149902344 -0.0001697540283203125
1608591500.0 -0.031826019287109375 0.0029754638671875
1613587000.0 -0.031299591064453125 0.0060749053955078125
1618582500.0 -0.030473709106445312 0.009144783020019531
1623578000.0 -0.029466629028320312 0.012125968933105469
1628573500.0 -0.028095245361328125 0.014876365661621094
1633569000.0 -0.026487350463867188 0.017576217651367188
1638564500.0 -0.02465534210205078 0.02012920379638672
1643560000.0 -0.02252674102783203 0.022444725036621094
1648555500.0 -0.02023792266845703 0.024476051330566406
1653551000.0 -0.017742156982421875 0.026323318481445312
1658546500.0 -0.015048980712890625 0.027917861938476562
1663542000.0 -0.012162208557128906 0.02917766571044922
1668537500.0 -0.009295463562011719 0.03035449981689453
1673533000.0 -0.00615692138671875 0.030971527099609375
1678528500.0 -0.0031986236572265625 0.03143882751464844
1683524000.0 -0.0001697540283203125 0.03163337707519531
1688519500.0 0.0030193328857421875 0.03150367736816406
1693515000.0 0.006099700927734375 0.03108978271484375
1698510500.0 0.009165763854980469 0.03035736083984375
1703506000.0 0.012133598327636719 0.029338836669921875
1708501500.0 0.014939308166503906 0.027990341186523438
1713497000.0 0.01756572723388672 0.026372909545898438
1718492500.0 0.02007007598876953 0.02447795867919922
1723488000.0 0.02260875701904297 0.0224609375
1728483500.0 0.02462482452392578 0.020086288452148438
1733479000.0 0.02646350860595703 0.017530441284179688
1738474500.0 0.02799701690673828 0.014851570129394531
1743470000.0 0.02936077117919922 0.012005805969238281
1748465500.0 0.030450820922851562 0.008990287780761719
1753461000.0 0.031110763549804688 0.0060577392578125
1758456500.0 0.03159332275390625 0.0028133392333984375
1763452000.0 0.03152656555175781 -0.0002040863037109375
1768447500.0 0.031368255615234375 -0.0034236907958984375
1773443000.0 0.030826568603515625 -0.006534576416015625
1778438500.0 0.03004169464111328 -0.009528160095214844
1783434000.0 0.028901100158691406 -0.012360572814941406
1788429500.0 0.027505874633789062 -0.01519012451171875
1793425000.0 0.025861740112304688 -0.017704010009765625
1798420500.0 0.02391815185546875 -0.020226478576660156
1803416000.0 0.02173328399658203 -0.022498130798339844
1808411500.0 0.01939868927001953 -0.024408340454101562
1813407000.0 0.016889572143554688 -0.026183128356933594
1818402500.0 0.014222145080566406 -0.02773284912109375
1823398000.0 0.011397361755371094 -0.028860092163085938
1828393500.0 0.008337020874023438 -0.029870033264160156
1833389000.0 0.005440711975097656 -0.030431747436523438
1838384500.0 0.00235748291015625 -0.030732154846191406
