!Created with skrf (http://scikit-rf.org).
# Hz S RI R 50.0 
!freq ReS11 ImS11
45000000.0 -0.003864765167236328 -0.0008578300476074219
49995500.0 -0.004057884216308594 -0.00045037269592285156
54991000.0 -0.004383087158203125 6.365776062011719e-05
59986500.0 -0.0046308040618896484 0.0003566741943359375
64982000.0 -0.004833221435546875 0.0008335113525390625
69977500.0 -0.004828691482543945 0.0014553070068359375
74973000.0 -0.004898786544799805 0.0020203590393066406
79968500.0 -0.0048732757568359375 0.002629995346069336
84964000.0 -0.004656791687011719 0.0032613277435302734
89959500.0 -0.004424571990966797 0.0038404464721679688
94955000.0 -0.004041433334350586 0.004591941833496094
99950500.0 -0.0037882328033447266 0.005099296569824219
104946000.0 -0.0031621456146240234 0.005516767501831055
109941500.0 -0.0026025772094726562 0.006039142608642578
114937000.0 -0.0018610954284667969 0.006514310836791992
119932500.0 -0.0011439323425292969 0.006873607635498047
124928000.0 -0.0004570484161376953 0.007017612457275391
129923500.0 0.00042510032653808594 0.007207393646240234
134919000.0 0.0012559890747070312 0.007289886474609375
139914500.0 0.002130746841430664 0.0072748661041259766
144910000.0 0.002970457077026367 0.007035255432128906
149905500.0 0.0038263797760009766 0.0068111419677734375
154901000.0 0.0046749114990234375 0.0063478946685791016
159896500.0 0.0054242610931396484 0.0058629512786865234
164892000.0 0.00606989860534668 0.005362987518310547
169887500.0 0.0067865848541259766 0.004793643951416016
174883000.0 0.007531642913818359 0.0040242671966552734
179878500.0 0.007907390594482422 0.003208637237548828
184874000.0 0.008425235748291016 0.0023055076599121094
189869500.0 0.00878143310546875 0.0013737678527832031
194865000.0 0.008876800537109375 0.0004982948303222656
199860500.0 0.009068489074707031 -0.0005130767822265625
204856000.0 0.009138107299804688 -0.0015273094177246094
209851500.0 0.008980751037597656 -0.0025801658630371094
214847000.0 0.008748531341552734 -0.0036182403564453125
219842500.0 0.008433818817138672 -0.004576683044433594
224838000.0 0.007956981658935547 -0.005599021911621094
229833500.0 0.00738525390625 -0.006531953811645508
234829000.0 0.0066225528717041016 -0.007425069808959961
239824500.0 0.005839347839355469 -0.008188724517822266
244820000.0 0.005047798156738281 -0.008854866027832031
249815500.0 0.004033565521240234 -0.009482860565185547
254811000.0 0.0034685134887695312 -0.009964466094970703
259806500.0 0.0024127960205078125 -0.010457515716552734
264802000.0 0.0014472007751464844 -0.010642528533935547
269797500.0 0.00021886825561523438 -0.010991096496582031
274793000.0 -0.000911712646484375 -0.011019229888916016
279788500.0 -0.0021767616271972656 -0.011006832122802734
284784000.0 -0.003421306610107422 -0.010807037353515625
289779500.0 -0.0046863555908203125 -0.01047658920288086
294775000.0 -0.005722522735595703 -0.009911060333251953
299770500.0 -0.006938457489013672 -0.009463310241699219
304766000.0 -0.007939815521240234 -0.008689403533935547
309761500.0 -0.009014606475830078 -0.007985591888427734
314757000.0 -0.009822845458984375 -0.00696563720703125
319752500.0 -0.010581493377685547 -0.005963325500488281
324748000.0 -0.011373519897460938 -0.004857063293457031
329743500.0 -0.011928081512451172 -0.0035858154296875
334739000.0 -0.012404441833496094 -0.0022368431091308594
339734500.0 -0.012643814086914062 -0.0009903907775878906
344730000.0 -0.012792110443115234 0.0004410743713378906
349725500.0 -0.012700557708740234 0.0018048286437988281
354721000.0 -0.0124664306640625 0.0032320022583007812
359716500.0 -0.012215137481689453 0.004662990570068359
364712000.0 -0.011769771575927734 0.005980491638183594
369707500.0 -0.011106014251708984 0.007217884063720703
374703000.0 -0.010431289672851562 0.008509159088134766
379698500.0 -0.009451866149902344 0.009603023529052734
384694000.0 -0.008353233337402344 0.010691165924072266
389689500.0 -0.007251262664794922 0.011554718017578125
394685000.0 -0.005835056304931641 0.012384891510009766
399680500.0 -0.004529476165771484 0.012949943542480469
404676000.0 -0.003146648406982422 0.013576030731201172
409671500.0 -0.0017156600952148438 0.013983726501464844
414667000.0 -7.534027099609375e-05 0.01411294937133789
419662500.0 0.0013456344604492188 0.014116764068603516
424658000.0 0.002837657928466797 0.013940811157226562
429653500.0 0.0044536590576171875 0.013688087463378906
434649000.0 0.005970954895019531 0.013071060180664062
439644500.0 0.007313728332519531 0.012418270111083984
444640000.0 0.00867462158203125 0.011617660522460938
449635500.0 0.009888172149658203 0.010799884796142578
454631000.0 0.01108407974243164 0.009572029113769531
459626500.0 0.012156486511230469 0.008433818817138672
464622000.0 0.013011932373046875 0.007072925567626953
469617500.0 0.013776779174804688 0.005694389343261719
474613000.0 0.014434337615966797 0.004055023193359375
479608500.0 0.014748096466064453 0.0025815963745117188
484604000.0 0.015119075775146484 0.001056671142578125
489599500.0 0.015135765075683594 -0.00066375732421875
494595000.0 0.015019893646240234 -0.0022368431091308594
499590500.0 0.014742851257324219 -0.0039033889770507812
504586000.0 0.014195919036865234 -0.005443572998046875
509581500.0 0.013661384582519531 -0.006967067718505859
514577000.0 0.012857437133789062 -0.008523941040039062
519572500.0 0.011814117431640625 -0.009761810302734375
524568000.0 0.010828971862792969 -0.010945320129394531
529563500.0 0.009540081024169922 -0.0120697021484375
534559000.0 0.00827169418334961 -0.013052940368652344
539554500.0 0.006886959075927734 -0.013788700103759766
544550000.0 0.005500316619873047 -0.014497756958007812
549545500.0 0.0038695335388183594 -0.01508951187133789
554541000.0 0.0023937225341796875 -0.015491962432861328
559536500.0 0.0007610321044921875 -0.01569366455078125
564532000.0 -0.0008983612060546875 -0.0157623291015625
569527500.0 -0.0025634765625 -0.015714645385742188
574523000.0 -0.004183769226074219 -0.015469074249267578
579518500.0 -0.005776405334472656 -0.01495504379272461
584514000.0 -0.007389068603515625 -0.014298439025878906
589509500.0 -0.008838176727294922 -0.013521194458007812
594505000.0 -0.010269641876220703 -0.012582778930664062
599500500.0 -0.011639595031738281 -0.011486053466796875
604496000.0 -0.01279592514038086 -0.010138511657714844
609491500.0 -0.013781070709228516 -0.00879049301147461
614487000.0 -0.014712333679199219 -0.007350444793701172
619482500.0 -0.015549182891845703 -0.0058155059814453125
624478000.0 -0.016057968139648438 -0.0041217803955078125
629473500.0 -0.016478538513183594 -0.0024290084838867188
634469000.0 -0.0167083740234375 -0.000644683837890625
639464500.0 -0.01665019989013672 0.0009860992431640625
644460000.0 -0.016465187072753906 0.0027561187744140625
649455500.0 -0.01614856719970703 0.004366874694824219
654451000.0 -0.015594005584716797 0.006130695343017578
659446500.0 -0.014890670776367188 0.007782459259033203
664442000.0 -0.014032363891601562 0.009276390075683594
669437500.0 -0.013030529022216797 0.010740280151367188
674433000.0 -0.01185464859008789 0.012042999267578125
679428500.0 -0.010546684265136719 0.01329660415649414
684424000.0 -0.009073257446289062 0.014353275299072266
689419500.0 -0.007589817047119141 0.015189647674560547
694415000.0 -0.005854606628417969 0.015911102294921875
699410500.0 -0.004271507263183594 0.016384124755859375
704406000.0 -0.0025854110717773438 0.016806602478027344
709401500.0 -0.000782012939453125 0.017047882080078125
714397000.0 0.0010156631469726562 0.017004013061523438
719392500.0 0.0027341842651367188 0.0168609619140625
724388000.0 0.0044193267822265625 0.016472816467285156
729383500.0 0.006186485290527344 0.01580810546875
734379000.0 0.007694721221923828 0.01519918441772461
739374500.0 0.009206771850585938 0.014399528503417969
744370000.0 0.010692596435546875 0.013300418853759766
749365500.0 0.012009143829345703 0.012100696563720703
754361000.0 0.01317596435546875 0.010883331298828125
759356500.0 0.014256000518798828 0.009442329406738281
764352000.0 0.015124320983886719 0.00792551040649414
769347500.0 0.015824317932128906 0.0063629150390625
774343000.0 0.01636505126953125 0.004679679870605469
779338500.0 0.016763687133789062 0.0030336380004882812
784334000.0 0.016933441162109375 0.0012769699096679688
789329500.0 0.0170135498046875 -0.00051116943359375
794325000.0 0.016912460327148438 -0.0022411346435546875
799320500.0 0.01664447784423828 -0.0039005279541015625
804316000.0 0.01608753204345703 -0.005570411682128906
809311500.0 0.015392303466796875 -0.007118701934814453
814307000.0 0.01456308364868164 -0.008623600006103516
819302500.0 0.013571739196777344 -0.010050773620605469
824298000.0 0.012561321258544922 -0.011311531066894531
829293500.0 0.01126718521118164 -0.012488365173339844
834289000.0 0.009922981262207031 -0.01354360580444336
839284500.0 0.00857400894165039 -0.014461040496826172
844280000.0 0.007747650146484375 -0.015216827392578125
849275500.0 0.006186485290527344 -0.015770912170410156
854271000.0 0.004588127136230469 -0.016248703002929688
859266500.0 0.0030078887939453125 -0.01670360565185547
864262000.0 0.0013227462768554688 -0.016837120056152344
869257500.0 -0.0004138946533203125 -0.016791343688964844
874253000.0 -0.0019941329956054688 -0.016678810119628906
879248500.0 -0.0035295486450195312 -0.016417503356933594
884244000.0 -0.005161285400390625 -0.015956878662109375
889239500.0 -0.006635189056396484 -0.015424251556396484
894235000.0 -0.008068561553955078 -0.014650821685791016
899230500.0 -0.009497642517089844 -0.013847827911376953
904226000.0 -0.010745525360107422 -0.012801170349121094
909221500.0 -0.012042045593261719 -0.011815547943115234
914217000.0 -0.01300954818725586 -0.010483264923095703
919212500.0 -0.014150142669677734 -0.009193897247314453
924208000.0 -0.014994621276855469 -0.007760047912597656
929203500.0 -0.01564502716064453 -0.0063152313232421875
934199000.0 -0.016157150268554688 -0.004698753356933594
939194500.0 -0.01659679412841797 -0.0030794143676757812
944190000.0 -0.01673126220703125 -0.0014047622680664062
949185500.0 -0.01673412322998047 0.00014019012451171875
954181000.0 -0.01660442352294922 0.0017480850219726562
959176500.0 -0.016382217407226562 0.0034732818603515625
964172000.0 -0.015932083129882812 0.005030632019042969
969167500.0 -0.01545572280883789 0.006721019744873047
974163000.0 -0.0145721435546875 0.008018016815185547
979158500.0 -0.01379251480102539 0.009445667266845703
984154000.0 -0.012800216674804688 0.010645866394042969
989149500.0 -0.011670589447021484 0.011789798736572266
994145000.0 -0.010434627532958984 0.012859344482421875
999140500.0 -0.009057044982910156 0.013901233673095703
1004136000.0 -0.007839679718017578 0.014647483825683594
1009131500.0 -0.006294727325439453 0.015268802642822266
1014127000.0 -0.004895210266113281 0.01575946807861328
1019122500.0 -0.0032596588134765625 0.016112327575683594
1024118000.0 -0.0016880035400390625 0.016370773315429688
1029113500.0 5.245208740234375e-05 0.016450881958007812
1034109000.0 0.0014925003051757812 0.01641082763671875
1039104500.0 0.003021240234375 0.01614856719970703
1044100000.0 0.004664421081542969 0.01566314697265625
1049095500.0 0.006199836730957031 0.015274524688720703
1054091000.0 0.007506847381591797 0.0145111083984375
1059086500.0 0.008913993835449219 0.01371002197265625
1064082000.0 0.010109901428222656 0.01261758804321289
1069077500.0 0.011313915252685547 0.011655330657958984
1074073000.0 0.012296199798583984 0.010467529296875
1079068500.0 0.013260841369628906 0.009324073791503906
1084064000.0 0.014016151428222656 0.007969379425048828
1089059500.0 0.014837265014648438 0.006623744964599609
1094055000.0 0.015200614929199219 0.0050868988037109375
1099050500.0 0.015649795532226562 0.0037059783935546875
1104046000.0 0.015911102294921875 0.0022287368774414062
1109041500.0 0.016054153442382812 0.0004749298095703125
1114037000.0 0.016050338745117188 -0.0009813308715820312
1119032500.0 0.01584339141845703 -0.0023174285888671875
1124028000.0 0.015395164489746094 -0.003894805908203125
1129023500.0 0.01502227783203125 -0.005401611328125
1134019000.0 0.014481067657470703 -0.00675201416015625
1139014500.0 0.013664722442626953 -0.007967472076416016
1144010000.0 0.01282358169555664 -0.009230613708496094
1149005500.0 0.011949539184570312 -0.010498046875
1154001000.0 0.010801315307617188 -0.011524200439453125
1158996500.0 0.009754180908203125 -0.01248311996459961
1163992000.0 0.00836181640625 -0.013263702392578125
1168987500.0 0.007067203521728516 -0.01407623291015625
1173983000.0 0.005858898162841797 -0.01463460922241211
1178978500.0 0.004332065582275391 -0.015192508697509766
1183974000.0 0.0030112266540527344 -0.01551961898803711
1188969500.0 0.00147247314453125 -0.01562976837158203
1193965000.0 -4.100799560546875e-05 -0.015686988830566406
1198960500.0 -0.0014386177062988281 -0.015577316284179688
1203956000.0 -0.0028076171875 -0.015469551086425781
1208951500.0 -0.004233360290527344 -0.015034198760986328
1213947000.0 -0.0056171417236328125 -0.014658451080322266
1218942500.0 -0.006977558135986328 -0.014081001281738281
1223938000.0 -0.008343219757080078 -0.013256072998046875
1228933500.0 -0.009506702423095703 -0.0123748779296875
1233929000.0 -0.010510444641113281 -0.011484622955322266
1238924500.0 -0.011676788330078125 -0.010450363159179688
1243920000.0 -0.012528419494628906 -0.00939178466796875
1248915500.0 -0.0133209228515625 -0.008284568786621094
1253911000.0 -0.014041900634765625 -0.006932258605957031
1258906500.0 -0.01460123062133789 -0.005751609802246094
1263902000.0 -0.015114784240722656 -0.004193782806396484
1268897500.0 -0.01530599594116211 -0.002899646759033203
1273893000.0 -0.015503883361816406 -0.0015158653259277344
1278888500.0 -0.01583385467529297 5.53131103515625e-05
1283884000.0 -0.015672683715820312 0.0013446807861328125
1288879500.0 -0.015484809875488281 0.002880573272705078
1293875000.0 -0.015328407287597656 0.004264354705810547
1298870500.0 -0.014750957489013672 0.005564689636230469
1303866000.0 -0.014307022094726562 0.007068157196044922
1308861500.0 -0.013560771942138672 0.00836181640625
1313857000.0 -0.0127410888671875 0.00960683822631836
1318852500.0 -0.011900901794433594 0.010770320892333984
1323848000.0 -0.010781288146972656 0.011956214904785156
1328843500.0 -0.009743213653564453 0.012728214263916016
1333839000.0 -0.008468151092529297 0.013718128204345703
1338834500.0 -0.007115840911865234 0.014473438262939453
1343830000.0 -0.0059337615966796875 0.01509714126586914
1348825500.0 -0.004329681396484375 0.015575408935546875
1353821000.0 -0.0030050277709960938 0.016053199768066406
1358816500.0 -0.001514434814453125 0.016283035278320312
1363812000.0 5.817413330078125e-05 0.01632213592529297
1368807500.0 0.001720428466796875 0.016370773315429688
1373803000.0 0.003170013427734375 0.016231536865234375
1378798500.0 0.004749298095703125 0.01584625244140625
1383794000.0 0.0061817169189453125 0.015281200408935547
1388789500.0 0.007612705230712891 0.01480722427368164
1393785000.0 0.009006977081298828 0.014024734497070312
1398780500.0 0.010334968566894531 0.013110160827636719
1403776000.0 0.011580944061279297 0.012243270874023438
1408771500.0 0.012588024139404297 0.010968685150146484
1413767000.0 0.013636112213134766 0.009887218475341797
1418762500.0 0.014585018157958984 0.008531570434570312
1423758000.0 0.015316009521484375 0.007169246673583984
1428753500.0 0.016033172607421875 0.005675315856933594
1433749000.0 0.016533851623535156 0.0040760040283203125
1438744500.0 0.0168304443359375 0.00252532958984375
1443740000.0 0.01714801788330078 0.001026153564453125
1448735500.0 0.017220497131347656 -0.0006418228149414062
1453731000.0 0.017144203186035156 -0.002288818359375
1458726500.0 0.01682281494140625 -0.0038022994995117188
1463722000.0 0.016450881958007812 -0.005524635314941406
1468717500.0 0.015964508056640625 -0.0070285797119140625
1473713000.0 0.015278339385986328 -0.008525848388671875
1478708500.0 0.014466285705566406 -0.009965896606445312
1483704000.0 0.013268470764160156 -0.01126861572265625
1488699500.0 0.012320518493652344 -0.012565135955810547
1493695000.0 0.011107444763183594 -0.013821125030517578
1498690500.0 0.009745121002197266 -0.014760494232177734
1503686000.0 0.008357048034667969 -0.015625
1508681500.0 0.0067081451416015625 -0.016396522521972656
1513677000.0 0.00518035888671875 -0.016992568969726562
1518672500.0 0.00360870361328125 -0.017375946044921875
1523668000.0 0.0019540786743164062 -0.01770782470703125
1528663500.0 0.000278472900390625 -0.01795196533203125
1533659000.0 -0.0014162063598632812 -0.017882347106933594
1538654500.0 -0.0032339096069335938 -0.01776885986328125
1543650000.0 -0.004841804504394531 -0.017309188842773438
1548645500.0 -0.006373405456542969 -0.016773223876953125
1553641000.0 -0.008014678955078125 -0.016201019287109375
1558636500.0 -0.00946950912475586 -0.015338897705078125
1563632000.0 -0.011051177978515625 -0.014516830444335938
1568627500.0 -0.012333869934082031 -0.013339519500732422
1573623000.0 -0.013602733612060547 -0.012088775634765625
1578618500.0 -0.014689445495605469 -0.010920524597167969
1583614000.0 -0.015598773956298828 -0.009433269500732422
1588609500.0 -0.016523361206054688 -0.007988929748535156
1593605000.0 -0.017182350158691406 -0.006267547607421875
1598600500.0 -0.01779460906982422 -0.00476837158203125
1603596000.0 -0.01804351806640625 -0.003025054931640625
1608591500.0 -0.018296241760253906 -0.0012760162353515625
1613587000.0 -0.0184326171875 0.0004119873046875
1618582500.0 -0.0182647705078125 0.0021429061889648438
1623578000.0 -0.018052101135253906 0.003803253173828125
1628573500.0 -0.017648696899414062 0.005537986755371094
1633569000.0 -0.01711273193359375 0.007145881652832031
1638564500.0 -0.01642894744873047 0.008669853210449219
1643560000.0 -0.015595436096191406 0.010310173034667969
1648555500.0 -0.014565467834472656 0.011615753173828125
1653551000.0 -0.013457775115966797 0.012974739074707031
1658546500.0 -0.012209892272949219 0.014095306396484375
1663542000.0 -0.010781288146972656 0.015362262725830078
1668537500.0 -0.009320259094238281 0.01630687713623047
1673533000.0 -0.0078125 0.017151832580566406
1678528500.0 -0.006196022033691406 0.017795562744140625
1683524000.0 -0.0045108795166015625 0.018383026123046875
1688519500.0 -0.0027065277099609375 0.018853187561035156
1693515000.0 -0.00104522705078125 0.019069671630859375
1698510500.0 0.0007343292236328125 0.019144058227539062
1703506000.0 0.0025300979614257812 0.01900768280029297
1708501500.0 0.004431724548339844 0.01873016357421875
1713497000.0 0.0060901641845703125 0.018327713012695312
1718492500.0 0.008000373840332031 0.017637252807617188
1723488000.0 0.009551048278808594 0.016849517822265625
1728483500.0 0.011068344116210938 0.015924453735351562
1733479000.0 0.01256704330444336 0.0148468017578125
1738474500.0 0.013996124267578125 0.013641834259033203
1743470000.0 0.015268325805664062 0.012334346771240234
1748465500.0 0.01639556884765625 0.010852813720703125
1753461000.0 0.017385482788085938 0.00920867919921875
1758456500.0 0.01825428009033203 0.0076007843017578125
1763452000.0 0.018965721130371094 0.0057735443115234375
1768447500.0 0.0194549560546875 0.0039691925048828125
1773443000.0 0.01977825164794922 0.0021486282348632812
1778438500.0 0.019922256469726562 0.0002231597900390625
1783434000.0 0.019896507263183594 -0.0015659332275390625
1788429500.0 0.0196075439453125 -0.0034666061401367188
1793425000.0 0.019178390502929688 -0.005358695983886719
1798420500.0 0.018776893615722656 -0.007170677185058594
1803416000.0 0.017971038818359375 -0.008874893188476562
1808411500.0 0.017141342163085938 -0.010577201843261719
1813407000.0 0.016042709350585938 -0.012338638305664062
1818402500.0 0.014881610870361328 -0.013702392578125
1823398000.0 0.013553619384765625 -0.015117645263671875
1828393500.0 0.012049674987792969 -0.01622772216796875
1833389000.0 0.0103912353515625 -0.01737689971923828
1838384500.0 0.008896827697753906 -0.018280982971191406
