!Created with skrf (http://scikit-rf.org).
# Hz S RI R 50.0 
!freq ReS11 ImS11
45000000.0 -0.003922700881958008 -0.0007441043853759766
49995500.0 -0.00426936149597168 -0.0002288818359375
54991000.0 -0.004444122314453125 0.00033283233642578125
59986500.0 -0.0047359466552734375 0.0006368160247802734
64982000.0 -0.0048253536224365234 0.0011546611785888672
69977500.0 -0.004897594451904297 0.0018625259399414062
74973000.0 -0.004735231399536133 0.0024538040161132812
79968500.0 -0.004706144332885742 0.0031137466430664062
84964000.0 -0.0044782161712646484 0.003855466842651367
89959500.0 -0.004199981689453125 0.004376888275146484
94955000.0 -0.0035843849182128906 0.005097627639770508
99950500.0 -0.0030312538146972656 0.0056378841400146484
104946000.0 -0.002363443374633789 0.005980014801025391
109941500.0 -0.001667022705078125 0.006470918655395508
114937000.0 -0.0008378028869628906 0.006740570068359375
119932500.0 -3.62396240234375e-05 0.00682377815246582
124928000.0 0.0008616447448730469 0.00694584846496582
129923500.0 0.0017507076263427734 0.006846427917480469
134919000.0 0.0024962425231933594 0.006677865982055664
139914500.0 0.0033233165740966797 0.0064258575439453125
144910000.0 0.00418853759765625 0.005965709686279297
149905500.0 0.004870414733886719 0.005406856536865234
154901000.0 0.005460023880004883 0.004885435104370117
159896500.0 0.006117105484008789 0.004270315170288086
164892000.0 0.0065419673919677734 0.0035331249237060547
169887500.0 0.0069348812103271484 0.0027849674224853516
174883000.0 0.0072972774505615234 0.0019314289093017578
179878500.0 0.007503032684326172 0.001161336898803711
184874000.0 0.007599592208862305 0.0002071857452392578
189869500.0 0.007538318634033203 -0.0005600452423095703
194865000.0 0.007459163665771484 -0.0014984607696533203
199860500.0 0.007325649261474609 -0.0023670196533203125
204856000.0 0.006963253021240234 -0.0030443668365478516
209851500.0 0.0067059993743896484 -0.003930330276489258
214847000.0 0.00612330436706543 -0.004506826400756836
219842500.0 0.005631685256958008 -0.005165576934814453
224838000.0 0.005046844482421875 -0.0058023929595947266
229833500.0 0.004435300827026367 -0.00626826286315918
234829000.0 0.003657817840576172 -0.006684303283691406
239824500.0 0.0029807090759277344 -0.007059335708618164
244820000.0 0.002286672592163086 -0.007295846939086914
249815500.0 0.0014545917510986328 -0.007465839385986328
254811000.0 0.0009925365447998047 -0.007668972015380859
259806500.0 0.00023508071899414062 -0.007722616195678711
264802000.0 -0.00044155120849609375 -0.007884025573730469
269797500.0 -0.0012965202331542969 -0.007752180099487305
274793000.0 -0.002111196517944336 -0.007594585418701172
279788500.0 -0.0027618408203125 -0.007439374923706055
284784000.0 -0.0035181045532226562 -0.00704503059387207
289779500.0 -0.00425410270690918 -0.0067539215087890625
294775000.0 -0.004827260971069336 -0.006361722946166992
299770500.0 -0.005468845367431641 -0.005896329879760742
304766000.0 -0.006082296371459961 -0.005365133285522461
309761500.0 -0.006487131118774414 -0.0047245025634765625
314757000.0 -0.007103443145751953 -0.0041730403900146484
319752500.0 -0.0073964595794677734 -0.0034079551696777344
324748000.0 -0.007790327072143555 -0.0026903152465820312
329743500.0 -0.008061885833740234 -0.0019097328186035156
334739000.0 -0.008200645446777344 -0.00118255615234375
339734500.0 -0.008348941802978516 -0.0003218650817871094
344730000.0 -0.008463859558105469 0.0005145072937011719
349725500.0 -0.008303642272949219 0.0012631416320800781
354721000.0 -0.008417129516601562 0.0021314620971679688
359716500.0 -0.008056163787841797 0.0029811859130859375
364712000.0 -0.007884025573730469 0.003745555877685547
369707500.0 -0.007466316223144531 0.0044422149658203125
374703000.0 -0.007029533386230469 0.005382537841796875
379698500.0 -0.006476163864135742 0.006026506423950195
384694000.0 -0.0060422420501708984 0.006706953048706055
389689500.0 -0.0052945613861083984 0.007297515869140625
394685000.0 -0.004584312438964844 0.00792837142944336
399680500.0 -0.0038809776306152344 0.008344173431396484
404676000.0 -0.002997875213623047 0.00878286361694336
409671500.0 -0.0021381378173828125 0.009046554565429688
414667000.0 -0.0013666152954101562 0.009390830993652344
419662500.0 -0.0003409385681152344 0.009602546691894531
424658000.0 0.0005822181701660156 0.009697914123535156
429653500.0 0.0015997886657714844 0.009630203247070312
434649000.0 0.002693653106689453 0.009532451629638672
439644500.0 0.0036334991455078125 0.009243965148925781
444640000.0 0.004510402679443359 0.008900642395019531
449635500.0 0.005383491516113281 0.00847625732421875
454631000.0 0.006354808807373047 0.008008480072021484
459626500.0 0.007237434387207031 0.007398843765258789
464622000.0 0.008010387420654297 0.006781578063964844
469617500.0 0.008798599243164062 0.00595855712890625
474613000.0 0.00943899154663086 0.005030632019042969
479608500.0 0.009978294372558594 0.004093647003173828
484604000.0 0.010395526885986328 0.0030798912048339844
489599500.0 0.010772705078125 0.0019497871398925781
494595000.0 0.011000633239746094 0.0008673667907714844
499590500.0 0.011226654052734375 -0.0002651214599609375
504586000.0 0.011157512664794922 -0.0013980865478515625
509581500.0 0.011017322540283203 -0.0024652481079101562
514577000.0 0.010823249816894531 -0.0037927627563476562
519572500.0 0.010384559631347656 -0.0048122406005859375
524568000.0 0.010024547576904297 -0.005789279937744141
529563500.0 0.009414196014404297 -0.006908893585205078
534559000.0 0.008694171905517578 -0.007875442504882812
539554500.0 0.007945537567138672 -0.00873708724975586
544550000.0 0.0071887969970703125 -0.009630680084228516
549545500.0 0.0062503814697265625 -0.010516166687011719
554541000.0 0.005222797393798828 -0.011069297790527344
559536500.0 0.004060268402099609 -0.011621952056884766
564532000.0 0.0029344558715820312 -0.012210369110107422
569527500.0 0.0016803741455078125 -0.012540817260742188
574523000.0 0.0004405975341796875 -0.012761592864990234
579518500.0 -0.00092315673828125 -0.012890815734863281
584514000.0 -0.0022630691528320312 -0.012848854064941406
589509500.0 -0.0035409927368164062 -0.012676239013671875
594505000.0 -0.005016326904296875 -0.012338638305664062
599500500.0 -0.006209373474121094 -0.011940956115722656
604496000.0 -0.007548809051513672 -0.011240482330322266
609491500.0 -0.008755207061767578 -0.010516166687011719
614487000.0 -0.009833812713623047 -0.00982666015625
619482500.0 -0.010870933532714844 -0.008705615997314453
624478000.0 -0.011841297149658203 -0.007546901702880859
629473500.0 -0.012650489807128906 -0.006332874298095703
634469000.0 -0.01338338851928711 -0.0050830841064453125
639464500.0 -0.014021873474121094 -0.0037069320678710938
644460000.0 -0.01440286636352539 -0.0022568702697753906
649455500.0 -0.014586925506591797 -0.0007081031799316406
654451000.0 -0.014695167541503906 0.0008015632629394531
659446500.0 -0.014668464660644531 0.0023207664489746094
664442000.0 -0.01446533203125 0.0038013458251953125
669437500.0 -0.01409912109375 0.005419254302978516
674433000.0 -0.0135650634765625 0.006863117218017578
679428500.0 -0.012898445129394531 0.008219242095947266
684424000.0 -0.01211690902709961 0.009587764739990234
689419500.0 -0.011045455932617188 0.01089334487915039
694415000.0 -0.009962081909179688 0.012035846710205078
699410500.0 -0.008663177490234375 0.013131141662597656
704406000.0 -0.0072994232177734375 0.013931751251220703
709401500.0 -0.0058441162109375 0.014740467071533203
714397000.0 -0.004383087158203125 0.015419483184814453
719392500.0 -0.0027914047241210938 0.015878677368164062
724388000.0 -0.0011320114135742188 0.016202926635742188
729383500.0 0.0006837844848632812 0.016303062438964844
734379000.0 0.0022230148315429688 0.016180038452148438
739374500.0 0.0039052963256835938 0.015960693359375
744370000.0 0.005589485168457031 0.015568256378173828
749365500.0 0.007189750671386719 0.01503753662109375
754361000.0 0.008726119995117188 0.014212608337402344
759356500.0 0.01018524169921875 0.01339578628540039
764352000.0 0.01161336898803711 0.012331485748291016
769347500.0 0.012914180755615234 0.011137962341308594
774343000.0 0.013941287994384766 0.00975942611694336
779338500.0 0.015022754669189453 0.008305549621582031
784334000.0 0.015897750854492188 0.006791114807128906
789329500.0 0.016571998596191406 0.005103111267089844
794325000.0 0.01711273193359375 0.0033321380615234375
799320500.0 0.017386436462402344 0.0016298294067382812
804316000.0 0.01751422882080078 -0.0001735687255859375
809311500.0 0.01748180389404297 -0.0019283294677734375
814307000.0 0.01731109619140625 -0.0037508010864257812
819302500.0 0.01691913604736328 -0.0055599212646484375
824298000.0 0.016351699829101562 -0.0072422027587890625
829293500.0 0.015483379364013672 -0.008954524993896484
834289000.0 0.014557361602783203 -0.010516166687011719
839284500.0 0.01351022720336914 -0.011834144592285156
844280000.0 0.012965679168701172 -0.012909412384033203
849275500.0 0.01165008544921875 -0.014155387878417969
854271000.0 0.010135173797607422 -0.0153045654296875
859266500.0 0.008608818054199219 -0.01633739471435547
864262000.0 0.007008552551269531 -0.01710796356201172
869257500.0 0.005234718322753906 -0.017873764038085938
874253000.0 0.0034532546997070312 -0.018383026123046875
879248500.0 0.0015802383422851562 -0.01855182647705078
884244000.0 -0.00032138824462890625 -0.01873779296875
889239500.0 -0.0021800994873046875 -0.018731117248535156
894235000.0 -0.004046440124511719 -0.01842498779296875
899230500.0 -0.005764961242675781 -0.018171310424804688
904226000.0 -0.0076618194580078125 -0.017479896545410156
909221500.0 -0.009449005126953125 -0.01669597625732422
914217000.0 -0.011063575744628906 -0.01594257354736328
919212500.0 -0.012599945068359375 -0.014641761779785156
924208000.0 -0.014160633087158203 -0.013278961181640625
929203500.0 -0.015432357788085938 -0.011989593505859375
934199000.0 -0.01671600341796875 -0.010239601135253906
939194500.0 -0.01778697967529297 -0.00856781005859375
944190000.0 -0.018545150756835938 -0.0069179534912109375
949185500.0 -0.019229888916015625 -0.004932403564453125
954181000.0 -0.01978015899658203 -0.0030059814453125
959176500.0 -0.020056724548339844 -0.0010175704956054688
964172000.0 -0.020153045654296875 0.0009975433349609375
969167500.0 -0.019880294799804688 0.0031070709228515625
974163000.0 -0.019628524780273438 0.005123138427734375
979158500.0 -0.018932342529296875 0.0070896148681640625
984154000.0 -0.018187522888183594 0.00901031494140625
989149500.0 -0.017312049865722656 0.010732650756835938
994145000.0 -0.016083717346191406 0.01250457763671875
999140500.0 -0.014807701110839844 0.01407003402709961
1004136000.0 -0.013300418853759766 0.015564918518066406
1009131500.0 -0.011730194091796875 0.016843795776367188
1014127000.0 -0.009909629821777344 0.01804351806640625
1019122500.0 -0.008141517639160156 0.018959999084472656
1024118000.0 -0.006153106689453125 0.019739151000976562
1029113500.0 -0.00433349609375 0.020255088806152344
1034109000.0 -0.0022573471069335938 0.020605087280273438
1039104500.0 -8.0108642578125e-05 0.020748138427734375
1044100000.0 0.002002716064453125 0.020745277404785156
1049095500.0 0.0040111541748046875 0.020438194274902344
1054091000.0 0.006247520446777344 0.019968032836914062
1059086500.0 0.008057594299316406 0.019256591796875
1064082000.0 0.009997367858886719 0.018321990966796875
1069077500.0 0.01181793212890625 0.017220497131347656
1074073000.0 0.013536453247070312 0.016000747680664062
1079068500.0 0.015091419219970703 0.014682292938232422
1084064000.0 0.016496658325195312 0.013039588928222656
1089059500.0 0.01778411865234375 0.011336326599121094
1094055000.0 0.018754959106445312 0.009428024291992188
1099050500.0 0.019707679748535156 0.007579803466796875
1104046000.0 0.020299911499023438 0.005482673645019531
1109041500.0 0.02086353302001953 0.0034637451171875
1114037000.0 0.021083831787109375 0.0014257431030273438
1119032500.0 0.021123886108398438 -0.0006532669067382812
1124028000.0 0.020981788635253906 -0.0028705596923828125
1129023500.0 0.020653724670410156 -0.004977226257324219
1134019000.0 0.019937515258789062 -0.0069751739501953125
1139014500.0 0.019257545471191406 -0.00890350341796875
1144010000.0 0.018312454223632812 -0.010812759399414062
1149005500.0 0.017119407653808594 -0.012402534484863281
1154001000.0 0.01579570770263672 -0.014163970947265625
1158996500.0 0.0142669677734375 -0.0157470703125
1163992000.0 0.012643814086914062 -0.01704120635986328
1168987500.0 0.010796546936035156 -0.018209457397460938
1173983000.0 0.008944511413574219 -0.01922130584716797
1178978500.0 0.006974220275878906 -0.019962310791015625
1183974000.0 0.005023002624511719 -0.020529747009277344
1188969500.0 0.0028162002563476562 -0.02093982696533203
1193965000.0 0.00093841552734375 -0.021083831787109375
1198960500.0 -0.0012416839599609375 -0.02109241485595703
1203956000.0 -0.0032205581665039062 -0.0208587646484375
1208951500.0 -0.005279541015625 -0.020412445068359375
1213947000.0 -0.007391929626464844 -0.01955699920654297
1218942500.0 -0.009238243103027344 -0.01879119873046875
1223938000.0 -0.011078834533691406 -0.017853736877441406
1228933500.0 -0.012742042541503906 -0.016709327697753906
1233929000.0 -0.014207839965820312 -0.015336036682128906
1238924500.0 -0.01566314697265625 -0.01389312744140625
1243920000.0 -0.0169525146484375 -0.012262344360351562
1248915500.0 -0.018044471740722656 -0.010589599609375
1253911000.0 -0.018962860107421875 -0.008708000183105469
1258906500.0 -0.019690513610839844 -0.0069255828857421875
1263902000.0 -0.02029895782470703 -0.0049285888671875
1268897500.0 -0.02064800262451172 -0.0028467178344726562
1273893000.0 -0.020918846130371094 -0.000885009765625
1278888500.0 -0.020849227905273438 0.0010223388671875
1283884000.0 -0.02061939239501953 0.0031261444091796875
1288879500.0 -0.02025604248046875 0.00510406494140625
1293875000.0 -0.01972198486328125 0.0070323944091796875
1298870500.0 -0.018828392028808594 0.008974075317382812
1303866000.0 -0.017984390258789062 0.010711669921875
1308861500.0 -0.016876220703125 0.012380599975585938
1313857000.0 -0.01557779312133789 0.014028549194335938
1318852500.0 -0.014043807983398438 0.01539754867553711
1323848000.0 -0.012539863586425781 0.01674938201904297
1328843500.0 -0.010858535766601562 0.01792621612548828
1333839000.0 -0.008985519409179688 0.018840789794921875
1338834500.0 -0.0071468353271484375 0.019618988037109375
1343830000.0 -0.0052013397216796875 0.020345687866210938
1348825500.0 -0.00327301025390625 0.020635604858398438
1353821000.0 -0.0010700225830078125 0.020833969116210938
1358816500.0 0.000873565673828125 0.020989418029785156
1363812000.0 0.0029211044311523438 0.02072429656982422
1368807500.0 0.0048885345458984375 0.020290374755859375
1373803000.0 0.006955146789550781 0.019750595092773438
1378798500.0 0.008715629577636719 0.018957138061523438
1383794000.0 0.010648727416992188 0.01795673370361328
1388789500.0 0.012337684631347656 0.016814231872558594
1393785000.0 0.013914108276367188 0.015535831451416016
1398780500.0 0.015309333801269531 0.014139175415039062
1403776000.0 0.016618728637695312 0.012501716613769531
1408771500.0 0.017699241638183594 0.010833740234375
1413767000.0 0.018782615661621094 0.008969306945800781
1418762500.0 0.019440650939941406 0.007250785827636719
1423758000.0 0.020193099975585938 0.005328178405761719
1428753500.0 0.020450592041015625 0.00322723388671875
1433749000.0 0.020598411560058594 0.0012979507446289062
1438744500.0 0.020735740661621094 -0.0007848739624023438
1443740000.0 0.02049541473388672 -0.00264739990234375
1448735500.0 0.0201416015625 -0.004703521728515625
1453731000.0 0.019504547119140625 -0.006634712219238281
1458726500.0 0.018754005432128906 -0.008561134338378906
1463722000.0 0.0178070068359375 -0.010262489318847656
1468717500.0 0.016754150390625 -0.011933326721191406
1473713000.0 0.015452861785888672 -0.013553619384765625
1478708500.0 0.014039039611816406 -0.014932632446289062
1483704000.0 0.012551307678222656 -0.016180038452148438
1488699500.0 0.01085662841796875 -0.017264366149902344
1493695000.0 0.009213447570800781 -0.018157958984375
1498690500.0 0.00733184814453125 -0.018967628479003906
1503686000.0 0.0053997039794921875 -0.019637107849121094
1508681500.0 0.0034236907958984375 -0.02005290985107422
1513677000.0 0.0016078948974609375 -0.020145416259765625
1518672500.0 -0.000400543212890625 -0.02029132843017578
1523668000.0 -0.0023221969604492188 -0.020035743713378906
1528663500.0 -0.004355430603027344 -0.019720077514648438
1533659000.0 -0.0060520172119140625 -0.019181251525878906
1538654500.0 -0.00783538818359375 -0.018529891967773438
1543650000.0 -0.009607315063476562 -0.017525672912597656
1548645500.0 -0.011171340942382812 -0.016640663146972656
1553641000.0 -0.012805938720703125 -0.015253543853759766
1558636500.0 -0.013992786407470703 -0.014020442962646484
1563632000.0 -0.015360832214355469 -0.012533187866210938
1568627500.0 -0.016434669494628906 -0.011074066162109375
1573623000.0 -0.017307281494140625 -0.009366989135742188
1578618500.0 -0.018108367919921875 -0.007640838623046875
1583614000.0 -0.018792152404785156 -0.005909919738769531
1588609500.0 -0.01912212371826172 -0.004052162170410156
1593605000.0 -0.019454002380371094 -0.0021619796752929688
1598600500.0 -0.019411087036132812 -0.000415802001953125
1603596000.0 -0.019194602966308594 0.0014123916625976562
1608591500.0 -0.019041061401367188 0.0032796859741210938
1613587000.0 -0.018576622009277344 0.005026817321777344
1618582500.0 -0.017989158630371094 0.006705284118652344
1623578000.0 -0.017225265502929688 0.008291244506835938
1628573500.0 -0.016195297241210938 0.00986480712890625
1633569000.0 -0.015335559844970703 0.011399269104003906
1638564500.0 -0.014121532440185547 0.012732982635498047
1643560000.0 -0.012854576110839844 0.013948917388916016
1648555500.0 -0.011434078216552734 0.015088081359863281
1653551000.0 -0.009988784790039062 0.015933990478515625
1658546500.0 -0.008562088012695312 0.016777992248535156
1663542000.0 -0.006882667541503906 0.01747894287109375
1668537500.0 -0.005169868469238281 0.018074989318847656
1673533000.0 -0.0035753250122070312 0.01842021942138672
1678528500.0 -0.0017938613891601562 0.018671035766601562
1683524000.0 -0.00016689300537109375 0.018805503845214844
1688519500.0 0.0017108917236328125 0.018678665161132812
1693515000.0 0.0034379959106445312 0.018289566040039062
1698510500.0 0.005116462707519531 0.017946243286132812
1703506000.0 0.0068511962890625 0.017375946044921875
1708501500.0 0.008362770080566406 0.01668834686279297
1713497000.0 0.009856224060058594 0.01583385467529297
1718492500.0 0.01140594482421875 0.014791488647460938
1723488000.0 0.012610912322998047 0.013596534729003906
1728483500.0 0.013776302337646484 0.012309551239013672
1733479000.0 0.014874935150146484 0.010999202728271484
1738474500.0 0.015796661376953125 0.009613037109375
1743470000.0 0.01669597625732422 0.007951736450195312
1748465500.0 0.017314910888671875 0.006392478942871094
1753461000.0 0.01783275604248047 0.00476837158203125
1758456500.0 0.01817035675048828 0.0031270980834960938
1763452000.0 0.018346786499023438 0.0013628005981445312
1768447500.0 0.018402099609375 -0.00028514862060546875
1773443000.0 0.018136978149414062 -0.0020618438720703125
1778438500.0 0.017991065979003906 -0.0036468505859375
1783434000.0 0.01745319366455078 -0.005261421203613281
1788429500.0 0.016908645629882812 -0.006938934326171875
1793425000.0 0.01609039306640625 -0.008455276489257812
1798420500.0 0.015201568603515625 -0.00984048843383789
1803416000.0 0.014220237731933594 -0.011189460754394531
1808411500.0 0.01311635971069336 -0.012511253356933594
1813407000.0 0.011861324310302734 -0.013585567474365234
1818402500.0 0.010617733001708984 -0.014641761779785156
1823398000.0 0.009208202362060547 -0.015493392944335938
1828393500.0 0.007599830627441406 -0.0162200927734375
1833389000.0 0.006136894226074219 -0.0168609619140625
1838384500.0 0.004578590393066406 -0.01729106903076172
