!Created with skrf (http://scikit-rf.org).
# Hz S RI R 50.0 
!freq ReS11 ImS11
300000.0 1.002528803 0.0015752102
5299970.0 1.005039468 -0.0079160623
10299940.0 1.004150727 -0.0143850176
15299910.0 1.004844216 -0.020234244
20299880.0 1.004738638 -0.0267361547
25299850.0 1.003887586 -0.0336074666
30299820.0 1.003923927 -0.0394899318
35299790.0 1.003530832 -0.0460894208
40299760.0 1.003507662 -0.052026469
45299730.0 1.003074967 -0.0589741108
50299700.0 1.002549552 -0.0647821658
55299670.0 1.003110731 -0.0711539827
60299640.0 1.001924483 -0.0777994516
65299610.0 1.001385306 -0.0838831976
70299580.0 1.000983733 -0.0890889257
75299550.0 1.000011718 -0.0959192308
80299520.0 0.9997723577 -0.1026190916
85299490.0 0.9987673525 -0.109091926
90299460.0 0.9981613004 -0.1152817487
95299430.0 0.9976385713 -0.1214590988
100299400.0 0.9966792227 -0.1276650249
105299370.0 0.9958628278 -0.1336283102
110299340.0 0.9950709029 -0.1402315134
115299310.0 0.9939398313 -0.1468366241
120299280.0 0.9930984606 -0.1525530775
125299250.0 0.9917800917 -0.159039259
130299220.0 0.9910935919 -0.1648474386
135299190.0 0.9899865709 -0.1711028059
140299160.0 0.9889517454 -0.1777095912
145299130.0 0.9878710957 -0.1837975743
150299100.0 0.9860503893 -0.1896750063
155299070.0 0.9854429852 -0.195688065
160299040.0 0.9838437386 -0.2025562035
165299010.0 0.9830473248 -0.207977586
170298980.0 0.9810743095 -0.2134845399
175298950.0 0.9790249373 -0.2206409461
180298920.0 0.9769850491 -0.2266887369
185298890.0 0.9757590806 -0.2325244497
190298860.0 0.9753028599 -0.2385247626
195298830.0 0.973866778 -0.2447539726
200298800.0 0.9723062655 -0.2508246794
205298770.0 0.9705432894 -0.256979569
210298740.0 0.9693566306 -0.2634825782
215298710.0 0.9675138428 -0.2693388598
220298680.0 0.9655876097 -0.2750759483
225298650.0 0.9640608986 -0.2813206588
230298620.0 0.9621431798 -0.287376575
235298590.0 0.959636529 -0.2926899995
240298560.0 0.9577749617 -0.2992271786
245298530.0 0.9560612577 -0.3053200684
250298500.0 0.9541375284 -0.3108843263
255298470.0 0.9523690841 -0.3168429631
260298440.0 0.9504314756 -0.323121965
265298410.0 0.9485442539 -0.3287220733
270298380.0 0.9461120991 -0.3348443493
275298350.0 0.943755062 -0.3405458093
280298320.0 0.9420176124 -0.3466445262
285298290.0 0.9403094165 -0.3525009466
290298260.0 0.93706259 -0.3577355385
295298230.0 0.9347613404 -0.3638811637
300298200.0 0.9321673344 -0.3700144833
305298170.0 0.9303829948 -0.3749407346
310298140.0 0.9276857544 -0.3815223214
315298110.0 0.9252651858 -0.387393965
320298080.0 0.9230995547 -0.3930918379
325298050.0 0.9207901466 -0.3988228143
330298020.0 0.9181741634 -0.4048009903
335297990.0 0.9153389426 -0.4102565553
340297960.0 0.9128404254 -0.4159005515
345297930.0 0.9103289368 -0.4212851653
350297900.0 0.9079871623 -0.4275861049
355297870.0 0.9054139568 -0.4337722029
360297840.0 0.9031499481 -0.4390868101
365297810.0 0.9003648696 -0.4448315402
370297780.0 0.896862461 -0.4502817799
375297750.0 0.8933175884 -0.4551636011
380297720.0 0.8906057168 -0.4613535765
385297690.0 0.8874676038 -0.4664941888
390297660.0 0.8847471536 -0.4719696946
395297630.0 0.8815862268 -0.4769701413
400297600.0 0.8789797585 -0.4829994593
405297570.0 0.8756074096 -0.4879808531
410297540.0 0.8727151642 -0.4935861061
415297510.0 0.8692503346 -0.4994646511
420297480.0 0.8664221651 -0.5035772156
425297450.0 0.863296977 -0.5097898075
430297420.0 0.8604575487 -0.5148733684
435297390.0 0.8567121623 -0.52014651
440297360.0 0.8536630186 -0.5259817457
445297330.0 0.850022976 -0.5312319845
450297300.0 0.8466587622 -0.5365083092
455297270.0 0.8431297939 -0.5413960044
460297240.0 0.8402898035 -0.5467007527
465297210.0 0.8364071235 -0.5522907139
470297180.0 0.8332738431 -0.55725131
475297150.0 0.8291950921 -0.5630523135
480297120.0 0.8258235855 -0.5676587413
485297090.0 0.8221430659 -0.5729932809
490297060.0 0.8189154256 -0.5780646494
495297030.0 0.8149121615 -0.5832723658
500297000.0 0.8112254295 -0.5880245463
505296970.0 0.8072231598 -0.5930856759
510296940.0 0.8038532202 -0.5977758005
515296910.0 0.8002182083 -0.6027668242
520296880.0 0.7958470184 -0.6076926804
525296850.0 0.792031135 -0.612736183
530296820.0 0.7883301568 -0.6180350294
535296790.0 0.7843319355 -0.6229625594
540296760.0 0.7803783475 -0.6276329267
545296730.0 0.7765419272 -0.632423674
550296700.0 0.7724033492 -0.637174075
555296670.0 0.7686646703 -0.6419759244
560296640.0 0.7649218722 -0.6467757662
565296610.0 0.7611644606 -0.6516642559
570296580.0 0.7567062503 -0.6565439217
575296550.0 0.7524336709 -0.6612086603
580296520.0 0.7481790254 -0.665948694
585296490.0 0.7435186808 -0.6704746686
590296460.0 0.7398708822 -0.6753932669
595296430.0 0.7358140792 -0.6794212669
600296400.0 0.7314839306 -0.6841693558
605296370.0 0.7271221316 -0.6880040297
610296340.0 0.722928897 -0.6926220533
615296310.0 0.7188285932 -0.697554906
620296280.0 0.7140185076 -0.7024641457
625296250.0 0.7100842537 -0.7065122735
630296220.0 0.7049181457 -0.7107847827
635296190.0 0.7006830211 -0.7153864299
640296160.0 0.6961541835 -0.7193640356
645296130.0 0.691728582 -0.723432864
650296100.0 0.6872909337 -0.7282780918
655296070.0 0.6822665225 -0.7326250732
660296040.0 0.6782953561 -0.7363355075
665296010.0 0.6739026345 -0.7406377267
670295980.0 0.6683672569 -0.7447870922
675295950.0 0.6634119478 -0.7489559041
680295920.0 0.6597612591 -0.7530001004
685295890.0 0.6544960962 -0.7572838123
690295860.0 0.6500763314 -0.7617180945
695295830.0 0.6450139374 -0.7650201063
700295800.0 0.6407652991 -0.769753897
705295770.0 0.6355005607 -0.773623692
710295740.0 0.6307242008 -0.777405271
715295710.0 0.6254977498 -0.7813359269
720295680.0 0.6207863932 -0.7854314644
725295650.0 0.6155460183 -0.7889322926
730295620.0 0.6108153126 -0.7928031768
735295590.0 0.6058321119 -0.7966381207
740295560.0 0.6008325148 -0.8000249401
745295530.0 0.5959636813 -0.8042027354
750295500.0 0.5905256158 -0.808226612
755295470.0 0.5856900557 -0.8116932605
760295440.0 0.5808175665 -0.8146527661
765295410.0 0.5754241425 -0.8186680636
770295380.0 0.5705386944 -0.8223946542
775295350.0 0.5652636282 -0.8257212087
780295320.0 0.5599709882 -0.8291745497
785295290.0 0.5551170927 -0.8332537357
790295260.0 0.5498514881 -0.8361481441
795295230.0 0.5445542395 -0.8397260871
800295200.0 0.5392835457 -0.8428744
805295170.0 0.5341413747 -0.8457432503
810295140.0 0.5289094652 -0.8498279645
815295110.0 0.5236818777 -0.8533479881
820295080.0 0.5179533092 -0.8559273826
825295050.0 0.5125206951 -0.859955249
830295020.0 0.5074255746 -0.86311836
835294990.0 0.5015558794 -0.8657300513
840294960.0 0.4966496666 -0.8686776603
845294930.0 0.4910635016 -0.8717171385
850294900.0 0.4854479761 -0.8746427083
855294870.0 0.4796688863 -0.8777777343
860294840.0 0.4749964483 -0.8808564985
865294810.0 0.4689687567 -0.8836228203
870294780.0 0.4638653658 -0.8864156098
875294750.0 0.4582457421 -0.8896182162
880294720.0 0.4527257518 -0.8924286652
885294690.0 0.4472347963 -0.8954440858
890294660.0 0.4413925096 -0.8978987676
895294630.0 0.4359390233 -0.9007117207
900294600.0 0.4303786181 -0.9032848806
905294570.0 0.4245540302 -0.9060722019
910294540.0 0.4188800862 -0.908531992
915294510.0 0.4125605384 -0.9110271853
920294480.0 0.4073472605 -0.9133360375
925294450.0 0.4016292285 -0.915962651
930294420.0 0.3959038204 -0.9192604057
935294390.0 0.3894407049 -0.9209829802
940294360.0 0.3842334123 -0.9228911277
945294330.0 0.3787104604 -0.9257376246
950294300.0 0.372770724 -0.9278067666
955294270.0 0.3664025724 -0.9306323423
960294240.0 0.3605461425 -0.9325207
965294210.0 0.354722243 -0.9350587001
970294180.0 0.3489154622 -0.9371796615
975294150.0 0.3434027639 -0.939772666
980294120.0 0.3375134419 -0.94134318
985294090.0 0.3318298302 -0.9438889378
990294060.0 0.3255303807 -0.9455106266
995294030.0 0.3197393634 -0.947168064
1000294000.0 0.3135081386 -0.9496369495
1005293970.0 0.3079910179 -0.9517206426
1010293940.0 0.3015086477 -0.9531291645
1015293910.0 0.2958389905 -0.954508468
1020293880.0 0.2903247172 -0.9564963755
1025293850.0 0.2843240163 -0.9582119091
1030293820.0 0.2784405653 -0.9600582678
1035293790.0 0.272273311 -0.9621283959
1040293760.0 0.2661611847 -0.9627953177
1045293730.0 0.259855553 -0.9656235135
1050293700.0 0.254131947 -0.9670983874
1055293670.0 0.2480271616 -0.9684791624
1060293640.0 0.2421150845 -0.9697274541
1065293610.0 0.2361879298 -0.9709958795
1070293580.0 0.2300636336 -0.972229154
1075293550.0 0.2240157759 -0.9742889664
1080293520.0 0.217388635 -0.9753596974
1085293490.0 0.211341487 -0.976788088
1090293460.0 0.2049796264 -0.9779812088
1095293430.0 0.1986975845 -0.9794464983
1100293400.0 0.1921569358 -0.9808899531
1105293370.0 0.1869572312 -0.9818518376
1110293340.0 0.1805117294 -0.9827341821
1115293310.0 0.1743650586 -0.9840526572
1120293280.0 0.1682213173 -0.9845184104
1125293250.0 0.1627431702 -0.9854528943
1130293220.0 0.1570281245 -0.9869956763
1135293190.0 0.1502926813 -0.9875016512
1140293160.0 0.1437175561 -0.9883525101
1145293130.0 0.1376679804 -0.9888180278
1150293100.0 0.1308492644 -0.9900530055
1155293070.0 0.1248648684 -0.9906832186
1160293040.0 0.1184601876 -0.9913041648
1165293010.0 0.1126260735 -0.9919537178
1170292980.0 0.1057505504 -0.9930963658
1175292950.0 0.1001745826 -0.9936344079
1180292920.0 0.0941455693 -0.9939457851
1185292890.0 0.0879050617 -0.9945140494
1190292860.0 0.0821141327 -0.9952472067
1195292830.0 0.0757402457 -0.9956249368
1200292800.0 0.0697672712 -0.9958198849
1205292770.0 0.0638593024 -0.9963627039
1210292740.0 0.0577804458 -0.9971540485
1215292710.0 0.0514477297 -0.9966715867
1220292680.0 0.0449096309 -0.9978485123
1225292650.0 0.0394207448 -0.9977597814
1230292620.0 0.0326705167 -0.9976387739
1235292590.0 0.0264212124 -0.9975906216
1240292560.0 0.0199396635 -0.9977796457
1245292530.0 0.0139548612 -0.9977142357
1250292500.0 0.0077906508 -0.998009971
1255292470.0 0.0017699244 -0.9974185657
1260292440.0 -0.0044811865 -0.9977600483
1265292410.0 -0.0107947035 -0.9977859739
1270292380.0 -0.0166863155 -0.9981176814
1275292350.0 -0.0230876103 -0.9978819675
1280292320.0 -0.0295431422 -0.9973586007
1285292290.0 -0.0358083062 -0.9968952268
1290292260.0 -0.0418351396 -0.9968865408
1295292230.0 -0.048130903 -0.9966413311
1300292200.0 -0.0542686699 -0.9961186972
1305292170.0 -0.060063295 -0.9957989
1310292140.0 -0.0664820807 -0.9949064475
1315292110.0 -0.0724475956 -0.9944178797
1320292080.0 -0.0791125948 -0.9938496974
1325292050.0 -0.0848969195 -0.9930907831
1330292020.0 -0.091680732 -0.9924852321
1335291990.0 -0.0979618452 -0.9925921582
1340291960.0 -0.1040882086 -0.9914609403
1345291930.0 -0.1108000475 -0.9905400224
1350291900.0 -0.1165960178 -0.989766665
1355291870.0 -0.122482617 -0.9889500103
1360291840.0 -0.1283619351 -0.9889348684
1365291810.0 -0.1345905593 -0.9875151686
1370291780.0 -0.1406587545 -0.9868161362
1375291750.0 -0.1465616875 -0.985868313
1380291720.0 -0.1529427482 -0.9846028709
1385291690.0 -0.1593497274 -0.983766948
1390291660.0 -0.1649020877 -0.9820170754
1395291630.0 -0.1712916201 -0.9811508372
1400291600.0 -0.1780666641 -0.9804586748
1405291570.0 -0.1834626574 -0.9795098915
1410291540.0 -0.1897519896 -0.9781972826
1415291510.0 -0.1954331447 -0.9768709087
1420291480.0 -0.2014189697 -0.9756065191
1425291450.0 -0.2080641268 -0.9740314112
1430291420.0 -0.2135681305 -0.972700369
1435291390.0 -0.2193857271 -0.9716127879
1440291360.0 -0.2253835404 -0.9702532039
1445291330.0 -0.2315470724 -0.9685330057
1450291300.0 -0.2363736853 -0.9671808822
1455291270.0 -0.2428752676 -0.9656389361
1460291240.0 -0.2488613605 -0.9634192596
1465291210.0 -0.2553337749 -0.9620433845
1470291180.0 -0.2609231404 -0.9602974131
1475291150.0 -0.2667379975 -0.9592518606
1480291120.0 -0.2732751539 -0.9575982338
1485291090.0 -0.2791651956 -0.9553204861
1490291060.0 -0.2851085305 -0.9534817933
1495291030.0 -0.2907085986 -0.9519704003
1500291000.0 -0.2962783483 -0.9498330232
1505290970.0 -0.3023979924 -0.9480589914
1510290940.0 -0.3075994623 -0.9463457988
1515290910.0 -0.3139149732 -0.9442007987
1520290880.0 -0.3195562268 -0.9421964142
1525290850.0 -0.3256449499 -0.9395309003
1530290820.0 -0.3316619486 -0.9383463451
1535290790.0 -0.3373716315 -0.935840273
1540290760.0 -0.3430485979 -0.9339275926
1545290730.0 -0.3487796776 -0.9316921245
1550290700.0 -0.3550078245 -0.9294443793
1555290670.0 -0.3608132919 -0.9270416052
1560290640.0 -0.366068035 -0.9249706604
1565290610.0 -0.3716527183 -0.922209683
1570290580.0 -0.3771845867 -0.9203413435
1575290550.0 -0.3824780795 -0.9180773585
1580290520.0 -0.3890197627 -0.9152683694
1585290490.0 -0.3945749835 -0.9124854755
1590290460.0 -0.4003998529 -0.9101386952
1595290430.0 -0.4056624614 -0.9071618733
1600290400.0 -0.411441317 -0.904929786
1605290370.0 -0.4171381195 -0.9017920075
1610290340.0 -0.4229593248 -0.8996433444
1615290310.0 -0.4276379883 -0.8973529597
1620290280.0 -0.4333276624 -0.8941011043
1625290250.0 -0.4390777926 -0.8917264512
1630290220.0 -0.4441833628 -0.8884665
1635290190.0 -0.4495902542 -0.885816956
1640290160.0 -0.4546286114 -0.8836446537
1645290130.0 -0.4600362651 -0.8802016043
1650290100.0 -0.4654628126 -0.8769604361
1655290070.0 -0.4711790478 -0.874033925
1660290040.0 -0.4769269714 -0.8714758026
1665290010.0 -0.4814582629 -0.8680198686
1670289980.0 -0.487251025 -0.865178853
1675289950.0 -0.4922328029 -0.8618927895
1680289920.0 -0.4978163612 -0.8591309444
1685289890.0 -0.5029227294 -0.8557638728
1690289860.0 -0.5090244146 -0.8526074708
1695289830.0 -0.5142512544 -0.8492600758
1700289800.0 -0.5188796028 -0.8457215688
1705289770.0 -0.5241489837 -0.8431650562
1710289740.0 -0.5296046682 -0.8392480576
1715289710.0 -0.5345033121 -0.8359574601
1720289680.0 -0.5397266985 -0.8322550753
1725289650.0 -0.5456261614 -0.8289404536
1730289620.0 -0.5495264883 -0.8260116078
1735289590.0 -0.5551318842 -0.8220195858
1740289560.0 -0.5602992582 -0.8186350353
1745289530.0 -0.5646493252 -0.8150981954
1750289500.0 -0.5702565709 -0.8117072422
1755289470.0 -0.5747813883 -0.8076690741
1760289440.0 -0.5801292673 -0.8042324715
1765289410.0 -0.5845819329 -0.801088845
1770289380.0 -0.5892556243 -0.7969778161
1775289350.0 -0.5943319192 -0.7943168509
1780289320.0 -0.5990830686 -0.7903196153
1785289290.0 -0.6045422375 -0.7857770611
1790289260.0 -0.6090751175 -0.7825679419
1795289230.0 -0.6141417486 -0.778856436
1800289200.0 -0.6188698297 -0.7737974966
1805289170.0 -0.6236949322 -0.7703706234
1810289140.0 -0.6285090026 -0.7661658594
1815289110.0 -0.6325975765 -0.7624513508
1820289080.0 -0.6371236723 -0.7588637909
1825289050.0 -0.64155532 -0.7553919012
1830289020.0 -0.646520714 -0.751003858
1835288990.0 -0.6508349377 -0.7474823185
1840288960.0 -0.6552938945 -0.7429968712
1845288930.0 -0.6593941223 -0.7389674564
1850288900.0 -0.6639898726 -0.7347608264
1855288870.0 -0.6692670118 -0.7300737436
1860288840.0 -0.6737345138 -0.7259989225
1865288810.0 -0.6783010472 -0.7216241993
1870288780.0 -0.6821726364 -0.7171259724
1875288750.0 -0.6868323084 -0.7131849529
1880288720.0 -0.691784851 -0.7085496215
1885288690.0 -0.6958365742 -0.7039417533
1890288660.0 -0.7000243658 -0.6998657446
1895288630.0 -0.7041381574 -0.6953892255
1900288600.0 -0.7087035899 -0.691845086
1905288570.0 -0.7122693846 -0.6864272415
1910288540.0 -0.716537326 -0.6822536134
1915288510.0 -0.7210394367 -0.6772136794
1920288480.0 -0.7251033179 -0.6731367893
1925288450.0 -0.7296687075 -0.6686681891
1930288420.0 -0.7335720929 -0.6635887324
1935288390.0 -0.737686225 -0.6591327238
1940288360.0 -0.7413827713 -0.6544384069
1945288330.0 -0.7455932144 -0.649677616
1950288300.0 -0.7495418548 -0.6447262252
1955288270.0 -0.7535752734 -0.6400607481
1960288240.0 -0.7582500602 -0.6349691051
1965288210.0 -0.7615497609 -0.6302042929
1970288180.0 -0.765663405 -0.6254084738
1975288150.0 -0.7691526706 -0.620734373
1980288120.0 -0.7724901199 -0.6166866113
1985288090.0 -0.7759512206 -0.6119611423
1990288060.0 -0.7800572784 -0.6066542265
1995288030.0 -0.7835409822 -0.6017154512
2000288000.0 -0.7867438051 -0.5973846526
2005287970.0 -0.7905306796 -0.5926935791
2010287940.0 -0.7941473893 -0.5870488793
2015287910.0 -0.7976596341 -0.5820989481
2020287880.0 -0.80146586 -0.5775577103
2025287850.0 -0.8048462379 -0.5724219412
2030287820.0 -0.8085043371 -0.5668960379
2035287790.0 -0.8121099224 -0.5618352876
2040287760.0 -0.8157242466 -0.5567930774
2045287730.0 -0.819113462 -0.5516759455
2050287700.0 -0.8220654007 -0.5462057324
2055287670.0 -0.8254887421 -0.5415669902
2060287640.0 -0.8282999947 -0.5363257448
2065287610.0 -0.8321557588 -0.5309784487
2070287580.0 -0.8356951029 -0.5257625781
2075287550.0 -0.8390657261 -0.5209352117
2080287520.0 -0.842011027 -0.5157886687
2085287490.0 -0.8447554621 -0.509994609
2090287460.0 -0.8477419069 -0.5053383456
2095287430.0 -0.8514005647 -0.5000842611
2100287400.0 -0.8538011451 -0.4940180621
2105287370.0 -0.8571534718 -0.4886265366
2110287340.0 -0.8597384868 -0.483593894
2115287310.0 -0.8631069705 -0.4780381385
2120287280.0 -0.865759648 -0.4727383567
2125287250.0 -0.8684925257 -0.4674659684
2130287220.0 -0.871560813 -0.4617531917
2135287190.0 -0.8745731766 -0.4565331005
2140287160.0 -0.8767493155 -0.4502525923
2145287130.0 -0.8797425954 -0.4448905458
2150287100.0 -0.8823811439 -0.4395484241
2155287070.0 -0.8851245299 -0.4344646765
2160287040.0 -0.8879009774 -0.4289579956
2165287010.0 -0.8899905044 -0.4234160841
2170286980.0 -0.893002089 -0.4178995939
2175286950.0 -0.8950173835 -0.4122651418
2180286920.0 -0.8978648437 -0.4071025812
2185286890.0 -0.9002346971 -0.4013654774
2190286860.0 -0.9019453119 -0.3960373718
2195286830.0 -0.9052973519 -0.3910034292
2200286800.0 -0.9065615252 -0.3847617842
2205286770.0 -0.9098239649 -0.3797770644
2210286740.0 -0.9108254263 -0.373507887
2215286710.0 -0.9137271668 -0.3685227775
2220286680.0 -0.9156850465 -0.3623511851
2225286650.0 -0.9183569855 -0.3565940562
2230286620.0 -0.9206361705 -0.3508725867
2235286590.0 -0.9231561735 -0.3447379009
2240286560.0 -0.9247430885 -0.3387058493
2245286530.0 -0.9269682946 -0.3334895737
2250286500.0 -0.9292523006 -0.3268686597
2255286470.0 -0.9309622831 -0.321091834
2260286440.0 -0.9328935754 -0.3147731334
2265286410.0 -0.9346904584 -0.3088479688
2270286380.0 -0.9362336247 -0.3030668096
2275286350.0 -0.9382887264 -0.29770499
2280286320.0 -0.9400815644 -0.2917606805
2285286290.0 -0.9418720717 -0.2856387744
2290286260.0 -0.9438226197 -0.2798892024
2295286230.0 -0.9451453881 -0.2740435424
2300286200.0 -0.9467497634 -0.2683241411
2305286170.0 -0.9490108484 -0.2621517262
2310286140.0 -0.950043414 -0.2565151461
2315286110.0 -0.9515662191 -0.2500088975
2320286080.0 -0.9530597059 -0.2443182643
2325286050.0 -0.954780596 -0.2380974812
2330286020.0 -0.9565079482 -0.2319797459
2335285990.0 -0.9575399961 -0.2261295845
2340285960.0 -0.9582878811 -0.2208945627
2345285930.0 -0.9599308572 -0.2145375217
2350285900.0 -0.9614520967 -0.208591344
2355285870.0 -0.9620448096 -0.2022495619
2360285840.0 -0.9632904893 -0.1965884845
2365285810.0 -0.9649723373 -0.1903747763
2370285780.0 -0.9656400804 -0.1845946403
2375285750.0 -0.9670686948 -0.1783036979
2380285720.0 -0.9677927841 -0.1727956687
2385285690.0 -0.9688786357 -0.1666485593
2390285660.0 -0.9695047119 -0.1609010237
2395285630.0 -0.9705599908 -0.1550081023
2400285600.0 -0.9716411841 -0.1490802036
2405285570.0 -0.9723877021 -0.1430328924
2410285540.0 -0.9729167506 -0.1370951151
2415285510.0 -0.973271409 -0.1316035621
2420285480.0 -0.9746934752 -0.125089404
2425285450.0 -0.9752895183 -0.1192341392
2430285420.0 -0.976179071 -0.1129703534
2435285390.0 -0.9764702597 -0.1074187015
2440285360.0 -0.977393921 -0.1008673692
2445285330.0 -0.9778642466 -0.0945483868
2450285300.0 -0.9780402024 -0.0886665962
2455285270.0 -0.9788032933 -0.0824678615
2460285240.0 -0.9794547553 -0.0763074693
2465285210.0 -0.9795244073 -0.0703530885
2470285180.0 -0.9798634714 -0.0640260691
2475285150.0 -0.9802466917 -0.0580085053
2480285120.0 -0.9806523576 -0.0515045872
2485285090.0 -0.9809996493 -0.04505636
2490285060.0 -0.9808153278 -0.0390287736
2495285030.0 -0.9812198664 -0.0335907954
