!Created with skrf (http://scikit-rf.org).
# Hz S RI R 50.0 
!freq ReS11 ImS11
300000.0 -0.0042756307 -0.0436108901
5299970.0 0.0003075177 -0.0005368352
10299940.0 0.0010473506 -0.0006918714
15299910.0 0.00121731 0.0005387362
20299880.0 0.0012398418 -1.5406e-05
25299850.0 0.0012107913 0.000685896
30299820.0 0.0013170602 0.000895399
35299790.0 0.0014750374 0.0004224145
40299760.0 0.0012778846 0.0005423089
45299730.0 0.0015213787 0.0006511271
50299700.0 0.0015069571 0.0008960524
55299670.0 0.0015758804 0.0007320393
60299640.0 0.0015127037 0.000941901
65299610.0 0.0017385802 0.0007960144
70299580.0 0.0015827876 0.000971246
75299550.0 0.0017392057 0.0008382104
80299520.0 0.0017705307 0.0009742723
85299490.0 0.0016814807 0.0011065976
90299460.0 0.0019956811 0.0009368151
95299430.0 0.0017107648 0.0010804615
100299400.0 0.0019064586 0.0010179862
105299370.0 0.0018907371 0.0013163353
110299340.0 0.0018503671 0.0013175021
115299310.0 0.002105439 0.0011633093
120299280.0 0.0020253176 0.0013452145
125299250.0 0.0021456597 0.0015076485
130299220.0 0.0018758266 0.0013312442
135299190.0 0.0019510907 0.0016023291
140299160.0 0.0020283216 0.0016202467
145299130.0 0.0020706594 0.0015346272
150299100.0 0.0022564802 0.001425486
155299070.0 0.0022665041 0.0015086615
160299040.0 0.002180169 0.0015189596
165299010.0 0.0023553678 0.0015626963
170298980.0 0.0022740507 0.0017377087
175298950.0 0.0023370925 0.0016991026
180298920.0 0.0023797178 0.0016155981
185298890.0 0.0023330681 0.0018395321
190298860.0 0.0023209345 0.00187494
195298830.0 0.0024384923 0.0017156517
200298800.0 0.0023479024 0.0018975592
205298770.0 0.002546246 0.001748872
210298740.0 0.002602312 0.001870344
215298710.0 0.0023455976 0.0022541423
220298680.0 0.0024566745 0.0018824589
225298650.0 0.0026429446 0.0018474746
230298620.0 0.0026356312 0.0019075914
235298590.0 0.0025463218 0.0017960826
240298560.0 0.0025795824 0.0021462445
245298530.0 0.0025191679 0.002071729
250298500.0 0.0027924748 0.0018462019
255298470.0 0.002974677 0.0020110383
260298440.0 0.0025012563 0.0022112286
265298410.0 0.0027442372 0.002233109
270298380.0 0.0026598857 0.0021071106
275298350.0 0.0026973787 0.00212582
280298320.0 0.0027583213 0.0022803083
285298290.0 0.0028021054 0.0021398618
290298260.0 0.0027175491 0.0020550743
295298230.0 0.0027952563 0.0023346067
300298200.0 0.0028232032 0.0024074571
305298170.0 0.0030879179 0.0022265591
310298140.0 0.0028944292 0.0024432473
315298110.0 0.0028862252 0.0023985375
320298080.0 0.0029159509 0.0025414362
325298050.0 0.0031022542 0.00224304
330298020.0 0.0032335193 0.0023531277
335297990.0 0.0030550038 0.002235751
340297960.0 0.0031211135 0.002617507
345297930.0 0.003252493 0.0024466462
350297900.0 0.0031419212 0.0024658493
355297870.0 0.0033893278 0.0023193484
360297840.0 0.003504966 0.0025075028
365297810.0 0.0031425114 0.0023219889
370297780.0 0.0033277908 0.0024417831
375297750.0 0.0032886876 0.0024593117
380297720.0 0.0031498762 0.0024759347
385297690.0 0.0034905756 0.0025932267
390297660.0 0.0035126498 0.0028638727
395297630.0 0.003379074 0.0025165854
400297600.0 0.0031543394 0.002614859
405297570.0 0.0036976016 0.0026627482
410297540.0 0.0034819863 0.002735326
415297510.0 0.0035698537 0.0025351529
420297480.0 0.003558961 0.0026607009
425297450.0 0.0036262899 0.0026923551
430297420.0 0.0036925361 0.0027568546
435297390.0 0.0036658538 0.0027253104
440297360.0 0.0035941776 0.002496412
445297330.0 0.0036823969 0.0024537753
450297300.0 0.0036841179 0.0027268588
455297270.0 0.0034534925 0.0026033247
460297240.0 0.0036503904 0.0026605647
465297210.0 0.0037163476 0.0029817674
470297180.0 0.0037402657 0.0028230361
475297150.0 0.003625464 0.0026978271
480297120.0 0.0038405446 0.0027399925
485297090.0 0.0036017196 0.0027556661
490297060.0 0.0037481563 0.0029594882
495297030.0 0.0037840013 0.0028713875
500297000.0 0.0038570226 0.0028089441
505296970.0 0.0039738413 0.0027166864
510296940.0 0.0037712586 0.002949469
515296910.0 0.0037766108 0.0031356372
520296880.0 0.0038390321 0.0029804992
525296850.0 0.0039181051 0.0030482426
530296820.0 0.0038372766 0.0031071838
535296790.0 0.0039174585 0.0030589194
540296760.0 0.0039845058 0.0029978769
545296730.0 0.0039669877 0.0028939212
550296700.0 0.0039894414 0.0030174549
555296670.0 0.0040244033 0.0027777802
560296640.0 0.004353535 0.0027329541
565296610.0 0.0043029447 0.0028228582
570296580.0 0.0042639825 0.002834482
575296550.0 0.0044504945 0.0027056467
580296520.0 0.0043640832 0.0030530438
585296490.0 0.0042323124 0.0027362527
590296460.0 0.0042748736 0.0028330934
595296430.0 0.0044499499 0.0029286002
600296400.0 0.0043783474 0.0028929087
605296370.0 0.0045210705 0.0029643781
610296340.0 0.0045521884 0.002899094
615296310.0 0.0044421661 0.0029110072
620296280.0 0.0045166888 0.0028552734
625296250.0 0.0045071761 0.0028616409
630296220.0 0.004400011 0.0028353517
635296190.0 0.0045287831 0.002768895
640296160.0 0.0046024476 0.0030222433
645296130.0 0.0043473826 0.0027241015
650296100.0 0.0046189245 0.0029276158
655296070.0 0.0045624895 0.0029868393
660296040.0 0.0047764148 0.0027685805
665296010.0 0.004754513 0.0025822234
670295980.0 0.0051129762 0.0027144342
675295950.0 0.0047401156 0.0026426072
680295920.0 0.0046514046 0.0028357014
685295890.0 0.0047081859 0.0028310887
690295860.0 0.0047381145 0.0027765298
695295830.0 0.0049418231 0.0028647711
700295800.0 0.0049212487 0.0029881395
705295770.0 0.0050010422 0.0028646103
710295740.0 0.0047481674 0.0027364526
715295710.0 0.0049140584 0.0030812877
720295680.0 0.0049037102 0.0028258967
725295650.0 0.0050948601 0.0028025061
730295620.0 0.0052262645 0.0028524031
735295590.0 0.0053366948 0.0028644137
740295560.0 0.0051531803 0.0027830506
745295530.0 0.0048794476 0.0027750394
750295500.0 0.005006392 0.0027985385
755295470.0 0.005218613 0.002922064
760295440.0 0.0052325306 0.00299148
765295410.0 0.005106942 0.0028271175
770295380.0 0.0052956892 0.0027233439
775295350.0 0.0052641039 0.0027298886
780295320.0 0.005378546 0.0027998979
785295290.0 0.0051403694 0.0028169012
790295260.0 0.0051675046 0.0026711892
795295230.0 0.0051828945 0.0028838123
800295200.0 0.0054234992 0.0025934083
805295170.0 0.0054693763 0.0024669594
810295140.0 0.0054531011 0.0025597613
815295110.0 0.0052834059 0.0024627403
820295080.0 0.0055306164 0.0027159101
825295050.0 0.0052990633 0.0024852338
830295020.0 0.0053743209 0.0024199376
835294990.0 0.0056049268 0.0024464653
840294960.0 0.0053867336 0.0023682506
845294930.0 0.0055037822 0.0025223468
850294900.0 0.005754145 0.0025071474
855294870.0 0.0055980601 0.0026815864
860294840.0 0.0058857839 0.00260537
865294810.0 0.0056908982 0.0025450882
870294780.0 0.0057616275 0.0024193561
875294750.0 0.005610519 0.0024115955
880294720.0 0.005880496 0.0022242247
885294690.0 0.0057766448 0.002574761
890294660.0 0.0059863195 0.0023797812
895294630.0 0.0058628229 0.002328481
900294600.0 0.0059491293 0.0022216382
905294570.0 0.0057605427 0.0021417966
910294540.0 0.0057914915 0.0022871741
915294510.0 0.0057959318 0.0023035274
920294480.0 0.0055879277 0.0020384004
925294450.0 0.0059221506 0.0023527603
930294420.0 0.0061328582 0.0022651456
935294390.0 0.0061940458 0.0020622947
940294360.0 0.0059600723 0.0021664149
945294330.0 0.0059266653 0.002157358
950294300.0 0.0058967842 0.0022291916
955294270.0 0.0061530695 0.0019982346
960294240.0 0.0059749946 0.0021416427
965294210.0 0.006025372 0.0020890116
970294180.0 0.0062762032 0.0021575485
975294150.0 0.0062218947 0.0020059014
980294120.0 0.0061598224 0.0020468439
985294090.0 0.0062986463 0.0018950445
990294060.0 0.0061571265 0.0019759462
995294030.0 0.0062070457 0.0019884074
1000294000.0 0.0063497667 0.0019164038
1005293970.0 0.0064751983 0.0020838685
1010293940.0 0.0064337227 0.0019987688
1015293910.0 0.0065192515 0.0019114243
1020293880.0 0.0066132263 0.0019455113
1025293850.0 0.0065489267 0.0019116659
1030293820.0 0.0065244934 0.0016792461
1035293790.0 0.0063623447 0.0018143122
1040293760.0 0.0063650694 0.0018103165
1045293730.0 0.006648894 0.001809562
1050293700.0 0.0066764088 0.001592554
1055293670.0 0.0068561542 0.0018223414
1060293640.0 0.0066669308 0.0016634118
1065293610.0 0.0066777506 0.0017549645
1070293580.0 0.006683608 0.0015317096
1075293550.0 0.0065653795 0.0015182496
1080293520.0 0.0069115297 0.0016924049
1085293490.0 0.006857201 0.0015927702
1090293460.0 0.0070314269 0.0016494227
1095293430.0 0.0067045979 0.0015255032
1100293400.0 0.0069878185 0.0016708639
1105293370.0 0.0068513904 0.0015387357
1110293340.0 0.0067992676 0.0014935576
1115293310.0 0.0067890289 0.0010334947
1120293280.0 0.0068716499 0.0014421337
1125293250.0 0.0071965565 0.0013630886
1130293220.0 0.0069976675 0.0013369508
1135293190.0 0.0069990666 0.0015417605
1140293160.0 0.0066388517 0.0016964436
1145293130.0 0.0067725661 0.001661738
1150293100.0 0.0069430968 0.0013790162
1155293070.0 0.0067887756 0.001510124
1160293040.0 0.0067628422 0.0015572141
1165293010.0 0.0066618329 0.0013607708
1170292980.0 0.0070140344 0.001143288
1175292950.0 0.0067367127 0.0013111928
1180292920.0 0.0069291973 0.0011041829
1185292890.0 0.0071432955 0.0011557814
1190292860.0 0.0072624594 0.0012229048
1195292830.0 0.0071842403 0.0009187871
1200292800.0 0.0072670224 0.0009153496
1205292770.0 0.0075945575 0.0009913903
1210292740.0 0.0073734449 0.0008333214
1215292710.0 0.0075935936 0.0008134497
1220292680.0 0.0075065536 0.0009185766
1225292650.0 0.0073419259 0.0007349378
1230292620.0 0.0077295787 0.000976583
1235292590.0 0.0077122661 0.0008153057
1240292560.0 0.0075490684 0.0008053343
1245292530.0 0.0074816472 0.0008527908
1250292500.0 0.0076865888 0.0005547605
1255292470.0 0.0078554001 0.0007341101
1260292440.0 0.0077152383 0.0005026438
1265292410.0 0.007540749 0.0005859917
1270292380.0 0.0076550533 0.0005296814
1275292350.0 0.0075843159 0.0006835982
1280292320.0 0.0079493994 0.0002886485
1285292290.0 0.007850307 0.0007219219
1290292260.0 0.007831456 0.0004482878
1295292230.0 0.0077790997 0.0004988964
1300292200.0 0.007732791 0.0003396021
1305292170.0 0.0078473358 0.0003661453
1310292140.0 0.007926175 0.0003873094
1315292110.0 0.0079898721 0.000265457
1320292080.0 0.0078170213 0.0003291884
1325292050.0 0.0079899964 0.0003124341
1330292020.0 0.0081900775 0.0003064912
1335291990.0 0.0081206927 0.0002408368
1340291960.0 0.0080044553 7.17976e-05
1345291930.0 0.008039367 0.0001792634
1350291900.0 0.007904037 0.0001515744
1355291870.0 0.0082733861 4.51066e-05
1360291840.0 0.0082189924 -8.681e-06
1365291810.0 0.0082090113 9.91036e-05
1370291780.0 0.0083123088 -8.2985e-06
1375291750.0 0.0082636905 -2.47065e-05
1380291720.0 0.0080998964 -5.8864e-05
1385291690.0 0.00839305 -5.18691e-05
1390291660.0 0.0083338314 -0.0001220868
1395291630.0 0.0080974525 -0.0001069518
1400291600.0 0.0083374829 -3.92719e-05
1405291570.0 0.0082561468 -0.0001140008
1410291540.0 0.0083982871 -0.0001291383
1415291510.0 0.0084523838 9.99924e-05
1420291480.0 0.0083621484 -0.0003720639
1425291450.0 0.0087243604 -0.000324862
1430291420.0 0.0084757858 -0.0003972048
1435291390.0 0.0084932425 -0.0003513098
1440291360.0 0.0086080115 -0.000504312
1445291330.0 0.0085444109 -0.0003238988
1450291300.0 0.0083779454 -0.000208655
1455291270.0 0.0085123518 -0.0003059581
1460291240.0 0.0083954601 -0.0005371184
1465291210.0 0.0085409264 -0.0004167375
1470291180.0 0.0084544234 -0.0003963668
1475291150.0 0.0087039354 -0.0005484849
1480291120.0 0.0085690586 -0.0005940227
1485291090.0 0.0085698669 -0.0005517689
1490291060.0 0.0085452644 -0.0006173905
1495291030.0 0.0083766819 -0.0005822956
1500291000.0 0.0087580747 -0.0009113627
1505290970.0 0.0086499284 -0.0008221227
1510290940.0 0.0086597669 -0.0007594218
1515290910.0 0.0088576191 -0.000868536
1520290880.0 0.0084863317 -0.0008776291
1525290850.0 0.0086968508 -0.0008667606
1530290820.0 0.0087300902 -0.0009249327
1535290790.0 0.0088370614 -0.0009367901
1540290760.0 0.0089092077 -0.0009403369
1545290730.0 0.0089130662 -0.0010473489
1550290700.0 0.0089880824 -0.0008563198
1555290670.0 0.0086538088 -0.0010967466
1560290640.0 0.0089206569 -0.0010743693
1565290610.0 0.0088294941 -0.0011486353
1570290580.0 0.0090743837 -0.0010748448
1575290550.0 0.0089500474 -0.0012720252
1580290520.0 0.0089405283 -0.0010564845
1585290490.0 0.0090319714 -0.0010880053
1590290460.0 0.0090227599 -0.0013806349
1595290430.0 0.0090476369 -0.0012630734
1600290400.0 0.0090815937 -0.0013266099
1605290370.0 0.0092333617 -0.0012812904
1610290340.0 0.0091077966 -0.0014169377
1615290310.0 0.0091510641 -0.0014127379
1620290280.0 0.0091329696 -0.0015998983
1625290250.0 0.0092515017 -0.0015532344
1630290220.0 0.0090613578 -0.0013936569
1635290190.0 0.0090798522 -0.0016071558
1640290160.0 0.009413845 -0.0014571886
1645290130.0 0.0092996333 -0.001584596
1650290100.0 0.0092639582 -0.0015130164
1655290070.0 0.0091995897 -0.001385924
1660290040.0 0.0095215096 -0.0016435491
1665290010.0 0.0094398403 -0.0017823483
1670289980.0 0.0092564719 -0.001753466
1675289950.0 0.0091773614 -0.0020454622
1680289920.0 0.0092331999 -0.0020432149
1685289890.0 0.0091679421 -0.0021526786
1690289860.0 0.0094814634 -0.0020736436
1695289830.0 0.0093242362 -0.001862695
1700289800.0 0.0093535912 -0.0018550216
1705289770.0 0.0096547177 -0.0020523509
1710289740.0 0.0092739176 -0.0018979035
1715289710.0 0.0093049018 -0.0019571279
1720289680.0 0.0094472685 -0.0020488019
1725289650.0 0.0095428955 -0.002038379
1730289620.0 0.0094077251 -0.0019464181
1735289590.0 0.0096281717 -0.0020969147
1740289560.0 0.0092685884 -0.0022319743
1745289530.0 0.0094181708 -0.0022195932
1750289500.0 0.009421596 -0.0021328144
1755289470.0 0.0095969931 -0.0022852233
1760289440.0 0.0095825339 -0.0021673734
1765289410.0 0.0094484366 -0.0022392865
1770289380.0 0.0094770154 -0.00221346
1775289350.0 0.0095199615 -0.0021322782
1780289320.0 0.0097159044 -0.0024576007
1785289290.0 0.0096125095 -0.0023523715
1790289260.0 0.0095004384 -0.0023111728
1795289230.0 0.009384605 -0.0023372954
1800289200.0 0.0096619731 -0.0025181263
1805289170.0 0.0096859666 -0.0023549512
1810289140.0 0.009627192 -0.0024831302
1815289110.0 0.0096101423 -0.0027426207
1820289080.0 0.0094955808 -0.0025909516
1825289050.0 0.0094648802 -0.0025876681
1830289020.0 0.0095947291 -0.0025696954
1835288990.0 0.0095305966 -0.0025126631
1840288960.0 0.0097990532 -0.0025261575
1845288930.0 0.0097730676 -0.0027306129
1850288900.0 0.0095972186 -0.0028660035
1855288870.0 0.0096150917 -0.0027245028
1860288840.0 0.0096554795 -0.002779208
1865288810.0 0.0096896895 -0.0025821314
1870288780.0 0.0096754678 -0.0026448426
1875288750.0 0.0097504794 -0.0027196159
1880288720.0 0.0096559115 -0.0027213589
1885288690.0 0.0097673363 -0.0028704572
1890288660.0 0.009607383 -0.0025909976
1895288630.0 0.0095824724 -0.002952036
1900288600.0 0.0097254242 -0.0027713388
1905288570.0 0.0095590281 -0.0028006671
1910288540.0 0.0096517074 -0.0030610313
1915288510.0 0.0098074413 -0.0031291799
1920288480.0 0.0097675919 -0.0029310246
1925288450.0 0.0098396005 -0.003042652
1930288420.0 0.0097347861 -0.0029204668
1935288390.0 0.0098891899 -0.0030088278
1940288360.0 0.0098055446 -0.0030765936
1945288330.0 0.0098834214 -0.0031035857
1950288300.0 0.0098159641 -0.0031010218
1955288270.0 0.0099221008 -0.0029728419
1960288240.0 0.0098334128 -0.0033596589
1965288210.0 0.0097156612 -0.0031678329
1970288180.0 0.0097070751 -0.0030981321
1975288150.0 0.0096021166 -0.0032399988
1980288120.0 0.0098897508 -0.0032586092
1985288090.0 0.0097191006 -0.0031242975
1990288060.0 0.0099281501 -0.0031250868
1995288030.0 0.0097097115 -0.0033747249
2000288000.0 0.0099806842 -0.0032163793
2005287970.0 0.009567924 -0.003354319
2010287940.0 0.0095685174 -0.0032627482
2015287910.0 0.0098674345 -0.0033723144
2020287880.0 0.0098722164 -0.003340162
2025287850.0 0.0097722884 -0.0032970942
2030287820.0 0.0097001688 -0.0034338063
2035287790.0 0.0096337695 -0.0034225672
2040287760.0 0.0098541947 -0.0035703909
2045287730.0 0.0097715135 -0.0035691527
2050287700.0 0.0096241342 -0.0032919873
2055287670.0 0.0098166687 -0.0032968004
2060287640.0 0.009805725 -0.0035758695
2065287610.0 0.0097662039 -0.0034257736
2070287580.0 0.0097210747 -0.0034162931
2075287550.0 0.0097442839 -0.0036357103
2080287520.0 0.009495707 -0.003448267
2085287490.0 0.0095706098 -0.0034696847
2090287460.0 0.0096910607 -0.003404882
2095287430.0 0.0095945108 -0.0036142249
2100287400.0 0.0096973644 -0.0036041207
2105287370.0 0.0096450897 -0.0036622402
2110287340.0 0.0095670349 -0.0036614797
2115287310.0 0.0098231919 -0.0034610892
2120287280.0 0.0098145891 -0.0037809988
2125287250.0 0.0098357151 -0.0035275592
2130287220.0 0.0096339628 -0.0037002172
2135287190.0 0.0094949614 -0.0036959737
2140287160.0 0.0095324637 -0.0037622332
2145287130.0 0.0097556148 -0.0036194201
2150287100.0 0.0096950122 -0.0039997171
2155287070.0 0.0096013109 -0.0036934175
2160287040.0 0.0097218812 -0.0036908908
2165287010.0 0.0096152104 -0.0038899349
2170286980.0 0.0094996197 -0.0037223819
2175286950.0 0.0095433314 -0.0039491447
2180286920.0 0.0098665514 -0.0037761482
2185286890.0 0.0094737248 -0.0038816493
2190286860.0 0.0097340575 -0.0037135199
2195286830.0 0.0094151027 -0.0037110635
2200286800.0 0.0095893976 -0.0038083379
2205286770.0 0.0098000886 -0.0037951036
2210286740.0 0.0094619064 -0.0040345831
2215286710.0 0.0095066123 -0.003840296
2220286680.0 0.0094271107 -0.0038430896
2225286650.0 0.0096466272 -0.0040146052
2230286620.0 0.0095240583 -0.0040236572
2235286590.0 0.0094883124 -0.0041745635
2240286560.0 0.0097149491 -0.004112356
2245286530.0 0.0094752016 -0.0039971235
2250286500.0 0.0095722565 -0.0040203619
2255286470.0 0.0095839444 -0.0040457456
2260286440.0 0.009404611 -0.0040266311
2265286410.0 0.0095849201 -0.0038839448
2270286380.0 0.0094629158 -0.0039258906
2275286350.0 0.0095340517 -0.0040857602
2280286320.0 0.0094268309 -0.0042831715
2285286290.0 0.0093685089 -0.004056984
2290286260.0 0.0094047037 -0.0038720365
2295286230.0 0.0094333813 -0.0042222595
2300286200.0 0.0092310148 -0.0040108505
2305286170.0 0.0093561711 -0.0042211028
2310286140.0 0.0091151542 -0.0040916526
2315286110.0 0.0093218024 -0.0039722478
2320286080.0 0.0093171295 -0.003992052
2325286050.0 0.0091927494 -0.0041808309
2330286020.0 0.0093073003 -0.0042717187
2335285990.0 0.0093579892 -0.0041740415
2340285960.0 0.0091540858 -0.00415705
2345285930.0 0.00912639 -0.0040620563
2350285900.0 0.0091834532 -0.0044278677
2355285870.0 0.0092020563 -0.0042752471
2360285840.0 0.009223024 -0.0041241696
2365285810.0 0.0091453195 -0.0041951239
2370285780.0 0.0091963288 -0.0040782499
2375285750.0 0.0091609903 -0.0042862794
2380285720.0 0.0092228358 -0.0041294487
2385285690.0 0.0088880113 -0.0042934785
2390285660.0 0.0091007081 -0.0041041081
2395285630.0 0.0089188799 -0.0042025619
2400285600.0 0.0089277529 -0.0043362627
2405285570.0 0.0089506751 -0.0041728837
2410285540.0 0.0090168588 -0.0042745097
2415285510.0 0.0088774606 -0.0042011801
2420285480.0 0.0091104362 -0.0044109083
2425285450.0 0.0088826381 -0.0043857776
2430285420.0 0.0089596127 -0.0043760039
2435285390.0 0.0087816552 -0.0044970411
2440285360.0 0.0089627451 -0.0042186373
2445285330.0 0.0089350796 -0.0044613642
2450285300.0 0.0087503532 -0.0044447877
2455285270.0 0.0087510568 -0.0041640245
2460285240.0 0.0087281987 -0.0043043796
2465285210.0 0.0088080125 -0.0045039545
2470285180.0 0.0087501523 -0.0043147449
2475285150.0 0.0086066653 -0.0043552168
2480285120.0 0.0087183709 -0.0044955694
2485285090.0 0.0087188378 -0.004348192
2490285060.0 0.0087076164 -0.0043715765
2495285030.0 0.0085776676 -0.0043714217
2500285000.0 0.008521329 -0.0043219776
2505284970.0 0.0085509407 -0.0044029136
2510284940.0 0.008586216 -0.0043460345
2515284910.0 0.0086420464 -0.00446951
2520284880.0 0.0086247346 -0.0042262233
2525284850.0 0.0086869561 -0.0045784259
2530284820.0 0.0084718441 -0.0045875225
2535284790.0 0.0085146312 -0.0046893135
2540284760.0 0.0084530001 -0.004596809
2545284730.0 0.0084053462 -0.0043397582
2550284700.0 0.0084601845 -0.0043627064
2555284670.0 0.0082904038 -0.004641867
2560284640.0 0.0081318685 -0.0044730696
