!Created with skrf (http://scikit-rf.org).
# Hz S RI R 50.0 
!freq ReS11 ImS11
45000000.0 -0.0817413330078125 -0.09318923950195312
49995500.0 -0.10227203369140625 -0.08926010131835938
54991000.0 -0.1228790283203125 -0.08112716674804688
59986500.0 -0.141204833984375 -0.0791778564453125
64982000.0 -0.16028594970703125 -0.06976318359375
69977500.0 -0.17877197265625 -0.055267333984375
74973000.0 -0.19640350341796875 -0.03753662109375
79968500.0 -0.2117767333984375 -0.01683807373046875
84964000.0 -0.22533416748046875 0.00719451904296875
89959500.0 -0.23606109619140625 0.03392791748046875
94955000.0 -0.24310302734375 0.06371307373046875
99950500.0 -0.246063232421875 0.09580230712890625
104946000.0 -0.24486541748046875 0.12944793701171875
109941500.0 -0.238739013671875 0.1641387939453125
114937000.0 -0.22753143310546875 0.199493408203125
119932500.0 -0.210845947265625 0.23435211181640625
124928000.0 -0.189239501953125 0.2678985595703125
129923500.0 -0.162078857421875 0.299285888671875
134919000.0 -0.1298675537109375 0.3282623291015625
139914500.0 -0.0929718017578125 0.3536224365234375
144910000.0 -0.0516510009765625 0.3743438720703125
149905500.0 -0.0069427490234375 0.3899688720703125
154901000.0 0.0403900146484375 0.400238037109375
159896500.0 0.090118408203125 0.4037322998046875
164892000.0 0.1408538818359375 0.4014739990234375
169887500.0 0.1918487548828125 0.3927154541015625
174883000.0 0.2426910400390625 0.3774261474609375
179878500.0 0.292327880859375 0.355010986328125
184874000.0 0.3396453857421875 0.32647705078125
189869500.0 0.3841552734375 0.291961669921875
194865000.0 0.4254150390625 0.2517242431640625
199860500.0 0.4622955322265625 0.2060089111328125
204856000.0 0.493621826171875 0.154937744140625
209851500.0 0.519744873046875 0.099639892578125
214847000.0 0.53973388671875 0.0404052734375
219842500.0 0.553192138671875 -0.02239990234375
224838000.0 0.558929443359375 -0.08734130859375
229833500.0 0.557342529296875 -0.154632568359375
234829000.0 0.5474853515625 -0.222503662109375
239824500.0 0.529205322265625 -0.29022216796875
244820000.0 0.50238037109375 -0.356719970703125
249815500.0 0.4667816162109375 -0.4209136962890625
254811000.0 0.446563720703125 -0.4680328369140625
259806500.0 0.39825439453125 -0.526611328125
264802000.0 0.34149169921875 -0.57977294921875
269797500.0 0.2774658203125 -0.626373291015625
274793000.0 0.2069091796875 -0.665435791015625
279788500.0 0.13116455078125 -0.695831298828125
284784000.0 0.051177978515625 -0.71710205078125
289779500.0 -0.0318603515625 -0.728759765625
294775000.0 -0.116912841796875 -0.730438232421875
299770500.0 -0.20184326171875 -0.72198486328125
304766000.0 -0.286376953125 -0.703155517578125
309761500.0 -0.368377685546875 -0.67474365234375
314757000.0 -0.44720458984375 -0.63653564453125
319752500.0 -0.521728515625 -0.588836669921875
324748000.0 -0.5914306640625 -0.53289794921875
329743500.0 -0.655120849609375 -0.469085693359375
334739000.0 -0.712371826171875 -0.3978271484375
339734500.0 -0.76171875 -0.319793701171875
344730000.0 -0.802978515625 -0.235870361328125
349725500.0 -0.835357666015625 -0.146697998046875
354721000.0 -0.858154296875 -0.0533447265625
359716500.0 -0.870635986328125 0.044097900390625
364712000.0 -0.87213134765625 0.1435546875
369707500.0 -0.8621826171875 0.245269775390625
374703000.0 -0.840240478515625 0.346954345703125
379698500.0 -0.80596923828125 0.44793701171875
384694000.0 -0.758941650390625 0.545928955078125
389689500.0 -0.69921875 0.63909912109375
394685000.0 -0.6273193359375 0.72576904296875
399680500.0 -0.544158935546875 0.8043212890625
404676000.0 -0.4501953125 0.872406005859375
409671500.0 -0.347381591796875 0.93084716796875
414667000.0 -0.23773193359375 0.9732666015625
419662500.0 -0.1220703125 1.002685546875
424658000.0 -0.0029296875 1.017333984375
429653500.0 0.1187744140625 1.01654052734375
434649000.0 0.238922119140625 0.999237060546875
439644500.0 0.3541259765625 0.968048095703125
444640000.0 0.464019775390625 0.924407958984375
449635500.0 0.567657470703125 0.869537353515625
454631000.0 0.665496826171875 0.80450439453125
459626500.0 0.755645751953125 0.727813720703125
464622000.0 0.83648681640625 0.64178466796875
469617500.0 0.9072265625 0.547607421875
474613000.0 0.96771240234375 0.446807861328125
479608500.0 1.01751708984375 0.34014892578125
484604000.0 1.0565185546875 0.228515625
489599500.0 1.08416748046875 0.11260986328125
494595000.0 1.1002197265625 -0.00677490234375
499590500.0 1.10443115234375 -0.12890625
504586000.0 1.09588623046875 -0.252685546875
509581500.0 1.07354736328125 -0.37701416015625
514577000.0 1.03741455078125 -0.50128173828125
519572500.0 0.986358642578125 -0.623382568359375
524568000.0 0.919677734375 -0.741973876953125
529563500.0 0.837493896484375 -0.85382080078125
534559000.0 0.73974609375 -0.957061767578125
539554500.0 0.62786865234375 -1.04852294921875
544550000.0 0.503662109375 -1.12542724609375
549545500.0 0.3699951171875 -1.1865234375
554541000.0 0.2271728515625 -1.230224609375
559536500.0 0.08154296875 -1.25592041015625
564532000.0 -0.0677490234375 -1.26287841796875
569527500.0 -0.216796875 -1.25115966796875
574523000.0 -0.36358642578125 -1.22113037109375
579518500.0 -0.50518798828125 -1.173095703125
584514000.0 -0.6390380859375 -1.1082763671875
589509500.0 -0.76287841796875 -1.0284423828125
594505000.0 -0.876220703125 -0.935272216796875
599500500.0 -0.97662353515625 -0.8304443359375
604496000.0 -1.06414794921875 -0.71612548828125
609491500.0 -1.13800048828125 -0.593994140625
614487000.0 -1.19818115234375 -0.4661865234375
619482500.0 -1.24481201171875 -0.33380126953125
624478000.0 -1.2774658203125 -0.19781494140625
629473500.0 -1.29705810546875 -0.0595703125
634469000.0 -1.3026123046875 0.07989501953125
639464500.0 -1.2950439453125 0.22021484375
644460000.0 -1.27325439453125 0.3604736328125
649455500.0 -1.2381591796875 0.5001220703125
654451000.0 -1.18792724609375 0.6376953125
659446500.0 -1.12359619140625 0.772216796875
664442000.0 -1.04364013671875 0.9029541015625
669437500.0 -0.94769287109375 1.02740478515625
674433000.0 -0.8350830078125 1.14300537109375
679428500.0 -0.70648193359375 1.24761962890625
684424000.0 -0.56304931640625 1.33819580078125
689419500.0 -0.4051513671875 1.4117431640625
694415000.0 -0.2354736328125 1.465087890625
699410500.0 -0.05743408203125 1.4967041015625
704406000.0 0.12591552734375 1.5037841796875
709401500.0 0.31072998046875 1.48577880859375
714397000.0 0.49224853515625 1.44281005859375
719392500.0 0.666259765625 1.37457275390625
724388000.0 0.8291015625 1.284423828125
729383500.0 0.9769287109375 1.1744384765625
734379000.0 1.10736083984375 1.04571533203125
739374500.0 1.218505859375 0.90460205078125
744370000.0 1.310302734375 0.75341796875
749365500.0 1.38055419921875 0.5941162109375
754361000.0 1.43255615234375 0.43255615234375
759356500.0 1.46527099609375 0.26861572265625
764352000.0 1.47967529296875 0.10540771484375
769347500.0 1.4776611328125 -0.056396484375
774343000.0 1.45965576171875 -0.21514892578125
779338500.0 1.4267578125 -0.36993408203125
784334000.0 1.37841796875 -0.5196533203125
789329500.0 1.31829833984375 -0.6640625
794325000.0 1.24407958984375 -0.80206298828125
799320500.0 1.1571044921875 -0.93365478515625
804316000.0 1.05645751953125 -1.05731201171875
809311500.0 0.9432373046875 -1.1722412109375
814307000.0 0.81719970703125 -1.27667236328125
819302500.0 0.6788330078125 -1.36968994140625
824298000.0 0.5277099609375 -1.44866943359375
829293500.0 0.3671875 -1.5123291015625
834289000.0 0.19500732421875 -1.5576171875
839284500.0 0.0169677734375 -1.58233642578125
844280000.0 -0.10052490234375 -1.61468505859375
849275500.0 -0.28924560546875 -1.60369873046875
854271000.0 -0.47784423828125 -1.56817626953125
859266500.0 -0.662109375 -1.508544921875
864262000.0 -0.8380126953125 -1.424560546875
869257500.0 -1.00152587890625 -1.3187255859375
874253000.0 -1.14996337890625 -1.1929931640625
879248500.0 -1.2808837890625 -1.0504150390625
884244000.0 -1.391845703125 -0.893798828125
889239500.0 -1.48272705078125 -0.72625732421875
894235000.0 -1.55157470703125 -0.55206298828125
899230500.0 -1.60015869140625 -0.3729248046875
904226000.0 -1.62799072265625 -0.19097900390625
909221500.0 -1.63458251953125 -0.0089111328125
914217000.0 -1.62164306640625 0.1719970703125
919212500.0 -1.58935546875 0.34747314453125
924208000.0 -1.53936767578125 0.51727294921875
929203500.0 -1.4730224609375 0.6785888671875
934199000.0 -1.39239501953125 0.831787109375
939194500.0 -1.2978515625 0.9757080078125
944190000.0 -1.18975830078125 1.11029052734375
949185500.0 -1.0697021484375 1.2347412109375
954181000.0 -0.93658447265625 1.3477783203125
959176500.0 -0.79229736328125 1.4486083984375
964172000.0 -0.635498046875 1.536865234375
969167500.0 -0.468017578125 1.60906982421875
974163000.0 -0.2899169921875 1.66455078125
979158500.0 -0.10308837890625 1.70050048828125
984154000.0 0.0911865234375 1.71563720703125
989149500.0 0.2890625 1.707275390625
994145000.0 0.48828125 1.6741943359375
999140500.0 0.68505859375 1.6156005859375
1004136000.0 0.87506103515625 1.53240966796875
1009131500.0 1.05535888671875 1.423828125
1014127000.0 1.21966552734375 1.29180908203125
1019122500.0 1.36663818359375 1.13873291015625
1024118000.0 1.4918212890625 0.9681396484375
1029113500.0 1.59393310546875 0.78375244140625
1034109000.0 1.67034912109375 0.5894775390625
1039104500.0 1.721435546875 0.389892578125
1044100000.0 1.747314453125 0.187744140625
1049095500.0 1.748779296875 -0.0130615234375
1054091000.0 1.7279052734375 -0.20989990234375
1059086500.0 1.68536376953125 -0.399658203125
1064082000.0 1.62347412109375 -0.58135986328125
1069077500.0 1.54437255859375 -0.75286865234375
1074073000.0 1.44891357421875 -0.91375732421875
1079068500.0 1.3388671875 -1.06268310546875
1084064000.0 1.215087890625 -1.1993408203125
1089059500.0 1.07928466796875 -1.32244873046875
1094055000.0 0.9322509765625 -1.4322509765625
1099050500.0 0.7738037109375 -1.5269775390625
1104046000.0 0.60626220703125 -1.60650634765625
1109041500.0 0.4300537109375 -1.669189453125
1114037000.0 0.245849609375 -1.713623046875
1119032500.0 0.0555419921875 -1.73895263671875
1124028000.0 -0.13922119140625 -1.74365234375
1129023500.0 -0.3360595703125 -1.7255859375
1134019000.0 -0.5328369140625 -1.68505859375
1139014500.0 -0.72564697265625 -1.62115478515625
1144010000.0 -0.911865234375 -1.53240966796875
1149005500.0 -1.088134765625 -1.42144775390625
1154001000.0 -1.25042724609375 -1.2874755859375
1158996500.0 -1.39569091796875 -1.13311767578125
1163992000.0 -1.52069091796875 -0.96099853515625
1168987500.0 -1.62225341796875 -0.7742919921875
1173983000.0 -1.699462890625 -0.57586669921875
1178978500.0 -1.75018310546875 -0.37115478515625
1183974000.0 -1.7745361328125 -0.16278076171875
1188969500.0 -1.77294921875 0.04425048828125
1193965000.0 -1.74627685546875 0.24749755859375
1198960500.0 -1.69635009765625 0.443359375
1203956000.0 -1.62451171875 0.62908935546875
1208951500.0 -1.53326416015625 0.80328369140625
1213947000.0 -1.42462158203125 0.96270751953125
1218942500.0 -1.3011474609375 1.10662841796875
1223938000.0 -1.164794921875 1.23541259765625
1228933500.0 -1.017822265625 1.34814453125
1233929000.0 -0.861572265625 1.44342041015625
1238924500.0 -0.698974609375 1.52099609375
1243920000.0 -0.530029296875 1.5814208984375
1248915500.0 -0.3572998046875 1.62432861328125
1253911000.0 -0.1815185546875 1.650634765625
1258906500.0 -0.00494384765625 1.65875244140625
1263902000.0 0.172119140625 1.6495361328125
1268897500.0 0.349609375 1.62322998046875
1273893000.0 0.51995849609375 1.5777587890625
1278888500.0 0.68743896484375 1.514404296875
1283884000.0 0.84869384765625 1.4342041015625
1288879500.0 1.00146484375 1.33624267578125
1293875000.0 1.14410400390625 1.221923828125
1298870500.0 1.27386474609375 1.0914306640625
1303866000.0 1.38995361328125 0.94708251953125
1308861500.0 1.48919677734375 0.78912353515625
1313857000.0 1.5706787109375 0.620361328125
1318852500.0 1.63287353515625 0.44207763671875
1323848000.0 1.67559814453125 0.2572021484375
1328843500.0 1.696533203125 0.06817626953125
1333839000.0 1.6956787109375 -0.122802734375
1338834500.0 1.673095703125 -0.31317138671875
1343830000.0 1.629150390625 -0.4998779296875
1348825500.0 1.5634765625 -0.6815185546875
1353821000.0 1.47808837890625 -0.8543701171875
1358816500.0 1.37213134765625 -1.01715087890625
1363812000.0 1.24859619140625 -1.1666259765625
1368807500.0 1.10791015625 -1.3006591796875
1373803000.0 0.95263671875 -1.41766357421875
1378798500.0 0.7845458984375 -1.51580810546875
1383794000.0 0.60589599609375 -1.59381103515625
1388789500.0 0.42010498046875 -1.6492919921875
1393785000.0 0.22930908203125 -1.6829833984375
1398780500.0 0.037109375 -1.69366455078125
1403776000.0 -0.15399169921875 -1.68170166015625
1408771500.0 -0.34130859375 -1.6478271484375
1413767000.0 -0.521728515625 -1.5921630859375
1418762500.0 -0.69329833984375 -1.517822265625
1423758000.0 -0.85430908203125 -1.425048828125
1428753500.0 -1.0013427734375 -1.3165283203125
1433749000.0 -1.13482666015625 -1.1929931640625
1438744500.0 -1.253173828125 -1.05804443359375
1443740000.0 -1.35540771484375 -0.9127197265625
1448735500.0 -1.441162109375 -0.759033203125
1453731000.0 -1.51031494140625 -0.59832763671875
1458726500.0 -1.56231689453125 -0.4327392578125
1463722000.0 -1.5980224609375 -0.26300048828125
1468717500.0 -1.616455078125 -0.09051513671875
1473713000.0 -1.61761474609375 0.08233642578125
1478708500.0 -1.60186767578125 0.25555419921875
1483704000.0 -1.56842041015625 0.4273681640625
1488699500.0 -1.51751708984375 0.59637451171875
1493695000.0 -1.44866943359375 0.7607421875
1498690500.0 -1.36199951171875 0.91864013671875
1503686000.0 -1.25714111328125 1.06842041015625
1508681500.0 -1.1346435546875 1.2073974609375
1513677000.0 -0.9951171875 1.33319091796875
1518672500.0 -0.8397216796875 1.44390869140625
1523668000.0 -0.67022705078125 1.53570556640625
1528663500.0 -0.48846435546875 1.60711669921875
1533659000.0 -0.29888916015625 1.6546630859375
1538654500.0 -0.1026611328125 1.67877197265625
1543650000.0 0.09478759765625 1.6773681640625
1548645500.0 0.2904052734375 1.650146484375
1553641000.0 0.47918701171875 1.5985107421875
1558636500.0 0.65911865234375 1.52386474609375
1563632000.0 0.8258056640625 1.428466796875
1568627500.0 0.9765625 1.31463623046875
1573623000.0 1.110107421875 1.1856689453125
1578618500.0 1.22589111328125 1.04449462890625
1583614000.0 1.32275390625 0.8941650390625
1588609500.0 1.400634765625 0.73724365234375
1593605000.0 1.459716796875 0.5760498046875
1598600500.0 1.50140380859375 0.412841796875
1603596000.0 1.52581787109375 0.249267578125
1608591500.0 1.53375244140625 0.08624267578125
1613587000.0 1.52593994140625 -0.07440185546875
1618582500.0 1.50341796875 -0.2315673828125
1623578000.0 1.466552734375 -0.3857421875
1628573500.0 1.41571044921875 -0.53521728515625
1633569000.0 1.350830078125 -0.678955078125
1638564500.0 1.27294921875 -0.81610107421875
1643560000.0 1.18170166015625 -0.94647216796875
1648555500.0 1.07666015625 -1.068115234375
1653551000.0 0.95928955078125 -1.17974853515625
1658546500.0 0.82904052734375 -1.27947998046875
1663542000.0 0.686767578125 -1.36627197265625
1668537500.0 0.53424072265625 -1.438232421875
1673533000.0 0.37255859375 -1.49261474609375
1678528500.0 0.20452880859375 -1.5281982421875
1683524000.0 0.03076171875 -1.5433349609375
1688519500.0 -0.14434814453125 -1.5374755859375
1693515000.0 -0.31781005859375 -1.50946044921875
1698510500.0 -0.4869384765625 -1.4603271484375
1703506000.0 -0.647705078125 -1.389892578125
1708501500.0 -0.7960205078125 -1.3031005859375
1713497000.0 -0.9326171875 -1.19866943359375
1718492500.0 -1.05328369140625 -1.080810546875
1723488000.0 -1.1578369140625 -0.9517822265625
1728483500.0 -1.2452392578125 -0.8145751953125
1733479000.0 -1.3154296875 -0.67156982421875
1738474500.0 -1.3704833984375 -0.5244140625
1743470000.0 -1.4091796875 -0.37530517578125
1748465500.0 -1.43255615234375 -0.22637939453125
1753461000.0 -1.44171142578125 -0.077392578125
1758456500.0 -1.437744140625 0.06982421875
1763452000.0 -1.4207763671875 0.21514892578125
1768447500.0 -1.390869140625 0.35809326171875
1773443000.0 -1.348388671875 0.4976806640625
1778438500.0 -1.29437255859375 0.634521484375
1783434000.0 -1.22711181640625 0.76690673828125
1788429500.0 -1.1461181640625 0.89373779296875
1793425000.0 -1.05279541015625 1.01544189453125
1798420500.0 -0.94561767578125 1.12896728515625
1803416000.0 -0.8238525390625 1.2322998046875
1808411500.0 -0.6895751953125 1.32476806640625
1813407000.0 -0.54217529296875 1.40277099609375
1818402500.0 -0.38336181640625 1.46343994140625
1823398000.0 -0.21600341796875 1.5062255859375
1828393500.0 -0.041748046875 1.52752685546875
1833389000.0 0.13592529296875 1.525634765625
1838384500.0 0.3125 1.5009765625
1843380000.0 0.48504638671875 1.453857421875
1848375500.0 0.6490478515625 1.3839111328125
1853371000.0 0.80120849609375 1.29449462890625
1858366500.0 0.9388427734375 1.18756103515625
1863362000.0 1.0604248046875 1.066650390625
1868357500.0 1.16436767578125 0.93463134765625
1873353000.0 1.2506103515625 0.7943115234375
1878348500.0 1.3187255859375 0.64886474609375
1883344000.0 1.3702392578125 0.50006103515625
1888339500.0 1.40521240234375 0.35003662109375
1893335000.0 1.42462158203125 0.2012939453125
1898330500.0 1.43060302734375 0.05303955078125
1903326000.0 1.422607421875 -0.0931396484375
1908321500.0 1.40234375 -0.236083984375
1913317000.0 1.36962890625 -0.3768310546875
1918312500.0 1.3251953125 -0.51324462890625
1923308000.0 1.26898193359375 -0.6461181640625
1928303500.0 1.20013427734375 -0.77435302734375
1933299000.0 1.119140625 -0.897216796875
1938294500.0 1.02569580078125 -1.01422119140625
1943290000.0 0.919189453125 -1.1231689453125
1948285500.0 0.80010986328125 -1.222900390625
1953281000.0 0.66876220703125 -1.310791015625
1958276500.0 0.5250244140625 -1.3856201171875
1963272000.0 0.37127685546875 -1.4447021484375
1968267500.0 0.2081298828125 -1.48614501953125
1973263000.0 0.03924560546875 -1.50750732421875
1978258500.0 -0.13330078125 -1.50823974609375
1983254000.0 -0.3056640625 -1.4862060546875
1988249500.0 -0.47491455078125 -1.44287109375
1993245000.0 -0.6373291015625 -1.37847900390625
1998240500.0 -0.7894287109375 -1.29388427734375
2003236000.0 -0.92840576171875 -1.19244384765625
2008231500.0 -1.05303955078125 -1.0758056640625
2013227000.0 -1.16168212890625 -0.94671630859375
2018222500.0 -1.25262451171875 -0.8082275390625
2023218000.0 -1.3265380859375 -0.6627197265625
2028213500.0 -1.383544921875 -0.51239013671875
2033209000.0 -1.42333984375 -0.35955810546875
2038204500.0 -1.44732666015625 -0.20526123046875
2043200000.0 -1.45587158203125 -0.0513916015625
2048195500.0 -1.4493408203125 0.1014404296875
2053191000.0 -1.42779541015625 0.251708984375
2058186500.0 -1.39288330078125 0.39886474609375
2063182000.0 -1.343505859375 0.54241943359375
2068177500.0 -1.2808837890625 0.67999267578125
2073173000.0 -1.2044677734375 0.81158447265625
2078168500.0 -1.114990234375 0.93707275390625
2083164000.0 -1.01177978515625 1.05328369140625
2088159500.0 -0.89630126953125 1.15936279296875
2093155000.0 -0.7686767578125 1.25341796875
2098150500.0 -0.63006591796875 1.333984375
2103146000.0 -0.48150634765625 1.39947509765625
2108141500.0 -0.325439453125 1.44732666015625
2113137000.0 -0.16363525390625 1.47760009765625
2118132500.0 0.00146484375 1.48779296875
2123128000.0 0.167236328125 1.47894287109375
2128123500.0 0.33013916015625 1.45001220703125
2133119000.0 0.48846435546875 1.40277099609375
2138114500.0 0.6387939453125 1.3370361328125
2143110000.0 0.779296875 1.25518798828125
2148105500.0 0.90875244140625 1.15863037109375
2153101000.0 1.0244140625 1.04998779296875
2158096500.0 1.126953125 0.93072509765625
2163092000.0 1.21575927734375 0.80303955078125
2168087500.0 1.28900146484375 0.668701171875
2173083000.0 1.3482666015625 0.52880859375
2178078500.0 1.3935546875 0.385498046875
2183074000.0 1.42449951171875 0.2392578125
2188069500.0 1.4417724609375 0.09161376953125
