!Created with skrf (http://scikit-rf.org).
# Hz S RI R 50.0 
!freq ReS11 ImS11
45000000.0 -0.08154678344726562 -0.09348297119140625
49995500.0 -0.10210800170898438 -0.08942794799804688
54991000.0 -0.12279891967773438 -0.08135604858398438
59986500.0 -0.1411590576171875 -0.07959747314453125
64982000.0 -0.16036224365234375 -0.07021331787109375
69977500.0 -0.17896270751953125 -0.05562591552734375
74973000.0 -0.19649505615234375 -0.03792572021484375
79968500.0 -0.2120513916015625 -0.01699066162109375
84964000.0 -0.2256317138671875 0.006927490234375
89959500.0 -0.23624420166015625 0.0340576171875
94955000.0 -0.2434539794921875 0.0636749267578125
99950500.0 -0.24665069580078125 0.09584808349609375
104946000.0 -0.2452239990234375 0.1296539306640625
109941500.0 -0.23905181884765625 0.16455078125
114937000.0 -0.22734832763671875 0.19994354248046875
119932500.0 -0.21102142333984375 0.2346649169921875
124928000.0 -0.1894073486328125 0.2683563232421875
129923500.0 -0.1619415283203125 0.2998199462890625
134919000.0 -0.12982177734375 0.3284759521484375
139914500.0 -0.0928955078125 0.3538055419921875
144910000.0 -0.0514984130859375 0.37451171875
149905500.0 -0.0065460205078125 0.3900909423828125
154901000.0 0.040985107421875 0.4000091552734375
159896500.0 0.0905914306640625 0.403717041015625
164892000.0 0.141387939453125 0.40142822265625
169887500.0 0.19244384765625 0.392364501953125
174883000.0 0.2432098388671875 0.376708984375
179878500.0 0.2928924560546875 0.3545989990234375
184874000.0 0.3399658203125 0.3260498046875
189869500.0 0.3847808837890625 0.2911376953125
194865000.0 0.4257354736328125 0.2506561279296875
199860500.0 0.4623260498046875 0.2049560546875
204856000.0 0.4938507080078125 0.15386962890625
209851500.0 0.519622802734375 0.098480224609375
214847000.0 0.539703369140625 0.0390625
219842500.0 0.552764892578125 -0.0238037109375
224838000.0 0.558502197265625 -0.089080810546875
229833500.0 0.55645751953125 -0.156341552734375
234829000.0 0.54638671875 -0.22393798828125
239824500.0 0.5279541015625 -0.291656494140625
244820000.0 0.500518798828125 -0.35797119140625
249815500.0 0.4645843505859375 -0.421966552734375
254811000.0 0.4445037841796875 -0.4694366455078125
259806500.0 0.395599365234375 -0.52734375
264802000.0 0.339019775390625 -0.580230712890625
269797500.0 0.274261474609375 -0.62664794921875
274793000.0 0.204315185546875 -0.66534423828125
279788500.0 0.127960205078125 -0.69537353515625
284784000.0 0.0478515625 -0.716094970703125
289779500.0 -0.034942626953125 -0.727508544921875
294775000.0 -0.11993408203125 -0.728729248046875
299770500.0 -0.204833984375 -0.719696044921875
304766000.0 -0.289031982421875 -0.700897216796875
309761500.0 -0.37103271484375 -0.671905517578125
314757000.0 -0.449462890625 -0.633087158203125
319752500.0 -0.523681640625 -0.58514404296875
324748000.0 -0.592926025390625 -0.529205322265625
329743500.0 -0.656097412109375 -0.465118408203125
334739000.0 -0.712677001953125 -0.3936767578125
339734500.0 -0.761871337890625 -0.315460205078125
344730000.0 -0.802520751953125 -0.2313232421875
349725500.0 -0.834320068359375 -0.142303466796875
354721000.0 -0.856414794921875 -0.04864501953125
359716500.0 -0.868499755859375 0.048492431640625
364712000.0 -0.869354248046875 0.14825439453125
369707500.0 -0.85882568359375 0.249542236328125
374703000.0 -0.83642578125 0.351287841796875
379698500.0 -0.80126953125 0.451507568359375
384694000.0 -0.753753662109375 0.549041748046875
389689500.0 -0.693450927734375 0.64141845703125
394685000.0 -0.620880126953125 0.727294921875
399680500.0 -0.537261962890625 0.80499267578125
404676000.0 -0.443450927734375 0.87237548828125
409671500.0 -0.340484619140625 0.929534912109375
414667000.0 -0.230865478515625 0.971099853515625
419662500.0 -0.1156005859375 0.9996337890625
424658000.0 0.0035400390625 1.01361083984375
429653500.0 0.1241455078125 1.011962890625
434649000.0 0.244110107421875 0.993988037109375
439644500.0 0.358642578125 0.96197509765625
444640000.0 0.46826171875 0.91790771484375
449635500.0 0.57098388671875 0.86260986328125
454631000.0 0.667755126953125 0.797149658203125
459626500.0 0.75726318359375 0.719879150390625
464622000.0 0.83697509765625 0.6337890625
469617500.0 0.906829833984375 0.5396728515625
474613000.0 0.966156005859375 0.438690185546875
479608500.0 1.0152587890625 0.33209228515625
484604000.0 1.053466796875 0.22052001953125
489599500.0 1.080078125 0.10455322265625
494595000.0 1.0953369140625 -0.01458740234375
499590500.0 1.0986328125 -0.13616943359375
504586000.0 1.089111328125 -0.259765625
509581500.0 1.0657958984375 -0.38348388671875
514577000.0 1.02874755859375 -0.5069580078125
519572500.0 0.976654052734375 -0.628204345703125
524568000.0 0.909271240234375 -0.7452392578125
529563500.0 0.826416015625 -0.856292724609375
534559000.0 0.7286376953125 -0.9581298828125
539554500.0 0.615966796875 -1.0477294921875
544550000.0 0.49224853515625 -1.1229248046875
549545500.0 0.35809326171875 -1.18231201171875
554541000.0 0.2161865234375 -1.2244873046875
559536500.0 0.071044921875 -1.24871826171875
564532000.0 -0.07733154296875 -1.2545166015625
569527500.0 -0.22576904296875 -1.24176025390625
574523000.0 -0.37078857421875 -1.21044921875
579518500.0 -0.5108642578125 -1.1619873046875
584514000.0 -0.643310546875 -1.096435546875
589509500.0 -0.76611328125 -1.016357421875
594505000.0 -0.87762451171875 -0.9229736328125
599500500.0 -0.976898193359375 -0.81805419921875
604496000.0 -1.0628662109375 -0.70355224609375
609491500.0 -1.13555908203125 -0.5819091796875
614487000.0 -1.1947021484375 -0.45440673828125
619482500.0 -1.23974609375 -0.322265625
624478000.0 -1.271484375 -0.1868896484375
629473500.0 -1.28955078125 -0.04931640625
634469000.0 -1.29425048828125 0.08953857421875
639464500.0 -1.28564453125 0.22943115234375
644460000.0 -1.26324462890625 0.369140625
649455500.0 -1.2264404296875 0.50750732421875
654451000.0 -1.17547607421875 0.6441650390625
659446500.0 -1.11029052734375 0.77752685546875
664442000.0 -1.02923583984375 0.9068603515625
669437500.0 -0.9326171875 1.02923583984375
674433000.0 -0.81951904296875 1.14337158203125
679428500.0 -0.69091796875 1.24609375
684424000.0 -0.54693603515625 1.33428955078125
689419500.0 -0.3895263671875 1.40570068359375
694415000.0 -0.21978759765625 1.45721435546875
699410500.0 -0.04290771484375 1.486572265625
704406000.0 0.1392822265625 1.491943359375
709401500.0 0.3223876953125 1.47210693359375
714397000.0 0.501708984375 1.42718505859375
719392500.0 0.67388916015625 1.3580322265625
724388000.0 0.83441162109375 1.2669677734375
729383500.0 0.98004150390625 1.156494140625
734379000.0 1.10760498046875 1.0277099609375
739374500.0 1.21685791015625 0.886474609375
744370000.0 1.306640625 0.73626708984375
749365500.0 1.3753662109375 0.57769775390625
754361000.0 1.425537109375 0.4168701171875
759356500.0 1.45684814453125 0.25384521484375
764352000.0 1.47003173828125 0.09136962890625
769347500.0 1.46649169921875 -0.06915283203125
774343000.0 1.44720458984375 -0.2266845703125
779338500.0 1.41278076171875 -0.38006591796875
784334000.0 1.36468505859375 -0.5286865234375
789329500.0 1.3031005859375 -0.67156982421875
794325000.0 1.22802734375 -0.80859375
799320500.0 1.139892578125 -0.9384765625
804316000.0 1.03887939453125 -1.060791015625
809311500.0 0.92523193359375 -1.173828125
814307000.0 0.798583984375 -1.27655029296875
819302500.0 0.66009521484375 -1.36749267578125
824298000.0 0.50897216796875 -1.44464111328125
829293500.0 0.3480224609375 -1.50592041015625
834289000.0 0.177001953125 -1.54833984375
839284500.0 -0.0008544921875 -1.5711669921875
844280000.0 -0.1177978515625 -1.60198974609375
849275500.0 -0.3045654296875 -1.588623046875
854271000.0 -0.49273681640625 -1.55126953125
859266500.0 -0.67462158203125 -1.4898681640625
864262000.0 -0.84814453125 -1.40460205078125
869257500.0 -1.009033203125 -1.29730224609375
874253000.0 -1.15460205078125 -1.1707763671875
879248500.0 -1.28253173828125 -1.02734375
884244000.0 -1.39080810546875 -0.870849609375
889239500.0 -1.4783935546875 -0.70428466796875
894235000.0 -1.5452880859375 -0.53070068359375
899230500.0 -1.59136962890625 -0.3525390625
904226000.0 -1.61700439453125 -0.17193603515625
909221500.0 -1.62249755859375 0.009033203125
914217000.0 -1.6077880859375 0.18804931640625
919212500.0 -1.57373046875 0.36260986328125
924208000.0 -1.52239990234375 0.5302734375
929203500.0 -1.45489501953125 0.6900634765625
934199000.0 -1.372802734375 0.84100341796875
939194500.0 -1.27728271484375 0.9833984375
944190000.0 -1.1689453125 1.11663818359375
949185500.0 -1.04803466796875 1.238037109375
954181000.0 -0.914306640625 1.3492431640625
959176500.0 -0.76953125 1.44842529296875
964172000.0 -0.61322021484375 1.5335693359375
969167500.0 -0.4449462890625 1.60369873046875
974163000.0 -0.26708984375 1.6568603515625
979158500.0 -0.0802001953125 1.690185546875
984154000.0 0.112060546875 1.70196533203125
989149500.0 0.30975341796875 1.691650390625
994145000.0 0.5067138671875 1.65570068359375
999140500.0 0.7012939453125 1.59454345703125
1004136000.0 0.8892822265625 1.5087890625
1009131500.0 1.06561279296875 1.39837646484375
1014127000.0 1.2281494140625 1.26495361328125
1019122500.0 1.370849609375 1.1114501953125
1024118000.0 1.49237060546875 0.94024658203125
1029113500.0 1.5906982421875 0.7562255859375
1034109000.0 1.66424560546875 0.56280517578125
1039104500.0 1.7119140625 0.36383056640625
1044100000.0 1.73486328125 0.1632080078125
1049095500.0 1.7340087890625 -0.036376953125
1054091000.0 1.7108154296875 -0.231201171875
1059086500.0 1.6663818359375 -0.41912841796875
1064082000.0 1.6026611328125 -0.5982666015625
1069077500.0 1.5218505859375 -0.7666015625
1074073000.0 1.4251708984375 -0.92572021484375
1079068500.0 1.31402587890625 -1.07177734375
1084064000.0 1.18963623046875 -1.20611572265625
1089059500.0 1.05328369140625 -1.3270263671875
1094055000.0 0.90521240234375 -1.43365478515625
1099050500.0 0.7470703125 -1.52655029296875
1104046000.0 0.5792236328125 -1.603515625
1109041500.0 0.40362548828125 -1.6627197265625
1114037000.0 0.2197265625 -1.7044677734375
1119032500.0 0.0303955078125 -1.72637939453125
1124028000.0 -0.163330078125 -1.72821044921875
1129023500.0 -0.35870361328125 -1.70745849609375
1134019000.0 -0.5535888671875 -1.66473388671875
1139014500.0 -0.7440185546875 -1.59735107421875
1144010000.0 -0.928466796875 -1.50714111328125
1149005500.0 -1.1011962890625 -1.39349365234375
1154001000.0 -1.26019287109375 -1.2578125
1158996500.0 -1.402099609375 -1.1024169921875
1163992000.0 -1.52288818359375 -0.9296875
1168987500.0 -1.62078857421875 -0.74310302734375
1173983000.0 -1.69384765625 -0.5450439453125
1178978500.0 -1.7410888671875 -0.34112548828125
1183974000.0 -1.76220703125 -0.1339111328125
1188969500.0 -1.75732421875 0.0716552734375
1193965000.0 -1.72784423828125 0.27325439453125
1198960500.0 -1.67523193359375 0.46649169921875
1203956000.0 -1.60113525390625 0.6497802734375
1208951500.0 -1.5086669921875 0.8204345703125
1213947000.0 -1.39776611328125 0.97698974609375
1218942500.0 -1.2730712890625 1.11822509765625
1223938000.0 -1.1361083984375 1.2442626953125
1228933500.0 -0.98809814453125 1.35382080078125
1233929000.0 -0.8316650390625 1.44549560546875
1238924500.0 -0.66851806640625 1.520263671875
1243920000.0 -0.49981689453125 1.57757568359375
1248915500.0 -0.32781982421875 1.61767578125
1253911000.0 -0.1533203125 1.64056396484375
1258906500.0 0.02313232421875 1.6461181640625
1263902000.0 0.198974609375 1.63427734375
1268897500.0 0.3739013671875 1.60479736328125
1273893000.0 0.54266357421875 1.55645751953125
1278888500.0 0.70819091796875 1.4912109375
1283884000.0 0.8673095703125 1.40863037109375
1288879500.0 1.016845703125 1.3084716796875
1293875000.0 1.15655517578125 1.1922607421875
1298870500.0 1.28302001953125 1.0606689453125
1303866000.0 1.39605712890625 0.9146728515625
1308861500.0 1.49176025390625 0.756591796875
1313857000.0 1.5697021484375 0.587646484375
1318852500.0 1.62835693359375 0.40960693359375
1323848000.0 1.66729736328125 0.2249755859375
1328843500.0 1.6849365234375 0.0367431640625
1333839000.0 1.68084716796875 -0.15313720703125
1338834500.0 1.65423583984375 -0.341796875
1343830000.0 1.60797119140625 -0.52740478515625
1348825500.0 1.53924560546875 -0.70587158203125
1353821000.0 1.45068359375 -0.8765869140625
1358816500.0 1.343017578125 -1.03564453125
1363812000.0 1.21685791015625 -1.18231201171875
1368807500.0 1.0748291015625 -1.31298828125
1373803000.0 0.91815185546875 -1.426025390625
1378798500.0 0.7491455078125 -1.51995849609375
1383794000.0 0.57037353515625 -1.59381103515625
1388789500.0 0.3851318359375 -1.64501953125
1393785000.0 0.19464111328125 -1.67510986328125
1398780500.0 0.00323486328125 -1.6815185546875
1403776000.0 -0.18701171875 -1.66595458984375
1408771500.0 -0.37188720703125 -1.628173828125
1413767000.0 -0.55084228515625 -1.5701904296875
1418762500.0 -0.71917724609375 -1.4923095703125
1423758000.0 -0.8773193359375 -1.39764404296875
1428753500.0 -1.0213623046875 -1.28662109375
1433749000.0 -1.15142822265625 -1.16156005859375
1438744500.0 -1.26629638671875 -1.02508544921875
1443740000.0 -1.36444091796875 -0.8785400390625
1448735500.0 -1.4466552734375 -0.72412109375
1453731000.0 -1.512939453125 -0.5626220703125
1458726500.0 -1.561767578125 -0.39654541015625
1463722000.0 -1.59344482421875 -0.22723388671875
1468717500.0 -1.60809326171875 -0.05511474609375
1473713000.0 -1.60614013671875 0.11761474609375
1478708500.0 -1.58648681640625 0.28955078125
1483704000.0 -1.54937744140625 0.4598388671875
1488699500.0 -1.4951171875 0.6270751953125
1493695000.0 -1.42254638671875 0.7890625
1498690500.0 -1.3326416015625 0.9444580078125
1503686000.0 -1.22454833984375 1.09112548828125
1508681500.0 -1.0994873046875 1.22711181640625
1513677000.0 -0.957275390625 1.34954833984375
1518672500.0 -0.7998046875 1.4556884765625
1523668000.0 -0.62896728515625 1.54217529296875
1528663500.0 -0.44635009765625 1.6087646484375
1533659000.0 -0.256103515625 1.65155029296875
1538654500.0 -0.0601806640625 1.66961669921875
1543650000.0 0.13653564453125 1.66363525390625
1548645500.0 0.33050537109375 1.63134765625
1553641000.0 0.5162353515625 1.57513427734375
1558636500.0 0.69305419921875 1.49615478515625
1563632000.0 0.85546875 1.39727783203125
1568627500.0 1.00311279296875 1.28057861328125
1573623000.0 1.13238525390625 1.14910888671875
1578618500.0 1.24371337890625 1.0062255859375
1583614000.0 1.336181640625 0.85443115234375
1588609500.0 1.4095458984375 0.69683837890625
1593605000.0 1.4639892578125 0.53533935546875
1598600500.0 1.50201416015625 0.37164306640625
1603596000.0 1.52197265625 0.20867919921875
1608591500.0 1.526123046875 0.04632568359375
1613587000.0 1.514892578125 -0.11370849609375
1618582500.0 1.48834228515625 -0.2696533203125
1623578000.0 1.447998046875 -0.4219970703125
1628573500.0 1.39361572265625 -0.56982421875
1633569000.0 1.32513427734375 -0.711181640625
1638564500.0 1.24395751953125 -0.84613037109375
1643560000.0 1.14923095703125 -0.97381591796875
1648555500.0 1.041259765625 -1.09197998046875
1653551000.0 0.92120361328125 -1.19989013671875
1658546500.0 0.78790283203125 -1.29632568359375
1663542000.0 0.6441650390625 -1.37811279296875
1668537500.0 0.490234375 -1.4449462890625
1673533000.0 0.3275146484375 -1.49420166015625
1678528500.0 0.1583251953125 -1.52471923828125
1683524000.0 -0.01483154296875 -1.53466796875
1688519500.0 -0.18890380859375 -1.5233154296875
1693515000.0 -0.36065673828125 -1.490234375
1698510500.0 -0.5269775390625 -1.435791015625
1703506000.0 -0.68426513671875 -1.3616943359375
1708501500.0 -0.82940673828125 -1.27081298828125
1713497000.0 -0.9610595703125 -1.1636962890625
1718492500.0 -1.0777587890625 -1.04290771484375
1723488000.0 -1.17755126953125 -0.91180419921875
1728483500.0 -1.2607421875 -0.7733154296875
1733479000.0 -1.32684326171875 -0.62933349609375
1738474500.0 -1.376953125 -0.48187255859375
1743470000.0 -1.41168212890625 -0.33258056640625
1748465500.0 -1.4306640625 -0.1837158203125
1753461000.0 -1.4361572265625 -0.03515625
1758456500.0 -1.42822265625 0.111572265625
1763452000.0 -1.406982421875 0.255859375
1768447500.0 -1.37432861328125 0.397705078125
1773443000.0 -1.328369140625 0.536376953125
1778438500.0 -1.2696533203125 0.6710205078125
1783434000.0 -1.19891357421875 0.80169677734375
1788429500.0 -1.11517333984375 0.92633056640625
1793425000.0 -1.0174560546875 1.044921875
1798420500.0 -0.90625 1.1552734375
1803416000.0 -0.7822265625 1.25469970703125
1808411500.0 -0.64410400390625 1.34283447265625
1813407000.0 -0.49420166015625 1.416259765625
1818402500.0 -0.33355712890625 1.4720458984375
1823398000.0 -0.16400146484375 1.5084228515625
1828393500.0 0.01092529296875 1.52374267578125
1833389000.0 0.187744140625 1.515380859375
1838384500.0 0.36334228515625 1.484375
1843380000.0 0.53436279296875 1.4306640625
1848375500.0 0.6947021484375 1.35552978515625
1853371000.0 0.84332275390625 1.2607421875
1858366500.0 0.97674560546875 1.1495361328125
1863362000.0 1.09271240234375 1.0250244140625
1868357500.0 1.19189453125 0.8896484375
1873353000.0 1.2723388671875 0.7471923828125
1878348500.0 1.3350830078125 0.60015869140625
1883344000.0 1.38177490234375 0.4503173828125
1888339500.0 1.4114990234375 0.2998046875
1893335000.0 1.42669677734375 0.15057373046875
1898330500.0 1.42730712890625 0.0020751953125
1903326000.0 1.41510009765625 -0.14288330078125
1908321500.0 1.3897705078125 -0.2850341796875
1913317000.0 1.35223388671875 -0.42401123046875
1918312500.0 1.3038330078125 -0.55938720703125
1923308000.0 1.2427978515625 -0.69061279296875
1928303500.0 1.1695556640625 -0.81695556640625
1933299000.0 1.0841064453125 -0.93743896484375
1938294500.0 0.986083984375 -1.0511474609375
1943290000.0 0.87567138671875 -1.15625
1948285500.0 0.75238037109375 -1.252197265625
1953281000.0 0.6163330078125 -1.3353271484375
1958276500.0 0.4696044921875 -1.40478515625
1963272000.0 0.312744140625 -1.45751953125
1968267500.0 0.14801025390625 -1.4923095703125
1973263000.0 -0.02276611328125 -1.5067138671875
1978258500.0 -0.195068359375 -1.49969482421875
1983254000.0 -0.36663818359375 -1.470458984375
1988249500.0 -0.5341796875 -1.41986083984375
1993245000.0 -0.6929931640625 -1.347900390625
1998240500.0 -0.84185791015625 -1.2572021484375
2003236000.0 -0.97607421875 -1.1497802734375
2008231500.0 -1.09527587890625 -1.02813720703125
2013227000.0 -1.19757080078125 -0.8946533203125
2018222500.0 -1.282470703125 -0.752685546875
2023218000.0 -1.35015869140625 -0.6046142578125
2028213500.0 -1.40069580078125 -0.45245361328125
2033209000.0 -1.43426513671875 -0.29827880859375
2038204500.0 -1.4517822265625 -0.14349365234375
2043200000.0 -1.453857421875 0.01068115234375
2048195500.0 -1.44061279296875 0.1629638671875
2053191000.0 -1.41326904296875 0.31201171875
2058186500.0 -1.37213134765625 0.4580078125
2063182000.0 -1.3173828125 0.59906005859375
2068177500.0 -1.24896240234375 0.73443603515625
2073173000.0 -1.16680908203125 0.86328125
2078168500.0 -1.07110595703125 0.98468017578125
2083164000.0 -0.9630126953125 1.09698486328125
2088159500.0 -0.8426513671875 1.19744873046875
2093155000.0 -0.7103271484375 1.28546142578125
2098150500.0 -0.56768798828125 1.35955810546875
2103146000.0 -0.416015625 1.417724609375
2108141500.0 -0.25762939453125 1.45831298828125
2113137000.0 -0.0938720703125 1.480712890625
2118132500.0 0.0711669921875 1.4832763671875
2123128000.0 0.2357177734375 1.46600341796875
2128123500.0 0.3963623046875 1.42901611328125
2133119000.0 0.55194091796875 1.374267578125
2138114500.0 0.69879150390625 1.3017578125
2143110000.0 0.8349609375 1.213623046875
2148105500.0 0.958984375 1.1116943359375
2153101000.0 1.0692138671875 0.998046875
2158096500.0 1.16558837890625 0.8748779296875
2163092000.0 1.24786376953125 0.74383544921875
2168087500.0 1.3157958984375 0.606201171875
2173083000.0 1.36834716796875 0.46484375
2178078500.0 1.40679931640625 0.31976318359375
2183074000.0 1.43157958984375 0.17236328125
2188069500.0 1.44195556640625 0.024169921875
2193065000.0 1.4388427734375 -0.12481689453125
2198060500.0 1.42144775390625 -0.27294921875
