!Created with skrf (http://scikit-rf.org).
# Hz S RI R 50.0 
!freq ReS11 ImS11
45000000.0 -0.0814666748046875 -0.0933990478515625
49995500.0 -0.10220718383789062 -0.08916473388671875
54991000.0 -0.12288665771484375 -0.08112335205078125
59986500.0 -0.1412811279296875 -0.07904052734375
64982000.0 -0.1598968505859375 -0.0699615478515625
69977500.0 -0.17852783203125 -0.0553436279296875
74973000.0 -0.195892333984375 -0.03791046142578125
79968500.0 -0.2115325927734375 -0.01705169677734375
84964000.0 -0.22498321533203125 0.00690460205078125
89959500.0 -0.23587799072265625 0.03383636474609375
94955000.0 -0.2425689697265625 0.0634002685546875
99950500.0 -0.24582672119140625 0.0954132080078125
104946000.0 -0.24423980712890625 0.129058837890625
109941500.0 -0.2385711669921875 0.1638336181640625
114937000.0 -0.2274169921875 0.199066162109375
119932500.0 -0.21060943603515625 0.2339630126953125
124928000.0 -0.189239501953125 0.267730712890625
129923500.0 -0.1621246337890625 0.29888916015625
134919000.0 -0.129974365234375 0.327545166015625
139914500.0 -0.0928955078125 0.35284423828125
144910000.0 -0.0518341064453125 0.3735504150390625
149905500.0 -0.007080078125 0.3892822265625
154901000.0 0.0404815673828125 0.3993377685546875
159896500.0 0.089874267578125 0.4029998779296875
164892000.0 0.1404571533203125 0.4006500244140625
169887500.0 0.1913909912109375 0.3917999267578125
174883000.0 0.2421417236328125 0.3762664794921875
179878500.0 0.29150390625 0.354248046875
184874000.0 0.3386077880859375 0.32568359375
189869500.0 0.38330078125 0.2911224365234375
194865000.0 0.4242706298828125 0.2509307861328125
199860500.0 0.46075439453125 0.205322265625
204856000.0 0.492156982421875 0.15447998046875
209851500.0 0.518218994140625 0.099456787109375
214847000.0 0.5380859375 0.04022216796875
219842500.0 0.551361083984375 -0.02239990234375
224838000.0 0.5572509765625 -0.08734130859375
229833500.0 0.555419921875 -0.154327392578125
234829000.0 0.545562744140625 -0.22186279296875
239824500.0 0.527587890625 -0.289215087890625
244820000.0 0.50018310546875 -0.355621337890625
249815500.0 0.4649200439453125 -0.4194183349609375
254811000.0 0.445068359375 -0.4662322998046875
259806500.0 0.396392822265625 -0.524444580078125
264802000.0 0.340240478515625 -0.577301025390625
269797500.0 0.27593994140625 -0.623748779296875
274793000.0 0.2059326171875 -0.6624755859375
279788500.0 0.1302490234375 -0.692779541015625
284784000.0 0.050872802734375 -0.71380615234375
289779500.0 -0.03192138671875 -0.725433349609375
294775000.0 -0.11651611328125 -0.726959228515625
299770500.0 -0.201202392578125 -0.7186279296875
304766000.0 -0.284820556640625 -0.699920654296875
309761500.0 -0.36669921875 -0.67156982421875
314757000.0 -0.445220947265625 -0.633056640625
319752500.0 -0.519134521484375 -0.585601806640625
324748000.0 -0.5885009765625 -0.530059814453125
329743500.0 -0.651885986328125 -0.46661376953125
334739000.0 -0.708648681640625 -0.3958740234375
339734500.0 -0.7578125 -0.31817626953125
344730000.0 -0.798309326171875 -0.234527587890625
349725500.0 -0.830596923828125 -0.146026611328125
354721000.0 -0.853363037109375 -0.053009033203125
359716500.0 -0.865570068359375 0.0435791015625
364712000.0 -0.867156982421875 0.14288330078125
369707500.0 -0.85736083984375 0.24371337890625
374703000.0 -0.835723876953125 0.344940185546875
379698500.0 -0.801361083984375 0.4453125
384694000.0 -0.75457763671875 0.54248046875
389689500.0 -0.69537353515625 0.63507080078125
394685000.0 -0.623565673828125 0.721099853515625
399680500.0 -0.540985107421875 0.79888916015625
404676000.0 -0.4478759765625 0.86663818359375
409671500.0 -0.345703125 0.92474365234375
414667000.0 -0.23675537109375 0.966705322265625
419662500.0 -0.121826171875 0.995880126953125
424658000.0 -0.00323486328125 1.01080322265625
429653500.0 0.11737060546875 1.0101318359375
434649000.0 0.236419677734375 0.992828369140625
439644500.0 0.351226806640625 0.961761474609375
444640000.0 0.46026611328125 0.91864013671875
449635500.0 0.562957763671875 0.86407470703125
454631000.0 0.660125732421875 0.79962158203125
459626500.0 0.75006103515625 0.723419189453125
464622000.0 0.829864501953125 0.637908935546875
469617500.0 0.900146484375 0.544708251953125
474613000.0 0.959991455078125 0.444580078125
479608500.0 1.00958251953125 0.33880615234375
484604000.0 1.04852294921875 0.22772216796875
489599500.0 1.07586669921875 0.1129150390625
494595000.0 1.09234619140625 -0.0057373046875
499590500.0 1.0963134765625 -0.12701416015625
504586000.0 1.0877685546875 -0.24981689453125
509581500.0 1.06573486328125 -0.37310791015625
514577000.0 1.02984619140625 -0.4964599609375
519572500.0 0.978851318359375 -0.617462158203125
524568000.0 0.913238525390625 -0.73492431640625
529563500.0 0.83184814453125 -0.845977783203125
534559000.0 0.7352294921875 -0.94805908203125
539554500.0 0.62445068359375 -1.03863525390625
544550000.0 0.50164794921875 -1.11505126953125
549545500.0 0.3690185546875 -1.17578125
554541000.0 0.2276611328125 -1.218994140625
559536500.0 0.0831298828125 -1.244873046875
564532000.0 -0.06463623046875 -1.25244140625
569527500.0 -0.21270751953125 -1.24102783203125
574523000.0 -0.35797119140625 -1.211669921875
579518500.0 -0.498291015625 -1.16424560546875
584514000.0 -0.630615234375 -1.1007080078125
589509500.0 -0.7540283203125 -1.0216064453125
594505000.0 -0.86651611328125 -0.929473876953125
599500500.0 -0.96661376953125 -0.8258056640625
604496000.0 -1.05352783203125 -0.71258544921875
609491500.0 -1.12677001953125 -0.592041015625
614487000.0 -1.1868896484375 -0.46539306640625
619482500.0 -1.23345947265625 -0.3341064453125
624478000.0 -1.26641845703125 -0.19940185546875
629473500.0 -1.28564453125 -0.0626220703125
634469000.0 -1.2916259765625 0.07586669921875
639464500.0 -1.284423828125 0.2149658203125
644460000.0 -1.26318359375 0.35400390625
649455500.0 -1.2286376953125 0.49249267578125
654451000.0 -1.17913818359375 0.6290283203125
659446500.0 -1.115478515625 0.76251220703125
664442000.0 -1.036376953125 0.89190673828125
669437500.0 -0.9417724609375 1.01556396484375
674433000.0 -0.83056640625 1.13037109375
679428500.0 -0.7037353515625 1.2337646484375
684424000.0 -0.56170654296875 1.32342529296875
689419500.0 -0.40570068359375 1.39703369140625
694415000.0 -0.23834228515625 1.45001220703125
699410500.0 -0.061279296875 1.48193359375
704406000.0 0.119873046875 1.48956298828125
709401500.0 0.3026123046875 1.47265625
714397000.0 0.482177734375 1.43011474609375
719392500.0 0.654541015625 1.3636474609375
724388000.0 0.8155517578125 1.2750244140625
729383500.0 0.9627685546875 1.16650390625
734379000.0 1.0921630859375 1.03997802734375
739374500.0 1.20281982421875 0.90093994140625
744370000.0 1.29400634765625 0.75201416015625
749365500.0 1.364501953125 0.59429931640625
754361000.0 1.4169921875 0.4346923828125
759356500.0 1.45013427734375 0.272216796875
764352000.0 1.46551513671875 0.11053466796875
769347500.0 1.4637451171875 -0.04949951171875
774343000.0 1.4466552734375 -0.20709228515625
779338500.0 1.41455078125 -0.36029052734375
784334000.0 1.36767578125 -0.5087890625
789329500.0 1.308349609375 -0.65191650390625
794325000.0 1.2354736328125 -0.78955078125
799320500.0 1.14959716796875 -0.9197998046875
804316000.0 1.05035400390625 -1.04278564453125
809311500.0 0.9388427734375 -1.15692138671875
814307000.0 0.814697265625 -1.26092529296875
819302500.0 0.677978515625 -1.35296630859375
824298000.0 0.52880859375 -1.4317626953125
829293500.0 0.3702392578125 -1.4954833984375
834289000.0 0.2000732421875 -1.54058837890625
839284500.0 0.0238037109375 -1.56585693359375
844280000.0 -0.0914306640625 -1.5975341796875
849275500.0 -0.278076171875 -1.5875244140625
854271000.0 -0.46514892578125 -1.55401611328125
859266500.0 -0.6474609375 -1.49578857421875
864262000.0 -0.82171630859375 -1.4139404296875
869257500.0 -0.9833984375 -1.3101806640625
874253000.0 -1.13128662109375 -1.18658447265625
879248500.0 -1.26141357421875 -1.04638671875
884244000.0 -1.3719482421875 -0.89227294921875
889239500.0 -1.4625244140625 -0.72747802734375
894235000.0 -1.53167724609375 -0.5555419921875
899230500.0 -1.5811767578125 -0.3785400390625
904226000.0 -1.60986328125 -0.19854736328125
909221500.0 -1.6182861328125 -0.01812744140625
914217000.0 -1.60601806640625 0.16046142578125
919212500.0 -1.57513427734375 0.33526611328125
924208000.0 -1.52630615234375 0.502685546875
929203500.0 -1.46173095703125 0.66339111328125
934199000.0 -1.382568359375 0.81512451171875
939194500.0 -1.2899169921875 0.95782470703125
944190000.0 -1.1837158203125 1.091796875
949185500.0 -1.0655517578125 1.21527099609375
954181000.0 -0.9349365234375 1.3284912109375
959176500.0 -0.79193115234375 1.42926025390625
964172000.0 -0.63787841796875 1.5167236328125
969167500.0 -0.47198486328125 1.58917236328125
974163000.0 -0.2962646484375 1.64471435546875
979158500.0 -0.11163330078125 1.681396484375
984154000.0 0.079833984375 1.697509765625
989149500.0 0.2760009765625 1.69012451171875
994145000.0 0.4732666015625 1.65875244140625
999140500.0 0.66754150390625 1.602294921875
1004136000.0 0.85614013671875 1.52056884765625
1009131500.0 1.03448486328125 1.41400146484375
1014127000.0 1.19793701171875 1.28472900390625
1019122500.0 1.3443603515625 1.13482666015625
1024118000.0 1.46881103515625 0.967041015625
1029113500.0 1.57086181640625 0.78564453125
1034109000.0 1.64739990234375 0.594482421875
1039104500.0 1.699951171875 0.39697265625
1044100000.0 1.72662353515625 0.19720458984375
1049095500.0 1.73016357421875 -0.0015869140625
1054091000.0 1.71051025390625 -0.19610595703125
1059086500.0 1.66961669921875 -0.384033203125
1064082000.0 1.6099853515625 -0.56427001953125
1069077500.0 1.53289794921875 -0.734375
1074073000.0 1.4393310546875 -0.894287109375
1079068500.0 1.331298828125 -1.04229736328125
1084064000.0 1.2100830078125 -1.17840576171875
1089059500.0 1.0765380859375 -1.3011474609375
1094055000.0 0.9317626953125 -1.41021728515625
1099050500.0 0.77569580078125 -1.50543212890625
1104046000.0 0.610595703125 -1.585205078125
1109041500.0 0.4359130859375 -1.64837646484375
1114037000.0 0.25421142578125 -1.6934814453125
1119032500.0 0.06640625 -1.7193603515625
1124028000.0 -0.126220703125 -1.72491455078125
1129023500.0 -0.32080078125 -1.70849609375
1134019000.0 -0.51593017578125 -1.66949462890625
1139014500.0 -0.70660400390625 -1.6075439453125
1144010000.0 -0.8919677734375 -1.521728515625
1149005500.0 -1.06640625 -1.41265869140625
1154001000.0 -1.2276611328125 -1.28131103515625
1158996500.0 -1.3720703125 -1.130126953125
1163992000.0 -1.4962158203125 -0.96112060546875
1168987500.0 -1.5980224609375 -0.7772216796875
1173983000.0 -1.67608642578125 -0.58209228515625
1178978500.0 -1.72784423828125 -0.379638671875
1183974000.0 -1.75311279296875 -0.17425537109375
1188969500.0 -1.75347900390625 0.031005859375
1193965000.0 -1.72894287109375 0.23193359375
1198960500.0 -1.68084716796875 0.42584228515625
1203956000.0 -1.6116943359375 0.61029052734375
1208951500.0 -1.52294921875 0.78265380859375
1213947000.0 -1.41644287109375 0.94146728515625
1218942500.0 -1.295654296875 1.0855712890625
1223938000.0 -1.16156005859375 1.21405029296875
1228933500.0 -1.01727294921875 1.3255615234375
1233929000.0 -0.86407470703125 1.42144775390625
1238924500.0 -0.7030029296875 1.49945068359375
1243920000.0 -0.5361328125 1.5614013671875
1248915500.0 -0.365478515625 1.60430908203125
1253911000.0 -0.19207763671875 1.6319580078125
1258906500.0 -0.0167236328125 1.64129638671875
1263902000.0 0.15850830078125 1.6331787109375
1268897500.0 0.334228515625 1.60919189453125
1273893000.0 0.50335693359375 1.564697265625
1278888500.0 0.6700439453125 1.50372314453125
1283884000.0 0.82977294921875 1.42510986328125
1288879500.0 0.98193359375 1.32958984375
1293875000.0 1.1236572265625 1.2169189453125
1298870500.0 1.25299072265625 1.0887451171875
1303866000.0 1.36846923828125 0.94647216796875
1308861500.0 1.4678955078125 0.79132080078125
1313857000.0 1.54986572265625 0.6246337890625
1318852500.0 1.61358642578125 0.4488525390625
1323848000.0 1.65582275390625 0.266357421875
1328843500.0 1.6781005859375 0.07940673828125
1333839000.0 1.6787109375 -0.10986328125
1338834500.0 1.6575927734375 -0.298583984375
1343830000.0 1.61529541015625 -0.4835205078125
1348825500.0 1.5521240234375 -0.66357421875
1353821000.0 1.46844482421875 -0.83544921875
1358816500.0 1.36541748046875 -0.996826171875
1363812000.0 1.24395751953125 -1.1455078125
1368807500.0 1.1058349609375 -1.2794189453125
1373803000.0 0.9527587890625 -1.39630126953125
1378798500.0 0.7877197265625 -1.49481201171875
1383794000.0 0.611328125 -1.57281494140625
1388789500.0 0.4276123046875 -1.62890625
1393785000.0 0.23919677734375 -1.66387939453125
1398780500.0 0.0489501953125 -1.676025390625
1403776000.0 -0.14105224609375 -1.665771484375
1408771500.0 -0.3265380859375 -1.6334228515625
1413767000.0 -0.506103515625 -1.580078125
1418762500.0 -0.6763916015625 -1.50738525390625
1423758000.0 -0.8363037109375 -1.41680908203125
1428753500.0 -0.9830322265625 -1.3104248046875
1433749000.0 -1.11578369140625 -1.189208984375
1438744500.0 -1.234130859375 -1.05621337890625
1443740000.0 -1.33587646484375 -0.91302490234375
1448735500.0 -1.42242431640625 -0.7613525390625
1453731000.0 -1.49169921875 -0.60260009765625
1458726500.0 -1.54473876953125 -0.43853759765625
1463722000.0 -1.5809326171875 -0.27056884765625
1468717500.0 -1.60015869140625 -0.100341796875
1473713000.0 -1.602783203125 0.07159423828125
1478708500.0 -1.58831787109375 0.243408203125
1483704000.0 -1.5557861328125 0.413330078125
1488699500.0 -1.5064697265625 0.58135986328125
1493695000.0 -1.43878173828125 0.7437744140625
1498690500.0 -1.35418701171875 0.9014892578125
1503686000.0 -1.25103759765625 1.04986572265625
1508681500.0 -1.13140869140625 1.1884765625
1513677000.0 -0.99395751953125 1.31402587890625
1518672500.0 -0.8408203125 1.4241943359375
1523668000.0 -0.6741943359375 1.51629638671875
1528663500.0 -0.49468994140625 1.5877685546875
1533659000.0 -0.30645751953125 1.63726806640625
1538654500.0 -0.1129150390625 1.6617431640625
1543650000.0 0.08319091796875 1.66119384765625
1548645500.0 0.2767333984375 1.6365966796875
1553641000.0 0.4644775390625 1.58636474609375
1558636500.0 0.64324951171875 1.51385498046875
1563632000.0 0.8087158203125 1.4202880859375
1568627500.0 0.9593505859375 1.30859375
1573623000.0 1.0928955078125 1.18157958984375
1578618500.0 1.20819091796875 1.04254150390625
1583614000.0 1.3055419921875 0.8939208984375
1588609500.0 1.383544921875 0.73919677734375
1593605000.0 1.443115234375 0.57977294921875
1598600500.0 1.48583984375 0.417724609375
1603596000.0 1.51068115234375 0.25555419921875
1608591500.0 1.5194091796875 0.09429931640625
1613587000.0 1.5133056640625 -0.065673828125
1618582500.0 1.4915771484375 -0.22186279296875
1623578000.0 1.4556884765625 -0.37432861328125
1628573500.0 1.4063720703125 -0.522705078125
1633569000.0 1.3424072265625 -0.6656494140625
1638564500.0 1.26654052734375 -0.8023681640625
1643560000.0 1.176025390625 -0.931884765625
1648555500.0 1.0726318359375 -1.0526123046875
1653551000.0 0.95648193359375 -1.16400146484375
1658546500.0 0.827880859375 -1.2642822265625
1663542000.0 0.68798828125 -1.35101318359375
1668537500.0 0.53753662109375 -1.42279052734375
1673533000.0 0.37762451171875 -1.4779052734375
1678528500.0 0.2105712890625 -1.513916015625
1683524000.0 0.03839111328125 -1.52996826171875
1688519500.0 -0.1357421875 -1.52545166015625
1693515000.0 -0.30792236328125 -1.49908447265625
1698510500.0 -0.47564697265625 -1.450927734375
1703506000.0 -0.63623046875 -1.38226318359375
1708501500.0 -0.7833251953125 -1.29656982421875
1713497000.0 -0.91949462890625 -1.19403076171875
1718492500.0 -1.03973388671875 -1.07763671875
1723488000.0 -1.14404296875 -0.95013427734375
1728483500.0 -1.23193359375 -0.8140869140625
1733479000.0 -1.30328369140625 -0.672607421875
1738474500.0 -1.3580322265625 -0.5263671875
1743470000.0 -1.39727783203125 -0.37847900390625
1748465500.0 -1.42095947265625 -0.23028564453125
1753461000.0 -1.43084716796875 -0.0826416015625
1758456500.0 -1.42718505859375 0.0638427734375
1763452000.0 -1.4110107421875 0.20880126953125
1768447500.0 -1.38201904296875 0.35052490234375
1773443000.0 -1.340576171875 0.48968505859375
1778438500.0 -1.2869873046875 0.6256103515625
1783434000.0 -1.21990966796875 0.75738525390625
1788429500.0 -1.140625 0.88385009765625
1793425000.0 -1.04766845703125 1.00518798828125
1798420500.0 -0.94158935546875 1.117919921875
1803416000.0 -0.82147216796875 1.22100830078125
1808411500.0 -0.6881103515625 1.31256103515625
1813407000.0 -0.5423583984375 1.39031982421875
1818402500.0 -0.38482666015625 1.45172119140625
1823398000.0 -0.2186279296875 1.49407958984375
1828393500.0 -0.04571533203125 1.51507568359375
1833389000.0 0.1309814453125 1.51470947265625
1838384500.0 0.3062744140625 1.49072265625
1843380000.0 0.47735595703125 1.4437255859375
1848375500.0 0.6409912109375 1.37518310546875
1853371000.0 0.79168701171875 1.2869873046875
1858366500.0 0.929443359375 1.18157958984375
1863362000.0 1.05035400390625 1.06158447265625
1868357500.0 1.1541748046875 0.93096923828125
1873353000.0 1.2398681640625 0.791748046875
1878348500.0 1.30804443359375 0.6473388671875
1883344000.0 1.35943603515625 0.49993896484375
1888339500.0 1.39471435546875 0.35076904296875
1893335000.0 1.4150390625 0.20208740234375
1898330500.0 1.4207763671875 0.05511474609375
1903326000.0 1.413818359375 -0.09051513671875
1908321500.0 1.3935546875 -0.2327880859375
1913317000.0 1.361328125 -0.3721923828125
1918312500.0 1.31744384765625 -0.5084228515625
1923308000.0 1.26177978515625 -0.640380859375
1928303500.0 1.1929931640625 -0.76812744140625
1933299000.0 1.1126708984375 -0.89056396484375
1938294500.0 1.0196533203125 -1.00689697265625
1943290000.0 0.913818359375 -1.114990234375
1948285500.0 0.79595947265625 -1.214111328125
1953281000.0 0.6651611328125 -1.30206298828125
1958276500.0 0.522216796875 -1.37646484375
1963272000.0 0.36895751953125 -1.4351806640625
1968267500.0 0.2080078125 -1.47601318359375
1973263000.0 0.03936767578125 -1.49755859375
1978258500.0 -0.13226318359375 -1.49835205078125
1983254000.0 -0.30377197265625 -1.47674560546875
1988249500.0 -0.47216796875 -1.43377685546875
1993245000.0 -0.6334228515625 -1.36956787109375
1998240500.0 -0.78485107421875 -1.28570556640625
2003236000.0 -0.92303466796875 -1.184814453125
2008231500.0 -1.046875 -1.06884765625
2013227000.0 -1.15447998046875 -0.9407958984375
2018222500.0 -1.24542236328125 -0.80316162109375
2023218000.0 -1.3187255859375 -0.65814208984375
2028213500.0 -1.3756103515625 -0.5087890625
2033209000.0 -1.41558837890625 -0.35650634765625
2038204500.0 -1.43927001953125 -0.20294189453125
2043200000.0 -1.4476318359375 -0.0499267578125
2048195500.0 -1.4405517578125 0.10211181640625
2053191000.0 -1.4197998046875 0.25201416015625
2058186500.0 -1.3836669921875 0.39788818359375
2063182000.0 -1.33538818359375 0.54083251953125
2068177500.0 -1.2730712890625 0.67791748046875
2073173000.0 -1.19671630859375 0.8096923828125
2078168500.0 -1.1072998046875 0.93353271484375
2083164000.0 -1.00457763671875 1.04931640625
2088159500.0 -0.8897705078125 1.154541015625
2093155000.0 -0.7623291015625 1.2481689453125
2098150500.0 -0.6239013671875 1.32794189453125
2103146000.0 -0.47576904296875 1.39227294921875
2108141500.0 -0.3206787109375 1.4400634765625
2113137000.0 -0.15972900390625 1.46990966796875
2118132500.0 0.0050048828125 1.47991943359375
2123128000.0 0.169677734375 1.47015380859375
2128123500.0 0.33172607421875 1.44146728515625
2133119000.0 0.48895263671875 1.39361572265625
2138114500.0 0.63818359375 1.32806396484375
2143110000.0 0.7781982421875 1.2464599609375
2148105500.0 0.90643310546875 1.15032958984375
2153101000.0 1.02227783203125 1.0419921875
2158096500.0 1.12353515625 0.923095703125
2163092000.0 1.21173095703125 0.79541015625
2168087500.0 1.28460693359375 0.66156005859375
2173083000.0 1.34375 0.52252197265625
2178078500.0 1.38800048828125 0.37939453125
2183074000.0 1.4183349609375 0.23370361328125
2188069500.0 1.43524169921875 0.08642578125
