!Created with skrf (http://scikit-rf.org).
# Hz S RI R 50.0 
!freq ReS11 ImS11
45000000.0 -0.08176803588867188 -0.09314727783203125
49995500.0 -0.10247421264648438 -0.08905410766601562
54991000.0 -0.12288284301757812 -0.0809173583984375
59986500.0 -0.14127349853515625 -0.07904052734375
64982000.0 -0.15998077392578125 -0.06952667236328125
69977500.0 -0.1786651611328125 -0.05499267578125
74973000.0 -0.19608306884765625 -0.03734588623046875
79968500.0 -0.21150970458984375 -0.016387939453125
84964000.0 -0.22505950927734375 0.00757598876953125
89959500.0 -0.2357940673828125 0.03464508056640625
94955000.0 -0.24266815185546875 0.064239501953125
99950500.0 -0.24547576904296875 0.09648895263671875
104946000.0 -0.2442474365234375 0.13013458251953125
109941500.0 -0.238006591796875 0.16477203369140625
114937000.0 -0.226531982421875 0.200103759765625
119932500.0 -0.2097930908203125 0.2348480224609375
124928000.0 -0.187957763671875 0.2685394287109375
129923500.0 -0.1607818603515625 0.29974365234375
134919000.0 -0.1283111572265625 0.32830810546875
139914500.0 -0.091400146484375 0.353271484375
144910000.0 -0.049957275390625 0.3739776611328125
149905500.0 -0.004852294921875 0.3893890380859375
154901000.0 0.0426025390625 0.399322509765625
159896500.0 0.0923614501953125 0.4027862548828125
164892000.0 0.1427764892578125 0.399810791015625
169887500.0 0.19384765625 0.3907318115234375
174883000.0 0.24462890625 0.3748016357421875
179878500.0 0.29376220703125 0.35247802734375
184874000.0 0.3408966064453125 0.3237152099609375
189869500.0 0.3851776123046875 0.288543701171875
194865000.0 0.4261627197265625 0.2481536865234375
199860500.0 0.462493896484375 0.2023162841796875
204856000.0 0.4934234619140625 0.15118408203125
209851500.0 0.518951416015625 0.095672607421875
214847000.0 0.538604736328125 0.036285400390625
219842500.0 0.551544189453125 -0.026580810546875
224838000.0 0.556732177734375 -0.091766357421875
229833500.0 0.5545654296875 -0.15887451171875
234829000.0 0.5439453125 -0.226318359375
239824500.0 0.525482177734375 -0.29376220703125
244820000.0 0.497589111328125 -0.3597564697265625
249815500.0 0.4611968994140625 -0.4236602783203125
254811000.0 0.4409027099609375 -0.4704132080078125
259806500.0 0.391998291015625 -0.5281982421875
264802000.0 0.3345947265625 -0.580718994140625
269797500.0 0.270172119140625 -0.62646484375
274793000.0 0.19964599609375 -0.66461181640625
279788500.0 0.123291015625 -0.69415283203125
284784000.0 0.043853759765625 -0.714508056640625
289779500.0 -0.03924560546875 -0.7252197265625
294775000.0 -0.123687744140625 -0.725555419921875
299770500.0 -0.20849609375 -0.71636962890625
304766000.0 -0.292388916015625 -0.697052001953125
309761500.0 -0.374053955078125 -0.66748046875
314757000.0 -0.451995849609375 -0.628448486328125
319752500.0 -0.52587890625 -0.580169677734375
324748000.0 -0.59442138671875 -0.523712158203125
329743500.0 -0.657135009765625 -0.45941162109375
334739000.0 -0.713287353515625 -0.387786865234375
339734500.0 -0.7618408203125 -0.309326171875
344730000.0 -0.8016357421875 -0.225250244140625
349725500.0 -0.832733154296875 -0.13616943359375
354721000.0 -0.854278564453125 -0.042694091796875
359716500.0 -0.865570068359375 0.0543212890625
364712000.0 -0.865753173828125 0.15386962890625
369707500.0 -0.8546142578125 0.254791259765625
374703000.0 -0.83160400390625 0.356201171875
379698500.0 -0.795867919921875 0.45599365234375
384694000.0 -0.747711181640625 0.552825927734375
389689500.0 -0.68707275390625 0.644622802734375
394685000.0 -0.6138916015625 0.729888916015625
399680500.0 -0.52996826171875 0.8067626953125
404676000.0 -0.435821533203125 0.873321533203125
409671500.0 -0.332489013671875 0.929718017578125
414667000.0 -0.222869873046875 0.970184326171875
419662500.0 -0.10736083984375 0.99774169921875
424658000.0 0.0113525390625 1.01068115234375
429653500.0 0.13214111328125 1.00823974609375
434649000.0 0.251495361328125 0.989288330078125
439644500.0 0.365692138671875 0.956451416015625
444640000.0 0.474212646484375 0.911407470703125
449635500.0 0.576202392578125 0.855438232421875
454631000.0 0.672576904296875 0.789276123046875
459626500.0 0.761016845703125 0.711883544921875
464622000.0 0.840484619140625 0.625213623046875
469617500.0 0.9088134765625 0.530487060546875
474613000.0 0.967529296875 0.42919921875
479608500.0 1.01544189453125 0.32257080078125
484604000.0 1.052734375 0.210693359375
489599500.0 1.07818603515625 0.0950927734375
494595000.0 1.09283447265625 -0.02410888671875
499590500.0 1.09478759765625 -0.14556884765625
504586000.0 1.08428955078125 -0.26861572265625
509581500.0 1.06005859375 -0.3922119140625
514577000.0 1.02178955078125 -0.51507568359375
519572500.0 0.968719482421875 -0.635772705078125
524568000.0 0.900054931640625 -0.752227783203125
529563500.0 0.816192626953125 -0.86212158203125
534559000.0 0.717559814453125 -0.962646484375
539554500.0 0.6046142578125 -1.051025390625
544550000.0 0.480224609375 -1.12530517578125
549545500.0 0.34576416015625 -1.18316650390625
554541000.0 0.20367431640625 -1.223388671875
559536500.0 0.05810546875 -1.24603271484375
564532000.0 -0.08990478515625 -1.2508544921875
569527500.0 -0.23779296875 -1.23614501953125
574523000.0 -0.38250732421875 -1.20367431640625
579518500.0 -0.521728515625 -1.15350341796875
584514000.0 -0.65301513671875 -1.0869140625
589509500.0 -0.77471923828125 -1.0057373046875
594505000.0 -0.885345458984375 -0.9112548828125
599500500.0 -0.982696533203125 -0.805450439453125
604496000.0 -1.067626953125 -0.6905517578125
609491500.0 -1.13873291015625 -0.568359375
614487000.0 -1.19622802734375 -0.4405517578125
619482500.0 -1.24005126953125 -0.3082275390625
624478000.0 -1.27020263671875 -0.17291259765625
629473500.0 -1.2869873046875 -0.03546142578125
634469000.0 -1.290283203125 0.103515625
639464500.0 -1.27996826171875 0.24285888671875
644460000.0 -1.25604248046875 0.38189697265625
649455500.0 -1.2183837890625 0.51995849609375
654451000.0 -1.166015625 0.656005859375
659446500.0 -1.09906005859375 0.7884521484375
664442000.0 -1.0169677734375 0.91668701171875
669437500.0 -0.91900634765625 1.03826904296875
674433000.0 -0.8045654296875 1.15081787109375
679428500.0 -0.67449951171875 1.251953125
684424000.0 -0.52984619140625 1.3382568359375
689419500.0 -0.371337890625 1.407958984375
694415000.0 -0.20196533203125 1.45703125
699410500.0 -0.02423095703125 1.48406982421875
704406000.0 0.15838623046875 1.4869384765625
709401500.0 0.34088134765625 1.46466064453125
714397000.0 0.5194091796875 1.41693115234375
719392500.0 0.68975830078125 1.34552001953125
724388000.0 0.84857177734375 1.252685546875
729383500.0 0.9925537109375 1.14013671875
734379000.0 1.1180419921875 1.010009765625
739374500.0 1.22491455078125 0.86785888671875
744370000.0 1.3118896484375 0.716552734375
749365500.0 1.37860107421875 0.557861328125
754361000.0 1.4266357421875 0.39678955078125
759356500.0 1.4552001953125 0.234130859375
764352000.0 1.466552734375 0.0718994140625
769347500.0 1.46099853515625 -0.08831787109375
774343000.0 1.43994140625 -0.244873046875
779338500.0 1.403564453125 -0.39739990234375
784334000.0 1.35369873046875 -0.54473876953125
789329500.0 1.29022216796875 -0.68670654296875
794325000.0 1.21417236328125 -0.82220458984375
799320500.0 1.12493896484375 -0.95074462890625
804316000.0 1.0224609375 -1.07159423828125
809311500.0 0.90728759765625 -1.182861328125
814307000.0 0.779541015625 -1.2840576171875
819302500.0 0.6400146484375 -1.3729248046875
824298000.0 0.48822021484375 -1.44769287109375
829293500.0 0.32666015625 -1.5068359375
834289000.0 0.1549072265625 -1.54736328125
839284500.0 -0.02349853515625 -1.56768798828125
844280000.0 -0.13934326171875 -1.595458984375
849275500.0 -0.3270263671875 -1.579833984375
854271000.0 -0.51263427734375 -1.5399169921875
859266500.0 -0.69390869140625 -1.47515869140625
864262000.0 -0.86572265625 -1.3876953125
869257500.0 -1.0245361328125 -1.27862548828125
874253000.0 -1.1680908203125 -1.14996337890625
879248500.0 -1.293212890625 -1.00531005859375
884244000.0 -1.39886474609375 -0.8475341796875
889239500.0 -1.48358154296875 -0.68023681640625
894235000.0 -1.54766845703125 -0.50592041015625
899230500.0 -1.5906982421875 -0.32781982421875
904226000.0 -1.6136474609375 -0.14727783203125
909221500.0 -1.61627197265625 0.0330810546875
914217000.0 -1.59893798828125 0.21142578125
919212500.0 -1.56231689453125 0.38427734375
924208000.0 -1.5087890625 0.55108642578125
929203500.0 -1.43927001953125 0.708984375
934199000.0 -1.35565185546875 0.8583984375
939194500.0 -1.2578125 0.99847412109375
944190000.0 -1.14837646484375 1.12921142578125
949185500.0 -1.0260009765625 1.24981689453125
954181000.0 -0.89141845703125 1.3582763671875
959176500.0 -0.74517822265625 1.45538330078125
964172000.0 -0.58746337890625 1.53875732421875
969167500.0 -0.418701171875 1.60528564453125
974163000.0 -0.24041748046875 1.6556396484375
979158500.0 -0.05377197265625 1.685546875
984154000.0 0.1395263671875 1.69525146484375
989149500.0 0.33575439453125 1.6807861328125
994145000.0 0.53204345703125 1.64190673828125
999140500.0 0.7249755859375 1.57806396484375
1004136000.0 0.91094970703125 1.48895263671875
1009131500.0 1.0858154296875 1.3760986328125
1014127000.0 1.2449951171875 1.23956298828125
1019122500.0 1.38482666015625 1.08428955078125
1024118000.0 1.5029296875 0.91162109375
1029113500.0 1.5977783203125 0.72625732421875
1034109000.0 1.66717529296875 0.5322265625
1039104500.0 1.7115478515625 0.3330078125
1044100000.0 1.7310791015625 0.1326904296875
1049095500.0 1.726806640625 -0.0655517578125
1054091000.0 1.6998291015625 -0.25921630859375
1059086500.0 1.6527099609375 -0.4456787109375
1064082000.0 1.58624267578125 -0.62335205078125
1069077500.0 1.50274658203125 -0.7899169921875
1074073000.0 1.40423583984375 -0.9462890625
1079068500.0 1.291015625 -1.0904541015625
1084064000.0 1.164794921875 -1.2222900390625
1089059500.0 1.026611328125 -1.340087890625
1094055000.0 0.87762451171875 -1.4449462890625
1099050500.0 0.7176513671875 -1.53466796875
1104046000.0 0.54937744140625 -1.60791015625
1109041500.0 0.3720703125 -1.66473388671875
1114037000.0 0.18817138671875 -1.70306396484375
1119032500.0 -0.0013427734375 -1.72198486328125
1124028000.0 -0.19512939453125 -1.7193603515625
1129023500.0 -0.3895263671875 -1.69549560546875
1134019000.0 -0.58343505859375 -1.64837646484375
1139014500.0 -0.772705078125 -1.578369140625
1144010000.0 -0.9537353515625 -1.48419189453125
1149005500.0 -1.12457275390625 -1.36749267578125
1154001000.0 -1.28009033203125 -1.22869873046875
1158996500.0 -1.418212890625 -1.071044921875
1163992000.0 -1.53509521484375 -0.89642333984375
1168987500.0 -1.62908935546875 -0.7078857421875
1173983000.0 -1.69775390625 -0.50933837890625
1178978500.0 -1.74078369140625 -0.30487060546875
1183974000.0 -1.757080078125 -0.09881591796875
1188969500.0 -1.74810791015625 0.10614013671875
1193965000.0 -1.71502685546875 0.30572509765625
1198960500.0 -1.6585693359375 0.496826171875
1203956000.0 -1.58154296875 0.6778564453125
1208951500.0 -1.48492431640625 0.845703125
1213947000.0 -1.37261962890625 0.99957275390625
1218942500.0 -1.24566650390625 1.1376953125
1223938000.0 -1.10675048828125 1.26019287109375
1228933500.0 -0.95806884765625 1.3663330078125
1233929000.0 -0.800537109375 1.4552001953125
1238924500.0 -0.6373291015625 1.5262451171875
1243920000.0 -0.46807861328125 1.58074951171875
1248915500.0 -0.29595947265625 1.61761474609375
1253911000.0 -0.12103271484375 1.6373291015625
1258906500.0 0.0546875 1.63995361328125
1263902000.0 0.23004150390625 1.62506103515625
1268897500.0 0.40374755859375 1.5916748046875
1273893000.0 0.57147216796875 1.54034423828125
1278888500.0 0.7349853515625 1.47210693359375
1283884000.0 0.89263916015625 1.3870849609375
1288879500.0 1.04052734375 1.28424072265625
1293875000.0 1.177490234375 1.1650390625
1298870500.0 1.3013916015625 1.0313720703125
1303866000.0 1.41046142578125 0.8831787109375
1308861500.0 1.50335693359375 0.7230224609375
1313857000.0 1.57757568359375 0.55218505859375
1318852500.0 1.6326904296875 0.37335205078125
1323848000.0 1.6669921875 0.1885986328125
1328843500.0 1.67974853515625 0.00054931640625
1333839000.0 1.67132568359375 -0.188720703125
1338834500.0 1.64154052734375 -0.3770751953125
1343830000.0 1.590576171875 -0.5599365234375
1348825500.0 1.5184326171875 -0.73748779296875
1353821000.0 1.42657470703125 -0.9046630859375
1358816500.0 1.3157958984375 -1.06182861328125
1363812000.0 1.186279296875 -1.2047119140625
1368807500.0 1.04144287109375 -1.33184814453125
1373803000.0 0.8828125 -1.44085693359375
1378798500.0 0.712158203125 -1.53070068359375
1383794000.0 0.53228759765625 -1.59991455078125
1388789500.0 0.34625244140625 -1.6474609375
1393785000.0 0.15570068359375 -1.6728515625
1398780500.0 -0.03509521484375 -1.6749267578125
1403776000.0 -0.2236328125 -1.65472412109375
1408771500.0 -0.4073486328125 -1.61334228515625
1413767000.0 -0.583740234375 -1.5513916015625
1418762500.0 -0.75018310546875 -1.47027587890625
1423758000.0 -0.905029296875 -1.371826171875
1428753500.0 -1.046875 -1.25836181640625
1433749000.0 -1.17315673828125 -1.130859375
1438744500.0 -1.28436279296875 -0.99273681640625
1443740000.0 -1.37969970703125 -0.844482421875
1448735500.0 -1.4581298828125 -0.68853759765625
1453731000.0 -1.52020263671875 -0.5264892578125
1458726500.0 -1.56524658203125 -0.35968017578125
1463722000.0 -1.59320068359375 -0.1898193359375
1468717500.0 -1.60455322265625 -0.018310546875
1473713000.0 -1.59832763671875 0.154052734375
1478708500.0 -1.5750732421875 0.32562255859375
1483704000.0 -1.5345458984375 0.49493408203125
1488699500.0 -1.47601318359375 0.66021728515625
1493695000.0 -1.3997802734375 0.82098388671875
1498690500.0 -1.30670166015625 0.97393798828125
1503686000.0 -1.19525146484375 1.1177978515625
1508681500.0 -1.06658935546875 1.25
1513677000.0 -0.921630859375 1.36895751953125
1518672500.0 -0.76177978515625 1.47052001953125
1523668000.0 -0.58905029296875 1.55328369140625
1528663500.0 -0.40478515625 1.61517333984375
1533659000.0 -0.2135009765625 1.65289306640625
1538654500.0 -0.01788330078125 1.6661376953125
1543650000.0 0.177978515625 1.65423583984375
1548645500.0 0.37017822265625 1.61676025390625
1553641000.0 0.55487060546875 1.55596923828125
1558636500.0 0.72882080078125 1.47259521484375
1563632000.0 0.8876953125 1.369384765625
1568627500.0 1.03143310546875 1.24957275390625
1573623000.0 1.1566162109375 1.115234375
1578618500.0 1.2635498046875 0.97015380859375
1583614000.0 1.35174560546875 0.81689453125
1588609500.0 1.4205322265625 0.65789794921875
1593605000.0 1.471435546875 0.49609375
1598600500.0 1.50445556640625 0.3326416015625
1603596000.0 1.5203857421875 0.169677734375
1608591500.0 1.520751953125 0.00799560546875
1613587000.0 1.50518798828125 -0.15057373046875
1618582500.0 1.4755859375 -0.30572509765625
1623578000.0 1.43157958984375 -0.45623779296875
1628573500.0 1.37353515625 -0.60174560546875
1633569000.0 1.30255126953125 -0.7413330078125
1638564500.0 1.21807861328125 -0.87451171875
1643560000.0 1.12042236328125 -0.998779296875
1648555500.0 1.01019287109375 -1.11431884765625
1653551000.0 0.8873291015625 -1.21929931640625
1658546500.0 0.75323486328125 -1.3111572265625
1663542000.0 0.6072998046875 -1.39031982421875
1668537500.0 0.45147705078125 -1.45318603515625
1673533000.0 0.2879638671875 -1.49798583984375
1678528500.0 0.11810302734375 -1.5245361328125
1683524000.0 -0.05462646484375 -1.529541015625
1688519500.0 -0.22869873046875 -1.51348876953125
1693515000.0 -0.3990478515625 -1.4761962890625
1698510500.0 -0.56365966796875 -1.41705322265625
1703506000.0 -0.7181396484375 -1.33935546875
1708501500.0 -0.86077880859375 -1.24468994140625
1713497000.0 -0.98883056640625 -1.1337890625
1718492500.0 -1.10174560546875 -1.01031494140625
1723488000.0 -1.19744873046875 -0.87713623046875
1728483500.0 -1.27679443359375 -0.73687744140625
1733479000.0 -1.33929443359375 -0.59130859375
1738474500.0 -1.3848876953125 -0.4432373046875
1743470000.0 -1.4154052734375 -0.29412841796875
1748465500.0 -1.43115234375 -0.14501953125
1753461000.0 -1.43255615234375 0.00286865234375
1758456500.0 -1.42120361328125 0.1494140625
1763452000.0 -1.39642333984375 0.2923583984375
1768447500.0 -1.35986328125 0.433349609375
1773443000.0 -1.31048583984375 0.57037353515625
1778438500.0 -1.24908447265625 0.703857421875
1783434000.0 -1.17401123046875 0.83251953125
1788429500.0 -1.08734130859375 0.95501708984375
1793425000.0 -0.98638916015625 1.07122802734375
1798420500.0 -0.87249755859375 1.17828369140625
1803416000.0 -0.744873046875 1.2747802734375
1808411500.0 -0.604736328125 1.35845947265625
1813407000.0 -0.45233154296875 1.42742919921875
1818402500.0 -0.2901611328125 1.4783935546875
1823398000.0 -0.11993408203125 1.509033203125
1828393500.0 0.055419921875 1.51873779296875
1833389000.0 0.23236083984375 1.50543212890625
1838384500.0 0.406005859375 1.468994140625
1843380000.0 0.5740966796875 1.4100341796875
1848375500.0 0.73187255859375 1.33001708984375
1853371000.0 0.87689208984375 1.231201171875
1858366500.0 1.00634765625 1.116455078125
1863362000.0 1.1182861328125 0.9886474609375
1868357500.0 1.21270751953125 0.85137939453125
1873353000.0 1.288818359375 0.70745849609375
1878348500.0 1.34747314453125 0.55908203125
1883344000.0 1.388916015625 0.40924072265625
1888339500.0 1.41473388671875 0.25836181640625
1893335000.0 1.4248046875 0.10955810546875
1898330500.0 1.42236328125 -0.03802490234375
1903326000.0 1.40618896484375 -0.1826171875
1908321500.0 1.3773193359375 -0.32379150390625
1913317000.0 1.3365478515625 -0.46148681640625
1918312500.0 1.2840576171875 -0.5950927734375
1923308000.0 1.2197265625 -0.72430419921875
1928303500.0 1.1435546875 -0.84857177734375
1933299000.0 1.05474853515625 -0.96673583984375
1938294500.0 0.95355224609375 -1.0777587890625
1943290000.0 0.83984375 -1.18035888671875
1948285500.0 0.7137451171875 -1.2718505859375
1953281000.0 0.57550048828125 -1.35137939453125
1958276500.0 0.4263916015625 -1.416259765625
1963272000.0 0.26776123046875 -1.464111328125
1968267500.0 0.101806640625 -1.49365234375
1973263000.0 -0.06903076171875 -1.50250244140625
1978258500.0 -0.24169921875 -1.4898681640625
1983254000.0 -0.412353515625 -1.45538330078125
1988249500.0 -0.5771484375 -1.39892578125
1993245000.0 -0.7342529296875 -1.32220458984375
1998240500.0 -0.8787841796875 -1.22674560546875
2003236000.0 -1.00921630859375 -1.114990234375
2008231500.0 -1.1239013671875 -0.9901123046875
2013227000.0 -1.22149658203125 -0.85382080078125
2018222500.0 -1.3018798828125 -0.7098388671875
2023218000.0 -1.36456298828125 -0.56024169921875
2028213500.0 -1.40985107421875 -0.40704345703125
2033209000.0 -1.4385986328125 -0.25250244140625
2038204500.0 -1.451416015625 -0.0975341796875
2043200000.0 -1.44842529296875 0.05615234375
2048195500.0 -1.4310302734375 0.20703125
2053191000.0 -1.39892578125 0.35528564453125
2058186500.0 -1.35345458984375 0.4993896484375
2063182000.0 -1.29412841796875 0.638427734375
2068177500.0 -1.2216796875 0.77130126953125
2073173000.0 -1.13580322265625 0.89764404296875
2078168500.0 -1.0369873046875 1.01531982421875
2083164000.0 -0.92535400390625 1.12353515625
2088159500.0 -0.80224609375 1.22021484375
2093155000.0 -0.6669921875 1.3043212890625
2098150500.0 -0.52252197265625 1.3740234375
2103146000.0 -0.3695068359375 1.42681884765625
2108141500.0 -0.21014404296875 1.46240234375
2113137000.0 -0.04681396484375 1.4791259765625
2118132500.0 0.11834716796875 1.4759521484375
2123128000.0 0.281982421875 1.45306396484375
2128123500.0 0.44134521484375 1.411865234375
2133119000.0 0.594482421875 1.35186767578125
2138114500.0 0.73773193359375 1.27496337890625
2143110000.0 0.87115478515625 1.18267822265625
2148105500.0 0.99090576171875 1.077392578125
2153101000.0 1.09759521484375 0.96051025390625
2158096500.0 1.19012451171875 0.83489990234375
2163092000.0 1.26739501953125 0.70147705078125
2168087500.0 1.3302001953125 0.56256103515625
2173083000.0 1.37884521484375 0.419921875
2178078500.0 1.4124755859375 0.27435302734375
2183074000.0 1.432373046875 0.12646484375
2188069500.0 1.43896484375 -0.0218505859375
