!Created with skrf (http://scikit-rf.org).
# Hz S RI R 50.0 
!freq ReS11 ImS11
300000.0 -1.020550511 -0.1656292218
5299970.0 -1.002212604 0.007432423
10299940.0 -1.001043923 0.0122885883
15299910.0 -1.000204801 0.02416905
20299880.0 -0.9999288721 0.0277756051
25299850.0 -0.9990485203 0.036304999
30299820.0 -0.9985957591 0.043843338
35299790.0 -0.9979712163 0.049105253
40299760.0 -0.9974367217 0.0557455561
45299730.0 -0.9963674985 0.0621485187
50299700.0 -0.9958087691 0.0696035547
55299670.0 -0.9950412587 0.0762958405
60299640.0 -0.9941744011 0.0827227457
65299610.0 -0.9940616654 0.0887295039
70299580.0 -0.9934146554 0.0953503344
75299550.0 -0.9920222935 0.102650225
80299520.0 -0.9913146374 0.1087125112
85299490.0 -0.9901126679 0.1157099522
90299460.0 -0.9898426106 0.1220182763
95299430.0 -0.9883253791 0.1286457667
100299400.0 -0.9874621373 0.1356141484
105299370.0 -0.9867942997 0.1418489996
110299340.0 -0.9853714507 0.1478975777
115299310.0 -0.984357618 0.1549305353
120299280.0 -0.9827725638 0.161508608
125299250.0 -0.9820005235 0.1676136177
130299220.0 -0.9806630849 0.1738748077
135299190.0 -0.9798916301 0.1809446127
140299160.0 -0.9787139533 0.1869451786
145299130.0 -0.9768202471 0.1935308306
150299100.0 -0.9750744836 0.1999756513
155299070.0 -0.9740983024 0.2064799936
160299040.0 -0.9725955086 0.2126651437
165299010.0 -0.9711280998 0.2195317886
170298980.0 -0.9697000663 0.2258108366
175298950.0 -0.9662216921 0.2315985538
180298920.0 -0.9642247055 0.2369296446
185298890.0 -0.9643405542 0.2441861919
190298860.0 -0.9633339922 0.2514442308
195298830.0 -0.9612101125 0.2575448902
200298800.0 -0.9597449035 0.2640191716
205298770.0 -0.9580170351 0.2701349651
210298740.0 -0.9564042498 0.276631632
215298710.0 -0.9543011581 0.2825288989
220298680.0 -0.952389075 0.2890006772
225298650.0 -0.9502257524 0.2953729516
230298620.0 -0.9481436317 0.3014711161
235298590.0 -0.9457467435 0.3073486094
240298560.0 -0.9441466215 0.3139937769
245298530.0 -0.9421760187 0.3198265916
250298500.0 -0.9398827151 0.3260874508
255298470.0 -0.9376568199 0.3326244431
260298440.0 -0.9353807947 0.3387601989
265298410.0 -0.9329568863 0.344956558
270298380.0 -0.9306217587 0.3506123152
275298350.0 -0.9280932375 0.3568342422
280298320.0 -0.9254540857 0.362741639
285298290.0 -0.9235758584 0.3690441513
290298260.0 -0.9210015602 0.3753732086
295298230.0 -0.9183503324 0.3814429364
300298200.0 -0.9156110503 0.3870749566
305298170.0 -0.9127864307 0.3930522363
310298140.0 -0.9101419441 0.398699064
315298110.0 -0.908018638 0.4051173945
320298080.0 -0.9053569284 0.4113812047
325298050.0 -0.9025341373 0.4168197101
330298020.0 -0.8992051157 0.4226875039
335297990.0 -0.8970581532 0.4287697656
340297960.0 -0.8942045766 0.4352711974
345297930.0 -0.8907682168 0.4406483203
350297900.0 -0.8884276858 0.4463407484
355297870.0 -0.8860925003 0.4525562417
360297840.0 -0.8827398034 0.458641075
365297810.0 -0.8800102747 0.4640515436
370297780.0 -0.8765858324 0.4691261777
375297750.0 -0.8725650289 0.4760104105
380297720.0 -0.8694488157 0.480970341
385297690.0 -0.8658305867 0.4868458407
390297660.0 -0.8631028823 0.4929009952
395297630.0 -0.8599359572 0.4978753596
400297600.0 -0.8565113465 0.503989658
405297570.0 -0.8531303074 0.5089334578
410297540.0 -0.8496852948 0.5147856609
415297510.0 -0.846081649 0.5204482195
420297480.0 -0.8422640763 0.525828915
425297450.0 -0.8393194523 0.5315520883
430297420.0 -0.8355561338 0.5369609371
435297390.0 -0.8318358086 0.5428119518
440297360.0 -0.8286041047 0.5482543562
445297330.0 -0.8246018778 0.553368249
450297300.0 -0.8209445984 0.5592015353
455297270.0 -0.8173710095 0.5636491996
460297240.0 -0.8133913113 0.5695071887
465297210.0 -0.8099142404 0.5750341416
470297180.0 -0.8056070467 0.5796230351
475297150.0 -0.8018806753 0.5854162119
480297120.0 -0.7980005811 0.5906697014
485297090.0 -0.7945203386 0.5961567433
490297060.0 -0.7906537097 0.6010562982
495297030.0 -0.7859634151 0.6056685604
500297000.0 -0.7823485398 0.6116212019
505296970.0 -0.7784884923 0.6164914705
510296940.0 -0.7749665734 0.6216388101
515296910.0 -0.77045302 0.6268504359
520296880.0 -0.766727627 0.6315691445
525296850.0 -0.7626955055 0.637140614
530296820.0 -0.7580823509 0.6419586197
535296790.0 -0.7539510438 0.6471279885
540296760.0 -0.7499032571 0.6516996085
545296730.0 -0.7456187666 0.6568446862
550296700.0 -0.7409493478 0.6617508589
555296670.0 -0.7357258358 0.6659006705
560296640.0 -0.7317574704 0.6705380055
565296610.0 -0.726796253 0.6755239076
570296580.0 -0.7224158348 0.6804968374
575296550.0 -0.7178932573 0.6854090267
580296520.0 -0.7132330291 0.6899418351
585296490.0 -0.708962342 0.6944984651
590296460.0 -0.7042867761 0.6993325997
595296430.0 -0.6995612333 0.7032071365
600296400.0 -0.6947716394 0.7079652941
605296370.0 -0.6901907601 0.7126136166
610296340.0 -0.685761592 0.7167308876
615296310.0 -0.6807210068 0.7211871128
620296280.0 -0.6760096135 0.7259038308
625296250.0 -0.671190701 0.7298516569
630296220.0 -0.6669759861 0.7346836802
635296190.0 -0.6619706197 0.7388576363
640296160.0 -0.6569034231 0.7425618562
645296130.0 -0.652506305 0.7471983961
650296100.0 -0.6471003697 0.7512362663
655296070.0 -0.6418541582 0.7554720976
660296040.0 -0.6367525358 0.7594682137
665296010.0 -0.6322977704 0.7640686608
670295980.0 -0.6270040508 0.7678390976
675295950.0 -0.621797753 0.7718052498
680295920.0 -0.6168638596 0.7764932911
685295890.0 -0.6117687303 0.780174851
690295860.0 -0.6060379032 0.784138646
695295830.0 -0.6012610191 0.7881906284
700295800.0 -0.5963000311 0.7916805096
705295770.0 -0.5912736837 0.7960140851
710295740.0 -0.585890034 0.799940296
715295710.0 -0.580318585 0.8038480542
720295680.0 -0.5753398551 0.8075676301
725295650.0 -0.5695325612 0.8109330257
730295620.0 -0.5644582558 0.8144501538
735295590.0 -0.5592590671 0.8182103134
740295560.0 -0.5546073495 0.8217912357
745295530.0 -0.5485326256 0.8255936863
750295500.0 -0.5431003826 0.8290982989
755295470.0 -0.5376019411 0.8326124619
760295440.0 -0.5318190084 0.8360795482
765295410.0 -0.5265034823 0.8396834857
770295380.0 -0.5213395124 0.8430033513
775295350.0 -0.5154062386 0.8464080277
780295320.0 -0.5096349362 0.8495199839
785295290.0 -0.5041937971 0.852938155
790295260.0 -0.4987859923 0.856061899
795295230.0 -0.4932095173 0.8593146752
800295200.0 -0.487727094 0.8622361897
805295170.0 -0.4817079821 0.8656398876
810295140.0 -0.4767029773 0.8688215428
815295110.0 -0.4699553628 0.872008332
820295080.0 -0.464321717 0.8747205462
825295050.0 -0.4590894639 0.8776992833
830295020.0 -0.4529086022 0.8807947842
835294990.0 -0.447270834 0.8835684397
840294960.0 -0.4412197435 0.886890467
845294930.0 -0.4359141802 0.8894354623
850294900.0 -0.4300440388 0.8921204796
855294870.0 -0.4238684795 0.8952946339
860294840.0 -0.4181228211 0.8979197373
865294810.0 -0.4123665207 0.9006546741
870294780.0 -0.4062632642 0.9033163002
875294750.0 -0.4000748034 0.905386264
880294720.0 -0.3946157324 0.9077439558
885294690.0 -0.3886439324 0.9103066806
890294660.0 -0.382850021 0.9130614975
895294630.0 -0.3765626425 0.9153550115
900294600.0 -0.3705743942 0.9180995743
905294570.0 -0.3648333454 0.9198972604
910294540.0 -0.3584937787 0.9219849697
915294510.0 -0.3525139761 0.924645343
920294480.0 -0.346299414 0.9267858215
925294450.0 -0.3403342942 0.9289625934
930294420.0 -0.334206267 0.9311076512
935294390.0 -0.328178276 0.9326420328
940294360.0 -0.3222006288 0.9356042816
945294330.0 -0.3164102459 0.9370135656
950294300.0 -0.310207328 0.9388842746
955294270.0 -0.3036075476 0.9412866964
960294240.0 -0.2975314681 0.9430283126
965294210.0 -0.2912608328 0.9454489514
970294180.0 -0.2848690258 0.9472067299
975294150.0 -0.2789322704 0.9491036431
980294120.0 -0.272956221 0.9507305029
985294090.0 -0.2668384842 0.9523170841
990294060.0 -0.2605668875 0.9538209729
995294030.0 -0.2540719801 0.9554217494
1000294000.0 -0.2478659072 0.9571984808
1005293970.0 -0.2415004642 0.959103348
1010293940.0 -0.2357868999 0.9601125317
1015293910.0 -0.2290695831 0.9618680722
1020293880.0 -0.2230208149 0.9632051345
1025293850.0 -0.2171159392 0.9647058815
1030293820.0 -0.2109944492 0.965981236
1035293790.0 -0.204528193 0.9672283262
1040293760.0 -0.1978745942 0.9687662686
1045293730.0 -0.1912998196 0.9696863725
1050293700.0 -0.1848972641 0.9707410771
1055293670.0 -0.178248248 0.9724568823
1060293640.0 -0.1726363938 0.9733759339
1065293610.0 -0.166217583 0.9742941824
1070293580.0 -0.1597962588 0.9752338271
1075293550.0 -0.1534409432 0.9762166487
1080293520.0 -0.1474270474 0.9772228486
1085293490.0 -0.1404354212 0.9781348793
1090293460.0 -0.1341323546 0.9793973952
1095293430.0 -0.12688854 0.9799005771
1100293400.0 -0.1211510307 0.9806888357
1105293370.0 -0.1150322417 0.9819023025
1110293340.0 -0.1079397663 0.982293698
1115293310.0 -0.1016684818 0.9823750284
1120293280.0 -0.095825479 0.9833365394
1125293250.0 -0.0896741532 0.9837545387
1130293220.0 -0.0831990014 0.9844752734
1135293190.0 -0.0765454177 0.984993564
1140293160.0 -0.0707603176 0.9857684081
1145293130.0 -0.0638120923 0.9867418882
1150293100.0 -0.0572783971 0.9869532372
1155293070.0 -0.0507065219 0.9873058132
1160293040.0 -0.0443447927 0.9870836022
1165293010.0 -0.0379425685 0.9872262859
1170292980.0 -0.0314758772 0.9874536254
1175292950.0 -0.0250048229 0.9872435164
1180292920.0 -0.018848626 0.9877131679
1185292890.0 -0.0123579826 0.988170448
1190292860.0 -0.0063944061 0.9879758983
1195292830.0 0.000110116 0.987575451
1200292800.0 0.0071830537 0.9880067726
1205292770.0 0.0128615897 0.9880513724
1210292740.0 0.0192015797 0.9874873444
1215292710.0 0.0260735896 0.9873219506
1220292680.0 0.0325291074 0.9867674396
1225292650.0 0.0387073361 0.9869634205
1230292620.0 0.0453516149 0.9863083266
1235292590.0 0.0515905708 0.9860876715
1240292560.0 0.0582947636 0.9856698435
1245292530.0 0.0643234868 0.9857735239
1250292500.0 0.0712282254 0.9851587673
1255292470.0 0.077533117 0.9845271203
1260292440.0 0.0846412637 0.983926853
1265292410.0 0.0899769513 0.9834156276
1270292380.0 0.0966522775 0.9823887401
1275292350.0 0.1028219542 0.9823743195
1280292320.0 0.1101207622 0.9811330488
1285292290.0 0.1164199285 0.9810252174
1290292260.0 0.1226600316 0.9798860081
1295292230.0 0.1284247787 0.979148171
1300292200.0 0.1350739991 0.9782355839
1305292170.0 0.1414034568 0.9773027767
1310292140.0 0.1477146138 0.9766719413
1315292110.0 0.1539761458 0.9753645419
1320292080.0 0.1599437104 0.9745386221
1325292050.0 0.1668381418 0.9737347346
1330292020.0 0.1733462369 0.9727233488
1335291990.0 0.1799952943 0.970814004
1340291960.0 0.1861060676 0.9697603041
1345291930.0 0.1927069477 0.9687074331
1350291900.0 0.1991369473 0.9668300198
1355291870.0 0.2050610154 0.9664053962
1360291840.0 0.2113383826 0.964481647
1365291810.0 0.2177016247 0.963005543
1370291780.0 0.2231471755 0.9620488603
1375291750.0 0.2294531094 0.9607117319
1380291720.0 0.235965771 0.9589916149
1385291690.0 0.2420111294 0.9575116837
1390291660.0 0.2483902 0.955296891
1395291630.0 0.2547907674 0.9537424322
1400291600.0 0.26107262 0.9525865553
1405291570.0 0.2675314708 0.9496674772
1410291540.0 0.2733960775 0.948940914
1415291510.0 0.2797079688 0.9468294137
1420291480.0 0.2853176456 0.945656401
1425291450.0 0.2916598149 0.9433935125
1430291420.0 0.2973687891 0.941575126
1435291390.0 0.3040279905 0.9400654036
1440291360.0 0.3094885895 0.9374160069
1445291330.0 0.3160632501 0.9356480259
1450291300.0 0.3216030141 0.9335669766
1455291270.0 0.3275297186 0.9314639056
1460291240.0 0.3333782379 0.9288135657
1465291210.0 0.3398610484 0.9270725914
1470291180.0 0.3454936282 0.9243587994
1475291150.0 0.3514660149 0.9227887467
1480291120.0 0.3582018682 0.9200145143
1485291090.0 0.3637330852 0.9179815856
1490291060.0 0.3696474029 0.9158883537
1495291030.0 0.3752340501 0.9132230284
1500291000.0 0.3818973018 0.9102547258
1505290970.0 0.3876459594 0.9084097799
1510290940.0 0.3930666869 0.9058624117
1515290910.0 0.3988721683 0.9033947736
1520290880.0 0.404903399 0.8999146082
1525290850.0 0.4109947907 0.8981052712
1530290820.0 0.4169415927 0.8945175994
1535290790.0 0.4219887593 0.8926188655
1540290760.0 0.428617202 0.8893433759
1545290730.0 0.4340649156 0.8859328098
1550290700.0 0.440201278 0.8837645394
1555290670.0 0.4458459476 0.8812908514
1560290640.0 0.4515630437 0.8781510635
1565290610.0 0.4570905243 0.8756407409
1570290580.0 0.4624782372 0.8720078332
1575290550.0 0.4680696161 0.8690387451
1580290520.0 0.474326987 0.8658201065
1585290490.0 0.4796063196 0.8631449023
1590290460.0 0.4854217674 0.8600072948
1595290430.0 0.4912155674 0.8569657444
1600290400.0 0.4961044109 0.8541067453
1605290370.0 0.5021545752 0.8503537166
1610290340.0 0.5071340554 0.8477906901
1615290310.0 0.5128009443 0.8436449114
1620290280.0 0.5185409168 0.8410703032
1625290250.0 0.524108179 0.8371885527
1630290220.0 0.5290559662 0.833295897
1635290190.0 0.5344713237 0.8304823674
1640290160.0 0.5391322494 0.8264088742
1645290130.0 0.5448994914 0.8233204797
1650290100.0 0.5502427332 0.8194866024
1655290070.0 0.5556574896 0.8167279851
1660290040.0 0.5610864206 0.8125183863
1665290010.0 0.5663688342 0.8087102142
1670289980.0 0.571177584 0.8051872479
1675289950.0 0.5763131372 0.8013023885
1680289920.0 0.5819899753 0.7974822356
1685289890.0 0.587309678 0.7933844106
1690289860.0 0.5926121433 0.7900281956
1695289830.0 0.5979868557 0.7858816903
1700289800.0 0.6030909906 0.7816978675
1705289770.0 0.6079800949 0.7781566088
1710289740.0 0.6128864638 0.7737626433
1715289710.0 0.6180446727 0.7703480958
1720289680.0 0.6228972093 0.7660269128
1725289650.0 0.6278948419 0.7621165627
1730289620.0 0.6323827502 0.7577956348
1735289590.0 0.637906026 0.7539440692
1740289560.0 0.6428443629 0.7498853376
1745289530.0 0.6474487828 0.7462167326
1750289500.0 0.6516718691 0.7417604115
1755289470.0 0.6563931477 0.7372420247
1760289440.0 0.6610649615 0.7336138157
1765289410.0 0.6661261279 0.7290308365
1770289380.0 0.670720276 0.7251767693
1775289350.0 0.675468823 0.7211857395
1780289320.0 0.6804253502 0.7162703688
1785289290.0 0.6847991244 0.7119014813
1790289260.0 0.6900429954 0.707058401
1795289230.0 0.6948686999 0.702750598
1800289200.0 0.6987787998 0.6976658075
1805289170.0 0.7034339971 0.6937455264
1810289140.0 0.7078101651 0.6892129639
1815289110.0 0.7116894782 0.6847348535
1820289080.0 0.7160369795 0.6803298678
1825289050.0 0.7206311245 0.6755328329
1830289020.0 0.7245847747 0.6710716782
1835288990.0 0.7287772984 0.6667265154
1840288960.0 0.7328111981 0.6615599574
1845288930.0 0.7374753195 0.657458077
1850288900.0 0.7417826285 0.652051572
1855288870.0 0.745976841 0.6475206126
1860288840.0 0.7503966445 0.6420120735
1865288810.0 0.7548166245 0.637306537
1870288780.0 0.7587674119 0.6325748922
1875288750.0 0.7630122508 0.6276183355
1880288720.0 0.7672212493 0.6223808048
1885288690.0 0.7709024208 0.6168739871
1890288660.0 0.775385045 0.6123121836
1895288630.0 0.7788499741 0.6074930705
1900288600.0 0.7830005193 0.6025230026
1905288570.0 0.7867459141 0.5973264682
1910288540.0 0.7906045349 0.5922297728
1915288510.0 0.7950049785 0.5870206313
1920288480.0 0.7983262634 0.5818102202
1925288450.0 0.8019916035 0.5764192736
1930288420.0 0.805876328 0.5711691411
1935288390.0 0.809507239 0.5662701317
1940288360.0 0.8132073616 0.5601816897
1945288330.0 0.817294605 0.5554794708
1950288300.0 0.8208420647 0.5501935698
1955288270.0 0.824451143 0.5446550854
1960288240.0 0.8276077332 0.5392302873
1965288210.0 0.8317083609 0.5332894926
1970288180.0 0.8351618101 0.5283425023
1975288150.0 0.8383693365 0.5235601628
1980288120.0 0.8412366011 0.518334275
1985288090.0 0.8446781579 0.5125227042
1990288060.0 0.8479648737 0.5071966802
1995288030.0 0.851367937 0.5023773366
2000288000.0 0.8542637398 0.4966228037
2005287970.0 0.8573421783 0.4916905458
2010287940.0 0.8606053147 0.4858597335
2015287910.0 0.8636980608 0.4804191793
2020287880.0 0.866943196 0.4743719758
2025287850.0 0.8704166867 0.4693421595
2030287820.0 0.8727950808 0.4635872886
2035287790.0 0.8760296575 0.4582775612
2040287760.0 0.8789680266 0.4519463816
2045287730.0 0.8817067297 0.4462447943
2050287700.0 0.8846067856 0.4406641486
2055287670.0 0.8870391625 0.4348381048
2060287640.0 0.890432073 0.429701822
2065287610.0 0.8926508112 0.4232396251
2070287580.0 0.8958255512 0.4176245257
2075287550.0 0.8981650497 0.4115557937
2080287520.0 0.9007798438 0.406247961
2085287490.0 0.9036506131 0.4009980951
2090287460.0 0.9062070367 0.3947189778
2095287430.0 0.9085089263 0.3889303991
2100287400.0 0.9111792137 0.3827904912
2105287370.0 0.9133908094 0.376927141
2110287340.0 0.916232474 0.3707468854
2115287310.0 0.9187516263 0.3650387754
2120287280.0 0.9209149404 0.3595061886
2125287250.0 0.9232718373 0.3533399448
2130287220.0 0.9254920192 0.3467797454
2135287190.0 0.9275783156 0.3406313646
2140287160.0 0.9300265032 0.3347579322
2145287130.0 0.9320425482 0.3291431189
2150287100.0 0.934074918 0.3230740536
2155287070.0 0.9363507785 0.3171682814
2160287040.0 0.9381246944 0.3116772292
2165287010.0 0.9398189866 0.3054538016
2170286980.0 0.9423348659 0.2992788547
2175286950.0 0.9442030819 0.2934453601
2180286920.0 0.945631099 0.2876792922
2185286890.0 0.9472000136 0.2819270746
2190286860.0 0.9492447304 0.2761859804
2195286830.0 0.9511770916 0.2698795721
2200286800.0 0.9528885148 0.2640975195
2205286770.0 0.9546514483 0.2578805981
2210286740.0 0.9560284328 0.2519017945
2215286710.0 0.9578718582 0.2455166808
2220286680.0 0.9591020994 0.2391872751
2225286650.0 0.9610610763 0.2329093189
2230286620.0 0.9621912852 0.2268182721
2235286590.0 0.9636419026 0.2204797185
2240286560.0 0.9653067703 0.2139688802
2245286530.0 0.9670188433 0.2077697167
2250286500.0 0.96739441 0.2016349848
2255286470.0 0.9689797484 0.1950900213
2260286440.0 0.9697453961 0.1885918865
2265286410.0 0.9719794218 0.182557254
2270286380.0 0.9724364547 0.1761907699
2275286350.0 0.9735398138 0.1696768079
2280286320.0 0.9750702934 0.1636996745
2285286290.0 0.9760728629 0.1573605304
2290286260.0 0.9774083396 0.1511793089
2295286230.0 0.9782674091 0.144220117
2300286200.0 0.9786888612 0.1385469442
2305286170.0 0.979670422 0.1321812919
2310286140.0 0.9799981843 0.1260890173
2315286110.0 0.9812794092 0.1195586476
2320286080.0 0.9819649762 0.113048962
2325286050.0 0.9823165908 0.1066923541
2330286020.0 0.9830179974 0.1005206453
2335285990.0 0.9841768708 0.0941028336
2340285960.0 0.9847129635 0.0874815087
2345285930.0 0.9853375927 0.0815497468
2350285900.0 0.9857740207 0.0755270057
2355285870.0 0.9862488258 0.068433764
2360285840.0 0.9862080832 0.0621986003
2365285810.0 0.9870404665 0.0560470783
2370285780.0 0.9873097021 0.0498571371
2375285750.0 0.9873025635 0.0437607239
2380285720.0 0.9882758826 0.0371813922
2385285690.0 0.9878403696 0.0310132882
2390285660.0 0.9881003461 0.0246249558
2395285630.0 0.9884925487 0.0188680255
2400285600.0 0.9883888483 0.0118362115
2405285570.0 0.9882368134 0.005921361
2410285540.0 0.9885195501 -0.0003421143
2415285510.0 0.9884910281 -0.0066258171
2420285480.0 0.9883094054 -0.0131620602
2425285450.0 0.988383638 -0.0194873278
2430285420.0 0.9878512741 -0.0260518516
2435285390.0 0.9880874884 -0.0320176399
2440285360.0 0.9877530838 -0.0382724686
2445285330.0 0.9870680934 -0.0442041239
2450285300.0 0.9873901322 -0.0513761534
2455285270.0 0.9868544896 -0.0577791536
2460285240.0 0.9861832818 -0.0640608607
2465285210.0 0.9856677982 -0.0703822922
2470285180.0 0.9857779883 -0.0770047425
2475285150.0 0.9849480705 -0.0832149178
2480285120.0 0.9840551597 -0.0895731772
2485285090.0 0.9834840119 -0.0959204569
2490285060.0 0.9832345662 -0.1023185719
2495285030.0 0.9822834899 -0.1080164945
2500285000.0 0.9815502487 -0.1156528372
2505284970.0 0.9810493263 -0.121492813
2510284940.0 0.9800505811 -0.1280399392
2515284910.0 0.9792041623 -0.1342346674
2520284880.0 0.978134579 -0.1405561811
2525284850.0 0.9769186573 -0.1466436192
2530284820.0 0.9763995142 -0.1529321966
2535284790.0 0.9755506456 -0.1591937311
2540284760.0 0.9739199197 -0.1652698586
2545284730.0 0.9728782611 -0.1711529926
2550284700.0 0.9717346677 -0.1776803368
2555284670.0 0.9706517237 -0.1842996304
