!Created with skrf (http://scikit-rf.org).
# Hz S RI R 50.0 
!freq ReS11 ImS11
45000000.0 -0.08146286010742188 -0.0935821533203125
49995500.0 -0.10199356079101562 -0.08963394165039062
54991000.0 -0.12266921997070312 -0.08165740966796875
59986500.0 -0.140869140625 -0.07990264892578125
64982000.0 -0.16002655029296875 -0.0707244873046875
69977500.0 -0.1787261962890625 -0.056121826171875
74973000.0 -0.19640350341796875 -0.03865814208984375
79968500.0 -0.21192169189453125 -0.01793670654296875
84964000.0 -0.22557830810546875 0.00603485107421875
89959500.0 -0.23676300048828125 0.0328369140625
94955000.0 -0.24395751953125 0.0624847412109375
99950500.0 -0.2472686767578125 0.09445953369140625
104946000.0 -0.246307373046875 0.1282196044921875
109941500.0 -0.240234375 0.16303253173828125
114937000.0 -0.22927093505859375 0.1983489990234375
119932500.0 -0.2126617431640625 0.2333526611328125
124928000.0 -0.191650390625 0.2671966552734375
129923500.0 -0.164642333984375 0.298858642578125
134919000.0 -0.132720947265625 0.3276214599609375
139914500.0 -0.0960235595703125 0.353271484375
144910000.0 -0.05523681640625 0.374298095703125
149905500.0 -0.0103302001953125 0.39044189453125
154901000.0 0.0370025634765625 0.40106201171875
159896500.0 0.08648681640625 0.4051361083984375
164892000.0 0.137115478515625 0.403289794921875
169887500.0 0.1882171630859375 0.3948974609375
174883000.0 0.2392425537109375 0.379852294921875
179878500.0 0.2888031005859375 0.3583984375
184874000.0 0.33642578125 0.330413818359375
189869500.0 0.38140869140625 0.2963409423828125
194865000.0 0.4232025146484375 0.2566375732421875
199860500.0 0.460357666015625 0.2114105224609375
204856000.0 0.492279052734375 0.1607208251953125
209851500.0 0.518951416015625 0.105926513671875
214847000.0 0.539794921875 0.04693603515625
219842500.0 0.553985595703125 -0.015594482421875
224838000.0 0.56048583984375 -0.08056640625
229833500.0 0.55975341796875 -0.147674560546875
234829000.0 0.550872802734375 -0.2154541015625
239824500.0 0.533660888671875 -0.283538818359375
244820000.0 0.50762939453125 -0.350341796875
249815500.0 0.472900390625 -0.4147186279296875
254811000.0 0.4535369873046875 -0.4626312255859375
259806500.0 0.405914306640625 -0.521697998046875
264802000.0 0.34991455078125 -0.5755615234375
269797500.0 0.2864990234375 -0.6231689453125
274793000.0 0.2169189453125 -0.66326904296875
279788500.0 0.141632080078125 -0.6947021484375
284784000.0 0.061767578125 -0.71746826171875
289779500.0 -0.02093505859375 -0.730255126953125
294775000.0 -0.105682373046875 -0.73321533203125
299770500.0 -0.191192626953125 -0.726165771484375
304766000.0 -0.27569580078125 -0.708984375
309761500.0 -0.35821533203125 -0.681732177734375
314757000.0 -0.43780517578125 -0.64447021484375
319752500.0 -0.512786865234375 -0.59808349609375
324748000.0 -0.583221435546875 -0.543487548828125
329743500.0 -0.648162841796875 -0.480865478515625
334739000.0 -0.706573486328125 -0.410614013671875
339734500.0 -0.757232666015625 -0.333526611328125
344730000.0 -0.799774169921875 -0.250396728515625
349725500.0 -0.833770751953125 -0.16180419921875
354721000.0 -0.858154296875 -0.068695068359375
359716500.0 -0.872344970703125 0.02801513671875
364712000.0 -0.87567138671875 0.12762451171875
369707500.0 -0.8677978515625 0.229278564453125
374703000.0 -0.8480224609375 0.33135986328125
379698500.0 -0.815643310546875 0.432891845703125
384694000.0 -0.7706298828125 0.5313720703125
389689500.0 -0.712860107421875 0.625579833984375
394685000.0 -0.64263916015625 0.713775634765625
399680500.0 -0.561004638671875 0.793701171875
404676000.0 -0.469024658203125 0.863861083984375
409671500.0 -0.36737060546875 0.924652099609375
414667000.0 -0.258697509765625 0.968841552734375
419662500.0 -0.1441650390625 1.00115966796875
424658000.0 -0.02545166015625 1.01837158203125
429653500.0 0.096435546875 1.02056884765625
434649000.0 0.2169189453125 1.00592041015625
439644500.0 0.332916259765625 0.97711181640625
444640000.0 0.443511962890625 0.93603515625
449635500.0 0.54852294921875 0.8834228515625
454631000.0 0.647705078125 0.82061767578125
459626500.0 0.739837646484375 0.746124267578125
464622000.0 0.82232666015625 0.661773681640625
469617500.0 0.895050048828125 0.569488525390625
474613000.0 0.95745849609375 0.469879150390625
479608500.0 1.009765625 0.36474609375
484604000.0 1.05133056640625 0.25408935546875
489599500.0 1.0819091796875 0.13885498046875
494595000.0 1.1004638671875 0.0198974609375
499590500.0 1.10748291015625 -0.1015625
504586000.0 1.10186767578125 -0.2249755859375
509581500.0 1.0830078125 -0.349853515625
514577000.0 1.050048828125 -0.47412109375
519572500.0 1.0018310546875 -0.59716796875
524568000.0 0.939208984375 -0.716644287109375
529563500.0 0.86041259765625 -0.830474853515625
534559000.0 0.766326904296875 -0.9361572265625
539554500.0 0.65740966796875 -1.03021240234375
544550000.0 0.535888671875 -1.1104736328125
549545500.0 0.4044189453125 -1.17547607421875
554541000.0 0.26312255859375 -1.2236328125
559536500.0 0.11834716796875 -1.25384521484375
564532000.0 -0.030517578125 -1.26531982421875
569527500.0 -0.17999267578125 -1.25823974609375
574523000.0 -0.32745361328125 -1.23291015625
579518500.0 -0.47027587890625 -1.18939208984375
584514000.0 -0.60601806640625 -1.12884521484375
589509500.0 -0.7327880859375 -1.05267333984375
594505000.0 -0.849090576171875 -0.962799072265625
599500500.0 -0.95257568359375 -0.86090087890625
604496000.0 -1.0433349609375 -0.74932861328125
609491500.0 -1.1207275390625 -0.62945556640625
614487000.0 -1.18511962890625 -0.5032958984375
619482500.0 -1.23516845703125 -0.37237548828125
624478000.0 -1.27203369140625 -0.2376708984375
629473500.0 -1.29541015625 -0.1002197265625
634469000.0 -1.30499267578125 0.0390625
639464500.0 -1.3016357421875 0.179443359375
644460000.0 -1.28448486328125 0.31988525390625
649455500.0 -1.253173828125 0.46014404296875
654451000.0 -1.207763671875 0.59869384765625
659446500.0 -1.14801025390625 0.73480224609375
664442000.0 -1.07244873046875 0.866943359375
669437500.0 -0.980865478515625 0.993804931640625
674433000.0 -0.87298583984375 1.112548828125
679428500.0 -0.749267578125 1.220947265625
684424000.0 -0.60980224609375 1.31591796875
689419500.0 -0.45562744140625 1.39501953125
694415000.0 -0.2889404296875 1.454833984375
699410500.0 -0.1126708984375 1.49285888671875
704406000.0 0.06964111328125 1.5078125
709401500.0 0.25445556640625 1.4969482421875
714397000.0 0.43731689453125 1.46124267578125
719392500.0 0.61383056640625 1.4005126953125
724388000.0 0.7799072265625 1.3172607421875
729383500.0 0.93218994140625 1.2127685546875
734379000.0 1.0675048828125 1.08978271484375
739374500.0 1.18499755859375 0.952880859375
744370000.0 1.2828369140625 0.8052978515625
749365500.0 1.359375 0.648193359375
754361000.0 1.418212890625 0.488525390625
759356500.0 1.45709228515625 0.32525634765625
764352000.0 1.4779052734375 0.16217041015625
769347500.0 1.48175048828125 0.0
774343000.0 1.4696044921875 -0.15936279296875
779338500.0 1.4425048828125 -0.315185546875
784334000.0 1.39910888671875 -0.46722412109375
789329500.0 1.34423828125 -0.61322021484375
794325000.0 1.27532958984375 -0.7537841796875
799320500.0 1.19317626953125 -0.88800048828125
804316000.0 1.09765625 -1.01495361328125
809311500.0 0.98876953125 -1.1339111328125
814307000.0 0.86810302734375 -1.24273681640625
819302500.0 0.733642578125 -1.34033203125
824298000.0 0.586669921875 -1.4249267578125
829293500.0 0.42974853515625 -1.4947509765625
834289000.0 0.260498046875 -1.546630859375
839284500.0 0.084716796875 -1.5791015625
844280000.0 -0.03167724609375 -1.61676025390625
849275500.0 -0.21929931640625 -1.61474609375
854271000.0 -0.408935546875 -1.58831787109375
859266500.0 -0.59478759765625 -1.53753662109375
864262000.0 -0.774169921875 -1.46209716796875
869257500.0 -0.9425048828125 -1.3642578125
874253000.0 -1.0966796875 -1.24591064453125
879248500.0 -1.2337646484375 -1.10943603515625
884244000.0 -1.35260009765625 -0.95819091796875
889239500.0 -1.45111083984375 -0.7952880859375
894235000.0 -1.52850341796875 -0.6240234375
899230500.0 -1.58538818359375 -0.44732666015625
904226000.0 -1.6214599609375 -0.26580810546875
909221500.0 -1.6375732421875 -0.08343505859375
914217000.0 -1.6329345703125 0.0980224609375
919212500.0 -1.60791015625 0.27581787109375
924208000.0 -1.56549072265625 0.4473876953125
929203500.0 -1.5059814453125 0.6123046875
934199000.0 -1.4317626953125 0.7685546875
939194500.0 -1.34356689453125 0.9168701171875
944190000.0 -1.2413330078125 1.05535888671875
949185500.0 -1.1268310546875 1.18511962890625
954181000.0 -0.99993896484375 1.3037109375
959176500.0 -0.8599853515625 1.41156005859375
964172000.0 -0.7086181640625 1.505126953125
969167500.0 -0.5443115234375 1.58544921875
974163000.0 -0.37005615234375 1.6483154296875
979158500.0 -0.1866455078125 1.69378662109375
984154000.0 0.005859375 1.71795654296875
989149500.0 0.2027587890625 1.72015380859375
994145000.0 0.40252685546875 1.69708251953125
999140500.0 0.60137939453125 1.6495361328125
1004136000.0 0.79510498046875 1.5760498046875
1009131500.0 0.9803466796875 1.47796630859375
1014127000.0 1.15185546875 1.3555908203125
1019122500.0 1.30670166015625 1.21136474609375
1024118000.0 1.44134521484375 1.0477294921875
1029113500.0 1.55316162109375 0.86920166015625
1034109000.0 1.6397705078125 0.67987060546875
1039104500.0 1.70281982421875 0.48175048828125
1044100000.0 1.7398681640625 0.28082275390625
1049095500.0 1.7520751953125 0.07977294921875
1054091000.0 1.74169921875 -0.11810302734375
1059086500.0 1.70904541015625 -0.3109130859375
1064082000.0 1.65692138671875 -0.49578857421875
1069077500.0 1.5863037109375 -0.6722412109375
1074073000.0 1.4993896484375 -0.8375244140625
1079068500.0 1.396484375 -0.9913330078125
1084064000.0 1.2799072265625 -1.134765625
1089059500.0 1.15045166015625 -1.26458740234375
1094055000.0 1.00885009765625 -1.38128662109375
1099050500.0 0.85626220703125 -1.48492431640625
1104046000.0 0.69390869140625 -1.57269287109375
1109041500.0 0.52154541015625 -1.644287109375
1114037000.0 0.34112548828125 -1.69793701171875
1119032500.0 0.15277099609375 -1.73333740234375
1124028000.0 -0.04058837890625 -1.74847412109375
1129023500.0 -0.237060546875 -1.74188232421875
1134019000.0 -0.43450927734375 -1.71343994140625
1139014500.0 -0.630126953125 -1.66046142578125
1144010000.0 -0.82086181640625 -1.58477783203125
1149005500.0 -1.00299072265625 -1.48443603515625
1154001000.0 -1.1722412109375 -1.36102294921875
1158996500.0 -1.3262939453125 -1.21661376953125
1163992000.0 -1.46160888671875 -1.05316162109375
1168987500.0 -1.5750732421875 -0.873291015625
1173983000.0 -1.6646728515625 -0.6805419921875
1178978500.0 -1.72808837890625 -0.47882080078125
1183974000.0 -1.76611328125 -0.2723388671875
1188969500.0 -1.7779541015625 -0.06475830078125
1193965000.0 -1.7642822265625 0.14031982421875
1198960500.0 -1.726318359375 0.33966064453125
1203956000.0 -1.6661376953125 0.5303955078125
1208951500.0 -1.58538818359375 0.70989990234375
1213947000.0 -1.486328125 0.876708984375
1218942500.0 -1.37158203125 1.02899169921875
1223938000.0 -1.24261474609375 1.1658935546875
1228933500.0 -1.10205078125 1.28790283203125
1233929000.0 -0.95159912109375 1.39239501953125
1238924500.0 -0.79290771484375 1.47967529296875
1243920000.0 -0.62762451171875 1.55035400390625
1248915500.0 -0.4573974609375 1.60333251953125
1253911000.0 -0.283447265625 1.64019775390625
1258906500.0 -0.107421875 1.65869140625
1263902000.0 0.06976318359375 1.65966796875
1268897500.0 0.2481689453125 1.64483642578125
1273893000.0 0.42120361328125 1.6090087890625
1278888500.0 0.59124755859375 1.55670166015625
1283884000.0 0.7568359375 1.4864501953125
1288879500.0 0.9150390625 1.3988037109375
1293875000.0 1.06365966796875 1.29364013671875
1298870500.0 1.20166015625 1.17205810546875
1303866000.0 1.3258056640625 1.03564453125
1308861500.0 1.43487548828125 0.88525390625
1313857000.0 1.52728271484375 0.722412109375
1318852500.0 1.6011962890625 0.549560546875
1323848000.0 1.655029296875 0.3682861328125
1328843500.0 1.68853759765625 0.181884765625
1333839000.0 1.701171875 -0.0081787109375
1338834500.0 1.6917724609375 -0.19976806640625
1343830000.0 1.6605224609375 -0.3880615234375
1348825500.0 1.60791015625 -0.573486328125
1353821000.0 1.5345458984375 -0.75164794921875
1358816500.0 1.4407958984375 -0.920654296875
1363812000.0 1.328125 -1.078369140625
1368807500.0 1.197265625 -1.22216796875
1373803000.0 1.0509033203125 -1.34967041015625
1378798500.0 0.89019775390625 -1.45904541015625
1383794000.0 0.71826171875 -1.54925537109375
1388789500.0 0.53643798828125 -1.61871337890625
1393785000.0 0.3489990234375 -1.6654052734375
1398780500.0 0.15704345703125 -1.69024658203125
1403776000.0 -0.03448486328125 -1.691650390625
1408771500.0 -0.22381591796875 -1.67120361328125
1413767000.0 -0.4088134765625 -1.62933349609375
1418762500.0 -0.58538818359375 -1.56658935546875
1423758000.0 -0.7525634765625 -1.4852294921875
1428753500.0 -0.90753173828125 -1.38751220703125
1433749000.0 -1.0489501953125 -1.27374267578125
1438744500.0 -1.176513671875 -1.14678955078125
1443740000.0 -1.28851318359375 -1.008544921875
1448735500.0 -1.3851318359375 -0.86102294921875
1453731000.0 -1.46502685546875 -0.7054443359375
1458726500.0 -1.528564453125 -0.5438232421875
1463722000.0 -1.5753173828125 -0.3773193359375
1468717500.0 -1.60528564453125 -0.20751953125
1473713000.0 -1.61859130859375 -0.03515625
1478708500.0 -1.615234375 0.13800048828125
1483704000.0 -1.5936279296875 0.31085205078125
1488699500.0 -1.55535888671875 0.48193359375
1493695000.0 -1.49945068359375 0.649169921875
1498690500.0 -1.42449951171875 0.8118896484375
1503686000.0 -1.3323974609375 0.96734619140625
1508681500.0 -1.22137451171875 1.11444091796875
1513677000.0 -1.09320068359375 1.2501220703125
1518672500.0 -0.94866943359375 1.37115478515625
1523668000.0 -0.7884521484375 1.4755859375
1528663500.0 -0.61492919921875 1.56109619140625
1533659000.0 -0.43035888671875 1.6246337890625
1538654500.0 -0.2381591796875 1.66424560546875
1543650000.0 -0.04132080078125 1.67926025390625
1548645500.0 0.15545654296875 1.66973876953125
1553641000.0 0.34832763671875 1.6343994140625
1558636500.0 0.53363037109375 1.575439453125
1563632000.0 0.7081298828125 1.493896484375
1568627500.0 0.86883544921875 1.39337158203125
1573623000.0 1.013671875 1.275390625
1578618500.0 1.1409912109375 1.14349365234375
1583614000.0 1.250732421875 1.0010986328125
1588609500.0 1.3409423828125 0.85040283203125
1593605000.0 1.41326904296875 0.69366455078125
1598600500.0 1.467529296875 0.5333251953125
1603596000.0 1.5050048828125 0.37115478515625
1608591500.0 1.525390625 0.20904541015625
1613587000.0 1.52996826171875 0.04742431640625
1618582500.0 1.51959228515625 -0.1112060546875
1623578000.0 1.4949951171875 -0.2674560546875
1628573500.0 1.455322265625 -0.419921875
1633569000.0 1.4022216796875 -0.56787109375
1638564500.0 1.335205078125 -0.7109375
1643560000.0 1.25457763671875 -0.8466796875
1648555500.0 1.16009521484375 -0.9755859375
1653551000.0 1.0523681640625 -1.09576416015625
1658546500.0 0.931640625 -1.20556640625
1663542000.0 0.798583984375 -1.3028564453125
1668537500.0 0.65374755859375 -1.3865966796875
1673533000.0 0.498291015625 -1.45440673828125
1678528500.0 0.33392333984375 -1.5042724609375
1683524000.0 0.1634521484375 -1.53472900390625
1688519500.0 -0.01153564453125 -1.54473876953125
1693515000.0 -0.1859130859375 -1.53302001953125
1698510500.0 -0.35894775390625 -1.49896240234375
1703506000.0 -0.52587890625 -1.44378662109375
1708501500.0 -0.68243408203125 -1.369384765625
1713497000.0 -0.82745361328125 -1.27801513671875
1718492500.0 -0.95867919921875 -1.17083740234375
1723488000.0 -1.07452392578125 -1.05059814453125
1728483500.0 -1.174072265625 -0.92034912109375
1733479000.0 -1.25732421875 -0.782958984375
1738474500.0 -1.3238525390625 -0.64068603515625
1743470000.0 -1.37445068359375 -0.49462890625
1748465500.0 -1.41009521484375 -0.34710693359375
1753461000.0 -1.43121337890625 -0.19940185546875
1758456500.0 -1.438720703125 -0.05194091796875
1763452000.0 -1.43316650390625 0.0941162109375
1768447500.0 -1.4149169921875 0.23870849609375
1773443000.0 -1.38385009765625 0.38092041015625
1778438500.0 -1.34033203125 0.5201416015625
1783434000.0 -1.2847900390625 0.6566162109375
1788429500.0 -1.2154541015625 0.78851318359375
1793425000.0 -1.13311767578125 0.91571044921875
1798420500.0 -1.03680419921875 1.03631591796875
1803416000.0 -0.92657470703125 1.14849853515625
1808411500.0 -0.8026123046875 1.2510986328125
1813407000.0 -0.6649169921875 1.3409423828125
1818402500.0 -0.5146484375 1.41583251953125
1823398000.0 -0.35357666015625 1.47369384765625
1828393500.0 -0.1837158203125 1.51104736328125
1833389000.0 -0.00872802734375 1.52685546875
1838384500.0 0.16888427734375 1.520263671875
1843380000.0 0.3441162109375 1.49029541015625
1848375500.0 0.51409912109375 1.4376220703125
1853371000.0 0.6739501953125 1.36407470703125
1858366500.0 0.822265625 1.2716064453125
1863362000.0 0.95550537109375 1.1629638671875
1868357500.0 1.0721435546875 1.04095458984375
1873353000.0 1.17169189453125 0.9090576171875
1878348500.0 1.2532958984375 0.7698974609375
1883344000.0 1.3182373046875 0.62603759765625
1888339500.0 1.367431640625 0.479248046875
1893335000.0 1.40008544921875 0.3314208984375
1898330500.0 1.4188232421875 0.18414306640625
1903326000.0 1.4237060546875 0.03802490234375
1908321500.0 1.415771484375 -0.10638427734375
1913317000.0 1.39501953125 -0.24822998046875
1918312500.0 1.3623046875 -0.38763427734375
1923308000.0 1.31793212890625 -0.5235595703125
1928303500.0 1.261474609375 -0.6561279296875
1933299000.0 1.19244384765625 -0.7841796875
1938294500.0 1.1103515625 -0.90740966796875
1943290000.0 1.0162353515625 -1.023681640625
1948285500.0 0.908447265625 -1.1324462890625
1953281000.0 0.78765869140625 -1.23089599609375
1958276500.0 0.65435791015625 -1.31817626953125
1963272000.0 0.5091552734375 -1.390869140625
1968267500.0 0.35357666015625 -1.44775390625
1973263000.0 0.190185546875 -1.48681640625
1978258500.0 0.020751953125 -1.50457763671875
1983254000.0 -0.15087890625 -1.50189208984375
1988249500.0 -0.3223876953125 -1.47686767578125
1993245000.0 -0.48931884765625 -1.430908203125
1998240500.0 -0.6490478515625 -1.36407470703125
2003236000.0 -0.79779052734375 -1.27862548828125
2008231500.0 -0.93408203125 -1.17645263671875
2013227000.0 -1.05517578125 -1.05987548828125
2018222500.0 -1.16064453125 -0.93212890625
2023218000.0 -1.2491455078125 -0.794921875
2028213500.0 -1.32135009765625 -0.6514892578125
2033209000.0 -1.3765869140625 -0.50360107421875
2038204500.0 -1.41668701171875 -0.35211181640625
2043200000.0 -1.440185546875 -0.20013427734375
2048195500.0 -1.44921875 -0.0479736328125
2053191000.0 -1.44281005859375 0.10369873046875
2058186500.0 -1.4227294921875 0.253173828125
2063182000.0 -1.38934326171875 0.399658203125
2068177500.0 -1.34014892578125 0.542724609375
2073173000.0 -1.278076171875 0.680419921875
2078168500.0 -1.20233154296875 0.81280517578125
2083164000.0 -1.11309814453125 0.93804931640625
2088159500.0 -1.0098876953125 1.05474853515625
2093155000.0 -0.89385986328125 1.16107177734375
2098150500.0 -0.76568603515625 1.25469970703125
2103146000.0 -0.62628173828125 1.3350830078125
2108141500.0 -0.47747802734375 1.39990234375
2113137000.0 -0.32080078125 1.4473876953125
2118132500.0 -0.1588134765625 1.475830078125
2123128000.0 0.0059814453125 1.4853515625
2128123500.0 0.17108154296875 1.47515869140625
2133119000.0 0.3333740234375 1.4454345703125
2138114500.0 0.489990234375 1.39697265625
2143110000.0 0.63916015625 1.33148193359375
2148105500.0 0.778076171875 1.24951171875
2153101000.0 0.90582275390625 1.15380859375
2158096500.0 1.02056884765625 1.0460205078125
2163092000.0 1.12188720703125 0.9278564453125
2168087500.0 1.20947265625 0.80169677734375
2173083000.0 1.28302001953125 0.6690673828125
2178078500.0 1.34259033203125 0.5306396484375
2183074000.0 1.388427734375 0.38836669921875
2188069500.0 1.42034912109375 0.24359130859375
2193065000.0 1.43841552734375 0.096923828125
