!Created with skrf (http://scikit-rf.org).
# Hz S RI R 50.0 
!freq ReS11 ImS11
45000000.0 -0.08185577392578125 -0.09294509887695312
49995500.0 -0.10264968872070312 -0.08883285522460938
54991000.0 -0.12306976318359375 -0.08076858520507812
59986500.0 -0.14133453369140625 -0.07830047607421875
64982000.0 -0.16033172607421875 -0.0692901611328125
69977500.0 -0.178863525390625 -0.05481719970703125
74973000.0 -0.19623565673828125 -0.03702545166015625
79968500.0 -0.21164703369140625 -0.01617431640625
84964000.0 -0.225128173828125 0.0079345703125
89959500.0 -0.23572540283203125 0.03475189208984375
94955000.0 -0.2427520751953125 0.0644683837890625
99950500.0 -0.2456207275390625 0.0966949462890625
104946000.0 -0.2442779541015625 0.13018035888671875
109941500.0 -0.23783111572265625 0.16495513916015625
114937000.0 -0.22653961181640625 0.20018768310546875
119932500.0 -0.20954132080078125 0.2353515625
124928000.0 -0.1878509521484375 0.2686920166015625
129923500.0 -0.1605377197265625 0.2998504638671875
134919000.0 -0.1280059814453125 0.328643798828125
139914500.0 -0.0911407470703125 0.3538665771484375
144910000.0 -0.0498199462890625 0.374725341796875
149905500.0 -0.0049285888671875 0.390106201171875
154901000.0 0.04278564453125 0.3996429443359375
159896500.0 0.0923614501953125 0.4030609130859375
164892000.0 0.143218994140625 0.4005584716796875
169887500.0 0.1944427490234375 0.39117431640625
174883000.0 0.2450103759765625 0.3753662109375
179878500.0 0.2944183349609375 0.3529205322265625
184874000.0 0.3416748046875 0.323974609375
189869500.0 0.3860626220703125 0.288970947265625
194865000.0 0.4270172119140625 0.2484283447265625
199860500.0 0.4634857177734375 0.2025146484375
204856000.0 0.4944000244140625 0.15118408203125
209851500.0 0.52008056640625 0.095672607421875
214847000.0 0.539764404296875 0.036346435546875
219842500.0 0.5526123046875 -0.026641845703125
224838000.0 0.55780029296875 -0.09197998046875
229833500.0 0.555877685546875 -0.159271240234375
234829000.0 0.545379638671875 -0.226776123046875
239824500.0 0.526519775390625 -0.29443359375
244820000.0 0.4990386962890625 -0.360809326171875
249815500.0 0.462677001953125 -0.4246826171875
254811000.0 0.4419097900390625 -0.471588134765625
259806500.0 0.39288330078125 -0.52972412109375
264802000.0 0.33551025390625 -0.582275390625
269797500.0 0.27093505859375 -0.62841796875
274793000.0 0.20013427734375 -0.666900634765625
279788500.0 0.12396240234375 -0.696380615234375
284784000.0 0.043853759765625 -0.71697998046875
289779500.0 -0.039337158203125 -0.727935791015625
294775000.0 -0.1243896484375 -0.728790283203125
299770500.0 -0.20904541015625 -0.71929931640625
304766000.0 -0.2933349609375 -0.6995849609375
309761500.0 -0.375457763671875 -0.670074462890625
314757000.0 -0.453704833984375 -0.630950927734375
319752500.0 -0.52783203125 -0.582489013671875
324748000.0 -0.596923828125 -0.525543212890625
329743500.0 -0.659912109375 -0.46136474609375
334739000.0 -0.716278076171875 -0.3892822265625
339734500.0 -0.764862060546875 -0.310638427734375
344730000.0 -0.805145263671875 -0.226165771484375
349725500.0 -0.83624267578125 -0.13677978515625
354721000.0 -0.85821533203125 -0.042572021484375
359716500.0 -0.869384765625 0.054656982421875
364712000.0 -0.8697509765625 0.154541015625
369707500.0 -0.858673095703125 0.256103515625
374703000.0 -0.83551025390625 0.357513427734375
379698500.0 -0.799713134765625 0.458343505859375
384694000.0 -0.751312255859375 0.5555419921875
389689500.0 -0.69036865234375 0.64862060546875
394685000.0 -0.616973876953125 0.733856201171875
399680500.0 -0.532379150390625 0.811187744140625
404676000.0 -0.43743896484375 0.878448486328125
409671500.0 -0.333526611328125 0.93487548828125
414667000.0 -0.22308349609375 0.97589111328125
419662500.0 -0.10723876953125 1.00341796875
424658000.0 0.0123291015625 1.016357421875
429653500.0 0.13360595703125 1.01409912109375
434649000.0 0.253570556640625 0.9947509765625
439644500.0 0.36865234375 0.96173095703125
444640000.0 0.4779052734375 0.9163818359375
449635500.0 0.580596923828125 0.860198974609375
454631000.0 0.67724609375 0.7935791015625
459626500.0 0.76654052734375 0.715576171875
464622000.0 0.8458251953125 0.6280517578125
469617500.0 0.9150390625 0.53302001953125
474613000.0 0.973846435546875 0.430938720703125
479608500.0 1.02215576171875 0.3236083984375
484604000.0 1.0594482421875 0.21136474609375
489599500.0 1.0853271484375 0.09490966796875
494595000.0 1.099853515625 -0.02520751953125
499590500.0 1.10186767578125 -0.14752197265625
504586000.0 1.09112548828125 -0.27130126953125
509581500.0 1.06658935546875 -0.39569091796875
514577000.0 1.02813720703125 -0.5194091796875
519572500.0 0.974853515625 -0.640869140625
524568000.0 0.905670166015625 -0.758514404296875
529563500.0 0.8214111328125 -0.869110107421875
534559000.0 0.721588134765625 -0.970672607421875
539554500.0 0.60772705078125 -1.0596923828125
544550000.0 0.48211669921875 -1.1346435546875
549545500.0 0.3463134765625 -1.19287109375
554541000.0 0.20330810546875 -1.2332763671875
559536500.0 0.0562744140625 -1.256103515625
564532000.0 -0.09307861328125 -1.26007080078125
569527500.0 -0.24212646484375 -1.24517822265625
574523000.0 -0.3876953125 -1.21221923828125
579518500.0 -0.528076171875 -1.16156005859375
584514000.0 -0.6605224609375 -1.093994140625
589509500.0 -0.78314208984375 -1.01165771484375
594505000.0 -0.89404296875 -0.915802001953125
599500500.0 -0.9921875 -0.809417724609375
604496000.0 -1.07757568359375 -0.69317626953125
609491500.0 -1.14874267578125 -0.5697021484375
614487000.0 -1.20635986328125 -0.4407958984375
619482500.0 -1.250244140625 -0.30755615234375
624478000.0 -1.28033447265625 -0.17095947265625
629473500.0 -1.2967529296875 -0.03253173828125
634469000.0 -1.2999267578125 0.10723876953125
639464500.0 -1.2894287109375 0.24786376953125
644460000.0 -1.26519775390625 0.38775634765625
649455500.0 -1.22662353515625 0.52703857421875
654451000.0 -1.17364501953125 0.663818359375
659446500.0 -1.1063232421875 0.79730224609375
664442000.0 -1.023193359375 0.92669677734375
669437500.0 -0.92388916015625 1.04913330078125
674433000.0 -0.80889892578125 1.1624755859375
679428500.0 -0.67681884765625 1.26416015625
684424000.0 -0.53094482421875 1.351318359375
689419500.0 -0.37060546875 1.42120361328125
694415000.0 -0.19940185546875 1.470703125
699410500.0 -0.01983642578125 1.4974365234375
704406000.0 0.16400146484375 1.49957275390625
709401500.0 0.34844970703125 1.47662353515625
714397000.0 0.52899169921875 1.42803955078125
719392500.0 0.700927734375 1.3555908203125
724388000.0 0.86126708984375 1.2608642578125
729383500.0 1.005859375 1.1468505859375
734379000.0 1.13189697265625 1.01495361328125
739374500.0 1.239501953125 0.870849609375
744370000.0 1.326416015625 0.717529296875
749365500.0 1.39276123046875 0.55706787109375
754361000.0 1.44036865234375 0.39459228515625
759356500.0 1.4688720703125 0.2301025390625
764352000.0 1.4796142578125 0.066650390625
769347500.0 1.47314453125 -0.09454345703125
774343000.0 1.45135498046875 -0.25244140625
779338500.0 1.4140625 -0.40618896484375
784334000.0 1.3631591796875 -0.5545654296875
789329500.0 1.298828125 -0.69720458984375
794325000.0 1.22125244140625 -0.833740234375
799320500.0 1.1312255859375 -0.9632568359375
804316000.0 1.02734375 -1.0845947265625
809311500.0 0.91094970703125 -1.1966552734375
814307000.0 0.781494140625 -1.29815673828125
819302500.0 0.64031982421875 -1.38763427734375
824298000.0 0.48687744140625 -1.46319580078125
829293500.0 0.3238525390625 -1.52197265625
834289000.0 0.14984130859375 -1.56268310546875
839284500.0 -0.02984619140625 -1.5828857421875
844280000.0 -0.147705078125 -1.6103515625
849275500.0 -0.337158203125 -1.59393310546875
854271000.0 -0.52459716796875 -1.552490234375
859266500.0 -0.70703125 -1.4866943359375
864262000.0 -0.880615234375 -1.396728515625
869257500.0 -1.0401611328125 -1.2861328125
874253000.0 -1.18487548828125 -1.15533447265625
879248500.0 -1.31072998046875 -1.00823974609375
884244000.0 -1.416748046875 -0.84857177734375
889239500.0 -1.501220703125 -0.678955078125
894235000.0 -1.56488037109375 -0.50244140625
899230500.0 -1.6070556640625 -0.32275390625
904226000.0 -1.62969970703125 -0.13995361328125
909221500.0 -1.630859375 0.04180908203125
914217000.0 -1.61212158203125 0.22119140625
919212500.0 -1.57476806640625 0.3956298828125
924208000.0 -1.51983642578125 0.56341552734375
929203500.0 -1.44879150390625 0.7225341796875
934199000.0 -1.3636474609375 0.873046875
939194500.0 -1.2647705078125 1.01409912109375
944190000.0 -1.15301513671875 1.14544677734375
949185500.0 -1.02935791015625 1.2664794921875
954181000.0 -0.89239501953125 1.37554931640625
959176500.0 -0.7452392578125 1.47216796875
964172000.0 -0.58526611328125 1.5557861328125
969167500.0 -0.414794921875 1.6231689453125
974163000.0 -0.23480224609375 1.67327880859375
979158500.0 -0.04571533203125 1.70318603515625
984154000.0 0.1485595703125 1.71124267578125
989149500.0 0.34759521484375 1.695556640625
994145000.0 0.54541015625 1.656005859375
999140500.0 0.74102783203125 1.59051513671875
1004136000.0 0.9283447265625 1.499267578125
1009131500.0 1.104248046875 1.38397216796875
1014127000.0 1.2635498046875 1.245361328125
1019122500.0 1.4049072265625 1.0875244140625
1024118000.0 1.5233154296875 0.91192626953125
1029113500.0 1.6177978515625 0.72406005859375
1034109000.0 1.68695068359375 0.5279541015625
1039104500.0 1.73040771484375 0.32635498046875
1044100000.0 1.74896240234375 0.12408447265625
1049095500.0 1.7427978515625 -0.075927734375
1054091000.0 1.71490478515625 -0.27142333984375
1059086500.0 1.6661376953125 -0.45892333984375
1064082000.0 1.59814453125 -0.63763427734375
1069077500.0 1.5133056640625 -0.806884765625
1074073000.0 1.41180419921875 -0.963134765625
1079068500.0 1.29669189453125 -1.10797119140625
1084064000.0 1.1688232421875 -1.24041748046875
1089059500.0 1.02886962890625 -1.35888671875
1094055000.0 0.87750244140625 -1.4637451171875
1099050500.0 0.71612548828125 -1.5528564453125
1104046000.0 0.54583740234375 -1.62640380859375
1109041500.0 0.36669921875 -1.6824951171875
1114037000.0 0.18072509765625 -1.72088623046875
1119032500.0 -0.0106201171875 -1.7388916015625
1124028000.0 -0.20599365234375 -1.735595703125
1129023500.0 -0.40277099609375 -1.7103271484375
1134019000.0 -0.5977783203125 -1.6617431640625
1139014500.0 -0.78900146484375 -1.5899658203125
1144010000.0 -0.9718017578125 -1.49365234375
1149005500.0 -1.143310546875 -1.37506103515625
1154001000.0 -1.30047607421875 -1.23431396484375
1158996500.0 -1.4390869140625 -1.0733642578125
1163992000.0 -1.55633544921875 -0.89593505859375
1168987500.0 -1.65008544921875 -0.705078125
1173983000.0 -1.71844482421875 -0.50390625
1178978500.0 -1.759765625 -0.29736328125
1183974000.0 -1.77520751953125 -0.08831787109375
1188969500.0 -1.76458740234375 0.1177978515625
1193965000.0 -1.72930908203125 0.31890869140625
1198960500.0 -1.67108154296875 0.51220703125
1203956000.0 -1.5921630859375 0.69384765625
1208951500.0 -1.49383544921875 0.8631591796875
1213947000.0 -1.3792724609375 1.0174560546875
1218942500.0 -1.2506103515625 1.156982421875
1223938000.0 -1.1092529296875 1.2796630859375
1228933500.0 -0.958251953125 1.3856201171875
1233929000.0 -0.79937744140625 1.4737548828125
1238924500.0 -0.63336181640625 1.5447998046875
1243920000.0 -0.4627685546875 1.59869384765625
1248915500.0 -0.28826904296875 1.634765625
1253911000.0 -0.11224365234375 1.6533203125
1258906500.0 0.0653076171875 1.65447998046875
1263902000.0 0.241943359375 1.63848876953125
1268897500.0 0.41693115234375 1.60443115234375
1273893000.0 0.58563232421875 1.55157470703125
1278888500.0 0.75079345703125 1.481689453125
1283884000.0 0.9090576171875 1.39447021484375
1288879500.0 1.05706787109375 1.29046630859375
1293875000.0 1.195068359375 1.16943359375
1298870500.0 1.31915283203125 1.0335693359375
1303866000.0 1.4288330078125 0.8834228515625
1308861500.0 1.52093505859375 0.7213134765625
1313857000.0 1.59564208984375 0.54876708984375
1318852500.0 1.64990234375 0.36761474609375
1323848000.0 1.68353271484375 0.1807861328125
1328843500.0 1.69598388671875 -0.00897216796875
1333839000.0 1.68646240234375 -0.20001220703125
1338834500.0 1.6551513671875 -0.38946533203125
1343830000.0 1.6024169921875 -0.57403564453125
1348825500.0 1.5281982421875 -0.75201416015625
1353821000.0 1.434326171875 -0.9215087890625
1358816500.0 1.32159423828125 -1.07879638671875
1363812000.0 1.19049072265625 -1.22235107421875
1368807500.0 1.04345703125 -1.3494873046875
1373803000.0 0.8826904296875 -1.45892333984375
1378798500.0 0.7098388671875 -1.54937744140625
1383794000.0 0.52777099609375 -1.6177978515625
1388789500.0 0.34027099609375 -1.6639404296875
1393785000.0 0.14825439453125 -1.68829345703125
1398780500.0 -0.04461669921875 -1.6893310546875
1403776000.0 -0.2342529296875 -1.668212890625
1408771500.0 -0.4200439453125 -1.6260986328125
1413767000.0 -0.59710693359375 -1.56201171875
1418762500.0 -0.76422119140625 -1.479248046875
1423758000.0 -0.91973876953125 -1.3787841796875
1428753500.0 -1.06170654296875 -1.26373291015625
1433749000.0 -1.18890380859375 -1.134765625
1438744500.0 -1.300537109375 -0.99444580078125
1443740000.0 -1.3955078125 -0.84478759765625
1448735500.0 -1.474365234375 -0.6868896484375
1453731000.0 -1.53582763671875 -0.52325439453125
1458726500.0 -1.57965087890625 -0.3555908203125
1463722000.0 -1.60772705078125 -0.18438720703125
1468717500.0 -1.6180419921875 -0.0108642578125
1473713000.0 -1.61138916015625 0.16278076171875
1478708500.0 -1.5870361328125 0.3349609375
1483704000.0 -1.54547119140625 0.5050048828125
1488699500.0 -1.486328125 0.67303466796875
1493695000.0 -1.4083251953125 0.83367919921875
1498690500.0 -1.31304931640625 0.9879150390625
1503686000.0 -1.2005615234375 1.13262939453125
1508681500.0 -1.0703125 1.26580810546875
1513677000.0 -0.923583984375 1.3846435546875
1518672500.0 -0.7615966796875 1.487548828125
1523668000.0 -0.5865478515625 1.56964111328125
1528663500.0 -0.4010009765625 1.6304931640625
1533659000.0 -0.20782470703125 1.66778564453125
1538654500.0 -0.0106201171875 1.6798095703125
1543650000.0 0.1866455078125 1.6669921875
1548645500.0 0.380615234375 1.62908935546875
1553641000.0 0.56658935546875 1.56646728515625
1558636500.0 0.74053955078125 1.4818115234375
1563632000.0 0.90093994140625 1.3768310546875
1568627500.0 1.045166015625 1.25518798828125
1573623000.0 1.1707763671875 1.119384765625
1578618500.0 1.27789306640625 0.97271728515625
1583614000.0 1.36553955078125 0.8179931640625
1588609500.0 1.4345703125 0.65777587890625
1593605000.0 1.48504638671875 0.49407958984375
1598600500.0 1.51751708984375 0.32940673828125
1603596000.0 1.53271484375 0.16522216796875
1608591500.0 1.5325927734375 0.00286865234375
1613587000.0 1.51629638671875 -0.15692138671875
1618582500.0 1.485595703125 -0.3131103515625
1623578000.0 1.4410400390625 -0.46435546875
1628573500.0 1.382080078125 -0.61102294921875
1633569000.0 1.3099365234375 -0.75115966796875
1638564500.0 1.224609375 -0.88427734375
1643560000.0 1.1260986328125 -1.00994873046875
1648555500.0 1.014404296875 -1.12567138671875
1653551000.0 0.89031982421875 -1.2310791015625
1658546500.0 0.75457763671875 -1.32391357421875
1663542000.0 0.60736083984375 -1.40240478515625
1668537500.0 0.45062255859375 -1.4656982421875
1673533000.0 0.28558349609375 -1.51031494140625
1678528500.0 0.11474609375 -1.53564453125
1683524000.0 -0.05926513671875 -1.5401611328125
1688519500.0 -0.23419189453125 -1.523681640625
1693515000.0 -0.4053955078125 -1.485595703125
1698510500.0 -0.57098388671875 -1.42572021484375
1703506000.0 -0.72674560546875 -1.3466796875
1708501500.0 -0.869140625 -1.250732421875
1713497000.0 -0.99798583984375 -1.13873291015625
1718492500.0 -1.11138916015625 -1.0146484375
1723488000.0 -1.2076416015625 -0.88031005859375
1728483500.0 -1.28680419921875 -0.73870849609375
1733479000.0 -1.34893798828125 -0.592529296875
1738474500.0 -1.3944091796875 -0.44354248046875
1743470000.0 -1.42462158203125 -0.29351806640625
1748465500.0 -1.4400634765625 -0.14373779296875
1753461000.0 -1.44134521484375 0.00531005859375
1758456500.0 -1.42962646484375 0.15185546875
1763452000.0 -1.4052734375 0.2962646484375
1768447500.0 -1.36767578125 0.4373779296875
1773443000.0 -1.31842041015625 0.5758056640625
1778438500.0 -1.25579833984375 0.7093505859375
1783434000.0 -1.18060302734375 0.8385009765625
1788429500.0 -1.0928955078125 0.961669921875
1793425000.0 -0.99188232421875 1.07843017578125
1798420500.0 -0.876953125 1.1861572265625
1803416000.0 -0.7490234375 1.28302001953125
1808411500.0 -0.60784912109375 1.36676025390625
1813407000.0 -0.45458984375 1.4359130859375
1818402500.0 -0.2916259765625 1.4874267578125
1823398000.0 -0.120361328125 1.5185546875
1828393500.0 0.05584716796875 1.52813720703125
1833389000.0 0.2333984375 1.51507568359375
1838384500.0 0.4085693359375 1.478271484375
1843380000.0 0.57763671875 1.418701171875
1848375500.0 0.7364501953125 1.338134765625
1853371000.0 0.88214111328125 1.2386474609375
1858366500.0 1.011962890625 1.123291015625
1863362000.0 1.12493896484375 0.994873046875
1868357500.0 1.21966552734375 0.856689453125
1873353000.0 1.29571533203125 0.712158203125
1878348500.0 1.35491943359375 0.56298828125
1883344000.0 1.3966064453125 0.4124755859375
1888339500.0 1.42205810546875 0.26116943359375
1893335000.0 1.43292236328125 0.11163330078125
1898330500.0 1.42987060546875 -0.03668212890625
1903326000.0 1.41351318359375 -0.18157958984375
1908321500.0 1.3851318359375 -0.323486328125
1913317000.0 1.34423828125 -0.4619140625
1918312500.0 1.2919921875 -0.5963134765625
1923308000.0 1.22760009765625 -0.72607421875
1928303500.0 1.1510009765625 -0.85089111328125
1933299000.0 1.06207275390625 -0.9693603515625
1938294500.0 0.96051025390625 -1.0810546875
1943290000.0 0.84686279296875 -1.18377685546875
1948285500.0 0.720458984375 -1.27685546875
1953281000.0 0.58160400390625 -1.35699462890625
1958276500.0 0.43182373046875 -1.42254638671875
1963272000.0 0.27294921875 -1.4713134765625
1968267500.0 0.1064453125 -1.50115966796875
1973263000.0 -0.06494140625 -1.51025390625
1978258500.0 -0.23828125 -1.49810791015625
1983254000.0 -0.40924072265625 -1.4639892578125
1988249500.0 -0.5755615234375 -1.4078369140625
1993245000.0 -0.73284912109375 -1.33135986328125
1998240500.0 -0.87884521484375 -1.2357177734375
2003236000.0 -1.01007080078125 -1.12396240234375
2008231500.0 -1.12591552734375 -0.9986572265625
2013227000.0 -1.22454833984375 -0.86224365234375
2018222500.0 -1.30517578125 -0.7178955078125
2023218000.0 -1.36846923828125 -0.5677490234375
2028213500.0 -1.41455078125 -0.41436767578125
2033209000.0 -1.44403076171875 -0.259033203125
2038204500.0 -1.45745849609375 -0.103759765625
2043200000.0 -1.4549560546875 0.05029296875
2048195500.0 -1.4383544921875 0.20208740234375
2053191000.0 -1.40673828125 0.3505859375
2058186500.0 -1.36138916015625 0.49505615234375
2063182000.0 -1.30267333984375 0.635009765625
2068177500.0 -1.23028564453125 0.7691650390625
2073173000.0 -1.14483642578125 0.89593505859375
2078168500.0 -1.0462646484375 1.0146484375
2083164000.0 -0.93475341796875 1.12353515625
2088159500.0 -0.8116455078125 1.22137451171875
2093155000.0 -0.676513671875 1.306884765625
2098150500.0 -0.53179931640625 1.37701416015625
2103146000.0 -0.37860107421875 1.431396484375
2108141500.0 -0.21893310546875 1.46746826171875
2113137000.0 -0.05499267578125 1.485107421875
2118132500.0 0.110595703125 1.48309326171875
2123128000.0 0.2750244140625 1.4613037109375
2128123500.0 0.43499755859375 1.4207763671875
2133119000.0 0.588623046875 1.36114501953125
2138114500.0 0.7337646484375 1.2845458984375
2143110000.0 0.8677978515625 1.19268798828125
2148105500.0 0.98876953125 1.08758544921875
2153101000.0 1.09613037109375 0.97119140625
2158096500.0 1.18927001953125 0.84521484375
2163092000.0 1.268310546875 0.712158203125
2168087500.0 1.33203125 0.5733642578125
2173083000.0 1.3814697265625 0.4300537109375
2178078500.0 1.41619873046875 0.28436279296875
2183074000.0 1.43707275390625 0.13641357421875
2188069500.0 1.4444580078125 -0.0123291015625
