!Created with skrf (http://scikit-rf.org).
# Hz S RI R 50.0 
!freq ReS11 ImS11
45000000.0 -0.0039179325103759766 -0.0007567405700683594
49995500.0 -0.004117488861083984 -0.00023627281188964844
54991000.0 -0.004425525665283203 0.0002675056457519531
59986500.0 -0.00464320182800293 0.0006580352783203125
64982000.0 -0.004744529724121094 0.0011067390441894531
69977500.0 -0.004842519760131836 0.0017893314361572266
74973000.0 -0.0047075748443603516 0.0024743080139160156
79968500.0 -0.004453897476196289 0.0029401779174804688
84964000.0 -0.004352092742919922 0.0036940574645996094
89959500.0 -0.003951072692871094 0.004194498062133789
94955000.0 -0.0035982131958007812 0.004746437072753906
99950500.0 -0.003056049346923828 0.005299568176269531
104946000.0 -0.0024766921997070312 0.005805015563964844
109941500.0 -0.0017588138580322266 0.006159305572509766
114937000.0 -0.0012204647064208984 0.006468534469604492
119932500.0 -0.00037980079650878906 0.006616115570068359
124928000.0 0.0004172325134277344 0.006623744964599609
129923500.0 0.0012502670288085938 0.006693840026855469
134919000.0 0.0020589828491210938 0.006598711013793945
139914500.0 0.0027403831481933594 0.006403446197509766
144910000.0 0.003548860549926758 0.005992889404296875
149905500.0 0.004292488098144531 0.005690336227416992
154901000.0 0.004915475845336914 0.005138397216796875
159896500.0 0.005563974380493164 0.0047113895416259766
164892000.0 0.006196498870849609 0.003995418548583984
169887500.0 0.00657200813293457 0.0033414363861083984
174883000.0 0.0069561004638671875 0.0026607513427734375
179878500.0 0.007397890090942383 0.0018439292907714844
184874000.0 0.007475137710571289 0.0010402202606201172
189869500.0 0.007676124572753906 0.00016999244689941406
194865000.0 0.007674217224121094 -0.0007188320159912109
199860500.0 0.007624626159667969 -0.0016150474548339844
204856000.0 0.0073642730712890625 -0.0024080276489257812
209851500.0 0.00718235969543457 -0.003256082534790039
214847000.0 0.006892681121826172 -0.00402069091796875
219842500.0 0.006382942199707031 -0.0048313140869140625
224838000.0 0.005924224853515625 -0.005477190017700195
229833500.0 0.005222320556640625 -0.0061986446380615234
234829000.0 0.004582405090332031 -0.0067136287689208984
239824500.0 0.0038378238677978516 -0.007196664810180664
244820000.0 0.0030608177185058594 -0.007567882537841797
249815500.0 0.002311229705810547 -0.00795888900756836
254811000.0 0.0017771720886230469 -0.008129596710205078
259806500.0 0.0009355545043945312 -0.008310317993164062
264802000.0 6.29425048828125e-05 -0.008460044860839844
269797500.0 -0.0008268356323242188 -0.008496761322021484
274793000.0 -0.0017142295837402344 -0.008348464965820312
279788500.0 -0.0025801658630371094 -0.008199691772460938
284784000.0 -0.0034360885620117188 -0.007855892181396484
289779500.0 -0.0041656494140625 -0.007469892501831055
294775000.0 -0.005144357681274414 -0.007135629653930664
299770500.0 -0.00580143928527832 -0.006560325622558594
304766000.0 -0.006334781646728516 -0.0058939456939697266
309761500.0 -0.007016181945800781 -0.005270957946777344
314757000.0 -0.0075337886810302734 -0.004528999328613281
319752500.0 -0.008069992065429688 -0.0036640167236328125
324748000.0 -0.008414745330810547 -0.002864837646484375
329743500.0 -0.008654594421386719 -0.0020112991333007812
334739000.0 -0.008991718292236328 -0.0010771751403808594
339734500.0 -0.008956432342529297 -0.00018787384033203125
344730000.0 -0.008938789367675781 0.0007119178771972656
349725500.0 -0.008904457092285156 0.0016770362854003906
354721000.0 -0.008747577667236328 0.0025734901428222656
359716500.0 -0.00836324691772461 0.0035190582275390625
364712000.0 -0.007965564727783203 0.0042724609375
369707500.0 -0.0074541568756103516 0.005049943923950195
374703000.0 -0.006972074508666992 0.005909919738769531
379698500.0 -0.0064165592193603516 0.00660395622253418
384694000.0 -0.0056629180908203125 0.0072154998779296875
389689500.0 -0.005034923553466797 0.007752180099487305
394685000.0 -0.004082202911376953 0.008282661437988281
399680500.0 -0.00327301025390625 0.008594989776611328
404676000.0 -0.0023527145385742188 0.008974075317382812
409671500.0 -0.0013980865478515625 0.00922536849975586
414667000.0 -0.0005011558532714844 0.009297370910644531
419662500.0 0.00031375885009765625 0.009320735931396484
424658000.0 0.0013480186462402344 0.009178638458251953
429653500.0 0.0023436546325683594 0.00906991958618164
434649000.0 0.0031533241271972656 0.008807182312011719
439644500.0 0.004147052764892578 0.008385181427001953
444640000.0 0.004909515380859375 0.007956981658935547
449635500.0 0.0056798458099365234 0.0074462890625
454631000.0 0.006465911865234375 0.00692439079284668
459626500.0 0.007150173187255859 0.006334066390991211
464622000.0 0.007704019546508789 0.00551605224609375
469617500.0 0.008236408233642578 0.0046539306640625
474613000.0 0.008752822875976562 0.003991127014160156
479608500.0 0.009067058563232422 0.002964496612548828
484604000.0 0.009316444396972656 0.0020580291748046875
489599500.0 0.009529590606689453 0.0011911392211914062
494595000.0 0.009672164916992188 0.0002598762512207031
499590500.0 0.009645938873291016 -0.0006966590881347656
504586000.0 0.00948190689086914 -0.0016961097717285156
509581500.0 0.009319305419921875 -0.002540111541748047
514577000.0 0.009046077728271484 -0.0035033226013183594
519572500.0 0.0086822509765625 -0.004326820373535156
524568000.0 0.008235454559326172 -0.005209445953369141
529563500.0 0.007695198059082031 -0.005965471267700195
534559000.0 0.007224082946777344 -0.006603717803955078
539554500.0 0.006452083587646484 -0.007317543029785156
544550000.0 0.005858421325683594 -0.007893085479736328
549545500.0 0.005025386810302734 -0.008453845977783203
554541000.0 0.004164695739746094 -0.008955955505371094
559536500.0 0.003421783447265625 -0.009316444396972656
564532000.0 0.002517223358154297 -0.009688377380371094
569527500.0 0.0016083717346191406 -0.010050773620605469
574523000.0 0.00060272216796875 -0.010172367095947266
579518500.0 -0.0003085136413574219 -0.010234355926513672
584514000.0 -0.001331329345703125 -0.010219097137451172
589509500.0 -0.002460002899169922 -0.010128974914550781
594505000.0 -0.003330230712890625 -0.009900093078613281
599500500.0 -0.004288196563720703 -0.009576797485351562
604496000.0 -0.005258083343505859 -0.009243488311767578
609491500.0 -0.006109714508056641 -0.008763313293457031
614487000.0 -0.007008075714111328 -0.008043289184570312
619482500.0 -0.00779271125793457 -0.007380962371826172
624478000.0 -0.008587360382080078 -0.006659984588623047
629473500.0 -0.009244441986083984 -0.0059108734130859375
634469000.0 -0.009759902954101562 -0.005054473876953125
639464500.0 -0.010296821594238281 -0.004102230072021484
644460000.0 -0.010664939880371094 -0.0030965805053710938
649455500.0 -0.011109352111816406 -0.0019774436950683594
654451000.0 -0.011271476745605469 -0.0010151863098144531
659446500.0 -0.011330127716064453 6.437301635742188e-05
664442000.0 -0.01141357421875 0.0011529922485351562
669437500.0 -0.011256217956542969 0.0023293495178222656
674433000.0 -0.011082649230957031 0.0033636093139648438
679428500.0 -0.010822772979736328 0.004513740539550781
684424000.0 -0.010395050048828125 0.005488872528076172
689419500.0 -0.00995492935180664 0.006612300872802734
694415000.0 -0.009276390075683594 0.0075626373291015625
699410500.0 -0.008595943450927734 0.008454322814941406
704406000.0 -0.007781982421875 0.009327411651611328
709401500.0 -0.006920337677001953 0.010048866271972656
714397000.0 -0.005915641784667969 0.010709285736083984
719392500.0 -0.004847526550292969 0.01143026351928711
724388000.0 -0.003815174102783203 0.011883735656738281
729383500.0 -0.0026693344116210938 0.012280464172363281
734379000.0 -0.0014557838439941406 0.012644767761230469
739374500.0 -0.0001964569091796875 0.012798309326171875
744370000.0 0.0009770393371582031 0.01289510726928711
749365500.0 0.002280712127685547 0.01278829574584961
754361000.0 0.0034284591674804688 0.012664794921875
759356500.0 0.004662513732910156 0.012341976165771484
764352000.0 0.005950927734375 0.011973857879638672
769347500.0 0.007098197937011719 0.01138448715209961
774343000.0 0.008243083953857422 0.01077890396118164
779338500.0 0.009350776672363281 0.009899139404296875
784334000.0 0.010327339172363281 0.009101390838623047
789329500.0 0.01122283935546875 0.008118629455566406
794325000.0 0.012085437774658203 0.007054328918457031
799320500.0 0.012889385223388672 0.0058650970458984375
804316000.0 0.013361454010009766 0.004597663879394531
809311500.0 0.013859748840332031 0.0033807754516601562
814307000.0 0.014318466186523438 0.0020418167114257812
819302500.0 0.01453542709350586 0.0005164146423339844
824298000.0 0.014527320861816406 -0.0007619857788085938
829293500.0 0.014616012573242188 -0.0021533966064453125
834289000.0 0.01438140869140625 -0.00362396240234375
839284500.0 0.014049530029296875 -0.005093097686767578
844280000.0 0.014019966125488281 -0.0058193206787109375
849275500.0 0.013468742370605469 -0.007243156433105469
854271000.0 0.012892723083496094 -0.00867605209350586
859266500.0 0.012176036834716797 -0.010007381439208984
864262000.0 0.011196136474609375 -0.011063098907470703
869257500.0 0.010096073150634766 -0.012279033660888672
874253000.0 0.009021759033203125 -0.013316154479980469
879248500.0 0.007825851440429688 -0.014248847961425781
884244000.0 0.0064601898193359375 -0.014895915985107422
889239500.0 0.004937171936035156 -0.015664100646972656
894235000.0 0.0035219192504882812 -0.016141891479492188
899230500.0 0.00194549560546875 -0.016737937927246094
904226000.0 0.0004673004150390625 -0.016905784606933594
909221500.0 -0.0013580322265625 -0.017065048217773438
914217000.0 -0.0028591156005859375 -0.017148971557617188
919212500.0 -0.0045566558837890625 -0.016948699951171875
924208000.0 -0.0064029693603515625 -0.016534805297851562
929203500.0 -0.008120536804199219 -0.015923500061035156
934199000.0 -0.009619712829589844 -0.015288352966308594
939194500.0 -0.011245250701904297 -0.014339923858642578
944190000.0 -0.012763023376464844 -0.01324462890625
949185500.0 -0.014075279235839844 -0.012072086334228516
954181000.0 -0.015311717987060547 -0.010737419128417969
959176500.0 -0.016592025756835938 -0.009226799011230469
964172000.0 -0.017485618591308594 -0.007716178894042969
969167500.0 -0.01820659637451172 -0.00600433349609375
974163000.0 -0.01897144317626953 -0.004237174987792969
979158500.0 -0.019354820251464844 -0.00225067138671875
984154000.0 -0.019748687744140625 -0.0003948211669921875
989149500.0 -0.01990032196044922 0.0015811920166015625
994145000.0 -0.0198211669921875 0.0036172866821289062
999140500.0 -0.019552230834960938 0.005522727966308594
1004136000.0 -0.01898193359375 0.007564544677734375
1009131500.0 -0.01838970184326172 0.009351730346679688
1014127000.0 -0.017411231994628906 0.011311531066894531
1019122500.0 -0.016202926635742188 0.013020515441894531
1024118000.0 -0.01516580581665039 0.014768600463867188
1029113500.0 -0.013578414916992188 0.016226768493652344
1034109000.0 -0.012166023254394531 0.017770767211914062
1039104500.0 -0.010252952575683594 0.01899242401123047
1044100000.0 -0.008423805236816406 0.02013683319091797
1049095500.0 -0.006361961364746094 0.02091503143310547
1054091000.0 -0.004332542419433594 0.021678924560546875
1059086500.0 -0.0021066665649414062 0.022253036499023438
1064082000.0 6.866455078125e-05 0.022546768188476562
1069077500.0 0.0023183822631835938 0.02246379852294922
1074073000.0 0.004649162292480469 0.022409439086914062
1079068500.0 0.006899833679199219 0.0218658447265625
1084064000.0 0.009186744689941406 0.021261215209960938
1089059500.0 0.011350631713867188 0.02036762237548828
1094055000.0 0.013390541076660156 0.019260406494140625
1099050500.0 0.015276908874511719 0.017862319946289062
1104046000.0 0.017139434814453125 0.01644420623779297
1109041500.0 0.018843650817871094 0.014758110046386719
1114037000.0 0.020475387573242188 0.012758255004882812
1119032500.0 0.02167034149169922 0.010669708251953125
1124028000.0 0.022792816162109375 0.008543968200683594
1129023500.0 0.023706436157226562 0.006245613098144531
1134019000.0 0.024440765380859375 0.0038957595825195312
1139014500.0 0.024773597717285156 0.0014543533325195312
1144010000.0 0.024951934814453125 -0.0010433197021484375
1149005500.0 0.024950027465820312 -0.0036153793334960938
1154001000.0 0.024527549743652344 -0.00605010986328125
1158996500.0 0.02388477325439453 -0.008624076843261719
1163992000.0 0.02298259735107422 -0.010984420776367188
1168987500.0 0.022032737731933594 -0.013339996337890625
1173983000.0 0.020650863647460938 -0.015583038330078125
1178978500.0 0.019049644470214844 -0.0178375244140625
1183974000.0 0.017333984375 -0.019647598266601562
1188969500.0 0.015226364135742188 -0.021436691284179688
1193965000.0 0.01312255859375 -0.022928237915039062
1198960500.0 0.010845184326171875 -0.02425384521484375
1203956000.0 0.008351325988769531 -0.025244712829589844
1208951500.0 0.005786895751953125 -0.026203155517578125
1213947000.0 0.0031061172485351562 -0.02675914764404297
1218942500.0 0.00046443939208984375 -0.027207374572753906
1223938000.0 -0.0022878646850585938 -0.026987075805664062
1228933500.0 -0.004950523376464844 -0.026864051818847656
1233929000.0 -0.007781028747558594 -0.02620410919189453
1238924500.0 -0.010339736938476562 -0.02556610107421875
1243920000.0 -0.01299285888671875 -0.02449321746826172
1248915500.0 -0.015254020690917969 -0.023245811462402344
1253911000.0 -0.017530441284179688 -0.02167034149169922
1258906500.0 -0.019775390625 -0.019827842712402344
1263902000.0 -0.021791458129882812 -0.017952919006347656
1268897500.0 -0.02362823486328125 -0.015836715698242188
1273893000.0 -0.025167465209960938 -0.013398170471191406
1278888500.0 -0.026567459106445312 -0.010825157165527344
1283884000.0 -0.027756690979003906 -0.008091926574707031
1288879500.0 -0.02841663360595703 -0.0054035186767578125
1293875000.0 -0.029064178466796875 -0.0025272369384765625
1298870500.0 -0.029256820678710938 0.00037479400634765625
1303866000.0 -0.029265403747558594 0.0033063888549804688
1308861500.0 -0.028821945190429688 0.006267547607421875
1313857000.0 -0.028374671936035156 0.009198188781738281
1318852500.0 -0.027402877807617188 0.012125015258789062
1323848000.0 -0.02619457244873047 0.014836311340332031
1328843500.0 -0.024628639221191406 0.017543792724609375
1333839000.0 -0.022768020629882812 0.019820213317871094
1338834500.0 -0.020742416381835938 0.022324562072753906
1343830000.0 -0.01851654052734375 0.024261474609375
1348825500.0 -0.016033172607421875 0.026323318481445312
1353821000.0 -0.013437271118164062 0.02785778045654297
1358816500.0 -0.01058197021484375 0.029256820678710938
1363812000.0 -0.007504463195800781 0.03026294708251953
1368807500.0 -0.0044307708740234375 0.030950546264648438
1373803000.0 -0.0012683868408203125 0.03134918212890625
1378798500.0 0.0019130706787109375 0.031494140625
1383794000.0 0.0050678253173828125 0.03133964538574219
1388789500.0 0.008272171020507812 0.03061199188232422
1393785000.0 0.011309623718261719 0.029710769653320312
1398780500.0 0.014445304870605469 0.02867603302001953
1403776000.0 0.017261505126953125 0.02705860137939453
1408771500.0 0.020032882690429688 0.025289535522460938
1413767000.0 0.02254199981689453 0.02317333221435547
1418762500.0 0.024808883666992188 0.02092742919921875
1423758000.0 0.02694225311279297 0.018253326416015625
1428753500.0 0.028655052185058594 0.015542984008789062
1433749000.0 0.03026103973388672 0.012508392333984375
1438744500.0 0.03147315979003906 0.00940704345703125
1443740000.0 0.03232002258300781 0.006134033203125
1448735500.0 0.03281402587890625 0.00281524658203125
1453731000.0 0.0330810546875 -0.000484466552734375
1458726500.0 0.032871246337890625 -0.0037975311279296875
1463722000.0 0.0324554443359375 -0.0071430206298828125
1468717500.0 0.03157997131347656 -0.0103912353515625
1473713000.0 0.03041553497314453 -0.013605117797851562
1478708500.0 0.02905559539794922 -0.01677703857421875
1483704000.0 0.027070999145507812 -0.01952838897705078
1488699500.0 0.025150299072265625 -0.02240276336669922
1493695000.0 0.022672653198242188 -0.024723052978515625
1498690500.0 0.020216941833496094 -0.026981353759765625
1503686000.0 0.017400741577148438 -0.028985023498535156
1508681500.0 0.014433860778808594 -0.030570030212402344
1513677000.0 0.011163711547851562 -0.031818389892578125
1518672500.0 0.007871627807617188 -0.03286170959472656
1523668000.0 0.004573822021484375 -0.03367042541503906
1528663500.0 0.0011730194091796875 -0.03395271301269531
1533659000.0 -0.0022335052490234375 -0.03387260437011719
1538654500.0 -0.0056629180908203125 -0.03348731994628906
1543650000.0 -0.0090179443359375 -0.03283119201660156
1548645500.0 -0.012254714965820312 -0.03165626525878906
1553641000.0 -0.015433311462402344 -0.03033924102783203
1558636500.0 -0.018480300903320312 -0.028662681579589844
1563632000.0 -0.0211944580078125 -0.026662826538085938
1568627500.0 -0.023688316345214844 -0.02433300018310547
1573623000.0 -0.02610492706298828 -0.021834373474121094
1578618500.0 -0.028125762939453125 -0.019135475158691406
1583614000.0 -0.02998828887939453 -0.016271591186523438
1588609500.0 -0.031307220458984375 -0.01313018798828125
1593605000.0 -0.03251075744628906 -0.009883880615234375
1598600500.0 -0.033336639404296875 -0.006603240966796875
1603596000.0 -0.0338592529296875 -0.0033512115478515625
1608591500.0 -0.03398704528808594 0.0001544952392578125
1613587000.0 -0.033756256103515625 0.003467559814453125
1618582500.0 -0.03325462341308594 0.0067806243896484375
1623578000.0 -0.032428741455078125 0.009969711303710938
1628573500.0 -0.03125762939453125 0.013116836547851562
1633569000.0 -0.0298004150390625 0.016191482543945312
1638564500.0 -0.028100967407226562 0.01906299591064453
1643560000.0 -0.02604389190673828 0.02173614501953125
1648555500.0 -0.02380084991455078 0.02413463592529297
1653551000.0 -0.021274566650390625 0.026373863220214844
1658546500.0 -0.01867198944091797 0.028240203857421875
1663542000.0 -0.015806198120117188 0.03004932403564453
1668537500.0 -0.012681961059570312 0.031444549560546875
1673533000.0 -0.009502410888671875 0.03254127502441406
1678528500.0 -0.006389617919921875 0.03337860107421875
1683524000.0 -0.003047943115234375 0.03388023376464844
1688519500.0 0.0004138946533203125 0.03403282165527344
1693515000.0 0.0037593841552734375 0.03386878967285156
1698510500.0 0.0070343017578125 0.03338813781738281
1703506000.0 0.0103607177734375 0.03253746032714844
1708501500.0 0.0134735107421875 0.03140830993652344
1713497000.0 0.016515731811523438 0.029886245727539062
1718492500.0 0.019529342651367188 0.028150558471679688
1723488000.0 0.022185325622558594 0.026159286499023438
1728483500.0 0.024694442749023438 0.023781776428222656
1733479000.0 0.026882171630859375 0.021147727966308594
1738474500.0 0.02875995635986328 0.018372535705566406
1743470000.0 0.030559539794921875 0.015485763549804688
1748465500.0 0.0319366455078125 0.012300491333007812
1753461000.0 0.032947540283203125 0.009183883666992188
1758456500.0 0.033748626708984375 0.0057849884033203125
1763452000.0 0.034149169921875 0.0023441314697265625
1768447500.0 0.0341796875 -0.001007080078125
1773443000.0 0.033954620361328125 -0.0043773651123046875
1778438500.0 0.033267974853515625 -0.0077915191650390625
1783434000.0 0.03234100341796875 -0.011003494262695312
1788429500.0 0.031019210815429688 -0.014227867126464844
1793425000.0 0.029549598693847656 -0.017172813415527344
1798420500.0 0.027612686157226562 -0.019987106323242188
1803416000.0 0.0255584716796875 -0.02265453338623047
1808411500.0 0.02310943603515625 -0.024980545043945312
1813407000.0 0.020522117614746094 -0.027172088623046875
1818402500.0 0.017658233642578125 -0.028951644897460938
1823398000.0 0.014685630798339844 -0.030576705932617188
1828393500.0 0.01157379150390625 -0.03177070617675781
1833389000.0 0.008401870727539062 -0.032741546630859375
1838384500.0 0.0050220489501953125 -0.033359527587890625
1843380000.0 0.0018024444580078125 -0.03369331359863281
