!Created with skrf (http://scikit-rf.org).
# Hz S RI R 50.0 
!freq ReS11 ImS11
300000.0 -1.022141175 -0.1630716777
5299970.0 -1.002870982 0.00715066
10299940.0 -1.001039956 0.0123709397
15299910.0 -0.9999269145 0.0245530498
20299880.0 -0.9993902513 0.0282363704
25299850.0 -0.9991869606 0.0363404994
30299820.0 -0.9989347933 0.0435647482
35299790.0 -0.9980248154 0.0490591392
40299760.0 -0.9977367622 0.0559412522
45299730.0 -0.9965154128 0.0624803367
50299700.0 -0.9961968162 0.0694483004
55299670.0 -0.9950538698 0.0763781674
60299640.0 -0.9943525931 0.082868083
65299610.0 -0.9940451371 0.0889644389
70299580.0 -0.9932541518 0.0955005866
75299550.0 -0.9924782137 0.102232805
80299520.0 -0.9914156291 0.1089773955
85299490.0 -0.9905677283 0.1149301925
90299460.0 -0.9899443485 0.1221103015
95299430.0 -0.9888070885 0.1285181102
100299400.0 -0.987128835 0.1349763383
105299370.0 -0.9864743538 0.1410802927
110299340.0 -0.9850516492 0.1482259634
115299310.0 -0.9838101309 0.1549360418
120299280.0 -0.9832395262 0.1609681179
125299250.0 -0.9819680756 0.1678077354
130299220.0 -0.9805219781 0.1742293214
135299190.0 -0.9799909328 0.1802331926
140299160.0 -0.9781623487 0.1868634197
145299130.0 -0.9767261577 0.1934481045
150299100.0 -0.9752812969 0.1998518974
155299070.0 -0.973846236 0.2062102575
160299040.0 -0.9732127053 0.2129427345
165299010.0 -0.9707341463 0.2190847344
170298980.0 -0.969618566 0.2253209271
175298950.0 -0.9659342939 0.2308995884
180298920.0 -0.9639763414 0.236645004
185298890.0 -0.9631567273 0.2437585727
190298860.0 -0.9631023824 0.2511746963
195298830.0 -0.9615130809 0.2574355899
200298800.0 -0.9596867747 0.2639999418
205298770.0 -0.9579740934 0.2702904879
210298740.0 -0.9556180016 0.2763964224
215298710.0 -0.9539333263 0.2825437609
220298680.0 -0.9517700077 0.2891468626
225298650.0 -0.9496500696 0.2950945733
230298620.0 -0.9483730883 0.3014559457
235298590.0 -0.9464867757 0.3081008753
240298560.0 -0.9442695344 0.3141159736
245298530.0 -0.9424564163 0.3206107904
250298500.0 -0.9398980932 0.3259932671
255298470.0 -0.937388796 0.3324202407
260298440.0 -0.9352420046 0.3385373411
265298410.0 -0.9327924937 0.3452907745
270298380.0 -0.9307218907 0.3512317903
275298350.0 -0.9282277671 0.3570107897
280298320.0 -0.9256960802 0.3630568294
285298290.0 -0.9231622392 0.3687454008
290298260.0 -0.9206997307 0.3750891408
295298230.0 -0.9181616797 0.3806707179
300298200.0 -0.9161770546 0.3869024372
305298170.0 -0.9132460308 0.3933552884
310298140.0 -0.910780903 0.4000635255
315298110.0 -0.9082555473 0.4054380113
320298080.0 -0.905176351 0.4108982436
325298050.0 -0.9018107914 0.4168763897
330298020.0 -0.8993093037 0.422564967
335297990.0 -0.8967283704 0.4287293236
340297960.0 -0.8937181415 0.4347119059
345297930.0 -0.8911435691 0.4410500787
350297900.0 -0.8883735368 0.4465024348
355297870.0 -0.8857072293 0.4524060134
360297840.0 -0.8828542247 0.4586033932
365297810.0 -0.8797087169 0.4643424115
370297780.0 -0.8761205977 0.4696340465
375297750.0 -0.8725175079 0.4755879179
380297720.0 -0.8695691899 0.4816193439
385297690.0 -0.8665907821 0.4866826436
390297660.0 -0.8629670363 0.4923334282
395297630.0 -0.859746176 0.4976694964
400297600.0 -0.8560986193 0.5037909866
405297570.0 -0.8529641936 0.509061591
410297540.0 -0.8488029487 0.5153365223
415297510.0 -0.8460691864 0.5207770466
420297480.0 -0.8427398476 0.5258281218
425297450.0 -0.8389332278 0.5313853445
430297420.0 -0.8354288924 0.5373382328
435297390.0 -0.8319795337 0.5424271694
440297360.0 -0.8279690727 0.5485173733
445297330.0 -0.825114705 0.5536671501
450297300.0 -0.8211999634 0.5587931646
455297270.0 -0.8170152415 0.5641560978
460297240.0 -0.8128274563 0.5693707147
465297210.0 -0.8094981059 0.574432634
470297180.0 -0.8060302045 0.5803476434
475297150.0 -0.8023469745 0.585263426
480297120.0 -0.7980222487 0.5907893699
485297090.0 -0.7940931258 0.5957815498
490297060.0 -0.7904188938 0.6006291291
495297030.0 -0.7860882501 0.6058031852
500297000.0 -0.7823825132 0.6109743086
505296970.0 -0.7787628324 0.6165096092
510296940.0 -0.7745460025 0.6218310127
515296910.0 -0.7709365835 0.6271122443
520296880.0 -0.7665392397 0.6316363022
525296850.0 -0.7626905262 0.6372335753
530296820.0 -0.7585677934 0.6419904627
535296790.0 -0.7544443065 0.6469502883
540296760.0 -0.7493399011 0.6518416896
545296730.0 -0.7450336063 0.6571800743
550296700.0 -0.7409201621 0.6613268739
555296670.0 -0.7361366262 0.6663189337
560296640.0 -0.7316360052 0.670524294
565296610.0 -0.7270487934 0.6755606054
570296580.0 -0.7220488737 0.6803055637
575296550.0 -0.7177392746 0.6851553556
580296520.0 -0.7130264373 0.6896673389
585296490.0 -0.7086196136 0.6945481837
590296460.0 -0.7036254863 0.6994499056
595296430.0 -0.6992643458 0.7046053268
600296400.0 -0.6948069804 0.7083174595
605296370.0 -0.6898226864 0.7121239447
610296340.0 -0.6857233662 0.7169292866
615296310.0 -0.6811150351 0.7212461457
620296280.0 -0.675799553 0.7260348824
625296250.0 -0.6711617692 0.7297930193
630296220.0 -0.6666190785 0.7342520708
635296190.0 -0.6613276572 0.7385449675
640296160.0 -0.6566552854 0.7430096504
645296130.0 -0.6517502659 0.746884166
650296100.0 -0.6466190134 0.7516602193
655296070.0 -0.6420349751 0.7554912987
660296040.0 -0.6367183304 0.7594724407
665296010.0 -0.6311400944 0.7639847674
670295980.0 -0.6267626959 0.7673797134
675295950.0 -0.621725253 0.7719610568
680295920.0 -0.6165109216 0.7764808776
685295890.0 -0.6114143486 0.7798031335
690295860.0 -0.6066680344 0.784079818
695295830.0 -0.6020769135 0.7881077946
700295800.0 -0.5961734794 0.7918716659
705295770.0 -0.5915853687 0.7957631059
710295740.0 -0.5860141546 0.7997364138
715295710.0 -0.5800722542 0.8036734974
720295680.0 -0.5751508194 0.8067309672
725295650.0 -0.5697206838 0.8109526513
730295620.0 -0.5641837342 0.8148639819
735295590.0 -0.5591813659 0.8183584061
740295560.0 -0.5538688868 0.8217221028
745295530.0 -0.5489548795 0.8257031823
750295500.0 -0.5429066184 0.8290736321
755295470.0 -0.5375146612 0.8326402034
760295440.0 -0.53238781 0.8356818528
765295410.0 -0.5268130467 0.839207846
770295380.0 -0.5209749492 0.8426145508
775295350.0 -0.5153653502 0.8458776695
780295320.0 -0.5097816078 0.8497895072
785295290.0 -0.5038181541 0.8530042527
790295260.0 -0.4980192652 0.8561954229
795295230.0 -0.4930497293 0.8590972491
800295200.0 -0.4872095545 0.8622011184
805295170.0 -0.481376594 0.8655077504
810295140.0 -0.4761570311 0.8685932106
815295110.0 -0.4702050777 0.8720941574
820295080.0 -0.4643409501 0.8746505688
825295050.0 -0.458526197 0.877870379
830295020.0 -0.4531625419 0.8807852278
835294990.0 -0.4474461141 0.8840277788
840294960.0 -0.4409573966 0.8867025686
845294930.0 -0.4353769954 0.8895242925
850294900.0 -0.4294013667 0.8921532057
855294870.0 -0.4232344387 0.8948365453
860294840.0 -0.4173339151 0.897655128
865294810.0 -0.4121736308 0.9004531002
870294780.0 -0.4060922886 0.9029503263
875294750.0 -0.4002088794 0.9063017373
880294720.0 -0.3941612366 0.9080720861
885294690.0 -0.3882537401 0.9107830202
890294660.0 -0.38213221 0.9130582594
895294630.0 -0.3764037048 0.9154118355
900294600.0 -0.3708371994 0.9179243459
905294570.0 -0.3644607914 0.9198739851
910294540.0 -0.3585587835 0.9224140678
915294510.0 -0.3526771355 0.9244653744
920294480.0 -0.3462370602 0.9269292366
925294450.0 -0.3404499861 0.9286245025
930294420.0 -0.3339540931 0.9307023381
935294390.0 -0.3279134089 0.9337438128
940294360.0 -0.3223638697 0.934562645
945294330.0 -0.3163097159 0.9374529789
950294300.0 -0.3097061548 0.9395698656
955294270.0 -0.3037042237 0.9413574868
960294240.0 -0.2975145937 0.9427200328
965294210.0 -0.2906745078 0.9447477401
970294180.0 -0.2844719507 0.9472387896
975294150.0 -0.2785709356 0.9486548068
980294120.0 -0.2731763893 0.9501701196
985294090.0 -0.2667269296 0.9521572431
990294060.0 -0.2604523441 0.9539948151
995294030.0 -0.2546035337 0.9556616642
1000294000.0 -0.2479697161 0.9573333404
1005293970.0 -0.2413129649 0.9588760959
1010293940.0 -0.2356189364 0.9600837327
1015293910.0 -0.2291284501 0.961219689
1020293880.0 -0.2236209323 0.9633167909
1025293850.0 -0.2166467996 0.9645950377
1030293820.0 -0.2105054077 0.9657981134
1035293790.0 -0.2040690045 0.9674506983
1040293760.0 -0.1979625719 0.9680626437
1045293730.0 -0.1915910743 0.9695083087
1050293700.0 -0.1850850493 0.9709570586
1055293670.0 -0.178636456 0.972230579
1060293640.0 -0.1718273438 0.9730983231
1065293610.0 -0.1666632178 0.9744207313
1070293580.0 -0.1597724689 0.9753330323
1075293550.0 -0.1536653054 0.9770632879
1080293520.0 -0.1469453201 0.9771507656
1085293490.0 -0.1402007413 0.9781733281
1090293460.0 -0.1339289285 0.9791058891
1095293430.0 -0.1273633613 0.9793352588
1100293400.0 -0.1206792925 0.9807539716
1105293370.0 -0.114386315 0.9813667651
1110293340.0 -0.1086478744 0.9821842762
1115293310.0 -0.1014413065 0.9832924343
1120293280.0 -0.095360327 0.9833659132
1125293250.0 -0.0892090072 0.9842113426
1130293220.0 -0.0829862876 0.9843632512
1135293190.0 -0.0768735418 0.9848712039
1140293160.0 -0.0702383529 0.985884216
1145293130.0 -0.0640999198 0.9861500521
1150293100.0 -0.0569482244 0.9861109281
1155293070.0 -0.0503172115 0.9866840703
1160293040.0 -0.0446221981 0.9868062191
1165293010.0 -0.0378777261 0.9874038199
1170292980.0 -0.0319057962 0.9872695989
1175292950.0 -0.0248913749 0.987300727
1180292920.0 -0.0186929895 0.98777602
1185292890.0 -0.0121396526 0.9878283133
1190292860.0 -0.006112776 0.9882580981
1195292830.0 0.0014193026 0.9877519801
1200292800.0 0.0068889184 0.9879569126
1205292770.0 0.0134156829 0.9879119886
1210292740.0 0.0195086958 0.9874235663
1215292710.0 0.026003514 0.9868425966
1220292680.0 0.0327639455 0.9865921311
1225292650.0 0.0389766617 0.9869493213
1230292620.0 0.045679619 0.9868801634
1235292590.0 0.0518957589 0.9860041597
1240292560.0 0.0581290427 0.9861921305
1245292530.0 0.0641895665 0.9855356834
1250292500.0 0.0712780175 0.9856100366
1255292470.0 0.0775276452 0.9842788679
1260292440.0 0.0846430994 0.98386071
1265292410.0 0.08994789 0.983235105
1270292380.0 0.0965143287 0.9826015868
1275292350.0 0.1036199622 0.9821525397
1280292320.0 0.1098987049 0.9809192592
1285292290.0 0.1164096003 0.9805639876
1290292260.0 0.1225016257 0.9796413533
1295292230.0 0.1283695762 0.9787846211
1300292200.0 0.1346940142 0.9780933143
1305292170.0 0.1417129571 0.9773176122
1310292140.0 0.1482592155 0.9760674732
1315292110.0 0.1539474889 0.9755217211
1320292080.0 0.1606082073 0.9744541612
1325292050.0 0.1670803758 0.9731575843
1330292020.0 0.1728305349 0.9715826453
1335291990.0 0.1800845072 0.970606087
1340291960.0 0.1862202263 0.969369343
1345291930.0 0.1923323183 0.9686618663
1350291900.0 0.1994077763 0.9668264202
1355291870.0 0.2051341177 0.9661576549
1360291840.0 0.2109014629 0.9647248323
1365291810.0 0.2165351153 0.9632643861
1370291780.0 0.2230637982 0.9619623659
1375291750.0 0.2297014569 0.9599447834
1380291720.0 0.2361480924 0.959166361
1385291690.0 0.2425231089 0.9571250452
1390291660.0 0.248935581 0.955289552
1395291630.0 0.2550781293 0.9543988084
1400291600.0 0.2616439685 0.9521076726
1405291570.0 0.2677103918 0.9500716833
1410291540.0 0.273066552 0.9494153807
1415291510.0 0.2798532262 0.9467681344
1420291480.0 0.2855603331 0.9449158268
1425291450.0 0.2921762276 0.9431478389
1430291420.0 0.2978581198 0.9416871063
1435291390.0 0.3041568731 0.9387652524
1440291360.0 0.31059394 0.9376989827
1445291330.0 0.3156054939 0.9360010654
1450291300.0 0.3218400144 0.9333426068
1455291270.0 0.3275844597 0.9318664817
1460291240.0 0.3336727094 0.9291264928
1465291210.0 0.3399483483 0.9271650437
1470291180.0 0.3457882128 0.9248806521
1475291150.0 0.3519806535 0.9219150558
1480291120.0 0.3579245818 0.9200653621
1485291090.0 0.3642230253 0.917704243
1490291060.0 0.3702408121 0.9154062653
1495291030.0 0.3754496834 0.9131330332
1500291000.0 0.3816052535 0.910474368
1505290970.0 0.3875101543 0.9080415563
1510290940.0 0.3930790081 0.9056794718
1515290910.0 0.3993324087 0.9033924513
1520290880.0 0.4050088839 0.9005330205
1525290850.0 0.4112616353 0.8977176864
1530290820.0 0.4168107064 0.894708011
1535290790.0 0.422500278 0.891756081
1540290760.0 0.4287964332 0.8895698806
1545290730.0 0.4344926631 0.8865486501
1550290700.0 0.4405051341 0.8834311535
1555290670.0 0.4457810802 0.8808337676
1560290640.0 0.4514000122 0.8776885897
1565290610.0 0.457606143 0.8749602589
1570290580.0 0.4629494446 0.8719376239
1575290550.0 0.4685534043 0.8693401339
1580290520.0 0.4746710935 0.8661914149
1585290490.0 0.4799474995 0.862791554
1590290460.0 0.4858914989 0.8592986563
1595290430.0 0.4916233452 0.8567068308
1600290400.0 0.4970331759 0.8530692124
1605290370.0 0.5018574789 0.8503431455
1610290340.0 0.5079018984 0.8469297675
1615290310.0 0.5132841126 0.8438320137
1620290280.0 0.5189012179 0.8400793919
1625290250.0 0.524275091 0.8374595171
1630290220.0 0.5293122845 0.8328715584
1635290190.0 0.5344077172 0.830588936
1640290160.0 0.5393194253 0.8271626752
1645290130.0 0.5450555268 0.8230061005
1650290100.0 0.5501173593 0.8191401922
1655290070.0 0.555954482 0.8160735881
1660290040.0 0.561592522 0.8120995288
1665290010.0 0.5659192331 0.8084208355
1670289980.0 0.5714904589 0.8052758693
1675289950.0 0.5764502619 0.8014928303
1680289920.0 0.5819545341 0.7976700797
1685289890.0 0.5869861024 0.7935389618
1690289860.0 0.5930085612 0.7894703707
1695289830.0 0.5980340411 0.7859236092
1700289800.0 0.6026433586 0.7817184229
1705289770.0 0.6081513519 0.778042529
1710289740.0 0.6132971592 0.7740415385
1715289710.0 0.6182933531 0.7702648613
1720289680.0 0.6226943096 0.7661255455
1725289650.0 0.6276571943 0.7623714148
1730289620.0 0.6328592783 0.7580282818
1735289590.0 0.6375750464 0.7544154004
1740289560.0 0.6423337315 0.7501347874
1745289530.0 0.6472804399 0.7462576689
1750289500.0 0.6521085884 0.7416853237
1755289470.0 0.6575601143 0.7370523865
1760289440.0 0.6614903674 0.7330173147
1765289410.0 0.6664787225 0.7291837793
1770289380.0 0.6709483377 0.7246437188
1775289350.0 0.6760733324 0.7208436917
1780289320.0 0.6805271942 0.716264489
1785289290.0 0.6853586632 0.711753118
1790289260.0 0.6898156906 0.7069291541
1795289230.0 0.6949271732 0.70237409
1800289200.0 0.6991523097 0.6986230352
1805289170.0 0.7038259625 0.6932130246
1810289140.0 0.7079987238 0.6886697311
1815289110.0 0.7122378977 0.6845349151
1820289080.0 0.7162700236 0.6798856865
1825289050.0 0.7211348311 0.6758339014
1830289020.0 0.7246650861 0.67082134
1835288990.0 0.7293812391 0.6666043601
1840288960.0 0.7331391312 0.6618326158
1845288930.0 0.7375594086 0.6572186166
1850288900.0 0.7417065487 0.6523849711
1855288870.0 0.7460435411 0.6471657183
1860288840.0 0.7502577736 0.6424291954
1865288810.0 0.7541327936 0.6374861488
1870288780.0 0.7590320322 0.6324691859
1875288750.0 0.763249566 0.6275234798
1880288720.0 0.7670052997 0.6223286054
1885288690.0 0.7712466939 0.6174437875
1890288660.0 0.775246721 0.6124243385
1895288630.0 0.7787999179 0.6075792704
1900288600.0 0.7834826552 0.6018140744
1905288570.0 0.7872010927 0.5973144926
1910288540.0 0.7906232746 0.5920912351
1915288510.0 0.7947327317 0.5869496523
1920288480.0 0.7985729272 0.5817750846
1925288450.0 0.8019999446 0.5765921888
1930288420.0 0.8065448092 0.5710316584
1935288390.0 0.8098749042 0.5657706886
1940288360.0 0.8141745656 0.5605276132
1945288330.0 0.8169768781 0.5558891281
1950288300.0 0.8208924217 0.5496260247
1955288270.0 0.8245533753 0.5443032414
1960288240.0 0.8282144922 0.5385836583
1965288210.0 0.8319587016 0.532888088
1970288180.0 0.8351842474 0.5282101003
1975288150.0 0.8382779746 0.5227289578
1980288120.0 0.8418133392 0.5174365048
1985288090.0 0.8446650435 0.5124534258
1990288060.0 0.8479119205 0.507152467
1995288030.0 0.8510738796 0.5016355504
2000288000.0 0.8541103664 0.4969039654
2005287970.0 0.8570333213 0.4915380314
2010287940.0 0.8610618437 0.48603154
2015287910.0 0.8636268578 0.4803609198
2020287880.0 0.8669994444 0.474791203
2025287850.0 0.8694497763 0.4694763654
2030287820.0 0.8727846579 0.4630666916
2035287790.0 0.875684799 0.4577258102
2040287760.0 0.8785415674 0.4522486665
2045287730.0 0.8814838943 0.446232531
2050287700.0 0.8843745884 0.440669524
2055287670.0 0.8870464506 0.4348995171
2060287640.0 0.8902448031 0.4295896917
2065287610.0 0.8928763188 0.423540195
2070287580.0 0.8955801571 0.4177797725
2075287550.0 0.8981249181 0.4115989977
2080287520.0 0.9009820733 0.4064017625
2085287490.0 0.9039438935 0.4004659143
2090287460.0 0.9062385446 0.3943521828
2095287430.0 0.9083190064 0.3884773163
2100287400.0 0.910808998 0.3826104177
2105287370.0 0.9140137455 0.3765226905
2110287340.0 0.9159638196 0.3708068645
2115287310.0 0.9183814114 0.3643031288
2120287280.0 0.920836344 0.3588941955
2125287250.0 0.9232085078 0.3533098039
2130287220.0 0.9256426849 0.3468316973
2135287190.0 0.9282235532 0.341166429
2140287160.0 0.9300400348 0.3342675346
2145287130.0 0.9320097612 0.3284181038
2150287100.0 0.9344038798 0.3229593349
2155287070.0 0.9361028604 0.3170546838
2160287040.0 0.9378545946 0.3113276512
2165287010.0 0.9402112958 0.3047977524
2170286980.0 0.9425639576 0.2994315658
2175286950.0 0.944350452 0.2928146449
2180286920.0 0.9463319573 0.2872615511
2185286890.0 0.9481460865 0.281564994
2190286860.0 0.9493570919 0.2754718159
2195286830.0 0.9513261916 0.2699053698
2200286800.0 0.9529499498 0.2632190293
2205286770.0 0.9542742984 0.2572944467
2210286740.0 0.9564207246 0.251379768
2215286710.0 0.957952155 0.2452494661
2220286680.0 0.9594612631 0.2389450682
2225286650.0 0.9609127874 0.2327990016
2230286620.0 0.9622310142 0.2264806726
2235286590.0 0.9638355257 0.219601384
2240286560.0 0.9652719275 0.2143037379
2245286530.0 0.9668832903 0.2075466867
2250286500.0 0.9676720332 0.2009545126
2255286470.0 0.9696577067 0.1945325378
2260286440.0 0.9706529142 0.1884903237
2265286410.0 0.9714524014 0.1819109294
2270286380.0 0.9729336278 0.1762626729
2275286350.0 0.9739431327 0.1695470851
2280286320.0 0.9751692931 0.1636828361
2285286290.0 0.9763764013 0.1569646735
2290286260.0 0.9770785577 0.1502138673
2295286230.0 0.9776128139 0.1445987272
2300286200.0 0.9788204319 0.1383414967
2305286170.0 0.9801047187 0.131769183
2310286140.0 0.9804391478 0.1257902196
2315286110.0 0.9815296097 0.1187354898
2320286080.0 0.9823356796 0.112848122
2325286050.0 0.9830040237 0.1066709279
2330286020.0 0.9840445859 0.1004149337
2335285990.0 0.9842116843 0.0941216713
2340285960.0 0.984778891 0.0877852302
2345285930.0 0.9849778195 0.0813568685
2350285900.0 0.9855330077 0.074712897
2355285870.0 0.9861555966 0.0687034048
2360285840.0 0.9866379673 0.0623022331
2365285810.0 0.9865326655 0.0552095455
2370285780.0 0.9874166303 0.0496813367
2375285750.0 0.9877335018 0.0434012538
2380285720.0 0.988113388 0.0369329507
2385285690.0 0.9881177139 0.0309531875
2390285660.0 0.9883350243 0.0240109558
2395285630.0 0.988585876 0.0179289304
2400285600.0 0.9887709785 0.0118500504
2405285570.0 0.9884462364 0.0053084776
2410285540.0 0.9885821556 -0.0012003242
2415285510.0 0.988244983 -0.0068005129
2420285480.0 0.9881102531 -0.0133840629
2425285450.0 0.9884175596 -0.0197354381
2430285420.0 0.9880509303 -0.0256269522
2435285390.0 0.98778548 -0.0325500679
2440285360.0 0.9879893498 -0.0386767163
2445285330.0 0.9875217035 -0.044883767
2450285300.0 0.9869974638 -0.051372196
2455285270.0 0.9870053486 -0.0575703478
2460285240.0 0.986054419 -0.0641732498
2465285210.0 0.9854500023 -0.0703601286
2470285180.0 0.9849755679 -0.0771658015
2475285150.0 0.984677853 -0.0832194352
2480285120.0 0.9840348952 -0.0898123903
2485285090.0 0.9832230243 -0.096416045
2490285060.0 0.9829824988 -0.1022518591
2495285030.0 0.982090053 -0.1086616264
2500285000.0 0.9814376249 -0.1159465895
2505284970.0 0.9805875118 -0.1222209145
2510284940.0 0.979808906 -0.1283264943
2515284910.0 0.9785589575 -0.1347509359
2520284880.0 0.9783093477 -0.1406474098
2525284850.0 0.9771121777 -0.1470342202
2530284820.0 0.9759014987 -0.1531603301
2535284790.0 0.9744917345 -0.1596730653
2540284760.0 0.9739564212 -0.1656120687
2545284730.0 0.9729330116 -0.1715761751
2550284700.0 0.9719124607 -0.1778340154
2555284670.0 0.9705105156 -0.1847366825
