!Created with skrf (http://scikit-rf.org).
# Hz S RI R 50.0 
!freq ReS11 ImS11
45000000.0 0.06962203979492188 0.08721160888671875
49995500.0 0.08843231201171875 0.08710098266601562
54991000.0 0.10875320434570312 0.08322906494140625
59986500.0 0.12769317626953125 0.0849151611328125
64982000.0 0.148712158203125 0.07855224609375
69977500.0 0.1701507568359375 0.06634521484375
74973000.0 0.19068145751953125 0.0499725341796875
79968500.0 0.20946502685546875 0.02927398681640625
84964000.0 0.22592926025390625 0.0045013427734375
89959500.0 0.23886871337890625 -0.02374267578125
94955000.0 0.2471160888671875 -0.05521392822265625
99950500.0 0.2506866455078125 -0.0892181396484375
104946000.0 0.2496185302734375 -0.12514495849609375
109941500.0 0.2427825927734375 -0.16086578369140625
114937000.0 0.23038482666015625 -0.19725799560546875
119932500.0 0.21244049072265625 -0.23207855224609375
124928000.0 0.19024658203125 -0.2654266357421875
129923500.0 0.162750244140625 -0.2958221435546875
134919000.0 0.13067626953125 -0.323577880859375
139914500.0 0.0943145751953125 -0.3477935791015625
144910000.0 0.0543212890625 -0.3676910400390625
149905500.0 0.0110626220703125 -0.3833465576171875
154901000.0 -0.0347442626953125 -0.3935699462890625
159896500.0 -0.0824432373046875 -0.39837646484375
164892000.0 -0.1318511962890625 -0.3972320556640625
169887500.0 -0.1823883056640625 -0.3898468017578125
174883000.0 -0.2327880859375 -0.3765106201171875
179878500.0 -0.2823486328125 -0.3563385009765625
184874000.0 -0.3305206298828125 -0.3293609619140625
189869500.0 -0.3762054443359375 -0.2955322265625
194865000.0 -0.418487548828125 -0.2559661865234375
199860500.0 -0.45611572265625 -0.21038818359375
204856000.0 -0.4881744384765625 -0.1588134765625
209851500.0 -0.514190673828125 -0.10308837890625
214847000.0 -0.533935546875 -0.043212890625
219842500.0 -0.546539306640625 0.0201416015625
224838000.0 -0.550689697265625 0.08465576171875
229833500.0 -0.547607421875 0.150665283203125
234829000.0 -0.536163330078125 0.216033935546875
239824500.0 -0.517120361328125 0.2811279296875
244820000.0 -0.4905242919921875 0.344024658203125
249815500.0 -0.4561767578125 0.404022216796875
254811000.0 -0.4379730224609375 0.448028564453125
259806500.0 -0.393280029296875 0.50274658203125
264802000.0 -0.341766357421875 0.55328369140625
269797500.0 -0.283599853515625 0.599090576171875
274793000.0 -0.219940185546875 0.638092041015625
279788500.0 -0.150665283203125 0.671112060546875
284784000.0 -0.0767822265625 0.69671630859375
289779500.0 0.0013427734375 0.714263916015625
294775000.0 0.083099365234375 0.723480224609375
299770500.0 0.167083740234375 0.72308349609375
304766000.0 0.252593994140625 0.7130126953125
309761500.0 0.338409423828125 0.692138671875
314757000.0 0.423095703125 0.659881591796875
319752500.0 0.504913330078125 0.616546630859375
324748000.0 0.58258056640625 0.562530517578125
329743500.0 0.6544189453125 0.49871826171875
334739000.0 0.719085693359375 0.42449951171875
339734500.0 0.77459716796875 0.34112548828125
344730000.0 0.819732666015625 0.250518798828125
349725500.0 0.853607177734375 0.154083251953125
354721000.0 0.875213623046875 0.05340576171875
359716500.0 0.883636474609375 -0.049560546875
364712000.0 0.87969970703125 -0.15423583984375
369707500.0 0.862762451171875 -0.257171630859375
374703000.0 0.83380126953125 -0.358428955078125
379698500.0 0.79327392578125 -0.45574951171875
384694000.0 0.7415771484375 -0.547821044921875
389689500.0 0.679473876953125 -0.633209228515625
394685000.0 0.6080322265625 -0.711578369140625
399680500.0 0.52886962890625 -0.78192138671875
404676000.0 0.441619873046875 -0.843963623046875
409671500.0 0.347930908203125 -0.898529052734375
414667000.0 0.248626708984375 -0.939483642578125
419662500.0 0.143829345703125 -0.971923828125
424658000.0 0.0341796875 -0.99298095703125
429653500.0 -0.0797119140625 -1.0023193359375
434649000.0 -0.196319580078125 -0.996795654296875
439644500.0 -0.311798095703125 -0.978851318359375
444640000.0 -0.42633056640625 -0.94818115234375
449635500.0 -0.538665771484375 -0.90460205078125
454631000.0 -0.6488037109375 -0.847259521484375
459626500.0 -0.754364013671875 -0.774505615234375
464622000.0 -0.851409912109375 -0.6868896484375
469617500.0 -0.937255859375 -0.58551025390625
474613000.0 -1.0103759765625 -0.47283935546875
479608500.0 -1.06866455078125 -0.34954833984375
484604000.0 -1.11029052734375 -0.218505859375
489599500.0 -1.134033203125 -0.08251953125
494595000.0 -1.1396484375 0.055419921875
499590500.0 -1.12652587890625 0.1920166015625
504586000.0 -1.095947265625 0.32476806640625
509581500.0 -1.04901123046875 0.45025634765625
514577000.0 -0.987823486328125 0.567626953125
519572500.0 -0.913909912109375 0.67388916015625
524568000.0 -0.830474853515625 0.76910400390625
529563500.0 -0.739990234375 0.852783203125
534559000.0 -0.644012451171875 0.925750732421875
539554500.0 -0.544036865234375 0.988739013671875
544550000.0 -0.44000244140625 1.04302978515625
549545500.0 -0.33154296875 1.08892822265625
554541000.0 -0.216796875 1.1265869140625
559536500.0 -0.098876953125 1.15472412109375
564532000.0 0.02520751953125 1.17138671875
569527500.0 0.15338134765625 1.17547607421875
574523000.0 0.2843017578125 1.16571044921875
579518500.0 0.416015625 1.14129638671875
584514000.0 0.5474853515625 1.10174560546875
589509500.0 0.6761474609375 1.04656982421875
594505000.0 0.801116943359375 0.97515869140625
599500500.0 0.919097900390625 0.88800048828125
604496000.0 1.02880859375 0.7845458984375
609491500.0 1.1268310546875 0.6668701171875
614487000.0 1.21148681640625 0.53424072265625
619482500.0 1.279541015625 0.38995361328125
624478000.0 1.328857421875 0.235595703125
629473500.0 1.358154296875 0.07470703125
634469000.0 1.36492919921875 -0.0906982421875
639464500.0 1.3497314453125 -0.25592041015625
644460000.0 1.31243896484375 -0.4178466796875
649455500.0 1.2540283203125 -0.572998046875
654451000.0 1.17669677734375 -0.718505859375
659446500.0 1.08203125 -0.8515625
664442000.0 0.97320556640625 -0.969970703125
669437500.0 0.85247802734375 -1.0732421875
674433000.0 0.72247314453125 -1.1600341796875
679428500.0 0.58538818359375 -1.2305908203125
684424000.0 0.44403076171875 -1.2841796875
689419500.0 0.29974365234375 -1.3223876953125
694415000.0 0.15423583984375 -1.344970703125
699410500.0 0.00885009765625 -1.3533935546875
704406000.0 -0.1353759765625 -1.34771728515625
709401500.0 -0.27801513671875 -1.32861328125
714397000.0 -0.4183349609375 -1.29638671875
719392500.0 -0.55596923828125 -1.2513427734375
724388000.0 -0.68975830078125 -1.1934814453125
729383500.0 -0.81964111328125 -1.12225341796875
734379000.0 -0.94366455078125 -1.03668212890625
739374500.0 -1.06121826171875 -0.9376220703125
744370000.0 -1.17010498046875 -0.8240966796875
749365500.0 -1.26947021484375 -0.6976318359375
754361000.0 -1.3558349609375 -0.5562744140625
759356500.0 -1.42669677734375 -0.402099609375
764352000.0 -1.48040771484375 -0.23675537109375
769347500.0 -1.5135498046875 -0.061767578125
774343000.0 -1.5244140625 0.1195068359375
779338500.0 -1.5111083984375 0.3037109375
784334000.0 -1.47412109375 0.48675537109375
789329500.0 -1.4093017578125 0.664794921875
794325000.0 -1.32220458984375 0.8330078125
799320500.0 -1.21319580078125 0.98760986328125
804316000.0 -1.08514404296875 1.1253662109375
809311500.0 -0.94146728515625 1.243896484375
814307000.0 -0.7861328125 1.34185791015625
819302500.0 -0.62237548828125 1.4178466796875
824298000.0 -0.45269775390625 1.47235107421875
829293500.0 -0.28271484375 1.50689697265625
834289000.0 -0.11187744140625 1.5203857421875
839284500.0 0.054443359375 1.515869140625
844280000.0 0.15771484375 1.52398681640625
849275500.0 0.31854248046875 1.49444580078125
854271000.0 0.47515869140625 1.45001220703125
859266500.0 0.62408447265625 1.39111328125
864262000.0 0.7672119140625 1.3182373046875
869257500.0 0.902587890625 1.23284912109375
874253000.0 1.02935791015625 1.13458251953125
879248500.0 1.14788818359375 1.025390625
884244000.0 1.2559814453125 0.90374755859375
889239500.0 1.35321044921875 0.77178955078125
894235000.0 1.4384765625 0.62896728515625
899230500.0 1.51226806640625 0.4757080078125
904226000.0 1.5716552734375 0.3116455078125
909221500.0 1.6138916015625 0.1365966796875
914217000.0 1.63616943359375 -0.046630859375
919212500.0 1.6365966796875 -0.23590087890625
924208000.0 1.61309814453125 -0.42852783203125
929203500.0 1.56402587890625 -0.6190185546875
934199000.0 1.49053955078125 -0.80419921875
939194500.0 1.391845703125 -0.9808349609375
944190000.0 1.26971435546875 -1.14404296875
949185500.0 1.12701416015625 -1.28912353515625
954181000.0 0.96685791015625 -1.4141845703125
959176500.0 0.79248046875 -1.51641845703125
964172000.0 0.60784912109375 -1.5955810546875
969167500.0 0.4173583984375 -1.65020751953125
974163000.0 0.22406005859375 -1.68023681640625
979158500.0 0.0316162109375 -1.68768310546875
984154000.0 -0.15631103515625 -1.672607421875
989149500.0 -0.339111328125 -1.63800048828125
994145000.0 -0.5145263671875 -1.5845947265625
999140500.0 -0.6812744140625 -1.5157470703125
1004136000.0 -0.83819580078125 -1.42999267578125
1009131500.0 -0.98577880859375 -1.33135986328125
1014127000.0 -1.121826171875 -1.21942138671875
1019122500.0 -1.24725341796875 -1.094482421875
1024118000.0 -1.36029052734375 -0.95819091796875
1029113500.0 -1.46051025390625 -0.81011962890625
1034109000.0 -1.54669189453125 -0.65142822265625
1039104500.0 -1.616943359375 -0.4827880859375
1044100000.0 -1.67083740234375 -0.30511474609375
1049095500.0 -1.70587158203125 -0.1192626953125
1054091000.0 -1.72076416015625 0.072509765625
1059086500.0 -1.71319580078125 0.26837158203125
1064082000.0 -1.68243408203125 0.464111328125
1069077500.0 -1.6279296875 0.65924072265625
1074073000.0 -1.54827880859375 0.84765625
1079068500.0 -1.445068359375 1.02783203125
1084064000.0 -1.318603515625 1.19378662109375
1089059500.0 -1.17095947265625 1.34344482421875
1094055000.0 -1.0052490234375 1.47332763671875
1099050500.0 -0.82403564453125 1.580322265625
1104046000.0 -0.63226318359375 1.66278076171875
1109041500.0 -0.432861328125 1.7198486328125
1114037000.0 -0.23004150390625 1.751708984375
1119032500.0 -0.0277099609375 1.75836181640625
1124028000.0 0.17138671875 1.74127197265625
1129023500.0 0.3648681640625 1.70245361328125
1134019000.0 0.54931640625 1.64251708984375
1139014500.0 0.72344970703125 1.564453125
1144010000.0 0.88629150390625 1.46923828125
1149005500.0 1.03656005859375 1.35870361328125
1154001000.0 1.17315673828125 1.23504638671875
1158996500.0 1.2958984375 1.09930419921875
1163992000.0 1.4046630859375 0.9530029296875
1168987500.0 1.4971923828125 0.79644775390625
1173983000.0 1.57391357421875 0.63287353515625
1178978500.0 1.6334228515625 0.4609375
1183974000.0 1.6767578125 0.28363037109375
1188969500.0 1.70184326171875 0.1016845703125
1193965000.0 1.70806884765625 -0.0828857421875
1198960500.0 1.69482421875 -0.2685546875
1203956000.0 1.6614990234375 -0.45391845703125
1208951500.0 1.607666015625 -0.63665771484375
1213947000.0 1.53363037109375 -0.8140869140625
1218942500.0 1.4393310546875 -0.983642578125
1223938000.0 1.32537841796875 -1.1435546875
1228933500.0 1.1925048828125 -1.28997802734375
1233929000.0 1.042236328125 -1.4207763671875
1238924500.0 0.8768310546875 -1.5347900390625
1243920000.0 0.69793701171875 -1.62835693359375
1248915500.0 0.50872802734375 -1.70068359375
1253911000.0 0.311767578125 -1.74896240234375
1258906500.0 0.10968017578125 -1.77392578125
1263902000.0 -0.09381103515625 -1.77545166015625
1268897500.0 -0.2974853515625 -1.7540283203125
1273893000.0 -0.49224853515625 -1.7061767578125
1278888500.0 -0.680908203125 -1.63787841796875
1283884000.0 -0.86029052734375 -1.5489501953125
1288879500.0 -1.02728271484375 -1.43951416015625
1293875000.0 -1.1796875 -1.31280517578125
1298870500.0 -1.3170166015625 -1.1700439453125
1303866000.0 -1.43695068359375 -1.01434326171875
1308861500.0 -1.5379638671875 -0.8470458984375
1313857000.0 -1.61968994140625 -0.66912841796875
1318852500.0 -1.681396484375 -0.4847412109375
1323848000.0 -1.72161865234375 -0.29400634765625
1328843500.0 -1.74102783203125 -0.10211181640625
1333839000.0 -1.7386474609375 0.09063720703125
1338834500.0 -1.71533203125 0.28204345703125
1343830000.0 -1.67156982421875 0.467529296875
1348825500.0 -1.60809326171875 0.64825439453125
1353821000.0 -1.525146484375 0.81982421875
1358816500.0 -1.4248046875 0.9815673828125
1363812000.0 -1.30731201171875 1.1304931640625
1368807500.0 -1.1751708984375 1.26593017578125
1373803000.0 -1.02960205078125 1.38616943359375
1378798500.0 -0.8719482421875 1.4898681640625
1383794000.0 -0.70440673828125 1.57684326171875
1388789500.0 -0.5281982421875 1.644775390625
1393785000.0 -0.34576416015625 1.6942138671875
1398780500.0 -0.157958984375 1.72418212890625
1403776000.0 0.032470703125 1.734130859375
1408771500.0 0.22320556640625 1.72314453125
1413767000.0 0.4127197265625 1.69158935546875
1418762500.0 0.59918212890625 1.63916015625
1423758000.0 0.78045654296875 1.56634521484375
1428753500.0 0.953857421875 1.472900390625
1433749000.0 1.11688232421875 1.359375
1438744500.0 1.26629638671875 1.2266845703125
1443740000.0 1.40057373046875 1.0762939453125
1448735500.0 1.51702880859375 0.9095458984375
1453731000.0 1.61273193359375 0.7288818359375
1458726500.0 1.68560791015625 0.53765869140625
1463722000.0 1.73492431640625 0.338134765625
1468717500.0 1.7574462890625 0.13507080078125
1473713000.0 1.756103515625 -0.069580078125
1478708500.0 1.72906494140625 -0.27044677734375
1483704000.0 1.6778564453125 -0.46514892578125
1488699500.0 1.60400390625 -0.6490478515625
1493695000.0 1.5101318359375 -0.82098388671875
1498690500.0 1.3980712890625 -0.977783203125
1503686000.0 1.2708740234375 -1.11883544921875
1508681500.0 1.131591796875 -1.2425537109375
1513677000.0 0.98260498046875 -1.34759521484375
1518672500.0 0.825439453125 -1.43505859375
1523668000.0 0.663330078125 -1.5047607421875
1528663500.0 0.4970703125 -1.556884765625
1533659000.0 0.32891845703125 -1.592041015625
1538654500.0 0.16046142578125 -1.61077880859375
1543650000.0 -0.0079345703125 -1.613525390625
1548645500.0 -0.17523193359375 -1.6002197265625
1553641000.0 -0.34002685546875 -1.57183837890625
1558636500.0 -0.50152587890625 -1.52789306640625
1563632000.0 -0.65863037109375 -1.46820068359375
1568627500.0 -0.81060791015625 -1.39276123046875
1573623000.0 -0.95556640625 -1.302734375
1578618500.0 -1.091552734375 -1.1966552734375
1583614000.0 -1.21820068359375 -1.075927734375
1588609500.0 -1.33154296875 -0.9405517578125
1593605000.0 -1.431396484375 -0.791259765625
1598600500.0 -1.51409912109375 -0.6304931640625
1603596000.0 -1.5787353515625 -0.45941162109375
1608591500.0 -1.623291015625 -0.2803955078125
1613587000.0 -1.6458740234375 -0.09613037109375
1618582500.0 -1.6463623046875 0.08978271484375
1623578000.0 -1.6239013671875 0.2745361328125
1628573500.0 -1.57940673828125 0.45440673828125
1633569000.0 -1.5137939453125 0.626953125
1638564500.0 -1.429443359375 0.7891845703125
1643560000.0 -1.32684326171875 0.9384765625
1648555500.0 -1.2093505859375 1.07354736328125
1653551000.0 -1.07958984375 1.19281005859375
1658546500.0 -0.93951416015625 1.29547119140625
1663542000.0 -0.79132080078125 1.38165283203125
1668537500.0 -0.637451171875 1.450439453125
1673533000.0 -0.4794921875 1.5028076171875
1678528500.0 -0.31878662109375 1.53973388671875
1683524000.0 -0.157470703125 1.560546875
1688519500.0 0.0042724609375 1.56591796875
1693515000.0 0.16583251953125 1.5567626953125
1698510500.0 0.3258056640625 1.53277587890625
1703506000.0 0.484130859375 1.49395751953125
1708501500.0 0.63824462890625 1.4407958984375
1713497000.0 0.78839111328125 1.372802734375
1718492500.0 0.93341064453125 1.28887939453125
1723488000.0 1.07232666015625 1.1890869140625
1728483500.0 1.2027587890625 1.07342529296875
1733479000.0 1.3221435546875 0.94232177734375
1738474500.0 1.42791748046875 0.794677734375
1743470000.0 1.5181884765625 0.63330078125
1748465500.0 1.58935546875 0.45849609375
1753461000.0 1.638671875 0.27325439453125
1758456500.0 1.66424560546875 0.0814208984375
1763452000.0 1.66461181640625 -0.114013671875
1768447500.0 1.63897705078125 -0.30810546875
1773443000.0 1.588134765625 -0.4969482421875
1778438500.0 1.513671875 -0.67645263671875
1783434000.0 1.41717529296875 -0.84228515625
1788429500.0 1.30242919921875 -0.99267578125
1793425000.0 1.1722412109375 -1.12493896484375
1798420500.0 1.03045654296875 -1.23834228515625
1803416000.0 0.87969970703125 -1.33160400390625
1808411500.0 0.7237548828125 -1.40643310546875
1813407000.0 0.5645751953125 -1.46307373046875
1818402500.0 0.4039306640625 -1.5025634765625
1823398000.0 0.24383544921875 -1.52618408203125
1828393500.0 0.08526611328125 -1.53424072265625
1833389000.0 -0.07177734375 -1.52801513671875
1838384500.0 -0.225830078125 -1.5081787109375
1843380000.0 -0.377685546875 -1.4755859375
1848375500.0 -0.52618408203125 -1.43017578125
1853371000.0 -0.66961669921875 -1.371337890625
1858366500.0 -0.80950927734375 -1.299072265625
1863362000.0 -0.94390869140625 -1.2132568359375
1868357500.0 -1.0716552734375 -1.11358642578125
1873353000.0 -1.1907958984375 -0.999267578125
1878348500.0 -1.30047607421875 -0.87091064453125
1883344000.0 -1.39691162109375 -0.7275390625
1888339500.0 -1.47723388671875 -0.57177734375
1893335000.0 -1.54083251953125 -0.40380859375
1898330500.0 -1.58392333984375 -0.22705078125
1903326000.0 -1.6044921875 -0.0433349609375
1908321500.0 -1.601318359375 0.142822265625
1913317000.0 -1.573486328125 0.32781982421875
1918312500.0 -1.52197265625 0.507568359375
1923308000.0 -1.447998046875 0.6781005859375
1928303500.0 -1.3531494140625 0.8360595703125
1933299000.0 -1.24066162109375 0.97930908203125
1938294500.0 -1.113525390625 1.1043701171875
1943290000.0 -0.97515869140625 1.21124267578125
1948285500.0 -0.82861328125 1.29974365234375
1953281000.0 -0.67657470703125 1.369384765625
1958276500.0 -0.521484375 1.42156982421875
1963272000.0 -0.365478515625 1.45654296875
1968267500.0 -0.20947265625 1.47589111328125
1973263000.0 -0.0560302734375 1.47918701171875
1978258500.0 0.09588623046875 1.46893310546875
1983254000.0 0.244384765625 1.44549560546875
1988249500.0 0.38861083984375 1.40789794921875
1993245000.0 0.52880859375 1.3582763671875
1998240500.0 0.66455078125 1.29644775390625
2003236000.0 0.793212890625 1.2215576171875
2008231500.0 0.91619873046875 1.13446044921875
2013227000.0 1.02996826171875 1.03515625
2018222500.0 1.13531494140625 0.92327880859375
2023218000.0 1.229248046875 0.801025390625
2028213500.0 1.3106689453125 0.66778564453125
2033209000.0 1.37774658203125 0.5255126953125
2038204500.0 1.42974853515625 0.37396240234375
2043200000.0 1.4647216796875 0.21685791015625
2048195500.0 1.48089599609375 0.056396484375
2053191000.0 1.478515625 -0.10589599609375
2058186500.0 1.45721435546875 -0.266357421875
2063182000.0 1.41802978515625 -0.42327880859375
2068177500.0 1.361083984375 -0.57379150390625
2073173000.0 1.28778076171875 -0.71600341796875
2078168500.0 1.19964599609375 -0.847900390625
2083164000.0 1.09906005859375 -0.9686279296875
2088159500.0 0.9866943359375 -1.0760498046875
2093155000.0 0.865234375 -1.1710205078125
2098150500.0 0.7359619140625 -1.25201416015625
2103146000.0 0.6005859375 -1.31903076171875
2108141500.0 0.45989990234375 -1.3724365234375
2113137000.0 0.31597900390625 -1.41156005859375
2118132500.0 0.1693115234375 -1.43695068359375
2123128000.0 0.02093505859375 -1.44775390625
2128123500.0 -0.128662109375 -1.44598388671875
2133119000.0 -0.278076171875 -1.42889404296875
2138114500.0 -0.42596435546875 -1.39801025390625
2143110000.0 -0.572265625 -1.35223388671875
2148105500.0 -0.7154541015625 -1.291015625
2153101000.0 -0.8529052734375 -1.21502685546875
2158096500.0 -0.983642578125 -1.12310791015625
2163092000.0 -1.10638427734375 -1.015869140625
2168087500.0 -1.21783447265625 -0.89422607421875
2173083000.0 -1.316162109375 -0.75823974609375
2178078500.0 -1.39910888671875 -0.60980224609375
2183074000.0 -1.46343994140625 -0.45062255859375
2188069500.0 -1.50933837890625 -0.2840576171875
