!Created with skrf (http://scikit-rf.org).
# Hz S RI R 50.0 
!freq ReS11 ImS11
300000.0 -0.0052225215 -0.043331974
5299970.0 0.0007919948 -0.0004145696
10299940.0 0.0010880701 -0.000647667
15299910.0 0.0012542608 0.0007193211
20299880.0 0.0013857105 0.0001233548
25299850.0 0.0013756975 0.0004109178
30299820.0 0.0014884724 0.0008255754
35299790.0 0.0015075782 0.0005013488
40299760.0 0.0015175633 0.0005412049
45299730.0 0.0017934068 0.0007155437
50299700.0 0.0018360216 0.0008070198
55299670.0 0.0017878808 0.0009996738
60299640.0 0.0017426109 0.0009567247
65299610.0 0.0016800396 0.001072129
70299580.0 0.0018547454 0.0007631827
75299550.0 0.0018261491 0.0008654059
80299520.0 0.0018600068 0.0010125244
85299490.0 0.0020473215 0.000959851
90299460.0 0.002146998 0.0009962161
95299430.0 0.0020257054 0.0011712402
100299400.0 0.002224378 0.0012392227
105299370.0 0.0025038494 0.0010110213
110299340.0 0.0023916321 0.00133557
115299310.0 0.002541982 0.0014762446
120299280.0 0.0023185622 0.0012619769
125299250.0 0.0024485788 0.0012222239
130299220.0 0.002315702 0.0015540168
135299190.0 0.0024204443 0.0015798221
140299160.0 0.0025290254 0.0015545781
145299130.0 0.0024738897 0.0015146328
150299100.0 0.0027267353 0.001391357
155299070.0 0.0027943191 0.0013447696
160299040.0 0.00267176 0.0016641573
165299010.0 0.0026018749 0.0016911129
170298980.0 0.0027693495 0.0017584535
175298950.0 0.0027571102 0.0014926857
180298920.0 0.0026542631 0.0018109858
185298890.0 0.002671065 0.0016486342
190298860.0 0.0030106682 0.0017755153
195298830.0 0.0030447371 0.0017120055
200298800.0 0.0031945334 0.0018097214
205298770.0 0.0031329373 0.0017853095
210298740.0 0.0031987169 0.0017688823
215298710.0 0.0032045492 0.0018907901
220298680.0 0.0032345678 0.001679728
225298650.0 0.0031551677 0.0017003006
230298620.0 0.0033398508 0.0016929853
235298590.0 0.0033077811 0.0017351399
240298560.0 0.0032679772 0.0016719712
245298530.0 0.003470496 0.001661707
250298500.0 0.003400615 0.0018207326
255298470.0 0.0034119131 0.0016902257
260298440.0 0.0035544308 0.0018049549
265298410.0 0.0034998153 0.0018363099
270298380.0 0.0035435261 0.0017581717
275298350.0 0.0034068677 0.0017550388
280298320.0 0.0035810482 0.0016880693
285298290.0 0.00362799 0.0017002347
290298260.0 0.003914286 0.0017765158
295298230.0 0.0039138842 0.0017582264
300298200.0 0.0039627953 0.0019488768
305298170.0 0.00369975 0.0018248617
310298140.0 0.0037422928 0.0016036985
315298110.0 0.0040266447 0.0018557771
320298080.0 0.0039811069 0.0017038953
325298050.0 0.0040471523 0.0016836368
330298020.0 0.0041172856 0.0017298871
335297990.0 0.0040251324 0.0017940223
340297960.0 0.0041797206 0.0018139191
345297930.0 0.0042967547 0.0017000246
350297900.0 0.0044865765 0.0016747717
355297870.0 0.0043591743 0.0014952055
360297840.0 0.0045949224 0.0013176553
365297810.0 0.0045912879 0.0014432088
370297780.0 0.0045271774 0.001636022
375297750.0 0.0045361524 0.0016211643
380297720.0 0.0043381084 0.0017399686
385297690.0 0.004633567 0.0016623729
390297660.0 0.0046060108 0.0016402967
395297630.0 0.0046051793 0.001653765
400297600.0 0.0046725926 0.0015225339
405297570.0 0.0046719423 0.0016099741
410297540.0 0.0045711201 0.0016475166
415297510.0 0.0048645166 0.00182978
420297480.0 0.0048061124 0.001449395
425297450.0 0.0047531754 0.0014930749
430297420.0 0.0049816371 0.0016500009
435297390.0 0.0048462176 0.0015573535
440297360.0 0.0048126677 0.0012285278
445297330.0 0.0050842604 0.0014115621
450297300.0 0.0049054076 0.0013871129
455297270.0 0.0048678439 0.0013112528
460297240.0 0.0050704222 0.0012569981
465297210.0 0.0051997625 0.0011677679
470297180.0 0.0052322592 0.0014775472
475297150.0 0.005060303 0.0013508603
480297120.0 0.0048909223 0.0013476414
485297090.0 0.0051614784 0.0014819041
490297060.0 0.0053408135 0.0012292202
495297030.0 0.005251929 0.0009904024
500297000.0 0.0051199538 0.0012160631
505296970.0 0.0053360414 0.0012332113
510296940.0 0.0052538208 0.0011009438
515296910.0 0.0051857344 0.0011077497
520296880.0 0.005339635 0.0011201201
525296850.0 0.0052124896 0.001143096
530296820.0 0.0054335312 0.0010802495
535296790.0 0.005345703 0.0010207087
540296760.0 0.0052597655 0.0009962237
545296730.0 0.0053902935 0.0009765935
550296700.0 0.0053960617 0.0008286066
555296670.0 0.0054415987 0.0008059614
560296640.0 0.0055923618 0.0008557334
565296610.0 0.0056034947 0.0008250094
570296580.0 0.0057249674 0.0008037776
575296550.0 0.0056234714 0.0007075879
580296520.0 0.0056990427 0.0005114587
585296490.0 0.0056232239 0.0006632195
590296460.0 0.0059884967 0.000524138
595296430.0 0.005823416 0.000568492
600296400.0 0.0057855273 0.0004215249
605296370.0 0.0059764469 0.0004877199
610296340.0 0.0058408159 0.0004815207
615296310.0 0.0057927597 0.0003138218
620296280.0 0.0058244393 0.0004431204
625296250.0 0.0058684389 0.0002386494
630296220.0 0.0057534601 0.0003448781
635296190.0 0.0057553219 0.0002137691
640296160.0 0.0058957136 0.0003547314
645296130.0 0.0059191796 0.0001369808
650296100.0 0.0058153757 0.000215206
655296070.0 0.0060933223 8.24255e-05
660296040.0 0.0059467134 -2.37282e-05
665296010.0 0.0059665203 0.0001781145
670295980.0 0.0058683209 -6.85568e-05
675295950.0 0.0060662277 -8.51343e-05
680295920.0 0.0061778253 -7.27577e-05
685295890.0 0.0060134887 -0.0002607811
690295860.0 0.0059529755 -0.0003225413
695295830.0 0.0058735862 -0.0003191763
700295800.0 0.0058345718 -0.000149952
705295770.0 0.006136786 -0.0002900531
710295740.0 0.0061232764 -0.0001904202
715295710.0 0.0061472126 -0.0003188316
720295680.0 0.0061896795 -0.0003111773
725295650.0 0.006051634 -0.0004139664
730295620.0 0.0062579682 -0.000469386
735295590.0 0.0062673806 -0.0004316863
740295560.0 0.0060993127 -0.0003691846
745295530.0 0.0063953682 -0.0004413162
750295500.0 0.0061424907 -0.0007021338
755295470.0 0.0063913371 -0.0004634124
760295440.0 0.0061816632 -0.0006744808
765295410.0 0.0062223568 -0.0009315845
770295380.0 0.006459398 -0.001039092
775295350.0 0.0061068228 -0.0008294513
780295320.0 0.0062550702 -0.0010190768
785295290.0 0.0063864941 -0.0012131947
790295260.0 0.0063434929 -0.0009430559
795295230.0 0.0063997343 -0.000935022
800295200.0 0.0061915066 -0.0010998138
805295170.0 0.0063505698 -0.0011000216
810295140.0 0.0061937471 -0.001335944
815295110.0 0.0062482884 -0.0013477283
820295080.0 0.0063229953 -0.0014227592
825295050.0 0.0061769213 -0.0014379958
830295020.0 0.0063839832 -0.0013166107
835294990.0 0.0066418901 -0.0015393443
840294960.0 0.0063279883 -0.0016964519
845294930.0 0.0065491548 -0.0016378085
850294900.0 0.0065186824 -0.0016336013
855294870.0 0.0065833608 -0.0016815119
860294840.0 0.0064226326 -0.0015852109
865294810.0 0.0064072656 -0.0017757628
870294780.0 0.0065775162 -0.0017359875
875294750.0 0.0062721311 -0.0018080546
880294720.0 0.0064600791 -0.0019693027
885294690.0 0.0062299734 -0.0020127516
890294660.0 0.0064507568 -0.00181595
895294630.0 0.0064812457 -0.0018758062
900294600.0 0.0065399751 -0.0021667959
905294570.0 0.0065402315 -0.0022729177
910294540.0 0.0064371755 -0.0021147842
915294510.0 0.0065816581 -0.0022234474
920294480.0 0.0066663348 -0.0023885405
925294450.0 0.006472899 -0.0026073835
930294420.0 0.0064846889 -0.0025394961
935294390.0 0.0063984484 -0.0023597961
940294360.0 0.0064417653 -0.0022203261
945294330.0 0.0064434175 -0.002510421
950294300.0 0.0063760767 -0.0026480376
955294270.0 0.0065864598 -0.0024984959
960294240.0 0.0065630009 -0.0026394701
965294210.0 0.0067242678 -0.0027802404
970294180.0 0.0066393904 -0.0028403071
975294150.0 0.0064603626 -0.0029412245
980294120.0 0.0063401776 -0.0028203776
985294090.0 0.0066951941 -0.0029089523
990294060.0 0.0064679421 -0.0031499795
995294030.0 0.0065872171 -0.0031525644
1000294000.0 0.006593245 -0.0031272907
1005293970.0 0.0064834842 -0.0033713755
1010293940.0 0.006605372 -0.0032974742
1015293910.0 0.0064876454 -0.0031580525
1020293880.0 0.00642373 -0.0034432516
1025293850.0 0.0064799573 -0.0033388818
1030293820.0 0.0064866786 -0.0036833161
1035293790.0 0.0066957719 -0.0034121538
1040293760.0 0.0066609902 -0.0035363509
1045293730.0 0.0065336522 -0.0033922167
1050293700.0 0.006567314 -0.0038527372
1055293670.0 0.0066218074 -0.0036361669
1060293640.0 0.0065480846 -0.0039859588
1065293610.0 0.006605703 -0.0036773808
1070293580.0 0.0063755496 -0.0039038738
1075293550.0 0.0065629682 -0.0038373295
1080293520.0 0.006460743 -0.0038168514
1085293490.0 0.0068130285 -0.0039516115
1090293460.0 0.006458091 -0.0039426548
1095293430.0 0.006585261 -0.0042036455
1100293400.0 0.0066236922 -0.0041346199
1105293370.0 0.0066639655 -0.0040192093
1110293340.0 0.0065522133 -0.0040797711
1115293310.0 0.0064081771 -0.0043121759
1120293280.0 0.0066343803 -0.0043123617
1125293250.0 0.0065725302 -0.0043553062
1130293220.0 0.0065286596 -0.0042383464
1135293190.0 0.0064925757 -0.0042952316
1140293160.0 0.0065403181 -0.0042596143
1145293130.0 0.0063296709 -0.0042435725
1150293100.0 0.0061693253 -0.0042951559
1155293070.0 0.006146062 -0.0042024827
1160293040.0 0.0058631811 -0.0045738168
1165293010.0 0.0061848297 -0.0045172432
1170292980.0 0.0061796134 -0.0046466921
1175292950.0 0.0059989952 -0.0047757354
1180292920.0 0.006254003 -0.0048455066
1185292890.0 0.0063519497 -0.0048809356
1190292860.0 0.0064065714 -0.0049705879
1195292830.0 0.0065607636 -0.0050372497
1200292800.0 0.0064676036 -0.0050104059
1205292770.0 0.0065962863 -0.0052766163
1210292740.0 0.0064712125 -0.0052332884
1215292710.0 0.006530347 -0.0054028802
1220292680.0 0.006396453 -0.0054719089
1225292650.0 0.0063395032 -0.0056984245
1230292620.0 0.0062284528 -0.0054541649
1235292590.0 0.0066508106 -0.0056103059
1240292560.0 0.006506024 -0.005527294
1245292530.0 0.0063625647 -0.0055884527
1250292500.0 0.0063495722 -0.0055494828
1255292470.0 0.0064237117 -0.0055725339
1260292440.0 0.0066294035 -0.0057451693
1265292410.0 0.0066007893 -0.0059082597
1270292380.0 0.0064873375 -0.0056855704
1275292350.0 0.0063075126 -0.0058729724
1280292320.0 0.0063649917 -0.005822824
1285292290.0 0.006192912 -0.0058824699
1290292260.0 0.0063224234 -0.0061093424
1295292230.0 0.0063149105 -0.0059956506
1300292200.0 0.0061950442 -0.0060285419
1305292170.0 0.006376219 -0.0059765059
1310292140.0 0.0062761273 -0.0062741995
1315292110.0 0.0062526818 -0.0063176943
1320292080.0 0.0062149253 -0.0062787552
1325292050.0 0.0063085115 -0.0064394066
1330292020.0 0.0065526754 -0.0063481902
1335291990.0 0.0061266777 -0.0063348469
1340291960.0 0.0063582523 -0.0065551199
1345291930.0 0.0062469439 -0.0065642407
1350291900.0 0.006104817 -0.0065249676
1355291870.0 0.0059333687 -0.0065460737
1360291840.0 0.006026653 -0.006720291
1365291810.0 0.00623248 -0.0067795488
1370291780.0 0.0061685213 -0.0067519929
1375291750.0 0.0061404944 -0.0068198878
1380291720.0 0.0061573857 -0.0069096821
1385291690.0 0.0062256353 -0.0069773985
1390291660.0 0.0060248639 -0.006914589
1395291630.0 0.0060417789 -0.0070140554
1400291600.0 0.00595127 -0.0069422354
1405291570.0 0.0061860758 -0.007036188
1410291540.0 0.0061581802 -0.0070749908
1415291510.0 0.0059705492 -0.0070687908
1420291480.0 0.006266794 -0.0072392133
1425291450.0 0.0058609397 -0.0069567073
1430291420.0 0.0058704747 -0.007102478
1435291390.0 0.0059291223 -0.0073871204
1440291360.0 0.0058821934 -0.0074131385
1445291330.0 0.0058884626 -0.0074373245
1450291300.0 0.0056850095 -0.0074622437
1455291270.0 0.0059080601 -0.0073673397
1460291240.0 0.0059213078 -0.0076809297
1465291210.0 0.0058314685 -0.0075149211
1470291180.0 0.0059021092 -0.0075915545
1475291150.0 0.0056798645 -0.0074326367
1480291120.0 0.005741194 -0.0078414667
1485291090.0 0.0055203971 -0.0076319425
1490291060.0 0.0057540816 -0.007849911
1495291030.0 0.0056139389 -0.0078651733
1500291000.0 0.0057418122 -0.0077548099
1505290970.0 0.0057422011 -0.007729127
1510290940.0 0.0058881922 -0.007893633
1515290910.0 0.005691303 -0.0078607059
1520290880.0 0.0055718716 -0.0080074332
1525290850.0 0.0057214595 -0.007925122
1530290820.0 0.0057502575 -0.0079796781
1535290790.0 0.005600332 -0.0078836625
1540290760.0 0.0056942334 -0.0081927162
1545290730.0 0.0056191488 -0.0082771849
1550290700.0 0.0055694239 -0.007916373
1555290670.0 0.0055846356 -0.0081840123
1560290640.0 0.0054372128 -0.0081555365
1565290610.0 0.0053758358 -0.008437932
1570290580.0 0.0054623541 -0.0082356552
1575290550.0 0.0053160619 -0.0083762002
1580290520.0 0.0054429173 -0.0083518343
1585290490.0 0.0056098678 -0.0085232904
1590290460.0 0.0057263831 -0.0085328359
1595290430.0 0.0053282343 -0.0085342857
1600290400.0 0.005746419 -0.008538829
1605290370.0 0.0054196226 -0.0085357287
1610290340.0 0.0053965575 -0.0084126631
1615290310.0 0.0053182935 -0.0085103059
1620290280.0 0.005409965 -0.0087102939
1625290250.0 0.005449886 -0.0088918069
1630290220.0 0.0051936143 -0.0088257628
1635290190.0 0.0054962224 -0.0088953057
1640290160.0 0.0053807234 -0.0087361675
1645290130.0 0.0052189288 -0.0088168503
1650290100.0 0.0050338382 -0.0088450158
1655290070.0 0.0051881246 -0.0090046374
1660290040.0 0.0051919302 -0.0089227687
1665290010.0 0.0051434894 -0.0090089182
1670289980.0 0.0050473718 -0.0090684092
1675289950.0 0.0051436228 -0.0092249266
1680289920.0 0.005121017 -0.008998486
1685289890.0 0.0052812294 -0.0092336905
1690289860.0 0.0052383897 -0.0092212062
1695289830.0 0.0049636905 -0.0093180193
1700289800.0 0.0049445439 -0.0092846774
1705289770.0 0.0050797249 -0.0090574045
1710289740.0 0.0049977693 -0.0093576672
1715289710.0 0.0051118279 -0.0092131753
1720289680.0 0.0049737809 -0.0094505552
1725289650.0 0.0048851539 -0.0094705539
1730289620.0 0.0047373903 -0.0094284774
1735289590.0 0.005069311 -0.0091667331
1740289560.0 0.0049610996 -0.0093237229
1745289530.0 0.004651596 -0.0094361977
1750289500.0 0.0049771551 -0.009312979
1755289470.0 0.0048336911 -0.0096313458
1760289440.0 0.0046737224 -0.009404969
1765289410.0 0.0044884059 -0.009251179
1770289380.0 0.0047347113 -0.0095271066
1775289350.0 0.0048363711 -0.0097291189
1780289320.0 0.0047032719 -0.0094688739
1785289290.0 0.004670152 -0.0094312318
1790289260.0 0.0046402159 -0.0095445581
1795289230.0 0.0047198948 -0.0096056798
1800289200.0 0.0045411998 -0.0096262871
1805289170.0 0.0045131177 -0.0096936318
1810289140.0 0.004723237 -0.0097621165
1815289110.0 0.0045849506 -0.0097118755
1820289080.0 0.0044341169 -0.0097384645
1825289050.0 0.004572527 -0.0098681753
1830289020.0 0.0044538703 -0.0096594384
1835288990.0 0.0043812279 -0.0097061957
1840288960.0 0.0042674439 -0.0099062375
1845288930.0 0.0042312632 -0.0097892015
1850288900.0 0.0044099373 -0.0097779414
1855288870.0 0.0041632387 -0.0098526924
1860288840.0 0.0042419913 -0.0099019545
1865288810.0 0.0042264768 -0.010032515
1870288780.0 0.0044358374 -0.0098335103
1875288750.0 0.0042754421 -0.0100621592
1880288720.0 0.0041959415 -0.0100742328
1885288690.0 0.0039634267 -0.0101257431
1890288660.0 0.0042665663 -0.0100411877
1895288630.0 0.0041357812 -0.0098884879
1900288600.0 0.0043309781 -0.0100892811
1905288570.0 0.0039544275 -0.0102141473
1910288540.0 0.0041193672 -0.010175893
1915288510.0 0.004085149 -0.0100868689
1920288480.0 0.004041826 -0.0101914169
1925288450.0 0.0039641633 -0.0100574514
1930288420.0 0.0040128583 -0.0100352241
1935288390.0 0.0038932921 -0.0101720883
1940288360.0 0.0039774969 -0.0098484339
1945288330.0 0.003971748 -0.0103035176
1950288300.0 0.0041373691 -0.0103850752
1955288270.0 0.0040495533 -0.0102418981
1960288240.0 0.0041229948 -0.0101735599
1965288210.0 0.0038492971 -0.0101215854
1970288180.0 0.0037476885 -0.0100383589
1975288150.0 0.0038967346 -0.0100608775
1980288120.0 0.0037819023 -0.0102636123
1985288090.0 0.0036691825 -0.0102453019
1990288060.0 0.0038426327 -0.0099174539
1995288030.0 0.0037478436 -0.0101109778
2000288000.0 0.0038205476 -0.0101569427
2005287970.0 0.00365948 -0.0100664045
2010287940.0 0.0036361197 -0.0102307365
2015287910.0 0.0034338228 -0.0102126306
2020287880.0 0.003672895 -0.010086772
2025287850.0 0.0034593065 -0.0102197627
2030287820.0 0.0034815929 -0.0101352054
2035287790.0 0.0035078344 -0.0102101931
2040287760.0 0.0032164081 -0.0103450092
2045287730.0 0.0032893858 -0.0102955383
2050287700.0 0.0033544022 -0.0101459765
2055287670.0 0.0032438533 -0.0102884599
2060287640.0 0.0032857466 -0.0101380675
2065287610.0 0.0029437094 -0.0101013287
2070287580.0 0.0030301765 -0.0102472655
2075287550.0 0.0030459607 -0.0102051225
2080287520.0 0.0029806027 -0.0103303472
2085287490.0 0.0031487805 -0.0102171108
2090287460.0 0.0032144461 -0.0101985753
2095287430.0 0.0029000717 -0.0102711121
2100287400.0 0.0029200664 -0.0103178339
2105287370.0 0.002876625 -0.0103840021
2110287340.0 0.0030274907 -0.0103487016
2115287310.0 0.0030224643 -0.0104076462
2120287280.0 0.0030143844 -0.0100831701
2125287250.0 0.0028148796 -0.0103082235
2130287220.0 0.0028429603 -0.0101919718
2135287190.0 0.0029757553 -0.0100768956
2140287160.0 0.0029204185 -0.0101818567
2145287130.0 0.0028119138 -0.0104953791
2150287100.0 0.0028818691 -0.010303726
2155287070.0 0.0027662258 -0.010082175
2160287040.0 0.0025771159 -0.0101791655
2165287010.0 0.0027453216 -0.0102194967
2170286980.0 0.0025991467 -0.0101903014
2175286950.0 0.00274711 -0.010132217
2180286920.0 0.0026440244 -0.0101753898
2185286890.0 0.0025549198 -0.0100453571
2190286860.0 0.0024038815 -0.0101465832
2195286830.0 0.0025988653 -0.0101640823
2200286800.0 0.0022879502 -0.0101774767
2205286770.0 0.0022848181 -0.0104406232
2210286740.0 0.002537857 -0.0103153683
2215286710.0 0.0023927249 -0.0102881081
2220286680.0 0.0023813659 -0.0101630423
2225286650.0 0.0022847424 -0.010369398
2230286620.0 0.0023476591 -0.0102191796
2235286590.0 0.0022150581 -0.0101737716
2240286560.0 0.0022401403 -0.0102253458
2245286530.0 0.0022046975 -0.0102910401
2250286500.0 0.001923219 -0.010271771
2255286470.0 0.0022147114 -0.0103002327
2260286440.0 0.0021125243 -0.0100562152
2265286410.0 0.0018847539 -0.0105007051
2270286380.0 0.0020269074 -0.0102773144
2275286350.0 0.001940635 -0.0101029748
2280286320.0 0.0020479324 -0.0102806378
2285286290.0 0.001914603 -0.0102313386
2290286260.0 0.0018155964 -0.0103175959
2295286230.0 0.0019092367 -0.0100199154
2300286200.0 0.0018299017 -0.0101705072
2305286170.0 0.0018855679 -0.0102497331
2310286140.0 0.0017175431 -0.0101699394
2315286110.0 0.0015376824 -0.009880142
2320286080.0 0.0014792047 -0.010250856
2325286050.0 0.0015376454 -0.0101685106
2330286020.0 0.0015702429 -0.010097543
2335285990.0 0.0014662082 -0.0100260827
2340285960.0 0.0013692189 -0.0099539397
2345285930.0 0.0013340185 -0.010149898
2350285900.0 0.0013477053 -0.0100566614
2355285870.0 0.0013822511 -0.0101993482
2360285840.0 0.001366471 -0.0099022952
2365285810.0 0.0012007067 -0.0099840513
2370285780.0 0.0011855849 -0.0099876741
2375285750.0 0.001046763 -0.010047447
2380285720.0 0.0010997207 -0.009974438
2385285690.0 0.0011086189 -0.0098942607
2390285660.0 0.0010371088 -0.0100562115
2395285630.0 0.0008997257 -0.0100337677
2400285600.0 0.0010678007 -0.0099674717
2405285570.0 0.0007248916 -0.0099623202
2410285540.0 0.0007963043 -0.0099930543
2415285510.0 0.0008633536 -0.0098400799
2420285480.0 0.0007058471 -0.0099239331
2425285450.0 0.0008072324 -0.0101089142
2430285420.0 0.000996567 -0.0098523222
2435285390.0 0.0006652653 -0.0096366592
2440285360.0 0.0008439868 -0.0097752459
2445285330.0 0.0005388582 -0.009853569
2450285300.0 0.0005879246 -0.0097564048
2455285270.0 0.0006321995 -0.0098507929
2460285240.0 0.0005220489 -0.0099158446
2465285210.0 0.0005236582 -0.0098166516
2470285180.0 0.0004741706 -0.0096961904
2475285150.0 0.0005744804 -0.0096553664
2480285120.0 0.0005988586 -0.0098766091
2485285090.0 0.0005647394 -0.0098117756
2490285060.0 0.0003169119 -0.0097335261
2495285030.0 0.000159983 -0.0096454644
2500285000.0 0.0002325753 -0.0095696385
2505284970.0 0.0002545636 -0.0096455456
2510284940.0 0.0002853647 -0.0095775834
2515284910.0 9.80725e-05 -0.0096209252
2520284880.0 8.28972e-05 -0.0093175239
2525284850.0 -3.2366e-06 -0.00946523
2530284820.0 4.33492e-05 -0.0096201673
2535284790.0 -0.0002190387 -0.0095784484
2540284760.0 -6.79053e-05 -0.0099285823
2545284730.0 -1.42125e-05 -0.0095941917
