!Created with skrf (http://scikit-rf.org).
# Hz S RI R 50.0 
!freq ReS11 ImS11
45000000.0 0.0689697265625 0.08730316162109375
49995500.0 0.08786392211914062 0.08720779418945312
54991000.0 0.108154296875 0.08356475830078125
59986500.0 0.12743377685546875 0.0850372314453125
64982000.0 0.147918701171875 0.07861328125
69977500.0 0.1693267822265625 0.06665802001953125
74973000.0 0.189849853515625 0.05030059814453125
79968500.0 0.208587646484375 0.02964019775390625
84964000.0 0.224822998046875 0.00534820556640625
89959500.0 0.237884521484375 -0.02313995361328125
94955000.0 0.24639892578125 -0.05425262451171875
99950500.0 0.2501983642578125 -0.0885162353515625
104946000.0 0.248992919921875 -0.12378692626953125
109941500.0 0.24214935302734375 -0.1596832275390625
114937000.0 0.2300872802734375 -0.1957244873046875
119932500.0 0.21251678466796875 -0.2305908203125
124928000.0 0.190185546875 -0.2637481689453125
129923500.0 0.162994384765625 -0.294219970703125
134919000.0 0.1313323974609375 -0.3218536376953125
139914500.0 0.095184326171875 -0.3462066650390625
144910000.0 0.0554962158203125 -0.3662567138671875
149905500.0 0.012451171875 -0.3818511962890625
154901000.0 -0.033111572265625 -0.392303466796875
159896500.0 -0.080718994140625 -0.397247314453125
164892000.0 -0.129852294921875 -0.39642333984375
169887500.0 -0.17999267578125 -0.3895721435546875
174883000.0 -0.2303466796875 -0.3762359619140625
179878500.0 -0.2801513671875 -0.3562164306640625
184874000.0 -0.3278656005859375 -0.3296356201171875
189869500.0 -0.3738861083984375 -0.29620361328125
194865000.0 -0.4163055419921875 -0.2568206787109375
199860500.0 -0.453887939453125 -0.2115631103515625
204856000.0 -0.486236572265625 -0.1604156494140625
209851500.0 -0.512237548828125 -0.104705810546875
214847000.0 -0.532135009765625 -0.045196533203125
219842500.0 -0.54449462890625 0.017547607421875
224838000.0 -0.54931640625 0.0821533203125
229833500.0 -0.545989990234375 0.14794921875
234829000.0 -0.535247802734375 0.213165283203125
239824500.0 -0.516357421875 0.277984619140625
244820000.0 -0.4898681640625 0.340789794921875
249815500.0 -0.4561767578125 0.400848388671875
254811000.0 -0.4384307861328125 0.44427490234375
259806500.0 -0.39373779296875 0.4988861083984375
264802000.0 -0.342987060546875 0.549530029296875
269797500.0 -0.285064697265625 0.5948486328125
274793000.0 -0.221923828125 0.634429931640625
279788500.0 -0.153289794921875 0.6673583984375
284784000.0 -0.079925537109375 0.693206787109375
289779500.0 -0.002197265625 0.711181640625
294775000.0 0.078887939453125 0.7205810546875
299770500.0 0.162750244140625 0.7208251953125
304766000.0 0.2476806640625 0.711181640625
309761500.0 0.33349609375 0.69061279296875
314757000.0 0.417938232421875 0.659149169921875
319752500.0 0.499481201171875 0.616424560546875
324748000.0 0.57672119140625 0.563232421875
329743500.0 0.649017333984375 0.5
334739000.0 0.71368408203125 0.426239013671875
339734500.0 0.769683837890625 0.343658447265625
344730000.0 0.814910888671875 0.253509521484375
349725500.0 0.848846435546875 0.1575927734375
354721000.0 0.8709716796875 0.057525634765625
359716500.0 0.880157470703125 -0.045196533203125
364712000.0 0.87664794921875 -0.148956298828125
369707500.0 0.8607177734375 -0.25213623046875
374703000.0 0.832305908203125 -0.352752685546875
379698500.0 0.792236328125 -0.4498291015625
384694000.0 0.741302490234375 -0.541748046875
389689500.0 0.679840087890625 -0.626983642578125
394685000.0 0.60931396484375 -0.70538330078125
399680500.0 0.530548095703125 -0.775848388671875
404676000.0 0.444549560546875 -0.8377685546875
409671500.0 0.351104736328125 -0.89239501953125
414667000.0 0.252655029296875 -0.934173583984375
419662500.0 0.148468017578125 -0.966766357421875
424658000.0 0.039459228515625 -0.98846435546875
429653500.0 -0.0738525390625 -0.9981689453125
434649000.0 -0.189666748046875 -0.993804931640625
439644500.0 -0.304718017578125 -0.976348876953125
444640000.0 -0.418975830078125 -0.94647216796875
449635500.0 -0.530975341796875 -0.90386962890625
454631000.0 -0.641265869140625 -0.847991943359375
459626500.0 -0.746551513671875 -0.775970458984375
464622000.0 -0.843597412109375 -0.68939208984375
469617500.0 -0.9296875 -0.58905029296875
474613000.0 -1.0035400390625 -0.4771728515625
479608500.0 -1.06231689453125 -0.35498046875
484604000.0 -1.104736328125 -0.224609375
489599500.0 -1.12872314453125 -0.08935546875
494595000.0 -1.13531494140625 0.0477294921875
499590500.0 -1.12322998046875 0.18414306640625
504586000.0 -1.09344482421875 0.31622314453125
509581500.0 -1.0478515625 0.44183349609375
514577000.0 -0.9874267578125 0.558502197265625
519572500.0 -0.914581298828125 0.66522216796875
524568000.0 -0.832275390625 0.760528564453125
529563500.0 -0.742889404296875 0.84423828125
534559000.0 -0.64776611328125 0.917755126953125
539554500.0 -0.548370361328125 0.980865478515625
544550000.0 -0.4449462890625 1.0357666015625
549545500.0 -0.33746337890625 1.08245849609375
554541000.0 -0.223876953125 1.12054443359375
559536500.0 -0.106201171875 1.14898681640625
564532000.0 0.0169677734375 1.166015625
569527500.0 0.14447021484375 1.17120361328125
574523000.0 0.27496337890625 1.1624755859375
579518500.0 0.40618896484375 1.1392822265625
584514000.0 0.5372314453125 1.1009521484375
589509500.0 0.66571044921875 1.04656982421875
594505000.0 0.790313720703125 0.976654052734375
599500500.0 0.90863037109375 0.890380859375
604496000.0 1.01812744140625 0.78875732421875
609491500.0 1.11676025390625 0.671875
614487000.0 1.20208740234375 0.541259765625
619482500.0 1.27105712890625 0.39825439453125
624478000.0 1.32177734375 0.24505615234375
629473500.0 1.3514404296875 0.08477783203125
634469000.0 1.3597412109375 -0.0797119140625
639464500.0 1.3460693359375 -0.2445068359375
644460000.0 1.31036376953125 -0.40582275390625
649455500.0 1.25347900390625 -0.56060791015625
654451000.0 1.1776123046875 -0.70635986328125
659446500.0 1.08447265625 -0.839111328125
664442000.0 0.977020263671875 -0.9583740234375
669437500.0 0.857421875 -1.06195068359375
674433000.0 0.7286376953125 -1.1494140625
679428500.0 0.59259033203125 -1.22052001953125
684424000.0 0.45263671875 -1.275390625
689419500.0 0.309326171875 -1.31451416015625
694415000.0 0.16455078125 -1.33807373046875
699410500.0 0.01983642578125 -1.34765625
704406000.0 -0.123779296875 -1.34307861328125
709401500.0 -0.2655029296875 -1.32513427734375
714397000.0 -0.405517578125 -1.29449462890625
719392500.0 -0.54290771484375 -1.25030517578125
724388000.0 -0.6763916015625 -1.19403076171875
729383500.0 -0.80621337890625 -1.1243896484375
734379000.0 -0.92999267578125 -1.0400390625
739374500.0 -1.04779052734375 -0.942626953125
744370000.0 -1.15740966796875 -0.8306884765625
749365500.0 -1.25732421875 -0.705810546875
754361000.0 -1.34417724609375 -0.5660400390625
759356500.0 -1.41656494140625 -0.41339111328125
764352000.0 -1.47119140625 -0.2493896484375
769347500.0 -1.50555419921875 -0.07598876953125
774343000.0 -1.51763916015625 0.10443115234375
779338500.0 -1.50640869140625 0.28753662109375
784334000.0 -1.47174072265625 0.4700927734375
789329500.0 -1.4093017578125 0.647705078125
794325000.0 -1.3240966796875 0.81573486328125
799320500.0 -1.21734619140625 0.970458984375
804316000.0 -1.09112548828125 1.1090087890625
809311500.0 -0.94952392578125 1.22821044921875
814307000.0 -0.7960205078125 1.32684326171875
819302500.0 -0.6337890625 1.40447998046875
824298000.0 -0.4654541015625 1.4605712890625
829293500.0 -0.29693603515625 1.49664306640625
834289000.0 -0.12701416015625 1.5123291015625
839284500.0 0.03863525390625 1.50897216796875
844280000.0 0.14068603515625 1.51708984375
849275500.0 0.30084228515625 1.48944091796875
854271000.0 0.4566650390625 1.44683837890625
859266500.0 0.60626220703125 1.3902587890625
864262000.0 0.74853515625 1.319091796875
869257500.0 0.88433837890625 1.235595703125
874253000.0 1.01092529296875 1.1397705078125
879248500.0 1.129638671875 1.03179931640625
884244000.0 1.23834228515625 0.91241455078125
889239500.0 1.336669921875 0.78192138671875
894235000.0 1.42333984375 0.6416015625
899230500.0 1.49786376953125 0.49041748046875
904226000.0 1.55865478515625 0.3275146484375
909221500.0 1.6026611328125 0.15478515625
914217000.0 1.627197265625 -0.02679443359375
919212500.0 1.62957763671875 -0.21527099609375
924208000.0 1.60821533203125 -0.40667724609375
929203500.0 1.5616455078125 -0.596435546875
934199000.0 1.4908447265625 -0.7818603515625
939194500.0 1.39501953125 -0.95733642578125
944190000.0 1.27618408203125 -1.12091064453125
949185500.0 1.1363525390625 -1.26690673828125
954181000.0 0.97869873046875 -1.3935546875
959176500.0 0.80670166015625 -1.49749755859375
964172000.0 0.6243896484375 -1.578369140625
969167500.0 0.4359130859375 -1.63482666015625
974163000.0 0.2447509765625 -1.66748046875
979158500.0 0.0538330078125 -1.6767578125
984154000.0 -0.1337890625 -1.66473388671875
989149500.0 -0.31573486328125 -1.63275146484375
994145000.0 -0.4908447265625 -1.582275390625
999140500.0 -0.65728759765625 -1.51507568359375
1004136000.0 -0.81451416015625 -1.43292236328125
1009131500.0 -0.96173095703125 -1.3360595703125
1014127000.0 -1.09844970703125 -1.2259521484375
1019122500.0 -1.22430419921875 -1.10406494140625
1024118000.0 -1.33868408203125 -0.96929931640625
1029113500.0 -1.43994140625 -0.8240966796875
1034109000.0 -1.52728271484375 -0.66754150390625
1039104500.0 -1.599609375 -0.50164794921875
1044100000.0 -1.65478515625 -0.32611083984375
1049095500.0 -1.69219970703125 -0.142333984375
1054091000.0 -1.7095947265625 0.04754638671875
1059086500.0 -1.70477294921875 0.241943359375
1064082000.0 -1.67724609375 0.43719482421875
1069077500.0 -1.62518310546875 0.63067626953125
1074073000.0 -1.54949951171875 0.81884765625
1079068500.0 -1.44970703125 0.9989013671875
1084064000.0 -1.326416015625 1.16571044921875
1089059500.0 -1.1820068359375 1.31585693359375
1094055000.0 -1.01983642578125 1.4466552734375
1099050500.0 -0.84246826171875 1.5555419921875
1104046000.0 -0.653076171875 1.640380859375
1109041500.0 -0.45635986328125 1.7001953125
1114037000.0 -0.255859375 1.735107421875
1119032500.0 -0.05487060546875 1.7449951171875
1124028000.0 0.1429443359375 1.73138427734375
1129023500.0 0.33477783203125 1.69525146484375
1134019000.0 0.5191650390625 1.63958740234375
1139014500.0 0.693359375 1.5643310546875
1144010000.0 0.85687255859375 1.4722900390625
1149005500.0 1.00714111328125 1.36517333984375
1154001000.0 1.14459228515625 1.24468994140625
1158996500.0 1.2689208984375 1.1112060546875
1163992000.0 1.37890625 0.96807861328125
1168987500.0 1.47344970703125 0.8145751953125
1173983000.0 1.5516357421875 0.653076171875
1178978500.0 1.6143798828125 0.48333740234375
1183974000.0 1.6590576171875 0.30816650390625
1188969500.0 1.68634033203125 0.12847900390625
1193965000.0 1.6961669921875 -0.05474853515625
1198960500.0 1.68499755859375 -0.23907470703125
1203956000.0 1.65496826171875 -0.422607421875
1208951500.0 1.6051025390625 -0.6043701171875
1213947000.0 1.53460693359375 -0.78118896484375
1218942500.0 1.4439697265625 -0.950927734375
1223938000.0 1.3338623046875 -1.11090087890625
1228933500.0 1.20477294921875 -1.2579345703125
1233929000.0 1.05841064453125 -1.39019775390625
1238924500.0 0.8968505859375 -1.505615234375
1243920000.0 0.72149658203125 -1.60101318359375
1248915500.0 0.5360107421875 -1.67645263671875
1253911000.0 0.34136962890625 -1.728271484375
1258906500.0 0.1424560546875 -1.75701904296875
1263902000.0 -0.059326171875 -1.7620849609375
1268897500.0 -0.26116943359375 -1.744873046875
1273893000.0 -0.45550537109375 -1.701904296875
1278888500.0 -0.6431884765625 -1.6376953125
1283884000.0 -0.8223876953125 -1.552734375
1288879500.0 -0.98992919921875 -1.44793701171875
1293875000.0 -1.14422607421875 -1.32568359375
1298870500.0 -1.2830810546875 -1.18731689453125
1303866000.0 -1.4049072265625 -1.03509521484375
1308861500.0 -1.50836181640625 -0.87066650390625
1313857000.0 -1.59271240234375 -0.69647216796875
1318852500.0 -1.65753173828125 -0.5145263671875
1323848000.0 -1.7015380859375 -0.32708740234375
1328843500.0 -1.7242431640625 -0.13714599609375
1333839000.0 -1.725341796875 0.05419921875
1338834500.0 -1.70654296875 0.24407958984375
1343830000.0 -1.66705322265625 0.42962646484375
1348825500.0 -1.60760498046875 0.60986328125
1353821000.0 -1.52899169921875 0.78143310546875
1358816500.0 -1.43310546875 0.94354248046875
1363812000.0 -1.3193359375 1.0933837890625
1368807500.0 -1.1912841796875 1.230224609375
1373803000.0 -1.0496826171875 1.35205078125
1378798500.0 -0.8958740234375 1.457763671875
1383794000.0 -0.7315673828125 1.5469970703125
1388789500.0 -0.5584716796875 1.61846923828125
1393785000.0 -0.37884521484375 1.67083740234375
1398780500.0 -0.1943359375 1.7042236328125
1403776000.0 -0.00665283203125 1.71832275390625
1408771500.0 0.18243408203125 1.71142578125
1413767000.0 0.37066650390625 1.6845703125
1418762500.0 0.556640625 1.637451171875
1423758000.0 0.7366943359375 1.56903076171875
1428753500.0 0.91009521484375 1.48065185546875
1433749000.0 1.07373046875 1.37255859375
1438744500.0 1.22540283203125 1.2447509765625
1443740000.0 1.36102294921875 1.09930419921875
1448735500.0 1.48028564453125 0.93731689453125
1453731000.0 1.57965087890625 0.76141357421875
1458726500.0 1.65655517578125 0.57403564453125
1463722000.0 1.7098388671875 0.378173828125
1468717500.0 1.73846435546875 0.177001953125
1473713000.0 1.7415771484375 -0.0252685546875
1478708500.0 1.7205810546875 -0.224853515625
1483704000.0 1.6744384765625 -0.41864013671875
1488699500.0 1.60638427734375 -0.60345458984375
1493695000.0 1.517822265625 -0.776123046875
1498690500.0 1.41033935546875 -0.93463134765625
1503686000.0 1.28851318359375 -1.07745361328125
1508681500.0 1.15313720703125 -1.20343017578125
1513677000.0 1.0074462890625 -1.3111572265625
1518672500.0 0.854248046875 -1.40179443359375
1523668000.0 0.6949462890625 -1.47515869140625
1528663500.0 0.53216552734375 -1.53045654296875
1533659000.0 0.3663330078125 -1.56964111328125
1538654500.0 0.1998291015625 -1.59210205078125
1543650000.0 0.033203125 -1.598876953125
1548645500.0 -0.13238525390625 -1.5897216796875
1553641000.0 -0.29656982421875 -1.56549072265625
1558636500.0 -0.4571533203125 -1.52569580078125
1563632000.0 -0.614013671875 -1.47064208984375
1568627500.0 -0.76611328125 -1.4002685546875
1573623000.0 -0.91119384765625 -1.314453125
1578618500.0 -1.04852294921875 -1.21368408203125
1583614000.0 -1.1761474609375 -1.0977783203125
1588609500.0 -1.29229736328125 -0.967041015625
1593605000.0 -1.39453125 -0.8231201171875
1598600500.0 -1.48028564453125 -0.66632080078125
1603596000.0 -1.54864501953125 -0.4990234375
1608591500.0 -1.59808349609375 -0.32391357421875
1613587000.0 -1.62579345703125 -0.14300537109375
1618582500.0 -1.63116455078125 0.04052734375
1623578000.0 -1.61468505859375 0.22369384765625
1628573500.0 -1.57635498046875 0.4027099609375
1633569000.0 -1.5164794921875 0.57550048828125
1638564500.0 -1.43768310546875 0.7379150390625
1643560000.0 -1.34149169921875 0.88934326171875
1648555500.0 -1.22943115234375 1.0264892578125
1653551000.0 -1.10455322265625 1.14813232421875
1658546500.0 -0.96923828125 1.2535400390625
1663542000.0 -0.82501220703125 1.3433837890625
1668537500.0 -0.67462158203125 1.416748046875
1673533000.0 -0.52020263671875 1.472900390625
1678528500.0 -0.3623046875 1.51385498046875
1683524000.0 -0.2034912109375 1.5391845703125
1688519500.0 -0.0430908203125 1.5498046875
1693515000.0 0.1162109375 1.54534912109375
1698510500.0 0.27508544921875 1.5262451171875
1703506000.0 0.43206787109375 1.49237060546875
1708501500.0 0.586181640625 1.444091796875
1713497000.0 0.73626708984375 1.38165283203125
1718492500.0 0.88250732421875 1.30389404296875
1723488000.0 1.02142333984375 1.20977783203125
1728483500.0 1.1533203125 1.10028076171875
1733479000.0 1.2755126953125 0.97418212890625
1738474500.0 1.38446044921875 0.832763671875
1743470000.0 1.479248046875 0.67645263671875
1748465500.0 1.55450439453125 0.507080078125
1753461000.0 1.6099853515625 0.32635498046875
1758456500.0 1.64208984375 0.137939453125
1763452000.0 1.64984130859375 -0.05462646484375
1768447500.0 1.632080078125 -0.24725341796875
1773443000.0 1.5885009765625 -0.43536376953125
1778438500.0 1.5218505859375 -0.6156005859375
1783434000.0 1.432861328125 -0.782958984375
1788429500.0 1.32476806640625 -0.9356689453125
1793425000.0 1.20111083984375 -1.071533203125
1798420500.0 1.06463623046875 -1.18914794921875
1803416000.0 0.91900634765625 -1.28729248046875
1808411500.0 0.767333984375 -1.36749267578125
1813407000.0 0.61151123046875 -1.42913818359375
1818402500.0 0.45379638671875 -1.47393798828125
1823398000.0 0.2957763671875 -1.50238037109375
1828393500.0 0.13848876953125 -1.5157470703125
1833389000.0 -0.01666259765625 -1.5152587890625
1838384500.0 -0.16998291015625 -1.5009765625
1843380000.0 -0.32086181640625 -1.47393798828125
1848375500.0 -0.46881103515625 -1.43365478515625
1853371000.0 -0.61279296875 -1.380126953125
1858366500.0 -0.75341796875 -1.31402587890625
1863362000.0 -0.88873291015625 -1.2337646484375
1868357500.0 -1.01702880859375 -1.139892578125
1873353000.0 -1.13909912109375 -1.03192138671875
1878348500.0 -1.25140380859375 -0.9090576171875
1883344000.0 -1.3511962890625 -0.7720947265625
1888339500.0 -1.437255859375 -0.62213134765625
1893335000.0 -1.50640869140625 -0.459716796875
1898330500.0 -1.55572509765625 -0.28668212890625
1903326000.0 -1.5833740234375 -0.1070556640625
1908321500.0 -1.58868408203125 0.07666015625
1913317000.0 -1.568603515625 0.26019287109375
1918312500.0 -1.5257568359375 0.43951416015625
1923308000.0 -1.45989990234375 0.61083984375
1928303500.0 -1.373291015625 0.77081298828125
1933299000.0 -1.268310546875 0.9169921875
1938294500.0 -1.14801025390625 1.0467529296875
1943290000.0 -1.0155029296875 1.15887451171875
1948285500.0 -0.87408447265625 1.2529296875
1953281000.0 -0.72650146484375 1.3282470703125
1958276500.0 -0.574951171875 1.38629150390625
1963272000.0 -0.42193603515625 1.42742919921875
1968267500.0 -0.26837158203125 1.4522705078125
1973263000.0 -0.11566162109375 1.46307373046875
1978258500.0 0.03460693359375 1.45849609375
1983254000.0 0.18243408203125 1.4400634765625
1988249500.0 0.327392578125 1.40960693359375
1993245000.0 0.4678955078125 1.3658447265625
1998240500.0 0.6033935546875 1.30950927734375
2003236000.0 0.73431396484375 1.2410888671875
2008231500.0 0.85833740234375 1.16009521484375
2013227000.0 0.97552490234375 1.0662841796875
2018222500.0 1.08349609375 0.960693359375
2023218000.0 1.180908203125 0.84368896484375
2028213500.0 1.26708984375 0.71490478515625
2033209000.0 1.33966064453125 0.577392578125
2038204500.0 1.39654541015625 0.4310302734375
2043200000.0 1.43792724609375 0.277587890625
2048195500.0 1.46063232421875 0.1199951171875
2053191000.0 1.46502685546875 -0.03973388671875
2058186500.0 1.4515380859375 -0.19903564453125
2063182000.0 1.41986083984375 -0.356201171875
2068177500.0 1.3702392578125 -0.5068359375
2073173000.0 1.30462646484375 -0.65045166015625
2078168500.0 1.2236328125 -0.78448486328125
2083164000.0 1.12933349609375 -0.90789794921875
2088159500.0 1.02337646484375 -1.01922607421875
2093155000.0 0.9075927734375 -1.118408203125
2098150500.0 0.78326416015625 -1.20416259765625
2103146000.0 0.6533203125 -1.2757568359375
2108141500.0 0.51678466796875 -1.33489990234375
2113137000.0 0.37664794921875 -1.38006591796875
2118132500.0 0.23297119140625 -1.41131591796875
2123128000.0 0.08697509765625 -1.4288330078125
2128123500.0 -0.0601806640625 -1.43316650390625
2133119000.0 -0.20806884765625 -1.42327880859375
2138114500.0 -0.35498046875 -1.39947509765625
2143110000.0 -0.5013427734375 -1.36114501953125
2148105500.0 -0.64422607421875 -1.30804443359375
2153101000.0 -0.78271484375 -1.23919677734375
2158096500.0 -0.91632080078125 -1.1552734375
2163092000.0 -1.041748046875 -1.05621337890625
2168087500.0 -1.157470703125 -0.94183349609375
2173083000.0 -1.260986328125 -0.81304931640625
2178078500.0 -1.3494873046875 -0.67156982421875
2183074000.0 -1.42138671875 -0.5184326171875
2188069500.0 -1.47479248046875 -0.3565673828125
