!Created with skrf (http://scikit-rf.org).
# Hz S RI R 50.0 
!freq ReS11 ImS11
300000.0 -1.026044476 -0.1884676966
5299970.0 -1.002538379 0.0079295292
10299940.0 -1.000343491 0.0129862092
15299910.0 -0.9999890966 0.0248955528
20299880.0 -0.9995860964 0.029286123
25299850.0 -0.9994172654 0.0377784277
30299820.0 -0.9987184306 0.0457677403
35299790.0 -0.9980572524 0.0504556034
40299760.0 -0.9969996374 0.0581022494
45299730.0 -0.9967618323 0.0647434141
50299700.0 -0.9955722313 0.0720329801
55299670.0 -0.9949276009 0.0791496117
60299640.0 -0.9937443769 0.0859048733
65299610.0 -0.9930343596 0.092419736
70299580.0 -0.9926417562 0.0992506203
75299550.0 -0.9915762097 0.1063610405
80299520.0 -0.9903778873 0.1128534354
85299490.0 -0.9894113267 0.119304435
90299460.0 -0.9886491043 0.1266531636
95299430.0 -0.9874320086 0.1336270031
100299400.0 -0.9864266695 0.1400525653
105299370.0 -0.9850159843 0.1466091406
110299340.0 -0.9846002624 0.1539782723
115299310.0 -0.9826441061 0.1600209178
120299280.0 -0.9814533305 0.1669226635
125299250.0 -0.9803947542 0.173701835
130299220.0 -0.9787432383 0.1797289175
135299190.0 -0.9775239031 0.1868800474
140299160.0 -0.9763225876 0.1937600696
145299130.0 -0.974799443 0.2001500149
150299100.0 -0.9732024822 0.2063122562
155299070.0 -0.9715903383 0.2134593165
160299040.0 -0.9699950472 0.220173755
165299010.0 -0.9678590654 0.2267878684
170298980.0 -0.9669704159 0.2328741299
175298950.0 -0.9629503994 0.2392173753
180298920.0 -0.9605021273 0.2447628808
185298890.0 -0.9603675917 0.2514239609
190298860.0 -0.959417285 0.2590236884
195298830.0 -0.9573696901 0.2658697848
200298800.0 -0.9554105887 0.2723619675
205298770.0 -0.953817754 0.2782468758
210298740.0 -0.9515453629 0.2850523684
215298710.0 -0.9495272263 0.2915495814
220298680.0 -0.9471392356 0.2973683241
225298650.0 -0.9452416032 0.3041889198
230298620.0 -0.9437468812 0.3104299705
235298590.0 -0.9413404274 0.3169109263
240298560.0 -0.9387929953 0.3233200478
245298530.0 -0.9364647283 0.3299187393
250298500.0 -0.9339721145 0.3357707552
255298470.0 -0.9315648915 0.3422556031
260298440.0 -0.9293057129 0.3484877716
265298410.0 -0.926649612 0.35470575
270298380.0 -0.9239557763 0.3607039899
275298350.0 -0.9213259948 0.367159487
280298320.0 -0.9183466838 0.3732693398
285298290.0 -0.9166974726 0.3793432109
290298260.0 -0.9134684648 0.3855629052
295298230.0 -0.910460356 0.3920897496
300298200.0 -0.9081338128 0.3971278274
305298170.0 -0.9057559363 0.403514448
310298140.0 -0.9023688652 0.4094638704
315298110.0 -0.9001363879 0.4159542148
320298080.0 -0.8966373258 0.4218882971
325298050.0 -0.8937561727 0.4282754432
330298020.0 -0.8909265161 0.4344557502
335297990.0 -0.8877073486 0.4400265075
340297960.0 -0.8843008163 0.4455300724
345297930.0 -0.8814367953 0.4519264279
350297900.0 -0.8785901409 0.4579267642
355297870.0 -0.8757442796 0.4635891582
360297840.0 -0.8724831323 0.4693290707
365297810.0 -0.8696590059 0.4753415588
370297780.0 -0.8664612647 0.4808306413
375297750.0 -0.8617383915 0.4865985661
380297720.0 -0.8585484465 0.4924137053
385297690.0 -0.8550511309 0.4978013885
390297660.0 -0.851609462 0.5039915665
395297630.0 -0.8479197298 0.509318209
400297600.0 -0.8441888567 0.5152433925
405297570.0 -0.8406660536 0.5204073295
410297540.0 -0.837781366 0.5265098632
415297510.0 -0.8337975594 0.532242734
420297480.0 -0.8303798482 0.5374436295
425297450.0 -0.8264851801 0.5430169667
430297420.0 -0.8229701484 0.5485914751
435297390.0 -0.8186305313 0.5539097171
440297360.0 -0.8151655808 0.5597270096
445297330.0 -0.8110070476 0.564828998
450297300.0 -0.8070156272 0.5702657868
455297270.0 -0.8029297793 0.5753905005
460297240.0 -0.7998200826 0.5807255055
465297210.0 -0.7955396782 0.5861975089
470297180.0 -0.7910950012 0.5915308745
475297150.0 -0.7877918175 0.5966346246
480297120.0 -0.7829725515 0.6013372321
485297090.0 -0.7796622104 0.6073325366
490297060.0 -0.7753881719 0.6118020454
495297030.0 -0.7717503291 0.6167372502
500297000.0 -0.7673188705 0.6221974089
505296970.0 -0.7624177764 0.6275703496
510296940.0 -0.7583365361 0.6325599381
515296910.0 -0.7543629725 0.637564033
520296880.0 -0.7501437898 0.6428895653
525296850.0 -0.7466274636 0.6477055751
530296820.0 -0.741751971 0.6531695985
535296790.0 -0.7369891286 0.6577667643
540296760.0 -0.7324782644 0.6624094423
545296730.0 -0.7279289729 0.6669752206
550296700.0 -0.7233797151 0.67205333
555296670.0 -0.7185008273 0.6769849219
560296640.0 -0.7135530599 0.6807603907
565296610.0 -0.7087119416 0.6864112683
570296580.0 -0.7043173309 0.6906247681
575296550.0 -0.6993334231 0.6957374778
580296520.0 -0.6947737201 0.7001197775
585296490.0 -0.6902610661 0.7048136889
590296460.0 -0.6844547724 0.7098189538
595296430.0 -0.6801993589 0.7136911733
600296400.0 -0.6752934701 0.7179931861
605296370.0 -0.6705627581 0.7224853236
610296340.0 -0.6656204236 0.7267826505
615296310.0 -0.6608607014 0.7311175359
620296280.0 -0.6557738833 0.7354564988
625296250.0 -0.6510386235 0.7398607455
630296220.0 -0.6460250392 0.7440010936
635296190.0 -0.6407616239 0.7477798115
640296160.0 -0.6359737267 0.7527299019
645296130.0 -0.6309861129 0.7564184567
650296100.0 -0.6256673991 0.7606931189
655296070.0 -0.6202926335 0.764738611
660296040.0 -0.6153476202 0.7689525337
665296010.0 -0.6100305926 0.7727023336
670295980.0 -0.6048428485 0.7771318969
675295950.0 -0.5997291799 0.7812997482
680295920.0 -0.5943689664 0.7852921
685295890.0 -0.5895397436 0.7890652523
690295860.0 -0.5839978764 0.7929164557
695295830.0 -0.5792133697 0.7963871592
700295800.0 -0.5731344292 0.8005782101
705295770.0 -0.5680525822 0.804505544
710295740.0 -0.562448716 0.8078113229
715295710.0 -0.557134283 0.8118202621
720295680.0 -0.5513416994 0.815203789
725295650.0 -0.5459949354 0.8195903812
730295620.0 -0.5410436119 0.8223022557
735295590.0 -0.5354196637 0.8261199184
740295560.0 -0.5296533646 0.8300296975
745295530.0 -0.5240143653 0.8335744669
750295500.0 -0.5185036229 0.8365684945
755295470.0 -0.5131250889 0.8399704444
760295440.0 -0.5073914673 0.8430597676
765295410.0 -0.5016979832 0.8467393266
770295380.0 -0.4957877297 0.8499286431
775295350.0 -0.4897871142 0.8534002589
780295320.0 -0.4842251452 0.8559758234
785295290.0 -0.4785016007 0.8595209544
790295260.0 -0.4725387925 0.8629970199
795295230.0 -0.4668236223 0.86565612
800295200.0 -0.4612481934 0.8689173191
805295170.0 -0.4553491733 0.8718981634
810295140.0 -0.4495293811 0.8744355655
815295110.0 -0.443137636 0.8777274162
820295080.0 -0.4374540184 0.8808564299
825295050.0 -0.4315908886 0.8835162713
830295020.0 -0.4254177623 0.8861262682
835294990.0 -0.4194096554 0.8892665473
840294960.0 -0.4140318792 0.8917844384
845294930.0 -0.4074045891 0.8943775743
850294900.0 -0.4018634925 0.8974597526
855294870.0 -0.3954458745 0.9001500495
860294840.0 -0.389304669 0.9024069673
865294810.0 -0.3834827654 0.904415362
870294780.0 -0.377622635 0.9073694602
875294750.0 -0.3714324106 0.9091165
880294720.0 -0.3651006955 0.9123351785
885294690.0 -0.3594859295 0.9142714918
890294660.0 -0.352900946 0.9164706407
895294630.0 -0.3476077089 0.9184814558
900294600.0 -0.3406784257 0.920975252
905294570.0 -0.3348431108 0.923580058
910294540.0 -0.3280424538 0.9256736416
915294510.0 -0.3224278041 0.9273917668
920294480.0 -0.3157746218 0.9296709696
925294450.0 -0.3100065379 0.9313221892
930294420.0 -0.3042260114 0.9333638527
935294390.0 -0.2973317102 0.9356466934
940294360.0 -0.2912974543 0.9370593505
945294330.0 -0.2851977241 0.9390367068
950294300.0 -0.2786716609 0.9409222272
955294270.0 -0.2722599681 0.9426610684
960294240.0 -0.2661749517 0.9446498402
965294210.0 -0.2598007237 0.9466959396
970294180.0 -0.2528968407 0.948245119
975294150.0 -0.247159847 0.9495126472
980294120.0 -0.2407577321 0.9511093521
985294090.0 -0.2346201806 0.9527789031
990294060.0 -0.2277819685 0.9541402785
995294030.0 -0.2215558597 0.9556149068
1000294000.0 -0.2157876328 0.9567722991
1005293970.0 -0.2089488855 0.9586226392
1010293940.0 -0.2023292829 0.9602187663
1015293910.0 -0.1959200947 0.9608542632
1020293880.0 -0.1895132758 0.9625656955
1025293850.0 -0.1832423481 0.963853462
1030293820.0 -0.1771323947 0.964538818
1035293790.0 -0.170737042 0.9656406228
1040293760.0 -0.1642891814 0.9666620423
1045293730.0 -0.1571618106 0.9682181029
1050293700.0 -0.1506482512 0.9687279328
1055293670.0 -0.1444220607 0.9698249547
1060293640.0 -0.1380491827 0.9712451998
1065293610.0 -0.1320258175 0.9719130146
1070293580.0 -0.125554078 0.9727585914
1075293550.0 -0.1189552748 0.9740257551
1080293520.0 -0.1121289298 0.9740834339
1085293490.0 -0.1055507495 0.975035435
1090293460.0 -0.098982262 0.9754068515
1095293430.0 -0.0919487148 0.9760221413
1100293400.0 -0.0855074506 0.9766382182
1105293370.0 -0.0792542951 0.9768149963
1110293340.0 -0.0722801161 0.9776618292
1115293310.0 -0.0662262422 0.9780624932
1120293280.0 -0.0601083027 0.978338731
1125293250.0 -0.0537696068 0.978882849
1130293220.0 -0.0473756839 0.9793927355
1135293190.0 -0.0407842555 0.9794297211
1140293160.0 -0.0337709111 0.9800237964
1145293130.0 -0.0273865652 0.9799650387
1150293100.0 -0.0204434646 0.9798872931
1155293070.0 -0.0141681851 0.9803274897
1160293040.0 -0.0075744195 0.9805921159
1165293010.0 -0.0013097778 0.9803569908
1170292980.0 0.005007617 0.9804155839
1175292950.0 0.0117812175 0.9800077804
1180292920.0 0.0180349269 0.9799391232
1185292890.0 0.0242871064 0.9797636221
1190292860.0 0.0314746445 0.9798331141
1195292830.0 0.0380679713 0.9794946248
1200292800.0 0.0442166355 0.9790237605
1205292770.0 0.0503618951 0.9789629114
1210292740.0 0.0571428464 0.9783045034
1215292710.0 0.0643588204 0.9780464169
1220292680.0 0.0703399483 0.9779103461
1225292650.0 0.0771902568 0.9765792475
1230292620.0 0.0838339331 0.9761395662
1235292590.0 0.0899869302 0.9758603179
1240292560.0 0.0965048519 0.9753559057
1245292530.0 0.1030337731 0.9742859003
1250292500.0 0.109501114 0.973786915
1255292470.0 0.1169183952 0.9729963725
1260292440.0 0.1230916693 0.9726225136
1265292410.0 0.1292640002 0.971357019
1270292380.0 0.1351173194 0.9710348722
1275292350.0 0.1423473985 0.9699276156
1280292320.0 0.148679674 0.9690280227
1285292290.0 0.1552321434 0.9674690831
1290292260.0 0.1614028339 0.9667173974
1295292230.0 0.1679469378 0.9654995167
1300292200.0 0.1743037846 0.9641758554
1305292170.0 0.1810112438 0.9633455921
1310292140.0 0.1870573839 0.9619832192
1315292110.0 0.1936560139 0.9608065682
1320292080.0 0.2004276225 0.9593763484
1325292050.0 0.2066178416 0.9582644626
1330292020.0 0.2132619851 0.9564634124
1335291990.0 0.2197130034 0.9558267153
1340291960.0 0.226596512 0.9538406011
1345291930.0 0.2329435572 0.9517229446
1350291900.0 0.2390777278 0.9504685922
1355291870.0 0.2449005404 0.9492209198
1360291840.0 0.251276411 0.9472712443
1365291810.0 0.257943271 0.9456366096
1370291780.0 0.2638171486 0.9448631459
1375291750.0 0.2704733017 0.9424681431
1380291720.0 0.2764202766 0.9405954859
1385291690.0 0.2827583784 0.9388444144
1390291660.0 0.289186063 0.9369080752
1395291630.0 0.2959570639 0.9348058479
1400291600.0 0.3018913295 0.9328289144
1405291570.0 0.3084292706 0.9309062273
1410291540.0 0.314147544 0.9287717588
1415291510.0 0.3200931159 0.9260594354
1420291480.0 0.3268505266 0.9250872479
1425291450.0 0.3327484246 0.9224238424
1430291420.0 0.3388997031 0.9201796188
1435291390.0 0.3449999666 0.9181767965
1440291360.0 0.3508501521 0.9155833138
1445291330.0 0.3566888615 0.9134328592
1450291300.0 0.3623427325 0.9110297207
1455291270.0 0.3688853785 0.9087361659
1460291240.0 0.3742893303 0.9058932496
1465291210.0 0.3810588587 0.9038007485
1470291180.0 0.387098031 0.9002622942
1475291150.0 0.3937748362 0.8984334565
1480291120.0 0.3995584895 0.8959652087
1485291090.0 0.4050495077 0.8931401052
1490291060.0 0.4114460152 0.8905314609
1495291030.0 0.4172708133 0.8884979553
1500291000.0 0.4237350311 0.8846842947
1505290970.0 0.4291879225 0.8824210077
1510290940.0 0.435410082 0.8789213418
1515290910.0 0.441154137 0.876641056
1520290880.0 0.4465754892 0.8732560525
1525290850.0 0.4531111363 0.8705348896
1530290820.0 0.4587641215 0.8675145518
1535290790.0 0.4643108625 0.8645631939
1540290760.0 0.4699661836 0.8610470785
1545290730.0 0.4763409832 0.8579980167
1550290700.0 0.4820935373 0.8545853541
1555290670.0 0.4874759042 0.851876469
1560290640.0 0.4936792853 0.8484069889
1565290610.0 0.4994758694 0.8449170908
1570290580.0 0.5048021008 0.8419199856
1575290550.0 0.5102229182 0.8379068258
1580290520.0 0.5159538082 0.8346419476
1585290490.0 0.5217804606 0.8316960013
1590290460.0 0.5274043686 0.827876663
1595290430.0 0.5330174053 0.8246251927
1600290400.0 0.5381132704 0.8212164789
1605290370.0 0.5436821526 0.8179823964
1610290340.0 0.5492569602 0.814195092
1615290310.0 0.5551952319 0.8106713611
1620290280.0 0.5603690793 0.806066589
1625290250.0 0.5656396427 0.8025147837
1630290220.0 0.5709713997 0.7989748881
1635290190.0 0.5760522361 0.7948177012
1640290160.0 0.5813007162 0.7909343526
1645290130.0 0.5871606599 0.7879840386
1650290100.0 0.5922837769 0.7839441239
1655290070.0 0.5975712729 0.7793319855
1660290040.0 0.6028032186 0.7753202717
1665290010.0 0.6079239546 0.7710805253
1670289980.0 0.6123591918 0.767638831
1675289950.0 0.6178670821 0.7634240445
1680289920.0 0.6237073841 0.7587911432
1685289890.0 0.62871778 0.7547781125
1690289860.0 0.6341838426 0.7503675553
1695289830.0 0.6393899142 0.7457242169
1700289800.0 0.6438949231 0.742006369
1705289770.0 0.6488040299 0.7378332368
1710289740.0 0.6541918458 0.7336880901
1715289710.0 0.658796529 0.7289909554
1720289680.0 0.6639741654 0.7244611658
1725289650.0 0.6687787039 0.720276761
1730289620.0 0.6730266226 0.71592283
1735289590.0 0.6782093852 0.7112959846
1740289560.0 0.6829963934 0.7074934427
1745289530.0 0.688164008 0.7020729666
1750289500.0 0.6927315396 0.6976732997
1755289470.0 0.6971411604 0.6932623833
1760289440.0 0.7015444771 0.6888390053
1765289410.0 0.7062062834 0.6842857473
1770289380.0 0.7110448871 0.6797943276
1775289350.0 0.7148217018 0.6748650321
1780289320.0 0.7202515831 0.6703918563
1785289290.0 0.7246998499 0.6651775504
1790289260.0 0.7289686739 0.6596341561
1795289230.0 0.7338432135 0.6551583254
1800289200.0 0.7382343032 0.6502904186
1805289170.0 0.7422125875 0.6447842488
1810289140.0 0.746401275 0.6403654951
1815289110.0 0.7509082026 0.6351263763
1820289080.0 0.7550285847 0.6307688774
1825289050.0 0.7591114983 0.625962882
1830289020.0 0.7633207503 0.6209567824
1835288990.0 0.7672083608 0.615852977
1840288960.0 0.7716652482 0.6110524999
1845288930.0 0.7753238026 0.6058130846
1850288900.0 0.7796793939 0.6003064205
1855288870.0 0.7843219147 0.5947806946
1860288840.0 0.7881243405 0.5896444175
1865288810.0 0.7920525109 0.584327061
1870288780.0 0.7964035879 0.5792065746
1875288750.0 0.7998158883 0.5732874656
1880288720.0 0.8040008542 0.5682672754
1885288690.0 0.8078110619 0.5621309839
1890288660.0 0.8112732795 0.5571922806
1895288630.0 0.8157303238 0.5515716645
1900288600.0 0.818708396 0.546404939
1905288570.0 0.8224074712 0.5407477678
1910288540.0 0.826221442 0.5351906146
1915288510.0 0.8303405606 0.5296084988
1920288480.0 0.8341820604 0.5237310066
1925288450.0 0.8373126343 0.5175905084
1930288420.0 0.8411135352 0.5131322609
1935288390.0 0.8442030722 0.5067637683
1940288360.0 0.8483990735 0.5012350675
1945288330.0 0.8511885968 0.4954471498
1950288300.0 0.8545249328 0.4898994539
1955288270.0 0.8580179595 0.4835644198
1960288240.0 0.8611453186 0.477335335
1965288210.0 0.8648621889 0.4720910029
1970288180.0 0.8677429114 0.4660216585
1975288150.0 0.8713303516 0.4601716077
1980288120.0 0.8739107298 0.4553307142
1985288090.0 0.8773235135 0.448952042
1990288060.0 0.8804909841 0.4435337277
1995288030.0 0.882511503 0.4380262154
2000288000.0 0.8856217788 0.4324933436
2005287970.0 0.8881957302 0.4263297766
2010287940.0 0.891608479 0.4207355842
2015287910.0 0.893561768 0.4142552468
2020287880.0 0.8963296855 0.4080988317
2025287850.0 0.8993172866 0.402589401
2030287820.0 0.9026455309 0.3965753732
2035287790.0 0.9050881696 0.3902180401
2040287760.0 0.9079198537 0.3839253864
2045287730.0 0.9101624227 0.37782898
2050287700.0 0.9127791391 0.3720007289
2055287670.0 0.9154046829 0.3659120769
2060287640.0 0.9177061242 0.3597580999
2065287610.0 0.920087729 0.3536275986
2070287580.0 0.9223021949 0.3471085844
2075287550.0 0.9256008986 0.3407626173
2080287520.0 0.9270312156 0.3351084168
2085287490.0 0.9295737588 0.329008626
2090287460.0 0.9322585688 0.3229091076
2095287430.0 0.9341456371 0.3162785351
2100287400.0 0.9363703045 0.3098871325
2105287370.0 0.9383116187 0.3037751694
2110287340.0 0.940276805 0.2972100645
2115287310.0 0.9423716098 0.2909223984
2120287280.0 0.9446376937 0.2846964318
2125287250.0 0.9464330816 0.2779990344
2130287220.0 0.9485162236 0.2724382493
2135287190.0 0.9500245392 0.2658021058
2140287160.0 0.9518768577 0.2595002438
2145287130.0 0.9540023896 0.2525420682
2150287100.0 0.9557662393 0.2466941731
2155287070.0 0.9564278435 0.2400387559
2160287040.0 0.9582940547 0.2343746844
2165287010.0 0.9602892843 0.2275739614
2170286980.0 0.9618982622 0.2216195534
2175286950.0 0.9627352173 0.2148896518
2180286920.0 0.9643243104 0.2083965166
2185286890.0 0.9655349119 0.2028214235
2190286860.0 0.9670874399 0.1966168294
2195286830.0 0.9685648091 0.1895637311
2200286800.0 0.9695345879 0.1841057441
2205286770.0 0.9711762264 0.1771962568
2210286740.0 0.9722608358 0.1707847709
2215286710.0 0.9732340911 0.1643318835
2220286680.0 0.9748286048 0.1573750331
2225286650.0 0.9753397746 0.1509505118
2230286620.0 0.9762427954 0.1441902234
2235286590.0 0.9767208591 0.1378012024
2240286560.0 0.97822151 0.1310116302
2245286530.0 0.9792300767 0.1241158326
2250286500.0 0.9801062792 0.1178954422
2255286470.0 0.981104047 0.1112545165
2260286440.0 0.9815524412 0.1045382445
2265286410.0 0.9821804773 0.0979297444
2270286380.0 0.9825377936 0.0914041306
2275286350.0 0.9835707942 0.0842113494
2280286320.0 0.9843947404 0.0781048453
2285286290.0 0.9844956499 0.0710594779
2290286260.0 0.9849596002 0.064189292
2295286230.0 0.9856394307 0.0581630481
2300286200.0 0.9862337013 0.0515479512
2305286170.0 0.9860004769 0.0450756434
2310286140.0 0.9859134649 0.0383598878
2315286110.0 0.9863565178 0.0316272806
2320286080.0 0.9868871115 0.0249584353
2325286050.0 0.9870550546 0.0186090778
2330286020.0 0.9869073422 0.0119983169
2335285990.0 0.9872700973 0.0053925183
2340285960.0 0.9872878969 -0.0010267075
2345285930.0 0.9871987352 -0.0079174415
2350285900.0 0.9871196556 -0.0144864999
2355285870.0 0.9874034973 -0.021151698
2360285840.0 0.9874296267 -0.0277493791
2365285810.0 0.9870202694 -0.0345685615
2370285780.0 0.9865347484 -0.0411481513
2375285750.0 0.9864373704 -0.047721208
2380285720.0 0.986111309 -0.0541474488
2385285690.0 0.9857455773 -0.0606349832
2390285660.0 0.9847290501 -0.0669462786
2395285630.0 0.9842741515 -0.073268563
2400285600.0 0.9843683072 -0.080353642
2405285570.0 0.9834363515 -0.0866918057
2410285540.0 0.9832724314 -0.0929218365
2415285510.0 0.9827563136 -0.0992494606
2420285480.0 0.9817375962 -0.1057313089
2425285450.0 0.9809139889 -0.1121904539
2430285420.0 0.9800031029 -0.1190538076
2435285390.0 0.9789820665 -0.126246891
2440285360.0 0.9786447896 -0.131494399
2445285330.0 0.9779049549 -0.1383342907
2450285300.0 0.9766766034 -0.1452771213
2455285270.0 0.9756897349 -0.1515869783
2460285240.0 0.974546976 -0.1582750402
2465285210.0 0.9729904722 -0.1646788829
2470285180.0 0.9722488694 -0.1714840188
2475285150.0 0.9709600904 -0.1774609792
2480285120.0 0.9698116153 -0.1840542791
2485285090.0 0.9690270579 -0.1916505501
2490285060.0 0.9670403512 -0.197328531
2495285030.0 0.9660189432 -0.2038244474
2500285000.0 0.9648183076 -0.2108831994
2505284970.0 0.9630249308 -0.2173096527
2510284940.0 0.9615910295 -0.223857339
2515284910.0 0.9602869933 -0.2308562101
2520284880.0 0.95837732 -0.2367279661
2525284850.0 0.9565908947 -0.2431638624
2530284820.0 0.954684404 -0.2489910483
2535284790.0 0.9536410942 -0.2559376276
2540284760.0 0.9517440384 -0.2615815109
2545284730.0 0.9499701352 -0.2682293918
2550284700.0 0.9480636589 -0.2740248062
2555284670.0 0.9465799121 -0.2809742557
