!Created with skrf (http://scikit-rf.org).
# Hz S RI R 50.0 
!freq ReS11 ImS11
300000.0 1.002668371 0.0016653486
5299970.0 1.00575707 -0.0081965152
10299940.0 1.005444117 -0.015084599
15299910.0 1.004984385 -0.0215998225
20299880.0 1.004142669 -0.0284109978
25299850.0 1.004011476 -0.0343340307
30299820.0 1.004092334 -0.0411280914
35299790.0 1.004001152 -0.0484538366
40299760.0 1.003806067 -0.0545858033
45299730.0 1.002715962 -0.0615279261
50299700.0 1.001806345 -0.0678717472
55299670.0 1.00187341 -0.0746931721
60299640.0 1.001280565 -0.0808282903
65299610.0 1.001026439 -0.0875777888
70299580.0 1.000521074 -0.0937040321
75299550.0 0.9994672186 -0.1008423129
80299520.0 0.9985655502 -0.1071403534
85299490.0 0.9987763345 -0.1137439879
90299460.0 0.9975539585 -0.1209566138
95299430.0 0.9962759338 -0.1265429226
100299400.0 0.9959246758 -0.1338441116
105299370.0 0.9952417379 -0.140099225
110299340.0 0.9940622368 -0.1468884182
115299310.0 0.9927206913 -0.1533765519
120299280.0 0.9918730729 -0.1600570954
125299250.0 0.990295972 -0.1661633948
130299220.0 0.9893601307 -0.1725771773
135299190.0 0.9884096708 -0.1798687634
140299160.0 0.9871368987 -0.185666164
145299130.0 0.9859026921 -0.1919367984
150299100.0 0.985122965 -0.198415037
155299070.0 0.9831697346 -0.204860144
160299040.0 0.9813906668 -0.2109848293
165299010.0 0.9806288663 -0.2177014402
170298980.0 0.9788692063 -0.2233825294
175298950.0 0.9764192363 -0.2300097746
180298920.0 0.974102655 -0.2370752293
185298890.0 0.9735162812 -0.2429807055
190298860.0 0.9724718052 -0.2492725481
195298830.0 0.9710393627 -0.2559635233
200298800.0 0.9692043276 -0.262378686
205298770.0 0.9674293848 -0.2683599167
210298740.0 0.9660149197 -0.2751220701
215298710.0 0.9642847385 -0.2811614717
220298680.0 0.9614558385 -0.2878155377
225298650.0 0.9599199963 -0.2939820513
230298620.0 0.957883243 -0.3004917999
235298590.0 0.9560271855 -0.3064592769
240298560.0 0.9536701876 -0.3127306472
245298530.0 0.9514582423 -0.3191075689
250298500.0 0.9492304846 -0.3250497269
255298470.0 0.9471866318 -0.3316445175
260298440.0 0.9451815002 -0.3371109366
265298410.0 0.9429435253 -0.3437688918
270298380.0 0.9409300938 -0.3497489827
275298350.0 0.9385105901 -0.3557176368
280298320.0 0.9363400588 -0.3620592122
285298290.0 0.9338433255 -0.3682343618
290298260.0 0.9310012705 -0.3741576968
295298230.0 0.9291281294 -0.3805940462
300298200.0 0.9258242726 -0.3863469381
305298170.0 0.9237807839 -0.3924433724
310298140.0 0.9203834945 -0.3983009293
315298110.0 0.9180523282 -0.4042657579
320298080.0 0.9151275887 -0.4106741225
325298050.0 0.9127093802 -0.4162996678
330298020.0 0.9097453172 -0.4224386006
335297990.0 0.9065329125 -0.4278660273
340297960.0 0.9042721855 -0.4341744895
345297930.0 0.9016229257 -0.4400840342
350297900.0 0.899175201 -0.4461702906
355297870.0 0.896299535 -0.4521829501
360297840.0 0.8932279106 -0.4586886877
365297810.0 0.8904405996 -0.4639474237
370297780.0 0.8872982054 -0.4697181038
375297750.0 0.8830015217 -0.4748144778
380297720.0 0.8799980459 -0.4803952962
385297690.0 0.8766271515 -0.486714179
390297660.0 0.8735550162 -0.4915541125
395297630.0 0.8704753816 -0.497896411
400297600.0 0.86664879 -0.5036345884
405297570.0 0.863259786 -0.5091002741
410297540.0 0.8600443166 -0.514941531
415297510.0 0.8569152597 -0.5206465399
420297480.0 0.8534315194 -0.5260693311
425297450.0 0.8499953898 -0.5313395603
430297420.0 0.8466829517 -0.5370160074
435297390.0 0.8425674685 -0.5423256449
440297360.0 0.8393712533 -0.5475861052
445297330.0 0.8355012689 -0.5536618644
450297300.0 0.832182613 -0.5590960843
455297270.0 0.8283675701 -0.5638751753
460297240.0 0.8249627293 -0.5694372487
465297210.0 0.8211585321 -0.5750495199
470297180.0 0.8176045971 -0.58030414
475297150.0 0.8132062224 -0.5850532823
480297120.0 0.8091267929 -0.5908116363
485297090.0 0.8049739671 -0.5959965281
490297060.0 0.8011424023 -0.6015493816
495297030.0 0.7978125816 -0.6071281141
500297000.0 0.7936762093 -0.6119657374
505296970.0 0.7891700898 -0.6169768924
510296940.0 0.784859336 -0.6218798371
515296910.0 0.7810158024 -0.6267406098
520296880.0 0.776688806 -0.6325631328
525296850.0 0.7723986955 -0.637002475
530296820.0 0.7683858703 -0.6426452698
535296790.0 0.7638421557 -0.6468653737
540296760.0 0.7593133216 -0.6515207382
545296730.0 0.75520061 -0.6568861277
550296700.0 0.7515213722 -0.662378677
555296670.0 0.746645174 -0.6663742843
560296640.0 0.7424956702 -0.671721545
565296610.0 0.7382137438 -0.6765551398
570296580.0 0.7334764473 -0.6816313253
575296550.0 0.7294413325 -0.6867031421
580296520.0 0.7243421288 -0.6910696483
585296490.0 0.7203687069 -0.6957276073
590296460.0 0.7156752349 -0.7004678215
595296430.0 0.7107781113 -0.7050649624
600296400.0 0.706551852 -0.7093089749
605296370.0 0.7015904969 -0.7139773272
610296340.0 0.6973382631 -0.7190060374
615296310.0 0.6924892184 -0.7226722434
620296280.0 0.6876346788 -0.7275757142
625296250.0 0.683136777 -0.7326731614
630296220.0 0.6782199319 -0.7364909667
635296190.0 0.6730433383 -0.7413771614
640296160.0 0.6685788557 -0.745333359
645296130.0 0.6637124428 -0.7496748611
650296100.0 0.65842431 -0.7537758485
655296070.0 0.6531468644 -0.7582976455
660296040.0 0.6480894413 -0.7622815439
665296010.0 0.6435617018 -0.7668427536
670295980.0 0.6386100428 -0.7704396116
675295950.0 0.6336962812 -0.7748770374
680295920.0 0.6281237361 -0.7787599045
685295890.0 0.6232461133 -0.7832119309
690295860.0 0.6185378752 -0.7871460128
695295830.0 0.6126427161 -0.7913370581
700295800.0 0.6077417829 -0.7950246801
705295770.0 0.6026569045 -0.7990326206
710295740.0 0.5974841221 -0.802955632
715295710.0 0.5917931151 -0.8066459557
720295680.0 0.5866377668 -0.8106805624
725295650.0 0.5810220223 -0.8147941872
730295620.0 0.5755640048 -0.8183119879
735295590.0 0.5703718771 -0.8220110908
740295560.0 0.5650915146 -0.8257627779
745295530.0 0.5594137927 -0.8297949011
750295500.0 0.5538666575 -0.8330432858
755295470.0 0.5486198159 -0.8368039685
760295440.0 0.5429609191 -0.8401274835
765295410.0 0.5375531418 -0.8443476179
770295380.0 0.5317466312 -0.8470188654
775295350.0 0.5259419902 -0.8507059985
780295320.0 0.5207541221 -0.8540611375
785295290.0 0.5149213626 -0.8573791043
790295260.0 0.5097049588 -0.8611732088
795295230.0 0.50429357 -0.8645676709
800295200.0 0.4982544412 -0.8676260976
805295170.0 0.4925390919 -0.870444497
810295140.0 0.487091531 -0.8738015313
815295110.0 0.4813822092 -0.8774970103
820295080.0 0.4754751994 -0.8804596142
825295050.0 0.4696477829 -0.8834685118
830295020.0 0.4635220144 -0.8864463547
835294990.0 0.4578900851 -0.8891576027
840294960.0 0.4523204868 -0.8921653279
845294930.0 0.4463208154 -0.894835989
850294900.0 0.4407198944 -0.8982178494
855294870.0 0.4350735061 -0.9011698699
860294840.0 0.4289192708 -0.9041953147
865294810.0 0.423208998 -0.906808487
870294780.0 0.4169132054 -0.909435615
875294750.0 0.4112688 -0.9115579347
880294720.0 0.4052317619 -0.9143125102
885294690.0 0.3989337565 -0.9172093569
890294660.0 0.393390788 -0.9195544134
895294630.0 0.3870121118 -0.9218186836
900294600.0 0.3809869328 -0.9246804981
905294570.0 0.3752396639 -0.9269048816
910294540.0 0.3692306881 -0.9297763965
915294510.0 0.3622062812 -0.9316612
920294480.0 0.3563152775 -0.9345114437
925294450.0 0.3503493271 -0.9370111789
930294420.0 0.344392703 -0.938554945
935294390.0 0.3384453403 -0.9412185812
940294360.0 0.3319675705 -0.9433415394
945294330.0 0.3259319614 -0.9452107489
950294300.0 0.3197691705 -0.947250109
955294270.0 0.3131445284 -0.9497930063
960294240.0 0.3065130783 -0.9517649375
965294210.0 0.3005122568 -0.9533956536
970294180.0 0.2941494762 -0.9558035193
975294150.0 0.2885963459 -0.9577963155
980294120.0 0.2822010543 -0.9592892242
985294090.0 0.2758364673 -0.9608765184
990294060.0 0.2699032476 -0.9618005115
995294030.0 0.2629419951 -0.9642603385
1000294000.0 0.2566882604 -0.9656092283
1005293970.0 0.2502903446 -0.9677459956
1010293940.0 0.2438906903 -0.9691021532
1015293910.0 0.2383701292 -0.9708411641
1020293880.0 0.2311944093 -0.9721231002
1025293850.0 0.2253471437 -0.9735400367
1030293820.0 0.2191148676 -0.9747673713
1035293790.0 0.2131167143 -0.9762375289
1040293760.0 0.2056223564 -0.9780301134
1045293730.0 0.1992681188 -0.979122369
1050293700.0 0.1930697407 -0.9801372446
1055293670.0 0.1865991805 -0.9816687736
1060293640.0 0.1804964793 -0.9828485357
1065293610.0 0.1742520758 -0.9834166245
1070293580.0 0.1677023281 -0.984725932
1075293550.0 0.1612880596 -0.9857819812
1080293520.0 0.1550097621 -0.987183982
1085293490.0 0.1483586244 -0.9880380243
1090293460.0 0.1413258317 -0.9886949553
1095293430.0 0.1350126938 -0.9888887608
1100293400.0 0.1281170663 -0.9905493325
1105293370.0 0.1217622916 -0.9920576851
1110293340.0 0.1154628269 -0.9922369168
1115293310.0 0.1086961912 -0.9925571285
1120293280.0 0.102401358 -0.9930435452
1125293250.0 0.0963127279 -0.9939942677
1130293220.0 0.0901762578 -0.994264007
1135293190.0 0.0837166564 -0.9948005312
1140293160.0 0.076941447 -0.9954373014
1145293130.0 0.0696692511 -0.9957761194
1150293100.0 0.0630830129 -0.9965776573
1155293070.0 0.0563555551 -0.9967555297
1160293040.0 0.0494459563 -0.9968404727
1165293010.0 0.0429790158 -0.9970701378
1170292980.0 0.0366203439 -0.9978403078
1175292950.0 0.0304627242 -0.9974790325
1180292920.0 0.0241019909 -0.9979434642
1185292890.0 0.0183328639 -0.9977308188
1190292860.0 0.0122756314 -0.9981567959
1195292830.0 0.0054821757 -0.9978826159
1200292800.0 -0.0010850622 -0.997493128
1205292770.0 -0.0073948649 -0.9979129785
1210292740.0 -0.0136859055 -0.9981077265
1215292710.0 -0.0204455507 -0.9980377053
1220292680.0 -0.0271456663 -0.9979242654
1225292650.0 -0.0338685697 -0.9970605003
1230292620.0 -0.0399111269 -0.9970397002
1235292590.0 -0.046768843 -0.9963877276
1240292560.0 -0.0530853097 -0.9960378195
1245292530.0 -0.0595800382 -0.9953828633
1250292500.0 -0.0660969924 -0.9951132699
1255292470.0 -0.0728104852 -0.9948980129
1260292440.0 -0.0791923202 -0.9939359889
1265292410.0 -0.0854862208 -0.9930301582
1270292380.0 -0.0914155554 -0.9927941096
1275292350.0 -0.0980644873 -0.9921510615
1280292320.0 -0.1050327054 -0.9913803295
1285292290.0 -0.111998474 -0.9908615933
1290292260.0 -0.1184429779 -0.9899539251
1295292230.0 -0.1243361674 -0.9888856985
1300292200.0 -0.1303167303 -0.9885516875
1305292170.0 -0.1373095502 -0.9875068156
1310292140.0 -0.1433035916 -0.9864686163
1315292110.0 -0.1494578613 -0.9852360046
1320292080.0 -0.156020162 -0.9840909423
1325292050.0 -0.1627959607 -0.9831463563
1330292020.0 -0.1689359562 -0.9815248686
1335291990.0 -0.1761365518 -0.9805110229
1340291960.0 -0.1823184697 -0.978948019
1345291930.0 -0.1888449004 -0.9780357703
1350291900.0 -0.1954490272 -0.976296798
1355291870.0 -0.2008385353 -0.9754945068
1360291840.0 -0.2072002945 -0.9742046588
1365291810.0 -0.213673326 -0.9724328843
1370291780.0 -0.2200954808 -0.9709763343
1375291750.0 -0.2258436436 -0.96993228
1380291720.0 -0.2325242401 -0.9678674588
1385291690.0 -0.2385931289 -0.9664119457
1390291660.0 -0.2449334142 -0.9643962728
1395291630.0 -0.2511029853 -0.963176122
1400291600.0 -0.2577895935 -0.9617662931
1405291570.0 -0.2639687547 -0.9597727042
1410291540.0 -0.2703111844 -0.9580792461
1415291510.0 -0.2760272266 -0.9560419567
1420291480.0 -0.282834977 -0.9539415454
1425291450.0 -0.2887271436 -0.9520375752
1430291420.0 -0.2949165127 -0.9505301765
1435291390.0 -0.3006104346 -0.9478025462
1440291360.0 -0.3066182618 -0.9469684268
1445291330.0 -0.3128220418 -0.9447561403
1450291300.0 -0.3181030153 -0.942293215
1455291270.0 -0.3246073141 -0.940110609
1460291240.0 -0.3309979919 -0.9376958639
1465291210.0 -0.3375048179 -0.9355615065
1470291180.0 -0.3431824857 -0.9334563453
1475291150.0 -0.3493352058 -0.9307907785
1480291120.0 -0.3554320619 -0.9284474819
1485291090.0 -0.361588739 -0.9261819564
1490291060.0 -0.3676499914 -0.9240020314
1495291030.0 -0.3730674609 -0.9212225957
1500291000.0 -0.3793482088 -0.9186227632
1505290970.0 -0.3848321198 -0.9165429096
1510290940.0 -0.3910449897 -0.9142335562
1515290910.0 -0.3967362715 -0.9115486945
1520290880.0 -0.40250125 -0.9089669398
1525290850.0 -0.4083367844 -0.9058505513
1530290820.0 -0.4140821021 -0.9034429575
1535290790.0 -0.4207031592 -0.9009007155
1540290760.0 -0.4264479524 -0.8980730493
1545290730.0 -0.4319989392 -0.8950008057
1550290700.0 -0.4379244999 -0.8920246335
1555290670.0 -0.4435377707 -0.8889660764
1560290640.0 -0.449269253 -0.8864339313
1565290610.0 -0.454234484 -0.8827579717
1570290580.0 -0.4608729972 -0.8803928401
1575290550.0 -0.4661382529 -0.8769831633
1580290520.0 -0.4718060099 -0.873918974
1585290490.0 -0.4780072084 -0.8710187487
1590290460.0 -0.4834331882 -0.8677647437
1595290430.0 -0.4888565709 -0.8644059237
1600290400.0 -0.4943676336 -0.8609760179
1605290370.0 -0.5002306136 -0.858240395
1610290340.0 -0.5060522842 -0.8542057467
1615290310.0 -0.5110421333 -0.8510508294
1620290280.0 -0.5165400432 -0.8477473004
1625290250.0 -0.5215866605 -0.8443506316
1630290220.0 -0.5274420553 -0.8408426619
1635290190.0 -0.5324135022 -0.8371742692
1640290160.0 -0.5374810839 -0.8339753431
1645290130.0 -0.5432197948 -0.8305765821
1650290100.0 -0.5479864614 -0.8266656169
1655290070.0 -0.5537732446 -0.8230294956
1660290040.0 -0.5590822329 -0.8195379667
1665290010.0 -0.5642305439 -0.81565994
1670289980.0 -0.5691758835 -0.8126159053
1675289950.0 -0.5740926982 -0.8084507868
1680289920.0 -0.5799039774 -0.804888819
1685289890.0 -0.5852226683 -0.8003570366
1690289860.0 -0.5906029198 -0.7965867703
1695289830.0 -0.5957514827 -0.7923348953
1700289800.0 -0.6004186927 -0.7885449374
1705289770.0 -0.6057604099 -0.7849064355
1710289740.0 -0.6105273203 -0.780443159
1715289710.0 -0.6157979001 -0.7766164633
1720289680.0 -0.6209969754 -0.7724840766
1725289650.0 -0.6260247992 -0.7688325928
1730289620.0 -0.6308193533 -0.7644838035
1735289590.0 -0.6355466047 -0.7601776271
1740289560.0 -0.6403122717 -0.7562410887
1745289530.0 -0.6454852785 -0.7518165137
1750289500.0 -0.6502354614 -0.748267285
1755289470.0 -0.6548633917 -0.7433601159
1760289440.0 -0.6599140565 -0.7394305377
1765289410.0 -0.664247005 -0.7345171178
1770289380.0 -0.6685434769 -0.7311385721
1775289350.0 -0.6729211353 -0.7266496521
1780289320.0 -0.678176552 -0.7218406428
1785289290.0 -0.6831047736 -0.7175743903
1790289260.0 -0.6878760906 -0.7125731004
1795289230.0 -0.6922111356 -0.7080364201
1800289200.0 -0.6966614007 -0.7031457759
1805289170.0 -0.7008361349 -0.6985504372
1810289140.0 -0.7049769112 -0.6938841876
1815289110.0 -0.7099806902 -0.6898198483
1820289080.0 -0.7141484936 -0.6850896809
1825289050.0 -0.7185991145 -0.6807085145
1830289020.0 -0.7223434776 -0.6759649259
1835288990.0 -0.7271015764 -0.6716467986
1840288960.0 -0.730520416 -0.6669411759
1845288930.0 -0.7354927428 -0.6621804524
1850288900.0 -0.7393637029 -0.6571302196
1855288870.0 -0.7435094163 -0.6519984942
1860288840.0 -0.7484360438 -0.6470877127
1865288810.0 -0.7523555017 -0.6423515064
1870288780.0 -0.7564522542 -0.6370111651
1875288750.0 -0.7605895934 -0.6319119027
1880288720.0 -0.7643658249 -0.6271913787
1885288690.0 -0.7685203999 -0.621880465
1890288660.0 -0.773209844 -0.6165664037
1895288630.0 -0.775926511 -0.6115244059
1900288600.0 -0.7800235057 -0.6067195451
1905288570.0 -0.7844524956 -0.601729927
1910288540.0 -0.7880677403 -0.5958316142
1915288510.0 -0.7922153604 -0.5910718588
1920288480.0 -0.7957046545 -0.5862092604
1925288450.0 -0.7992933578 -0.5806205978
1930288420.0 -0.8029508733 -0.5750518043
1935288390.0 -0.806677832 -0.5699714997
1940288360.0 -0.810107385 -0.5647945471
1945288330.0 -0.8138644472 -0.5589974922
1950288300.0 -0.8176599516 -0.5538252895
1955288270.0 -0.8212901291 -0.5482260488
1960288240.0 -0.825055311 -0.5424796206
1965288210.0 -0.8284608931 -0.5364047209
1970288180.0 -0.8316007608 -0.531900578
1975288150.0 -0.8352078198 -0.5264520863
1980288120.0 -0.8381845674 -0.5212325019
1985288090.0 -0.8411466457 -0.5159054084
1990288060.0 -0.8443207196 -0.5098183491
1995288030.0 -0.8477989497 -0.5050749614
2000288000.0 -0.850690473 -0.500085339
2005287970.0 -0.853377659 -0.4941948937
2010287940.0 -0.8570780136 -0.4886455043
2015287910.0 -0.860298865 -0.4830094746
2020287880.0 -0.8633711362 -0.4774945102
2025287850.0 -0.8662957268 -0.4718692239
2030287820.0 -0.8688182691 -0.4657305348
2035287790.0 -0.8725041233 -0.4597344539
2040287760.0 -0.8754161365 -0.4539551605
2045287730.0 -0.878703838 -0.4487151248
2050287700.0 -0.8809414846 -0.4419861076
2055287670.0 -0.8834182947 -0.4366348451
2060287640.0 -0.8868770364 -0.4317298448
2065287610.0 -0.8892762422 -0.4255651927
2070287580.0 -0.8921975068 -0.4192668725
2075287550.0 -0.8947790376 -0.4134693597
2080287520.0 -0.8971946459 -0.4082238804
2085287490.0 -0.8997184972 -0.4024254591
2090287460.0 -0.9024927167 -0.3963514112
2095287430.0 -0.9052539797 -0.3902161318
2100287400.0 -0.9071243398 -0.3842886272
2105287370.0 -0.9097730891 -0.3785671263
2110287340.0 -0.9121935353 -0.3718169209
2115287310.0 -0.9146976529 -0.3664401766
2120287280.0 -0.9169016807 -0.3598751931
2125287250.0 -0.9192956869 -0.3544237208
2130287220.0 -0.921535005 -0.3482846971
2135287190.0 -0.9235656698 -0.3423030444
2140287160.0 -0.9257523933 -0.3360610574
2145287130.0 -0.9277925082 -0.3296913586
2150287100.0 -0.9294716114 -0.3236960655
2155287070.0 -0.931985509 -0.318113241
2160287040.0 -0.9332396632 -0.3115956221
2165287010.0 -0.9358695386 -0.3054199308
2170286980.0 -0.9373800958 -0.3001686961
2175286950.0 -0.9392851731 -0.2935120526
2180286920.0 -0.9412753331 -0.2883808546
2185286890.0 -0.9433313927 -0.2825045432
2190286860.0 -0.9445481721 -0.2762612846
2195286830.0 -0.9462804171 -0.2700231301
2200286800.0 -0.9477305225 -0.264177161
2205286770.0 -0.9491370702 -0.257954429
2210286740.0 -0.9507527758 -0.251612254
2215286710.0 -0.9524590125 -0.2455746144
2220286680.0 -0.9538260384 -0.2393746456
2225286650.0 -0.9555356752 -0.2330552646
2230286620.0 -0.956809678 -0.226025163
2235286590.0 -0.9587613277 -0.2200731734
2240286560.0 -0.9602668647 -0.2139699096
2245286530.0 -0.9612521901 -0.2076227221
2250286500.0 -0.9624940778 -0.2013186869
2255286470.0 -0.9636185601 -0.1938744211
2260286440.0 -0.9653242115 -0.1883679119
2265286410.0 -0.9663189787 -0.1818897061
2270286380.0 -0.9679174392 -0.1751505699
2275286350.0 -0.9685268275 -0.1689628071
2280286320.0 -0.9691986719 -0.1626094934
2285286290.0 -0.9704478406 -0.1561332736
2290286260.0 -0.97189997 -0.1495675192
2295286230.0 -0.9721583399 -0.1435581748
2300286200.0 -0.9729518053 -0.1371744086
2305286170.0 -0.974001234 -0.1312911522
2310286140.0 -0.975155582 -0.1246814508
2315286110.0 -0.9756504997 -0.1180604118
2320286080.0 -0.9762703318 -0.1114909813
2325286050.0 -0.9772849882 -0.1052397299
2330286020.0 -0.977811495 -0.0987846809
2335285990.0 -0.9777303404 -0.0926331933
2340285960.0 -0.9785167587 -0.0863440626
2345285930.0 -0.978961028 -0.0806696951
2350285900.0 -0.9792857378 -0.0733983987
2355285870.0 -0.9797433067 -0.0670358146
2360285840.0 -0.9798072099 -0.0609629226
2365285810.0 -0.980619897 -0.0542056465
2370285780.0 -0.981316765 -0.0483475892
2375285750.0 -0.9809826532 -0.0419352572
2380285720.0 -0.981058958 -0.0356140846
2385285690.0 -0.9813682808 -0.0297157495
2390285660.0 -0.9812511124 -0.0226586695
2395285630.0 -0.981829045 -0.0168871405
2400285600.0 -0.981406193 -0.0102663512
2405285570.0 -0.9818226455 -0.0038746231
2410285540.0 -0.9817518842 0.0021938622
2415285510.0 -0.9813528219 0.0078879671
2420285480.0 -0.9815349694 0.0144072586
2425285450.0 -0.9816400091 0.0209967585
2430285420.0 -0.9812479613 0.0277020252
2435285390.0 -0.9808711025 0.0337088685
2440285360.0 -0.9803285033 0.0401319958
2445285330.0 -0.9797900094 0.0459560704
2450285300.0 -0.9798983011 0.0530367823
2455285270.0 -0.9793495613 0.0594739336
2460285240.0 -0.9788507922 0.0658858304
2465285210.0 -0.9784718127 0.0728262141
2470285180.0 -0.9782091387 0.0786674668
2475285150.0 -0.9766480798 0.0855269839
2480285120.0 -0.9766062643 0.0915223602
2485285090.0 -0.9758156944 0.0981268982
2490285060.0 -0.975485849 0.1042974041
2495285030.0 -0.9743085014 0.1109260607
2500285000.0 -0.9739564268 0.1173044058
