!Created with skrf (http://scikit-rf.org).
# Hz S RI R 50.0 
!freq ReS11 ImS11
300000.0 -1.023196211 -0.181796726
5299970.0 -1.003184664 0.0073247411
10299940.0 -1.000826993 0.0124100071
15299910.0 -1.000118388 0.0250027848
20299880.0 -1.000142856 0.0288581694
25299850.0 -0.9993815392 0.0374519443
30299820.0 -0.9988806051 0.0455778263
35299790.0 -0.9983496876 0.050096008
40299760.0 -0.9969318777 0.057032236
45299730.0 -0.9967582463 0.0637601131
50299700.0 -0.9956427335 0.0712183376
55299670.0 -0.9951562168 0.0780695268
60299640.0 -0.9946578854 0.084622382
65299610.0 -0.993557199 0.0910838688
70299580.0 -0.9923197265 0.0983550921
75299550.0 -0.9918166183 0.1040615678
80299520.0 -0.9907353826 0.1111924351
85299490.0 -0.989961082 0.1178181695
90299460.0 -0.9887589428 0.124495311
95299430.0 -0.9876939526 0.1311769302
100299400.0 -0.9862967922 0.1376286721
105299370.0 -0.9854662732 0.1444217376
110299340.0 -0.9844642909 0.151204077
115299310.0 -0.9826919666 0.1578068692
120299280.0 -0.9823314727 0.1642076224
125299250.0 -0.9808399266 0.1710211242
130299220.0 -0.9794303918 0.1774506908
135299190.0 -0.9779769557 0.1837738166
140299160.0 -0.9771140338 0.1904942913
145299130.0 -0.9751592 0.1974163511
150299100.0 -0.9741040638 0.2036182251
155299070.0 -0.9725623772 0.2104193249
160299040.0 -0.9704320307 0.217172884
165299010.0 -0.9694126955 0.2233997523
170298980.0 -0.9674004007 0.2296938209
175298950.0 -0.9642972945 0.235473655
180298920.0 -0.9612413176 0.2406866606
185298890.0 -0.9610444208 0.2481899851
190298860.0 -0.9609501345 0.2552314274
195298830.0 -0.9586569717 0.2620506899
200298800.0 -0.957084101 0.2684125501
205298770.0 -0.9548736546 0.2742237994
210298740.0 -0.952859791 0.2809239409
215298710.0 -0.9509208235 0.2872908685
220298680.0 -0.9492785019 0.2939689723
225298650.0 -0.9471553581 0.3006747328
230298620.0 -0.9450928363 0.3057375409
235298590.0 -0.9422601208 0.3127768692
240298560.0 -0.9405272736 0.3186379
245298530.0 -0.9379611882 0.3249214059
250298500.0 -0.9356872842 0.3312864872
255298470.0 -0.9336347271 0.3373860609
260298440.0 -0.9312323956 0.3440967936
265298410.0 -0.9286996976 0.3496810636
270298380.0 -0.9263727342 0.3555857067
275298350.0 -0.923975727 0.3620379804
280298320.0 -0.9212044812 0.3678466327
285298290.0 -0.9185288507 0.3739212813
290298260.0 -0.9161810922 0.3800090448
295298230.0 -0.913391435 0.3864878293
300298200.0 -0.910780273 0.3927051587
305298170.0 -0.9082194635 0.3984132006
310298140.0 -0.905391916 0.4040020065
315298110.0 -0.9018203121 0.4102530585
320298080.0 -0.8998614067 0.4163671059
325298050.0 -0.8966024525 0.4219138096
330298020.0 -0.8939717624 0.4282075213
335297990.0 -0.8912200618 0.4340834368
340297960.0 -0.8877147895 0.4393587771
345297930.0 -0.8847238064 0.4458407138
350297900.0 -0.8817017042 0.4513708692
355297870.0 -0.87925677 0.4575877787
360297840.0 -0.8766653429 0.4632193513
365297810.0 -0.8726671899 0.4686875945
370297780.0 -0.8693504757 0.4742585883
375297750.0 -0.8659501987 0.4801067574
380297720.0 -0.8626457123 0.486053319
385297690.0 -0.859385059 0.4909520607
390297660.0 -0.855370104 0.4969930457
395297630.0 -0.8526882244 0.5025422749
400297600.0 -0.8486267642 0.5085225521
405297570.0 -0.8456995323 0.514197517
410297540.0 -0.8415782357 0.519441289
415297510.0 -0.8379550968 0.5251290527
420297480.0 -0.8338740411 0.5302941076
425297450.0 -0.8315012935 0.5360147612
430297420.0 -0.8274183826 0.541539195
435297390.0 -0.8237234443 0.5470220728
440297360.0 -0.8204123225 0.5521749639
445297330.0 -0.8162048497 0.5571729639
450297300.0 -0.8126974326 0.5627698662
455297270.0 -0.8085645921 0.5682018718
460297240.0 -0.8047389087 0.5732975963
465297210.0 -0.8013518092 0.578544754
470297180.0 -0.7969598591 0.5838999865
475297150.0 -0.7935230774 0.588812663
480297120.0 -0.7888050577 0.5947552056
485297090.0 -0.7857247523 0.5990555757
490297060.0 -0.7810568629 0.6047123696
495297030.0 -0.7780690984 0.609443241
500297000.0 -0.7723783608 0.6148175073
505296970.0 -0.7689396275 0.6196813704
510296940.0 -0.7653199936 0.6249014223
515296910.0 -0.7611051695 0.6297696191
520296880.0 -0.7573492253 0.6352257281
525296850.0 -0.7526555968 0.640245285
530296820.0 -0.7486450978 0.6450653098
535296790.0 -0.7446515467 0.6500228698
540296760.0 -0.7399963806 0.6548434622
545296730.0 -0.7352012366 0.6598811732
550296700.0 -0.730943479 0.6642390456
555296670.0 -0.7259061189 0.6690159284
560296640.0 -0.7214104556 0.6732190803
565296610.0 -0.7168476159 0.6778473879
570296580.0 -0.7121843654 0.6828691498
575296550.0 -0.7075905195 0.6881353146
580296520.0 -0.7026766941 0.6922397279
585296490.0 -0.6979915553 0.6970208075
590296460.0 -0.6939965141 0.7011062907
595296430.0 -0.6891486834 0.7053875176
600296400.0 -0.6842904579 0.7102079515
605296370.0 -0.6789296901 0.7138710467
610296340.0 -0.6744174507 0.7189210375
615296310.0 -0.6698073913 0.7232868295
620296280.0 -0.6652145825 0.7277615443
625296250.0 -0.6605535674 0.7316938148
630296220.0 -0.6556338035 0.7360746448
635296190.0 -0.651039459 0.7396353952
640296160.0 -0.6458318133 0.744378593
645296130.0 -0.6410365033 0.7482760851
650296100.0 -0.6356060123 0.7527575557
655296070.0 -0.6302582734 0.7571126403
660296040.0 -0.6254823263 0.7604965708
665296010.0 -0.6203350413 0.7649693511
670295980.0 -0.6150990336 0.7686935098
675295950.0 -0.6101052556 0.77313426
680295920.0 -0.6053157997 0.7768212796
685295890.0 -0.5998827572 0.7815588726
690295860.0 -0.5954442689 0.7850312493
695295830.0 -0.5902113583 0.7889486912
700295800.0 -0.5847634189 0.7927203444
705295770.0 -0.5793135949 0.7965656752
710295740.0 -0.5740734632 0.8000695592
715295710.0 -0.5684710555 0.8040096994
720295680.0 -0.5633633024 0.8078555993
725295650.0 -0.5578784889 0.8112712916
730295620.0 -0.5527547177 0.814788982
735295590.0 -0.5474290278 0.8180792153
740295560.0 -0.5417257009 0.8218030185
745295530.0 -0.5367376878 0.8250555053
750295500.0 -0.531030527 0.8283194634
755295470.0 -0.5253844874 0.8320015563
760295440.0 -0.5202283905 0.8358629931
765295410.0 -0.5143833617 0.8382802533
770295380.0 -0.5087246737 0.842257621
775295350.0 -0.5031242785 0.8454974717
780295320.0 -0.4975380715 0.8485936284
785295290.0 -0.4923281539 0.8519121601
790295260.0 -0.4859508749 0.8546268642
795295230.0 -0.4806290775 0.8585009122
800295200.0 -0.4747345906 0.8610578212
805295170.0 -0.468935382 0.8644737481
810295140.0 -0.4632017828 0.8676558874
815295110.0 -0.4577294544 0.8703267069
820295080.0 -0.4515418241 0.8735352615
825295050.0 -0.4457745678 0.8764097273
830295020.0 -0.439925484 0.8791096382
835294990.0 -0.434624348 0.8819497115
840294960.0 -0.4286173561 0.8846817106
845294930.0 -0.4227749119 0.887493025
850294900.0 -0.4167524226 0.8903407709
855294870.0 -0.4111698446 0.8929211626
860294840.0 -0.4050522549 0.8956659615
865294810.0 -0.39940054 0.8981297577
870294780.0 -0.3934789361 0.9003724749
875294750.0 -0.3869254288 0.9030837973
880294720.0 -0.3818485536 0.9049892128
885294690.0 -0.3753295273 0.9082556711
890294660.0 -0.3696646238 0.910515633
895294630.0 -0.3634500545 0.913015261
900294600.0 -0.3574024722 0.9145532827
905294570.0 -0.3516448087 0.9168381767
910294540.0 -0.3458136974 0.9192561468
915294510.0 -0.339186605 0.9216388761
920294480.0 -0.3328342142 0.9238018738
925294450.0 -0.3269674771 0.925602012
930294420.0 -0.3206952629 0.9277990578
935294390.0 -0.314696931 0.9296595373
940294360.0 -0.3088981736 0.9317757231
945294330.0 -0.3024924448 0.9340154088
950294300.0 -0.2961475054 0.935701545
955294270.0 -0.2901793024 0.937883744
960294240.0 -0.2836177274 0.9392802296
965294210.0 -0.2776422824 0.9414896264
970294180.0 -0.2712695432 0.9429967157
975294150.0 -0.2654359275 0.9451148833
980294120.0 -0.2593540972 0.9462201704
985294090.0 -0.2531569072 0.947664894
990294060.0 -0.2469531724 0.9495463782
995294030.0 -0.2407116445 0.9512057978
1000294000.0 -0.2341435721 0.9529482092
1005293970.0 -0.2277202722 0.9538913502
1010293940.0 -0.2217152683 0.9558005044
1015293910.0 -0.2155518107 0.9565846637
1020293880.0 -0.2092173976 0.9582202088
1025293850.0 -0.2033688632 0.9596486472
1030293820.0 -0.1970799946 0.961182341
1035293790.0 -0.1902987158 0.962093152
1040293760.0 -0.1836467471 0.9636128673
1045293730.0 -0.1775179268 0.96440729
1050293700.0 -0.1710417148 0.9656011211
1055293670.0 -0.1645994173 0.9663132132
1060293640.0 -0.1577882467 0.9681100973
1065293610.0 -0.1521476141 0.9688987785
1070293580.0 -0.14604994 0.969705608
1075293550.0 -0.140035851 0.9704629444
1080293520.0 -0.133390785 0.971119836
1085293490.0 -0.1267621937 0.9723449532
1090293460.0 -0.1200139945 0.9729795943
1095293430.0 -0.1133265611 0.9738727961
1100293400.0 -0.1067626806 0.9745339288
1105293370.0 -0.1003702807 0.97500125
1110293340.0 -0.0947188097 0.9756062219
1115293310.0 -0.0879323959 0.9761853303
1120293280.0 -0.0820720644 0.9766195575
1125293250.0 -0.0758012943 0.9772175217
1130293220.0 -0.0691203994 0.9778354477
1135293190.0 -0.0626265113 0.9784836017
1140293160.0 -0.0557990447 0.9784376215
1145293130.0 -0.0495950324 0.9791274805
1150293100.0 -0.0434210423 0.9796835093
1155293070.0 -0.0366490137 0.9798435341
1160293040.0 -0.0297343617 0.9798875254
1165293010.0 -0.0243627458 0.9799324265
1170292980.0 -0.0172731327 0.979748263
1175292950.0 -0.0108641117 0.979594581
1180292920.0 -0.0046679544 0.9800491382
1185292890.0 0.001659664 0.9799449593
1190292860.0 0.0080884563 0.9799306261
1195292830.0 0.0146446458 0.980232033
1200292800.0 0.0208074445 0.9798189925
1205292770.0 0.0271171581 0.980179073
1210292740.0 0.0338555456 0.9799448186
1215292710.0 0.0406171353 0.9789671964
1220292680.0 0.0464224562 0.9791195672
1225292650.0 0.0528693127 0.9789479116
1230292620.0 0.0592900397 0.9779481445
1235292590.0 0.0659289734 0.9776020552
1240292560.0 0.07262667 0.9774198234
1245292530.0 0.0792018804 0.9767953952
1250292500.0 0.0853983007 0.9764906198
1255292470.0 0.0918335767 0.9758589721
1260292440.0 0.0982581947 0.9752952211
1265292410.0 0.10455485 0.9741096634
1270292380.0 0.1114972925 0.9740421549
1275292350.0 0.1176991184 0.9729699971
1280292320.0 0.1238694448 0.9723428404
1285292290.0 0.1303950368 0.9713352238
1290292260.0 0.1364530719 0.9704927329
1295292230.0 0.1423945767 0.9695902571
1300292200.0 0.1492573787 0.9686169668
1305292170.0 0.1553481573 0.9675727644
1310292140.0 0.1623123419 0.9669382036
1315292110.0 0.168465106 0.9659736272
1320292080.0 0.1745852257 0.9648522982
1325292050.0 0.1812961224 0.9635929258
1330292020.0 0.1875544586 0.9619121855
1335291990.0 0.1941935264 0.960870893
1340291960.0 0.2008565767 0.9598002274
1345291930.0 0.2070085111 0.9579888296
1350291900.0 0.2138187975 0.9567790921
1355291870.0 0.2195751711 0.9553582537
1360291840.0 0.224676568 0.9537458325
1365291810.0 0.2319545811 0.9524550247
1370291780.0 0.238065043 0.9509086677
1375291750.0 0.2437419354 0.9488008686
1380291720.0 0.2504635279 0.947875124
1385291690.0 0.2566012605 0.9462140204
1390291660.0 0.262691427 0.9441753487
1395291630.0 0.2692233927 0.9423982523
1400291600.0 0.2754085342 0.940938944
1405291570.0 0.2820042927 0.9391474908
1410291540.0 0.2882372745 0.9372310812
1415291510.0 0.2944283599 0.9354300226
1420291480.0 0.3000053119 0.9332082691
1425291450.0 0.3060100781 0.9317382911
1430291420.0 0.3118021977 0.9297839443
1435291390.0 0.3182242005 0.9275503497
1440291360.0 0.3240472474 0.9255269348
1445291330.0 0.3299817185 0.9235153856
1450291300.0 0.3365927811 0.9209843502
1455291270.0 0.3426175767 0.9186577465
1460291240.0 0.3486802321 0.9169989026
1465291210.0 0.3546934935 0.9139919912
1470291180.0 0.3605458023 0.9123483569
1475291150.0 0.3669016524 0.9096525884
1480291120.0 0.3732822102 0.9071002958
1485291090.0 0.37878446 0.9046898348
1490291060.0 0.3848617732 0.9021649655
1495291030.0 0.3899538453 0.8998012274
1500291000.0 0.3960207183 0.8969124181
1505290970.0 0.4022613093 0.8944533917
1510290940.0 0.4080053461 0.8917176616
1515290910.0 0.4133905613 0.8889375554
1520290880.0 0.4205028606 0.8868062453
1525290850.0 0.4258132945 0.8840586359
1530290820.0 0.4312881034 0.8805731419
1535290790.0 0.4377662272 0.8778466297
1540290760.0 0.4435232248 0.8751647597
1545290730.0 0.4495584517 0.8718918523
1550290700.0 0.4552472589 0.8689906172
1555290670.0 0.4607097659 0.8662583186
1560290640.0 0.4665812479 0.8631594805
1565290610.0 0.4716938247 0.859612435
1570290580.0 0.4779469668 0.856808523
1575290550.0 0.4836089307 0.8540654793
1580290520.0 0.4890715372 0.8509277269
1585290490.0 0.4948598328 0.8473944204
1590290460.0 0.5012945989 0.8446258656
1595290430.0 0.5062427213 0.8406360662
1600290400.0 0.5119054277 0.8375725121
1605290370.0 0.5171462055 0.8347199389
1610290340.0 0.5224654108 0.8309617002
1615290310.0 0.5285328244 0.8279049893
1620290280.0 0.5343317289 0.8241930374
1625290250.0 0.5390736902 0.8205023592
1630290220.0 0.5444127815 0.8171711833
1635290190.0 0.550005568 0.8137751839
1640290160.0 0.5552815546 0.809996075
1645290130.0 0.5601592041 0.8061479044
1650290100.0 0.5656993697 0.8032296193
1655290070.0 0.5710797825 0.798311498
1660290040.0 0.576455591 0.7945787165
1665290010.0 0.5811429161 0.7918917344
1670289980.0 0.5865134969 0.7876815962
1675289950.0 0.5920112693 0.7833365615
1680289920.0 0.5975286545 0.7798120933
1685289890.0 0.6026227901 0.7754362139
1690289860.0 0.6081554693 0.7708859738
1695289830.0 0.6137026708 0.767096214
1700289800.0 0.6182211574 0.7634453403
1705289770.0 0.6230422946 0.7590528346
1710289740.0 0.6281244519 0.7551150261
1715289710.0 0.6336909854 0.7512781615
1720289680.0 0.6384182763 0.7472228935
1725289650.0 0.6430152295 0.7424327346
1730289620.0 0.6485779772 0.7389633287
1735289590.0 0.6527245948 0.7335624
1740289560.0 0.6574388579 0.7298389937
1745289530.0 0.6626121252 0.7252955418
1750289500.0 0.6672059484 0.7216383673
1755289470.0 0.6720086664 0.7168943377
1760289440.0 0.6774625969 0.7126746072
1765289410.0 0.6817860068 0.7087274159
1770289380.0 0.686220757 0.7042760952
1775289350.0 0.6909204821 0.6995986677
1780289320.0 0.6948917402 0.6947606863
1785289290.0 0.7003488982 0.690407216
1790289260.0 0.7046773332 0.685956301
1795289230.0 0.709435273 0.681174882
1800289200.0 0.7141383688 0.676393361
1805289170.0 0.7182478969 0.6716592148
1810289140.0 0.7229922944 0.6665018948
1815289110.0 0.7270425232 0.6623090278
1820289080.0 0.7315804047 0.6580457019
1825289050.0 0.7356772705 0.6529556679
1830289020.0 0.7395870424 0.6485586195
1835288990.0 0.7439676079 0.6437614043
1840288960.0 0.7479531551 0.6384377641
1845288930.0 0.7524138791 0.63385054
1850288900.0 0.7569792456 0.6290123662
1855288870.0 0.7613373085 0.6231986189
1860288840.0 0.7650299351 0.6184502273
1865288810.0 0.7694656605 0.612772049
1870288780.0 0.7736321652 0.607966863
1875288750.0 0.7773972001 0.6030042669
1880288720.0 0.781629482 0.5977299504
1885288690.0 0.785679155 0.5923869312
1890288660.0 0.7899038424 0.5868351577
1895288630.0 0.7933884055 0.5817957081
1900288600.0 0.7970852309 0.5768724324
1905288570.0 0.8010666945 0.5714052776
1910288540.0 0.8051340418 0.5662477427
1915288510.0 0.8092288106 0.5608661433
1920288480.0 0.8131975009 0.5553614045
1925288450.0 0.8163946323 0.5501044039
1930288420.0 0.8202135327 0.5444045084
1935288390.0 0.8238587744 0.5392542218
1940288360.0 0.8273235081 0.5334602616
1945288330.0 0.8312327798 0.5283931716
1950288300.0 0.8348059779 0.52213495
1955288270.0 0.8377923413 0.5167694387
1960288240.0 0.8416965189 0.5110014341
1965288210.0 0.8450305949 0.504911454
1970288180.0 0.848392107 0.4998598495
1975288150.0 0.8520730703 0.4948906969
1980288120.0 0.8551519613 0.4892429442
1985288090.0 0.857913572 0.4834348218
1990288060.0 0.861698961 0.4781768617
1995288030.0 0.8642488997 0.4725201721
2000288000.0 0.867530064 0.4676138336
2005287970.0 0.8701883652 0.4616968889
2010287940.0 0.8732323729 0.4560143049
2015287910.0 0.876751953 0.4500852857
2020287880.0 0.8796412513 0.4440212868
2025287850.0 0.8821729853 0.438264881
2030287820.0 0.8854584864 0.4324152946
2035287790.0 0.8888016174 0.4261498212
2040287760.0 0.8906925076 0.4210183045
2045287730.0 0.8938143898 0.4149890555
2050287700.0 0.8965033172 0.4088626628
2055287670.0 0.8991464971 0.4034089817
2060287640.0 0.9020827495 0.3976480161
2065287610.0 0.9044939415 0.3909723541
2070287580.0 0.9069916879 0.3855057273
2075287550.0 0.9097830007 0.3791907551
2080287520.0 0.9120392582 0.3731534445
2085287490.0 0.9149236035 0.3679324821
2090287460.0 0.9173793584 0.3613629268
2095287430.0 0.9197011833 0.3548056307
2100287400.0 0.9221645699 0.3485947957
2105287370.0 0.9239435971 0.3425489289
2110287340.0 0.9269689275 0.3362792811
2115287310.0 0.9291870043 0.3304319416
2120287280.0 0.9311135412 0.3246515713
2125287250.0 0.9330549642 0.3188473517
2130287220.0 0.9358109838 0.3120674721
2135287190.0 0.9373883294 0.3055148707
2140287160.0 0.9398367093 0.2993493705
2145287130.0 0.9415071207 0.293621279
2150287100.0 0.943622071 0.2869987577
2155287070.0 0.944947714 0.2805299032
2160287040.0 0.9472281722 0.2754422193
2165287010.0 0.9487361456 0.2689198482
2170286980.0 0.9509009913 0.2625178506
2175286950.0 0.9523398647 0.2562498244
2180286920.0 0.9536213236 0.2500096255
2185286890.0 0.9555259768 0.2446929261
2190286860.0 0.9569677017 0.2380298721
2195286830.0 0.958798145 0.2322450219
2200286800.0 0.9601909234 0.2257328879
2205286770.0 0.9613615551 0.2195319234
2210286740.0 0.9631612677 0.2134414998
2215286710.0 0.9643977164 0.2072432604
2220286680.0 0.9660971032 0.2006105736
2225286650.0 0.9675135866 0.1941392986
2230286620.0 0.9686213574 0.188054718
2235286590.0 0.9699399848 0.1816229321
2240286560.0 0.9708270175 0.1747935795
2245286530.0 0.9725466414 0.1685572481
2250286500.0 0.9735218329 0.1618192437
2255286470.0 0.9743462051 0.1553562335
2260286440.0 0.9756502944 0.1485350392
2265286410.0 0.9764855617 0.141801828
2270286380.0 0.9774491007 0.1353635472
2275286350.0 0.9782222097 0.1289157143
2280286320.0 0.9791794663 0.1226104058
2285286290.0 0.9800494503 0.1162933665
2290286260.0 0.9809038235 0.1097556344
2295286230.0 0.981875126 0.1035153722
2300286200.0 0.982356416 0.0968943783
2305286170.0 0.9827685313 0.0896547374
2310286140.0 0.9835039326 0.0837107661
2315286110.0 0.9839735058 0.0771751681
2320286080.0 0.9843690147 0.0703430297
2325286050.0 0.9846600099 0.0643919509
2330286020.0 0.9857916686 0.0582293165
2335285990.0 0.985665642 0.0512797907
2340285960.0 0.986195119 0.0447759234
2345285930.0 0.9864907668 0.0384072155
2350285900.0 0.9868776747 0.0318610111
2355285870.0 0.9867137994 0.0248571632
2360285840.0 0.9869649044 0.0186836973
2365285810.0 0.9871426311 0.0124991987
2370285780.0 0.9874672866 0.0061089209
2375285750.0 0.9872474712 -0.0006044028
2380285720.0 0.9868990601 -0.006803782
2385285690.0 0.9866772288 -0.0132466991
2390285660.0 0.9868969045 -0.0201275978
2395285630.0 0.9871230804 -0.0262476514
2400285600.0 0.9863888196 -0.0331899267
2405285570.0 0.9862405138 -0.0390702689
2410285540.0 0.9865289462 -0.0452852784
2415285510.0 0.9856814282 -0.0519771461
2420285480.0 0.9851943647 -0.0578444613
2425285450.0 0.9846763561 -0.0648108808
2430285420.0 0.9849047946 -0.0713261844
2435285390.0 0.9841260169 -0.0775300137
2440285360.0 0.9832130591 -0.0842640761
2445285330.0 0.9829719824 -0.0907706299
2450285300.0 0.9825473508 -0.0967864439
2455285270.0 0.9815388367 -0.1036381069
2460285240.0 0.9802582649 -0.1102314823
2465285210.0 0.9800270362 -0.1168301508
2470285180.0 0.9792406946 -0.1230539231
2475285150.0 0.9783430741 -0.1298420242
2480285120.0 0.9773441185 -0.1367501517
2485285090.0 0.9768190081 -0.1422196147
2490285060.0 0.9757225214 -0.1490315077
2495285030.0 0.9746070903 -0.1556917592
2500285000.0 0.9735690077 -0.1628762543
2505284970.0 0.9727497616 -0.1687258456
2510284940.0 0.9715117101 -0.1757053926
2515284910.0 0.9699771326 -0.1815036097
2520284880.0 0.9689249799 -0.1879378733
2525284850.0 0.967682374 -0.1944989834
2530284820.0 0.9663489462 -0.2006895572
2535284790.0 0.9647017532 -0.206925126
2540284760.0 0.9635277428 -0.2130819813
2545284730.0 0.9623138382 -0.2189487722
2550284700.0 0.9602700563 -0.2256074576
2555284670.0 0.9591386933 -0.2322352995
