!Created with skrf (http://scikit-rf.org).
# Hz S RI R 50.0 
!freq ReS11 ImS11
300000.0 -1.02134148 -0.1845489807
5299970.0 -1.003126249 0.0075611978
10299940.0 -1.001025919 0.0129442835
15299910.0 -1.000537915 0.0245635835
20299880.0 -1.000293253 0.028899727
25299850.0 -0.9989597361 0.0377651858
30299820.0 -0.9985386935 0.0449480007
35299790.0 -0.9983615431 0.0497131372
40299760.0 -0.9976313003 0.0569823058
45299730.0 -0.9969355753 0.0641312326
50299700.0 -0.9963088596 0.0713772504
55299670.0 -0.9951307643 0.0780170968
60299640.0 -0.9948145804 0.0845748975
65299610.0 -0.9938331273 0.0914368588
70299580.0 -0.9926676999 0.0979113892
75299550.0 -0.9921743392 0.1047333107
80299520.0 -0.9910314538 0.1114877977
85299490.0 -0.9897569807 0.1179950573
90299460.0 -0.9888037196 0.1246274701
95299430.0 -0.9881744755 0.1312312915
100299400.0 -0.9865613029 0.1384684303
105299370.0 -0.9853838049 0.1448091179
110299340.0 -0.9843227101 0.151604534
115299310.0 -0.9833655041 0.1579465926
120299280.0 -0.982066542 0.1651920878
125299250.0 -0.9806876453 0.1710134738
130299220.0 -0.9796536499 0.1772958429
135299190.0 -0.978159062 0.1842709729
140299160.0 -0.9764863429 0.1905016335
145299130.0 -0.9753193349 0.1974424268
150299100.0 -0.9736091856 0.2039746842
155299070.0 -0.9718280957 0.2102897201
160299040.0 -0.9707328911 0.216572161
165299010.0 -0.9692870224 0.223084706
170298980.0 -0.96739942 0.2294632347
175298950.0 -0.9636713982 0.235198892
180298920.0 -0.9618705194 0.241180658
185298890.0 -0.961521722 0.2481613183
190298860.0 -0.960735131 0.2553295646
195298830.0 -0.958324859 0.2617288778
200298800.0 -0.9569109518 0.2676112114
205298770.0 -0.9549929572 0.2749921356
210298740.0 -0.9533982655 0.2810468723
215298710.0 -0.9507310832 0.2872240587
220298680.0 -0.9493175245 0.2936320196
225298650.0 -0.9469562027 0.3001853857
230298620.0 -0.9444735688 0.3063543115
235298590.0 -0.9422854513 0.3126636925
240298560.0 -0.9400926168 0.3189367079
245298530.0 -0.9381563541 0.3251741385
250298500.0 -0.9365237343 0.330877127
255298470.0 -0.9341072017 0.3371112416
260298440.0 -0.9312434309 0.3431352008
265298410.0 -0.9290555092 0.3500620596
270298380.0 -0.9268219101 0.3560352763
275298350.0 -0.9235967393 0.3618293168
280298320.0 -0.9210988619 0.3676943802
285298290.0 -0.9187550491 0.3742556178
290298260.0 -0.9160387422 0.380211514
295298230.0 -0.9133183769 0.3861598777
300298200.0 -0.9105434676 0.3922769309
305298170.0 -0.9081302999 0.3977779017
310298140.0 -0.9051118573 0.4041967646
315298110.0 -0.9025587139 0.4103211207
320298080.0 -0.8999214764 0.4158733889
325298050.0 -0.8961953037 0.4217248067
330298020.0 -0.8934680841 0.4279895708
335297990.0 -0.8905757735 0.4340498355
340297960.0 -0.8875326441 0.4400229569
345297930.0 -0.8847958987 0.4455631058
350297900.0 -0.8818729907 0.4518644537
355297870.0 -0.8791939228 0.4574517064
360297840.0 -0.8762436 0.463184956
365297810.0 -0.8730762859 0.4687086239
370297780.0 -0.8701981288 0.4748129143
375297750.0 -0.8658923144 0.4802482198
380297720.0 -0.8625727137 0.4856311778
385297690.0 -0.8591861057 0.4914807481
390297660.0 -0.8558494399 0.4969815874
395297630.0 -0.8516542421 0.502661206
400297600.0 -0.8488669284 0.5079733939
405297570.0 -0.8449745727 0.5142334467
410297540.0 -0.8418508066 0.5197484465
415297510.0 -0.838353478 0.5244993953
420297480.0 -0.8348230673 0.5306469535
425297450.0 -0.8311339438 0.5361572899
430297420.0 -0.8275812236 0.5413522414
435297390.0 -0.8236415261 0.5468520657
440297360.0 -0.8200067139 0.5519367274
445297330.0 -0.8168402245 0.5575648871
450297300.0 -0.8127713613 0.56292256
455297270.0 -0.8088107946 0.5680334599
460297240.0 -0.8051395237 0.5738752742
465297210.0 -0.8012020322 0.5789500358
470297180.0 -0.7969970527 0.5837915849
475297150.0 -0.7928650588 0.5893225906
480297120.0 -0.7891151711 0.5947265867
485297090.0 -0.7849866925 0.5994792383
490297060.0 -0.7809771987 0.6042545153
495297030.0 -0.7768424194 0.6092352685
500297000.0 -0.7725908627 0.6144744791
505296970.0 -0.7682899026 0.6197684882
510296940.0 -0.7649732598 0.6248547333
515296910.0 -0.7606769943 0.6294973712
520296880.0 -0.7570425652 0.635180946
525296850.0 -0.7530549056 0.6405119522
530296820.0 -0.7488629322 0.6453063499
535296790.0 -0.7440081349 0.650090724
540296760.0 -0.7401400696 0.6547568711
545296730.0 -0.7353916782 0.6599421907
550296700.0 -0.7309080262 0.6640993382
555296670.0 -0.7257948353 0.6688276994
560296640.0 -0.7215361947 0.6735675338
565296610.0 -0.7168463483 0.6781279653
570296580.0 -0.7119039284 0.6827514776
575296550.0 -0.7080634142 0.6883743007
580296520.0 -0.7028323196 0.6924708366
585296490.0 -0.6987024582 0.6967051003
590296460.0 -0.6937900879 0.7012164683
595296430.0 -0.689269176 0.7060954194
600296400.0 -0.6842688963 0.7105251167
605296370.0 -0.679838668 0.7146494507
610296340.0 -0.6751989996 0.7189141909
615296310.0 -0.6699247664 0.7230461536
620296280.0 -0.6649820158 0.7274027793
625296250.0 -0.6603579273 0.7314730862
630296220.0 -0.6554182179 0.7361625525
635296190.0 -0.6506351591 0.7400948683
640296160.0 -0.6457424488 0.7443012605
645296130.0 -0.6407843892 0.7486287208
650296100.0 -0.6364324469 0.7521812455
655296070.0 -0.630345812 0.7570718575
660296040.0 -0.6257379305 0.7608600819
665296010.0 -0.6201509889 0.7648949993
670295980.0 -0.6156227361 0.7689296867
675295950.0 -0.6101406745 0.7738348372
680295920.0 -0.6050541272 0.7772164921
685295890.0 -0.6002513131 0.7808086744
690295860.0 -0.5950817476 0.7857639997
695295830.0 -0.589850942 0.7884678532
700295800.0 -0.5846381931 0.7923018663
705295770.0 -0.5794137208 0.7959438857
710295740.0 -0.573704166 0.7999996135
715295710.0 -0.5688622582 0.803338822
720295680.0 -0.5630926699 0.8079072228
725295650.0 -0.5574096874 0.8113214107
730295620.0 -0.552613867 0.8147549033
735295590.0 -0.5477951025 0.8181017763
740295560.0 -0.5416629181 0.8219411734
745295530.0 -0.5364943271 0.8252949612
750295500.0 -0.5304143872 0.829276769
755295470.0 -0.5251813082 0.8331470096
760295440.0 -0.5200756813 0.83569731
765295410.0 -0.5148952493 0.8390787361
770295380.0 -0.5088580606 0.8424074666
775295350.0 -0.503161363 0.8454766581
780295320.0 -0.4978231818 0.8491728361
785295290.0 -0.4918846823 0.8521752653
790295260.0 -0.4862951037 0.8550180193
795295230.0 -0.4805672654 0.8585166348
800295200.0 -0.4742557228 0.861465185
805295170.0 -0.4686509463 0.8640061161
810295140.0 -0.4635309952 0.8674400917
815295110.0 -0.4575655167 0.8702030894
820295080.0 -0.4522177403 0.8733179984
825295050.0 -0.4459955331 0.876165149
830295020.0 -0.4403199643 0.8790322238
835294990.0 -0.4341938077 0.8820244942
840294960.0 -0.4283970864 0.885003049
845294930.0 -0.4229058375 0.8878898793
850294900.0 -0.4172747452 0.8902200301
855294870.0 -0.4107698436 0.8928987612
860294840.0 -0.4046046872 0.8957649845
865294810.0 -0.3991735615 0.8985929231
870294780.0 -0.3932636255 0.9009257088
875294750.0 -0.3871915765 0.9034222066
880294720.0 -0.3813992328 0.9056552833
885294690.0 -0.375382633 0.9080401256
890294660.0 -0.3694992327 0.9105847954
895294630.0 -0.3633992218 0.9127415606
900294600.0 -0.3574447416 0.9150383814
905294570.0 -0.3513720413 0.9171510794
910294540.0 -0.3449542546 0.9195415027
915294510.0 -0.33876974 0.9215507909
920294480.0 -0.3329941267 0.9234593986
925294450.0 -0.3271584029 0.9258684373
930294420.0 -0.3207569573 0.9280236708
935294390.0 -0.3145427085 0.9297977323
940294360.0 -0.3091048041 0.9315330181
945294330.0 -0.3024752037 0.9335928469
950294300.0 -0.2967428986 0.9356182803
955294270.0 -0.2899013145 0.9367475059
960294240.0 -0.2840027595 0.9391113381
965294210.0 -0.2779012807 0.9416119152
970294180.0 -0.2711365724 0.9425307541
975294150.0 -0.2649897649 0.9447315712
980294120.0 -0.2591849845 0.946522606
985294090.0 -0.2533200457 0.9479322008
990294060.0 -0.2473891214 0.9496676978
995294030.0 -0.2402525519 0.9513725065
1000294000.0 -0.2344928423 0.9527840244
1005293970.0 -0.2278706833 0.9539924574
1010293940.0 -0.2217079744 0.9561517172
1015293910.0 -0.2155949435 0.9569318635
1020293880.0 -0.209408023 0.958732597
1025293850.0 -0.2029975942 0.9601066383
1030293820.0 -0.1966905527 0.9609564266
1035293790.0 -0.1905345287 0.9620538657
1040293760.0 -0.1837210668 0.9634771707
1045293730.0 -0.1774707834 0.9646723012
1050293700.0 -0.1707161863 0.9659746012
1055293670.0 -0.1645699572 0.9667222557
1060293640.0 -0.1583789193 0.968125067
1065293610.0 -0.1520391765 0.9685291351
1070293580.0 -0.1456764567 0.9695673915
1075293550.0 -0.139593238 0.970690318
1080293520.0 -0.1328205678 0.9716470995
1085293490.0 -0.126354615 0.9720251255
1090293460.0 -0.1197450157 0.9730083836
1095293430.0 -0.1135894977 0.9736916754
1100293400.0 -0.1068361556 0.9749152489
1105293370.0 -0.1004229466 0.9747266286
1110293340.0 -0.0941748501 0.9757864314
1115293310.0 -0.088382862 0.9770492023
1120293280.0 -0.0817030316 0.9769861281
1125293250.0 -0.0752774038 0.9770416064
1130293220.0 -0.0689516444 0.9778711306
1135293190.0 -0.0626755155 0.97832743
1140293160.0 -0.0562368429 0.9788380362
1145293130.0 -0.0496885375 0.9792698663
1150293100.0 -0.0430920413 0.97956793
1155293070.0 -0.0367756677 0.9793710372
1160293040.0 -0.0301836522 0.9800574775
1165293010.0 -0.0237744191 0.9803522907
1170292980.0 -0.0171915239 0.9799324461
1175292950.0 -0.0110325617 0.9801408218
1180292920.0 -0.0046164728 0.980229567
1185292890.0 0.0013402655 0.979994659
1190292860.0 0.0079342007 0.9802365361
1195292830.0 0.01432852 0.9798923559
1200292800.0 0.0211497045 0.9801972207
1205292770.0 0.027545737 0.9795898974
1210292740.0 0.0340391557 0.9798064988
1215292710.0 0.0402466607 0.9792155233
1220292680.0 0.0465325 0.9790749412
1225292650.0 0.0535787818 0.9786149761
1230292620.0 0.0594370219 0.978194401
1235292590.0 0.0661115655 0.9779365258
1240292560.0 0.0728421711 0.9775853205
1245292530.0 0.0789133946 0.9766085173
1250292500.0 0.0854290765 0.9766167509
1255292470.0 0.0919844759 0.975804509
1260292440.0 0.0981259705 0.9752219537
1265292410.0 0.1049758285 0.9750386617
1270292380.0 0.1108661502 0.9739089121
1275292350.0 0.1172124329 0.9727775909
1280292320.0 0.1242444521 0.9722118755
1285292290.0 0.1310435939 0.9709868699
1290292260.0 0.1368857857 0.9704251913
1295292230.0 0.143016641 0.96954054
1300292200.0 0.1493841516 0.9686906464
1305292170.0 0.1559575332 0.9678002057
1310292140.0 0.1620550576 0.9665040706
1315292110.0 0.1683733378 0.9655499243
1320292080.0 0.1748802721 0.9638337922
1325292050.0 0.1809371896 0.9631041923
1330292020.0 0.1875320019 0.9623481662
1335291990.0 0.1943796594 0.9608247322
1340291960.0 0.2006730571 0.9598377158
1345291930.0 0.2069542588 0.9582009189
1350291900.0 0.213468415 0.9569980074
1355291870.0 0.2197964669 0.9552094259
1360291840.0 0.2254835176 0.9541402288
1365291810.0 0.2318955914 0.9521565239
1370291780.0 0.2378291558 0.9504980853
1375291750.0 0.2443244772 0.9494193093
1380291720.0 0.2502792274 0.9476534323
1385291690.0 0.2565887847 0.9456046844
1390291660.0 0.2635250467 0.9438442157
1395291630.0 0.2695456057 0.9425832393
1400291600.0 0.2760369441 0.9404078023
1405291570.0 0.2817408335 0.9388697353
1410291540.0 0.287566777 0.9366720775
1415291510.0 0.2941922455 0.9353080793
1420291480.0 0.3002611623 0.9334262659
1425291450.0 0.3063299976 0.9311491984
1430291420.0 0.3120336764 0.9296440033
1435291390.0 0.3189833489 0.9277543563
1440291360.0 0.3238784881 0.9251680748
1445291330.0 0.330251302 0.9236486787
1450291300.0 0.3361019191 0.9210411303
1455291270.0 0.3419140638 0.9186416947
1460291240.0 0.3488843356 0.9165737763
1465291210.0 0.354563371 0.9145503086
1470291180.0 0.3604127042 0.9119262084
1475291150.0 0.3672796755 0.9098775584
1480291120.0 0.3729561027 0.9072049288
1485291090.0 0.3790385644 0.9047322717
1490291060.0 0.3846385197 0.9022234693
1495291030.0 0.3907498187 0.899762475
1500291000.0 0.3968167862 0.8969572458
1505290970.0 0.402741207 0.8947257425
1510290940.0 0.4083213083 0.8909492293
1515290910.0 0.4143788378 0.8892532012
1520290880.0 0.419728194 0.8865115364
1525290850.0 0.4260895027 0.8831284261
1530290820.0 0.431517733 0.8810796717
1535290790.0 0.4376657515 0.8776019804
1540290760.0 0.4435930476 0.8753281194
1545290730.0 0.4497603891 0.8720240041
1550290700.0 0.4555803761 0.8690646743
1555290670.0 0.4612871012 0.8666049392
1560290640.0 0.4661976338 0.8631204306
1565290610.0 0.4723941996 0.8601822307
1570290580.0 0.4780090107 0.8572364382
1575290550.0 0.4833092001 0.8537394763
1580290520.0 0.4894702176 0.8510627356
1585290490.0 0.4946987174 0.8473464771
1590290460.0 0.5010083272 0.8443082296
1595290430.0 0.5064215568 0.8409786003
1600290400.0 0.5120445096 0.837798825
1605290370.0 0.5173053175 0.8346395096
1610290340.0 0.5227097142 0.831039802
1615290310.0 0.5282515979 0.8274461178
1620290280.0 0.5339616082 0.824365513
1625290250.0 0.5392975002 0.8204919453
1630290220.0 0.544400009 0.8171136169
1635290190.0 0.5496232177 0.8137355973
1640290160.0 0.5548547066 0.8101316377
1645290130.0 0.560148665 0.8063916806
1650290100.0 0.5657193849 0.8022770799
1655290070.0 0.5706247619 0.7980647131
1660290040.0 0.5766362243 0.7951600414
1665290010.0 0.5819407997 0.7914638821
1670289980.0 0.5865556606 0.7873717725
1675289950.0 0.5918766014 0.7836826822
1680289920.0 0.5971169095 0.7797059097
1685289890.0 0.6030751537 0.7753482352
1690289860.0 0.607971345 0.7708207728
1695289830.0 0.6133203635 0.7672761152
1700289800.0 0.6190013644 0.763346022
1705289770.0 0.6231536196 0.7592357105
1710289740.0 0.6285146219 0.7553723838
1715289710.0 0.6336890237 0.7509172446
1720289680.0 0.6383868968 0.747009921
1725289650.0 0.6432586966 0.7426449701
1730289620.0 0.6484799074 0.7382006126
1735289590.0 0.6532709642 0.7341863739
1740289560.0 0.6580310978 0.7302103392
1745289530.0 0.6628337628 0.7260198572
1750289500.0 0.6670688535 0.7210723652
1755289470.0 0.6723485272 0.7168206154
1760289440.0 0.6773030358 0.7125620314
1765289410.0 0.6815521374 0.708458086
1770289380.0 0.6864416013 0.7036772194
1775289350.0 0.6908516412 0.6995435278
1780289320.0 0.69567119 0.6949292821
1785289290.0 0.7005377669 0.6900529888
1790289260.0 0.7048311347 0.6854918336
1795289230.0 0.7097992668 0.6807547665
1800289200.0 0.7144393432 0.6757479661
1805289170.0 0.7194883518 0.6712645267
1810289140.0 0.7231851398 0.6668552155
1815289110.0 0.7269470764 0.662432368
1820289080.0 0.7313378161 0.6573815226
1825289050.0 0.7357575028 0.6528051231
1830289020.0 0.7400808472 0.6486366935
1835288990.0 0.7448306819 0.6432670823
1840288960.0 0.7483216458 0.638450397
1845288930.0 0.7526974606 0.6334711351
1850288900.0 0.7571423336 0.6283296388
1855288870.0 0.7608755322 0.6233351069
1860288840.0 0.7656557251 0.6179133899
1865288810.0 0.769244743 0.6129275273
1870288780.0 0.7739295448 0.6074311694
1875288750.0 0.7776210428 0.6028670979
1880288720.0 0.7821571516 0.5973947293
1885288690.0 0.7862117669 0.5925595419
1890288660.0 0.7895596596 0.5866462717
1895288630.0 0.7938841284 0.58177821
1900288600.0 0.7973439071 0.5765348335
1905288570.0 0.8013195929 0.5715909998
1910288540.0 0.8052817113 0.5659435643
1915288510.0 0.8091492733 0.5604405159
1920288480.0 0.8126942619 0.5549983738
1925288450.0 0.8166151204 0.5498115246
1930288420.0 0.8206204618 0.5446642516
1935288390.0 0.8242582124 0.5392845225
1940288360.0 0.8275037791 0.5331592491
1945288330.0 0.8311979621 0.5279553554
1950288300.0 0.8348213999 0.522012096
1955288270.0 0.8383138866 0.5162833041
1960288240.0 0.8419725108 0.5108076041
1965288210.0 0.8455761555 0.5049307004
1970288180.0 0.8487435869 0.4995389621
1975288150.0 0.8519961037 0.4944274623
1980288120.0 0.8547966727 0.4888400187
1985288090.0 0.8580859684 0.4833807995
1990288060.0 0.8611909492 0.47794435
1995288030.0 0.8641801763 0.4726596665
2000288000.0 0.8667443191 0.4671831261
2005287970.0 0.8702084093 0.4614177124
2010287940.0 0.8741284366 0.4554704738
2015287910.0 0.8762383152 0.4498331309
2020287880.0 0.8795483301 0.4441652037
2025287850.0 0.8824837613 0.4382445804
2030287820.0 0.8851293515 0.4322625968
2035287790.0 0.887787106 0.4259893701
2040287760.0 0.8913481707 0.4205331435
2045287730.0 0.8939460677 0.414855874
2050287700.0 0.8964771051 0.4082019071
2055287670.0 0.8994236142 0.4025583824
2060287640.0 0.9016169433 0.3968621894
2065287610.0 0.9045991883 0.3909702206
2070287580.0 0.9071609935 0.385197274
2075287550.0 0.910073208 0.3787527811
2080287520.0 0.9122006191 0.3729045192
2085287490.0 0.9148957725 0.3670179522
2090287460.0 0.9171079563 0.3605974761
2095287430.0 0.9199337612 0.3549582061
2100287400.0 0.9219471146 0.3491899448
2105287370.0 0.9249061929 0.3425926369
2110287340.0 0.9266009216 0.336414841
2115287310.0 0.9290541135 0.330347
2120287280.0 0.9311533429 0.3242436447
2125287250.0 0.9336142097 0.3178748133
2130287220.0 0.9354844532 0.3115922885
2135287190.0 0.9375387208 0.3055266533
2140287160.0 0.9395248422 0.2992836822
2145287130.0 0.9415064722 0.2927274645
2150287100.0 0.9433107336 0.2862079247
2155287070.0 0.9450945935 0.2813027496
2160287040.0 0.9473339018 0.2745627269
2165287010.0 0.9496184015 0.2680041888
2170286980.0 0.9506938685 0.2621627721
2175286950.0 0.9526685224 0.2558903617
2180286920.0 0.9545566471 0.2503316083
2185286890.0 0.9561179666 0.2442078985
2190286860.0 0.9572570145 0.2380359354
2195286830.0 0.9590342665 0.2319450959
2200286800.0 0.9606073911 0.2254191058
2205286770.0 0.9618589983 0.2194321967
2210286740.0 0.963161326 0.2133533261
2215286710.0 0.96448681 0.2070966336
2220286680.0 0.9661475493 0.2000564317
2225286650.0 0.9673753242 0.193427477
2230286620.0 0.9688360471 0.1871993842
2235286590.0 0.9699706466 0.1807583827
2240286560.0 0.970696145 0.1743061385
2245286530.0 0.9721464639 0.1675333138
2250286500.0 0.973580941 0.1609599616
2255286470.0 0.9747336504 0.1549416284
2260286440.0 0.975690702 0.1481311853
2265286410.0 0.9770630078 0.1420386996
2270286380.0 0.9777565447 0.1356547806
2275286350.0 0.978608937 0.1286845235
2280286320.0 0.978953285 0.1224745429
2285286290.0 0.9799878843 0.1156941425
2290286260.0 0.9809851961 0.1090412424
2295286230.0 0.9815307794 0.1027855415
2300286200.0 0.9817868822 0.0966272124
2305286170.0 0.9832457559 0.0904645497
2310286140.0 0.98359238 0.0830043301
2315286110.0 0.9840255867 0.0767654735
2320286080.0 0.9840859068 0.0700498836
2325286050.0 0.9854158245 0.0639102483
2330286020.0 0.9854311354 0.0576953505
2335285990.0 0.9855319013 0.0504006694
2340285960.0 0.9860441457 0.0446988767
2345285930.0 0.9862441166 0.0383476928
2350285900.0 0.986657991 0.0315237928
2355285870.0 0.9868767251 0.0250230049
2360285840.0 0.9874423733 0.0179619403
2365285810.0 0.9874956878 0.0116379336
2370285780.0 0.9870022942 0.0051917477
2375285750.0 0.9870262875 -0.0007020017
2380285720.0 0.987253282 -0.0074264071
2385285690.0 0.987311177 -0.0134788203
2390285660.0 0.9869202405 -0.020232023
2395285630.0 0.9862580808 -0.0268042271
2400285600.0 0.9864673744 -0.0336369897
2405285570.0 0.9858895515 -0.0392577358
2410285540.0 0.9862670617 -0.0460834182
2415285510.0 0.9859899529 -0.051981546
2420285480.0 0.985180608 -0.0587563915
2425285450.0 0.9850835849 -0.065327649
2430285420.0 0.9842370817 -0.0714755627
2435285390.0 0.9839379272 -0.0781577239
2440285360.0 0.9838022236 -0.0842990228
2445285330.0 0.982737391 -0.0906797995
2450285300.0 0.9826578588 -0.0974907205
2455285270.0 0.9815816376 -0.1042640775
2460285240.0 0.9808183278 -0.110172708
2465285210.0 0.9797472269 -0.1170581097
2470285180.0 0.9793304416 -0.1235248787
2475285150.0 0.9785935279 -0.1301711086
2480285120.0 0.9775332264 -0.1364198745
2485285090.0 0.9763195649 -0.143132001
2490285060.0 0.9750260818 -0.1495147607
2495285030.0 0.9745391004 -0.1556760703
2500285000.0 0.9737697853 -0.1630022553
2505284970.0 0.9716307624 -0.1690620364
2510284940.0 0.9708000019 -0.1756892343
2515284910.0 0.970248255 -0.1822507485
2520284880.0 0.968647449 -0.1886840226
2525284850.0 0.9676016865 -0.1954307799
2530284820.0 0.9663923671 -0.2008706233
2535284790.0 0.9647915541 -0.2073346803
2540284760.0 0.9638790093 -0.2132043247
2545284730.0 0.9620192377 -0.2198856694
2550284700.0 0.9606841728 -0.2263075632
2555284670.0 0.9588205174 -0.2324283217
