!Created with skrf (http://scikit-rf.org).
# Hz S RI R 50.0 
!freq ReS11 ImS11
45000000.0 -0.0037755966186523438 -0.0008529424667358398
49995500.0 -0.0039865970611572266 -0.0003402233123779297
54991000.0 -0.004258871078491211 0.00012111663818359375
59986500.0 -0.00457453727722168 0.0003643035888671875
64982000.0 -0.004781246185302734 0.0009870529174804688
69977500.0 -0.004753589630126953 0.001519918441772461
74973000.0 -0.0047419071197509766 0.002110004425048828
79968500.0 -0.0047512054443359375 0.0026328563690185547
84964000.0 -0.004517316818237305 0.003228902816772461
89959500.0 -0.004369974136352539 0.0038595199584960938
94955000.0 -0.003924846649169922 0.004400491714477539
99950500.0 -0.003460407257080078 0.005025386810302734
104946000.0 -0.0030167102813720703 0.005480289459228516
109941500.0 -0.0024406909942626953 0.006059408187866211
114937000.0 -0.0018277168273925781 0.006455421447753906
119932500.0 -0.0010788440704345703 0.006687641143798828
124928000.0 -0.00027680397033691406 0.006872892379760742
129923500.0 0.0005524158477783203 0.0069196224212646484
134919000.0 0.0013210773468017578 0.007009029388427734
139914500.0 0.002160310745239258 0.0069122314453125
144910000.0 0.0030641555786132812 0.006857156753540039
149905500.0 0.0038106441497802734 0.006523609161376953
154901000.0 0.004613161087036133 0.006132602691650391
159896500.0 0.005327939987182617 0.0056116580963134766
164892000.0 0.006034135818481445 0.004978179931640625
169887500.0 0.006642580032348633 0.004479408264160156
174883000.0 0.00720667839050293 0.0037021636962890625
179878500.0 0.007785797119140625 0.003020763397216797
184874000.0 0.008076667785644531 0.0020895004272460938
189869500.0 0.008342742919921875 0.00118255615234375
194865000.0 0.00855255126953125 0.00027179718017578125
199860500.0 0.008608818054199219 -0.0007290840148925781
204856000.0 0.008583545684814453 -0.0016636848449707031
209851500.0 0.008477210998535156 -0.00266265869140625
214847000.0 0.00825357437133789 -0.0035490989685058594
219842500.0 0.00785970687866211 -0.004566669464111328
224838000.0 0.0074198246002197266 -0.00534367561340332
229833500.0 0.006808280944824219 -0.006284952163696289
234829000.0 0.006190776824951172 -0.0070340633392333984
239824500.0 0.0053942203521728516 -0.007807016372680664
244820000.0 0.0045070648193359375 -0.008388519287109375
249815500.0 0.0036487579345703125 -0.009046077728271484
254811000.0 0.0030989646911621094 -0.009461402893066406
259806500.0 0.002029895782470703 -0.009701728820800781
264802000.0 0.0010428428649902344 -0.010096073150634766
269797500.0 -7.104873657226562e-05 -0.010178089141845703
274793000.0 -0.0011234283447265625 -0.010218143463134766
279788500.0 -0.00215911865234375 -0.010043621063232422
284784000.0 -0.0032935142517089844 -0.009869575500488281
289779500.0 -0.004389762878417969 -0.009496212005615234
294775000.0 -0.0054759979248046875 -0.0091552734375
299770500.0 -0.006500720977783203 -0.008471012115478516
304766000.0 -0.00745844841003418 -0.007787227630615234
309761500.0 -0.008204936981201172 -0.007052421569824219
314757000.0 -0.00899505615234375 -0.006147861480712891
319752500.0 -0.009727954864501953 -0.005253791809082031
324748000.0 -0.010162353515625 -0.004160881042480469
329743500.0 -0.010859012603759766 -0.003132343292236328
334739000.0 -0.011141300201416016 -0.0019130706787109375
339734500.0 -0.011278152465820312 -0.0006246566772460938
344730000.0 -0.01139974594116211 0.0005831718444824219
349725500.0 -0.011340141296386719 0.0018315315246582031
354721000.0 -0.011167526245117188 0.003070354461669922
359716500.0 -0.010727882385253906 0.004231929779052734
364712000.0 -0.010339736938476562 0.005437374114990234
369707500.0 -0.009640216827392578 0.006484031677246094
374703000.0 -0.009038448333740234 0.007611751556396484
379698500.0 -0.008052825927734375 0.008432388305664062
384694000.0 -0.007279872894287109 0.009325981140136719
389689500.0 -0.006138324737548828 0.010159969329833984
394685000.0 -0.005115985870361328 0.010718822479248047
399680500.0 -0.0038747787475585938 0.011209964752197266
404676000.0 -0.002739429473876953 0.011662960052490234
409671500.0 -0.0013699531555175781 0.011961936950683594
414667000.0 -0.000156402587890625 0.012105464935302734
419662500.0 0.0011591911315917969 0.012001514434814453
424658000.0 0.0022802352905273438 0.011858940124511719
429653500.0 0.003730297088623047 0.011536121368408203
434649000.0 0.00490570068359375 0.01111745834350586
439644500.0 0.006005287170410156 0.01061391830444336
444640000.0 0.007136821746826172 0.009837627410888672
449635500.0 0.008169174194335938 0.008984565734863281
454631000.0 0.009137630462646484 0.008265495300292969
459626500.0 0.00991201400756836 0.007218837738037109
464622000.0 0.010631561279296875 0.0060787200927734375
469617500.0 0.011162281036376953 0.005026817321777344
474613000.0 0.011779308319091797 0.0037717819213867188
479608500.0 0.012024879455566406 0.0024261474609375
484604000.0 0.012272834777832031 0.0011916160583496094
489599500.0 0.012321949005126953 -0.00017452239990234375
494595000.0 0.012235641479492188 -0.0014233589172363281
499590500.0 0.012085914611816406 -0.002586841583251953
504586000.0 0.01174306869506836 -0.003986358642578125
509581500.0 0.011188983917236328 -0.005083560943603516
514577000.0 0.010642528533935547 -0.006252288818359375
519572500.0 0.009922027587890625 -0.007271766662597656
524568000.0 0.009011268615722656 -0.008197784423828125
529563500.0 0.008217811584472656 -0.00919198989868164
534559000.0 0.007286548614501953 -0.009900093078613281
539554500.0 0.006165504455566406 -0.010538578033447266
544550000.0 0.005122661590576172 -0.011067390441894531
549545500.0 0.004058837890625 -0.01157236099243164
554541000.0 0.002845287322998047 -0.01190328598022461
559536500.0 0.0017294883728027344 -0.012210845947265625
564532000.0 0.00038814544677734375 -0.012337684631347656
569527500.0 -0.0008149147033691406 -0.012312889099121094
574523000.0 -0.0020198822021484375 -0.012133121490478516
579518500.0 -0.003315448760986328 -0.011977672576904297
584514000.0 -0.004523754119873047 -0.011569976806640625
589509500.0 -0.005595684051513672 -0.01102590560913086
594505000.0 -0.006778240203857422 -0.01038360595703125
599500500.0 -0.007725238800048828 -0.009768009185791016
604496000.0 -0.008810043334960938 -0.008960723876953125
609491500.0 -0.00954294204711914 -0.008019447326660156
614487000.0 -0.010271549224853516 -0.006927967071533203
619482500.0 -0.010951042175292969 -0.005938053131103516
624478000.0 -0.011551856994628906 -0.0048198699951171875
629473500.0 -0.01203155517578125 -0.0037055015563964844
634469000.0 -0.012257099151611328 -0.002457141876220703
639464500.0 -0.012567996978759766 -0.0012259483337402344
644460000.0 -0.012522697448730469 -4.76837158203125e-07
649455500.0 -0.012416839599609375 0.0012607574462890625
654451000.0 -0.012298583984375 0.0024957656860351562
659446500.0 -0.011946678161621094 0.003605365753173828
664442000.0 -0.011614322662353516 0.004879474639892578
669437500.0 -0.011142730712890625 0.005930423736572266
674433000.0 -0.01040792465209961 0.007001399993896484
679428500.0 -0.009738445281982422 0.008056640625
684424000.0 -0.008864402770996094 0.008891105651855469
689419500.0 -0.007973670959472656 0.009769439697265625
694415000.0 -0.006997585296630859 0.010438919067382812
699410500.0 -0.005963325500488281 0.01106882095336914
704406000.0 -0.004802227020263672 0.011677742004394531
709401500.0 -0.0036711692810058594 0.012065410614013672
714397000.0 -0.002483367919921875 0.012296199798583984
719392500.0 -0.0013113021850585938 0.012506961822509766
724388000.0 -2.47955322265625e-05 0.012639045715332031
729383500.0 0.001132965087890625 0.012533187866210938
734379000.0 0.0022869110107421875 0.012407779693603516
739374500.0 0.0034236907958984375 0.012142181396484375
744370000.0 0.004698276519775391 0.011838912963867188
749365500.0 0.0057373046875 0.011325359344482422
754361000.0 0.006865501403808594 0.010805606842041016
759356500.0 0.007834434509277344 0.010095596313476562
764352000.0 0.00875091552734375 0.00927591323852539
769347500.0 0.009663105010986328 0.00842142105102539
774343000.0 0.01024484634399414 0.007436275482177734
779338500.0 0.011070728302001953 0.00635528564453125
784334000.0 0.01156759262084961 0.005417346954345703
789329500.0 0.01212310791015625 0.004337310791015625
794325000.0 0.012458324432373047 0.0031342506408691406
799320500.0 0.01278543472290039 0.0018601417541503906
804316000.0 0.012900352478027344 0.0006718635559082031
809311500.0 0.01293325424194336 -0.0005354881286621094
814307000.0 0.012824058532714844 -0.0016918182373046875
819302500.0 0.01274871826171875 -0.0029497146606445312
824298000.0 0.012396812438964844 -0.004029273986816406
829293500.0 0.01203775405883789 -0.005158901214599609
834289000.0 0.011423587799072266 -0.00630950927734375
839284500.0 0.010900497436523438 -0.0073413848876953125
844280000.0 0.010578155517578125 -0.008067131042480469
849275500.0 0.009994983673095703 -0.009004592895507812
854271000.0 0.009036540985107422 -0.009953022003173828
859266500.0 0.00812387466430664 -0.010711193084716797
864262000.0 0.007121562957763672 -0.011469841003417969
869257500.0 0.00608062744140625 -0.012176036834716797
874253000.0 0.005030155181884766 -0.012690067291259766
879248500.0 0.003913402557373047 -0.013135433197021484
884244000.0 0.002693653106689453 -0.013563156127929688
889239500.0 0.0013861656188964844 -0.013885021209716797
894235000.0 0.00013828277587890625 -0.013952255249023438
899230500.0 -0.0010924339294433594 -0.014057636260986328
904226000.0 -0.002475261688232422 -0.013989925384521484
909221500.0 -0.003674030303955078 -0.013802051544189453
914217000.0 -0.005000591278076172 -0.01349020004272461
919212500.0 -0.006298065185546875 -0.013082504272460938
924208000.0 -0.007556438446044922 -0.012523174285888672
929203500.0 -0.008797645568847656 -0.01181650161743164
934199000.0 -0.009769439697265625 -0.011034488677978516
939194500.0 -0.010820388793945312 -0.010149478912353516
944190000.0 -0.011825084686279297 -0.009182453155517578
949185500.0 -0.012740612030029297 -0.008124351501464844
954181000.0 -0.013643264770507812 -0.0069942474365234375
959176500.0 -0.014266490936279297 -0.00574493408203125
964172000.0 -0.014937400817871094 -0.0044155120849609375
969167500.0 -0.015552520751953125 -0.00286865234375
974163000.0 -0.015631675720214844 -0.0014963150024414062
979158500.0 -0.016038894653320312 -5.7220458984375e-05
984154000.0 -0.015984535217285156 0.00154876708984375
989149500.0 -0.015944480895996094 0.0029621124267578125
994145000.0 -0.015631675720214844 0.004439353942871094
999140500.0 -0.015227794647216797 0.005949974060058594
1004136000.0 -0.01474761962890625 0.007534980773925781
1009131500.0 -0.014041900634765625 0.008787155151367188
1014127000.0 -0.013301372528076172 0.010329723358154297
1019122500.0 -0.012377262115478516 0.011620521545410156
1024118000.0 -0.011221885681152344 0.012814998626708984
1029113500.0 -0.010069847106933594 0.013858318328857422
1034109000.0 -0.008856773376464844 0.014952659606933594
1039104500.0 -0.007430076599121094 0.015882492065429688
1044100000.0 -0.005889892578125 0.016663551330566406
1049095500.0 -0.0042209625244140625 0.017212867736816406
1054091000.0 -0.0026531219482421875 0.017803192138671875
1059086500.0 -0.0009431838989257812 0.01810455322265625
1064082000.0 0.0009098052978515625 0.018213272094726562
1069077500.0 0.0025482177734375 0.01826763153076172
1074073000.0 0.0044097900390625 0.01803874969482422
1079068500.0 0.006060600280761719 0.017587661743164062
1084064000.0 0.007861137390136719 0.017180442810058594
1089059500.0 0.009576797485351562 0.016445159912109375
1094055000.0 0.011252880096435547 0.015540599822998047
1099050500.0 0.012742042541503906 0.014542102813720703
1104046000.0 0.01426839828491211 0.013280868530273438
1109041500.0 0.015623092651367188 0.01207113265991211
1114037000.0 0.016791343688964844 0.010479927062988281
1119032500.0 0.01797771453857422 0.008942604064941406
1124028000.0 0.018863677978515625 0.0071315765380859375
1129023500.0 0.019542694091796875 0.0052280426025390625
1134019000.0 0.02012348175048828 0.003421783447265625
1139014500.0 0.020537376403808594 0.001522064208984375
1144010000.0 0.020687103271484375 -0.0006513595581054688
1149005500.0 0.02088451385498047 -0.0027523040771484375
1154001000.0 0.020517349243164062 -0.004637718200683594
1158996500.0 0.02023601531982422 -0.0067043304443359375
1163992000.0 0.01954174041748047 -0.008799552917480469
1168987500.0 0.018777847290039062 -0.010741233825683594
1173983000.0 0.017683982849121094 -0.012516021728515625
1178978500.0 0.016481399536132812 -0.014393806457519531
1183974000.0 0.015027046203613281 -0.016098976135253906
1188969500.0 0.013487815856933594 -0.01753520965576172
1193965000.0 0.011814117431640625 -0.019013404846191406
1198960500.0 0.009934425354003906 -0.020132064819335938
1203956000.0 0.008007049560546875 -0.02130603790283203
1208951500.0 0.005692481994628906 -0.022070884704589844
1213947000.0 0.0038270950317382812 -0.02259540557861328
1218942500.0 0.0015430450439453125 -0.02310466766357422
1223938000.0 -0.0007047653198242188 -0.023222923278808594
1228933500.0 -0.0030927658081054688 -0.023100852966308594
1233929000.0 -0.005381584167480469 -0.022887229919433594
1238924500.0 -0.007613182067871094 -0.02250194549560547
1243920000.0 -0.009873390197753906 -0.021758079528808594
1248915500.0 -0.011980056762695312 -0.020799636840820312
1253911000.0 -0.014105796813964844 -0.019716262817382812
1258906500.0 -0.015960693359375 -0.01826953887939453
1263902000.0 -0.017823219299316406 -0.01679229736328125
1268897500.0 -0.01950550079345703 -0.015039443969726562
1273893000.0 -0.021157264709472656 -0.013139724731445312
1278888500.0 -0.022431373596191406 -0.011115074157714844
1283884000.0 -0.023679733276367188 -0.008849143981933594
1288879500.0 -0.024641036987304688 -0.0065326690673828125
1293875000.0 -0.025383949279785156 -0.004076957702636719
1298870500.0 -0.02579212188720703 -0.0015869140625
1303866000.0 -0.025948524475097656 0.0009555816650390625
1308861500.0 -0.025945663452148438 0.003620147705078125
1313857000.0 -0.0255584716796875 0.0059814453125
1318852500.0 -0.025069236755371094 0.008744239807128906
1323848000.0 -0.024139404296875 0.011242866516113281
1328843500.0 -0.023136138916015625 0.013659477233886719
1333839000.0 -0.021729469299316406 0.01607990264892578
1338834500.0 -0.020238876342773438 0.018270492553710938
1343830000.0 -0.0182647705078125 0.020200729370117188
1348825500.0 -0.0163726806640625 0.02223491668701172
1353821000.0 -0.014156341552734375 0.023752212524414062
1358816500.0 -0.011693000793457031 0.025213241577148438
1363812000.0 -0.009176254272460938 0.02654743194580078
1368807500.0 -0.0065155029296875 0.027482986450195312
1373803000.0 -0.0038270950317382812 0.028127670288085938
1378798500.0 -0.0008535385131835938 0.028505325317382812
1383794000.0 0.0020580291748046875 0.028772354125976562
1388789500.0 0.004887580871582031 0.028471946716308594
1393785000.0 0.007918357849121094 0.027933120727539062
1398780500.0 0.010622978210449219 0.02716541290283203
1403776000.0 0.013375282287597656 0.026137351989746094
1408771500.0 0.015977859497070312 0.02471160888671875
1413767000.0 0.018438339233398438 0.02317333221435547
1418762500.0 0.020885467529296875 0.021411895751953125
1423758000.0 0.02298736572265625 0.019069671630859375
1428753500.0 0.024843215942382812 0.016730308532714844
1433749000.0 0.02668476104736328 0.014209747314453125
1438744500.0 0.028095245361328125 0.011590957641601562
1443740000.0 0.029033660888671875 0.008654594421386719
1448735500.0 0.030029296875 0.005688667297363281
1453731000.0 0.030666351318359375 0.0026979446411132812
1458726500.0 0.030791282653808594 -0.0005235671997070312
1463722000.0 0.030753135681152344 -0.0036373138427734375
1468717500.0 0.03037261962890625 -0.006684303283691406
1473713000.0 0.029540061950683594 -0.0097808837890625
1478708500.0 0.028604507446289062 -0.012799263000488281
1483704000.0 0.02725505828857422 -0.015598297119140625
1488699500.0 0.02561187744140625 -0.018285751342773438
1493695000.0 0.02373218536376953 -0.02085399627685547
1498690500.0 0.02151012420654297 -0.02320384979248047
1503686000.0 0.01909160614013672 -0.025452613830566406
1508681500.0 0.01655864715576172 -0.027217864990234375
1513677000.0 0.01361083984375 -0.028944015502929688
1518672500.0 0.010731697082519531 -0.030214309692382812
1523668000.0 0.007674217224121094 -0.03122711181640625
1528663500.0 0.00457000732421875 -0.03192901611328125
1533659000.0 0.001247406005859375 -0.03225135803222656
1538654500.0 -0.0021076202392578125 -0.03233528137207031
1543650000.0 -0.0054187774658203125 -0.031909942626953125
1548645500.0 -0.008441925048828125 -0.031482696533203125
1553641000.0 -0.01165008544921875 -0.03047657012939453
1558636500.0 -0.0147705078125 -0.029152870178222656
1563632000.0 -0.017591476440429688 -0.027571678161621094
1568627500.0 -0.020247459411621094 -0.025726318359375
1573623000.0 -0.022768020629882812 -0.02358531951904297
1578618500.0 -0.025008201599121094 -0.021279335021972656
1583614000.0 -0.027173995971679688 -0.01863861083984375
1588609500.0 -0.028909683227539062 -0.01588726043701172
1593605000.0 -0.030210494995117188 -0.012958526611328125
1598600500.0 -0.03142738342285156 -0.009836196899414062
1603596000.0 -0.03224945068359375 -0.006633758544921875
1608591500.0 -0.03280067443847656 -0.0034542083740234375
1613587000.0 -0.03297233581542969 -0.0001811981201171875
1618582500.0 -0.03299903869628906 0.0031833648681640625
1623578000.0 -0.032543182373046875 0.0063571929931640625
1628573500.0 -0.03176307678222656 0.009511947631835938
1633569000.0 -0.030706405639648438 0.012643814086914062
1638564500.0 -0.029386520385742188 0.015595436096191406
1643560000.0 -0.02769756317138672 0.0183868408203125
1648555500.0 -0.025727272033691406 0.021019935607910156
1653551000.0 -0.023590087890625 0.02349090576171875
1658546500.0 -0.021309852600097656 0.025824546813964844
1663542000.0 -0.01869678497314453 0.027814865112304688
1668537500.0 -0.015789031982421875 0.029541015625
1673533000.0 -0.012811660766601562 0.03099822998046875
1678528500.0 -0.009815216064453125 0.032199859619140625
1683524000.0 -0.0064544677734375 0.033107757568359375
1688519500.0 -0.0032482147216796875 0.033596038818359375
1693515000.0 0.0001659393310546875 0.03382110595703125
1698510500.0 0.0034351348876953125 0.03369712829589844
1703506000.0 0.00675201416015625 0.03329658508300781
1708501500.0 0.009977340698242188 0.03259086608886719
1713497000.0 0.013299942016601562 0.031414031982421875
1718492500.0 0.01639080047607422 0.02996063232421875
1723488000.0 0.01935291290283203 0.02825450897216797
1728483500.0 0.022151947021484375 0.026271820068359375
1733479000.0 0.024619102478027344 0.024053573608398438
1738474500.0 0.02694988250732422 0.021462440490722656
1743470000.0 0.028947830200195312 0.01861286163330078
1748465500.0 0.030760765075683594 0.015760421752929688
1753461000.0 0.03208160400390625 0.01261138916015625
1758456500.0 0.03330421447753906 0.009349822998046875
1763452000.0 0.03407096862792969 0.00592803955078125
1768447500.0 0.03455924987792969 0.0025081634521484375
1773443000.0 0.03472709655761719 -0.000919342041015625
1778438500.0 0.0344085693359375 -0.004276275634765625
1783434000.0 0.033809661865234375 -0.0077114105224609375
1788429500.0 0.03293418884277344 -0.01107025146484375
1793425000.0 0.03173065185546875 -0.014345169067382812
1798420500.0 0.030094146728515625 -0.017449378967285156
1803416000.0 0.028242111206054688 -0.0203399658203125
1808411500.0 0.026056289672851562 -0.023123741149902344
1813407000.0 0.023634910583496094 -0.025518417358398438
1818402500.0 0.02112865447998047 -0.027639389038085938
1823398000.0 0.01819610595703125 -0.02979278564453125
1828393500.0 0.01522064208984375 -0.03127861022949219
1833389000.0 0.011972427368164062 -0.03269195556640625
1838384500.0 0.008701324462890625 -0.03370475769042969
1843380000.0 0.0052337646484375 -0.0343170166015625
