!Created with skrf (http://scikit-rf.org).
# Hz S RI R 50.0 
!freq ReS11 ImS11
45000000.0 -0.0815887451171875 -0.09323501586914062
49995500.0 -0.10223770141601562 -0.08899307250976562
54991000.0 -0.12273788452148438 -0.0810394287109375
59986500.0 -0.14159393310546875 -0.07906341552734375
64982000.0 -0.1602020263671875 -0.06978607177734375
69977500.0 -0.17890167236328125 -0.0551300048828125
74973000.0 -0.19637298583984375 -0.03762054443359375
79968500.0 -0.21184539794921875 -0.01657867431640625
84964000.0 -0.2256317138671875 0.0074005126953125
89959500.0 -0.23626708984375 0.0343017578125
94955000.0 -0.24294281005859375 0.06395721435546875
99950500.0 -0.24619293212890625 0.09613037109375
104946000.0 -0.2447662353515625 0.1300201416015625
109941500.0 -0.238677978515625 0.16454315185546875
114937000.0 -0.22698211669921875 0.2000732421875
119932500.0 -0.2102203369140625 0.234893798828125
124928000.0 -0.188934326171875 0.26873779296875
129923500.0 -0.1615447998046875 0.29998779296875
134919000.0 -0.1294403076171875 0.3287811279296875
139914500.0 -0.092437744140625 0.3540191650390625
144910000.0 -0.050933837890625 0.37457275390625
149905500.0 -0.006134033203125 0.3901824951171875
154901000.0 0.0416717529296875 0.4002838134765625
159896500.0 0.0911407470703125 0.4037628173828125
164892000.0 0.1420135498046875 0.4013519287109375
169887500.0 0.1930999755859375 0.392333984375
174883000.0 0.243865966796875 0.3766632080078125
179878500.0 0.2934417724609375 0.3543548583984375
184874000.0 0.3406829833984375 0.325775146484375
189869500.0 0.3855438232421875 0.2908172607421875
194865000.0 0.426300048828125 0.2503814697265625
199860500.0 0.462799072265625 0.20465087890625
204856000.0 0.4942779541015625 0.15350341796875
209851500.0 0.5201416015625 0.097930908203125
214847000.0 0.5400390625 0.03851318359375
219842500.0 0.553192138671875 -0.0242919921875
224838000.0 0.55859375 -0.089691162109375
229833500.0 0.55682373046875 -0.156829833984375
234829000.0 0.546722412109375 -0.224700927734375
239824500.0 0.528106689453125 -0.29254150390625
244820000.0 0.500640869140625 -0.358917236328125
249815500.0 0.4647369384765625 -0.4229278564453125
254811000.0 0.4447021484375 -0.4704132080078125
259806500.0 0.3956298828125 -0.528594970703125
264802000.0 0.338653564453125 -0.58160400390625
269797500.0 0.274078369140625 -0.627838134765625
274793000.0 0.203582763671875 -0.66656494140625
279788500.0 0.12738037109375 -0.69671630859375
284784000.0 0.047454833984375 -0.717498779296875
289779500.0 -0.036102294921875 -0.728546142578125
294775000.0 -0.121002197265625 -0.729888916015625
299770500.0 -0.206451416015625 -0.720916748046875
304766000.0 -0.290313720703125 -0.702178955078125
309761500.0 -0.3724365234375 -0.672943115234375
314757000.0 -0.451141357421875 -0.633819580078125
319752500.0 -0.5255126953125 -0.58563232421875
324748000.0 -0.594879150390625 -0.529541015625
329743500.0 -0.658447265625 -0.4654541015625
334739000.0 -0.715057373046875 -0.39361572265625
339734500.0 -0.763946533203125 -0.315216064453125
344730000.0 -0.80474853515625 -0.2308349609375
349725500.0 -0.83642578125 -0.141448974609375
354721000.0 -0.858795166015625 -0.047637939453125
359716500.0 -0.870697021484375 0.04962158203125
364712000.0 -0.87152099609375 0.149749755859375
369707500.0 -0.86077880859375 0.251434326171875
374703000.0 -0.83837890625 0.3533935546875
379698500.0 -0.80303955078125 0.453857421875
384694000.0 -0.755157470703125 0.55157470703125
389689500.0 -0.6949462890625 0.64447021484375
394685000.0 -0.621917724609375 0.730682373046875
399680500.0 -0.538177490234375 0.80828857421875
404676000.0 -0.44378662109375 0.876129150390625
409671500.0 -0.34027099609375 0.93353271484375
414667000.0 -0.23016357421875 0.9749755859375
419662500.0 -0.11431884765625 1.0035400390625
424658000.0 0.00531005859375 1.01727294921875
429653500.0 0.12664794921875 1.01580810546875
434649000.0 0.2469482421875 0.9971923828125
439644500.0 0.362060546875 0.96490478515625
444640000.0 0.471405029296875 0.920318603515625
449635500.0 0.574951171875 0.864593505859375
454631000.0 0.67218017578125 0.798675537109375
459626500.0 0.76190185546875 0.72125244140625
464622000.0 0.841949462890625 0.63446044921875
469617500.0 0.911712646484375 0.539825439453125
474613000.0 0.97125244140625 0.438232421875
479608500.0 1.02008056640625 0.33123779296875
484604000.0 1.058349609375 0.21905517578125
489599500.0 1.0850830078125 0.10272216796875
494595000.0 1.10009765625 -0.01690673828125
499590500.0 1.1031494140625 -0.13934326171875
504586000.0 1.09332275390625 -0.26336669921875
509581500.0 1.07000732421875 -0.3876953125
514577000.0 1.03240966796875 -0.5115966796875
519572500.0 0.979705810546875 -0.633544921875
524568000.0 0.911773681640625 -0.7513427734375
529563500.0 0.82867431640625 -0.862457275390625
534559000.0 0.729583740234375 -0.96466064453125
539554500.0 0.61669921875 -1.05487060546875
544550000.0 0.49163818359375 -1.13018798828125
549545500.0 0.35675048828125 -1.1898193359375
554541000.0 0.21368408203125 -1.231689453125
559536500.0 0.06744384765625 -1.255615234375
564532000.0 -0.08184814453125 -1.26123046875
569527500.0 -0.230712890625 -1.24761962890625
574523000.0 -0.37701416015625 -1.21575927734375
579518500.0 -0.517578125 -1.1663818359375
584514000.0 -0.650634765625 -1.10015869140625
589509500.0 -0.77374267578125 -1.0191650390625
594505000.0 -0.885650634765625 -0.9246826171875
599500500.0 -0.985198974609375 -0.818634033203125
604496000.0 -1.07135009765625 -0.703369140625
609491500.0 -1.14385986328125 -0.58099365234375
614487000.0 -1.20245361328125 -0.45233154296875
619482500.0 -1.2474365234375 -0.3194580078125
624478000.0 -1.2789306640625 -0.1832275390625
629473500.0 -1.2967529296875 -0.04473876953125
634469000.0 -1.30096435546875 0.0947265625
639464500.0 -1.29180908203125 0.23529052734375
644460000.0 -1.26837158203125 0.3756103515625
649455500.0 -1.23175048828125 0.5147705078125
654451000.0 -1.1798095703125 0.6519775390625
659446500.0 -1.11334228515625 0.7861328125
664442000.0 -1.03192138671875 0.915771484375
669437500.0 -0.93402099609375 1.03900146484375
674433000.0 -0.8203125 1.1534423828125
679428500.0 -0.690185546875 1.25604248046875
684424000.0 -0.5445556640625 1.34466552734375
689419500.0 -0.38592529296875 1.416259765625
694415000.0 -0.21551513671875 1.46759033203125
699410500.0 -0.03692626953125 1.496337890625
704406000.0 0.1466064453125 1.500732421875
709401500.0 0.3310546875 1.480224609375
714397000.0 0.51190185546875 1.4339599609375
719392500.0 0.6846923828125 1.3634033203125
724388000.0 0.84576416015625 1.27099609375
729383500.0 0.9923095703125 1.15863037109375
734379000.0 1.11956787109375 1.0283203125
739374500.0 1.22906494140625 0.88592529296875
744370000.0 1.31817626953125 0.7337646484375
749365500.0 1.38629150390625 0.5738525390625
754361000.0 1.43609619140625 0.41180419921875
759356500.0 1.46636962890625 0.24786376953125
764352000.0 1.47918701171875 0.08428955078125
769347500.0 1.47479248046875 -0.07720947265625
774343000.0 1.4544677734375 -0.23516845703125
779338500.0 1.41912841796875 -0.3892822265625
784334000.0 1.36981201171875 -0.53857421875
789329500.0 1.307373046875 -0.68194580078125
794325000.0 1.23150634765625 -0.81939697265625
799320500.0 1.1422119140625 -0.94964599609375
804316000.0 1.04022216796875 -1.07208251953125
809311500.0 0.92486572265625 -1.1851806640625
814307000.0 0.79754638671875 -1.2879638671875
819302500.0 0.65771484375 -1.379150390625
824298000.0 0.505126953125 -1.4559326171875
829293500.0 0.34320068359375 -1.51727294921875
834289000.0 0.17047119140625 -1.55938720703125
839284500.0 -0.00909423828125 -1.58154296875
844280000.0 -0.12701416015625 -1.61212158203125
849275500.0 -0.31549072265625 -1.5975341796875
854271000.0 -0.50372314453125 -1.55914306640625
859266500.0 -0.68719482421875 -1.49639892578125
864262000.0 -0.861328125 -1.4091796875
869257500.0 -1.02313232421875 -1.30047607421875
874253000.0 -1.16900634765625 -1.17205810546875
879248500.0 -1.2972412109375 -1.02740478515625
884244000.0 -1.405029296875 -0.86871337890625
889239500.0 -1.49212646484375 -0.7003173828125
894235000.0 -1.5589599609375 -0.52471923828125
899230500.0 -1.60406494140625 -0.34527587890625
904226000.0 -1.628662109375 -0.1632080078125
909221500.0 -1.63250732421875 0.01885986328125
914217000.0 -1.61663818359375 0.1988525390625
919212500.0 -1.58160400390625 0.374267578125
924208000.0 -1.52862548828125 0.54248046875
929203500.0 -1.4599609375 0.70306396484375
934199000.0 -1.37677001953125 0.85430908203125
939194500.0 -1.2794189453125 0.99725341796875
944190000.0 -1.16998291015625 1.13037109375
949185500.0 -1.0474853515625 1.25244140625
954181000.0 -0.91290283203125 1.36346435546875
959176500.0 -0.76629638671875 1.46209716796875
964172000.0 -0.607666015625 1.54766845703125
969167500.0 -0.43841552734375 1.61700439453125
974163000.0 -0.25946044921875 1.6689453125
979158500.0 -0.0711669921875 1.70233154296875
984154000.0 0.12286376953125 1.7132568359375
989149500.0 0.3218994140625 1.70166015625
994145000.0 0.52020263671875 1.6644287109375
999140500.0 0.71551513671875 1.60162353515625
1004136000.0 0.90484619140625 1.5140380859375
1009131500.0 1.08209228515625 1.401611328125
1014127000.0 1.2445068359375 1.2662353515625
1019122500.0 1.3876953125 1.11029052734375
1024118000.0 1.50933837890625 0.93701171875
1029113500.0 1.60662841796875 0.75091552734375
1034109000.0 1.67889404296875 0.55560302734375
1039104500.0 1.7264404296875 0.35498046875
1044100000.0 1.7479248046875 0.15252685546875
1049095500.0 1.74566650390625 -0.04803466796875
1054091000.0 1.72052001953125 -0.24395751953125
1059086500.0 1.67474365234375 -0.432373046875
1064082000.0 1.60968017578125 -0.6124267578125
1069077500.0 1.5274658203125 -0.78265380859375
1074073000.0 1.4285888671875 -0.9415283203125
1079068500.0 1.31549072265625 -1.087646484375
1084064000.0 1.18963623046875 -1.2220458984375
1089059500.0 1.05145263671875 -1.34332275390625
1094055000.0 0.90191650390625 -1.44940185546875
1099050500.0 0.74212646484375 -1.54205322265625
1104046000.0 0.57305908203125 -1.61810302734375
1109041500.0 0.39532470703125 -1.67681884765625
1114037000.0 0.21002197265625 -1.7177734375
1119032500.0 0.01904296875 -1.73895263671875
1124028000.0 -0.17578125 -1.73876953125
1129023500.0 -0.37249755859375 -1.71734619140625
1134019000.0 -0.5687255859375 -1.67242431640625
1139014500.0 -0.760498046875 -1.60400390625
1144010000.0 -0.945068359375 -1.51141357421875
1149005500.0 -1.11865234375 -1.395751953125
1154001000.0 -1.2779541015625 -1.2581787109375
1158996500.0 -1.4197998046875 -1.10064697265625
1163992000.0 -1.53985595703125 -0.92572021484375
1168987500.0 -1.6375732421875 -0.7364501953125
1173983000.0 -1.709716796875 -0.53668212890625
1178978500.0 -1.75531005859375 -0.330810546875
1183974000.0 -1.7750244140625 -0.122314453125
1188969500.0 -1.7684326171875 0.085205078125
1193965000.0 -1.7371826171875 0.28704833984375
1198960500.0 -1.6827392578125 0.48138427734375
1203956000.0 -1.60693359375 0.66534423828125
1208951500.0 -1.51214599609375 0.83599853515625
1213947000.0 -1.4000244140625 0.9930419921875
1218942500.0 -1.27337646484375 1.13470458984375
1223938000.0 -1.13446044921875 1.25927734375
1228933500.0 -0.9853515625 1.36822509765625
1233929000.0 -0.8272705078125 1.46026611328125
1238924500.0 -0.6629638671875 1.53436279296875
1243920000.0 -0.49249267578125 1.59173583984375
1248915500.0 -0.31890869140625 1.63018798828125
1253911000.0 -0.14312744140625 1.65264892578125
1258906500.0 0.03338623046875 1.65655517578125
1263902000.0 0.211181640625 1.64349365234375
1268897500.0 0.3870849609375 1.613037109375
1273893000.0 0.55621337890625 1.56329345703125
1278888500.0 0.72235107421875 1.49658203125
1283884000.0 0.88177490234375 1.4122314453125
1288879500.0 1.0323486328125 1.31103515625
1293875000.0 1.17193603515625 1.19293212890625
1298870500.0 1.29888916015625 1.05963134765625
1303866000.0 1.41131591796875 0.9119873046875
1308861500.0 1.50701904296875 0.75177001953125
1313857000.0 1.584228515625 0.58099365234375
1318852500.0 1.64276123046875 0.40087890625
1323848000.0 1.6802978515625 0.2149658203125
1328843500.0 1.6962890625 0.025390625
1333839000.0 1.6907958984375 -0.1656494140625
1338834500.0 1.6632080078125 -0.3553466796875
1343830000.0 1.61474609375 -0.54156494140625
1348825500.0 1.54461669921875 -0.72100830078125
1353821000.0 1.4544677734375 -0.89208984375
1358816500.0 1.3443603515625 -1.0513916015625
1363812000.0 1.217041015625 -1.197509765625
1368807500.0 1.0732421875 -1.328369140625
1373803000.0 0.91436767578125 -1.44091796875
1378798500.0 0.74346923828125 -1.534423828125
1383794000.0 0.5631103515625 -1.60748291015625
1388789500.0 0.3759765625 -1.6580810546875
1393785000.0 0.18536376953125 -1.686279296875
1398780500.0 -0.008056640625 -1.69189453125
1403776000.0 -0.1990966796875 -1.67498779296875
1408771500.0 -0.385009765625 -1.6358642578125
1413767000.0 -0.56402587890625 -1.57598876953125
1418762500.0 -0.7332763671875 -1.49676513671875
1423758000.0 -0.891357421875 -1.4002685546875
1428753500.0 -1.035888671875 -1.28753662109375
1433749000.0 -1.16552734375 -1.1611328125
1438744500.0 -1.27972412109375 -1.02294921875
1443740000.0 -1.378173828125 -0.87530517578125
1448735500.0 -1.45965576171875 -0.71942138671875
1453731000.0 -1.5247802734375 -0.5570068359375
1458726500.0 -1.57275390625 -0.3896484375
1463722000.0 -1.6041259765625 -0.218994140625
1468717500.0 -1.61798095703125 -0.046142578125
1473713000.0 -1.61431884765625 0.12725830078125
1478708500.0 -1.59356689453125 0.3001708984375
1483704000.0 -1.55572509765625 0.4713134765625
1488699500.0 -1.500244140625 0.6385498046875
1493695000.0 -1.42626953125 0.80145263671875
1498690500.0 -1.3350830078125 0.957275390625
1503686000.0 -1.225830078125 1.1041259765625
1508681500.0 -1.09918212890625 1.24017333984375
1513677000.0 -0.9554443359375 1.36248779296875
1518672500.0 -0.79620361328125 1.46820068359375
1523668000.0 -0.624267578125 1.5550537109375
1528663500.0 -0.44024658203125 1.62060546875
1533659000.0 -0.248046875 1.66259765625
1538654500.0 -0.05169677734375 1.68023681640625
1543650000.0 0.14617919921875 1.6722412109375
1548645500.0 0.3408203125 1.6385498046875
1553641000.0 0.52801513671875 1.580810546875
1558636500.0 0.70477294921875 1.50042724609375
1563632000.0 0.86798095703125 1.3997802734375
1568627500.0 1.0150146484375 1.28192138671875
1573623000.0 1.14483642578125 1.14886474609375
1578618500.0 1.2552490234375 1.00439453125
1583614000.0 1.3472900390625 0.8516845703125
1588609500.0 1.41998291015625 0.692626953125
1593605000.0 1.47369384765625 0.53045654296875
1598600500.0 1.5111083984375 0.3660888671875
1603596000.0 1.5303955078125 0.20184326171875
1608591500.0 1.53314208984375 0.039306640625
1613587000.0 1.52105712890625 -0.1212158203125
1618582500.0 1.4937744140625 -0.27789306640625
1623578000.0 1.45257568359375 -0.4302978515625
1628573500.0 1.3973388671875 -0.5782470703125
1633569000.0 1.3280029296875 -0.72015380859375
1638564500.0 1.24609375 -0.85565185546875
1643560000.0 1.15032958984375 -0.9827880859375
1648555500.0 1.04156494140625 -1.10076904296875
1653551000.0 0.9202880859375 -1.2088623046875
1658546500.0 0.78662109375 -1.3052978515625
1663542000.0 0.64208984375 -1.38702392578125
1668537500.0 0.4873046875 -1.45330810546875
1673533000.0 0.32379150390625 -1.502685546875
1678528500.0 0.15380859375 -1.5325927734375
1683524000.0 -0.0203857421875 -1.542236328125
1688519500.0 -0.19525146484375 -1.530029296875
1693515000.0 -0.3677978515625 -1.49627685546875
1698510500.0 -0.534912109375 -1.44110107421875
1703506000.0 -0.692138671875 -1.36566162109375
1708501500.0 -0.837646484375 -1.27386474609375
1713497000.0 -0.9697265625 -1.1656494140625
1718492500.0 -1.08636474609375 -1.04364013671875
1723488000.0 -1.18609619140625 -0.91180419921875
1728483500.0 -1.26861572265625 -0.77239990234375
1733479000.0 -1.3349609375 -0.627197265625
1738474500.0 -1.38427734375 -0.47906494140625
1743470000.0 -1.418212890625 -0.3294677734375
1748465500.0 -1.43731689453125 -0.17974853515625
1753461000.0 -1.44195556640625 -0.0311279296875
1758456500.0 -1.43365478515625 0.11614990234375
1763452000.0 -1.41217041015625 0.260986328125
1768447500.0 -1.37762451171875 0.40289306640625
1773443000.0 -1.33203125 0.54180908203125
1778438500.0 -1.27288818359375 0.6768798828125
1783434000.0 -1.2015380859375 0.807373046875
1788429500.0 -1.11676025390625 0.9324951171875
1793425000.0 -1.0184326171875 1.05078125
1798420500.0 -0.90740966796875 1.16131591796875
1803416000.0 -0.7818603515625 1.26092529296875
1808411500.0 -0.64385986328125 1.34918212890625
1813407000.0 -0.4931640625 1.42205810546875
1818402500.0 -0.33184814453125 1.4776611328125
1823398000.0 -0.16192626953125 1.5140380859375
1828393500.0 0.0130615234375 1.52801513671875
1833389000.0 0.19140625 1.52008056640625
1838384500.0 0.3668212890625 1.48858642578125
1843380000.0 0.53753662109375 1.43408203125
1848375500.0 0.69842529296875 1.35833740234375
1853371000.0 0.84716796875 1.26336669921875
1858366500.0 0.98077392578125 1.151611328125
1863362000.0 1.09686279296875 1.02655029296875
1868357500.0 1.19610595703125 0.89093017578125
1873353000.0 1.27703857421875 0.74798583984375
1878348500.0 1.33953857421875 0.60040283203125
1883344000.0 1.3857421875 0.45062255859375
1888339500.0 1.4156494140625 0.29931640625
1893335000.0 1.4300537109375 0.15008544921875
1898330500.0 1.4305419921875 0.001953125
1903326000.0 1.41802978515625 -0.143798828125
1908321500.0 1.3931884765625 -0.2861328125
1913317000.0 1.35601806640625 -0.42535400390625
1918312500.0 1.30670166015625 -0.560791015625
1923308000.0 1.245849609375 -0.69219970703125
1928303500.0 1.17230224609375 -0.81817626953125
1933299000.0 1.0869140625 -0.9390869140625
1938294500.0 0.9886474609375 -1.05291748046875
1943290000.0 0.87835693359375 -1.15826416015625
1948285500.0 0.75482177734375 -1.25408935546875
1953281000.0 0.61883544921875 -1.33758544921875
1958276500.0 0.47210693359375 -1.40704345703125
1963272000.0 0.31512451171875 -1.46038818359375
1968267500.0 0.14971923828125 -1.4949951171875
1973263000.0 -0.0203857421875 -1.5096435546875
1978258500.0 -0.19317626953125 -1.50286865234375
1983254000.0 -0.3656005859375 -1.4739990234375
1988249500.0 -0.53265380859375 -1.42315673828125
1993245000.0 -0.69256591796875 -1.35186767578125
1998240500.0 -0.84051513671875 -1.26080322265625
2003236000.0 -0.97576904296875 -1.1539306640625
2008231500.0 -1.09539794921875 -1.0321044921875
2013227000.0 -1.19818115234375 -0.8988037109375
2018222500.0 -1.2835693359375 -0.75701904296875
2023218000.0 -1.3514404296875 -0.60845947265625
2028213500.0 -1.40191650390625 -0.45648193359375
2033209000.0 -1.43609619140625 -0.3023681640625
2038204500.0 -1.4539794921875 -0.1474609375
2043200000.0 -1.45574951171875 0.00689697265625
2048195500.0 -1.44366455078125 0.1593017578125
2053191000.0 -1.4163818359375 0.30853271484375
2058186500.0 -1.37530517578125 0.4544677734375
2063182000.0 -1.32098388671875 0.59588623046875
2068177500.0 -1.25238037109375 0.731689453125
2073173000.0 -1.17120361328125 0.86053466796875
2078168500.0 -1.07586669921875 0.981689453125
2083164000.0 -0.96807861328125 1.09405517578125
2088159500.0 -0.8482666015625 1.195556640625
2093155000.0 -0.71600341796875 1.28448486328125
2098150500.0 -0.5740966796875 1.35888671875
2103146000.0 -0.4228515625 1.417724609375
2108141500.0 -0.26422119140625 1.45916748046875
2113137000.0 -0.10137939453125 1.48193359375
2118132500.0 0.06427001953125 1.485595703125
2123128000.0 0.22906494140625 1.4688720703125
2128123500.0 0.3905029296875 1.4329833984375
2133119000.0 0.546142578125 1.3787841796875
2138114500.0 0.6934814453125 1.3070068359375
2143110000.0 0.8299560546875 1.21966552734375
2148105500.0 0.9547119140625 1.11798095703125
2153101000.0 1.065673828125 1.0047607421875
2158096500.0 1.16314697265625 0.8818359375
2163092000.0 1.2457275390625 0.75091552734375
2168087500.0 1.313720703125 0.61395263671875
2173083000.0 1.3675537109375 0.47271728515625
2178078500.0 1.406982421875 0.32757568359375
2183074000.0 1.43206787109375 0.18011474609375
