!Created with skrf (http://scikit-rf.org).
# Hz S RI R 50.0 
!freq ReS11 ImS11
300000.0 1.002153617 0.0016117598
5299970.0 1.005824553 -0.0079546028
10299940.0 1.004818696 -0.0146996363
15299910.0 1.005646438 -0.0196997965
20299880.0 1.004512494 -0.0265105607
25299850.0 1.004349301 -0.0323898931
30299820.0 1.003770142 -0.0388467463
35299790.0 1.003848382 -0.0451873664
40299760.0 1.004147458 -0.0513996429
45299730.0 1.003460103 -0.0577030994
50299700.0 1.002977134 -0.0632722778
55299670.0 1.00280807 -0.0702809561
60299640.0 1.002041228 -0.0760950567
65299610.0 1.001290716 -0.0829396818
70299580.0 1.0007755 -0.0882260452
75299550.0 1.000444111 -0.094539484
80299520.0 0.9995427288 -0.1012332222
85299490.0 0.999222244 -0.1071655059
90299460.0 0.9988275206 -0.1129096492
95299430.0 0.9977544987 -0.1191331708
100299400.0 0.9966147521 -0.1250689712
105299370.0 0.9961665968 -0.1311741945
110299340.0 0.9955911082 -0.1372800096
115299310.0 0.9946783609 -0.1440365345
120299280.0 0.9934897011 -0.1502532833
125299250.0 0.9926816296 -0.1564834839
130299220.0 0.9915492588 -0.1626531319
135299190.0 0.990758088 -0.1684745923
140299160.0 0.9894811741 -0.1743097242
145299130.0 0.9878208646 -0.1801347576
150299100.0 0.9873074043 -0.1862024598
155299070.0 0.9858497264 -0.1928935809
160299040.0 0.984579864 -0.1984256063
165299010.0 0.9831278672 -0.2047277641
170298980.0 0.9820451128 -0.2109972436
175298950.0 0.9796996093 -0.2163424308
180298920.0 0.9780496801 -0.2229505579
185298890.0 0.9769728607 -0.2288819637
190298860.0 0.9766625664 -0.2346274016
195298830.0 0.9750851271 -0.2404668765
200298800.0 0.9732712005 -0.2463640216
205298770.0 0.9718403393 -0.2521869843
210298740.0 0.9701227401 -0.2584185188
215298710.0 0.9683829599 -0.2646352604
220298680.0 0.9670037889 -0.2702864268
225298650.0 0.9655456402 -0.2769683998
230298620.0 0.963407799 -0.2820837671
235298590.0 0.9618244516 -0.2884675226
240298560.0 0.9597177411 -0.2943063125
245298530.0 0.9580770279 -0.2998791193
250298500.0 0.9560219615 -0.3058182456
255298470.0 0.9540636925 -0.3118990747
260298440.0 0.9520426745 -0.3173064289
265298410.0 0.9504614634 -0.3230349989
270298380.0 0.9476845788 -0.3293045864
275298350.0 0.9461499736 -0.3348433203
280298320.0 0.9435418153 -0.3409991198
285298290.0 0.9421364299 -0.3465123643
290298260.0 0.9399343509 -0.3521983195
295298230.0 0.9378106817 -0.357818191
300298200.0 0.9347787767 -0.363692388
305298170.0 0.9328998387 -0.3694070822
310298140.0 0.9303984127 -0.374825677
315298110.0 0.9278382148 -0.3807981608
320298080.0 0.9251633049 -0.3862308031
325298050.0 0.9230225196 -0.3923192314
330298020.0 0.9206643237 -0.397853667
335297990.0 0.9183989622 -0.4040001925
340297960.0 0.9156951552 -0.4089610859
345297930.0 0.913531062 -0.4138024352
350297900.0 0.9114810093 -0.420733874
355297870.0 0.9090124881 -0.4266797721
360297840.0 0.9068503953 -0.4320965114
365297810.0 0.9034956894 -0.4376680019
370297780.0 0.9006108531 -0.4429280359
375297750.0 0.8968325497 -0.4477712005
380297720.0 0.8939965994 -0.4530897605
385297690.0 0.8918163393 -0.4586635217
390297660.0 0.8884751668 -0.4635748213
395297630.0 0.8852775033 -0.4697692495
400297600.0 0.8828701568 -0.4749465541
405297570.0 0.8794606871 -0.4808084412
410297540.0 0.8769972127 -0.4854343495
415297510.0 0.8740550948 -0.4906852386
420297480.0 0.8713086207 -0.49639303
425297450.0 0.8674544104 -0.5015095302
430297420.0 0.8643412501 -0.5073732674
435297390.0 0.8617377646 -0.5119893248
440297360.0 0.858566072 -0.5171746462
445297330.0 0.8550929354 -0.5229276766
450297300.0 0.8518089626 -0.5279498516
455297270.0 0.8484606852 -0.5328131126
460297240.0 0.8453976033 -0.5380983505
465297210.0 0.8419886509 -0.5430463532
470297180.0 0.8383733294 -0.5483225404
475297150.0 0.83513452 -0.5542191011
480297120.0 0.831857198 -0.5594010543
485297090.0 0.8280325864 -0.5636409728
490297060.0 0.824408848 -0.5688306807
495297030.0 0.8211467585 -0.5738421969
500297000.0 0.8175344096 -0.5789365397
505296970.0 0.8137399035 -0.5842854317
510296940.0 0.8099784261 -0.5889964861
515296910.0 0.8063845298 -0.5932360027
520296880.0 0.803066279 -0.5988573157
525296850.0 0.7987646917 -0.6034225324
530296820.0 0.7948629695 -0.6087752783
535296790.0 0.7912215007 -0.6135414907
540296760.0 0.7875997553 -0.6182079145
545296730.0 0.7840530825 -0.6232145588
550296700.0 0.7800056012 -0.6279257169
555296670.0 0.776048762 -0.6327245152
560296640.0 0.7728572638 -0.6371974087
565296610.0 0.7681481608 -0.6416647268
570296580.0 0.7646840705 -0.6471799017
575296550.0 0.7607080543 -0.6511229818
580296520.0 0.7563944803 -0.655607838
585296490.0 0.7523255147 -0.6604285853
590296460.0 0.7485310687 -0.6649865634
595296430.0 0.7448288209 -0.6694585597
600296400.0 0.7400411887 -0.6739014529
605296370.0 0.7364880043 -0.6781976836
610296340.0 0.7326192461 -0.6831550991
615296310.0 0.7275110928 -0.6873905705
620296280.0 0.7239237764 -0.6915403459
625296250.0 0.7191546537 -0.6959741213
630296220.0 0.7150610993 -0.7010797868
635296190.0 0.7104663917 -0.7048599973
640296160.0 0.7061648721 -0.7092505062
645296130.0 0.7014336961 -0.7133689519
650296100.0 0.6971246015 -0.7181989063
655296070.0 0.6928972201 -0.7222153558
660296040.0 0.6887615574 -0.7264581827
665296010.0 0.6842457355 -0.73032608
670295980.0 0.6797658745 -0.7344053172
675295950.0 0.6751039146 -0.7383773953
680295920.0 0.670319228 -0.7432218966
685295890.0 0.6664578664 -0.7471226562
690295860.0 0.6611449737 -0.7510338202
695295830.0 0.6564282572 -0.7551211948
700295800.0 0.6521579673 -0.7594914862
705295770.0 0.6470322772 -0.7630293261
710295740.0 0.6424136795 -0.766772929
715295710.0 0.6381050569 -0.7716237123
720295680.0 0.6334850165 -0.7751138522
725295650.0 0.6285209246 -0.779123255
730295620.0 0.6233106658 -0.7824755058
735295590.0 0.6180499466 -0.7863118064
740295560.0 0.6138116315 -0.7902728987
745295530.0 0.6088623641 -0.7936787352
750295500.0 0.6037131019 -0.7978409134
755295470.0 0.5990893081 -0.8009716857
760295440.0 0.5938235395 -0.8049320247
765295410.0 0.5894676226 -0.8078408455
770295380.0 0.5844152235 -0.8120548284
775295350.0 0.5786403945 -0.8156978039
780295320.0 0.5742544817 -0.8193214772
785295290.0 0.5689011185 -0.8230325121
790295260.0 0.5643896964 -0.8265891601
795295230.0 0.5588406931 -0.8292751942
800295200.0 0.5534078428 -0.8333946134
805295170.0 0.5485910049 -0.8359596724
810295140.0 0.5440016915 -0.8394339341
815295110.0 0.5384017912 -0.8433422988
820295080.0 0.5328850482 -0.8462807555
825295050.0 0.5279549669 -0.8497491923
830295020.0 0.5225763266 -0.852753461
835294990.0 0.5177329493 -0.8556290688
840294960.0 0.5124615766 -0.8590658603
845294930.0 0.5074638413 -0.8616853535
850294900.0 0.5015967357 -0.8647564004
855294870.0 0.4964711374 -0.8681074657
860294840.0 0.4909645288 -0.8712845515
865294810.0 0.4862925866 -0.8742192141
870294780.0 0.4808022267 -0.8771049891
875294750.0 0.4751937394 -0.8800180625
880294720.0 0.4698576701 -0.882991933
885294690.0 0.4639986643 -0.8861303719
890294660.0 0.4585213604 -0.8885976403
895294630.0 0.4534597438 -0.8911415357
900294600.0 0.4480179138 -0.8940246246
905294570.0 0.442542299 -0.8963860743
910294540.0 0.4370717876 -0.8995573065
915294510.0 0.4311580709 -0.9023563554
920294480.0 0.4257527655 -0.9046422868
925294450.0 0.4198433317 -0.9075539414
930294420.0 0.4145846676 -0.9101374805
935294390.0 0.4089377459 -0.9124752033
940294360.0 0.4037916494 -0.9151529412
945294330.0 0.3979366782 -0.9171897408
950294300.0 0.3917227445 -0.9196391395
955294270.0 0.3861650734 -0.9218060313
960294240.0 0.3811522092 -0.924229166
965294210.0 0.3743740406 -0.9269192599
970294180.0 0.3693987779 -0.9291766744
975294150.0 0.3635372803 -0.9310792097
980294120.0 0.357682339 -0.933373261
985294090.0 0.3522308072 -0.9351563703
990294060.0 0.3462500129 -0.9372686948
995294030.0 0.3404761845 -0.9398705753
1000294000.0 0.3348623841 -0.9413830093
1005293970.0 0.3287913177 -0.9437925228
1010293940.0 0.3228624531 -0.9466454443
1015293910.0 0.3175853728 -0.9476876728
1020293880.0 0.3115257669 -0.9489503469
1025293850.0 0.30643893 -0.9510083666
1030293820.0 0.3005878539 -0.9530766959
1035293790.0 0.2945392732 -0.9548512298
1040293760.0 0.2884535983 -0.9564894066
1045293730.0 0.2826605373 -0.9583932872
1050293700.0 0.2763939755 -0.959902287
1055293670.0 0.2701955488 -0.9617682082
1060293640.0 0.2646733268 -0.9634166838
1065293610.0 0.2591567669 -0.9647212255
1070293580.0 0.2524056333 -0.9665728908
1075293550.0 0.2470903501 -0.9677423005
1080293520.0 0.2413331262 -0.96898601
1085293490.0 0.2349927664 -0.9710701917
1090293460.0 0.2284500013 -0.9722935027
1095293430.0 0.2223037239 -0.973910019
1100293400.0 0.2166324745 -0.9752351131
1105293370.0 0.2107536659 -0.9760209219
1110293340.0 0.2050932346 -0.9775604404
1115293310.0 0.1990770529 -0.9787026093
1120293280.0 0.1931342249 -0.9798931594
1125293250.0 0.1876203185 -0.9812692504
1130293220.0 0.1813102317 -0.982157773
1135293190.0 0.1749453341 -0.9826096363
1140293160.0 0.1690625451 -0.9838168516
1145293130.0 0.162670177 -0.9851967573
1150293100.0 0.1558750418 -0.9861410578
1155293070.0 0.1498617706 -0.9867453417
1160293040.0 0.1447186654 -0.9877783552
1165293010.0 0.1381659869 -0.9888668967
1170292980.0 0.1323152493 -0.9893961995
1175292950.0 0.12544615 -0.9903537467
1180292920.0 0.1201766158 -0.9908234163
1185292890.0 0.1143098076 -0.9915916829
1190292860.0 0.1083762153 -0.9919260433
1195292830.0 0.1025152349 -0.9925647656
1200292800.0 0.0968922924 -0.9935451128
1205292770.0 0.0908482122 -0.9939444574
1210292740.0 0.0843231214 -0.9951434658
1215292710.0 0.0785274231 -0.9947650448
1220292680.0 0.0725094782 -0.9954364843
1225292650.0 0.0661421417 -0.9959012371
1230292620.0 0.0601119741 -0.9959468647
1235292590.0 0.0537593666 -0.9961072729
1240292560.0 0.0480092138 -0.9963729641
1245292530.0 0.0418058027 -0.9965355959
1250292500.0 0.0360896764 -0.9969315722
1255292470.0 0.0292186141 -0.9969231366
1260292440.0 0.0230423478 -0.9969789401
1265292410.0 0.0174018157 -0.9971751863
1270292380.0 0.0117655106 -0.997195451
1275292350.0 0.0058979351 -0.9971525138
1280292320.0 -0.0009827567 -0.9972644098
1285292290.0 -0.0070175255 -0.9976274245
1290292260.0 -0.0130483704 -0.9971131236
1295292230.0 -0.019097166 -0.9970954221
1300292200.0 -0.0250946333 -0.9965197089
1305292170.0 -0.031442077 -0.9963814763
1310292140.0 -0.0377931494 -0.9962751402
1315292110.0 -0.0432842791 -0.995776247
1320292080.0 -0.0493342248 -0.9949763295
1325292050.0 -0.0562492163 -0.9950167838
1330292020.0 -0.0614209214 -0.9948072753
1335291990.0 -0.0684622635 -0.994490931
1340291960.0 -0.074493859 -0.9934111776
1345291930.0 -0.08046291 -0.9932580301
1350291900.0 -0.0863670428 -0.9928625284
1355291870.0 -0.0919181442 -0.9923276037
1360291840.0 -0.0987068158 -0.991387093
1365291810.0 -0.1040960397 -0.9909037382
1370291780.0 -0.110303132 -0.9898616464
1375291750.0 -0.1166175098 -0.9895966819
1380291720.0 -0.1224695265 -0.98822497
1385291690.0 -0.1279394429 -0.9871806315
1390291660.0 -0.1344527014 -0.9867487801
1395291630.0 -0.1401602093 -0.9858490294
1400291600.0 -0.1464572065 -0.9844363917
1405291570.0 -0.1523228466 -0.9839590249
1410291540.0 -0.1583198214 -0.9835564933
1415291510.0 -0.1643101016 -0.9817708147
1420291480.0 -0.1703926077 -0.9809232428
1425291450.0 -0.1761509681 -0.9797044991
1430291420.0 -0.1818906834 -0.9789538978
1435291390.0 -0.1879745225 -0.9776599059
1440291360.0 -0.1941620343 -0.9758509764
1445291330.0 -0.1993258845 -0.9751466486
1450291300.0 -0.2052136083 -0.9739208943
1455291270.0 -0.2111442338 -0.9731011352
1460291240.0 -0.2171397418 -0.9712780649
1465291210.0 -0.2232632817 -0.9697737952
1470291180.0 -0.229130644 -0.9682251635
1475291150.0 -0.2354871476 -0.9670244652
1480291120.0 -0.241360518 -0.9652989853
1485291090.0 -0.2470422242 -0.9636861343
1490291060.0 -0.252365503 -0.9622842044
1495291030.0 -0.2587418576 -0.9608206612
1500291000.0 -0.2646100932 -0.9590031904
1505290970.0 -0.2702970289 -0.9570660899
1510290940.0 -0.2756190939 -0.9556159769
1515290910.0 -0.2814617739 -0.9536939911
1520290880.0 -0.2868248272 -0.9523389026
1525290850.0 -0.2926344397 -0.9499535525
1530290820.0 -0.2991091247 -0.9483935797
1535290790.0 -0.3048016358 -0.9469049326
1540290760.0 -0.3104133273 -0.9451379765
1545290730.0 -0.3159208299 -0.9429391291
1550290700.0 -0.321973952 -0.9406936676
1555290670.0 -0.3275718653 -0.9383040351
1560290640.0 -0.3333309871 -0.9365688021
1565290610.0 -0.3389247641 -0.9344246589
1570290580.0 -0.3445192621 -0.932951306
1575290550.0 -0.3501620113 -0.9301688649
1580290520.0 -0.3560185152 -0.9277738687
1585290490.0 -0.362212602 -0.92605919
1590290460.0 -0.3670544256 -0.9232077791
1595290430.0 -0.3724762592 -0.9210746192
1600290400.0 -0.3783872817 -0.918827771
1605290370.0 -0.3842966775 -0.9167661136
1610290340.0 -0.3901369694 -0.9142522505
1615290310.0 -0.3952586171 -0.9110907317
1620290280.0 -0.400374966 -0.9086232619
1625290250.0 -0.405598067 -0.9064283015
1630290220.0 -0.4112948879 -0.9039282863
1635290190.0 -0.4164497962 -0.9017389144
1640290160.0 -0.4214774407 -0.8986430676
1645290130.0 -0.4268853412 -0.8970300524
1650290100.0 -0.4322456043 -0.8934548302
1655290070.0 -0.4377404815 -0.8911467676
1660290040.0 -0.4437046106 -0.8880618747
1665290010.0 -0.4482504283 -0.8856894
1670289980.0 -0.4540616611 -0.8831927073
1675289950.0 -0.4593520011 -0.8799977921
1680289920.0 -0.4647791705 -0.8767651288
1685289890.0 -0.4704384199 -0.8738762808
1690289860.0 -0.4756248226 -0.8706024644
1695289830.0 -0.4806342173 -0.8679860901
1700289800.0 -0.4858049762 -0.865016954
1705289770.0 -0.4915649969 -0.8621913336
1710289740.0 -0.4967438248 -0.8588395104
1715289710.0 -0.5020496705 -0.855711384
1720289680.0 -0.5072485776 -0.8521524995
1725289650.0 -0.5123943572 -0.849460316
1730289620.0 -0.5174058982 -0.8462996558
1735289590.0 -0.5223185263 -0.8432617856
1740289560.0 -0.5274833544 -0.8397124814
1745289530.0 -0.5321394892 -0.8361352941
1750289500.0 -0.5371182519 -0.8330145147
1755289470.0 -0.5424260056 -0.8298812344
1760289440.0 -0.5475931602 -0.8268726263
1765289410.0 -0.5518338662 -0.8232202052
1770289380.0 -0.5571247095 -0.819714204
1775289350.0 -0.5618123282 -0.816448308
1780289320.0 -0.566884018 -0.8129583049
1785289290.0 -0.5716395176 -0.8093261139
1790289260.0 -0.5768075377 -0.8057770622
1795289230.0 -0.5819583043 -0.8020919
1800289200.0 -0.5865342006 -0.7984465557
1805289170.0 -0.5916437171 -0.7943136699
1810289140.0 -0.5959983044 -0.7912649289
1815289110.0 -0.6006712713 -0.787818623
1820289080.0 -0.6050897524 -0.7845450346
1825289050.0 -0.6100646146 -0.7804715778
1830289020.0 -0.6142319926 -0.7768988667
1835288990.0 -0.6190464775 -0.7732706101
1840288960.0 -0.6231313296 -0.7694854564
1845288930.0 -0.6282238045 -0.7652672659
1850288900.0 -0.6321832298 -0.7614998759
1855288870.0 -0.6376616837 -0.75746471
1860288840.0 -0.6423608162 -0.753854185
1865288810.0 -0.64697444 -0.7495515418
1870288780.0 -0.6513258922 -0.7455025055
1875288750.0 -0.6560375398 -0.7410858365
1880288720.0 -0.6607282291 -0.7372503798
1885288690.0 -0.6651696368 -0.7326208161
1890288660.0 -0.6693206631 -0.7286481073
1895288630.0 -0.6739378082 -0.7242868055
1900288600.0 -0.6778388882 -0.7207196728
1905288570.0 -0.682234738 -0.7166099677
1910288540.0 -0.6866483223 -0.712312281
1915288510.0 -0.6907277599 -0.708091168
1920288480.0 -0.6947845032 -0.7037298318
1925288450.0 -0.6994099406 -0.6995255612
1930288420.0 -0.7033686625 -0.6945068138
1935288390.0 -0.7076498488 -0.6903896717
1940288360.0 -0.7123759809 -0.6858892162
1945288330.0 -0.7160338395 -0.6811811486
1950288300.0 -0.7200078475 -0.6769920203
1955288270.0 -0.7245458593 -0.6724321997
1960288240.0 -0.7285630134 -0.6673640504
1965288210.0 -0.7326011553 -0.6630587368
1970288180.0 -0.7361259484 -0.6587067223
1975288150.0 -0.7400456413 -0.6539691447
1980288120.0 -0.7440077892 -0.6496140357
1985288090.0 -0.7483755111 -0.6449985016
1990288060.0 -0.7514297874 -0.6407395831
1995288030.0 -0.7553419008 -0.6368417468
2000288000.0 -0.758584008 -0.6318217589
2005287970.0 -0.7625528946 -0.6274398811
2010287940.0 -0.7663812854 -0.6230078795
2015287910.0 -0.770369926 -0.6175543163
2020287880.0 -0.7733968612 -0.6125990957
2025287850.0 -0.7780652425 -0.6082898397
2030287820.0 -0.7811138801 -0.603816143
2035287790.0 -0.7845060695 -0.598079269
2040287760.0 -0.7885982559 -0.5936884168
2045287730.0 -0.7921436113 -0.5887742951
2050287700.0 -0.7958402914 -0.583568272
2055287670.0 -0.7995435279 -0.5793872671
2060287640.0 -0.8026685804 -0.5743207392
2065287610.0 -0.8059439348 -0.5692516396
2070287580.0 -0.8091589052 -0.5641055667
2075287550.0 -0.8126367296 -0.5590962253
2080287520.0 -0.8158991656 -0.5546119656
2085287490.0 -0.8190519104 -0.5489358982
2090287460.0 -0.8228698578 -0.5442058363
2095287430.0 -0.8262174917 -0.5394560731
2100287400.0 -0.8287712469 -0.5338310401
2105287370.0 -0.8320732125 -0.5289637209
2110287340.0 -0.8356019378 -0.5237449943
2115287310.0 -0.8384369548 -0.5183545927
2120287280.0 -0.8414940636 -0.513254818
2125287250.0 -0.8447703015 -0.5079947528
2130287220.0 -0.847300469 -0.5027715336
2135287190.0 -0.8508203746 -0.4976203081
2140287160.0 -0.8538810451 -0.4931418273
2145287130.0 -0.8568426124 -0.4869678698
2150287100.0 -0.8600256298 -0.481904032
2155287070.0 -0.8623146809 -0.4765993987
2160287040.0 -0.8652250756 -0.4714760404
2165287010.0 -0.8677454161 -0.4658618929
2170286980.0 -0.8707374809 -0.4606598643
2175286950.0 -0.8731309777 -0.4554825292
2180286920.0 -0.875737561 -0.4501701194
2185286890.0 -0.8787136835 -0.4458124905
2190286860.0 -0.8809121771 -0.4402905144
2195286830.0 -0.8837613381 -0.4348832036
2200286800.0 -0.8863575302 -0.4292284523
2205286770.0 -0.8884850008 -0.4237453343
2210286740.0 -0.8912770439 -0.4186259296
2215286710.0 -0.8939198369 -0.4133631254
2220286680.0 -0.8963945248 -0.407363617
2225286650.0 -0.8986705014 -0.4021569717
2230286620.0 -0.9006074322 -0.3964422537
2235286590.0 -0.9038934992 -0.3908816394
2240286560.0 -0.9059722108 -0.385625375
2245286530.0 -0.9081966572 -0.3794973386
2250286500.0 -0.9107161947 -0.3736795115
2255286470.0 -0.912387848 -0.3686837408
2260286440.0 -0.9153081703 -0.3623085535
2265286410.0 -0.9173271012 -0.356124632
2270286380.0 -0.9191228501 -0.3512972855
2275286350.0 -0.921497688 -0.3456309694
2280286320.0 -0.9232179536 -0.3398633052
2285286290.0 -0.925143587 -0.3341299607
2290286260.0 -0.9276030082 -0.3282090459
2295286230.0 -0.9295170802 -0.3224541913
2300286200.0 -0.931170799 -0.3165614309
2305286170.0 -0.933441071 -0.3113560087
2310286140.0 -0.935092523 -0.3056845517
2315286110.0 -0.9367940944 -0.2999048386
2320286080.0 -0.9384705344 -0.2940556764
2325286050.0 -0.9402751246 -0.2881085675
2330286020.0 -0.9419103448 -0.2822861774
2335285990.0 -0.9435989384 -0.2766899532
2340285960.0 -0.9449019508 -0.2712645545
2345285930.0 -0.9464820288 -0.2654598683
2350285900.0 -0.9480414016 -0.2594791116
2355285870.0 -0.949260618 -0.2530688194
2360285840.0 -0.9510525874 -0.2481192538
2365285810.0 -0.9523064139 -0.2419615819
2370285780.0 -0.9539808478 -0.2361549078
2375285750.0 -0.9554882055 -0.2301307238
2380285720.0 -0.9566078289 -0.2246213931
2385285690.0 -0.9579080405 -0.2191446274
2390285660.0 -0.9589187677 -0.2132852584
2395285630.0 -0.960290189 -0.2072445044
2400285600.0 -0.9616081573 -0.2013667008
2405285570.0 -0.9627402121 -0.1962111172
2410285540.0 -0.9634850449 -0.1902154558
2415285510.0 -0.9643678569 -0.1849989178
2420285480.0 -0.9657079928 -0.1790858574
2425285450.0 -0.9663697141 -0.1727114871
2430285420.0 -0.9676048181 -0.1671549657
2435285390.0 -0.9685221207 -0.1608302082
2440285360.0 -0.9694129073 -0.1551096152
2445285330.0 -0.9700011681 -0.1493466857
2450285300.0 -0.9708974177 -0.142596901
2455285270.0 -0.9722476119 -0.1366114208
2460285240.0 -0.9725641234 -0.1310709878
2465285210.0 -0.9734842438 -0.12502966
2470285180.0 -0.9742494359 -0.1186757998
2475285150.0 -0.9748097317 -0.1129265147
2480285120.0 -0.975844481 -0.1072372428
2485285090.0 -0.9762716972 -0.1008771969
2490285060.0 -0.9768391792 -0.0946028569
2495285030.0 -0.9773014026 -0.0892468122
