!Created with skrf (http://scikit-rf.org).
# Hz S RI R 50.0 
!freq ReS11 ImS11
45000000.0 0.06896591186523438 0.08730697631835938
49995500.0 0.08784866333007812 0.08732986450195312
54991000.0 0.10814666748046875 0.08357620239257812
59986500.0 0.1272125244140625 0.0852508544921875
64982000.0 0.1479644775390625 0.078948974609375
69977500.0 0.16945648193359375 0.06687164306640625
74973000.0 0.18991851806640625 0.050537109375
79968500.0 0.20858001708984375 0.02996826171875
84964000.0 0.22490692138671875 0.00547027587890625
89959500.0 0.23816680908203125 -0.0227508544921875
94955000.0 0.24657440185546875 -0.05425262451171875
99950500.0 0.250762939453125 -0.0881500244140625
104946000.0 0.24929046630859375 -0.12351226806640625
109941500.0 0.2427520751953125 -0.15929412841796875
114937000.0 0.230682373046875 -0.19538116455078125
119932500.0 0.21307373046875 -0.23029327392578125
124928000.0 0.190887451171875 -0.2634429931640625
129923500.0 0.1637420654296875 -0.294036865234375
134919000.0 0.1320343017578125 -0.32177734375
139914500.0 0.0961151123046875 -0.346160888671875
144910000.0 0.056365966796875 -0.3663177490234375
149905500.0 0.0134124755859375 -0.382080078125
154901000.0 -0.0322418212890625 -0.392730712890625
159896500.0 -0.0797271728515625 -0.397735595703125
164892000.0 -0.1289825439453125 -0.3971099853515625
169887500.0 -0.1789703369140625 -0.39031982421875
174883000.0 -0.2294464111328125 -0.3769989013671875
179878500.0 -0.2793426513671875 -0.3574066162109375
184874000.0 -0.3274383544921875 -0.3309478759765625
189869500.0 -0.3731231689453125 -0.2975311279296875
194865000.0 -0.4156646728515625 -0.25836181640625
199860500.0 -0.4535980224609375 -0.213165283203125
204856000.0 -0.4860076904296875 -0.1622161865234375
209851500.0 -0.512359619140625 -0.106781005859375
214847000.0 -0.532501220703125 -0.047210693359375
219842500.0 -0.545196533203125 0.015380859375
224838000.0 -0.550079345703125 0.080169677734375
229833500.0 -0.547332763671875 0.145843505859375
234829000.0 -0.536529541015625 0.211151123046875
239824500.0 -0.51806640625 0.27587890625
244820000.0 -0.49176025390625 0.338775634765625
249815500.0 -0.4583740234375 0.3990478515625
254811000.0 -0.440704345703125 0.4425506591796875
259806500.0 -0.3965606689453125 0.4975128173828125
264802000.0 -0.34564208984375 0.54833984375
269797500.0 -0.288055419921875 0.5941162109375
274793000.0 -0.2252197265625 0.633819580078125
279788500.0 -0.156646728515625 0.667236328125
284784000.0 -0.083526611328125 0.693359375
289779500.0 -0.005645751953125 0.711639404296875
294775000.0 0.0753173828125 0.72161865234375
299770500.0 0.15899658203125 0.722381591796875
304766000.0 0.2442626953125 0.7130126953125
309761500.0 0.329986572265625 0.693145751953125
314757000.0 0.4144287109375 0.661895751953125
319752500.0 0.496551513671875 0.619842529296875
324748000.0 0.5743408203125 0.567230224609375
329743500.0 0.646636962890625 0.50390625
334739000.0 0.7117919921875 0.430938720703125
339734500.0 0.76812744140625 0.348724365234375
344730000.0 0.81390380859375 0.25897216796875
349725500.0 0.84918212890625 0.16326904296875
354721000.0 0.871490478515625 0.063446044921875
359716500.0 0.8814697265625 -0.039459228515625
364712000.0 0.8790283203125 -0.143157958984375
369707500.0 0.863037109375 -0.246337890625
374703000.0 0.835601806640625 -0.347686767578125
379698500.0 0.796142578125 -0.44482421875
384694000.0 0.745941162109375 -0.536956787109375
389689500.0 0.685150146484375 -0.62274169921875
394685000.0 0.614959716796875 -0.701751708984375
399680500.0 0.53668212890625 -0.7728271484375
404676000.0 0.45074462890625 -0.83544921875
409671500.0 0.358062744140625 -0.890777587890625
414667000.0 0.260040283203125 -0.93310546875
419662500.0 0.155853271484375 -0.966400146484375
424658000.0 0.047393798828125 -0.988922119140625
429653500.0 -0.06622314453125 -0.99957275390625
434649000.0 -0.1820068359375 -0.99609375
439644500.0 -0.297149658203125 -0.979705810546875
444640000.0 -0.411346435546875 -0.95062255859375
449635500.0 -0.52423095703125 -0.908966064453125
454631000.0 -0.634521484375 -0.85394287109375
459626500.0 -0.7406005859375 -0.782989501953125
464622000.0 -0.838409423828125 -0.69696044921875
469617500.0 -0.925567626953125 -0.59771728515625
474613000.0 -1.00006103515625 -0.4862060546875
479608500.0 -1.0601806640625 -0.36456298828125
484604000.0 -1.1038818359375 -0.23486328125
489599500.0 -1.12969970703125 -0.09979248046875
494595000.0 -1.13702392578125 0.03765869140625
499590500.0 -1.12652587890625 0.17425537109375
504586000.0 -1.09814453125 0.306884765625
509581500.0 -1.05303955078125 0.4326171875
514577000.0 -0.993743896484375 0.550262451171875
519572500.0 -0.92193603515625 0.657562255859375
524568000.0 -0.840576171875 0.753814697265625
529563500.0 -0.751861572265625 0.83837890625
534559000.0 -0.65692138671875 0.912841796875
539554500.0 -0.558349609375 0.97686767578125
544550000.0 -0.45550537109375 1.03271484375
549545500.0 -0.34814453125 1.080322265625
554541000.0 -0.23486328125 1.11944580078125
559536500.0 -0.1175537109375 1.1490478515625
564532000.0 0.0054931640625 1.16741943359375
569527500.0 0.13323974609375 1.173828125
574523000.0 0.2630615234375 1.16619873046875
579518500.0 0.394775390625 1.14410400390625
584514000.0 0.526123046875 1.107177734375
589509500.0 0.6553955078125 1.05438232421875
594505000.0 0.780609130859375 0.985626220703125
599500500.0 0.89990234375 0.90087890625
604496000.0 1.0106201171875 0.800537109375
609491500.0 1.110595703125 0.684814453125
614487000.0 1.197265625 0.554931640625
619482500.0 1.26763916015625 0.412841796875
624478000.0 1.32000732421875 0.26025390625
629473500.0 1.351806640625 0.100341796875
634469000.0 1.3626708984375 -0.06414794921875
639464500.0 1.35089111328125 -0.2288818359375
644460000.0 1.31683349609375 -0.3912353515625
649455500.0 1.2618408203125 -0.546875
654451000.0 1.1875 -0.69354248046875
659446500.0 1.09576416015625 -0.82794189453125
664442000.0 0.98992919921875 -0.9483642578125
669437500.0 0.87127685546875 -1.05401611328125
674433000.0 0.74298095703125 -1.1429443359375
679428500.0 0.60809326171875 -1.21551513671875
684424000.0 0.4681396484375 -1.27203369140625
689419500.0 0.32501220703125 -1.31298828125
694415000.0 0.180419921875 -1.33819580078125
699410500.0 0.03558349609375 -1.3492431640625
704406000.0 -0.10833740234375 -1.34637451171875
709401500.0 -0.25067138671875 -1.3302001953125
714397000.0 -0.3909912109375 -1.3006591796875
719392500.0 -0.5286865234375 -1.25848388671875
724388000.0 -0.66290283203125 -1.203369140625
729383500.0 -0.79296875 -1.13531494140625
734379000.0 -0.9185791015625 -1.05242919921875
739374500.0 -1.03729248046875 -0.956298828125
744370000.0 -1.14801025390625 -0.8458251953125
749365500.0 -1.24920654296875 -0.7220458984375
754361000.0 -1.33807373046875 -0.5838623046875
759356500.0 -1.41229248046875 -0.43218994140625
764352000.0 -1.46929931640625 -0.26904296875
769347500.0 -1.506103515625 -0.09600830078125
774343000.0 -1.52099609375 0.08392333984375
779338500.0 -1.511962890625 0.26763916015625
784334000.0 -1.480224609375 0.45068359375
789329500.0 -1.42041015625 0.629150390625
794325000.0 -1.33770751953125 0.79864501953125
799320500.0 -1.23260498046875 0.95513916015625
804316000.0 -1.1087646484375 1.09539794921875
809311500.0 -0.96856689453125 1.21728515625
814307000.0 -0.81622314453125 1.318603515625
819302500.0 -0.65472412109375 1.39849853515625
824298000.0 -0.4869384765625 1.45672607421875
829293500.0 -0.31817626953125 1.49566650390625
834289000.0 -0.14788818359375 1.5135498046875
839284500.0 0.0179443359375 1.51251220703125
844280000.0 0.12078857421875 1.5223388671875
849275500.0 0.2811279296875 1.4971923828125
854271000.0 0.43804931640625 1.45623779296875
859266500.0 0.58819580078125 1.4007568359375
864262000.0 0.73236083984375 1.33172607421875
869257500.0 0.8685302734375 1.25
874253000.0 0.99755859375 1.15545654296875
879248500.0 1.1173095703125 1.049072265625
884244000.0 1.22760009765625 0.93115234375
889239500.0 1.32781982421875 0.802001953125
894235000.0 1.41656494140625 0.66241455078125
899230500.0 1.4927978515625 0.5126953125
904226000.0 1.55548095703125 0.35125732421875
909221500.0 1.6024169921875 0.1785888671875
914217000.0 1.62982177734375 -0.0028076171875
919212500.0 1.63555908203125 -0.1912841796875
924208000.0 1.6171875 -0.3829345703125
929203500.0 1.57354736328125 -0.57379150390625
934199000.0 1.505859375 -0.75994873046875
939194500.0 1.4127197265625 -0.937744140625
944190000.0 1.2962646484375 -1.10302734375
949185500.0 1.158447265625 -1.25225830078125
954181000.0 1.00262451171875 -1.3817138671875
959176500.0 0.83197021484375 -1.4891357421875
964172000.0 0.65032958984375 -1.5723876953125
969167500.0 0.4622802734375 -1.63226318359375
974163000.0 0.2705078125 -1.6683349609375
979158500.0 0.08001708984375 -1.68060302734375
984154000.0 -0.1085205078125 -1.671630859375
989149500.0 -0.29217529296875 -1.64190673828125
994145000.0 -0.4681396484375 -1.59405517578125
999140500.0 -0.63653564453125 -1.52923583984375
1004136000.0 -0.7947998046875 -1.44854736328125
1009131500.0 -0.94427490234375 -1.35382080078125
1014127000.0 -1.0831298828125 -1.24530029296875
1019122500.0 -1.21063232421875 -1.125
1024118000.0 -1.3270263671875 -0.99261474609375
1029113500.0 -1.4306640625 -0.8482666015625
1034109000.0 -1.52044677734375 -0.69268798828125
1039104500.0 -1.595458984375 -0.527587890625
1044100000.0 -1.653564453125 -0.3524169921875
1049095500.0 -1.693359375 -0.1689453125
1054091000.0 -1.7135009765625 0.02130126953125
1059086500.0 -1.7120361328125 0.21514892578125
1064082000.0 -1.68743896484375 0.41162109375
1069077500.0 -1.63922119140625 0.605712890625
1074073000.0 -1.5662841796875 0.79595947265625
1079068500.0 -1.469482421875 0.977294921875
1084064000.0 -1.34906005859375 1.146728515625
1089059500.0 -1.20709228515625 1.30035400390625
1094055000.0 -1.04644775390625 1.4342041015625
1099050500.0 -0.8701171875 1.546630859375
1104046000.0 -0.68212890625 1.634765625
1109041500.0 -0.48553466796875 1.6986083984375
1114037000.0 -0.28485107421875 1.7366943359375
1119032500.0 -0.08355712890625 1.75
1124028000.0 0.11541748046875 1.739501953125
1129023500.0 0.30859375 1.70648193359375
1134019000.0 0.494140625 1.6531982421875
1139014500.0 0.6707763671875 1.58050537109375
1144010000.0 0.83599853515625 1.49090576171875
1149005500.0 0.9888916015625 1.38580322265625
1154001000.0 1.1292724609375 1.2669677734375
1158996500.0 1.25579833984375 1.1353759765625
1163992000.0 1.36737060546875 0.99267578125
1168987500.0 1.46441650390625 0.8404541015625
1173983000.0 1.54571533203125 0.67938232421875
1178978500.0 1.61090087890625 0.51080322265625
1183974000.0 1.65887451171875 0.3363037109375
1188969500.0 1.68902587890625 0.15625
1193965000.0 1.7008056640625 -0.02691650390625
1198960500.0 1.693603515625 -0.21209716796875
1203956000.0 1.66656494140625 -0.396728515625
1208951500.0 1.61932373046875 -0.57891845703125
1213947000.0 1.55194091796875 -0.75775146484375
1218942500.0 1.46417236328125 -0.92926025390625
1223938000.0 1.3563232421875 -1.0914306640625
1228933500.0 1.22967529296875 -1.24127197265625
1233929000.0 1.0858154296875 -1.3763427734375
1238924500.0 0.9256591796875 -1.49444580078125
1243920000.0 0.75177001953125 -1.5936279296875
1248915500.0 0.566650390625 -1.67242431640625
1253911000.0 0.37255859375 -1.7283935546875
1258906500.0 0.173095703125 -1.760498046875
1263902000.0 -0.029052734375 -1.7696533203125
1268897500.0 -0.23187255859375 -1.755859375
1273893000.0 -0.4281005859375 -1.71636962890625
1278888500.0 -0.61749267578125 -1.65478515625
1283884000.0 -0.799072265625 -1.57281494140625
1288879500.0 -0.96917724609375 -1.47052001953125
1293875000.0 -1.12579345703125 -1.35015869140625
1298870500.0 -1.26837158203125 -1.2137451171875
1303866000.0 -1.39288330078125 -1.06292724609375
1308861500.0 -1.49993896484375 -0.90020751953125
1313857000.0 -1.58721923828125 -0.72674560546875
1318852500.0 -1.6556396484375 -0.5447998046875
1323848000.0 -1.70257568359375 -0.35693359375
1328843500.0 -1.7291259765625 -0.1666259765625
1333839000.0 -1.73388671875 0.02508544921875
1338834500.0 -1.71820068359375 0.2164306640625
1343830000.0 -1.68109130859375 0.4033203125
1348825500.0 -1.62445068359375 0.58514404296875
1353821000.0 -1.54888916015625 0.759033203125
1358816500.0 -1.45489501953125 0.92327880859375
1363812000.0 -1.34344482421875 1.075927734375
1368807500.0 -1.2171630859375 1.21502685546875
1373803000.0 -1.07684326171875 1.34002685546875
1378798500.0 -0.92425537109375 1.44866943359375
1383794000.0 -0.760498046875 1.54095458984375
1388789500.0 -0.58837890625 1.61578369140625
1393785000.0 -0.40899658203125 1.671142578125
1398780500.0 -0.2236328125 1.7083740234375
1403776000.0 -0.03546142578125 1.72509765625
1408771500.0 0.15472412109375 1.721923828125
1413767000.0 0.3438720703125 1.69818115234375
1418762500.0 0.5311279296875 1.653564453125
1423758000.0 0.71343994140625 1.5882568359375
1428753500.0 0.88909912109375 1.50274658203125
1433749000.0 1.05474853515625 1.3966064453125
1438744500.0 1.20892333984375 1.27154541015625
1443740000.0 1.34857177734375 1.1278076171875
1448735500.0 1.47119140625 0.967529296875
1453731000.0 1.573974609375 0.79254150390625
1458726500.0 1.6549072265625 0.60491943359375
1463722000.0 1.712646484375 0.40911865234375
1468717500.0 1.7442626953125 0.2080078125
1473713000.0 1.75079345703125 0.0045166015625
1478708500.0 1.73358154296875 -0.19671630859375
1483704000.0 1.69061279296875 -0.392578125
1488699500.0 1.625244140625 -0.57977294921875
1493695000.0 1.53887939453125 -0.755126953125
1498690500.0 1.43450927734375 -0.91680908203125
1503686000.0 1.3133544921875 -1.06182861328125
1508681500.0 1.17901611328125 -1.19085693359375
1513677000.0 1.03460693359375 -1.30169677734375
1518672500.0 0.8817138671875 -1.3958740234375
1523668000.0 0.722412109375 -1.47161865234375
1528663500.0 0.55908203125 -1.52996826171875
1533659000.0 0.39324951171875 -1.5718994140625
1538654500.0 0.22613525390625 -1.59716796875
1543650000.0 0.05889892578125 -1.60626220703125
1548645500.0 -0.10784912109375 -1.59979248046875
1553641000.0 -0.27288818359375 -1.57781982421875
1558636500.0 -0.435302734375 -1.5404052734375
1563632000.0 -0.59326171875 -1.487060546875
1568627500.0 -0.7467041015625 -1.41876220703125
1573623000.0 -0.89404296875 -1.33544921875
1578618500.0 -1.03369140625 -1.236328125
1583614000.0 -1.16363525390625 -1.1217041015625
1588609500.0 -1.2821044921875 -0.9927978515625
1593605000.0 -1.3875732421875 -0.849853515625
1598600500.0 -1.4769287109375 -0.69403076171875
1603596000.0 -1.54840087890625 -0.52728271484375
1608591500.0 -1.6005859375 -0.351806640625
1613587000.0 -1.63128662109375 -0.170654296875
1618582500.0 -1.64080810546875 0.01409912109375
1623578000.0 -1.6273193359375 0.1986083984375
1628573500.0 -1.5919189453125 0.3792724609375
1633569000.0 -1.535400390625 0.55413818359375
1638564500.0 -1.4586181640625 0.71929931640625
1643560000.0 -1.36407470703125 0.87237548828125
1648555500.0 -1.25335693359375 1.0125732421875
1653551000.0 -1.1297607421875 1.1375732421875
1658546500.0 -0.9947509765625 1.24627685546875
1663542000.0 -0.851318359375 1.33831787109375
1668537500.0 -0.7010498046875 1.41436767578125
1673533000.0 -0.54638671875 1.473876953125
1678528500.0 -0.3878173828125 1.517333984375
1683524000.0 -0.228515625 1.54498291015625
1688519500.0 -0.0673828125 1.5579833984375
1693515000.0 0.09307861328125 1.55615234375
1698510500.0 0.2530517578125 1.53900146484375
1703506000.0 0.41156005859375 1.5076904296875
1708501500.0 0.5675048828125 1.4613037109375
1713497000.0 0.71826171875 1.40057373046875
1718492500.0 0.866455078125 1.3248291015625
1723488000.0 1.00848388671875 1.23284912109375
1728483500.0 1.1424560546875 1.12420654296875
1733479000.0 1.26702880859375 0.99993896484375
1738474500.0 1.37939453125 0.85968017578125
1743470000.0 1.47705078125 0.70404052734375
1748465500.0 1.55615234375 0.53509521484375
1753461000.0 1.6143798828125 0.3548583984375
1758456500.0 1.650146484375 0.16558837890625
1763452000.0 1.66119384765625 -0.0281982421875
1768447500.0 1.6466064453125 -0.2225341796875
1773443000.0 1.60675048828125 -0.4132080078125
1778438500.0 1.5421142578125 -0.595947265625
1783434000.0 1.4552001953125 -0.76641845703125
1788429500.0 1.348876953125 -0.92242431640625
1793425000.0 1.22613525390625 -1.0611572265625
1798420500.0 1.09027099609375 -1.18145751953125
1803416000.0 0.94500732421875 -1.28338623046875
1808411500.0 0.792724609375 -1.36651611328125
1813407000.0 0.6368408203125 -1.4300537109375
1818402500.0 0.47821044921875 -1.47802734375
1823398000.0 0.3194580078125 -1.50909423828125
1828393500.0 0.16107177734375 -1.524658203125
1833389000.0 0.00439453125 -1.52587890625
1838384500.0 -0.15020751953125 -1.51361083984375
1843380000.0 -0.302490234375 -1.48828125
1848375500.0 -0.4515380859375 -1.44976806640625
1853371000.0 -0.59765625 -1.39801025390625
1858366500.0 -0.73974609375 -1.333251953125
1863362000.0 -0.87701416015625 -1.2547607421875
1868357500.0 -1.00811767578125 -1.16229248046875
1873353000.0 -1.13232421875 -1.05499267578125
1878348500.0 -1.24676513671875 -0.9332275390625
1883344000.0 -1.349365234375 -0.796875
1888339500.0 -1.43798828125 -0.6470947265625
1893335000.0 -1.5103759765625 -0.48455810546875
1898330500.0 -1.56292724609375 -0.311767578125
1903326000.0 -1.59356689453125 -0.13104248046875
1908321500.0 -1.60137939453125 0.05419921875
1913317000.0 -1.58465576171875 0.2393798828125
1918312500.0 -1.5443115234375 0.421142578125
1923308000.0 -1.4803466796875 0.594970703125
1928303500.0 -1.39501953125 0.7581787109375
1933299000.0 -1.29119873046875 0.90716552734375
1938294500.0 -1.171875 1.03985595703125
1943290000.0 -1.03961181640625 1.15472412109375
1948285500.0 -0.898193359375 1.25152587890625
1953281000.0 -0.75 1.32952880859375
1958276500.0 -0.597900390625 1.390380859375
1963272000.0 -0.44366455078125 1.43377685546875
1968267500.0 -0.28839111328125 1.4608154296875
1973263000.0 -0.1348876953125 1.47271728515625
1978258500.0 0.01678466796875 1.47052001953125
1983254000.0 0.1663818359375 1.4539794921875
1988249500.0 0.3125 1.42437744140625
1993245000.0 0.45465087890625 1.38177490234375
1998240500.0 0.59136962890625 1.3265380859375
2003236000.0 0.72454833984375 1.2591552734375
2008231500.0 0.8502197265625 1.17926025390625
2013227000.0 0.968994140625 1.08642578125
2018222500.0 1.07958984375 0.9813232421875
2023218000.0 1.17913818359375 0.86444091796875
2028213500.0 1.26776123046875 0.7364501953125
2033209000.0 1.34197998046875 0.59893798828125
2038204500.0 1.40167236328125 0.45196533203125
2043200000.0 1.445068359375 0.2984619140625
2048195500.0 1.470458984375 0.139404296875
2053191000.0 1.47723388671875 -0.02166748046875
2058186500.0 1.46575927734375 -0.18292236328125
2063182000.0 1.4356689453125 -0.341064453125
2068177500.0 1.3873291015625 -0.494140625
2073173000.0 1.32275390625 -0.63958740234375
2078168500.0 1.24310302734375 -0.77606201171875
2083164000.0 1.14947509765625 -0.90228271484375
2088159500.0 1.04425048828125 -1.015869140625
2093155000.0 0.92803955078125 -1.11688232421875
2098150500.0 0.8040771484375 -1.20489501953125
2103146000.0 0.67315673828125 -1.27899169921875
2108141500.0 0.53643798828125 -1.34014892578125
2113137000.0 0.39520263671875 -1.386962890625
2118132500.0 0.25103759765625 -1.4197998046875
2123128000.0 0.103759765625 -1.439697265625
2128123500.0 -0.04425048828125 -1.4453125
2133119000.0 -0.19384765625 -1.4373779296875
2138114500.0 -0.34185791015625 -1.41461181640625
2143110000.0 -0.4891357421875 -1.37774658203125
2148105500.0 -0.63470458984375 -1.3255615234375
2153101000.0 -0.775390625 -1.25872802734375
2158096500.0 -0.91058349609375 -1.17529296875
2163092000.0 -1.03814697265625 -1.0765380859375
2168087500.0 -1.15618896484375 -0.9630126953125
2173083000.0 -1.2618408203125 -0.8343505859375
2178078500.0 -1.35296630859375 -0.69244384765625
2183074000.0 -1.427734375 -0.53851318359375
2188069500.0 -1.4833984375 -0.376220703125
2193065000.0 -1.51947021484375 -0.20709228515625
2198060500.0 -1.5340576171875 -0.03399658203125
