!Created with skrf (http://scikit-rf.org).
# Hz S RI R 50.0 
!freq ReS11 ImS11
300000.0 -1.024019598 -0.1762478736
5299970.0 -1.002524192 0.007372346
10299940.0 -1.000863408 0.0124211092
15299910.0 -1.000511922 0.024151587
20299880.0 -0.9999434152 0.0281269394
25299850.0 -0.9995688212 0.0363777814
30299820.0 -0.9986529585 0.0444306786
35299790.0 -0.9977340944 0.0489509591
40299760.0 -0.9974087159 0.0562437959
45299730.0 -0.9970846146 0.0630752505
50299700.0 -0.9963555043 0.0697260579
55299670.0 -0.9956397481 0.077048394
60299640.0 -0.9950088066 0.0833423655
65299610.0 -0.9935213842 0.0901826706
70299580.0 -0.9927979236 0.0964103751
75299550.0 -0.992799471 0.1030823854
80299520.0 -0.9917695306 0.1095000966
85299490.0 -0.9898924067 0.1161677658
90299460.0 -0.9897316481 0.1230165749
95299430.0 -0.9891818278 0.1292979242
100299400.0 -0.9875977938 0.1366370565
105299370.0 -0.9862656522 0.1433708653
110299340.0 -0.9853121401 0.1497742663
115299310.0 -0.9843335238 0.1562128059
120299280.0 -0.9826691481 0.1625210491
125299250.0 -0.9817946831 0.1691591647
130299220.0 -0.9809724396 0.1758552479
135299190.0 -0.9794107315 0.1822576796
140299160.0 -0.9780495245 0.1890896168
145299130.0 -0.9767217456 0.1951391043
150299100.0 -0.975555361 0.2010278638
155299070.0 -0.9741306667 0.2084795525
160299040.0 -0.9725996039 0.2146946116
165299010.0 -0.9704990205 0.2209563877
170298980.0 -0.9690845457 0.2275099063
175298950.0 -0.9659925894 0.2333658619
180298920.0 -0.9641459906 0.2389801259
185298890.0 -0.9637560171 0.2458793592
190298860.0 -0.9633951089 0.2531173697
195298830.0 -0.961127893 0.2599238277
200298800.0 -0.9589274059 0.2659147932
205298770.0 -0.9577568207 0.2724919012
210298740.0 -0.9558188704 0.2792500274
215298710.0 -0.9538422776 0.2853736012
220298680.0 -0.9518362371 0.291544215
225298650.0 -0.9497907157 0.2979077086
230298620.0 -0.9471333351 0.304461643
235298590.0 -0.9458974622 0.3106296275
240298560.0 -0.9435127291 0.3168230918
245298530.0 -0.9414349878 0.3229580803
250298500.0 -0.9390370814 0.3293199023
255298470.0 -0.9369016486 0.3355376718
260298440.0 -0.9344511939 0.341895843
265298410.0 -0.9327199367 0.3485302245
270298380.0 -0.9297849926 0.3539710985
275298350.0 -0.9278800007 0.3604302309
280298320.0 -0.9251373297 0.366002584
285298290.0 -0.9223899431 0.3723110156
290298260.0 -0.9203535041 0.3785794895
295298230.0 -0.9174356391 0.3842413646
300298200.0 -0.9149480296 0.3907506506
305298170.0 -0.9125106833 0.397092075
310298140.0 -0.909756166 0.4028602348
315298110.0 -0.9073627828 0.4086116452
320298080.0 -0.9040997471 0.4149258113
325298050.0 -0.9013852467 0.4205935723
330298020.0 -0.8983185663 0.4269668896
335297990.0 -0.8950636042 0.4334968301
340297960.0 -0.8925093306 0.4386735172
345297930.0 -0.8893667148 0.4450973911
350297900.0 -0.8874550982 0.4509738715
355297870.0 -0.8841285325 0.4567579108
360297840.0 -0.8813636223 0.4627417613
365297810.0 -0.8779631234 0.4682867359
370297780.0 -0.874936044 0.473810968
375297750.0 -0.8704727121 0.4798198145
380297720.0 -0.8678647306 0.485315716
385297690.0 -0.8648606668 0.4914716739
390297660.0 -0.8610965 0.4974506714
395297630.0 -0.8578545393 0.5027684723
400297600.0 -0.854639002 0.5086020429
405297570.0 -0.8509065414 0.5140227153
410297540.0 -0.847201642 0.520105747
415297510.0 -0.8443542604 0.5251601903
420297480.0 -0.841052714 0.5309084788
425297450.0 -0.8366669584 0.5363882431
430297420.0 -0.8333935783 0.5422147908
435297390.0 -0.8288269209 0.5474575277
440297360.0 -0.8259986815 0.5534407581
445297330.0 -0.8227965901 0.5585325092
450297300.0 -0.818818207 0.5642611402
455297270.0 -0.8145012255 0.5693757263
460297240.0 -0.8109569143 0.5745285757
465297210.0 -0.8070623791 0.5803314513
470297180.0 -0.8028808276 0.585488347
475297150.0 -0.7988547733 0.5911551048
480297120.0 -0.7955244434 0.5963731978
485297090.0 -0.7916001317 0.6014185241
490297060.0 -0.7871713426 0.6067641224
495297030.0 -0.7831715302 0.611448934
500297000.0 -0.7790975985 0.6171005481
505296970.0 -0.7758140881 0.6222584618
510296940.0 -0.7716410924 0.6272101563
515296910.0 -0.7675454326 0.6322960091
520296880.0 -0.7637448667 0.6377363577
525296850.0 -0.7591326668 0.6430561385
530296820.0 -0.7547365197 0.6480897102
535296790.0 -0.7503851015 0.6531474116
540296760.0 -0.7456961296 0.6581547887
545296730.0 -0.7415062538 0.6627692163
550296700.0 -0.7365710357 0.6679112328
555296670.0 -0.7323342568 0.6731111426
560296640.0 -0.7276641561 0.6771690728
565296610.0 -0.7229701653 0.6824140288
570296580.0 -0.71849309 0.6865349766
575296550.0 -0.7135541696 0.6917355102
580296520.0 -0.7088442118 0.6965953804
585296490.0 -0.7041870717 0.7011473579
590296460.0 -0.6998726171 0.7058211417
595296430.0 -0.6954078797 0.709736102
600296400.0 -0.6898274436 0.7147809073
605296370.0 -0.6853380331 0.7187637443
610296340.0 -0.6808463935 0.7233066399
615296310.0 -0.6761959009 0.7279941265
620296280.0 -0.6710159629 0.7325343159
625296250.0 -0.6659013563 0.736885651
630296220.0 -0.6610817951 0.7412073434
635296190.0 -0.6563006297 0.7448304974
640296160.0 -0.6516942918 0.7491530078
645296130.0 -0.6461835729 0.7533870157
650296100.0 -0.6416792323 0.7582154999
655296070.0 -0.6359432819 0.7626987746
660296040.0 -0.6313234128 0.766458423
665296010.0 -0.6260088172 0.769751108
670295980.0 -0.6211475011 0.7746729261
675295950.0 -0.6154519654 0.7792202254
680295920.0 -0.6104379359 0.7832708596
685295890.0 -0.6057495474 0.7871168777
690295860.0 -0.5998587501 0.7908687481
695295830.0 -0.5946700752 0.7945656828
700295800.0 -0.5900147488 0.7990924053
705295770.0 -0.5844763386 0.8029263566
710295740.0 -0.5788653862 0.8069676416
715295710.0 -0.5733103086 0.8104555641
720295680.0 -0.5682047539 0.8141295363
725295650.0 -0.5624117133 0.8180250516
730295620.0 -0.5572423536 0.8214638221
735295590.0 -0.5522659881 0.8249116065
740295560.0 -0.5467045278 0.8290894738
745295530.0 -0.5407724662 0.8318461383
750295500.0 -0.5361916237 0.836241128
755295470.0 -0.5299302231 0.8393486535
760295440.0 -0.5242328655 0.8429149658
765295410.0 -0.5187160016 0.8465584279
770295380.0 -0.513093547 0.8502211352
775295350.0 -0.5067018166 0.8533005348
780295320.0 -0.5012097228 0.8564663139
785295290.0 -0.4960649826 0.8596168135
790295260.0 -0.4899274592 0.8625182069
795295230.0 -0.484222024 0.8659163021
800295200.0 -0.478531365 0.8686347175
805295170.0 -0.4726929538 0.8725787797
810295140.0 -0.4667546216 0.8755869018
815295110.0 -0.4612694044 0.878099528
820295080.0 -0.455359774 0.8811799937
825295050.0 -0.4488465267 0.8847295024
830295020.0 -0.4433405071 0.8876731759
835294990.0 -0.4373877868 0.8897850485
840294960.0 -0.4319331819 0.8926221633
845294930.0 -0.4258531567 0.896242086
850294900.0 -0.4198611963 0.8985334979
855294870.0 -0.4136713796 0.9018555627
860294840.0 -0.4078061544 0.9043342359
865294810.0 -0.401839457 0.9066344517
870294780.0 -0.3960507234 0.9090762332
875294750.0 -0.3898112476 0.9118678176
880294720.0 -0.3843066469 0.9140045636
885294690.0 -0.377728616 0.9169096595
890294660.0 -0.3718099097 0.9189620463
895294630.0 -0.3656080736 0.9212426356
900294600.0 -0.3598326377 0.9232839551
905294570.0 -0.3537757688 0.9258945149
910294540.0 -0.3469098087 0.9285610902
915294510.0 -0.3412105184 0.9302087953
920294480.0 -0.3344816416 0.9326970204
925294450.0 -0.3284592814 0.9351526638
930294420.0 -0.3222171044 0.9371064908
935294390.0 -0.3164093586 0.9388297893
940294360.0 -0.3102444639 0.9411037021
945294330.0 -0.3043268372 0.9425858252
950294300.0 -0.2977891454 0.9448465362
955294270.0 -0.291497706 0.946972257
960294240.0 -0.284959974 0.9486180268
965294210.0 -0.2784717701 0.9508417225
970294180.0 -0.2726743612 0.9522368417
975294150.0 -0.2662541993 0.954234369
980294120.0 -0.2599958788 0.9563805267
985294090.0 -0.2540372099 0.957701637
990294060.0 -0.2475363553 0.9589905913
995294030.0 -0.2410773931 0.9603991114
1000294000.0 -0.234958317 0.962431545
1005293970.0 -0.2283159169 0.963987805
1010293940.0 -0.2221540697 0.9652829418
1015293910.0 -0.2156995571 0.9670628737
1020293880.0 -0.2091730166 0.9678106603
1025293850.0 -0.2032495633 0.9695553958
1030293820.0 -0.1967950065 0.970248604
1035293790.0 -0.1903084314 0.9722433174
1040293760.0 -0.1838770232 0.9727987666
1045293730.0 -0.1768974704 0.9742467818
1050293700.0 -0.170429747 0.9750144851
1055293670.0 -0.1646695772 0.9766291592
1060293640.0 -0.1580733729 0.9773847649
1065293610.0 -0.1515040554 0.9781615278
1070293580.0 -0.1454349391 0.9790914113
1075293550.0 -0.139263669 0.980077664
1080293520.0 -0.1327098619 0.9805859849
1085293490.0 -0.1256704569 0.9817596485
1090293460.0 -0.1191185393 0.9821518486
1095293430.0 -0.1123287174 0.9833908718
1100293400.0 -0.1056236966 0.9840825481
1105293370.0 -0.0992027055 0.9844380704
1110293340.0 -0.0932084611 0.9853050927
1115293310.0 -0.0863555239 0.9854134867
1120293280.0 -0.080137992 0.9865747903
1125293250.0 -0.0738489404 0.9865032537
1130293220.0 -0.0675686771 0.9871729789
1135293190.0 -0.0612720191 0.9881211404
1140293160.0 -0.0537858457 0.988121045
1145293130.0 -0.0476745859 0.9883929636
1150293100.0 -0.041301174 0.9890506112
1155293070.0 -0.0348000099 0.9886741747
1160293040.0 -0.0280918653 0.9889365376
1165293010.0 -0.0216607854 0.9891937531
1170292980.0 -0.0154325793 0.9893233344
1175292950.0 -0.0091714937 0.9895277299
1180292920.0 -0.0021210164 0.9894061635
1185292890.0 0.0038060589 0.9891569059
1190292860.0 0.0104102201 0.9895992277
1195292830.0 0.0172672057 0.9891454041
1200292800.0 0.023862152 0.9888223578
1205292770.0 0.0296025053 0.9890677098
1210292740.0 0.035695865 0.9886552539
1215292710.0 0.0429951712 0.9883682262
1220292680.0 0.0491205793 0.9877850488
1225292650.0 0.0565298174 0.9866751248
1230292620.0 0.0626778528 0.9871825589
1235292590.0 0.0691170764 0.986480937
1240292560.0 0.0754439258 0.9860196611
1245292530.0 0.0820170405 0.9859197976
1250292500.0 0.0885056664 0.9845681851
1255292470.0 0.0952680007 0.9844420418
1260292440.0 0.1015359965 0.9835218398
1265292410.0 0.1078285537 0.9830309293
1270292380.0 0.1145010956 0.9820980977
1275292350.0 0.1205656775 0.9815410711
1280292320.0 0.1272830874 0.9804426075
1285292290.0 0.1343503417 0.9796536903
1290292260.0 0.140472246 0.9788811776
1295292230.0 0.1466641517 0.9779847821
1300292200.0 0.1531193776 0.9773469252
1305292170.0 0.1592674501 0.9759195403
1310292140.0 0.1665043936 0.9747678306
1315292110.0 0.1720009302 0.9741021105
1320292080.0 0.1787406539 0.9731781649
1325292050.0 0.1854177423 0.9715610798
1330292020.0 0.1913977413 0.9703256354
1335291990.0 0.198221596 0.9689482924
1340291960.0 0.20470888 0.9679695301
1345291930.0 0.210765959 0.9659282701
1350291900.0 0.2172731454 0.9650236822
1355291870.0 0.2238282735 0.9636250363
1360291840.0 0.2302029493 0.9616256364
1365291810.0 0.2358167295 0.9600850888
1370291780.0 0.2415179758 0.9589912072
1375291750.0 0.2486292656 0.9565233802
1380291720.0 0.2547937064 0.9550087229
1385291690.0 0.2610844388 0.9543289726
1390291660.0 0.2677933458 0.9518248566
1395291630.0 0.2736112373 0.9500588531
1400291600.0 0.2805613732 0.9477134619
1405291570.0 0.2865247313 0.9463936138
1410291540.0 0.2922601628 0.9448430005
1415291510.0 0.2985193745 0.9426037661
1420291480.0 0.304712206 0.9402625409
1425291450.0 0.3108322367 0.9386019991
1430291420.0 0.3169762854 0.9360427677
1435291390.0 0.3231204871 0.9341401588
1440291360.0 0.3290881581 0.9321572221
1445291330.0 0.3353297321 0.9300797766
1450291300.0 0.3406372093 0.9282592281
1455291270.0 0.3472495946 0.9257934402
1460291240.0 0.3535876251 0.924032607
1465291210.0 0.3592826544 0.9211086059
1470291180.0 0.3654620858 0.9188840574
1475291150.0 0.3716242867 0.9164181742
1480291120.0 0.3772717367 0.9136454688
1485291090.0 0.3833941013 0.9112530131
1490291060.0 0.38921239 0.9084939862
1495291030.0 0.3955177973 0.906350718
1500291000.0 0.4013452211 0.903405965
1505290970.0 0.4069167649 0.9010450451
1510290940.0 0.4135650278 0.8982302699
1515290910.0 0.4185785339 0.8953298307
1520290880.0 0.4248508491 0.8925870155
1525290850.0 0.4305868415 0.8901403977
1530290820.0 0.4367405587 0.8876081971
1535290790.0 0.4422735337 0.8843152892
1540290760.0 0.4483879761 0.8811901316
1545290730.0 0.4543406529 0.8786615065
1550290700.0 0.4599852178 0.8754665682
1555290670.0 0.4654952972 0.871986713
1560290640.0 0.4714333732 0.8692731676
1565290610.0 0.4770653284 0.8666424286
1570290580.0 0.4821100998 0.8628107103
1575290550.0 0.4879370822 0.8597522256
1580290520.0 0.4937384704 0.8563806279
1585290490.0 0.4994350238 0.8534959235
1590290460.0 0.5051969879 0.8502968118
1595290430.0 0.5108353161 0.8466092744
1600290400.0 0.5164076275 0.843271607
1605290370.0 0.5213918338 0.8398455745
1610290340.0 0.5271539257 0.8366276113
1615290310.0 0.5329161944 0.833130604
1620290280.0 0.5382816035 0.8292973958
1625290250.0 0.5432474117 0.8258492724
1630290220.0 0.5489033335 0.8225905424
1635290190.0 0.5543401023 0.8189832133
1640290160.0 0.5586686708 0.8156922493
1645290130.0 0.5642301804 0.8118852266
1650290100.0 0.5699221134 0.8079022154
1655290070.0 0.5751200462 0.8040730147
1660290040.0 0.5805019711 0.8005155898
1665290010.0 0.5853635096 0.7970335397
1670289980.0 0.5913387602 0.7932034149
1675289950.0 0.5957078761 0.7893437777
1680289920.0 0.6013749918 0.7853467966
1685289890.0 0.6063508816 0.7805130625
1690289860.0 0.6121115644 0.7766647126
1695289830.0 0.6166336193 0.7725331734
1700289800.0 0.6222353107 0.7689736442
1705289770.0 0.6267167562 0.7644395411
1710289740.0 0.6322300567 0.7600238919
1715289710.0 0.6373633808 0.7564010587
1720289680.0 0.6420166876 0.7524007828
1725289650.0 0.6470217923 0.7480623343
1730289620.0 0.6520707873 0.7432614713
1735289590.0 0.6567328108 0.7393719774
1740289560.0 0.6613501661 0.7356507498
1745289530.0 0.665950486 0.7306618474
1750289500.0 0.6707336153 0.7262980462
1755289470.0 0.6758120473 0.7216895198
1760289440.0 0.6802836734 0.7179954045
1765289410.0 0.6848558618 0.714124513
1770289380.0 0.6896010945 0.7093308026
1775289350.0 0.6943731863 0.7046953085
1780289320.0 0.6984150314 0.6997040377
1785289290.0 0.7035934132 0.696051757
1790289260.0 0.7084565455 0.6904723741
1795289230.0 0.7129042015 0.6862872012
1800289200.0 0.7173699405 0.6812345752
1805289170.0 0.7219728803 0.6760361012
1810289140.0 0.7263730744 0.6720349832
1815289110.0 0.7302169638 0.6674089737
1820289080.0 0.7343484097 0.6631741716
1825289050.0 0.738523096 0.6582637459
1830289020.0 0.7427436779 0.6533606352
1835288990.0 0.747370091 0.649015453
1840288960.0 0.75152768 0.6440754056
1845288930.0 0.7551555996 0.6391185584
1850288900.0 0.7599327845 0.6339414828
1855288870.0 0.763922742 0.6286580844
1860288840.0 0.7678235138 0.6239918466
1865288810.0 0.7716432094 0.6186368894
1870288780.0 0.7760171332 0.6134143085
1875288750.0 0.7804306904 0.6085245715
1880288720.0 0.7842937126 0.6028789545
1885288690.0 0.7884072556 0.5981713644
1890288660.0 0.7919312215 0.5928277266
1895288630.0 0.7961838797 0.5873203487
1900288600.0 0.7996912462 0.5828528248
1905288570.0 0.8033633888 0.5774225445
1910288540.0 0.8073085896 0.5722261879
1915288510.0 0.8112180158 0.5667376508
1920288480.0 0.8149751443 0.5610249608
1925288450.0 0.818653321 0.5558457688
1930288420.0 0.8220804666 0.5505931902
1935288390.0 0.8259545364 0.5450232788
1940288360.0 0.8293139719 0.5395837824
1945288330.0 0.832920867 0.5343532691
1950288300.0 0.8364713718 0.5284796297
1955288270.0 0.8400557899 0.5228017796
1960288240.0 0.8441197282 0.5173711755
1965288210.0 0.8475868203 0.5116148986
1970288180.0 0.8503750152 0.5059596212
1975288150.0 0.8532899631 0.5009191249
1980288120.0 0.856806838 0.4955393363
1985288090.0 0.8598087772 0.490282554
1990288060.0 0.8628369195 0.4848685394
1995288030.0 0.8660892059 0.478760647
2000288000.0 0.8689538089 0.4739417106
2005287970.0 0.8716208184 0.4681017428
2010287940.0 0.8747496376 0.4619501236
2015287910.0 0.8777897415 0.4565949895
2020287880.0 0.8809587486 0.4516924504
2025287850.0 0.8837049951 0.4454805478
2030287820.0 0.8868046317 0.4390900511
2035287790.0 0.8896632824 0.4337971376
2040287760.0 0.8923104408 0.4279937249
2045287730.0 0.8949605745 0.4221930079
2050287700.0 0.8978387467 0.4159039652
2055287670.0 0.9006648334 0.4104160798
2060287640.0 0.9034430216 0.4048934806
2065287610.0 0.9058071019 0.3983825284
2070287580.0 0.9084311031 0.3923421297
2075287550.0 0.9113010859 0.3869254227
2080287520.0 0.9136178879 0.3811070376
2085287490.0 0.9168029432 0.3748216316
2090287460.0 0.9185736152 0.3690994807
2095287430.0 0.921507657 0.3626508961
2100287400.0 0.9235646427 0.3563150725
2105287370.0 0.9261805642 0.3506814145
2110287340.0 0.9279021353 0.3445866669
2115287310.0 0.9302883337 0.338179587
2120287280.0 0.9324912708 0.3321636002
2125287250.0 0.9344614976 0.3266668174
2130287220.0 0.93663503 0.3205877016
2135287190.0 0.9387605518 0.3139246127
2140287160.0 0.9409470503 0.3076298818
2145287130.0 0.9431552811 0.3019018587
2150287100.0 0.9448783114 0.2953896202
2155287070.0 0.9471267463 0.2897846969
2160287040.0 0.9480847836 0.2832077776
2165287010.0 0.9503008608 0.277721581
2170286980.0 0.9526658957 0.2711463046
2175286950.0 0.9540543239 0.2651572426
2180286920.0 0.9557256975 0.2591673955
2185286890.0 0.9573641044 0.2527790383
2190286860.0 0.9587246912 0.2472845449
2195286830.0 0.9604837977 0.2409883046
2200286800.0 0.9623907562 0.2348688492
2205286770.0 0.9637504714 0.2286303465
2210286740.0 0.964830834 0.2223001765
2215286710.0 0.9663297546 0.2165159758
2220286680.0 0.9679774892 0.2100312592
2225286650.0 0.96945262 0.2033853134
2230286620.0 0.9700360745 0.1972956474
2235286590.0 0.9718408998 0.1913506661
2240286560.0 0.9734001227 0.1847840664
2245286530.0 0.9739546389 0.1783422633
2250286500.0 0.9757799412 0.1715519015
2255286470.0 0.9767332965 0.1650993092
2260286440.0 0.9773894011 0.1587267197
2265286410.0 0.9779222146 0.152486955
2270286380.0 0.9793890451 0.1458016372
2275286350.0 0.9806046294 0.1393002235
2280286320.0 0.9810866821 0.1331768888
2285286290.0 0.9821143853 0.1265312356
2290286260.0 0.9832170091 0.120134654
2295286230.0 0.9838106669 0.1140615668
2300286200.0 0.984019864 0.1068855732
2305286170.0 0.9853090747 0.1014765952
2310286140.0 0.9858781492 0.0951356936
2315286110.0 0.9864097451 0.0885523712
2320286080.0 0.9865807417 0.0817857368
2325286050.0 0.9877519741 0.075471859
2330286020.0 0.9881002893 0.0692406447
2335285990.0 0.9883651609 0.0628209192
2340285960.0 0.9882913391 0.0562285956
2345285930.0 0.9891457928 0.050145346
2350285900.0 0.9892912016 0.0433014503
2355285870.0 0.9898687652 0.0368892554
2360285840.0 0.9897978917 0.0299854211
2365285810.0 0.9902331587 0.0239973844
2370285780.0 0.9900206104 0.0173132017
2375285750.0 0.9905211072 0.0110472733
2380285720.0 0.990083518 0.0043783503
2385285690.0 0.9898386914 -0.0014262745
2390285660.0 0.9900573329 -0.0078138161
2395285630.0 0.9898667351 -0.0141965257
2400285600.0 0.9898446661 -0.0202371344
2405285570.0 0.9895933717 -0.0274158866
2410285540.0 0.9896601835 -0.0330947325
2415285510.0 0.9891870969 -0.0393439382
2420285480.0 0.9887315164 -0.045983815
2425285450.0 0.9885289824 -0.0523750754
2430285420.0 0.9881793694 -0.0589633012
2435285390.0 0.987890451 -0.0652706589
2440285360.0 0.987868724 -0.071882779
2445285330.0 0.9874545046 -0.0773356282
2450285300.0 0.986583267 -0.0841931697
2455285270.0 0.9860589075 -0.0911832371
2460285240.0 0.9853653448 -0.0973736006
2465285210.0 0.9843993436 -0.1036165774
2470285180.0 0.9833426456 -0.1102801384
2475285150.0 0.9830424609 -0.1164574623
2480285120.0 0.9822721151 -0.1237256041
2485285090.0 0.9813301743 -0.1293245707
2490285060.0 0.9802047224 -0.1359277585
2495285030.0 0.9790691362 -0.1424708908
2500285000.0 0.9785914521 -0.1490118217
2505284970.0 0.9770645279 -0.1557367072
2510284940.0 0.9761658891 -0.1619330708
2515284910.0 0.9753084241 -0.1677920945
2520284880.0 0.9740114958 -0.1746972138
2525284850.0 0.9730295804 -0.1806803136
2530284820.0 0.9714024059 -0.1869543008
2535284790.0 0.9708140125 -0.19307885
2540284760.0 0.9691459144 -0.1995190506
2545284730.0 0.9675711472 -0.2054681322
2550284700.0 0.966243918 -0.2118321333
2555284670.0 0.964953357 -0.2182278117
