!Created with skrf (http://scikit-rf.org).
# Hz S RI R 50.0 
!freq ReS11 ImS11
300000.0 1.002382085 0.000790552
5299970.0 1.00507399 -0.0086030214
10299940.0 1.004676364 -0.0155365981
15299910.0 1.004702194 -0.0211394636
20299880.0 1.00410008 -0.028010303
25299850.0 1.004275454 -0.0345714036
30299820.0 1.003861931 -0.0416453734
35299790.0 1.00356411 -0.0479768592
40299760.0 1.003138803 -0.054590039
45299730.0 1.003090916 -0.0611094694
50299700.0 1.00254655 -0.0680801088
55299670.0 1.002260148 -0.0746686995
60299640.0 1.00142095 -0.0816613696
65299610.0 1.001003299 -0.0880257452
70299580.0 1.000369113 -0.0942905881
75299550.0 0.9997822699 -0.1008044071
80299520.0 0.9992184725 -0.1070831807
85299490.0 0.9979569722 -0.1133450447
90299460.0 0.9981427842 -0.1202062138
95299430.0 0.9969891889 -0.1263206661
100299400.0 0.9966143516 -0.1331923657
105299370.0 0.9951651948 -0.1401565862
110299340.0 0.9940312793 -0.1464735383
115299310.0 0.9932336068 -0.1529088233
120299280.0 0.9924824845 -0.1590690056
125299250.0 0.9908489781 -0.16571049
130299220.0 0.9894006226 -0.1725610153
135299190.0 0.9887917118 -0.1794396839
140299160.0 0.9876591584 -0.1860295871
145299130.0 0.9858898193 -0.1917530034
150299100.0 0.9845942507 -0.1983306715
155299070.0 0.9837599404 -0.2045369662
160299040.0 0.9817814431 -0.2113551011
165299010.0 0.9807398556 -0.2178570203
170298980.0 0.9785075751 -0.2238013548
175298950.0 0.976601161 -0.2301584235
180298920.0 0.9740315235 -0.2370433123
185298890.0 0.9731063655 -0.2431101774
190298860.0 0.9730757953 -0.2494053528
195298830.0 0.9710444488 -0.2561730563
200298800.0 0.9687197654 -0.262047594
205298770.0 0.9674803481 -0.2690469204
210298740.0 0.9652243802 -0.2747513752
215298710.0 0.9635126751 -0.2813871441
220298680.0 0.9618304515 -0.2875884201
225298650.0 0.9603484571 -0.2939945712
230298620.0 0.9574254603 -0.3004390042
235298590.0 0.9557161069 -0.3062689094
240298560.0 0.9541610995 -0.312598729
245298530.0 0.951298892 -0.3189890082
250298500.0 0.949507469 -0.325292354
255298470.0 0.9473668601 -0.3309032589
260298440.0 0.9450624939 -0.3374149179
265298410.0 0.9428573102 -0.3438624313
270298380.0 0.9406028233 -0.3494486228
275298350.0 0.9383484906 -0.3556465634
280298320.0 0.9360226735 -0.3621105355
285298290.0 0.9334988242 -0.3682713228
290298260.0 0.93124134 -0.3741292497
295298230.0 0.9286268915 -0.3802050688
300298200.0 0.9256995516 -0.3863076118
305298170.0 0.9233883383 -0.3926281248
310298140.0 0.9205395962 -0.3982450945
315298110.0 0.9176717113 -0.4048293981
320298080.0 0.9155533788 -0.4099873023
325298050.0 0.9125591581 -0.4163622483
330298020.0 0.9095147488 -0.4223383139
335297990.0 0.9067312046 -0.4282997603
340297960.0 0.9043786022 -0.4342636759
345297930.0 0.9014230881 -0.440296479
350297900.0 0.8986113238 -0.4465556768
355297870.0 0.8961839589 -0.4527514194
360297840.0 0.8939396318 -0.4588837304
365297810.0 0.8901643745 -0.4640789689
370297780.0 0.8869908292 -0.469400611
375297750.0 0.8833585439 -0.4752074879
380297720.0 0.8800787934 -0.4808776502
385297690.0 0.8765170938 -0.4861446009
390297660.0 0.873557959 -0.4922681182
395297630.0 0.8694851504 -0.4977549159
400297600.0 0.8667783804 -0.5038187037
405297570.0 0.8630513812 -0.5091506478
410297540.0 0.8602238045 -0.5145881074
415297510.0 0.8569365396 -0.5204596452
420297480.0 0.853411152 -0.5257962063
425297450.0 0.8498306185 -0.5314790938
430297420.0 0.8461286925 -0.5369304223
435297390.0 0.8430479582 -0.5425932582
440297360.0 0.8393126526 -0.5481539399
445297330.0 0.8356202659 -0.5529505457
450297300.0 0.832476479 -0.5584729632
455297270.0 0.8279847364 -0.5646563185
460297240.0 0.8246843107 -0.5694676464
465297210.0 0.8211563595 -0.5750769093
470297180.0 0.8168796528 -0.5799932226
475297150.0 0.8131367858 -0.5861637972
480297120.0 0.80898126 -0.5908220778
485297090.0 0.8052816005 -0.5965966806
490297060.0 0.8013548591 -0.6017894674
495297030.0 0.7976297261 -0.6070314917
500297000.0 0.7938776002 -0.6119378571
505296970.0 0.7894457279 -0.6167819575
510296940.0 0.7846248682 -0.6219935519
515296910.0 0.7807878847 -0.6270632556
520296880.0 0.7763142997 -0.6325884362
525296850.0 0.7722627577 -0.6376114475
530296820.0 0.7678539139 -0.6422664636
535296790.0 0.7642221513 -0.6477765315
540296760.0 0.7596772635 -0.6520384991
545296730.0 0.7556096229 -0.6572699808
550296700.0 0.7508641302 -0.662108079
555296670.0 0.7470922838 -0.6671809352
560296640.0 0.7432557132 -0.6719339369
565296610.0 0.7388417228 -0.6767385123
570296580.0 0.7341433373 -0.6814291923
575296550.0 0.7295378293 -0.6867197667
580296520.0 0.7252066075 -0.6910924211
585296490.0 0.7202036699 -0.6959582524
590296460.0 0.7161152408 -0.7007688994
595296430.0 0.7108119238 -0.705172032
600296400.0 0.7066515024 -0.7100760398
605296370.0 0.7021617422 -0.7140541265
610296340.0 0.6978566473 -0.7180244927
615296310.0 0.6925313413 -0.7230934781
620296280.0 0.6879448067 -0.7278747716
625296250.0 0.6832269646 -0.7320879515
630296220.0 0.6779483771 -0.7369219626
635296190.0 0.6728997189 -0.7411933676
640296160.0 0.6688502722 -0.7451998676
645296130.0 0.663672219 -0.7494554616
650296100.0 0.6584120368 -0.7538885757
655296070.0 0.6534439539 -0.75862511
660296040.0 0.6485387778 -0.7625576673
665296010.0 0.6437995009 -0.7662812931
670295980.0 0.6379002317 -0.7705471382
675295950.0 0.6334269695 -0.775432974
680295920.0 0.6283826678 -0.7797233216
685295890.0 0.6235433579 -0.7836602338
690295860.0 0.6180780833 -0.7874864623
695295830.0 0.6126958783 -0.7912128058
700295800.0 0.6072874089 -0.7951504194
705295770.0 0.6030058884 -0.7991912919
710295740.0 0.5970427595 -0.8026467151
715295710.0 0.5916450373 -0.8076513368
720295680.0 0.5863012588 -0.8108111506
725295650.0 0.5805930697 -0.8147236376
730295620.0 0.5755163571 -0.8189030383
735295590.0 0.5708063119 -0.8222313791
740295560.0 0.5650991163 -0.8259288483
745295530.0 0.5597417121 -0.8295486587
750295500.0 0.5538464382 -0.8331398381
755295470.0 0.5490217637 -0.8364823559
760295440.0 0.543159345 -0.8405349124
765295410.0 0.5374374372 -0.8440410862
770295380.0 0.5321377241 -0.8474471352
775295350.0 0.5264095513 -0.8512919496
780295320.0 0.5206197725 -0.8542390173
785295290.0 0.5162012266 -0.8580036598
790295260.0 0.5098599311 -0.8609841634
795295230.0 0.5043748899 -0.8644637447
800295200.0 0.4980091194 -0.8679809665
805295170.0 0.4926069571 -0.8711224271
810295140.0 0.4871203518 -0.873716272
815295110.0 0.4816188219 -0.8769904019
820295080.0 0.4758186044 -0.8803921861
825295050.0 0.4696176914 -0.883350225
830295020.0 0.4642548189 -0.8862233011
835294990.0 0.4581607007 -0.8891527804
840294960.0 0.4523787079 -0.8921281894
845294930.0 0.4466168631 -0.8953071552
850294900.0 0.4409105128 -0.8979131236
855294870.0 0.4352944622 -0.901225929
860294840.0 0.4288995689 -0.9037343035
865294810.0 0.4228311515 -0.9065672536
870294780.0 0.417344041 -0.9094474492
875294750.0 0.4111259443 -0.9115235051
880294720.0 0.4053182699 -0.9143816836
885294690.0 0.3993206255 -0.9173531418
890294660.0 0.3935502166 -0.9195827708
895294630.0 0.3871863217 -0.9219192564
900294600.0 0.3810957524 -0.9251143989
905294570.0 0.3748539275 -0.9267278829
910294540.0 0.369451821 -0.9295642093
915294510.0 0.3627909286 -0.9313671603
920294480.0 0.3572692825 -0.9342445828
925294450.0 0.3502608213 -0.9370783273
930294420.0 0.3441877778 -0.9388555947
935294390.0 0.3381425566 -0.940675321
940294360.0 0.3319884034 -0.9432405055
945294330.0 0.3259937185 -0.9451067814
950294300.0 0.3202085808 -0.9477572437
955294270.0 0.3133553974 -0.949727431
960294240.0 0.3067742367 -0.9516496729
965294210.0 0.3005164179 -0.953377453
970294180.0 0.2940187569 -0.9549857949
975294150.0 0.2883004281 -0.957001416
980294120.0 0.2823028642 -0.9591760365
985294090.0 0.2762490944 -0.9604698887
990294060.0 0.2694115442 -0.9627237294
995294030.0 0.2632434421 -0.9647906194
1000294000.0 0.2569757013 -0.9658735631
1005293970.0 0.2503348727 -0.9675986819
1010293940.0 0.2436271402 -0.9692411976
1015293910.0 0.2378371771 -0.9704298629
1020293880.0 0.2317599074 -0.9722941836
1025293850.0 0.2253197298 -0.9737097561
1030293820.0 0.2194437704 -0.9752861631
1035293790.0 0.2123905676 -0.9761274031
1040293760.0 0.205795079 -0.9776393478
1045293730.0 0.1996111773 -0.9786299951
1050293700.0 0.1937006179 -0.9805009213
1055293670.0 0.1868928172 -0.9814979144
1060293640.0 0.1804562287 -0.9825834498
1065293610.0 0.1738428855 -0.9836590764
1070293580.0 0.1679718125 -0.9848915341
1075293550.0 0.1610759437 -0.9857411912
1080293520.0 0.1548973473 -0.9871161428
1085293490.0 0.1479599852 -0.9873750019
1090293460.0 0.1413764928 -0.9886480646
1095293430.0 0.1342741432 -0.9897967115
1100293400.0 0.128315298 -0.990536315
1105293370.0 0.1220560482 -0.9905545084
1110293340.0 0.1160283257 -0.9920968161
1115293310.0 0.1090115365 -0.9922425772
1120293280.0 0.1028194737 -0.9934259309
1125293250.0 0.0967275234 -0.9940227057
1130293220.0 0.0895669639 -0.9945377771
1135293190.0 0.0832153282 -0.9950716177
1140293160.0 0.0765349272 -0.995149245
1145293130.0 0.0701127988 -0.9960552962
1150293100.0 0.0629419491 -0.9966448258
1155293070.0 0.0560863609 -0.9967220348
1160293040.0 0.0502547563 -0.9971103642
1165293010.0 0.0427737141 -0.9973590786
1170292980.0 0.0370205176 -0.9973403727
1175292950.0 0.0305356176 -0.9976881251
1180292920.0 0.0237062861 -0.9973480089
1185292890.0 0.0181591762 -0.9976463349
1190292860.0 0.0119857377 -0.9977517804
1195292830.0 0.0055211593 -0.9974360936
1200292800.0 -0.0009523834 -0.9977940646
1205292770.0 -0.0074964019 -0.9977496502
1210292740.0 -0.0140165653 -0.9977143847
1215292710.0 -0.0207790578 -0.9977493463
1220292680.0 -0.0268953387 -0.9975272775
1225292650.0 -0.033332385 -0.9969701939
1230292620.0 -0.0399366619 -0.9968562702
1235292590.0 -0.0469664961 -0.9962280478
1240292560.0 -0.0532914363 -0.9957144954
1245292530.0 -0.0592171101 -0.9959346544
1250292500.0 -0.0666488257 -0.9951152247
1255292470.0 -0.0727990777 -0.9946698482
1260292440.0 -0.0795764553 -0.9936129314
1265292410.0 -0.0849934114 -0.9932976096
1270292380.0 -0.0919483985 -0.9925735718
1275292350.0 -0.0983629434 -0.9923813183
1280292320.0 -0.1052027972 -0.9918066627
1285292290.0 -0.111312316 -0.9900310253
1290292260.0 -0.1182546003 -0.9897148148
1295292230.0 -0.1243293849 -0.988743494
1300292200.0 -0.1304546482 -0.9886441401
1305292170.0 -0.1367503875 -0.9870865265
1310292140.0 -0.1437702346 -0.9863547184
1315292110.0 -0.1500242749 -0.985502022
1320292080.0 -0.15610036 -0.9841629332
1325292050.0 -0.1628751259 -0.9830324879
1330292020.0 -0.1695186225 -0.9820848471
1335291990.0 -0.1758717542 -0.9805549616
1340291960.0 -0.1821242056 -0.9793590842
1345291930.0 -0.188656013 -0.9783165372
1350291900.0 -0.1950356666 -0.9766155853
1355291870.0 -0.2013520765 -0.9757300305
1360291840.0 -0.2072742994 -0.9737945791
1365291810.0 -0.2133256301 -0.9727649753
1370291780.0 -0.2196098668 -0.9709700742
1375291750.0 -0.2261657555 -0.969795081
1380291720.0 -0.2324848217 -0.9683099983
1385291690.0 -0.2390790745 -0.9663569342
1390291660.0 -0.2453809165 -0.965103872
1395291630.0 -0.2516950326 -0.9631528613
1400291600.0 -0.2577839023 -0.9618121265
1405291570.0 -0.2639017878 -0.9595935257
1410291540.0 -0.2703223633 -0.9580343242
1415291510.0 -0.2760123412 -0.9560872729
1420291480.0 -0.2824708096 -0.9549749205
1425291450.0 -0.2884526138 -0.9526101895
1430291420.0 -0.2943733382 -0.9505592277
1435291390.0 -0.3006887355 -0.9486854502
1440291360.0 -0.3071095265 -0.9468239745
1445291330.0 -0.3132840443 -0.9447447409
1450291300.0 -0.3183678016 -0.9426857984
1455291270.0 -0.3243088224 -0.9401617375
1460291240.0 -0.3313412086 -0.9380447582
1465291210.0 -0.3369714559 -0.9359706847
1470291180.0 -0.3431508231 -0.9334275132
1475291150.0 -0.3501644919 -0.9310266938
1480291120.0 -0.3557773793 -0.9292546433
1485291090.0 -0.3622245964 -0.926362587
1490291060.0 -0.3675025832 -0.9238950646
1495291030.0 -0.3738426555 -0.9213582198
1500291000.0 -0.3794928108 -0.9188425721
1505290970.0 -0.3850968431 -0.9160900728
1510290940.0 -0.390799916 -0.9142234722
1515290910.0 -0.3970637536 -0.9113065827
1520290880.0 -0.4023789519 -0.9083481852
1525290850.0 -0.4086468961 -0.9057665287
1530290820.0 -0.4143528791 -0.9031286148
1535290790.0 -0.4201848248 -0.9002539199
1540290760.0 -0.4264065442 -0.8977837119
1545290730.0 -0.4321897412 -0.8951094431
1550290700.0 -0.4380783516 -0.8920085677
1555290670.0 -0.4433884382 -0.8887932277
1560290640.0 -0.4492469743 -0.8862416654
1565290610.0 -0.454673935 -0.8838796291
1570290580.0 -0.4605501995 -0.8800126238
1575290550.0 -0.466480457 -0.8771356853
1580290520.0 -0.4727058583 -0.8736523642
1585290490.0 -0.4778998388 -0.8709417924
1590290460.0 -0.4835005893 -0.868072307
1595290430.0 -0.4891581294 -0.864534853
1600290400.0 -0.4941273042 -0.8610386796
1605290370.0 -0.5000944458 -0.8576562033
1610290340.0 -0.5053037775 -0.8552282441
1615290310.0 -0.5110055998 -0.8511074054
1620290280.0 -0.5164783845 -0.8477873403
1625290250.0 -0.5215516522 -0.8446460199
1630290220.0 -0.5271383597 -0.8408418666
1635290190.0 -0.5325444256 -0.8379206687
1640290160.0 -0.5375288877 -0.8339064317
1645290130.0 -0.5426568028 -0.8310994539
1650290100.0 -0.5481763164 -0.8266722959
1655290070.0 -0.5534461297 -0.8234574143
1660290040.0 -0.5586646783 -0.8199963803
1665290010.0 -0.5640379095 -0.8162581052
1670289980.0 -0.568931478 -0.8125193065
1675289950.0 -0.5745562171 -0.8083682423
1680289920.0 -0.5797503779 -0.8047144282
1685289890.0 -0.5851680792 -0.8010224755
1690289860.0 -0.5899942456 -0.7968562996
1695289830.0 -0.5959288343 -0.7928073172
1700289800.0 -0.6004079465 -0.7885387051
1705289770.0 -0.6055378365 -0.7848093651
1710289740.0 -0.6102705729 -0.7808827788
1715289710.0 -0.6156538572 -0.7770706541
1720289680.0 -0.6210105447 -0.7728173389
1725289650.0 -0.6260369027 -0.7685020475
1730289620.0 -0.6305871556 -0.7648361976
1735289590.0 -0.6352404324 -0.7600037253
1740289560.0 -0.6403475649 -0.7557289938
1745289530.0 -0.644888777 -0.7519039725
1750289500.0 -0.6499925387 -0.7478087653
1755289470.0 -0.6546494081 -0.7432295461
1760289440.0 -0.6596145321 -0.739157878
1765289410.0 -0.663956399 -0.7354444747
1770289380.0 -0.668967658 -0.7307285286
1775289350.0 -0.6729587898 -0.7263437179
1780289320.0 -0.6781485024 -0.7213565773
1785289290.0 -0.682460901 -0.7173601073
1790289260.0 -0.6875341933 -0.7128366108
1795289230.0 -0.6920485748 -0.708132557
1800289200.0 -0.6970388919 -0.7030157853
1805289170.0 -0.7010048101 -0.6984680465
1810289140.0 -0.7052149967 -0.6945623855
1815289110.0 -0.7099731145 -0.6896509251
1820289080.0 -0.7140236016 -0.6854917208
1825289050.0 -0.7178598193 -0.68045354
1830289020.0 -0.7221287421 -0.6761707497
1835288990.0 -0.7263524489 -0.6718140609
1840288960.0 -0.7312537153 -0.6666465783
1845288930.0 -0.7351925063 -0.6619062618
1850288900.0 -0.7396567354 -0.6571825337
1855288870.0 -0.7435479074 -0.6518516587
1860288840.0 -0.7479367221 -0.6471910869
1865288810.0 -0.7523354372 -0.6421638806
1870288780.0 -0.7564123739 -0.6367851899
1875288750.0 -0.7605859052 -0.6317490557
1880288720.0 -0.7646343415 -0.6270292763
1885288690.0 -0.7689689968 -0.6214665546
1890288660.0 -0.7723716145 -0.6167461299
1895288630.0 -0.7765156957 -0.6115419229
1900288600.0 -0.7802698296 -0.607271484
1905288570.0 -0.784245568 -0.6015651007
1910288540.0 -0.7880120143 -0.5959935193
1915288510.0 -0.792043882 -0.5910194404
1920288480.0 -0.7955836356 -0.5862733162
1925288450.0 -0.7994926857 -0.5805569412
1930288420.0 -0.802942415 -0.5756012183
1935288390.0 -0.8071325373 -0.5702089486
1940288360.0 -0.8100758022 -0.5649180785
1945288330.0 -0.8142527636 -0.5587872754
1950288300.0 -0.8174508738 -0.5542491658
1955288270.0 -0.8212946437 -0.5483075165
1960288240.0 -0.8248910535 -0.5432183671
1965288210.0 -0.8283251592 -0.5375362877
1970288180.0 -0.8316869484 -0.5314601513
1975288150.0 -0.8351063592 -0.5268119914
1980288120.0 -0.83794662 -0.5211166876
1985288090.0 -0.8414583118 -0.5162591632
1990288060.0 -0.8438907552 -0.510489302
1995288030.0 -0.8477662752 -0.5050376923
2000288000.0 -0.8503857372 -0.500472388
2005287970.0 -0.8537859463 -0.4946988308
2010287940.0 -0.85715124 -0.4888273718
2015287910.0 -0.8605028396 -0.4828245772
2020287880.0 -0.863251118 -0.4770782498
2025287850.0 -0.8665649252 -0.4717535498
2030287820.0 -0.8691307352 -0.4655653426
2035287790.0 -0.8726155481 -0.4600694934
2040287760.0 -0.8751093752 -0.4544357729
2045287730.0 -0.8781798661 -0.4485624363
2050287700.0 -0.8811683734 -0.4423986279
2055287670.0 -0.8840019694 -0.4370527216
2060287640.0 -0.8862773925 -0.4312917577
2065287610.0 -0.8889572111 -0.4252730555
2070287580.0 -0.8915150564 -0.4196934415
2075287550.0 -0.8947339974 -0.4140219953
2080287520.0 -0.8975521601 -0.4080680686
2085287490.0 -0.9002425863 -0.4025503936
2090287460.0 -0.90251225 -0.3958132666
2095287430.0 -0.9048472377 -0.3905193023
2100287400.0 -0.9075163171 -0.3844026385
2105287370.0 -0.9101906072 -0.3783461304
2110287340.0 -0.9124643026 -0.3725740695
2115287310.0 -0.9142209624 -0.3665154585
2120287280.0 -0.9166618132 -0.3610155707
2125287250.0 -0.9189264136 -0.3547932336
2130287220.0 -0.920915092 -0.3483928247
2135287190.0 -0.9238471013 -0.3419790868
2140287160.0 -0.9256346886 -0.3361745509
2145287130.0 -0.9277972149 -0.3299893488
2150287100.0 -0.9293398146 -0.3238138493
2155287070.0 -0.9319446443 -0.3182429437
2160287040.0 -0.9332031951 -0.3120238373
2165287010.0 -0.9363875031 -0.3062013483
2170286980.0 -0.9371792459 -0.2998471692
2175286950.0 -0.9394079363 -0.2932455378
2180286920.0 -0.9409910934 -0.2883914067
2185286890.0 -0.9427575481 -0.2817914831
2190286860.0 -0.9445494705 -0.2764709304
2195286830.0 -0.9459323539 -0.2697192963
2200286800.0 -0.9478151305 -0.2639989491
2205286770.0 -0.9493976508 -0.2584540419
2210286740.0 -0.9509932772 -0.2517219495
2215286710.0 -0.9526674342 -0.2460008745
2220286680.0 -0.9542463431 -0.2390313644
2225286650.0 -0.9556240657 -0.2326836365
2230286620.0 -0.9570739407 -0.2267024582
2235286590.0 -0.9591703892 -0.2200060256
2240286560.0 -0.960016172 -0.2136281054
2245286530.0 -0.9612241993 -0.207599248
2250286500.0 -0.9626374484 -0.2011221949
2255286470.0 -0.9636413958 -0.1944121699
2260286440.0 -0.9648458376 -0.1880731934
2265286410.0 -0.9660459831 -0.1817362289
2270286380.0 -0.9674726651 -0.1754747401
2275286350.0 -0.9689281946 -0.168930411
2280286320.0 -0.9696655248 -0.1633536004
2285286290.0 -0.970286796 -0.156243333
2290286260.0 -0.9706853621 -0.1499487683
2295286230.0 -0.9722905141 -0.1436773019
2300286200.0 -0.9732895723 -0.1373821181
2305286170.0 -0.9741663923 -0.130842604
2310286140.0 -0.9750699626 -0.1244515981
2315286110.0 -0.9757301358 -0.1178823886
2320286080.0 -0.976600926 -0.1119801919
2325286050.0 -0.977133194 -0.1052942192
2330286020.0 -0.9777284067 -0.0985624036
2335285990.0 -0.977924721 -0.0926325292
2340285960.0 -0.9786533256 -0.0865859855
2345285930.0 -0.9790273636 -0.0803080622
2350285900.0 -0.978975658 -0.0740621945
2355285870.0 -0.979875026 -0.0668064134
2360285840.0 -0.980123597 -0.0604677356
2365285810.0 -0.9805591509 -0.0545414649
2370285780.0 -0.9810059881 -0.0479983906
2375285750.0 -0.9810060487 -0.041841817
2380285720.0 -0.9814043377 -0.0360650238
2385285690.0 -0.9817681416 -0.0292436208
2390285660.0 -0.9812726787 -0.0228663443
2395285630.0 -0.9819112493 -0.0163928554
2400285600.0 -0.9817105212 -0.01000888
2405285570.0 -0.9813464726 -0.0040247089
2410285540.0 -0.9815170067 0.0019231459
2415285510.0 -0.9820653251 0.0081509837
2420285480.0 -0.981023688 0.0142173269
2425285450.0 -0.9812075334 0.0208402473
2430285420.0 -0.9810014929 0.0272438989
2435285390.0 -0.980977519 0.0336712506
2440285360.0 -0.980549214 0.0403892334
2445285330.0 -0.9797711888 0.046460141
2450285300.0 -0.9794072877 0.05327687
2455285270.0 -0.9787586115 0.060154957
2460285240.0 -0.9790985565 0.0660240208
2465285210.0 -0.9779286685 0.0720552604
2470285180.0 -0.9781657804 0.078507933
2475285150.0 -0.977464 0.0851709503
2480285120.0 -0.9762504821 0.0915277622
2485285090.0 -0.9758177419 0.0982397215
2490285060.0 -0.9753408042 0.1047791302
2495285030.0 -0.974595977 0.1108570792
