!Created with skrf (http://scikit-rf.org).
# Hz S RI R 50.0 
!freq ReS11 ImS11
300000.0 -1.027434893 -0.1855612171
5299970.0 -1.002502234 0.0071636523
10299940.0 -1.001114276 0.0124106517
15299910.0 -0.9999219256 0.0244504464
20299880.0 -0.9992165291 0.0280592542
25299850.0 -0.9987976992 0.0364242718
30299820.0 -0.9976983793 0.0433469348
35299790.0 -0.9969921768 0.0478025783
40299760.0 -0.9956688706 0.0541622635
45299730.0 -0.9960059284 0.0608026254
50299700.0 -0.9946167094 0.066983972
55299670.0 -0.994102426 0.0744692585
60299640.0 -0.9930777362 0.0798561106
65299610.0 -0.9927144334 0.0862665985
70299580.0 -0.9912460234 0.0927038831
75299550.0 -0.9903970036 0.0982608033
80299520.0 -0.9899863428 0.1051780259
85299490.0 -0.9889732735 0.1110423456
90299460.0 -0.9883266738 0.1175798744
95299430.0 -0.9870206003 0.1235375121
100299400.0 -0.9860161792 0.1300036047
105299370.0 -0.9845227309 0.1362589754
110299340.0 -0.9839053673 0.1423617264
115299310.0 -0.9826598805 0.1488980223
120299280.0 -0.9822203691 0.1546869994
125299250.0 -0.980645545 0.1607376772
130299220.0 -0.9794854113 0.1668171289
135299190.0 -0.9780112963 0.1727323467
140299160.0 -0.9771040169 0.1787417045
145299130.0 -0.9753017435 0.1851528786
150299100.0 -0.9745162048 0.1912358273
155299070.0 -0.972509709 0.1973718931
160299040.0 -0.9712846331 0.2037401638
165299010.0 -0.9700323729 0.2098425189
170298980.0 -0.9685726929 0.2153798839
175298950.0 -0.9654527431 0.2215608045
180298920.0 -0.9631085677 0.2262031301
185298890.0 -0.963147022 0.2328438163
190298860.0 -0.9623753218 0.2397156988
195298830.0 -0.9608035872 0.2458407199
200298800.0 -0.9594769762 0.2521160442
205298770.0 -0.9575281528 0.2584090611
210298740.0 -0.9553959487 0.2634795938
215298710.0 -0.9541172204 0.2699466596
220298680.0 -0.9522538481 0.2754564941
225298650.0 -0.9503145598 0.2814467386
230298620.0 -0.948475302 0.2875407355
235298590.0 -0.946272423 0.293202025
240298560.0 -0.9448007336 0.2992500564
245298530.0 -0.9431273584 0.3050523129
250298500.0 -0.9408964039 0.3112016969
255298470.0 -0.9383182547 0.3166131113
260298440.0 -0.9370252219 0.3226160457
265298410.0 -0.9344177946 0.3280390427
270298380.0 -0.9324744581 0.3339993212
275298350.0 -0.9298276019 0.3398118407
280298320.0 -0.9276064363 0.3452075232
285298290.0 -0.9252270693 0.3514112398
290298260.0 -0.923019458 0.3573164087
295298230.0 -0.9205164203 0.363045096
300298200.0 -0.9180372873 0.3678268222
305298170.0 -0.9160948931 0.3741147227
310298140.0 -0.9134992768 0.3796879828
315298110.0 -0.9111972229 0.3856008195
320298080.0 -0.9085596426 0.3915022799
325298050.0 -0.9055470937 0.3973692859
330298020.0 -0.9027255957 0.4019001078
335297990.0 -0.9004890404 0.4078138679
340297960.0 -0.8982628098 0.4134111127
345297930.0 -0.8959046757 0.4187502487
350297900.0 -0.8929432451 0.4247628454
355297870.0 -0.8906539623 0.4300047535
360297840.0 -0.8884211315 0.4358852614
365297810.0 -0.8852405178 0.4411827872
370297780.0 -0.8819424498 0.4464007245
375297750.0 -0.8787286997 0.4521264981
380297720.0 -0.8757368611 0.4579501167
385297690.0 -0.8721819676 0.4623879095
390297660.0 -0.869445609 0.4683427962
395297630.0 -0.8662376945 0.4733693114
400297600.0 -0.8641781241 0.4786464925
405297570.0 -0.8602469973 0.4837029208
410297540.0 -0.857123829 0.4891972836
415297510.0 -0.8542441947 0.4941314262
420297480.0 -0.8509689132 0.4998800732
425297450.0 -0.8482915076 0.5044071804
430297420.0 -0.8445147583 0.5103810365
435297390.0 -0.8415078948 0.5147633293
440297360.0 -0.8383675907 0.5205030247
445297330.0 -0.8350153447 0.5257197111
450297300.0 -0.8315462189 0.5307952152
455297270.0 -0.8277579372 0.5358084754
460297240.0 -0.824735298 0.5410038807
465297210.0 -0.8210050327 0.5461278443
470297180.0 -0.8175589547 0.5512026358
475297150.0 -0.8139512019 0.5554812952
480297120.0 -0.8106770553 0.5602944643
485297090.0 -0.8076028392 0.565957522
490297060.0 -0.8037268461 0.5706567406
495297030.0 -0.800439674 0.5757149891
500297000.0 -0.7961209648 0.580017778
505296970.0 -0.7932102794 0.5852200657
510296940.0 -0.7896474488 0.5905763299
515296910.0 -0.7860583682 0.5955499292
520296880.0 -0.7825974561 0.5999574656
525296850.0 -0.7788152141 0.6045354353
530296820.0 -0.7747616606 0.6097111924
535296790.0 -0.7717989005 0.6143075672
540296760.0 -0.7672319682 0.6190199932
545296730.0 -0.7630227236 0.6238551246
550296700.0 -0.7589047927 0.6285075017
555296670.0 -0.7549258385 0.6327603644
560296640.0 -0.7508077027 0.6376110548
565296610.0 -0.7461804834 0.6414460354
570296580.0 -0.7425487144 0.646690652
575296550.0 -0.7388385835 0.6512095963
580296520.0 -0.7339857595 0.6559138453
585296490.0 -0.7298689734 0.6602776419
590296460.0 -0.7257430815 0.6645976913
595296430.0 -0.7216225003 0.6688370685
600296400.0 -0.7177975862 0.673493224
605296370.0 -0.7135804614 0.6770269992
610296340.0 -0.7093044391 0.6818054564
615296310.0 -0.7048693377 0.6857862026
620296280.0 -0.7005505257 0.6901365361
625296250.0 -0.6959282295 0.6941852929
630296220.0 -0.692098774 0.6988506922
635296190.0 -0.6876970485 0.7024789683
640296160.0 -0.6838497452 0.70696191
645296130.0 -0.679121374 0.7110514309
650296100.0 -0.6748419417 0.7150544845
655296070.0 -0.67014569 0.7190336494
660296040.0 -0.6659220717 0.7233462038
665296010.0 -0.6608208314 0.7269565366
670295980.0 -0.6567407464 0.7312102766
675295950.0 -0.6518349427 0.7355708177
680295920.0 -0.6476160336 0.7395191465
685295890.0 -0.6433888131 0.743506093
690295860.0 -0.6380288029 0.7471877184
695295830.0 -0.6336921936 0.7512106779
700295800.0 -0.6287592294 0.7546131415
705295770.0 -0.6237244843 0.758862521
710295740.0 -0.6193406974 0.7624186394
715295710.0 -0.615163023 0.7664449699
720295680.0 -0.6100801173 0.7702502627
725295650.0 -0.6047140983 0.773956452
730295620.0 -0.6001670201 0.7773740397
735295590.0 -0.5954710218 0.7813606159
740295560.0 -0.590889402 0.7842972561
745295530.0 -0.585995599 0.7881635436
750295500.0 -0.5811293697 0.7917099491
755295470.0 -0.5757925699 0.795500459
760295440.0 -0.5715943209 0.7989089675
765295410.0 -0.5663534228 0.8017467324
770295380.0 -0.5611353886 0.8056354854
775295350.0 -0.5562331661 0.8091834696
780295320.0 -0.551607009 0.8122769506
785295290.0 -0.5460074813 0.8154536109
790295260.0 -0.541233555 0.8192812034
795295230.0 -0.5356852585 0.8225741952
800295200.0 -0.530217923 0.8254275953
805295170.0 -0.525413753 0.8288988255
810295140.0 -0.5209111629 0.8316896581
815295110.0 -0.5151192209 0.8350512708
820295080.0 -0.5097956626 0.8381669038
825295050.0 -0.5044955453 0.8411643364
830295020.0 -0.4991486119 0.8443024772
835294990.0 -0.4938578829 0.8473993479
840294960.0 -0.4887214151 0.8502832677
845294930.0 -0.4838445941 0.8535055724
850294900.0 -0.4787015151 0.8558732723
855294870.0 -0.4729587176 0.8594048968
860294840.0 -0.4678689487 0.8617997912
865294810.0 -0.4623811898 0.8645714044
870294780.0 -0.4578996232 0.8672386724
875294750.0 -0.4521692489 0.8701125437
880294720.0 -0.4465442287 0.8727930348
885294690.0 -0.4409065934 0.8752471514
890294660.0 -0.4359137883 0.8781753656
895294630.0 -0.4301863585 0.8803760789
900294600.0 -0.4250784984 0.8828589455
905294570.0 -0.4193977836 0.885557351
910294540.0 -0.4140998282 0.8882711932
915294510.0 -0.4082829033 0.8906169341
920294480.0 -0.402634237 0.8930451604
925294450.0 -0.3973578755 0.8950342586
930294420.0 -0.3919408998 0.8973983682
935294390.0 -0.3865819608 0.8995031338
940294360.0 -0.3808075402 0.9021836666
945294330.0 -0.375771951 0.9049533613
950294300.0 -0.3694589971 0.9066252213
955294270.0 -0.3640219453 0.9090271284
960294240.0 -0.3584031931 0.9106985575
965294210.0 -0.3527529805 0.9133312663
970294180.0 -0.3468317598 0.9154529146
975294150.0 -0.3411610943 0.9175033402
980294120.0 -0.3359518121 0.9195512195
985294090.0 -0.3306323147 0.9217020111
990294060.0 -0.3248101988 0.9233960822
995294030.0 -0.3191175275 0.9251439066
1000294000.0 -0.3137605339 0.927245631
1005293970.0 -0.3075990563 0.9296782775
1010293940.0 -0.301734745 0.9308096306
1015293910.0 -0.2958385734 0.9325660772
1020293880.0 -0.2905206575 0.9344169642
1025293850.0 -0.2846210215 0.9359116288
1030293820.0 -0.2791362113 0.9378994736
1035293790.0 -0.2734056682 0.9395289942
1040293760.0 -0.2675093264 0.9411806426
1045293730.0 -0.2618312504 0.9422928502
1050293700.0 -0.2555579539 0.9442176587
1055293670.0 -0.2497994833 0.946079691
1060293640.0 -0.2439570588 0.9467716116
1065293610.0 -0.2381613967 0.9485079064
1070293580.0 -0.2330267565 0.9498998489
1075293550.0 -0.2268880743 0.9512447189
1080293520.0 -0.2209853105 0.9529545024
1085293490.0 -0.214842331 0.9542457584
1090293460.0 -0.2082921898 0.9548043865
1095293430.0 -0.2023537461 0.9564583591
1100293400.0 -0.1965533132 0.9577050309
1105293370.0 -0.1909247905 0.9591922384
1110293340.0 -0.1851491544 0.960703479
1115293310.0 -0.1791143414 0.9612772987
1120293280.0 -0.1738607301 0.9624095535
1125293250.0 -0.1675583009 0.9632388667
1130293220.0 -0.1618501655 0.9645260967
1135293190.0 -0.1561210166 0.9655685841
1140293160.0 -0.1498649788 0.9667348436
1145293130.0 -0.14378701 0.9675621736
1150293100.0 -0.1380280401 0.9683842585
1155293070.0 -0.1319972799 0.9685293329
1160293040.0 -0.1260261018 0.969454957
1165293010.0 -0.1199982689 0.9708347602
1170292980.0 -0.1142083868 0.9712661681
1175292950.0 -0.1085402487 0.9718369358
1180292920.0 -0.1024457911 0.9716781035
1185292890.0 -0.0965739667 0.9732230592
1190292860.0 -0.0900792391 0.97345976
1195292830.0 -0.0839332911 0.9738230241
1200292800.0 -0.0782623419 0.9743281541
1205292770.0 -0.0722466183 0.9745633078
1210292740.0 -0.0668624721 0.97510285
1215292710.0 -0.0603612346 0.9754820254
1220292680.0 -0.053940141 0.9760204617
1225292650.0 -0.0483601648 0.976222894
1230292620.0 -0.0424607403 0.9762917137
1235292590.0 -0.0364149896 0.9767478212
1240292560.0 -0.0306050982 0.9768684845
1245292530.0 -0.0246788791 0.9767959722
1250292500.0 -0.0183277847 0.9771333457
1255292470.0 -0.0122330927 0.9770449148
1260292440.0 -0.00602669 0.9770973398
1265292410.0 -0.0003773998 0.9773430734
1270292380.0 0.0060159659 0.9773577922
1275292350.0 0.0113586781 0.9775921743
1280292320.0 0.0176233751 0.9772235568
1285292290.0 0.0244198962 0.976571596
1290292260.0 0.0298739533 0.9761797196
1295292230.0 0.0359779155 0.9765359432
1300292200.0 0.0410605622 0.9763363932
1305292170.0 0.0479438612 0.9759364932
1310292140.0 0.0536332246 0.975967644
1315292110.0 0.0597517155 0.9761094561
1320292080.0 0.0655318182 0.9749124686
1325292050.0 0.0715614098 0.9742026005
1330292020.0 0.0781384586 0.9745696618
1335291990.0 0.0838814065 0.973620894
1340291960.0 0.0899541212 0.9730442092
1345291930.0 0.0961673583 0.9727869164
1350291900.0 0.1024418053 0.9721982992
1355291870.0 0.1075965266 0.9714128988
1360291840.0 0.1136427685 0.9705058055
1365291810.0 0.1190549322 0.9701072136
1370291780.0 0.1258047635 0.9694833157
1375291750.0 0.1315226499 0.9682578357
1380291720.0 0.1372080008 0.9678199956
1385291690.0 0.1435011383 0.9667113956
1390291660.0 0.149558835 0.9658731698
1395291630.0 0.1552110757 0.9653093594
1400291600.0 0.1610928201 0.9636553022
1405291570.0 0.1677499421 0.9629045534
1410291540.0 0.1738114574 0.9618415152
1415291510.0 0.178945173 0.960628024
1420291480.0 0.1851263368 0.9601074898
1425291450.0 0.1908386894 0.9587888128
1430291420.0 0.1972229333 0.9579398963
1435291390.0 0.2022399502 0.9562513215
1440291360.0 0.2085519474 0.9550001106
1445291330.0 0.2142222545 0.9535421094
1450291300.0 0.2196520488 0.9530108676
1455291270.0 0.2257619915 0.9513057282
1460291240.0 0.2315669183 0.9494830731
1465291210.0 0.2376996692 0.9479572986
1470291180.0 0.2439140891 0.9465656299
1475291150.0 0.249876097 0.9454057438
1480291120.0 0.2555949068 0.9437554342
1485291090.0 0.2606083403 0.9422778527
1490291060.0 0.2671485141 0.9409031511
1495291030.0 0.2726224219 0.9389705185
1500291000.0 0.2780158345 0.9374060919
1505290970.0 0.2838494072 0.9360104581
1510290940.0 0.2898883193 0.9340388648
1515290910.0 0.2953159596 0.9318562639
1520290880.0 0.3010830895 0.9305591254
1525290850.0 0.3071967939 0.9287669516
1530290820.0 0.3131423019 0.9265411947
1535290790.0 0.3197324067 0.9248602494
1540290760.0 0.3242487651 0.9229204451
1545290730.0 0.3303999967 0.9207717095
1550290700.0 0.3355261271 0.9181809571
1555290670.0 0.3415748333 0.9170397551
1560290640.0 0.3470427499 0.913772258
1565290610.0 0.3529651555 0.9125593027
1570290580.0 0.3582308689 0.9103610244
1575290550.0 0.3644520053 0.9081152795
1580290520.0 0.3699910897 0.9058517267
1585290490.0 0.3764295896 0.9036351849
1590290460.0 0.3815291093 0.9009934241
1595290430.0 0.3872470025 0.8988096118
1600290400.0 0.3924767871 0.8969171964
1605290370.0 0.3977927567 0.8942307497
1610290340.0 0.4035919695 0.8916815019
1615290310.0 0.4091895784 0.8889843482
1620290280.0 0.4144795373 0.8868180703
1625290250.0 0.420142978 0.884500044
1630290220.0 0.4248666177 0.8820137511
1635290190.0 0.429984582 0.8796472513
1640290160.0 0.435693575 0.8772249174
1645290130.0 0.4412487957 0.8741132589
1650290100.0 0.4466629985 0.8710971817
1655290070.0 0.4526967031 0.8680062356
1660290040.0 0.4573298347 0.8653870947
1665290010.0 0.4626649073 0.8627854961
1670289980.0 0.4677219758 0.8596261643
1675289950.0 0.4730084705 0.8565987935
1680289920.0 0.4786462207 0.8542977493
1685289890.0 0.4844819389 0.8509747773
1690289860.0 0.4900303133 0.8480817185
1695289830.0 0.4949764765 0.8450632148
1700289800.0 0.5003873632 0.8416617885
1705289770.0 0.5057274282 0.8387854776
1710289740.0 0.5107001321 0.8353824622
1715289710.0 0.5167891524 0.8324389759
1720289680.0 0.5213549292 0.8294065499
1725289650.0 0.5263922514 0.8260539877
1730289620.0 0.5314936081 0.8227405672
1735289590.0 0.5360942884 0.8198057813
1740289560.0 0.5410939195 0.8164870492
1745289530.0 0.5459587822 0.8130706577
1750289500.0 0.5515167305 0.8093179661
1755289470.0 0.5564709642 0.8068302722
1760289440.0 0.5610544016 0.8030355197
1765289410.0 0.5661191727 0.7994836631
1770289380.0 0.5712471688 0.7958710985
1775289350.0 0.575679144 0.7928258668
1780289320.0 0.5804099752 0.7892905822
1785289290.0 0.5857469707 0.7857401375
1790289260.0 0.5910283022 0.7817659466
1795289230.0 0.595669656 0.7780378346
1800289200.0 0.6008059214 0.7746240136
1805289170.0 0.6057199602 0.7703693463
1810289140.0 0.6102975011 0.7676116892
1815289110.0 0.6144603028 0.763497773
1820289080.0 0.6195298291 0.7597289472
1825289050.0 0.6240474466 0.7562428103
1830289020.0 0.6282341587 0.7524918628
1835288990.0 0.6334935652 0.7490383918
1840288960.0 0.6378101084 0.7450302769
1845288930.0 0.6419618061 0.740826141
1850288900.0 0.6468922178 0.7370104501
1855288870.0 0.6521064008 0.7327199213
1860288840.0 0.6569239832 0.7287686493
1865288810.0 0.6609671634 0.724494664
1870288780.0 0.6655280483 0.7205050696
1875288750.0 0.6701827958 0.7163968767
1880288720.0 0.6747550591 0.711974499
1885288690.0 0.6788298153 0.7074408707
1890288660.0 0.683622447 0.703645512
1895288630.0 0.68782898 0.6989864855
1900288600.0 0.6920432234 0.6948246082
1905288570.0 0.6964180469 0.6907765991
1910288540.0 0.7008102336 0.6867206712
1915288510.0 0.7051506157 0.6824018691
1920288480.0 0.7092811686 0.6775141323
1925288450.0 0.7136705643 0.6729440524
1930288420.0 0.7179414898 0.6696876438
1935288390.0 0.7224719747 0.6646530658
1940288360.0 0.7262916275 0.6600757775
1945288330.0 0.7306058566 0.6553849678
1950288300.0 0.7345672364 0.6508800867
1955288270.0 0.7389212803 0.6456088121
1960288240.0 0.7430196272 0.6410443107
1965288210.0 0.7472745547 0.6370484151
1970288180.0 0.7509541938 0.6319138512
1975288150.0 0.7548688893 0.6276060658
1980288120.0 0.7583100173 0.6234277647
1985288090.0 0.7623035372 0.6187544295
1990288060.0 0.7661897656 0.6141851304
1995288030.0 0.7700434733 0.6091078829
2000288000.0 0.7732278946 0.6049740937
2005287970.0 0.7774349839 0.6006886712
2010287940.0 0.7807994472 0.5952915121
2015287910.0 0.7846373808 0.5907005251
2020287880.0 0.7878576339 0.5861693542
2025287850.0 0.7914549707 0.5813913067
2030287820.0 0.7956054278 0.5758630708
2035287790.0 0.7994166206 0.57112616
2040287760.0 0.8026443154 0.566008057
2045287730.0 0.8060301526 0.5612752712
2050287700.0 0.8095498809 0.5562283178
2055287670.0 0.8130038953 0.551242815
2060287640.0 0.8165649783 0.5460590946
2065287610.0 0.8197754008 0.5412869111
2070287580.0 0.8233958913 0.5361092864
2075287550.0 0.8266313708 0.531282519
2080287520.0 0.8295964477 0.5260863467
2085287490.0 0.8334678847 0.5206581792
2090287460.0 0.8362844608 0.5155658538
2095287430.0 0.839531881 0.5105249048
2100287400.0 0.8427775475 0.5053342309
2105287370.0 0.8464030256 0.5001935485
2110287340.0 0.8488558448 0.4944650458
2115287310.0 0.8523606816 0.4898691954
2120287280.0 0.8548131233 0.4839945165
2125287250.0 0.8581396551 0.4789749496
2130287220.0 0.861336655 0.473005947
2135287190.0 0.8643230222 0.4676541934
2140287160.0 0.8673750355 0.4622515477
2145287130.0 0.8701847929 0.4570619778
2150287100.0 0.8739393324 0.4524196744
2155287070.0 0.8760080605 0.4470282785
2160287040.0 0.8785551467 0.4417633318
2165287010.0 0.8811281694 0.435680843
2170286980.0 0.8836810145 0.4307950248
2175286950.0 0.8862966785 0.4250297318
2180286920.0 0.8892584151 0.4204066499
2185286890.0 0.8916928461 0.4149654355
2190286860.0 0.8938612017 0.4098757011
2195286830.0 0.896420272 0.4041238261
2200286800.0 0.8992854812 0.3988176711
2205286770.0 0.9014337601 0.393019869
2210286740.0 0.9043187692 0.3881942235
2215286710.0 0.9062891163 0.3822819493
2220286680.0 0.9084157092 0.3765055036
2225286650.0 0.9111487804 0.3705879431
2230286620.0 0.9134669148 0.3650938682
2235286590.0 0.9163626755 0.3596858717
2240286560.0 0.9181859432 0.3533900436
2245286530.0 0.9195997468 0.3481777343
2250286500.0 0.9226495183 0.3423546055
2255286470.0 0.9243241424 0.3363807337
2260286440.0 0.9266150108 0.3302419368
2265286410.0 0.9284697896 0.3248123065
2270286380.0 0.9303662527 0.3191556317
2275286350.0 0.9326707342 0.3129700383
2280286320.0 0.9350269573 0.307364536
2285286290.0 0.9361645188 0.3018405871
2290286260.0 0.9385976651 0.295454085
2295286230.0 0.9404565214 0.2895635098
2300286200.0 0.9421428347 0.2844171518
2305286170.0 0.9434331811 0.2781275392
2310286140.0 0.945867964 0.2727221591
2315286110.0 0.9475759294 0.2663375759
2320286080.0 0.9489400114 0.2602701669
2325286050.0 0.9505141445 0.2551632006
2330286020.0 0.9524662499 0.248660729
2335285990.0 0.9537273735 0.2436422181
2340285960.0 0.9554536103 0.2377650025
2345285930.0 0.9566376752 0.2312204394
2350285900.0 0.9581902442 0.2252132541
2355285870.0 0.9598368284 0.219618925
2360285840.0 0.9610510088 0.2137066064
2365285810.0 0.9620775083 0.2077496776
2370285780.0 0.9638801824 0.20182096
2375285750.0 0.9645467451 0.1963563035
2380285720.0 0.9656262382 0.1897572104
2385285690.0 0.966895309 0.1843144682
2390285660.0 0.9682794902 0.1783584758
2395285630.0 0.9691170928 0.1723291078
2400285600.0 0.970404977 0.1659070267
2405285570.0 0.971592871 0.1603217016
2410285540.0 0.972348674 0.1544843249
2415285510.0 0.9729284829 0.1488008631
2420285480.0 0.9743062078 0.1425276778
2425285450.0 0.9743140954 0.1364404725
2430285420.0 0.9758574197 0.1305843011
2435285390.0 0.9763400301 0.1246354986
2440285360.0 0.9772563286 0.1187423059
2445285330.0 0.9778865075 0.1124698465
2450285300.0 0.9779477194 0.1070834887
2455285270.0 0.9799753618 0.1001815252
2460285240.0 0.9799231564 0.094516717
2465285210.0 0.980826295 0.0885051809
2470285180.0 0.9813484044 0.0822862328
2475285150.0 0.9816587097 0.0762001094
2480285120.0 0.9821560929 0.0703409251
2485285090.0 0.982325556 0.0638065155
2490285060.0 0.9824943069 0.057681048
2495285030.0 0.9828211943 0.0517740941
2500285000.0 0.9836094785 0.0453428641
2505284970.0 0.9840191353 0.0390986806
2510284940.0 0.9846601642 0.0332721071
2515284910.0 0.9843949446 0.0268527075
2520284880.0 0.9846508432 0.0212258108
2525284850.0 0.9845574255 0.0148557319
2530284820.0 0.9841968767 0.0091795868
2535284790.0 0.9844728583 0.0025720938
2540284760.0 0.9845490187 -0.0030452787
2545284730.0 0.9848252028 -0.008620957
2550284700.0 0.9846119026 -0.0150121741
2555284670.0 0.9840929138 -0.0209480633
