!Created with skrf (http://scikit-rf.org).
# Hz S RI R 50.0 
!freq ReS11 ImS11
300000.0 1.002651098 0.0015289319
5299970.0 1.004864153 -0.0073408294
10299940.0 1.004606251 -0.0144886726
15299910.0 1.004646936 -0.0196919599
20299880.0 1.004864387 -0.0265397378
25299850.0 1.004250202 -0.032968907
30299820.0 1.00347781 -0.039231714
35299790.0 1.003616279 -0.0450204646
40299760.0 1.004006776 -0.0511345151
45299730.0 1.00307224 -0.058212917
50299700.0 1.002905661 -0.064397604
55299670.0 1.002517882 -0.0702673273
60299640.0 1.002096859 -0.0766226485
65299610.0 1.001320502 -0.0826459893
70299580.0 1.000480282 -0.0884052072
75299550.0 0.9999485843 -0.0950041282
80299520.0 0.9997745751 -0.1014822991
85299490.0 0.9987832118 -0.1070374745
90299460.0 0.9983626093 -0.1135992649
95299430.0 0.9975832693 -0.1196442754
100299400.0 0.9969734431 -0.125772513
105299370.0 0.9962974121 -0.1322411012
110299340.0 0.9953308854 -0.137948526
115299310.0 0.9941560147 -0.1442527053
120299280.0 0.9931871978 -0.1503711562
125299250.0 0.9922105186 -0.1569163026
130299220.0 0.9909560077 -0.1627503948
135299190.0 0.9902168238 -0.169296507
140299160.0 0.9892112191 -0.1756566563
145299130.0 0.9877523365 -0.1815006631
150299100.0 0.9867150396 -0.1870136779
155299070.0 0.985640403 -0.1930171914
160299040.0 0.9841680826 -0.1996552407
165299010.0 0.9830146837 -0.2051931164
170298980.0 0.9819743391 -0.2114574691
175298950.0 0.9795383279 -0.2175661892
180298920.0 0.9770110916 -0.2238883142
185298890.0 0.9767148641 -0.2301409785
190298860.0 0.975821739 -0.235834213
195298830.0 0.9743324358 -0.2423552796
200298800.0 0.9731226773 -0.2476933165
205298770.0 0.9713069593 -0.2540738818
210298740.0 0.9699374858 -0.2597989429
215298710.0 0.9683757816 -0.2660110226
220298680.0 0.9664416362 -0.2721036133
225298650.0 0.964836792 -0.278304668
230298620.0 0.9627175344 -0.2842775433
235298590.0 0.960621569 -0.2898761827
240298560.0 0.9590065087 -0.2961946884
245298530.0 0.957486784 -0.301632222
250298500.0 0.9553699296 -0.3073156188
255298470.0 0.9531162025 -0.3133770226
260298440.0 0.9509305204 -0.3193968653
265298410.0 0.9492006153 -0.3254615411
270298380.0 0.9473805192 -0.3313926655
275298350.0 0.9455436185 -0.3369415611
280298320.0 0.9434513898 -0.3418799495
285298290.0 0.9405234304 -0.3481977529
290298260.0 0.9387107147 -0.354413737
295298230.0 0.9364570644 -0.3596743355
300298200.0 0.9349550495 -0.3660498032
305298170.0 0.9319312071 -0.3714309
310298140.0 0.9295896982 -0.3773669037
315298110.0 0.927219676 -0.3836098046
320298080.0 0.9248763025 -0.3890806473
325298050.0 0.9224635851 -0.3943518524
330298020.0 0.9198429528 -0.4002609878
335297990.0 0.917161858 -0.4052444499
340297960.0 0.9143150855 -0.4113194863
345297930.0 0.9125587042 -0.4171792504
350297900.0 0.9105148343 -0.422957396
355297870.0 0.9078157791 -0.4293897419
360297840.0 0.9054254299 -0.434488581
365297810.0 0.9028642584 -0.4396314882
370297780.0 0.8996830789 -0.4457837635
375297750.0 0.8953236719 -0.4506360815
380297720.0 0.8927696391 -0.4561072643
385297690.0 0.8903000463 -0.4613567824
390297660.0 0.8870070138 -0.4670821464
395297630.0 0.8843377658 -0.4724769096
400297600.0 0.8811002681 -0.4777005675
405297570.0 0.8779190605 -0.4834481487
410297540.0 0.8753758977 -0.4890250193
415297510.0 0.8723445036 -0.4943541789
420297480.0 0.8687953492 -0.4991736321
425297450.0 0.866117314 -0.504421636
430297420.0 0.8633595749 -0.5099164906
435297390.0 0.859571105 -0.5153387416
440297360.0 0.8567814515 -0.5208696629
445297330.0 0.8533804955 -0.5260907503
450297300.0 0.8500999572 -0.5310376596
455297270.0 0.8464842593 -0.5362648206
460297240.0 0.8438705 -0.5418309706
465297210.0 0.8401511568 -0.5469412678
470297180.0 0.8366156842 -0.5520890644
475297150.0 0.8333965038 -0.5572526707
480297120.0 0.8297536168 -0.5623551847
485297090.0 0.8258257219 -0.5673582192
490297060.0 0.8226037805 -0.5729791372
495297030.0 0.8191032378 -0.5775904226
500297000.0 0.8154299748 -0.5830267983
505296970.0 0.8114847772 -0.587743977
510296940.0 0.8076961855 -0.5927303808
515296910.0 0.8046011319 -0.5976201258
520296880.0 0.8006236023 -0.6023732063
525296850.0 0.7967490607 -0.607599723
530296820.0 0.7927430682 -0.6121371924
535296790.0 0.7891824703 -0.6175995841
540296760.0 0.7848003221 -0.6217598888
545296730.0 0.7814304246 -0.6271795556
550296700.0 0.7774852572 -0.6318274516
555296670.0 0.7736529641 -0.6362198222
560296640.0 0.7700797014 -0.6407951832
565296610.0 0.7665566409 -0.6458602439
570296580.0 0.7617218713 -0.6511434013
575296550.0 0.7576828712 -0.6552443436
580296520.0 0.7533013328 -0.6602037302
585296490.0 0.7500135488 -0.6647880012
590296460.0 0.745848841 -0.6694667033
595296430.0 0.7413877421 -0.6741553248
600296400.0 0.7375116647 -0.6781808207
605296370.0 0.73319915 -0.6824451542
610296340.0 0.7291062616 -0.6871350283
615296310.0 0.7244338398 -0.6916890514
620296280.0 0.7206675841 -0.6961583499
625296250.0 0.7156591346 -0.7009632639
630296220.0 0.7117903745 -0.7050554366
635296190.0 0.7070815864 -0.7099743716
640296160.0 0.7027752061 -0.713951077
645296130.0 0.6982771909 -0.7183888623
650296100.0 0.6940646773 -0.7220156441
655296070.0 0.689131555 -0.7268496413
660296040.0 0.6846771007 -0.7308066366
665296010.0 0.6797539816 -0.7354356438
670295980.0 0.6753257548 -0.7394209563
675295950.0 0.6708694391 -0.743504128
680295920.0 0.666389462 -0.7477604367
685295890.0 0.6618265132 -0.7516358998
690295860.0 0.6575094196 -0.7552925192
695295830.0 0.6525631174 -0.7597766108
700295800.0 0.6476579603 -0.7643979717
705295770.0 0.6429800986 -0.7677045553
710295740.0 0.637920204 -0.7720634744
715295710.0 0.6337365392 -0.7767661412
720295680.0 0.6283345947 -0.7805202134
725295650.0 0.6236518287 -0.7839289784
730295620.0 0.6189694955 -0.7876976413
735295590.0 0.6139831734 -0.7913389254
740295560.0 0.6088554468 -0.7955815901
745295530.0 0.6035460969 -0.7988601351
750295500.0 0.5984388142 -0.8026965286
755295470.0 0.5939964884 -0.8060868509
760295440.0 0.5893375157 -0.8103977002
765295410.0 0.5840525888 -0.8132878129
770295380.0 0.5786246223 -0.8177008397
775295350.0 0.5736828963 -0.8208330447
780295320.0 0.5695098727 -0.8247743219
785295290.0 0.5628254828 -0.8279687102
790295260.0 0.5581294856 -0.8314880852
795295230.0 0.5529549578 -0.8345495984
800295200.0 0.5478357509 -0.8385645955
805295170.0 0.5425347956 -0.8418676555
810295140.0 0.5374577072 -0.8451276473
815295110.0 0.5331111687 -0.8485162212
820295080.0 0.5265434326 -0.8513169462
825295050.0 0.5217383842 -0.8551443771
830295020.0 0.5166901414 -0.8581665731
835294990.0 0.5109770302 -0.8620253974
840294960.0 0.5059704301 -0.8645881332
845294930.0 0.5009295576 -0.8676331089
850294900.0 0.495430977 -0.8708743155
855294870.0 0.4899840571 -0.8742802208
860294840.0 0.4845506142 -0.8773245568
865294810.0 0.4787710043 -0.879985132
870294780.0 0.4738629543 -0.8828568128
875294750.0 0.4678487585 -0.8856735537
880294720.0 0.461966459 -0.8884333354
885294690.0 0.4569350697 -0.8911169649
890294660.0 0.4510195829 -0.8945645012
895294630.0 0.4461338842 -0.89694816
900294600.0 0.4406192702 -0.8996710347
905294570.0 0.4348304883 -0.9027098393
910294540.0 0.429048638 -0.9053953776
915294510.0 0.4234220067 -0.9076250577
920294480.0 0.4176775119 -0.9107181316
925294450.0 0.4120667508 -0.9130406748
930294420.0 0.4058170308 -0.9153783474
935294390.0 0.4010111036 -0.9186957321
940294360.0 0.3954133411 -0.9200624338
945294330.0 0.3896235765 -0.9229548075
950294300.0 0.3838233059 -0.9254557626
955294270.0 0.3773934016 -0.9281748796
960294240.0 0.3723397977 -0.9306500596
965294210.0 0.3657363386 -0.9326201034
970294180.0 0.360167867 -0.9351164189
975294150.0 0.3543684891 -0.9368038938
980294120.0 0.3485583954 -0.9391007612
985294090.0 0.3426071581 -0.941257286
990294060.0 0.3377233363 -0.9434336754
995294030.0 0.3307896184 -0.9452365961
1000294000.0 0.3250261393 -0.9474284957
1005293970.0 0.3194442766 -0.9496535995
1010293940.0 0.3132236314 -0.9512838409
1015293910.0 0.3077116883 -0.953080998
1020293880.0 0.3016789214 -0.9551820783
1025293850.0 0.295897638 -0.9562207988
1030293820.0 0.2896851437 -0.9589523386
1035293790.0 0.2836645437 -0.9605651052
1040293760.0 0.2774683601 -0.9625019404
1045293730.0 0.2716426706 -0.9642156082
1050293700.0 0.2657304845 -0.9660355866
1055293670.0 0.2596599701 -0.9674773146
1060293640.0 0.25393511 -0.9692242699
1065293610.0 0.2475304564 -0.9703422153
1070293580.0 0.2415773856 -0.9716405032
1075293550.0 0.2358496198 -0.9729554305
1080293520.0 0.2300805704 -0.9749886051
1085293490.0 0.2238181748 -0.9768468901
1090293460.0 0.2171122577 -0.9781819549
1095293430.0 0.2105086996 -0.9787949076
1100293400.0 0.2041843439 -0.980909374
1105293370.0 0.1985308889 -0.9820997661
1110293340.0 0.1923330778 -0.9833320696
1115293310.0 0.1861582073 -0.9842024286
1120293280.0 0.1806272445 -0.9850110607
1125293250.0 0.1748011248 -0.986146698
1130293220.0 0.1682066601 -0.9868045883
1135293190.0 0.1621361767 -0.9886140347
1140293160.0 0.1556638715 -0.9889100572
1145293130.0 0.1497429661 -0.9900604924
1150293100.0 0.1434245751 -0.9911671007
1155293070.0 0.1363406024 -0.9920292371
1160293040.0 0.1300798973 -0.9933364323
1165293010.0 0.1242910519 -0.9942612854
1170292980.0 0.1179391883 -0.9941543615
1175292950.0 0.1127583187 -0.9948846798
1180292920.0 0.1063163978 -0.9955853448
1185292890.0 0.1004194689 -0.9965875154
1190292860.0 0.0943244614 -0.996665908
1195292830.0 0.0881465905 -0.9970602533
1200292800.0 0.0821223112 -0.9977759337
1205292770.0 0.0762224354 -0.9988360722
1210292740.0 0.0699766675 -0.9990735737
1215292710.0 0.0636606404 -0.999534953
1220292680.0 0.0570308591 -1.000430566
1225292650.0 0.0505077076 -1.000281367
1230292620.0 0.0447876312 -0.999827424
1235292590.0 0.0385578441 -1.000667474
1240292560.0 0.0321688746 -1.000868246
1245292530.0 0.0255915224 -1.000662279
1250292500.0 0.0196148054 -1.000744445
1255292470.0 0.0131379068 -1.001382561
1260292440.0 0.0068531755 -1.00103841
1265292410.0 0.0010501109 -1.00136156
1270292380.0 -0.0047183244 -1.000852981
1275292350.0 -0.0113001248 -1.001097295
1280292320.0 -0.0175980307 -1.001028348
1285292290.0 -0.0244400533 -1.000576136
1290292260.0 -0.0306013809 -1.000753323
1295292230.0 -0.0361726737 -1.000127795
1300292200.0 -0.0425284516 -1.000097646
1305292170.0 -0.0483938666 -0.9995592394
1310292140.0 -0.0548985053 -0.9990384657
1315292110.0 -0.0615733831 -0.9991667027
1320292080.0 -0.0671959459 -0.9979270701
1325292050.0 -0.0735285636 -0.9979009766
1330292020.0 -0.0804145586 -0.9975851072
1335291990.0 -0.0866541974 -0.996609904
1340291960.0 -0.092733407 -0.9966015334
1345291930.0 -0.0996940479 -0.9959258955
1350291900.0 -0.1052380124 -0.994793099
1355291870.0 -0.1111115499 -0.9941085733
1360291840.0 -0.1168376907 -0.9935840596
1365291810.0 -0.1231203247 -0.9929277922
1370291780.0 -0.1294788041 -0.9920562031
1375291750.0 -0.1356116989 -0.9913664144
1380291720.0 -0.1417322409 -0.9903585668
1385291690.0 -0.1484321045 -0.9892308553
1390291660.0 -0.1544815179 -0.988786068
1395291630.0 -0.1607411838 -0.9873961626
1400291600.0 -0.1669053893 -0.9863602609
1405291570.0 -0.1727103154 -0.9848967617
1410291540.0 -0.1787970924 -0.9847572988
1415291510.0 -0.1847346318 -0.9833808512
1420291480.0 -0.1911385773 -0.9816835257
1425291450.0 -0.1968241878 -0.9804000178
1430291420.0 -0.2032320118 -0.9792671635
1435291390.0 -0.2091926313 -0.9776948304
1440291360.0 -0.2151581654 -0.9768869317
1445291330.0 -0.2207817781 -0.9752879822
1450291300.0 -0.2262963269 -0.9738417866
1455291270.0 -0.233249328 -0.9727725144
1460291240.0 -0.2392008949 -0.97061314
1465291210.0 -0.2452102392 -0.9692828972
1470291180.0 -0.2513625131 -0.967863529
1475291150.0 -0.2572896235 -0.9660168258
1480291120.0 -0.2630552673 -0.9637826039
1485291090.0 -0.2695283444 -0.9628884494
1490291060.0 -0.2754701401 -0.9609546405
1495291030.0 -0.2818735829 -0.959107007
1500291000.0 -0.2876434794 -0.9578477885
1505290970.0 -0.2930764685 -0.9556043917
1510290940.0 -0.2992251563 -0.9539542115
1515290910.0 -0.3041855442 -0.9513214128
1520290880.0 -0.3108172653 -0.9505195388
1525290850.0 -0.3163629013 -0.9475179626
1530290820.0 -0.3226154112 -0.9454596681
1535290790.0 -0.3286746465 -0.9440434344
1540290760.0 -0.3342139222 -0.9419912993
1545290730.0 -0.3401425446 -0.9396007657
1550290700.0 -0.3467881938 -0.937484102
1555290670.0 -0.3520135039 -0.935526311
1560290640.0 -0.3578058823 -0.9327953157
1565290610.0 -0.3635175741 -0.9309974116
1570290580.0 -0.3697728618 -0.9285139751
1575290550.0 -0.3755012312 -0.9264796687
1580290520.0 -0.3811712318 -0.9236792227
1585290490.0 -0.3872955012 -0.9215857283
1590290460.0 -0.3930250554 -0.9182559484
1595290430.0 -0.398325379 -0.9157373307
1600290400.0 -0.4039522312 -0.9135556819
1605290370.0 -0.4095647862 -0.9113188384
1610290340.0 -0.4150609546 -0.9084215204
1615290310.0 -0.4208424289 -0.9064852795
1620290280.0 -0.4260725436 -0.9031874485
1625290250.0 -0.4320672336 -0.900563869
1630290220.0 -0.4382855932 -0.8978359642
1635290190.0 -0.4426833981 -0.8952965955
1640290160.0 -0.4484740229 -0.8920425437
1645290130.0 -0.4535479765 -0.8896242706
1650290100.0 -0.4592088207 -0.886588969
1655290070.0 -0.465029275 -0.8836916119
1660290040.0 -0.4699956947 -0.8803844592
1665290010.0 -0.4755412072 -0.8778134904
1670289980.0 -0.4805196175 -0.874969222
1675289950.0 -0.4863505801 -0.8716051398
1680289920.0 -0.4921846283 -0.8690919876
1685289890.0 -0.4974996797 -0.8657439768
1690289860.0 -0.5033016726 -0.862213516
1695289830.0 -0.5087743048 -0.8587703014
1700289800.0 -0.5139423814 -0.8562855752
1705289770.0 -0.5188820443 -0.8520816098
1710289740.0 -0.5246583884 -0.8495460083
1715289710.0 -0.5303126085 -0.8460082871
1720289680.0 -0.5350806644 -0.8421542846
1725289650.0 -0.5409010145 -0.839161348
1730289620.0 -0.5455001929 -0.8351674821
1735289590.0 -0.5508548231 -0.8321746267
1740289560.0 -0.5556385774 -0.8286195917
1745289530.0 -0.5614596006 -0.8245733512
1750289500.0 -0.5663231084 -0.8216815595
1755289470.0 -0.5709826832 -0.8179762378
1760289440.0 -0.5763701349 -0.8140184767
1765289410.0 -0.5813495538 -0.8107961808
1770289380.0 -0.5861315335 -0.8074457082
1775289350.0 -0.5909937642 -0.8033642163
1780289320.0 -0.5955353284 -0.79947261
1785289290.0 -0.6007766211 -0.7963363223
1790289260.0 -0.6060549716 -0.7923537237
1795289230.0 -0.6116012326 -0.7884027907
1800289200.0 -0.6162799954 -0.7840012882
1805289170.0 -0.6211998427 -0.7799863602
1810289140.0 -0.6254250391 -0.7760955665
1815289110.0 -0.6303467792 -0.7724737582
1820289080.0 -0.6346083441 -0.7688659049
1825289050.0 -0.6394145323 -0.7650648777
1830289020.0 -0.6440021754 -0.7614462877
1835288990.0 -0.6485874574 -0.7568545421
1840288960.0 -0.6534348185 -0.7522203891
1845288930.0 -0.6578954724 -0.7488166346
1850288900.0 -0.6625600554 -0.7445084002
1855288870.0 -0.6676455902 -0.7407183411
1860288840.0 -0.6720572224 -0.7361832468
1865288810.0 -0.6770588923 -0.7319347192
1870288780.0 -0.6813520277 -0.72722734
1875288750.0 -0.6853541728 -0.7223351119
1880288720.0 -0.6904510905 -0.7183078938
1885288690.0 -0.6947854976 -0.7143940339
1890288660.0 -0.6994303925 -0.7090308943
1895288630.0 -0.7035889437 -0.7051050013
1900288600.0 -0.7081855399 -0.7010775117
1905288570.0 -0.71252612 -0.6967135067
1910288540.0 -0.7168415754 -0.69195071
1915288510.0 -0.72092823 -0.6873922431
1920288480.0 -0.725157859 -0.6823019078
1925288450.0 -0.7294528848 -0.6780415431
1930288420.0 -0.7334717065 -0.6733043228
1935288390.0 -0.7376584292 -0.668627509
1940288360.0 -0.7421711826 -0.6632685581
1945288330.0 -0.7459866679 -0.6591575265
1950288300.0 -0.7500508128 -0.6547866561
1955288270.0 -0.7545791618 -0.6492260043
1960288240.0 -0.7585500196 -0.6445302977
1965288210.0 -0.7626757223 -0.6393572613
1970288180.0 -0.7669720404 -0.6352992512
1975288150.0 -0.7701971754 -0.6299079914
1980288120.0 -0.7738461319 -0.6256446212
1985288090.0 -0.7778593489 -0.6209099946
1990288060.0 -0.7816335784 -0.6156929347
1995288030.0 -0.7853746387 -0.6116703786
2000288000.0 -0.7880987184 -0.6063113252
2005287970.0 -0.792644277 -0.6013833521
2010287940.0 -0.7962734188 -0.5968873637
2015287910.0 -0.7999832958 -0.5908341764
2020287880.0 -0.8038277974 -0.586078805
2025287850.0 -0.8077817223 -0.5809056821
2030287820.0 -0.8109992719 -0.5763520643
2035287790.0 -0.815196647 -0.5708873239
2040287760.0 -0.8182822617 -0.5658227123
2045287730.0 -0.8211112215 -0.560148756
2050287700.0 -0.8250423316 -0.5548370892
2055287670.0 -0.8286315098 -0.5502286851
2060287640.0 -0.8315921532 -0.5448527337
2065287610.0 -0.835494664 -0.5393212959
2070287580.0 -0.8387726777 -0.5345964822
2075287550.0 -0.8415694439 -0.529033757
2080287520.0 -0.8447476369 -0.5236315247
2085287490.0 -0.8479433582 -0.5182277117
2090287460.0 -0.8514790448 -0.5130783779
2095287430.0 -0.8547825601 -0.5074261433
2100287400.0 -0.8574896171 -0.5022579682
2105287370.0 -0.8614048895 -0.4965014254
2110287340.0 -0.8641339321 -0.4913488412
2115287310.0 -0.8670571272 -0.4858728122
2120287280.0 -0.8703793097 -0.4800756519
2125287250.0 -0.8730479742 -0.4743225206
2130287220.0 -0.8757021415 -0.4691174718
2135287190.0 -0.8793251789 -0.4634179155
2140287160.0 -0.8823175064 -0.4574509056
2145287130.0 -0.8845066654 -0.4519411844
2150287100.0 -0.8873207456 -0.4463444483
2155287070.0 -0.8897476638 -0.4409351655
2160287040.0 -0.8929018832 -0.4355822894
2165287010.0 -0.8950717419 -0.4297473027
2170286980.0 -0.89789184 -0.4240884123
2175286950.0 -0.9003972945 -0.4181580121
2180286920.0 -0.9029078682 -0.4133710158
2185286890.0 -0.9054953371 -0.4077524176
2190286860.0 -0.9079893386 -0.4023790783
2195286830.0 -0.9105021448 -0.3970148987
2200286800.0 -0.9126157586 -0.3909868998
2205286770.0 -0.9143697035 -0.3854331959
2210286740.0 -0.917600587 -0.379296049
2215286710.0 -0.919908266 -0.3739479234
2220286680.0 -0.9223636272 -0.3680978188
2225286650.0 -0.9242738993 -0.3619489698
2230286620.0 -0.9269733327 -0.3562904681
2235286590.0 -0.9290209432 -0.3502939595
2240286560.0 -0.9311895724 -0.3441390203
2245286530.0 -0.9332804719 -0.3382891971
2250286500.0 -0.935439343 -0.3323734308
2255286470.0 -0.9377696854 -0.3265478143
2260286440.0 -0.939394246 -0.3198679391
2265286410.0 -0.9420533519 -0.3137581281
2270286380.0 -0.9434753203 -0.3084506199
2275286350.0 -0.9450905447 -0.3023914888
2280286320.0 -0.9471200169 -0.2960068785
2285286290.0 -0.9490793147 -0.2899192671
2290286260.0 -0.9504752166 -0.2838894988
2295286230.0 -0.9526003704 -0.2775265578
2300286200.0 -0.9536869785 -0.2720707379
2305286170.0 -0.9560292973 -0.265969789
2310286140.0 -0.9574573527 -0.2599810542
2315286110.0 -0.9589202616 -0.2533054943
2320286080.0 -0.9606144053 -0.2477641512
2325286050.0 -0.9620136827 -0.2420390832
2330286020.0 -0.9636015984 -0.2357787498
2335285990.0 -0.9655000243 -0.2298980651
2340285960.0 -0.9664444573 -0.2240062973
2345285930.0 -0.9679164265 -0.2177956961
2350285900.0 -0.9694085686 -0.2112355575
2355285870.0 -0.9705614434 -0.205389024
2360285840.0 -0.971988428 -0.1991683509
2365285810.0 -0.9727265309 -0.1929271679
2370285780.0 -0.9741505792 -0.1871989145
2375285750.0 -0.9749092837 -0.181511582
2380285720.0 -0.9761573646 -0.1747900184
2385285690.0 -0.9772417922 -0.169380872
2390285660.0 -0.9785625453 -0.1629148721
2395285630.0 -0.9789180371 -0.1565911019
2400285600.0 -0.9802124775 -0.1504876493
2405285570.0 -0.980915507 -0.1447537471
2410285540.0 -0.9820287675 -0.1386096936
2415285510.0 -0.9828283078 -0.133185156
2420285480.0 -0.9831505699 -0.1268853254
2425285450.0 -0.9839433772 -0.120790943
2430285420.0 -0.9845462533 -0.114524716
2435285390.0 -0.9852546628 -0.1078855355
2440285360.0 -0.985945695 -0.1017285739
2445285330.0 -0.9862833863 -0.0956379554
2450285300.0 -0.9872393733 -0.089309068
2455285270.0 -0.9869227442 -0.0833800352
2460285240.0 -0.9880068765 -0.0766014117
2465285210.0 -0.9887017983 -0.0704283217
2470285180.0 -0.9892918355 -0.0643986836
2475285150.0 -0.9890454476 -0.057929495
2480285120.0 -0.9897387444 -0.0520654223
2485285090.0 -0.9900740635 -0.0454283459
2490285060.0 -0.9899916189 -0.0389812806
2495285030.0 -0.9900285972 -0.0332148938
2500285000.0 -0.9904275213 -0.0264314335
