!Created with skrf (http://scikit-rf.org).
# Hz S RI R 50.0 
!freq ReS11 ImS11
300000.0 1.001749638 0.0011124223
5299970.0 1.004980929 -0.0084143704
10299940.0 1.003892649 -0.0154282567
15299910.0 1.003752186 -0.0218679617
20299880.0 1.003310257 -0.0292259845
25299850.0 1.003127172 -0.0362902216
30299820.0 1.002635101 -0.0433939972
35299790.0 1.002341617 -0.0499301417
40299760.0 1.002622756 -0.0567687373
45299730.0 1.002464608 -0.0639983895
50299700.0 1.001360315 -0.0710505452
55299670.0 1.001551539 -0.0784951553
60299640.0 1.000829625 -0.0851277003
65299610.0 1.000228736 -0.0921559592
70299580.0 0.9988500118 -0.0983704164
75299550.0 0.9982486783 -0.1056834597
80299520.0 0.9973542427 -0.1125754169
85299490.0 0.9964402142 -0.1199020336
90299460.0 0.9959137601 -0.1263381989
95299430.0 0.9950544609 -0.1335509412
100299400.0 0.9938321353 -0.140712116
105299370.0 0.993015644 -0.1468869805
110299340.0 0.9919578112 -0.1537969872
115299310.0 0.9909322741 -0.160771316
120299280.0 0.9891913919 -0.1686832778
125299250.0 0.9884086385 -0.174411982
130299220.0 0.9873286748 -0.18151441
135299190.0 0.9861252392 -0.1883259857
140299160.0 0.9839692587 -0.1951197033
145299130.0 0.9836333558 -0.2014898515
150299100.0 0.9817659125 -0.209009742
155299070.0 0.9802598796 -0.2156938878
160299040.0 0.9789004937 -0.2225327365
165299010.0 0.9771709598 -0.2291902861
170298980.0 0.9757803601 -0.2354138541
175298950.0 0.9731090358 -0.242549833
180298920.0 0.9704154274 -0.249674457
185298890.0 0.9691533867 -0.2563193041
190298860.0 0.9683448477 -0.2625211458
195298830.0 0.9669951501 -0.2693838324
200298800.0 0.9648140906 -0.276111408
205298770.0 0.9627588876 -0.2826197659
210298740.0 0.9604839509 -0.2897184405
215298710.0 0.9591283208 -0.2956111182
220298680.0 0.9568910525 -0.3026592661
225298650.0 0.9542868804 -0.3094039807
230298620.0 0.952829936 -0.3157502869
235298590.0 0.9501143047 -0.3226470314
240298560.0 0.9479444712 -0.3288462848
245298530.0 0.945464557 -0.33592355
250298500.0 0.9429823776 -0.3423257968
255298470.0 0.9407949776 -0.348432397
260298440.0 0.9383299308 -0.3554661892
265298410.0 0.9357242429 -0.3614295467
270298380.0 0.9336123067 -0.3680691411
275298350.0 0.9307032014 -0.3746112927
280298320.0 0.9279757775 -0.3810800092
285298290.0 0.9253059931 -0.3873340973
290298260.0 0.9228283246 -0.3938377842
295298230.0 0.9193024883 -0.4000320855
300298200.0 0.9167119657 -0.4063763403
305298170.0 0.9139368454 -0.4127223198
310298140.0 0.9108208963 -0.4199803356
315298110.0 0.9081231344 -0.425382476
320298080.0 0.9047802951 -0.4315515961
325298050.0 0.9024041843 -0.4380767979
330298020.0 0.8992105341 -0.4439255994
335297990.0 0.8964464246 -0.4502982157
340297960.0 0.892877905 -0.4567903507
345297930.0 0.89010139 -0.4629313848
350297900.0 0.8875686814 -0.4690993658
355297870.0 0.8841538305 -0.4759631044
360297840.0 0.8809716812 -0.4821219236
365297810.0 0.8776980201 -0.4878924095
370297780.0 0.8736311434 -0.4938303964
375297750.0 0.8697070752 -0.4997854843
380297720.0 0.8657797909 -0.504785595
385297690.0 0.8625506709 -0.5115506621
390297660.0 0.8591358764 -0.516849883
395297630.0 0.8553247232 -0.5227956228
400297600.0 0.8518730551 -0.5290063591
405297570.0 0.8478092721 -0.5349443929
410297540.0 0.8440044839 -0.5406276234
415297510.0 0.8405119567 -0.5463903007
420297480.0 0.836826843 -0.5521706227
425297450.0 0.8332107178 -0.5574851608
430297420.0 0.8292299107 -0.5633836081
435297390.0 0.8250460397 -0.5691424883
440297360.0 0.8213609454 -0.5749315419
445297330.0 0.8169685112 -0.5807100903
450297300.0 0.8135266838 -0.5865226587
455297270.0 0.8092849687 -0.5924004909
460297240.0 0.8050014486 -0.5977470636
465297210.0 0.8005766675 -0.6033337934
470297180.0 0.7968196616 -0.6090059861
475297150.0 0.792460983 -0.6141493494
480297120.0 0.7879095397 -0.6196345929
485297090.0 0.7836680974 -0.6248930504
490297060.0 0.7797991025 -0.6305936238
495297030.0 0.7748154119 -0.6355046218
500297000.0 0.7705824886 -0.6412865319
505296970.0 0.7659612793 -0.6468872968
510296940.0 0.7613672918 -0.6514376624
515296910.0 0.7569995982 -0.6567920372
520296880.0 0.7522272211 -0.6619695165
525296850.0 0.7474288332 -0.6674513892
530296820.0 0.7426497436 -0.672569673
535296790.0 0.7381360907 -0.677660949
540296760.0 0.7335245137 -0.6826364199
545296730.0 0.7286483561 -0.6881943629
550296700.0 0.7236168355 -0.6931635024
555296670.0 0.7190944272 -0.6978496958
560296640.0 0.7145213034 -0.7026874769
565296610.0 0.7097915968 -0.7076917718
570296580.0 0.7054662238 -0.7126894048
575296550.0 0.6999944086 -0.7174933582
580296520.0 0.6949090157 -0.7221105517
585296490.0 0.6900146886 -0.7274429497
590296460.0 0.6848655548 -0.7319038759
595296430.0 0.6801671324 -0.7369296549
600296400.0 0.6749027475 -0.7413684041
605296370.0 0.6696813987 -0.745912868
610296340.0 0.6648657261 -0.7503240854
615296310.0 0.6597106895 -0.754821734
620296280.0 0.6545616353 -0.7594820315
625296250.0 0.6489350822 -0.7640858001
630296220.0 0.6433044236 -0.768004161
635296190.0 0.6383015443 -0.7732878568
640296160.0 0.6324689796 -0.7775115725
645296130.0 0.6278054937 -0.7813356378
650296100.0 0.6220127427 -0.786340844
655296070.0 0.6162296207 -0.7904880786
660296040.0 0.6104400748 -0.794419621
665296010.0 0.606162007 -0.7984340325
670295980.0 0.5998707085 -0.8024848528
675295950.0 0.5947826996 -0.807269318
680295920.0 0.5888080094 -0.8112521146
685295890.0 0.5833516095 -0.8153216798
690295860.0 0.5778045479 -0.8191102851
695295830.0 0.5717864757 -0.8232443637
700295800.0 0.5659311722 -0.8270610043
705295770.0 0.5599087698 -0.8311555178
710295740.0 0.5546717129 -0.8346384553
715295710.0 0.5483932243 -0.8388529926
720295680.0 0.5425089168 -0.8426071162
725295650.0 0.5365744745 -0.8462714743
730295620.0 0.5308276307 -0.8504162652
735295590.0 0.5254776092 -0.853671239
740295560.0 0.5191571501 -0.8574266985
745295530.0 0.5132345106 -0.8604696126
750295500.0 0.5071306401 -0.8641765712
755295470.0 0.5011429333 -0.8679744703
760295440.0 0.4952970074 -0.8710226498
765295410.0 0.4894145463 -0.8747179612
770295380.0 0.4832051067 -0.8784820965
775295350.0 0.4767813779 -0.8812052454
780295320.0 0.4705298795 -0.8847994359
785295290.0 0.4649383174 -0.8884678731
790295260.0 0.4587333748 -0.8910993471
795295230.0 0.4522065814 -0.8943807701
800295200.0 0.4463152897 -0.8978356821
805295170.0 0.4400010428 -0.90044404
810295140.0 0.4341091333 -0.9035959328
815295110.0 0.4278143116 -0.9066528236
820295080.0 0.4217212362 -0.9095181534
825295050.0 0.4150943658 -0.912274431
830295020.0 0.4086757122 -0.9154561147
835294990.0 0.4028553353 -0.9177725041
840294960.0 0.3957771293 -0.920894374
845294930.0 0.3897980473 -0.9229848246
850294900.0 0.3836930869 -0.9258722845
855294870.0 0.3765211662 -0.9290417412
860294840.0 0.3703049537 -0.9311605186
865294810.0 0.3640845043 -0.9342948886
870294780.0 0.3576693316 -0.9370093407
875294750.0 0.3512906174 -0.9389739017
880294720.0 0.3448829051 -0.9415554151
885294690.0 0.33842209 -0.9437018498
890294660.0 0.3316077428 -0.9460340946
895294630.0 0.3248298613 -0.9478358583
900294600.0 0.3189699739 -0.9505365533
905294570.0 0.3120142775 -0.952514685
910294540.0 0.3055645273 -0.9548967026
915294510.0 0.2990483429 -0.9570842692
920294480.0 0.291654495 -0.9587955486
925294450.0 0.2853163286 -0.9611181328
930294420.0 0.2788434736 -0.9633578908
935294390.0 0.2723373264 -0.9647242092
940294360.0 0.2653446278 -0.9668246606
945294330.0 0.2588573115 -0.9685846024
950294300.0 0.2520013717 -0.9705633281
955294270.0 0.2443769454 -0.971521433
960294240.0 0.2385641935 -0.9737822543
965294210.0 0.2317849198 -0.9760388124
970294180.0 0.2240063653 -0.9767053543
975294150.0 0.2180823302 -0.97836917
980294120.0 0.2118443047 -0.9796703277
985294090.0 0.2043832261 -0.981699714
990294060.0 0.1985873506 -0.9826735692
995294030.0 0.1910787883 -0.9837761392
1000294000.0 0.184249285 -0.9855055797
1005293970.0 0.1772103602 -0.9865183949
1010293940.0 0.170648408 -0.9879857224
1015293910.0 0.1637245549 -0.9890088086
1020293880.0 0.1569382044 -0.9900052045
1025293850.0 0.1504217625 -0.9908323653
1030293820.0 0.1432905687 -0.9913814035
1035293790.0 0.136545021 -0.992779395
1040293760.0 0.1300678627 -0.9942047208
1045293730.0 0.1224015978 -0.9948998126
1050293700.0 0.1154188986 -0.9953925554
1055293670.0 0.1086372461 -0.9963311791
1060293640.0 0.1014391189 -0.9973334322
1065293610.0 0.0946867825 -0.9978749276
1070293580.0 0.0881060695 -0.9981497946
1075293550.0 0.0813445592 -0.9990042785
1080293520.0 0.0741992192 -0.9991601792
1085293490.0 0.0679006082 -0.9997655239
1090293460.0 0.060395322 -1.000298156
1095293430.0 0.0528707205 -1.000820389
1100293400.0 0.0462665779 -1.000803384
1105293370.0 0.0393267472 -1.001506663
1110293340.0 0.0323205514 -1.001543873
1115293310.0 0.0251357253 -1.001421052
1120293280.0 0.0183889811 -1.001749331
1125293250.0 0.0117977776 -1.00184703
1130293220.0 0.0050903078 -1.002017552
1135293190.0 -0.0017290996 -1.001473443
1140293160.0 -0.0090222704 -1.002027891
1145293130.0 -0.0165646106 -1.00170097
1150293100.0 -0.023410253 -1.001473018
1155293070.0 -0.0306530897 -1.001468135
1160293040.0 -0.0377057387 -1.001496182
1165293010.0 -0.0442337013 -1.000972777
1170292980.0 -0.051553865 -1.000574872
1175292950.0 -0.0583039202 -0.9997768155
1180292920.0 -0.0650294287 -0.9996710457
1185292890.0 -0.0716174761 -0.9988453118
1190292860.0 -0.0781732936 -0.9983727801
1195292830.0 -0.0850994342 -0.9978944931
1200292800.0 -0.0913040936 -0.9981039695
1205292770.0 -0.0978991448 -0.9973976385
1210292740.0 -0.1051344 -0.9963500022
1215292710.0 -0.111922093 -0.9952928731
1220292680.0 -0.119182251 -0.9946271743
1225292650.0 -0.1264133616 -0.9940994237
1230292620.0 -0.1329901894 -0.9928431017
1235292590.0 -0.1403492272 -0.991703877
1240292560.0 -0.1468092144 -0.9903886823
1245292530.0 -0.1535409008 -0.9892706723
1250292500.0 -0.1604014886 -0.9884669609
1255292470.0 -0.1673240303 -0.9872882417
1260292440.0 -0.1741941207 -0.9864054889
1265292410.0 -0.180772281 -0.9848167046
1270292380.0 -0.187523803 -0.9833568083
1275292350.0 -0.1940495113 -0.9825259731
1280292320.0 -0.2005771247 -0.981064805
1285292290.0 -0.2080565804 -0.9797839846
1290292260.0 -0.2152121193 -0.9784327255
1295292230.0 -0.2219261781 -0.9771261339
1300292200.0 -0.2279111978 -0.9747533917
1305292170.0 -0.2344833851 -0.9731278431
1310292140.0 -0.2416625567 -0.9716990088
1315292110.0 -0.2482373482 -0.9699043193
1320292080.0 -0.2543941259 -0.9680902373
1325292050.0 -0.2613139423 -0.9658952862
1330292020.0 -0.2686225561 -0.9637424817
1335291990.0 -0.2751718833 -0.9620161468
1340291960.0 -0.281411197 -0.9597308867
1345291930.0 -0.2890105597 -0.9581810875
1350291900.0 -0.2956182157 -0.9561452797
1355291870.0 -0.3018419026 -0.954062356
1360291840.0 -0.3080693896 -0.9524927654
1365291810.0 -0.3142449547 -0.949939044
1370291780.0 -0.3206528925 -0.9473493894
1375291750.0 -0.3268358211 -0.9449577668
1380291720.0 -0.3337917644 -0.9428769091
1385291690.0 -0.3402721838 -0.9409695158
1390291660.0 -0.3472709271 -0.9380581222
1395291630.0 -0.3531262281 -0.9355177634
1400291600.0 -0.3595465561 -0.9330984528
1405291570.0 -0.3662576557 -0.93030495
1410291540.0 -0.3730064875 -0.9283746916
1415291510.0 -0.3791926251 -0.9252442867
1420291480.0 -0.3855333326 -0.9232352042
1425291450.0 -0.3920593362 -0.9207980304
1430291420.0 -0.3980773154 -0.9173333628
1435291390.0 -0.404328601 -0.9149418802
1440291360.0 -0.4106609147 -0.9119992119
1445291330.0 -0.4164368235 -0.9089991069
1450291300.0 -0.4223142201 -0.9062813666
1455291270.0 -0.4289439892 -0.9032462875
1460291240.0 -0.4347173036 -0.9003228601
1465291210.0 -0.4413819915 -0.8968283968
1470291180.0 -0.4477342371 -0.8938167985
1475291150.0 -0.453889826 -0.8907859018
1480291120.0 -0.4596222142 -0.8878974934
1485291090.0 -0.4664701262 -0.8845911886
1490291060.0 -0.4729619812 -0.8805391725
1495291030.0 -0.4785930669 -0.8777444862
1500291000.0 -0.4839938041 -0.874266095
1505290970.0 -0.4902362218 -0.8711560679
1510290940.0 -0.4963190426 -0.8678516064
1515290910.0 -0.5021593514 -0.8645087755
1520290880.0 -0.5075193829 -0.8612734171
1525290850.0 -0.514131077 -0.8571157972
1530290820.0 -0.5194266565 -0.8539351206
1535290790.0 -0.5253704195 -0.8495136696
1540290760.0 -0.5312121284 -0.8461434182
1545290730.0 -0.5376649091 -0.8427317063
1550290700.0 -0.5426932646 -0.8391610888
1555290670.0 -0.5491096924 -0.8351274604
1560290640.0 -0.5541920792 -0.8312613801
1565290610.0 -0.5596835899 -0.8275894616
1570290580.0 -0.5660933716 -0.8236307003
1575290550.0 -0.5713809781 -0.8193854981
1580290520.0 -0.5774049036 -0.8154887077
1585290490.0 -0.5831804947 -0.8110810857
1590290460.0 -0.5883249035 -0.8072742559
1595290430.0 -0.5937496921 -0.8033503236
1600290400.0 -0.5998298067 -0.7988269243
1605290370.0 -0.6042538617 -0.7945348877
1610290340.0 -0.6101494617 -0.7908241696
1615290310.0 -0.6156167989 -0.7870254869
1620290280.0 -0.62095055 -0.7819062743
1625290250.0 -0.6261414405 -0.7778788013
1630290220.0 -0.6317608789 -0.7731666317
1635290190.0 -0.6363405022 -0.7693520941
1640290160.0 -0.6417539475 -0.7653294314
1645290130.0 -0.6471658617 -0.7604940802
1650290100.0 -0.651879071 -0.7554687466
1655290070.0 -0.6575242234 -0.7510322489
1660290040.0 -0.662328847 -0.7469081535
1665290010.0 -0.6673576876 -0.7421641029
1670289980.0 -0.6723945463 -0.7371078646
1675289950.0 -0.6772081933 -0.7324707882
1680289920.0 -0.6823658832 -0.7282645001
1685289890.0 -0.6881548446 -0.7227176163
1690289860.0 -0.6930488839 -0.7188856113
1695289830.0 -0.6979157268 -0.7128326573
1700289800.0 -0.7029601844 -0.7083982829
1705289770.0 -0.7073109804 -0.703732799
1710289740.0 -0.7122366665 -0.6986596727
1715289710.0 -0.7170774814 -0.6936352358
1720289680.0 -0.7218021851 -0.6883010076
1725289650.0 -0.7268530566 -0.6837487409
1730289620.0 -0.7313242352 -0.6788335136
1735289590.0 -0.7356921308 -0.6737778207
1740289560.0 -0.7404562399 -0.6687334214
1745289530.0 -0.7446498436 -0.6633410565
1750289500.0 -0.7499139902 -0.6577399761
1755289470.0 -0.7539266378 -0.6528409821
1760289440.0 -0.7580083788 -0.6477789462
1765289410.0 -0.7623389846 -0.6422693895
1770289380.0 -0.7666590839 -0.6369385341
1775289350.0 -0.771371828 -0.6319086862
1780289320.0 -0.7757868678 -0.6260122459
1785289290.0 -0.7799220739 -0.6209932822
1790289260.0 -0.7842916267 -0.6156211039
1795289230.0 -0.7878261463 -0.6100274316
1800289200.0 -0.7925819095 -0.6044034402
1805289170.0 -0.7964000958 -0.5989209286
1810289140.0 -0.8004181099 -0.5930730718
1815289110.0 -0.8042879403 -0.5883455585
1820289080.0 -0.8079747046 -0.5825560994
1825289050.0 -0.8126076382 -0.57693937
1830289020.0 -0.8163219725 -0.5722314321
1835288990.0 -0.8202154889 -0.5662876044
1840288960.0 -0.8239112438 -0.5607218392
1845288930.0 -0.8277194634 -0.5544719167
1850288900.0 -0.8311331206 -0.548866561
1855288870.0 -0.8350024998 -0.5429289894
1860288840.0 -0.8388232873 -0.5370531505
1865288810.0 -0.842912913 -0.5311867055
1870288780.0 -0.8461570789 -0.5249354524
1875288750.0 -0.8498085682 -0.5194497378
1880288720.0 -0.8533975254 -0.5137550113
1885288690.0 -0.8569988049 -0.5073360723
1890288660.0 -0.8606834438 -0.5010567843
1895288630.0 -0.8636883353 -0.4958021602
1900288600.0 -0.8674515616 -0.4892072886
1905288570.0 -0.8700779038 -0.483585825
1910288540.0 -0.8739425954 -0.4776859148
1915288510.0 -0.8771967401 -0.471334591
1920288480.0 -0.8803115929 -0.4651146125
1925288450.0 -0.8834158258 -0.4589575871
1930288420.0 -0.8869527843 -0.4529135651
1935288390.0 -0.8896244106 -0.4464938802
1940288360.0 -0.8916156696 -0.4405142222
1945288330.0 -0.8953534813 -0.4340109023
1950288300.0 -0.8977955754 -0.4272981781
1955288270.0 -0.9014194097 -0.4208797908
1960288240.0 -0.9039150061 -0.4143435188
1965288210.0 -0.9069666701 -0.4083893944
1970288180.0 -0.9097443199 -0.4023600175
1975288150.0 -0.9121254188 -0.3956279611
1980288120.0 -0.9152162449 -0.3898163169
1985288090.0 -0.9174889301 -0.3839407701
1990288060.0 -0.919582812 -0.3773574665
1995288030.0 -0.9223817452 -0.3718718858
2000288000.0 -0.9245151974 -0.365124484
2005287970.0 -0.9269899454 -0.3587565297
2010287940.0 -0.9294151141 -0.3522931342
2015287910.0 -0.9315649519 -0.3458947889
2020287880.0 -0.9341140733 -0.3390156366
2025287850.0 -0.936726677 -0.3331076732
2030287820.0 -0.9393978005 -0.325900823
2035287790.0 -0.9408688356 -0.3198200049
2040287760.0 -0.9433148035 -0.3130345794
2045287730.0 -0.9453589567 -0.3066200417
2050287700.0 -0.9474787754 -0.2997865835
2055287670.0 -0.9492222562 -0.2934625392
2060287640.0 -0.9508651396 -0.2864551326
2065287610.0 -0.9533241124 -0.2798098767
2070287580.0 -0.9550892691 -0.2741249036
2075287550.0 -0.9570296412 -0.2671973245
2080287520.0 -0.9591143283 -0.2606188426
2085287490.0 -0.9607966204 -0.2542268831
2090287460.0 -0.9621790314 -0.246984616
2095287430.0 -0.9639746449 -0.2406467909
2100287400.0 -0.9656385175 -0.2338582839
2105287370.0 -0.9664226129 -0.2275599978
2110287340.0 -0.9686145154 -0.2205259666
2115287310.0 -0.969717188 -0.2132348336
2120287280.0 -0.9714761605 -0.2068708267
2125287250.0 -0.9725455874 -0.2004397559
2130287220.0 -0.9738893176 -0.1931564142
2135287190.0 -0.9752896474 -0.1864870944
2140287160.0 -0.9763318468 -0.1797058478
2145287130.0 -0.9774094165 -0.1725217791
2150287100.0 -0.9786676293 -0.1663289797
2155287070.0 -0.980089605 -0.159311694
2160287040.0 -0.9809204745 -0.1529427307
2165287010.0 -0.9816833369 -0.1459936013
2170286980.0 -0.9831843586 -0.1391305304
2175286950.0 -0.9839955702 -0.1324929063
2180286920.0 -0.9845594928 -0.1260018428
2185286890.0 -0.9851361587 -0.1195695703
2190286860.0 -0.9858236887 -0.1132500874
2195286830.0 -0.9865531253 -0.1060840372
2200286800.0 -0.9865125563 -0.0987212843
2205286770.0 -0.9877135135 -0.0928052011
2210286740.0 -0.9883002732 -0.0861075224
2215286710.0 -0.9886392048 -0.0788101275
2220286680.0 -0.9897579972 -0.0715413772
2225286650.0 -0.99050603 -0.0646975907
2230286620.0 -0.9905052726 -0.0581478152
2235286590.0 -0.9911128252 -0.0509272291
2240286560.0 -0.991193934 -0.0445987733
2245286530.0 -0.9913218197 -0.0376734686
2250286500.0 -0.9917910708 -0.0303640546
2255286470.0 -0.9915600476 -0.0235821811
2260286440.0 -0.9913767218 -0.016267622
2265286410.0 -0.9919823973 -0.0097971552
2270286380.0 -0.992162219 -0.0027397832
2275286350.0 -0.9918654321 0.0046943975
2280286320.0 -0.9914587876 0.0116450303
2285286290.0 -0.991924782 0.0182288906
2290286260.0 -0.9909101814 0.0251635134
2295286230.0 -0.9911334229 0.0321950779
2300286200.0 -0.9906449757 0.0391792463
2305286170.0 -0.9903026867 0.0456538353
2310286140.0 -0.9903275681 0.0522543591
2315286110.0 -0.9893379101 0.0592949947
2320286080.0 -0.988636835 0.06611765
2325286050.0 -0.9883915609 0.072897242
2330286020.0 -0.9876614965 0.079936225
2335285990.0 -0.9875155727 0.0865174069
2340285960.0 -0.9866796372 0.0934102326
2345285930.0 -0.9863240421 0.1003043083
2350285900.0 -0.9852879215 0.1070203436
2355285870.0 -0.9847868697 0.113905416
2360285840.0 -0.9834746755 0.121043393
2365285810.0 -0.9826762447 0.1270784832
2370285780.0 -0.9820001426 0.1339308247
2375285750.0 -0.9812343711 0.1409862128
2380285720.0 -0.9796278358 0.1474316123
2385285690.0 -0.9789754588 0.154110074
2390285660.0 -0.9773188568 0.1610935409
2395285630.0 -0.9767416895 0.1676062532
2400285600.0 -0.9752809216 0.1744933691
2405285570.0 -0.9742128842 0.1807764785
2410285540.0 -0.9729205374 0.1871535737
2415285510.0 -0.9711665514 0.1936665339
2420285480.0 -0.9703612677 0.2004377896
2425285450.0 -0.9684739747 0.2075345211
2430285420.0 -0.9670426915 0.213697394
2435285390.0 -0.9654523796 0.2209420447
2440285360.0 -0.9639614514 0.2277169298
2445285330.0 -0.9623903548 0.2337437976
2450285300.0 -0.9603892661 0.2411163556
2455285270.0 -0.9587501795 0.2478141252
2460285240.0 -0.9566642934 0.2538569514
2465285210.0 -0.9550933366 0.2612552514
2470285180.0 -0.9533775666 0.2676013979
2475285150.0 -0.9517510806 0.2744073139
2480285120.0 -0.9492858635 0.280382686
2485285090.0 -0.9476574391 0.28704584
2490285060.0 -0.9457943586 0.2937707846
2495285030.0 -0.9429889785 0.2999967221
2500285000.0 -0.9408712655 0.306924443
