!Created with skrf (http://scikit-rf.org).
# Hz S RI R 50.0 
!freq ReS11 ImS11
45000000.0 -0.003771543502807617 -0.0009045600891113281
49995500.0 -0.004052877426147461 -0.0004715919494628906
54991000.0 -0.004252195358276367 1.621246337890625e-05
59986500.0 -0.0045354366302490234 0.00032901763916015625
64982000.0 -0.004660606384277344 0.0007760524749755859
69977500.0 -0.00479435920715332 0.001310586929321289
74973000.0 -0.004739522933959961 0.0018916130065917969
79968500.0 -0.004731893539428711 0.0025212764739990234
84964000.0 -0.00462794303894043 0.0031096935272216797
89959500.0 -0.004419565200805664 0.0038156509399414062
94955000.0 -0.004129886627197266 0.0043182373046875
99950500.0 -0.003767251968383789 0.004851579666137695
104946000.0 -0.0030510425567626953 0.005426883697509766
109941500.0 -0.0026671886444091797 0.005876302719116211
114937000.0 -0.001998424530029297 0.006285667419433594
119932500.0 -0.0012555122375488281 0.006566762924194336
124928000.0 -0.00045490264892578125 0.00675654411315918
129923500.0 0.00025200843811035156 0.006848335266113281
134919000.0 0.001068115234375 0.007028818130493164
139914500.0 0.001913309097290039 0.006937742233276367
144910000.0 0.0026819705963134766 0.0068607330322265625
149905500.0 0.0034775733947753906 0.006622791290283203
154901000.0 0.004273176193237305 0.0062580108642578125
159896500.0 0.004918098449707031 0.005904197692871094
164892000.0 0.005711078643798828 0.005352497100830078
169887500.0 0.006453037261962891 0.004767894744873047
174883000.0 0.00695347785949707 0.0041158199310302734
179878500.0 0.007448911666870117 0.0033273696899414062
184874000.0 0.00789785385131836 0.0026006698608398438
189869500.0 0.008223533630371094 0.0016727447509765625
194865000.0 0.008568763732910156 0.0008268356323242188
199860500.0 0.0086517333984375 -9.775161743164062e-05
204856000.0 0.00871133804321289 -0.0010442733764648438
209851500.0 0.008638858795166016 -0.0020570755004882812
214847000.0 0.008464813232421875 -0.0030059814453125
219842500.0 0.008196353912353516 -0.0038900375366210938
224838000.0 0.007730007171630859 -0.004881381988525391
229833500.0 0.007312774658203125 -0.005722999572753906
234829000.0 0.00672602653503418 -0.006570100784301758
239824500.0 0.006005287170410156 -0.007359743118286133
244820000.0 0.005305767059326172 -0.008004188537597656
249815500.0 0.004391670227050781 -0.008609771728515625
254811000.0 0.003841876983642578 -0.009034156799316406
259806500.0 0.0029616355895996094 -0.009542465209960938
264802000.0 0.0020165443420410156 -0.009949207305908203
269797500.0 0.000980377197265625 -0.010142326354980469
274793000.0 -0.00012683868408203125 -0.01030874252319336
279788500.0 -0.0012025833129882812 -0.010422706604003906
284784000.0 -0.0022525787353515625 -0.010277748107910156
289779500.0 -0.003436565399169922 -0.010082721710205078
294775000.0 -0.0045452117919921875 -0.009660720825195312
299770500.0 -0.005541801452636719 -0.009276866912841797
304766000.0 -0.0065784454345703125 -0.008669376373291016
309761500.0 -0.0074634552001953125 -0.008120536804199219
314757000.0 -0.008408069610595703 -0.007323265075683594
319752500.0 -0.00916433334350586 -0.006419658660888672
324748000.0 -0.00997018814086914 -0.005402565002441406
329743500.0 -0.010475635528564453 -0.004469394683837891
334739000.0 -0.01092386245727539 -0.0032634735107421875
339734500.0 -0.011341094970703125 -0.0021004676818847656
344730000.0 -0.011538505554199219 -0.0008726119995117188
349725500.0 -0.011706829071044922 0.0003204345703125
354721000.0 -0.01165628433227539 0.0015959739685058594
359716500.0 -0.01152658462524414 0.0028486251831054688
364712000.0 -0.011260986328125 0.004091739654541016
369707500.0 -0.010728836059570312 0.005308628082275391
374703000.0 -0.010227203369140625 0.006430625915527344
379698500.0 -0.009532451629638672 0.007590293884277344
384694000.0 -0.00872659683227539 0.008641719818115234
389689500.0 -0.0077991485595703125 0.009632110595703125
394685000.0 -0.0068111419677734375 0.010318756103515625
399680500.0 -0.005640506744384766 0.011052131652832031
404676000.0 -0.0045623779296875 0.011634349822998047
409671500.0 -0.0033278465270996094 0.012200355529785156
414667000.0 -0.0020241737365722656 0.012527942657470703
419662500.0 -0.0006594657897949219 0.012651920318603516
424658000.0 0.0006656646728515625 0.012798786163330078
429653500.0 0.002064228057861328 0.01273965835571289
434649000.0 0.0034532546997070312 0.01233053207397461
439644500.0 0.004775524139404297 0.012011528015136719
444640000.0 0.006073474884033203 0.011475086212158203
449635500.0 0.007082462310791016 0.01085662841796875
454631000.0 0.008231163024902344 0.010117530822753906
459626500.0 0.009298324584960938 0.009174823760986328
464622000.0 0.010344982147216797 0.00815582275390625
469617500.0 0.011112689971923828 0.007153987884521484
474613000.0 0.01186990737915039 0.00598907470703125
479608500.0 0.012474536895751953 0.004666805267333984
484604000.0 0.012889385223388672 0.0032663345336914062
489599500.0 0.013308525085449219 0.0019116401672363281
494595000.0 0.01352071762084961 0.00043201446533203125
499590500.0 0.013421058654785156 -0.0008258819580078125
504586000.0 0.013351917266845703 -0.0022096633911132812
509581500.0 0.013067245483398438 -0.0035233497619628906
514577000.0 0.012635231018066406 -0.004950523376464844
519572500.0 0.011997699737548828 -0.006328105926513672
524568000.0 0.01128530502319336 -0.007455348968505859
529563500.0 0.010530948638916016 -0.008547306060791016
534559000.0 0.009679317474365234 -0.009586811065673828
539554500.0 0.008724212646484375 -0.010530948638916016
544550000.0 0.00760650634765625 -0.011264801025390625
549545500.0 0.006453514099121094 -0.012089252471923828
554541000.0 0.005298614501953125 -0.012729167938232422
559536500.0 0.003939151763916016 -0.013295650482177734
564532000.0 0.002602100372314453 -0.01366567611694336
569527500.0 0.0011487007141113281 -0.013918399810791016
574523000.0 -0.00032901763916015625 -0.014068126678466797
579518500.0 -0.0017118453979492188 -0.014075279235839844
584514000.0 -0.0031137466430664062 -0.013854026794433594
589509500.0 -0.0044574737548828125 -0.013594627380371094
594505000.0 -0.005877971649169922 -0.013074398040771484
599500500.0 -0.007267475128173828 -0.012446880340576172
604496000.0 -0.008539199829101562 -0.011592864990234375
609491500.0 -0.009595394134521484 -0.010816574096679688
614487000.0 -0.010666370391845703 -0.009813308715820312
619482500.0 -0.011744499206542969 -0.008747577667236328
624478000.0 -0.012556076049804688 -0.007538318634033203
629473500.0 -0.013303756713867188 -0.006179332733154297
634469000.0 -0.01394796371459961 -0.0048847198486328125
639464500.0 -0.014407157897949219 -0.0035033226013183594
644460000.0 -0.014748096466064453 -0.0019860267639160156
649455500.0 -0.014829635620117188 -0.0004425048828125
654451000.0 -0.014876365661621094 0.0009717941284179688
659446500.0 -0.014641761779785156 0.002460479736328125
664442000.0 -0.014456748962402344 0.003998279571533203
669437500.0 -0.014033794403076172 0.005421638488769531
674433000.0 -0.013514995574951172 0.006776332855224609
679428500.0 -0.012758255004882812 0.008190631866455078
684424000.0 -0.011886119842529297 0.009379386901855469
689419500.0 -0.010867118835449219 0.010736942291259766
694415000.0 -0.009768962860107422 0.011668205261230469
699410500.0 -0.008717536926269531 0.012555599212646484
704406000.0 -0.007289886474609375 0.013441085815429688
709401500.0 -0.006039619445800781 0.014205455780029297
714397000.0 -0.00457763671875 0.014630317687988281
719392500.0 -0.0031232833862304688 0.015189647674560547
724388000.0 -0.0016207695007324219 0.01545095443725586
729383500.0 -2.765655517578125e-05 0.015584945678710938
734379000.0 0.0015282630920410156 0.01555776596069336
739374500.0 0.0030460357666015625 0.015327930450439453
744370000.0 0.004499912261962891 0.015045642852783203
749365500.0 0.006009101867675781 0.0145416259765625
754361000.0 0.0074062347412109375 0.013948440551757812
759356500.0 0.00881814956665039 0.013177871704101562
764352000.0 0.010143280029296875 0.012267589569091797
769347500.0 0.011241912841796875 0.011189937591552734
774343000.0 0.012389659881591797 0.01011037826538086
779338500.0 0.013309955596923828 0.00885009765625
784334000.0 0.01415109634399414 0.007605552673339844
789329500.0 0.014867305755615234 0.006123065948486328
794325000.0 0.015507221221923828 0.0046024322509765625
799320500.0 0.015900611877441406 0.0031080245971679688
804316000.0 0.01613903045654297 0.0016069412231445312
809311500.0 0.016300201416015625 5.245208740234375e-05
814307000.0 0.016219139099121094 -0.0015630722045898438
819302500.0 0.01602935791015625 -0.0032024383544921875
824298000.0 0.01581287384033203 -0.004803657531738281
829293500.0 0.015219688415527344 -0.006206989288330078
834289000.0 0.01454925537109375 -0.007678031921386719
839284500.0 0.01377105712890625 -0.009067058563232422
844280000.0 0.01348733901977539 -0.009900093078613281
849275500.0 0.01246786117553711 -0.01125192642211914
854271000.0 0.011385917663574219 -0.012367725372314453
859266500.0 0.010296344757080078 -0.013485908508300781
864262000.0 0.008891582489013672 -0.01452493667602539
869257500.0 0.007560253143310547 -0.015384197235107422
874253000.0 0.006094932556152344 -0.015982627868652344
879248500.0 0.004591941833496094 -0.016649246215820312
884244000.0 0.002971649169921875 -0.017055511474609375
889239500.0 0.0014514923095703125 -0.01731586456298828
894235000.0 -0.000274658203125 -0.017364501953125
899230500.0 -0.0018463134765625 -0.017480850219726562
904226000.0 -0.0035877227783203125 -0.017328262329101562
909221500.0 -0.005257606506347656 -0.01692676544189453
914217000.0 -0.0069122314453125 -0.016531944274902344
919212500.0 -0.008378982543945312 -0.01600933074951172
924208000.0 -0.010128974914550781 -0.015209674835205078
929203500.0 -0.011573314666748047 -0.014049530029296875
934199000.0 -0.012925148010253906 -0.01300048828125
939194500.0 -0.014204025268554688 -0.011818885803222656
944190000.0 -0.015302658081054688 -0.010441780090332031
949185500.0 -0.01639556884765625 -0.008970260620117188
954181000.0 -0.017221450805664062 -0.0073909759521484375
959176500.0 -0.017986297607421875 -0.005648612976074219
964172000.0 -0.018563270568847656 -0.00396728515625
969167500.0 -0.018964767456054688 -0.0021800994873046875
974163000.0 -0.019189834594726562 -0.0002880096435546875
979158500.0 -0.01907634735107422 0.0015048980712890625
984154000.0 -0.019028663635253906 0.0034952163696289062
989149500.0 -0.018621444702148438 0.0052127838134765625
994145000.0 -0.018239974975585938 0.007119178771972656
999140500.0 -0.017589569091796875 0.008839607238769531
1004136000.0 -0.01665782928466797 0.010686874389648438
1009131500.0 -0.015755653381347656 0.012242317199707031
1014127000.0 -0.014568328857421875 0.013723373413085938
1019122500.0 -0.013159751892089844 0.015265941619873047
1024118000.0 -0.011746406555175781 0.016498565673828125
1029113500.0 -0.010090827941894531 0.017675399780273438
1034109000.0 -0.008266448974609375 0.018663406372070312
1039104500.0 -0.0066165924072265625 0.01948070526123047
1044100000.0 -0.004691123962402344 0.020128250122070312
1049095500.0 -0.002750396728515625 0.020557403564453125
1054091000.0 -0.0006694793701171875 0.02093982696533203
1059086500.0 0.0014581680297851562 0.020994186401367188
1064082000.0 0.0035400390625 0.021019935607910156
1069077500.0 0.005406379699707031 0.02052783966064453
1074073000.0 0.0075225830078125 0.020020484924316406
1079068500.0 0.009401321411132812 0.019257545471191406
1084064000.0 0.011474609375 0.018388748168945312
1089059500.0 0.013162612915039062 0.017296791076660156
1094055000.0 0.014850616455078125 0.016101837158203125
1099050500.0 0.016569137573242188 0.014513969421386719
1104046000.0 0.01790618896484375 0.012978553771972656
1109041500.0 0.01916027069091797 0.0112457275390625
1114037000.0 0.020368576049804688 0.009248733520507812
1119032500.0 0.02131366729736328 0.007256507873535156
1124028000.0 0.021997451782226562 0.005166053771972656
1129023500.0 0.022554397583007812 0.0030450820922851562
1134019000.0 0.022844314575195312 0.0008134841918945312
1139014500.0 0.022833824157714844 -0.0014286041259765625
1144010000.0 0.022829055786132812 -0.0036859512329101562
1149005500.0 0.022398948669433594 -0.005950927734375
1154001000.0 0.02175617218017578 -0.008235931396484375
1158996500.0 0.021010398864746094 -0.010309219360351562
1163992000.0 0.01999187469482422 -0.012393951416015625
1168987500.0 0.018744468688964844 -0.014378547668457031
1173983000.0 0.017303466796875 -0.016195297241210938
1178978500.0 0.0157318115234375 -0.017810821533203125
1183974000.0 0.013927459716796875 -0.019530296325683594
1188969500.0 0.012059211730957031 -0.02072620391845703
1193965000.0 0.00989532470703125 -0.021965980529785156
1198960500.0 0.007848739624023438 -0.022979736328125
1203956000.0 0.0055370330810546875 -0.02381420135498047
1208951500.0 0.003170013427734375 -0.024305343627929688
1213947000.0 0.000858306884765625 -0.024542808532714844
1218942500.0 -0.001697540283203125 -0.02462482452392578
1223938000.0 -0.004016876220703125 -0.024489402770996094
1228933500.0 -0.006458282470703125 -0.02408885955810547
1233929000.0 -0.00884246826171875 -0.0234527587890625
1238924500.0 -0.011141777038574219 -0.02254486083984375
1243920000.0 -0.013392448425292969 -0.021478652954101562
1248915500.0 -0.015460968017578125 -0.020087242126464844
1253911000.0 -0.01736927032470703 -0.018581390380859375
1258906500.0 -0.019204139709472656 -0.017004966735839844
1263902000.0 -0.02086639404296875 -0.015187263488769531
1268897500.0 -0.022261619567871094 -0.012923240661621094
1273893000.0 -0.023728370666503906 -0.010896682739257812
1278888500.0 -0.024702072143554688 -0.008658409118652344
1283884000.0 -0.025697708129882812 -0.006114959716796875
1288879500.0 -0.026329994201660156 -0.003631591796875
1293875000.0 -0.026665687561035156 -0.0010013580322265625
1298870500.0 -0.02665996551513672 0.0016641616821289062
1303866000.0 -0.026561737060546875 0.004385948181152344
1308861500.0 -0.026182174682617188 0.007019996643066406
1313857000.0 -0.025419235229492188 0.009444236755371094
1318852500.0 -0.024600982666015625 0.012017250061035156
1323848000.0 -0.023369789123535156 0.014513969421386719
1328843500.0 -0.021999359130859375 0.016882896423339844
1333839000.0 -0.020183563232421875 0.01906585693359375
1338834500.0 -0.018401145935058594 0.021015167236328125
1343830000.0 -0.016129493713378906 0.022907257080078125
1348825500.0 -0.013934135437011719 0.024591445922851562
1353821000.0 -0.011545181274414062 0.025877952575683594
1358816500.0 -0.008900642395019531 0.027050018310546875
1363812000.0 -0.006157875061035156 0.02793598175048828
1368807500.0 -0.0033359527587890625 0.028472900390625
1373803000.0 -0.0004987716674804688 0.028760910034179688
1378798500.0 0.0023603439331054688 0.0288848876953125
1383794000.0 0.005314826965332031 0.028675079345703125
1388789500.0 0.008187294006347656 0.028171539306640625
1393785000.0 0.011042594909667969 0.027276992797851562
1398780500.0 0.013629913330078125 0.026182174682617188
1403776000.0 0.01641368865966797 0.024745941162109375
1408771500.0 0.01876354217529297 0.023032188415527344
1413767000.0 0.020967483520507812 0.021100997924804688
1418762500.0 0.023097991943359375 0.01894855499267578
1423758000.0 0.025099754333496094 0.01663684844970703
1428753500.0 0.02674102783203125 0.01410675048828125
1433749000.0 0.028079986572265625 0.011394500732421875
1438744500.0 0.029207229614257812 0.0086517333984375
1443740000.0 0.030045509338378906 0.005610466003417969
1448735500.0 0.030508995056152344 0.0025205612182617188
1453731000.0 0.03074169158935547 -0.0005636215209960938
1458726500.0 0.03061199188232422 -0.0035409927368164062
1463722000.0 0.030244827270507812 -0.006718635559082031
1468717500.0 0.029348373413085938 -0.009709358215332031
1473713000.0 0.02835369110107422 -0.012688636779785156
1478708500.0 0.027077674865722656 -0.015351295471191406
1483704000.0 0.025453567504882812 -0.01813220977783203
1488699500.0 0.023712158203125 -0.020689964294433594
1493695000.0 0.02142810821533203 -0.023001670837402344
1498690500.0 0.01910114288330078 -0.024970054626464844
1503686000.0 0.016513824462890625 -0.026952743530273438
1508681500.0 0.013777732849121094 -0.02855682373046875
1513677000.0 0.010868072509765625 -0.029754638671875
1518672500.0 0.007863044738769531 -0.030748367309570312
1523668000.0 0.0046939849853515625 -0.0313873291015625
1528663500.0 0.001567840576171875 -0.031818389892578125
1533659000.0 -0.0016765594482421875 -0.03191566467285156
1538654500.0 -0.0048618316650390625 -0.03158378601074219
1543650000.0 -0.008052825927734375 -0.031003952026367188
1548645500.0 -0.01111602783203125 -0.030096054077148438
1553641000.0 -0.013986587524414062 -0.028967857360839844
1558636500.0 -0.016794204711914062 -0.027536392211914062
1563632000.0 -0.019552230834960938 -0.02570343017578125
1568627500.0 -0.02200794219970703 -0.0235137939453125
1573623000.0 -0.024224281311035156 -0.02133941650390625
1578618500.0 -0.026274681091308594 -0.01876544952392578
1583614000.0 -0.02796649932861328 -0.016187667846679688
1588609500.0 -0.029508590698242188 -0.013311386108398438
1593605000.0 -0.030755043029785156 -0.010288238525390625
1598600500.0 -0.03159332275390625 -0.007251739501953125
1603596000.0 -0.032146453857421875 -0.0040988922119140625
1608591500.0 -0.03235816955566406 -0.000812530517578125
1613587000.0 -0.032314300537109375 0.002288818359375
1618582500.0 -0.03197288513183594 0.00547027587890625
1623578000.0 -0.03130912780761719 0.008562088012695312
1628573500.0 -0.03037261962890625 0.01165008544921875
1633569000.0 -0.029254913330078125 0.01457977294921875
1638564500.0 -0.027524948120117188 0.017375946044921875
1643560000.0 -0.025778770446777344 0.02007293701171875
1648555500.0 -0.02377796173095703 0.02246856689453125
1653551000.0 -0.021436691284179688 0.024758338928222656
1658546500.0 -0.01893138885498047 0.026679039001464844
1663542000.0 -0.016231536865234375 0.028522491455078125
1668537500.0 -0.013421058654785156 0.030002593994140625
1673533000.0 -0.010447502136230469 0.031177520751953125
1678528500.0 -0.0073528289794921875 0.03219795227050781
1683524000.0 -0.0041599273681640625 0.03277778625488281
1688519500.0 -0.0008449554443359375 0.03314971923828125
1693515000.0 0.0024356842041015625 0.033176422119140625
1698510500.0 0.0056171417236328125 0.0327911376953125
1703506000.0 0.0089111328125 0.032115936279296875
1708501500.0 0.012018203735351562 0.031172752380371094
1713497000.0 0.015117645263671875 0.02988719940185547
1718492500.0 0.017908096313476562 0.028249740600585938
1723488000.0 0.02073192596435547 0.026452064514160156
1728483500.0 0.023202896118164062 0.024405479431152344
1733479000.0 0.025590896606445312 0.0218353271484375
1738474500.0 0.027622222900390625 0.019205093383789062
1743470000.0 0.02937793731689453 0.016353607177734375
1748465500.0 0.030963897705078125 0.013460159301757812
1753461000.0 0.032253265380859375 0.0103302001953125
1758456500.0 0.03308677673339844 0.00705718994140625
1763452000.0 0.03360939025878906 0.00372314453125
1768447500.0 0.03386878967285156 0.000385284423828125
1773443000.0 0.033847808837890625 -0.0030155181884765625
1778438500.0 0.03333091735839844 -0.006298065185546875
1783434000.0 0.032558441162109375 -0.009557723999023438
1788429500.0 0.03150749206542969 -0.01275634765625
1793425000.0 0.030132293701171875 -0.01582050323486328
1798420500.0 0.028349876403808594 -0.018645286560058594
1803416000.0 0.026407241821289062 -0.021422386169433594
1808411500.0 0.024025917053222656 -0.023921966552734375
1813407000.0 0.021658897399902344 -0.026152610778808594
1818402500.0 0.018996238708496094 -0.02823638916015625
1823398000.0 0.016050338745117188 -0.030005455017089844
1828393500.0 0.013097763061523438 -0.031467437744140625
1833389000.0 0.00983428955078125 -0.03252220153808594
1838384500.0 0.0065784454345703125 -0.03332710266113281
1843380000.0 0.0032329559326171875 -0.03388023376464844
