!Created with skrf (http://scikit-rf.org).
# Hz S RI R 50.0 
!freq ReS11 ImS11
45000000.0 -0.003867626190185547 -0.0008037090301513672
49995500.0 -0.004137992858886719 -0.0003504753112792969
54991000.0 -0.0043599605560302734 0.00020813941955566406
59986500.0 -0.004622459411621094 0.0005478858947753906
64982000.0 -0.0047605037689208984 0.0011150836944580078
69977500.0 -0.004740476608276367 0.0017507076263427734
74973000.0 -0.0046999454498291016 0.0023157596588134766
79968500.0 -0.004659175872802734 0.002853870391845703
84964000.0 -0.004282474517822266 0.0036046504974365234
89959500.0 -0.004112958908081055 0.0041027069091796875
94955000.0 -0.003688335418701172 0.004593849182128906
99950500.0 -0.003163576126098633 0.005311012268066406
104946000.0 -0.0025603771209716797 0.005688667297363281
109941500.0 -0.001972675323486328 0.006064414978027344
114937000.0 -0.0011954307556152344 0.0063784122467041016
119932500.0 -0.0004894733428955078 0.00661468505859375
124928000.0 0.00023245811462402344 0.006636857986450195
129923500.0 0.001035928726196289 0.00666499137878418
134919000.0 0.0019023418426513672 0.006635189056396484
139914500.0 0.002683401107788086 0.006371021270751953
144910000.0 0.0034601688385009766 0.0060541629791259766
149905500.0 0.0042383670806884766 0.005658864974975586
154901000.0 0.004851579666137695 0.005266904830932617
159896500.0 0.0054607391357421875 0.004682064056396484
164892000.0 0.005993843078613281 0.004120588302612305
169887500.0 0.006463050842285156 0.003509998321533203
174883000.0 0.0068438053131103516 0.0027196407318115234
179878500.0 0.007046699523925781 0.001983165740966797
184874000.0 0.007329463958740234 0.0011217594146728516
189869500.0 0.007463932037353516 0.00028514862060546875
194865000.0 0.007547855377197266 -0.0004520416259765625
199860500.0 0.007489681243896484 -0.0013117790222167969
204856000.0 0.007322788238525391 -0.0021393299102783203
209851500.0 0.007063388824462891 -0.002924203872680664
214847000.0 0.0067026615142822266 -0.003690958023071289
219842500.0 0.006373882293701172 -0.004377841949462891
224838000.0 0.005859851837158203 -0.0050563812255859375
229833500.0 0.0052661895751953125 -0.005718708038330078
234829000.0 0.004628419876098633 -0.006188392639160156
239824500.0 0.004000186920166016 -0.00670623779296875
244820000.0 0.0033714771270751953 -0.0071146488189697266
249815500.0 0.0025866031646728516 -0.007483720779418945
254811000.0 0.0021250247955322266 -0.007700204849243164
259806500.0 0.0012392997741699219 -0.007827281951904297
264802000.0 0.000614166259765625 -0.007977962493896484
269797500.0 -0.00031185150146484375 -0.008060932159423828
274793000.0 -0.0010924339294433594 -0.007964134216308594
279788500.0 -0.0018286705017089844 -0.007923603057861328
284784000.0 -0.0026717185974121094 -0.007833003997802734
289779500.0 -0.003514528274536133 -0.0073812007904052734
294775000.0 -0.004202604293823242 -0.007073879241943359
299770500.0 -0.004847049713134766 -0.006688833236694336
304766000.0 -0.005494594573974609 -0.006207942962646484
309761500.0 -0.006142854690551758 -0.005744457244873047
314757000.0 -0.0068323612213134766 -0.0049936771392822266
319752500.0 -0.007195711135864258 -0.004393577575683594
324748000.0 -0.007575035095214844 -0.0036368370056152344
329743500.0 -0.007898807525634766 -0.00281524658203125
334739000.0 -0.008296489715576172 -0.0021157264709472656
339734500.0 -0.008379459381103516 -0.0012555122375488281
344730000.0 -0.008544921875 -0.0004405975341796875
349725500.0 -0.008561134338378906 0.0003657341003417969
354721000.0 -0.008560657501220703 0.0012497901916503906
359716500.0 -0.008343219757080078 0.0021209716796875
364712000.0 -0.00823974609375 0.0029048919677734375
369707500.0 -0.00783681869506836 0.0037517547607421875
374703000.0 -0.007525205612182617 0.0044307708740234375
379698500.0 -0.007150888442993164 0.005238771438598633
384694000.0 -0.006620168685913086 0.005951881408691406
389689500.0 -0.005991935729980469 0.00667119026184082
394685000.0 -0.005384683609008789 0.007203817367553711
399680500.0 -0.0046443939208984375 0.007752418518066406
404676000.0 -0.003940582275390625 0.008069038391113281
409671500.0 -0.0031676292419433594 0.008610248565673828
414667000.0 -0.0024170875549316406 0.008962154388427734
419662500.0 -0.0014214515686035156 0.009140491485595703
424658000.0 -0.0004887580871582031 0.009420394897460938
429653500.0 0.00042057037353515625 0.009356498718261719
434649000.0 0.001384735107421875 0.009307384490966797
439644500.0 0.002326488494873047 0.009267330169677734
444640000.0 0.0031762123107910156 0.008992195129394531
449635500.0 0.004072666168212891 0.00863027572631836
454631000.0 0.005006313323974609 0.008373737335205078
459626500.0 0.005854129791259766 0.007970809936523438
464622000.0 0.006571531295776367 0.0073854923248291016
469617500.0 0.007405281066894531 0.006758689880371094
474613000.0 0.00806427001953125 0.006042003631591797
479608500.0 0.00871419906616211 0.005278110504150391
484604000.0 0.0092620849609375 0.004293918609619141
489599500.0 0.009594440460205078 0.0036067962646484375
494595000.0 0.010048866271972656 0.002574443817138672
499590500.0 0.010375499725341797 0.0015788078308105469
504586000.0 0.010517120361328125 0.0005807876586914062
509581500.0 0.010530471801757812 -0.0004930496215820312
514577000.0 0.010561943054199219 -0.0015473365783691406
519572500.0 0.01039886474609375 -0.002513408660888672
524568000.0 0.010196208953857422 -0.003615856170654297
529563500.0 0.009884357452392578 -0.004532814025878906
534559000.0 0.009453773498535156 -0.0055942535400390625
539554500.0 0.008907318115234375 -0.006438732147216797
544550000.0 0.008293628692626953 -0.007473945617675781
549545500.0 0.007656574249267578 -0.008278369903564453
554541000.0 0.006846427917480469 -0.009002208709716797
559536500.0 0.006112575531005859 -0.00974893569946289
564532000.0 0.005175590515136719 -0.010544300079345703
569527500.0 0.004103183746337891 -0.011015892028808594
574523000.0 0.00307464599609375 -0.011469841003417969
579518500.0 0.0019383430480957031 -0.011933326721191406
584514000.0 0.0007495880126953125 -0.012105941772460938
589509500.0 -0.000396728515625 -0.012253761291503906
594505000.0 -0.0017962455749511719 -0.01239776611328125
599500500.0 -0.003001689910888672 -0.01222372055053711
604496000.0 -0.004197597503662109 -0.011997222900390625
609491500.0 -0.005415439605712891 -0.011730194091796875
614487000.0 -0.006613731384277344 -0.011216163635253906
619482500.0 -0.0077762603759765625 -0.010544776916503906
624478000.0 -0.008861064910888672 -0.009787559509277344
629473500.0 -0.009980201721191406 -0.008892536163330078
634469000.0 -0.010794639587402344 -0.008005142211914062
639464500.0 -0.011698722839355469 -0.0068874359130859375
644460000.0 -0.012531757354736328 -0.005821704864501953
649455500.0 -0.01312398910522461 -0.004562854766845703
654451000.0 -0.01359415054321289 -0.0032601356506347656
659446500.0 -0.013994216918945312 -0.0018792152404785156
664442000.0 -0.014264106750488281 -0.00041961669921875
669437500.0 -0.014367103576660156 0.0010704994201660156
674433000.0 -0.014408588409423828 0.002521991729736328
679428500.0 -0.014184951782226562 0.003883838653564453
684424000.0 -0.013818740844726562 0.005402088165283203
689419500.0 -0.013317584991455078 0.006803035736083984
694415000.0 -0.01263284683227539 0.00814676284790039
699410500.0 -0.011909961700439453 0.009531974792480469
704406000.0 -0.01083230972290039 0.010671138763427734
709401500.0 -0.009922504425048828 0.011946678161621094
714397000.0 -0.00882863998413086 0.01296234130859375
719392500.0 -0.007475852966308594 0.01387929916381836
724388000.0 -0.006124019622802734 0.01459646224975586
729383500.0 -0.004696369171142578 0.015264034271240234
734379000.0 -0.003093719482421875 0.0157928466796875
739374500.0 -0.0015554428100585938 0.016103744506835938
744370000.0 0.00015163421630859375 0.016460418701171875
749365500.0 0.0017595291137695312 0.016366958618164062
754361000.0 0.0034990310668945312 0.01629352569580078
759356500.0 0.005154609680175781 0.015954971313476562
764352000.0 0.0067539215087890625 0.015496253967285156
769347500.0 0.008390426635742188 0.014770030975341797
774343000.0 0.009813785552978516 0.014117717742919922
779338500.0 0.011316776275634766 0.013116836547851562
784334000.0 0.012642383575439453 0.0120086669921875
789329500.0 0.013991355895996094 0.010770320892333984
794325000.0 0.015122413635253906 0.009328842163085938
799320500.0 0.016020774841308594 0.0078277587890625
804316000.0 0.016901016235351562 0.0063076019287109375
809311500.0 0.01760101318359375 0.0045642852783203125
814307000.0 0.018118858337402344 0.0027551651000976562
819302500.0 0.018297195434570312 0.0010099411010742188
824298000.0 0.018487930297851562 -0.000820159912109375
829293500.0 0.018421173095703125 -0.0027265548706054688
834289000.0 0.018199920654296875 -0.00458526611328125
839284500.0 0.01774120330810547 -0.006453514099121094
844280000.0 0.017602920532226562 -0.007468223571777344
849275500.0 0.016901016235351562 -0.009264945983886719
854271000.0 0.015923500061035156 -0.011034011840820312
859266500.0 0.015042781829833984 -0.012706756591796875
864262000.0 0.013779163360595703 -0.01412820816040039
869257500.0 0.01235818862915039 -0.015528678894042969
874253000.0 0.010827064514160156 -0.01682567596435547
879248500.0 0.009176254272460938 -0.017835617065429688
884244000.0 0.00748443603515625 -0.018802642822265625
889239500.0 0.00563812255859375 -0.01955890655517578
894235000.0 0.0037403106689453125 -0.02040576934814453
899230500.0 0.0016279220581054688 -0.020650863647460938
904226000.0 -0.00026416778564453125 -0.02089214324951172
909221500.0 -0.0024967193603515625 -0.021051406860351562
914217000.0 -0.0045604705810546875 -0.02084827423095703
919212500.0 -0.006770133972167969 -0.02043914794921875
924208000.0 -0.008801460266113281 -0.019775390625
929203500.0 -0.010843276977539062 -0.019087791442871094
934199000.0 -0.012763023376464844 -0.01790332794189453
939194500.0 -0.014589309692382812 -0.016719818115234375
944190000.0 -0.01630401611328125 -0.015239715576171875
949185500.0 -0.01797771453857422 -0.013682365417480469
954181000.0 -0.01933574676513672 -0.011860847473144531
959176500.0 -0.02064228057861328 -0.009934425354003906
964172000.0 -0.021703720092773438 -0.007925987243652344
969167500.0 -0.022573471069335938 -0.005612373352050781
974163000.0 -0.02304553985595703 -0.0034351348876953125
979158500.0 -0.023407936096191406 -0.00099945068359375
984154000.0 -0.023641586303710938 0.0014057159423828125
989149500.0 -0.023476600646972656 0.0038728713989257812
994145000.0 -0.02324390411376953 0.006031036376953125
999140500.0 -0.02266407012939453 0.008488655090332031
1004136000.0 -0.02173614501953125 0.010752677917480469
1009131500.0 -0.02069377899169922 0.012949943542480469
1014127000.0 -0.019463539123535156 0.015218734741210938
1019122500.0 -0.01784992218017578 0.017142295837402344
1024118000.0 -0.01610851287841797 0.018980979919433594
1029113500.0 -0.014184951782226562 0.020574569702148438
1034109000.0 -0.012192726135253906 0.022009849548339844
1039104500.0 -0.010015487670898438 0.023215293884277344
1044100000.0 -0.007610321044921875 0.02443408966064453
1049095500.0 -0.00513458251953125 0.025127410888671875
1054091000.0 -0.00254058837890625 0.025694847106933594
1059086500.0 2.86102294921875e-05 0.025899887084960938
1064082000.0 0.00263214111328125 0.02593231201171875
1069077500.0 0.0052547454833984375 0.025648117065429688
1074073000.0 0.007933616638183594 0.025162696838378906
1079068500.0 0.010594367980957031 0.02423095703125
1084064000.0 0.012967109680175781 0.023230552673339844
1089059500.0 0.01535797119140625 0.022024154663085938
1094055000.0 0.017604827880859375 0.0203704833984375
1099050500.0 0.019631385803222656 0.0185546875
1104046000.0 0.021493911743164062 0.016541481018066406
1109041500.0 0.02322864532470703 0.014405250549316406
1114037000.0 0.02473735809326172 0.011905670166015625
1119032500.0 0.025885581970214844 0.009535789489746094
1124028000.0 0.0269012451171875 0.006842613220214844
1129023500.0 0.027521133422851562 0.004118919372558594
1134019000.0 0.027892112731933594 0.0013303756713867188
1139014500.0 0.028024673461914062 -0.0014753341674804688
1144010000.0 0.027825355529785156 -0.0044097900390625
1149005500.0 0.027426719665527344 -0.007285118103027344
1154001000.0 0.026632308959960938 -0.010005950927734375
1158996500.0 0.025547027587890625 -0.012612342834472656
1163992000.0 0.024214744567871094 -0.015234947204589844
1168987500.0 0.022579193115234375 -0.017641067504882812
1173983000.0 0.020807266235351562 -0.01995372772216797
1178978500.0 0.018709182739257812 -0.02203845977783203
1183974000.0 0.016387939453125 -0.023819923400878906
1188969500.0 0.014000892639160156 -0.025554656982421875
1193965000.0 0.011439323425292969 -0.026849746704101562
1198960500.0 0.008641242980957031 -0.028014183044433594
1203956000.0 0.005791664123535156 -0.028827667236328125
1208951500.0 0.002834320068359375 -0.029249191284179688
1213947000.0 -4.38690185546875e-05 -0.029541015625
1218942500.0 -0.0031080245971679688 -0.029443740844726562
1223938000.0 -0.005955696105957031 -0.028993606567382812
1228933500.0 -0.008899688720703125 -0.028372764587402344
1233929000.0 -0.011857986450195312 -0.02753162384033203
1238924500.0 -0.01457977294921875 -0.026266098022460938
1243920000.0 -0.017122268676757812 -0.024680137634277344
1248915500.0 -0.019557952880859375 -0.022942543029785156
1253911000.0 -0.021841049194335938 -0.020982742309570312
1258906500.0 -0.02394866943359375 -0.018787384033203125
1263902000.0 -0.025793075561523438 -0.016429901123046875
1268897500.0 -0.027341842651367188 -0.013785362243652344
1273893000.0 -0.028702735900878906 -0.011040687561035156
1278888500.0 -0.02975940704345703 -0.008207321166992188
1283884000.0 -0.03058147430419922 -0.0051326751708984375
1288879500.0 -0.031110763549804688 -0.0020751953125
1293875000.0 -0.03118133544921875 0.0009965896606445312
1298870500.0 -0.031080245971679688 0.004162788391113281
1303866000.0 -0.030559539794921875 0.007304191589355469
1308861500.0 -0.02976226806640625 0.010310173034667969
1313857000.0 -0.02867603302001953 0.0133056640625
1318852500.0 -0.027230262756347656 0.01621723175048828
1323848000.0 -0.02553558349609375 0.018947601318359375
1328843500.0 -0.023703575134277344 0.021668434143066406
1333839000.0 -0.02141094207763672 0.023804664611816406
1338834500.0 -0.019018173217773438 0.026083946228027344
1343830000.0 -0.016294479370117188 0.027912139892578125
1348825500.0 -0.013487815856933594 0.029524803161621094
1353821000.0 -0.010393142700195312 0.030786514282226562
1358816500.0 -0.0072956085205078125 0.03175544738769531
1363812000.0 -0.0040454864501953125 0.032527923583984375
1368807500.0 -0.0007190704345703125 0.03275871276855469
1373803000.0 0.0026416778564453125 0.03281974792480469
1378798500.0 0.00591278076171875 0.03235816955566406
1383794000.0 0.009157180786132812 0.03183937072753906
1388789500.0 0.012386322021484375 0.030832290649414062
1393785000.0 0.015398979187011719 0.02937793731689453
1398780500.0 0.01854228973388672 0.02776050567626953
1403776000.0 0.021172523498535156 0.025785446166992188
1408771500.0 0.023756027221679688 0.02350902557373047
1413767000.0 0.026174545288085938 0.021010398864746094
1418762500.0 0.028061866760253906 0.018360137939453125
1423758000.0 0.029952049255371094 0.015445709228515625
1428753500.0 0.031341552734375 0.012437820434570312
1433749000.0 0.03252601623535156 0.009122848510742188
1438744500.0 0.033306121826171875 0.00579071044921875
1443740000.0 0.0337677001953125 0.002429962158203125
1448735500.0 0.03389739990234375 -0.0009670257568359375
1453731000.0 0.033660888671875 -0.004398345947265625
1458726500.0 0.0330963134765625 -0.007843017578125
1463722000.0 0.03224372863769531 -0.011226654052734375
1468717500.0 0.030864715576171875 -0.014353752136230469
1473713000.0 0.02939128875732422 -0.017508506774902344
1478708500.0 0.027441978454589844 -0.02030467987060547
1483704000.0 0.025252342224121094 -0.022970199584960938
1488699500.0 0.02275562286376953 -0.02546405792236328
1493695000.0 0.020191192626953125 -0.027721405029296875
1498690500.0 0.017253875732421875 -0.02963733673095703
1503686000.0 0.014217376708984375 -0.03126335144042969
1508681500.0 0.011022567749023438 -0.03244590759277344
1513677000.0 0.0077495574951171875 -0.033367156982421875
1518672500.0 0.0043125152587890625 -0.034015655517578125
1523668000.0 0.00083160400390625 -0.034358978271484375
1528663500.0 -0.002620697021484375 -0.03428077697753906
1533659000.0 -0.006168365478515625 -0.033794403076171875
1538654500.0 -0.009435653686523438 -0.03306007385253906
1543650000.0 -0.01276397705078125 -0.03195762634277344
1548645500.0 -0.01579761505126953 -0.030427932739257812
1553641000.0 -0.01873779296875 -0.028680801391601562
1558636500.0 -0.021620750427246094 -0.026662826538085938
1563632000.0 -0.02408885955810547 -0.024370193481445312
1568627500.0 -0.026442527770996094 -0.02185535430908203
1573623000.0 -0.028459548950195312 -0.019079208374023438
1578618500.0 -0.030229568481445312 -0.016027450561523438
1583614000.0 -0.031543731689453125 -0.012905120849609375
1588609500.0 -0.03270912170410156 -0.009754180908203125
1593605000.0 -0.03364372253417969 -0.0064792633056640625
1598600500.0 -0.03389739990234375 -0.003093719482421875
1603596000.0 -0.034027099609375 0.000232696533203125
1608591500.0 -0.03375244140625 0.0036144256591796875
1613587000.0 -0.033237457275390625 0.006908416748046875
1618582500.0 -0.03235435485839844 0.010156631469726562
1623578000.0 -0.031177520751953125 0.013349533081054688
1628573500.0 -0.029756546020507812 0.01629924774169922
1633569000.0 -0.02785778045654297 0.019044876098632812
1638564500.0 -0.02583789825439453 0.02176666259765625
1643560000.0 -0.023659706115722656 0.02402019500732422
1648555500.0 -0.02112102508544922 0.026288986206054688
1653551000.0 -0.01849079132080078 0.028331756591796875
1658546500.0 -0.01564502716064453 0.02989959716796875
1663542000.0 -0.0126190185546875 0.031307220458984375
1668537500.0 -0.009492874145507812 0.03245353698730469
1673533000.0 -0.0062198638916015625 0.03319549560546875
1678528500.0 -0.002979278564453125 0.033596038818359375
1683524000.0 0.0003719329833984375 0.033748626708984375
1688519500.0 0.003662109375 0.03352546691894531
1693515000.0 0.007030487060546875 0.0330047607421875
1698510500.0 0.010175704956054688 0.032253265380859375
1703506000.0 0.013363838195800781 0.03107166290283203
1708501500.0 0.01623821258544922 0.02971363067626953
1713497000.0 0.01910877227783203 0.027845382690429688
1718492500.0 0.021793365478515625 0.025865554809570312
1723488000.0 0.024262428283691406 0.023438453674316406
1728483500.0 0.026538848876953125 0.02105712890625
1733479000.0 0.028417587280273438 0.018248558044433594
1738474500.0 0.0300750732421875 0.01531219482421875
1743470000.0 0.03153419494628906 0.012304306030273438
1748465500.0 0.032440185546875 0.009141921997070312
1753461000.0 0.033176422119140625 0.005985260009765625
1758456500.0 0.033672332763671875 0.002460479736328125
1763452000.0 0.03365325927734375 -0.0007495880126953125
1768447500.0 0.033412933349609375 -0.0040683746337890625
1773443000.0 0.032840728759765625 -0.007328033447265625
1778438500.0 0.031932830810546875 -0.010499954223632812
1783434000.0 0.030538558959960938 -0.013599395751953125
1788429500.0 0.029084205627441406 -0.016571998596191406
1793425000.0 0.027410507202148438 -0.019390106201171875
1798420500.0 0.025190353393554688 -0.02197265625
1803416000.0 0.022928237915039062 -0.024367332458496094
1808411500.0 0.020387649536132812 -0.026505470275878906
1813407000.0 0.017597198486328125 -0.028263092041015625
1818402500.0 0.014765739440917969 -0.02973651885986328
1823398000.0 0.011686325073242188 -0.031045913696289062
1828393500.0 0.0085906982421875 -0.031955718994140625
1833389000.0 0.005359649658203125 -0.03266143798828125
1838384500.0 0.0021533966064453125 -0.03301239013671875
1843380000.0 -0.0011119842529296875 -0.03289985656738281
