!Created with skrf (http://scikit-rf.org).
# Hz S RI R 50.0 
!freq ReS11 ImS11
45000000.0 -0.0038846731185913086 -0.0007814168930053711
49995500.0 -0.004199028015136719 -0.0002923011779785156
54991000.0 -0.004410743713378906 0.0002570152282714844
59986500.0 -0.004663705825805664 0.0006191730499267578
64982000.0 -0.004804849624633789 0.001199960708618164
69977500.0 -0.004853010177612305 0.0017848014831542969
74973000.0 -0.0047817230224609375 0.0025243759155273438
79968500.0 -0.004619121551513672 0.0030837059020996094
84964000.0 -0.00432133674621582 0.003681182861328125
89959500.0 -0.004045963287353516 0.004347801208496094
94955000.0 -0.0036499500274658203 0.00482487678527832
99950500.0 -0.003023862838745117 0.005511283874511719
104946000.0 -0.0024480819702148438 0.0059506893157958984
109941500.0 -0.0016677379608154297 0.006267070770263672
114937000.0 -0.0009570121765136719 0.006678581237792969
119932500.0 -0.00011587142944335938 0.0067217350006103516
124928000.0 0.0006315708160400391 0.0067903995513916016
129923500.0 0.0015268325805664062 0.0067272186279296875
134919000.0 0.002340555191040039 0.00651860237121582
139914500.0 0.003108501434326172 0.006323575973510742
144910000.0 0.003958702087402344 0.005764484405517578
149905500.0 0.004654645919799805 0.005373239517211914
154901000.0 0.0052263736724853516 0.0048677921295166016
159896500.0 0.005780458450317383 0.004275083541870117
164892000.0 0.0063266754150390625 0.0034971237182617188
169887500.0 0.0066258907318115234 0.0027260780334472656
174883000.0 0.006993770599365234 0.0020253658294677734
179878500.0 0.007236003875732422 0.0012352466583251953
184874000.0 0.007290363311767578 0.00040650367736816406
189869500.0 0.007151365280151367 -0.00038552284240722656
194865000.0 0.007253170013427734 -0.0012514591217041016
199860500.0 0.006958961486816406 -0.001986980438232422
204856000.0 0.006758451461791992 -0.0027420520782470703
209851500.0 0.0063707828521728516 -0.003450155258178711
214847000.0 0.0060083866119384766 -0.004078388214111328
219842500.0 0.005525827407836914 -0.0046710968017578125
224838000.0 0.004948854446411133 -0.00516510009765625
229833500.0 0.004385948181152344 -0.0056803226470947266
234829000.0 0.0037555694580078125 -0.0060846805572509766
239824500.0 0.003087759017944336 -0.006433248519897461
244820000.0 0.0024225711822509766 -0.006696939468383789
249815500.0 0.0017545223236083984 -0.0069391727447509766
254811000.0 0.0013508796691894531 -0.006963253021240234
259806500.0 0.0006613731384277344 -0.007073640823364258
264802000.0 -4.8160552978515625e-05 -0.0070896148681640625
269797500.0 -0.0006859302520751953 -0.007114887237548828
274793000.0 -0.0013642311096191406 -0.006993532180786133
279788500.0 -0.0019931793212890625 -0.006871938705444336
284784000.0 -0.002633810043334961 -0.006571292877197266
289779500.0 -0.003168344497680664 -0.0062944889068603516
294775000.0 -0.0037789344787597656 -0.005974531173706055
299770500.0 -0.004262447357177734 -0.005684375762939453
304766000.0 -0.0048677921295166016 -0.005228757858276367
309761500.0 -0.0053555965423583984 -0.004816770553588867
314757000.0 -0.005736351013183594 -0.004326820373535156
319752500.0 -0.006275177001953125 -0.0037915706634521484
324748000.0 -0.006521463394165039 -0.0031261444091796875
329743500.0 -0.006796836853027344 -0.002563953399658203
334739000.0 -0.0070230960845947266 -0.002009153366088867
339734500.0 -0.007321834564208984 -0.0012958049774169922
344730000.0 -0.007459163665771484 -0.0006406307220458984
349725500.0 -0.007646322250366211 2.6226043701171875e-05
354721000.0 -0.0074961185455322266 0.0007371902465820312
359716500.0 -0.007487297058105469 0.001500844955444336
364712000.0 -0.007254600524902344 0.0021390914916992188
369707500.0 -0.007201433181762695 0.0027952194213867188
374703000.0 -0.007053852081298828 0.0034685134887695312
379698500.0 -0.006680727005004883 0.0042302608489990234
384694000.0 -0.006396770477294922 0.004743337631225586
389689500.0 -0.0059278011322021484 0.005540132522583008
394685000.0 -0.0054056644439697266 0.006087779998779297
399680500.0 -0.0048673152923583984 0.00665283203125
404676000.0 -0.004242420196533203 0.007132768630981445
409671500.0 -0.0036163330078125 0.007623195648193359
414667000.0 -0.0029077529907226562 0.008074760437011719
419662500.0 -0.0021772384643554688 0.008443355560302734
424658000.0 -0.0013833045959472656 0.008657455444335938
429653500.0 -0.0004754066467285156 0.008978843688964844
434649000.0 0.0004425048828125 0.008990287780761719
439644500.0 0.0013294219970703125 0.009044647216796875
444640000.0 0.0021715164184570312 0.008962631225585938
449635500.0 0.0030531883239746094 0.008808612823486328
454631000.0 0.003916740417480469 0.008465766906738281
459626500.0 0.004824161529541016 0.00825357437133789
464622000.0 0.005683422088623047 0.0077800750732421875
469617500.0 0.006421566009521484 0.007346391677856445
474613000.0 0.007331132888793945 0.006638050079345703
479608500.0 0.008069992065429688 0.006074428558349609
484604000.0 0.008690834045410156 0.005160331726074219
489599500.0 0.00933218002319336 0.004346370697021484
494595000.0 0.009796619415283203 0.003540515899658203
499590500.0 0.010335922241210938 0.0025148391723632812
504586000.0 0.010564804077148438 0.0014758110046386719
509581500.0 0.01078176498413086 0.0005016326904296875
514577000.0 0.01077890396118164 -0.0006380081176757812
519572500.0 0.010874271392822266 -0.0017428398132324219
524568000.0 0.01081085205078125 -0.0028839111328125
529563500.0 0.010471820831298828 -0.00386810302734375
534559000.0 0.01013803482055664 -0.004977226257324219
539554500.0 0.009773731231689453 -0.0060367584228515625
544550000.0 0.009218692779541016 -0.0071353912353515625
549545500.0 0.008550643920898438 -0.008102893829345703
554541000.0 0.007813453674316406 -0.008868217468261719
559536500.0 0.007051944732666016 -0.00978708267211914
564532000.0 0.00603485107421875 -0.010601043701171875
569527500.0 0.004985809326171875 -0.011372566223144531
574523000.0 0.003895282745361328 -0.011900901794433594
579518500.0 0.0027627944946289062 -0.01236581802368164
584514000.0 0.0014901161193847656 -0.012803077697753906
589509500.0 0.00011968612670898438 -0.013062477111816406
594505000.0 -0.0011534690856933594 -0.013075828552246094
599500500.0 -0.0025615692138671875 -0.013106822967529297
604496000.0 -0.003962993621826172 -0.0128936767578125
609491500.0 -0.005288600921630859 -0.012495994567871094
614487000.0 -0.0067386627197265625 -0.01206207275390625
619482500.0 -0.007865428924560547 -0.01145315170288086
624478000.0 -0.009231090545654297 -0.010691642761230469
629473500.0 -0.0102691650390625 -0.009814262390136719
634469000.0 -0.011384010314941406 -0.008849143981933594
639464500.0 -0.012386322021484375 -0.007671356201171875
644460000.0 -0.013127803802490234 -0.006427764892578125
649455500.0 -0.013871192932128906 -0.005057334899902344
654451000.0 -0.014467716217041016 -0.0036725997924804688
659446500.0 -0.014970779418945312 -0.0021500587463378906
664442000.0 -0.01523590087890625 -0.0006685256958007812
669437500.0 -0.015349864959716797 0.0008916854858398438
674433000.0 -0.015424728393554688 0.0024781227111816406
679428500.0 -0.015160560607910156 0.004174709320068359
684424000.0 -0.014806270599365234 0.005715370178222656
689419500.0 -0.01425313949584961 0.007251739501953125
694415000.0 -0.01348114013671875 0.008773326873779297
699410500.0 -0.012663841247558594 0.010227203369140625
704406000.0 -0.0115966796875 0.011547565460205078
709401500.0 -0.010489463806152344 0.012786388397216797
714397000.0 -0.009153366088867188 0.013969898223876953
719392500.0 -0.007775306701660156 0.0149078369140625
724388000.0 -0.0062313079833984375 0.015862464904785156
729383500.0 -0.004683494567871094 0.016427993774414062
734379000.0 -0.003009796142578125 0.0169830322265625
739374500.0 -0.0011606216430664062 0.017251014709472656
744370000.0 0.0006084442138671875 0.017503738403320312
749365500.0 0.0023822784423828125 0.017452239990234375
754361000.0 0.004161834716796875 0.017314910888671875
759356500.0 0.0060024261474609375 0.016938209533691406
764352000.0 0.0076847076416015625 0.016321182250976562
769347500.0 0.00950002670288086 0.015482902526855469
774343000.0 0.01107025146484375 0.014546394348144531
779338500.0 0.012482643127441406 0.013478755950927734
784334000.0 0.013959407806396484 0.012158870697021484
789329500.0 0.015216827392578125 0.010723590850830078
794325000.0 0.016277313232421875 0.009264945983886719
799320500.0 0.017314910888671875 0.0074920654296875
804316000.0 0.018083572387695312 0.005784034729003906
809311500.0 0.018690109252929688 0.00390625
814307000.0 0.019178390502929688 0.0019664764404296875
819302500.0 0.019344329833984375 -8.58306884765625e-06
824298000.0 0.01944732666015625 -0.0019741058349609375
829293500.0 0.019249916076660156 -0.0038938522338867188
834289000.0 0.01881122589111328 -0.005890846252441406
839284500.0 0.018299102783203125 -0.00780487060546875
844280000.0 0.018073081970214844 -0.008945465087890625
849275500.0 0.017217636108398438 -0.01088714599609375
854271000.0 0.016134262084960938 -0.012554168701171875
859266500.0 0.014833450317382812 -0.014323711395263672
864262000.0 0.01342010498046875 -0.015684127807617188
869257500.0 0.011868476867675781 -0.017108917236328125
874253000.0 0.010082244873046875 -0.018472671508789062
879248500.0 0.008236885070800781 -0.0191802978515625
884244000.0 0.006348609924316406 -0.02010631561279297
889239500.0 0.0043277740478515625 -0.020788192749023438
894235000.0 0.00228118896484375 -0.0213470458984375
899230500.0 0.0001201629638671875 -0.02155017852783203
904226000.0 -0.0019350051879882812 -0.021778106689453125
909221500.0 -0.004176139831542969 -0.021692276000976562
914217000.0 -0.006430625915527344 -0.021187782287597656
919212500.0 -0.008558273315429688 -0.020521163940429688
924208000.0 -0.0106658935546875 -0.019672393798828125
929203500.0 -0.012696266174316406 -0.018713951110839844
934199000.0 -0.014596939086914062 -0.01734638214111328
939194500.0 -0.01628589630126953 -0.016058921813964844
944190000.0 -0.01803112030029297 -0.01434326171875
949185500.0 -0.019471168518066406 -0.012422561645507812
954181000.0 -0.02087688446044922 -0.010502815246582031
959176500.0 -0.021772384643554688 -0.008390426635742188
964172000.0 -0.0227813720703125 -0.006093025207519531
969167500.0 -0.023467063903808594 -0.0038976669311523438
974163000.0 -0.023856163024902344 -0.0014543533325195312
979158500.0 -0.023983001708984375 0.0009450912475585938
984154000.0 -0.023794174194335938 0.003414154052734375
989149500.0 -0.02354145050048828 0.005900382995605469
994145000.0 -0.02281475067138672 0.00823211669921875
999140500.0 -0.022077560424804688 0.010507583618164062
1004136000.0 -0.021032333374023438 0.012716293334960938
1009131500.0 -0.019600868225097656 0.014944076538085938
1014127000.0 -0.018077850341796875 0.016801834106445312
1019122500.0 -0.016457557678222656 0.018741607666015625
1024118000.0 -0.014529228210449219 0.02037811279296875
1029113500.0 -0.012430191040039062 0.021963119506835938
1034109000.0 -0.010110855102539062 0.02308177947998047
1039104500.0 -0.007755279541015625 0.024272918701171875
1044100000.0 -0.005314826965332031 0.0249176025390625
1049095500.0 -0.0028476715087890625 0.025518417358398438
1054091000.0 -0.0001277923583984375 0.025653839111328125
1059086500.0 0.002422332763671875 0.025773048400878906
1064082000.0 0.005124092102050781 0.02536296844482422
1069077500.0 0.007613182067871094 0.024816513061523438
1074073000.0 0.0101165771484375 0.024176597595214844
1079068500.0 0.012546539306640625 0.023054122924804688
1084064000.0 0.014886856079101562 0.021735191345214844
1089059500.0 0.017035484313964844 0.020143508911132812
1094055000.0 0.01909351348876953 0.018530845642089844
1099050500.0 0.020850181579589844 0.01636028289794922
1104046000.0 0.022548675537109375 0.014359474182128906
1109041500.0 0.02399444580078125 0.011984825134277344
1114037000.0 0.025156021118164062 0.009393692016601562
1119032500.0 0.02608489990234375 0.0069789886474609375
1124028000.0 0.026744842529296875 0.0044498443603515625
1129023500.0 0.027098655700683594 0.0015554428100585938
1134019000.0 0.027273178100585938 -0.00115966796875
1139014500.0 0.027034759521484375 -0.003911018371582031
1144010000.0 0.026559829711914062 -0.006754875183105469
1149005500.0 0.02572345733642578 -0.009335517883300781
1154001000.0 0.024745941162109375 -0.011900901794433594
1158996500.0 0.02363872528076172 -0.014421463012695312
1163992000.0 0.022022247314453125 -0.016675949096679688
1168987500.0 0.02035999298095703 -0.018912315368652344
1173983000.0 0.018255233764648438 -0.020904541015625
1178978500.0 0.016028404235839844 -0.02266216278076172
1183974000.0 0.013620376586914062 -0.024293899536132812
1188969500.0 0.011269569396972656 -0.025663375854492188
1193965000.0 0.008715629577636719 -0.02654743194580078
1198960500.0 0.005908012390136719 -0.02744579315185547
1203956000.0 0.0032529830932617188 -0.027866363525390625
1208951500.0 0.000377655029296875 -0.028220176696777344
1213947000.0 -0.0024938583374023438 -0.028161048889160156
1218942500.0 -0.005267143249511719 -0.027753829956054688
1223938000.0 -0.008028984069824219 -0.027192115783691406
1228933500.0 -0.010750770568847656 -0.026172637939453125
1233929000.0 -0.01334381103515625 -0.02506732940673828
1238924500.0 -0.01572895050048828 -0.023766517639160156
1243920000.0 -0.01806354522705078 -0.021991729736328125
1248915500.0 -0.02022552490234375 -0.02033519744873047
1253911000.0 -0.022065162658691406 -0.018166542053222656
1258906500.0 -0.02383708953857422 -0.015893936157226562
1263902000.0 -0.025449752807617188 -0.013560295104980469
1268897500.0 -0.0265960693359375 -0.010920524597167969
1273893000.0 -0.02793598175048828 -0.008233070373535156
1278888500.0 -0.02845287322998047 -0.0055751800537109375
1283884000.0 -0.02904510498046875 -0.0027360916137695312
1288879500.0 -0.029224395751953125 0.00019359588623046875
1293875000.0 -0.029092788696289062 0.0031614303588867188
1298870500.0 -0.028717994689941406 0.006016731262207031
1303866000.0 -0.02802276611328125 0.008810043334960938
1308861500.0 -0.027225494384765625 0.011635780334472656
1313857000.0 -0.02595043182373047 0.014336585998535156
1318852500.0 -0.024399757385253906 0.016908645629882812
1323848000.0 -0.022691726684570312 0.019309043884277344
1328843500.0 -0.020708084106445312 0.021589279174804688
1333839000.0 -0.018304824829101562 0.0234527587890625
1338834500.0 -0.01601409912109375 0.02532196044921875
1343830000.0 -0.013468742370605469 0.026807785034179688
1348825500.0 -0.010732650756835938 0.028090476989746094
1353821000.0 -0.0078029632568359375 0.02918720245361328
1358816500.0 -0.005007743835449219 0.02990245819091797
1363812000.0 -0.0019102096557617188 0.030183792114257812
1368807500.0 0.001125335693359375 0.03036785125732422
1373803000.0 0.0042629241943359375 0.030101776123046875
1378798500.0 0.007155418395996094 0.029649734497070312
1383794000.0 0.010186195373535156 0.028879165649414062
1388789500.0 0.012950897216796875 0.027708053588867188
1393785000.0 0.01581287384033203 0.02625560760498047
1398780500.0 0.018364906311035156 0.024593353271484375
1403776000.0 0.020666122436523438 0.022622108459472656
1408771500.0 0.02303314208984375 0.02042102813720703
1413767000.0 0.0250396728515625 0.018062591552734375
1418762500.0 0.026624679565429688 0.015547752380371094
1423758000.0 0.028116226196289062 0.012829780578613281
1428753500.0 0.02940845489501953 0.009881019592285156
1433749000.0 0.03015613555908203 0.007031440734863281
1438744500.0 0.03078174591064453 0.003960609436035156
1443740000.0 0.03105449676513672 0.000789642333984375
1448735500.0 0.03100109100341797 -0.0022735595703125
1453731000.0 0.030523300170898438 -0.005444526672363281
1458726500.0 0.030005455017089844 -0.008550643920898438
1463722000.0 0.028921127319335938 -0.011440277099609375
1468717500.0 0.027634620666503906 -0.014318466186523438
1473713000.0 0.026134490966796875 -0.016928672790527344
1478708500.0 0.024306297302246094 -0.019448280334472656
1483704000.0 0.022203445434570312 -0.021768569946289062
1488699500.0 0.01983642578125 -0.024076461791992188
1493695000.0 0.01743316650390625 -0.02579975128173828
1498690500.0 0.014744758605957031 -0.027454376220703125
1503686000.0 0.012066841125488281 -0.028799057006835938
1508681500.0 0.008970260620117188 -0.0298309326171875
1513677000.0 0.0060176849365234375 -0.030638694763183594
1518672500.0 0.0029134750366210938 -0.03103160858154297
1523668000.0 -9.34600830078125e-05 -0.03124713897705078
1528663500.0 -0.0033464431762695312 -0.031049728393554688
1533659000.0 -0.0063610076904296875 -0.03056049346923828
1538654500.0 -0.009285926818847656 -0.02971172332763672
1543650000.0 -0.0121307373046875 -0.02857208251953125
1548645500.0 -0.015007972717285156 -0.02729034423828125
1553641000.0 -0.017577171325683594 -0.02565765380859375
1558636500.0 -0.019985198974609375 -0.023751258850097656
1563632000.0 -0.022335052490234375 -0.02167510986328125
1568627500.0 -0.024236679077148438 -0.019273757934570312
1573623000.0 -0.026024818420410156 -0.0168304443359375
1578618500.0 -0.027553558349609375 -0.014100074768066406
1583614000.0 -0.02872467041015625 -0.011171340942382812
1588609500.0 -0.02973651885986328 -0.0084075927734375
1593605000.0 -0.030321121215820312 -0.0054683685302734375
1598600500.0 -0.030719757080078125 -0.00241851806640625
1603596000.0 -0.03069782257080078 0.0005741119384765625
1608591500.0 -0.030396461486816406 0.0035028457641601562
1613587000.0 -0.02997303009033203 0.006537437438964844
1618582500.0 -0.029205322265625 0.00937652587890625
1623578000.0 -0.02796459197998047 0.012299537658691406
1628573500.0 -0.026594161987304688 0.014886856079101562
1633569000.0 -0.024980545043945312 0.017293930053710938
1638564500.0 -0.02315521240234375 0.01969146728515625
1643560000.0 -0.02114105224609375 0.021785736083984375
1648555500.0 -0.019010543823242188 0.023748397827148438
1653551000.0 -0.0165863037109375 0.025412559509277344
1658546500.0 -0.013976097106933594 0.026864051818847656
1663542000.0 -0.011409759521484375 0.028054237365722656
1668537500.0 -0.008568763732910156 0.02910614013671875
1673533000.0 -0.0057392120361328125 0.02980804443359375
1678528500.0 -0.0027666091918945312 0.030172348022460938
1683524000.0 0.0001010894775390625 0.030406951904296875
1688519500.0 0.0030088424682617188 0.030195236206054688
1693515000.0 0.005976676940917969 0.029697418212890625
1698510500.0 0.008971214294433594 0.028985977172851562
1703506000.0 0.011671066284179688 0.027975082397460938
1708501500.0 0.014379501342773438 0.026795387268066406
1713497000.0 0.016866683959960938 0.025228500366210938
1718492500.0 0.01917743682861328 0.02350616455078125
1723488000.0 0.021310806274414062 0.02147674560546875
1728483500.0 0.023438453674316406 0.019186973571777344
1733479000.0 0.025190353393554688 0.01686382293701172
1738474500.0 0.026758193969726562 0.014279365539550781
1743470000.0 0.028028488159179688 0.011671066284179688
1748465500.0 0.02889251708984375 0.008837699890136719
1753461000.0 0.02966594696044922 0.0060482025146484375
1758456500.0 0.03015422821044922 0.003063201904296875
1763452000.0 0.0302581787109375 1.9073486328125e-05
1768447500.0 0.029979705810546875 -0.0028734207153320312
1773443000.0 0.029603004455566406 -0.005927085876464844
1778438500.0 0.02880859375 -0.008695602416992188
1783434000.0 0.027881622314453125 -0.011507034301757812
1788429500.0 0.026706695556640625 -0.014124870300292969
1793425000.0 0.02506542205810547 -0.01662158966064453
1798420500.0 0.023240089416503906 -0.01894664764404297
1803416000.0 0.021302223205566406 -0.02110576629638672
1808411500.0 0.019066810607910156 -0.02319812774658203
1813407000.0 0.01678180694580078 -0.024695396423339844
1818402500.0 0.014257431030273438 -0.026152610778808594
1823398000.0 0.011721611022949219 -0.027576446533203125
1828393500.0 0.008844375610351562 -0.028428077697753906
1833389000.0 0.0061626434326171875 -0.02902507781982422
1838384500.0 0.0032405853271484375 -0.029494285583496094
