!Created with skrf (http://scikit-rf.org).
# Hz S RI R 50.0 
!freq ReS11 ImS11
300000.0 -0.0066152911 -0.0407316499
5299970.0 0.0002726416 -0.0002053094
10299940.0 0.000633766 -2.63583e-05
15299910.0 0.0006729647 0.0009803276
20299880.0 0.0007534052 0.0007376123
25299850.0 0.0008675837 0.0013990519
30299820.0 0.0010211306 0.0017252926
35299790.0 0.0010426212 0.0016084115
40299760.0 0.0012623079 0.0015917534
45299730.0 0.0014856991 0.0020317066
50299700.0 0.0016405392 0.0022547252
55299670.0 0.0018186442 0.0024856194
60299640.0 0.0019078464 0.0025625534
65299610.0 0.0023315789 0.0025374776
70299580.0 0.0023254765 0.0027056186
75299550.0 0.0025257808 0.0028890451
80299520.0 0.0026617645 0.0030636369
85299490.0 0.002851471 0.0031825245
90299460.0 0.0031320965 0.0031494689
95299430.0 0.0033370786 0.0032988514
100299400.0 0.003420278 0.0032081429
105299370.0 0.0039713483 0.0033868387
110299340.0 0.0040417712 0.003528602
115299310.0 0.0040298887 0.0035269767
120299280.0 0.004518835 0.0035550307
125299250.0 0.0049023938 0.0034564019
130299220.0 0.0049662052 0.0034425228
135299190.0 0.0052270316 0.0035901386
140299160.0 0.0052265213 0.0033672732
145299130.0 0.0056125039 0.0031696529
150299100.0 0.0057167584 0.003198418
155299070.0 0.0061753014 0.0028497717
160299040.0 0.0061470225 0.0027791343
165299010.0 0.0065392729 0.0029175129
170298980.0 0.0068232343 0.0028130691
175298950.0 0.0068350591 0.0026860324
180298920.0 0.0068478283 0.0023951848
185298890.0 0.0070262097 0.0022733997
190298860.0 0.007162144 0.0023085635
195298830.0 0.0074305571 0.0021666094
200298800.0 0.0074219349 0.0019105842
205298770.0 0.0076595974 0.0016818994
210298740.0 0.0076004223 0.00153201
215298710.0 0.0076779383 0.0013226611
220298680.0 0.0079310471 0.0010714189
225298650.0 0.0079112687 0.0010847496
230298620.0 0.0080164776 0.0007146929
235298590.0 0.008062524 0.0006170586
240298560.0 0.0079948557 0.0002980656
245298530.0 0.0080981761 0.0003230059
250298500.0 0.0080505523 9.35889e-05
255298470.0 0.0081168838 -0.0002148364
260298440.0 0.0081137934 -0.0004164247
265298410.0 0.0082188288 -0.0005438064
270298380.0 0.0079249157 -0.0007083721
275298350.0 0.0080469566 -0.0009735857
280298320.0 0.0078715472 -0.0009385881
285298290.0 0.0078423604 -0.0013002799
290298260.0 0.00775215 -0.0012554987
295298230.0 0.0078412455 -0.0015453684
300298200.0 0.0078231629 -0.0015937469
305298170.0 0.0075533308 -0.0016452127
310298140.0 0.0074763067 -0.0018500338
315298110.0 0.0074448892 -0.0021316142
320298080.0 0.0075500404 -0.002104662
325298050.0 0.0072802242 -0.002288849
330298020.0 0.0072676155 -0.0025130033
335297990.0 0.0073092736 -0.0025364573
340297960.0 0.0071900743 -0.0025005871
345297930.0 0.0072237766 -0.0026891703
350297900.0 0.007091617 -0.002825827
355297870.0 0.007191298 -0.0028772309
360297840.0 0.0070482554 -0.0031163579
365297810.0 0.0067851138 -0.0031977124
370297780.0 0.0064668432 -0.0031992216
375297750.0 0.0064192582 -0.0031460714
380297720.0 0.0064311094 -0.0029111228
385297690.0 0.0062041952 -0.003498611
390297660.0 0.0061545386 -0.0034472219
395297630.0 0.0060106522 -0.0034787135
400297600.0 0.0063424325 -0.0033420942
405297570.0 0.0060360966 -0.0034472086
410297540.0 0.0058146687 -0.0033928501
415297510.0 0.0060564493 -0.0037687851
420297480.0 0.0058988463 -0.0035971474
425297450.0 0.0058336161 -0.0037751079
430297420.0 0.0055101549 -0.0035104837
435297390.0 0.0054104382 -0.0038456338
440297360.0 0.0054640438 -0.0037702092
445297330.0 0.0053394535 -0.0036872355
450297300.0 0.0052394873 -0.0037169474
455297270.0 0.0051972947 -0.0038717638
460297240.0 0.0051151365 -0.0037932913
465297210.0 0.0048987806 -0.0037635138
470297180.0 0.005047871 -0.0038577216
475297150.0 0.0046459774 -0.0038077801
480297120.0 0.0046333201 -0.0036656361
485297090.0 0.0048412964 -0.0038458029
490297060.0 0.0046299153 -0.0038968244
495297030.0 0.0046996624 -0.003888646
500297000.0 0.0044596378 -0.0039450595
505296970.0 0.0045045271 -0.0038261946
510296940.0 0.004348629 -0.0037209847
515296910.0 0.0040896077 -0.0037436079
520296880.0 0.004045459 -0.0039871693
525296850.0 0.0040589332 -0.0037623731
530296820.0 0.0040692879 -0.0036702856
535296790.0 0.0039647693 -0.0038043063
540296760.0 0.0039167103 -0.0038340687
545296730.0 0.0038893294 -0.0035869125
550296700.0 0.0038086757 -0.0036993444
555296670.0 0.0036513512 -0.0036503076
560296640.0 0.0039324508 -0.0037418798
565296610.0 0.0038107377 -0.00404725
570296580.0 0.0036665997 -0.0039031505
575296550.0 0.0037468849 -0.0040935882
580296520.0 0.003538488 -0.0038795297
585296490.0 0.0036150826 -0.0037218328
590296460.0 0.0033609762 -0.0040321571
595296430.0 0.0036530918 -0.0038631298
600296400.0 0.0034300093 -0.0038058211
605296370.0 0.0033225261 -0.0039258507
610296340.0 0.0033260719 -0.0038409664
615296310.0 0.0033022025 -0.0039156797
620296280.0 0.0031487782 -0.0036458665
625296250.0 0.0030516898 -0.0039884341
630296220.0 0.0030201869 -0.0038499067
635296190.0 0.0030186207 -0.0038365281
640296160.0 0.0030167569 -0.0039765981
645296130.0 0.003214866 -0.0037757632
650296100.0 0.0028227319 -0.003763272
655296070.0 0.0028046838 -0.0037386209
660296040.0 0.0028755268 -0.0038217371
665296010.0 0.002984869 -0.0037384597
670295980.0 0.0028390091 -0.0037040383
675295950.0 0.0027024882 -0.0038666668
680295920.0 0.0028631989 -0.0037512907
685295890.0 0.0026757299 -0.0037337847
690295860.0 0.002431102 -0.0037529417
695295830.0 0.0025434103 -0.0037412972
700295800.0 0.0026703663 -0.0035121048
705295770.0 0.0025434191 -0.0036332584
710295740.0 0.0023219211 -0.0035721722
715295710.0 0.0025617808 -0.0036061635
720295680.0 0.0024297443 -0.0035761166
725295650.0 0.0024470593 -0.0036179158
730295620.0 0.0023587709 -0.0036989319
735295590.0 0.0023535251 -0.0033751639
740295560.0 0.0022447284 -0.0034966907
745295530.0 0.0023558304 -0.0033427901
750295500.0 0.0024112039 -0.003228023
755295470.0 0.002353196 -0.0036913735
760295440.0 0.0021440203 -0.0035342433
765295410.0 0.0021478378 -0.003629278
770295380.0 0.0021044149 -0.0033613511
775295350.0 0.0022655774 -0.003446331
780295320.0 0.0021241508 -0.0035660844
785295290.0 0.0020854505 -0.0034690683
790295260.0 0.0021882006 -0.003471583
795295230.0 0.0021220585 -0.0034237494
800295200.0 0.0023179152 -0.0036699134
805295170.0 0.0020270642 -0.003571142
810295140.0 0.0021415154 -0.0035984934
815295110.0 0.0018803499 -0.0034374936
820295080.0 0.0018700361 -0.0036905123
825295050.0 0.0020661708 -0.003553169
830295020.0 0.0019407914 -0.0034797598
835294990.0 0.0020816509 -0.0033626579
840294960.0 0.0020677027 -0.0032651032
845294930.0 0.0018365297 -0.0034017384
850294900.0 0.0018949305 -0.0033011691
855294870.0 0.0018733673 -0.0034877706
860294840.0 0.0021218884 -0.0033469352
865294810.0 0.0020108267 -0.0031768332
870294780.0 0.0019687767 -0.0033761945
875294750.0 0.0019948957 -0.0032837869
880294720.0 0.0019219606 -0.0033047717
885294690.0 0.0017508022 -0.0034881069
890294660.0 0.0019808079 -0.0032646289
895294630.0 0.0019641105 -0.0033017041
900294600.0 0.0018607315 -0.0033056796
905294570.0 0.0017960961 -0.0033861366
910294540.0 0.0019408338 -0.0033069967
915294510.0 0.0016787575 -0.0033644314
920294480.0 0.0016798139 -0.0032167501
925294450.0 0.0015376922 -0.0034120748
930294420.0 0.0018763148 -0.0034390971
935294390.0 0.0017104359 -0.0033090479
940294360.0 0.001902341 -0.0034318235
945294330.0 0.0017525197 -0.003280639
950294300.0 0.0015781323 -0.0034892519
955294270.0 0.0016289307 -0.0033012095
960294240.0 0.0020104567 -0.0031100957
965294210.0 0.0017365458 -0.0034138159
970294180.0 0.0017347674 -0.0034237564
975294150.0 0.0017376067 -0.0031638401
980294120.0 0.001664943 -0.0031994392
985294090.0 0.001720694 -0.0032441948
990294060.0 0.0018066685 -0.0033353332
995294030.0 0.0018800416 -0.0034445589
1000294000.0 0.0015171222 -0.003392945
1005293970.0 0.0015961336 -0.0032286894
1010293940.0 0.0016787503 -0.003354438
1015293910.0 0.0016401523 -0.0032988787
1020293880.0 0.0018167016 -0.0032291626
1025293850.0 0.0016429505 -0.0035409215
1030293820.0 0.0017897964 -0.0033467924
1035293790.0 0.0016425602 -0.0035056305
1040293760.0 0.0016621753 -0.0033845463
1045293730.0 0.0015916461 -0.0033638365
1050293700.0 0.001985986 -0.0034118932
1055293670.0 0.0016352579 -0.0033010701
1060293640.0 0.0018983472 -0.0034186798
1065293610.0 0.0017344169 -0.0032444417
1070293580.0 0.0016803514 -0.0033505069
1075293550.0 0.0018739056 -0.0034210631
1080293520.0 0.0018099381 -0.0033916608
1085293490.0 0.0018394778 -0.003548963
1090293460.0 0.0017650919 -0.0033776161
1095293430.0 0.001658711 -0.0033303134
1100293400.0 0.0017232358 -0.0035821764
1105293370.0 0.0016486615 -0.0033507033
1110293340.0 0.0018556634 -0.0031969639
1115293310.0 0.0017046274 -0.0035821985
1120293280.0 0.001969883 -0.003547224
1125293250.0 0.0017842663 -0.0034219345
1130293220.0 0.0017558084 -0.003226653
1135293190.0 0.0016852423 -0.0033894224
1140293160.0 0.0016166654 -0.0032086099
1145293130.0 0.0014032743 -0.0032456303
1150293100.0 0.001522711 -0.0028871924
1155293070.0 0.0016659518 -0.0030878355
1160293040.0 0.0014107669 -0.0032457525
1165293010.0 0.0015922773 -0.0032763142
1170292980.0 0.0014915285 -0.0031335692
1175292950.0 0.0016615341 -0.0035081344
1180292920.0 0.0015695214 -0.0035340436
1185292890.0 0.0019185055 -0.0033647851
1190292860.0 0.0020167626 -0.0034935967
1195292830.0 0.0016559774 -0.0035178799
1200292800.0 0.0019792516 -0.0034254975
1205292770.0 0.0020495214 -0.0032934701
1210292740.0 0.001857679 -0.0034915059
1215292710.0 0.0019660816 -0.0035676021
1220292680.0 0.0020560086 -0.0034644332
1225292650.0 0.0018502387 -0.0034386253
1230292620.0 0.0020449547 -0.0035762585
1235292590.0 0.002097301 -0.0034330281
1240292560.0 0.0019243171 -0.0035569248
1245292530.0 0.0019993521 -0.0035336147
1250292500.0 0.0020608318 -0.0036781209
1255292470.0 0.0019615579 -0.0034764472
1260292440.0 0.0019295978 -0.0037002751
1265292410.0 0.0020819446 -0.0035812208
1270292380.0 0.0020155076 -0.0038220039
1275292350.0 0.0019338756 -0.0034787279
1280292320.0 0.002112617 -0.0033713087
1285292290.0 0.0019237345 -0.0036061415
1290292260.0 0.0021163765 -0.0037853297
1295292230.0 0.0019724522 -0.0035806944
1300292200.0 0.0021094323 -0.0038533087
1305292170.0 0.0020700231 -0.0035669311
1310292140.0 0.0020193434 -0.0037791002
1315292110.0 0.0021432959 -0.0039102817
1320292080.0 0.0023144742 -0.003829487
1325292050.0 0.00223547 -0.003775112
1330292020.0 0.0021543269 -0.0036818145
1335291990.0 0.0021102837 -0.0038370554
1340291960.0 0.0023946099 -0.003781174
1345291930.0 0.0021747854 -0.003875529
1350291900.0 0.0021007472 -0.0038438009
1355291870.0 0.0023817814 -0.0037243133
1360291840.0 0.002198643 -0.0038503972
1365291810.0 0.0022151125 -0.003663401
1370291780.0 0.0022117026 -0.0036820171
1375291750.0 0.002308324 -0.0037480966
1380291720.0 0.0025581322 -0.0037450229
1385291690.0 0.0024021461 -0.0037242748
1390291660.0 0.0023813444 -0.0036603612
1395291630.0 0.0023732289 -0.0039790235
1400291600.0 0.0021700068 -0.0040027633
1405291570.0 0.0025301867 -0.0038469169
1410291540.0 0.0024824472 -0.0037971995
1415291510.0 0.0024383447 -0.0040898352
1420291480.0 0.0024964088 -0.0039118321
1425291450.0 0.0023141404 -0.0039886891
1430291420.0 0.0024739092 -0.0039450936
1435291390.0 0.0024305243 -0.0039241096
1440291360.0 0.0023432192 -0.0040323008
1445291330.0 0.0024092809 -0.0041138346
1450291300.0 0.0024264517 -0.0040245625
1455291270.0 0.0024524066 -0.0038338698
1460291240.0 0.0025652552 -0.0039989138
1465291210.0 0.0025555778 -0.0041055086
1470291180.0 0.0022975382 -0.0040358102
1475291150.0 0.0023931604 -0.0038701017
1480291120.0 0.0027484304 -0.0042621072
1485291090.0 0.0024311294 -0.0042649195
1490291060.0 0.002561149 -0.0041150344
1495291030.0 0.0024529368 -0.0040964436
1500291000.0 0.0027096925 -0.0043652903
1505290970.0 0.0026615306 -0.0040628771
1510290940.0 0.0024624347 -0.0042094829
1515290910.0 0.0026967299 -0.0041315025
1520290880.0 0.0027439962 -0.004129174
1525290850.0 0.0025560533 -0.0041598657
1530290820.0 0.0025575736 -0.003950523
1535290790.0 0.0025297576 -0.0042449642
1540290760.0 0.0026410543 -0.0041922272
1545290730.0 0.0026636724 -0.0044812582
1550290700.0 0.0025792908 -0.0041983109
1555290670.0 0.0025816565 -0.0044126344
1560290640.0 0.0027892602 -0.004338631
1565290610.0 0.002789688 -0.0042994009
1570290580.0 0.0027640513 -0.0042796996
1575290550.0 0.0027358256 -0.0043564727
1580290520.0 0.00295507 -0.0042455879
1585290490.0 0.0026051893 -0.0044514178
1590290460.0 0.0028319321 -0.00459607
1595290430.0 0.0029236737 -0.004258598
1600290400.0 0.002772558 -0.0044947376
1605290370.0 0.0029192685 -0.00439619
1610290340.0 0.0028578615 -0.0044170151
1615290310.0 0.0027851321 -0.0044551944
1620290280.0 0.0028959577 -0.0044028408
1625290250.0 0.0028958471 -0.004388801
1630290220.0 0.0030293814 -0.0044624193
1635290190.0 0.0030422392 -0.0044322032
1640290160.0 0.0031290969 -0.004417226
1645290130.0 0.0028408379 -0.0045659924
1650290100.0 0.0029074841 -0.0046184884
1655290070.0 0.0030145877 -0.0042796313
1660290040.0 0.0030068528 -0.0045872916
1665290010.0 0.0031329944 -0.004788435
1670289980.0 0.0030116406 -0.0048438112
1675289950.0 0.0030914241 -0.0043701528
1680289920.0 0.0031765441 -0.0046561048
1685289890.0 0.002997253 -0.0044766773
1690289860.0 0.0029631591 -0.0045978579
1695289830.0 0.0032097962 -0.0047477922
1700289800.0 0.0030079174 -0.0048020103
1705289770.0 0.0030395109 -0.0048039235
1710289740.0 0.0031590693 -0.0048659524
1715289710.0 0.0031694411 -0.0045983835
1720289680.0 0.0031144683 -0.0049587684
1725289650.0 0.0030964183 -0.004802635
1730289620.0 0.0032044654 -0.0047819006
1735289590.0 0.0030269257 -0.0046445082
1740289560.0 0.0030763934 -0.0045593313
1745289530.0 0.0032596124 -0.004798166
1750289500.0 0.0031622601 -0.0047729762
1755289470.0 0.0031242113 -0.0046525461
1760289440.0 0.00311037 -0.0048560581
1765289410.0 0.00308832 -0.0049208774
1770289380.0 0.0031517483 -0.0046912564
1775289350.0 0.0034530898 -0.0050533624
1780289320.0 0.003068574 -0.0049926852
1785289290.0 0.0033269448 -0.0047674279
1790289260.0 0.0033704885 -0.0051722806
1795289230.0 0.0033202914 -0.0050110345
1800289200.0 0.0031800416 -0.0049095611
1805289170.0 0.0034351917 -0.0050244143
1810289140.0 0.0034176986 -0.0049403392
1815289110.0 0.0032745058 -0.004889385
1820289080.0 0.0034723391 -0.0049341216
1825289050.0 0.0033192818 -0.004791237
1830289020.0 0.0034997847 -0.0052201568
1835288990.0 0.0034222076 -0.0049841764
1840288960.0 0.0032985712 -0.0049840737
1845288930.0 0.0031156078 -0.005198171
1850288900.0 0.0033716047 -0.0050458925
1855288870.0 0.0032260001 -0.0052378386
1860288840.0 0.0032619355 -0.005225523
1865288810.0 0.0033950765 -0.0050425363
1870288780.0 0.0034112781 -0.0051554042
1875288750.0 0.0034814781 -0.0051094948
1880288720.0 0.0035704235 -0.0051751089
1885288690.0 0.0032875116 -0.0052098332
1890288660.0 0.0035374038 -0.0051809544
1895288630.0 0.0036042939 -0.0052045843
1900288600.0 0.0036105735 -0.0051934211
1905288570.0 0.0036329103 -0.0054152263
1910288540.0 0.0036834185 -0.0051340989
1915288510.0 0.0036115327 -0.0054603909
1920288480.0 0.0033785651 -0.0050964247
1925288450.0 0.0038550725 -0.0053304738
1930288420.0 0.0034861783 -0.0051631063
1935288390.0 0.003429142 -0.0051694972
1940288360.0 0.0035918473 -0.0052842032
1945288330.0 0.0037177628 -0.0054462845
1950288300.0 0.0035664903 -0.0052405051
1955288270.0 0.0036568605 -0.0053691993
1960288240.0 0.0035240254 -0.0052495428
1965288210.0 0.0036273124 -0.0053348541
1970288180.0 0.0036441082 -0.0054114781
1975288150.0 0.0036137154 -0.0052681693
1980288120.0 0.003757107 -0.0054966469
1985288090.0 0.0036701338 -0.0052303442
1990288060.0 0.0037527121 -0.005415302
1995288030.0 0.0039091005 -0.0054813306
2000288000.0 0.0036041755 -0.0054645219
2005287970.0 0.0035543676 -0.0053487783
2010287940.0 0.0036642347 -0.0053271461
2015287910.0 0.0036893654 -0.0053486505
2020287880.0 0.0035304119 -0.0053296619
2025287850.0 0.0038030514 -0.005528196
2030287820.0 0.0034946359 -0.0054947804
2035287790.0 0.0038385544 -0.0055483411
2040287760.0 0.0037083285 -0.005419221
2045287730.0 0.0036814237 -0.005282242
2050287700.0 0.0037009477 -0.0054782358
2055287670.0 0.0035437306 -0.0054457825
2060287640.0 0.0037849053 -0.0053335787
2065287610.0 0.0036069472 -0.0052491425
2070287580.0 0.0036228417 -0.0056967101
2075287550.0 0.0037602385 -0.0055575506
2080287520.0 0.0036283352 -0.0055592233
2085287490.0 0.0037431072 -0.0054560729
2090287460.0 0.0036302972 -0.0054550385
2095287430.0 0.003956459 -0.0055375446
2100287400.0 0.0035489051 -0.0056396179
2105287370.0 0.0036695387 -0.0054945213
2110287340.0 0.0035734324 -0.0054352271
2115287310.0 0.0035227841 -0.0053483725
2120287280.0 0.0038255348 -0.005492297
2125287250.0 0.0035852736 -0.0056065532
2130287220.0 0.003839061 -0.0057379884
2135287190.0 0.0036338338 -0.0055269156
2140287160.0 0.0037359529 -0.0056082699
2145287130.0 0.0036976768 -0.0054454067
2150287100.0 0.0035786826 -0.0056279642
2155287070.0 0.0036979493 -0.0056762228
2160287040.0 0.0037182579 -0.0054462789
2165287010.0 0.0036570422 -0.0058516523
2170286980.0 0.0037905071 -0.0056714265
2175286950.0 0.0037273682 -0.0055345444
2180286920.0 0.0036446384 -0.0057387705
2185286890.0 0.0036720777 -0.0057836641
2190286860.0 0.0034153471 -0.0055360031
2195286830.0 0.0037617952 -0.005688785
2200286800.0 0.0036486106 -0.0055828841
2205286770.0 0.0037983976 -0.0055779378
2210286740.0 0.0036797813 -0.0055474042
2215286710.0 0.0036670121 -0.0059054218
2220286680.0 0.0036513331 -0.0057089244
2225286650.0 0.0037726344 -0.0059451661
2230286620.0 0.003810189 -0.005759704
2235286590.0 0.0036110227 -0.0058855373
2240286560.0 0.0035908454 -0.005680361
2245286530.0 0.00345705 -0.0056476362
2250286500.0 0.0036793229 -0.0058091038
2255286470.0 0.0035686706 -0.0055885993
2260286440.0 0.0038405312 -0.0056908249
2265286410.0 0.0036709735 -0.0059970086
2270286380.0 0.0036851813 -0.0056249029
2275286350.0 0.0035430513 -0.0057702454
2280286320.0 0.003475778 -0.006032034
2285286290.0 0.0034853049 -0.0057741518
2290286260.0 0.0036536338 -0.0057110683
2295286230.0 0.0035101971 -0.0060181144
2300286200.0 0.0037404637 -0.0060190859
2305286170.0 0.0033736198 -0.0058038307
2310286140.0 0.0034841186 -0.0059682084
2315286110.0 0.0035017507 -0.005757081
2320286080.0 0.0035499327 -0.0058372655
2325286050.0 0.0034875363 -0.0058821775
2330286020.0 0.0033507028 -0.0057711891
2335285990.0 0.0035378832 -0.0059766682
2340285960.0 0.003392331 -0.0056156332
2345285930.0 0.0032043278 -0.005824016
2350285900.0 0.0036665399 -0.0060242723
2355285870.0 0.0033077002 -0.0056884737
2360285840.0 0.0034659767 -0.0057900644
2365285810.0 0.0033281294 -0.0057393152
2370285780.0 0.0032519075 -0.0060156451
2375285750.0 0.0032494254 -0.0059466834
2380285720.0 0.0033809619 -0.0058368854
2385285690.0 0.0033569456 -0.0060643558
2390285660.0 0.0032965951 -0.0059202082
2395285630.0 0.0032136746 -0.0059792554
2400285600.0 0.0033454784 -0.005913965
2405285570.0 0.0033229901 -0.0060896996
2410285540.0 0.0033222588 -0.0060488166
2415285510.0 0.0031396256 -0.0060414301
2420285480.0 0.0031575965 -0.0062249156
2425285450.0 0.0031932582 -0.0058065469
2430285420.0 0.0032503968 -0.0059849471
2435285390.0 0.0032287135 -0.0060396833
2440285360.0 0.0030984325 -0.0059910557
2445285330.0 0.0032230669 -0.006137916
2450285300.0 0.0032551085 -0.0061527658
2455285270.0 0.0029269927 -0.0059905668
2460285240.0 0.0030624242 -0.0059174164
2465285210.0 0.0030783764 -0.0061147135
2470285180.0 0.0030957501 -0.0060840391
2475285150.0 0.0031450299 -0.0059617677
2480285120.0 0.0030747556 -0.0060680548
2485285090.0 0.0030229157 -0.0060514744
2490285060.0 0.0028843681 -0.0062570484
2495285030.0 0.0029163662 -0.006050531
2500285000.0 0.0030127571 -0.0060342402
2505284970.0 0.0031520974 -0.0061614885
2510284940.0 0.002910065 -0.0061414971
2515284910.0 0.0029202907 -0.0059605322
2520284880.0 0.0029626143 -0.0061034135
2525284850.0 0.0029217492 -0.0062547472
2530284820.0 0.0028021616 -0.0062443657
