!Created with skrf (http://scikit-rf.org).
# Hz S RI R 50.0 
!freq ReS11 ImS11
300000.0 1.002691498 0.0010693564
5299970.0 1.00552595 -0.0088150945
10299940.0 1.005023465 -0.0159589465
15299910.0 1.004142754 -0.0231474478
20299880.0 1.00424809 -0.0292606691
25299850.0 1.004023 -0.036366425
30299820.0 1.003068712 -0.0435005116
35299790.0 1.003577147 -0.0502510232
40299760.0 1.003487903 -0.0573109824
45299730.0 1.002675373 -0.0648851835
50299700.0 1.002435943 -0.0713212994
55299670.0 1.002445843 -0.0787947574
60299640.0 1.001525781 -0.0857155209
65299610.0 1.000630287 -0.0920818443
70299580.0 0.9996049637 -0.0987943071
75299550.0 0.9992459743 -0.1059637473
80299520.0 0.9982372285 -0.1129605557
85299490.0 0.9979011324 -0.1200857485
90299460.0 0.9970001838 -0.126684445
95299430.0 0.9958957371 -0.1338325451
100299400.0 0.9949012889 -0.1403216852
105299370.0 0.9946252074 -0.148084427
110299340.0 0.9926872339 -0.1550234513
115299310.0 0.9916254133 -0.1611761802
120299280.0 0.990910987 -0.1677804562
125299250.0 0.9892885734 -0.1752894568
130299220.0 0.9879771487 -0.1819782149
135299190.0 0.9868813885 -0.1886179839
140299160.0 0.9856873066 -0.1957737444
145299130.0 0.9836713726 -0.2018006219
150299100.0 0.9825592793 -0.2087776256
155299070.0 0.9810307124 -0.215548503
160299040.0 0.9796215981 -0.2224061806
165299010.0 0.9780923457 -0.2297589883
170298980.0 0.9763710463 -0.2357108431
175298950.0 0.9737647055 -0.2427476775
180298920.0 0.9716410005 -0.2496951583
185298890.0 0.9702276432 -0.2560140567
190298860.0 0.9691690738 -0.2631294618
195298830.0 0.9672795387 -0.269886629
200298800.0 0.9660481305 -0.2764316697
205298770.0 0.9638025462 -0.2836327615
210298740.0 0.961995045 -0.289979792
215298710.0 0.9595319991 -0.2962275285
220298680.0 0.9572013887 -0.3024539564
225298650.0 0.9558093103 -0.3097210627
230298620.0 0.9533875762 -0.3162214776
235298590.0 0.9507865398 -0.3222694763
240298560.0 0.9487500275 -0.3291711484
245298530.0 0.9458956448 -0.3359265167
250298500.0 0.944106202 -0.3423906061
255298470.0 0.9413421723 -0.349020563
260298440.0 0.9384968532 -0.3551874089
265298410.0 0.9368081184 -0.3616097449
270298380.0 0.9339717601 -0.3687706422
275298350.0 0.9312288267 -0.3743591775
280298320.0 0.9288738709 -0.380953663
285298290.0 0.9262897215 -0.3873512896
290298260.0 0.9232439533 -0.3937222676
295298230.0 0.9208402299 -0.3998326935
300298200.0 0.9177616878 -0.4064156322
305298170.0 0.9145364681 -0.4125628504
310298140.0 0.9115415605 -0.4193701265
315298110.0 0.9088198181 -0.4257647679
320298080.0 0.9062544733 -0.4316433341
325298050.0 0.9030146678 -0.437699706
330298020.0 0.9000854374 -0.4438215034
335297990.0 0.8969835854 -0.4505032738
340297960.0 0.8938826354 -0.4568604614
345297930.0 0.890755489 -0.4633694473
350297900.0 0.8881271492 -0.4693813089
355297870.0 0.8854508722 -0.4751916667
360297840.0 0.8817559291 -0.4813308068
365297810.0 0.8785289325 -0.487897663
370297780.0 0.8745719296 -0.4935800139
375297750.0 0.8702702703 -0.4988966941
380297720.0 0.8670959645 -0.5047376861
385297690.0 0.8627347137 -0.5112388901
390297660.0 0.860020969 -0.5172031227
395297630.0 0.8558397634 -0.5225431921
400297600.0 0.8525910274 -0.5286192181
405297570.0 0.8487850586 -0.53426587
410297540.0 0.8453545418 -0.5404422808
415297510.0 0.8414877601 -0.5462941872
420297480.0 0.8378262129 -0.5517967692
425297450.0 0.8339359654 -0.5578996198
430297420.0 0.8303238621 -0.5633578657
435297390.0 0.8258759224 -0.5690352698
440297360.0 0.8219575584 -0.5745233591
445297330.0 0.8180628434 -0.5803382174
450297300.0 0.8141696149 -0.5860799034
455297270.0 0.8100677893 -0.5918112973
460297240.0 0.8057623203 -0.5975681273
465297210.0 0.8016458217 -0.6029556008
470297180.0 0.7972597479 -0.6085933427
475297150.0 0.7934467787 -0.6139628116
480297120.0 0.7892886413 -0.6188991532
485297090.0 0.7851844275 -0.6249352573
490297060.0 0.7810884515 -0.6303412032
495297030.0 0.7758760369 -0.635319589
500297000.0 0.7714658141 -0.6408181606
505296970.0 0.7665903891 -0.6465601839
510296940.0 0.7628636603 -0.6514087338
515296910.0 0.7580251528 -0.6563946958
520296880.0 0.7530072913 -0.6614301791
525296850.0 0.7487365483 -0.6669301072
530296820.0 0.7435638532 -0.6719781737
535296790.0 0.7394648891 -0.6773033782
540296760.0 0.734286949 -0.6817149343
545296730.0 0.7299024516 -0.6870837894
550296700.0 0.7248619303 -0.6925679341
555296670.0 0.7204832283 -0.6975248036
560296640.0 0.7156513317 -0.7025561183
565296610.0 0.7112045178 -0.7072319028
570296580.0 0.7060721721 -0.7122749584
575296550.0 0.7010372928 -0.717226127
580296520.0 0.6957519346 -0.7219833688
585296490.0 0.6909673004 -0.7264359335
590296460.0 0.6862176884 -0.731360807
595296430.0 0.6807365188 -0.735652481
600296400.0 0.6761021996 -0.7407081015
605296370.0 0.6706096797 -0.745495614
610296340.0 0.6657581419 -0.749892813
615296310.0 0.6603921724 -0.7546636469
620296280.0 0.6554730536 -0.7586539589
625296250.0 0.6500331476 -0.76369186
630296220.0 0.6442861492 -0.7676844626
635296190.0 0.6393553581 -0.7725000102
640296160.0 0.6341247752 -0.7762338687
645296130.0 0.6286572638 -0.780871885
650296100.0 0.6233789673 -0.7851930956
655296070.0 0.6176933081 -0.7898492427
660296040.0 0.6113944498 -0.7941840605
665296010.0 0.6066392711 -0.7981530621
670295980.0 0.6014151807 -0.8017088615
675295950.0 0.5956958722 -0.8062810161
680295920.0 0.5900923908 -0.8110772793
685295890.0 0.5850367363 -0.8145884615
690295860.0 0.5787612353 -0.8190883329
695295830.0 0.573353245 -0.8231474483
700295800.0 0.5678902647 -0.826344884
705295770.0 0.5620104259 -0.8306990871
710295740.0 0.5555201384 -0.8338274826
715295710.0 0.550231997 -0.83803106
720295680.0 0.5441089393 -0.8419194587
725295650.0 0.5383746752 -0.8457735105
730295620.0 0.5326475022 -0.8497456082
735295590.0 0.5268837741 -0.8531602967
740295560.0 0.5210170895 -0.8566153281
745295530.0 0.5151690929 -0.8601045759
750295500.0 0.5089151896 -0.8639580651
755295470.0 0.5026309274 -0.8673250769
760295440.0 0.4974759857 -0.8709454048
765295410.0 0.4912456556 -0.8744292612
770295380.0 0.484374265 -0.877704718
775295350.0 0.4783954859 -0.8811927744
780295320.0 0.4722963923 -0.8843588887
785295290.0 0.4668772465 -0.8874452751
790295260.0 0.4603205352 -0.8908371764
795295230.0 0.454336927 -0.8940189187
800295200.0 0.4479410968 -0.8972706644
805295170.0 0.4423941677 -0.900276419
810295140.0 0.4351704186 -0.9032713262
815295110.0 0.4292997703 -0.9058477579
820295080.0 0.422897326 -0.9092329124
825295050.0 0.4170944513 -0.9126100819
830295020.0 0.4103258297 -0.9151180863
835294990.0 0.4041508772 -0.9178577882
840294960.0 0.398042908 -0.9206406786
845294930.0 0.3917791322 -0.9235972615
850294900.0 0.3853084744 -0.9261303786
855294870.0 0.378450742 -0.9287783991
860294840.0 0.3721577985 -0.9319570719
865294810.0 0.3659415816 -0.9338825098
870294780.0 0.3593028537 -0.9363057018
875294750.0 0.3527348175 -0.9387093734
880294720.0 0.3464397717 -0.9409254656
885294690.0 0.3400910834 -0.9435761658
890294660.0 0.3333051936 -0.9459388675
895294630.0 0.3267008723 -0.9484692297
900294600.0 0.3202422938 -0.9507143428
905294570.0 0.3143753735 -0.9526641016
910294540.0 0.3071288351 -0.9545518785
915294510.0 0.3006714118 -0.9566413048
920294480.0 0.2936819988 -0.9590280832
925294450.0 0.2874688751 -0.9612977153
930294420.0 0.2803742546 -0.9631425783
935294390.0 0.273760447 -0.9652168225
940294360.0 0.2670739016 -0.9666154293
945294330.0 0.2605031893 -0.9686340031
950294300.0 0.253878881 -0.9704584559
955294270.0 0.2471483574 -0.9720984659
960294240.0 0.2403050519 -0.9740724465
965294210.0 0.2334461832 -0.9756906328
970294180.0 0.2262200129 -0.9768090547
975294150.0 0.2202468292 -0.9791862737
980294120.0 0.212495838 -0.9805606608
985294090.0 0.2060613723 -0.9813969799
990294060.0 0.2000145883 -0.9829139182
995294030.0 0.1926980864 -0.9844059892
1000294000.0 0.1857473504 -0.9853122823
1005293970.0 0.1791991474 -0.9869748254
1010293940.0 0.17146325 -0.9883928772
1015293910.0 0.1655876184 -0.9895594211
1020293880.0 0.158812572 -0.9904767138
1025293850.0 0.1518376659 -0.9913107964
1030293820.0 0.1452974098 -0.9922315771
1035293790.0 0.138179549 -0.9930733951
1040293760.0 0.1310618526 -0.9944638798
1045293730.0 0.1245991766 -0.9951871967
1050293700.0 0.1179554201 -0.9958005432
1055293670.0 0.1102278839 -0.9966946811
1060293640.0 0.1033261132 -0.9976262727
1065293610.0 0.0966374163 -0.9977004476
1070293580.0 0.0899651241 -0.99897778
1075293550.0 0.0830082836 -0.9997543597
1080293520.0 0.076546852 -0.9996394959
1085293490.0 0.0687214777 -0.9997764744
1090293460.0 0.0620979851 -1.000516091
1095293430.0 0.0547021526 -1.00095019
1100293400.0 0.0474787172 -1.002228386
1105293370.0 0.0408762111 -1.002023995
1110293340.0 0.0341506376 -1.002244507
1115293310.0 0.0271412983 -1.001866765
1120293280.0 0.0208182989 -1.002500445
1125293250.0 0.0138926874 -1.002872577
1130293220.0 0.0068394656 -1.003063641
1135293190.0 0.0005156028 -1.002500363
1140293160.0 -0.0076780566 -1.002846474
1145293130.0 -0.014389297 -1.002431896
1150293100.0 -0.0221444752 -1.002353279
1155293070.0 -0.0295486951 -1.00255878
1160293040.0 -0.0361484601 -1.001880223
1165293010.0 -0.042579151 -1.001373467
1170292980.0 -0.0500115664 -1.001192845
1175292950.0 -0.0569593269 -1.001215174
1180292920.0 -0.0637657994 -1.000863859
1185292890.0 -0.0698848568 -1.000047349
1190292860.0 -0.0767928601 -0.9996564733
1195292830.0 -0.0830727028 -0.9989428414
1200292800.0 -0.0900679933 -0.9979933822
1205292770.0 -0.0963925264 -0.9979320373
1210292740.0 -0.1036651761 -0.9971882663
1215292710.0 -0.1105773678 -0.996743671
1220292680.0 -0.1174785637 -0.9955916336
1225292650.0 -0.1246445709 -0.9949281335
1230292620.0 -0.1319915145 -0.9938000392
1235292590.0 -0.1385791795 -0.9930753045
1240292560.0 -0.1456970415 -0.9914859645
1245292530.0 -0.151955875 -0.9909441917
1250292500.0 -0.1585903636 -0.9896652238
1255292470.0 -0.1656461238 -0.9884796798
1260292440.0 -0.172384865 -0.9867350712
1265292410.0 -0.1789801052 -0.9860829556
1270292380.0 -0.1853034383 -0.9840977545
1275292350.0 -0.1930532114 -0.9830995868
1280292320.0 -0.1997203101 -0.9818081546
1285292290.0 -0.2070799438 -0.9805837958
1290292260.0 -0.2131959069 -0.9790757389
1295292230.0 -0.2198603871 -0.9775640331
1300292200.0 -0.2267650329 -0.9756607259
1305292170.0 -0.2332633558 -0.9740947981
1310292140.0 -0.239861273 -0.9725940027
1315292110.0 -0.2471236379 -0.9711256653
1320292080.0 -0.2532218636 -0.9692154858
1325292050.0 -0.2599868405 -0.9672448355
1330292020.0 -0.2668359895 -0.9653804624
1335291990.0 -0.2736932296 -0.9628574131
1340291960.0 -0.2806464824 -0.961473759
1345291930.0 -0.2874594668 -0.9590940675
1350291900.0 -0.2937570811 -0.9574669597
1355291870.0 -0.3004359512 -0.9552704698
1360291840.0 -0.3065197862 -0.9530811312
1365291810.0 -0.3132545031 -0.9513136679
1370291780.0 -0.3198593044 -0.9485996727
1375291750.0 -0.3257762176 -0.9464747843
1380291720.0 -0.3331013824 -0.9442169415
1385291690.0 -0.3392523868 -0.9420268158
1390291660.0 -0.3459624375 -0.9394296237
1395291630.0 -0.3526994855 -0.9376868064
1400291600.0 -0.3587754724 -0.9344496121
1405291570.0 -0.3651730114 -0.9321023017
1410291540.0 -0.3716299294 -0.9293877411
1415291510.0 -0.3781637658 -0.9275457176
1420291480.0 -0.3844702292 -0.9240393271
1425291450.0 -0.3906779385 -0.9209093509
1430291420.0 -0.3970093252 -0.918815556
1435291390.0 -0.4036168377 -0.916356823
1440291360.0 -0.4092683068 -0.9134543629
1445291330.0 -0.4149136145 -0.9107593056
1450291300.0 -0.4214379962 -0.9084346409
1455291270.0 -0.4280419974 -0.9047172045
1460291240.0 -0.4340039537 -0.9022130694
1465291210.0 -0.4407118542 -0.8982950642
1470291180.0 -0.4465348529 -0.8952010075
1475291150.0 -0.452685492 -0.8921745362
1480291120.0 -0.4587436161 -0.8890044851
1485291090.0 -0.4648863182 -0.8853092095
1490291060.0 -0.4712111126 -0.8820462169
1495291030.0 -0.4774127779 -0.8791095864
1500291000.0 -0.483162664 -0.8760113506
1505290970.0 -0.4888946874 -0.8725939594
1510290940.0 -0.4949804075 -0.8688725781
1515290910.0 -0.5010449649 -0.8654678294
1520290880.0 -0.5063745653 -0.8626328822
1525290850.0 -0.5125379881 -0.8588990127
1530290820.0 -0.5189390868 -0.8554344229
1535290790.0 -0.5243940953 -0.8518101116
1540290760.0 -0.5305880554 -0.8480416085
1545290730.0 -0.5363852246 -0.8437076022
1550290700.0 -0.5424989069 -0.8404135874
1555290670.0 -0.5481744796 -0.8367031639
1560290640.0 -0.554237353 -0.8328903446
1565290610.0 -0.5595167115 -0.8286095701
1570290580.0 -0.5648676427 -0.8247582105
1575290550.0 -0.5700622981 -0.8208579116
1580290520.0 -0.5765697112 -0.8172496983
1585290490.0 -0.5826582978 -0.8128566571
1590290460.0 -0.5878570804 -0.8086377761
1595290430.0 -0.5930502999 -0.8048725114
1600290400.0 -0.5984987126 -0.8006677956
1605290370.0 -0.6041246407 -0.7963388205
1610290340.0 -0.6094284752 -0.7921822699
1615290310.0 -0.6148821505 -0.7875395406
1620290280.0 -0.6201782566 -0.7833369377
1625290250.0 -0.6256286009 -0.7791376496
1630290220.0 -0.630300519 -0.7749058089
1635290190.0 -0.6360547321 -0.7705235026
1640290160.0 -0.6412687764 -0.76666369
1645290130.0 -0.6462091598 -0.7619243724
1650290100.0 -0.6516375165 -0.7578094731
1655290070.0 -0.6572670393 -0.7527264066
1660290040.0 -0.6621173418 -0.7480727603
1665290010.0 -0.6668948545 -0.7437685836
1670289980.0 -0.6716143964 -0.7396378642
1675289950.0 -0.6767464101 -0.7347304074
1680289920.0 -0.6821492593 -0.729858255
1685289890.0 -0.6867978987 -0.7246027257
1690289860.0 -0.6921242012 -0.7195045837
1695289830.0 -0.6972273326 -0.7145473873
1700289800.0 -0.7019018858 -0.7104545121
1705289770.0 -0.7067521113 -0.705124774
1710289740.0 -0.7116894471 -0.7001456145
1715289710.0 -0.7164497204 -0.6950078655
1720289680.0 -0.7216354445 -0.6902875428
1725289650.0 -0.7261777464 -0.685020644
1730289620.0 -0.7310841479 -0.6801874684
1735289590.0 -0.7350654265 -0.6753518284
1740289560.0 -0.7399664063 -0.6693011237
1745289530.0 -0.7440166986 -0.6643441423
1750289500.0 -0.748986428 -0.6593024782
1755289470.0 -0.7531570126 -0.6539845149
1760289440.0 -0.7578009102 -0.6490125055
1765289410.0 -0.7622793477 -0.6435153736
1770289380.0 -0.7665058508 -0.6391326262
1775289350.0 -0.7706411723 -0.6331757203
1780289320.0 -0.7750072585 -0.6284189868
1785289290.0 -0.7794903944 -0.6231892891
1790289260.0 -0.7835368384 -0.6168486179
1795289230.0 -0.7883553933 -0.6115623147
1800289200.0 -0.7925743026 -0.6058415428
1805289170.0 -0.7961922463 -0.6005261207
1810289140.0 -0.8003522629 -0.5949849473
1815289110.0 -0.8037680776 -0.5896954215
1820289080.0 -0.8080603641 -0.5842927098
1825289050.0 -0.8122566387 -0.5786486634
1830289020.0 -0.8156362731 -0.5732980439
1835288990.0 -0.8196460324 -0.5678346544
1840288960.0 -0.8235690305 -0.5620336196
1845288930.0 -0.8276807067 -0.5564840435
1850288900.0 -0.8305676653 -0.5502873419
1855288870.0 -0.8347685071 -0.5449040417
1860288840.0 -0.8391229867 -0.5384772112
1865288810.0 -0.842480332 -0.5328995179
1870288780.0 -0.8459139185 -0.5269274227
1875288750.0 -0.8494742585 -0.5214699838
1880288720.0 -0.8529194792 -0.5144753521
1885288690.0 -0.8569374216 -0.5088302521
1890288660.0 -0.8603547809 -0.5028103105
1895288630.0 -0.8633296743 -0.4966373732
1900288600.0 -0.8665357327 -0.4912419915
1905288570.0 -0.870403174 -0.4847666149
1910288540.0 -0.8734234718 -0.4792057798
1915288510.0 -0.8769184453 -0.4724641731
1920288480.0 -0.8799483644 -0.4662929412
1925288450.0 -0.882658344 -0.4606356132
1930288420.0 -0.8864987132 -0.4542567258
1935288390.0 -0.8897050032 -0.4475387984
1940288360.0 -0.8922720885 -0.4413912088
1945288330.0 -0.8950246835 -0.4353398125
1950288300.0 -0.8977609137 -0.428889843
1955288270.0 -0.9007716211 -0.4226091429
1960288240.0 -0.9045628861 -0.4157498802
1965288210.0 -0.9072366544 -0.4096846366
1970288180.0 -0.9094094204 -0.4034737644
1975288150.0 -0.9120219531 -0.3979161908
1980288120.0 -0.9146858889 -0.3911403212
1985288090.0 -0.9176044004 -0.3851579878
1990288060.0 -0.9193223862 -0.3790265403
1995288030.0 -0.922237371 -0.3730686499
2000288000.0 -0.9251398231 -0.366584964
2005287970.0 -0.9273957703 -0.3602913981
2010287940.0 -0.9298950556 -0.3531831455
2015287910.0 -0.9325709374 -0.3477289515
2020287880.0 -0.9336067499 -0.3406081461
2025287850.0 -0.9362348166 -0.3344803208
2030287820.0 -0.9391434753 -0.327385592
2035287790.0 -0.9406424337 -0.3209610907
2040287760.0 -0.9431848842 -0.3144375359
2045287730.0 -0.9456182991 -0.3079303519
2050287700.0 -0.9473572397 -0.3014392895
2055287670.0 -0.9501297685 -0.2951560597
2060287640.0 -0.9511163611 -0.2878572921
2065287610.0 -0.9536677432 -0.2814213287
2070287580.0 -0.9554812943 -0.2749909533
2075287550.0 -0.9571261132 -0.2683508161
2080287520.0 -0.9590874242 -0.2620971136
2085287490.0 -0.9604697265 -0.2547728808
2090287460.0 -0.9626467248 -0.2478487413
2095287430.0 -0.9632442189 -0.2418718099
2100287400.0 -0.9649345231 -0.2343860361
2105287370.0 -0.9666563933 -0.2277469829
2110287340.0 -0.9686547311 -0.222016623
2115287310.0 -0.9704697216 -0.2150284685
2120287280.0 -0.9715441485 -0.2083580267
2125287250.0 -0.9727748032 -0.2006398395
2130287220.0 -0.9745091207 -0.1941912079
2135287190.0 -0.9752128798 -0.187269419
2140287160.0 -0.9766752767 -0.1806779574
2145287130.0 -0.9776599093 -0.1734517872
2150287100.0 -0.9788405871 -0.1674245167
2155287070.0 -0.9799569973 -0.1599652516
2160287040.0 -0.981545999 -0.1535968049
2165287010.0 -0.9821774818 -0.146945257
2170286980.0 -0.9832909085 -0.1406545465
2175286950.0 -0.9837908092 -0.1332534304
2180286920.0 -0.984535585 -0.1269999218
2185286890.0 -0.9854375482 -0.120541902
2190286860.0 -0.986423166 -0.1140313882
2195286830.0 -0.9871505096 -0.1070710527
2200286800.0 -0.9873616795 -0.1006442764
2205286770.0 -0.9879189761 -0.0934344556
2210286740.0 -0.9883069125 -0.0869261762
2215286710.0 -0.9891652909 -0.0798724988
2220286680.0 -0.9897950333 -0.0725961155
2225286650.0 -0.9900117524 -0.0659540592
2230286620.0 -0.9902501216 -0.05850329
2235286590.0 -0.9909892651 -0.0520724106
2240286560.0 -0.9907880505 -0.0449467208
2245286530.0 -0.991821309 -0.0383060628
2250286500.0 -0.9916358525 -0.0312486868
2255286470.0 -0.9914624497 -0.0243537787
2260286440.0 -0.9917770977 -0.0170445851
2265286410.0 -0.9928871593 -0.0095428392
2270286380.0 -0.9917242692 -0.0033174852
2275286350.0 -0.99252595 0.0036890297
2280286320.0 -0.9919275387 0.010614659
2285286290.0 -0.9914028713 0.0172741953
2290286260.0 -0.9914193208 0.0246108856
2295286230.0 -0.9911820699 0.0312599492
2300286200.0 -0.9910531196 0.0384475116
2305286170.0 -0.9905129815 0.0452650127
2310286140.0 -0.9904001884 0.052299723
2315286110.0 -0.9899110332 0.0588543673
2320286080.0 -0.9895998263 0.0658806011
2325286050.0 -0.9890541796 0.0729728276
2330286020.0 -0.9883085386 0.0793496682
2335285990.0 -0.9877029496 0.0860220169
2340285960.0 -0.9871451839 0.0933626376
2345285930.0 -0.9866365307 0.0999131066
2350285900.0 -0.9852959342 0.1068185375
2355285870.0 -0.9850733728 0.1140411196
2360285840.0 -0.9841034409 0.1207288843
2365285810.0 -0.9836139747 0.1275911099
2370285780.0 -0.9821292246 0.1339868903
2375285750.0 -0.9811846031 0.1402844525
2380285720.0 -0.9804396805 0.1474530443
2385285690.0 -0.9794527955 0.1541008512
2390285660.0 -0.9776543547 0.1603792403
2395285630.0 -0.9771990731 0.1667219399
2400285600.0 -0.9757029891 0.1741151743
2405285570.0 -0.9746805107 0.1809287442
2410285540.0 -0.9737751321 0.1872804755
2415285510.0 -0.971704696 0.193671487
2420285480.0 -0.9707233878 0.1996695766
2425285450.0 -0.9689235054 0.2064506903
2430285420.0 -0.9677100202 0.2137160778
2435285390.0 -0.9661976508 0.2201540081
2440285360.0 -0.9644045532 0.2270672134
2445285330.0 -0.9628501334 0.233796767
2450285300.0 -0.9608967776 0.2406247584
2455285270.0 -0.9588958612 0.2479869987
2460285240.0 -0.9569445057 0.254189558
2465285210.0 -0.9558568641 0.2608521983
2470285180.0 -0.9533270525 0.2671340001
2475285150.0 -0.9519678536 0.2734559443
2480285120.0 -0.9499987842 0.2808382673
2485285090.0 -0.947953598 0.2874492409
2490285060.0 -0.9462829048 0.2939133376
2495285030.0 -0.9441348204 0.2997897526
2500285000.0 -0.9416803113 0.3071632033
