!Created with skrf (http://scikit-rf.org).
# Hz S RI R 50.0 
!freq ReS11 ImS11
45000000.0 -0.08176040649414062 -0.09290695190429688
49995500.0 -0.10254287719726562 -0.08876419067382812
54991000.0 -0.12304306030273438 -0.08065414428710938
59986500.0 -0.14179229736328125 -0.07859039306640625
64982000.0 -0.16063690185546875 -0.06902313232421875
69977500.0 -0.17903900146484375 -0.05438232421875
74973000.0 -0.19651031494140625 -0.03655242919921875
79968500.0 -0.2119293212890625 -0.01549530029296875
84964000.0 -0.22537994384765625 0.00881195068359375
89959500.0 -0.23593902587890625 0.03583526611328125
94955000.0 -0.24266815185546875 0.06581878662109375
99950500.0 -0.24547576904296875 0.09816741943359375
104946000.0 -0.243927001953125 0.13198089599609375
109941500.0 -0.23722076416015625 0.16680145263671875
114937000.0 -0.22553253173828125 0.20217132568359375
119932500.0 -0.208099365234375 0.2368011474609375
124928000.0 -0.1861114501953125 0.270599365234375
129923500.0 -0.15826416015625 0.301971435546875
134919000.0 -0.1256256103515625 0.3300933837890625
139914500.0 -0.088104248046875 0.3551025390625
144910000.0 -0.0462493896484375 0.3750152587890625
149905500.0 -0.0009002685546875 0.3901824951171875
154901000.0 0.0467987060546875 0.399749755859375
159896500.0 0.096893310546875 0.40228271484375
164892000.0 0.147857666015625 0.3990020751953125
169887500.0 0.1990509033203125 0.3890838623046875
174883000.0 0.249664306640625 0.372711181640625
179878500.0 0.2989654541015625 0.3496551513671875
184874000.0 0.345977783203125 0.3200836181640625
189869500.0 0.3901214599609375 0.2843017578125
194865000.0 0.4308929443359375 0.2431640625
199860500.0 0.4667510986328125 0.196258544921875
204856000.0 0.4972991943359375 0.144256591796875
209851500.0 0.52215576171875 0.088134765625
214847000.0 0.54107666015625 0.02813720703125
219842500.0 0.5528564453125 -0.0355224609375
224838000.0 0.557281494140625 -0.101287841796875
229833500.0 0.55389404296875 -0.16876220703125
234829000.0 0.54217529296875 -0.2364501953125
239824500.0 0.52178955078125 -0.3043212890625
244820000.0 0.4927825927734375 -0.3704833984375
249815500.0 0.4550018310546875 -0.4339141845703125
254811000.0 0.433502197265625 -0.4812164306640625
259806500.0 0.38287353515625 -0.53826904296875
264802000.0 0.32427978515625 -0.5899658203125
269797500.0 0.25811767578125 -0.634735107421875
274793000.0 0.18634033203125 -0.671630859375
279788500.0 0.10888671875 -0.6995849609375
284784000.0 0.027984619140625 -0.718170166015625
289779500.0 -0.0555419921875 -0.727142333984375
294775000.0 -0.140899658203125 -0.725982666015625
299770500.0 -0.226104736328125 -0.714599609375
304766000.0 -0.3101806640625 -0.69329833984375
309761500.0 -0.391693115234375 -0.661407470703125
314757000.0 -0.46942138671875 -0.6199951171875
319752500.0 -0.542572021484375 -0.569732666015625
324748000.0 -0.610504150390625 -0.51116943359375
329743500.0 -0.67193603515625 -0.444549560546875
334739000.0 -0.727081298828125 -0.3712158203125
339734500.0 -0.773773193359375 -0.290802001953125
344730000.0 -0.81207275390625 -0.20489501953125
349725500.0 -0.841156005859375 -0.1138916015625
354721000.0 -0.860382080078125 -0.018829345703125
359716500.0 -0.86907958984375 0.07940673828125
364712000.0 -0.866455078125 0.179931640625
369707500.0 -0.852264404296875 0.281829833984375
374703000.0 -0.82586669921875 0.383575439453125
379698500.0 -0.786834716796875 0.48333740234375
384694000.0 -0.734832763671875 0.579742431640625
389689500.0 -0.670440673828125 0.67047119140625
394685000.0 -0.59393310546875 0.754852294921875
399680500.0 -0.506256103515625 0.8292236328125
404676000.0 -0.40826416015625 0.892913818359375
409671500.0 -0.302703857421875 0.94573974609375
414667000.0 -0.190338134765625 0.983734130859375
419662500.0 -0.07275390625 1.00732421875
424658000.0 0.047607421875 1.01629638671875
429653500.0 0.16900634765625 1.00921630859375
434649000.0 0.288818359375 0.98583984375
439644500.0 0.40252685546875 0.94842529296875
444640000.0 0.510498046875 0.8990478515625
449635500.0 0.6114501953125 0.8388671875
454631000.0 0.70623779296875 0.768829345703125
459626500.0 0.79266357421875 0.6873779296875
464622000.0 0.86932373046875 0.59674072265625
469617500.0 0.935272216796875 0.498809814453125
474613000.0 0.99072265625 0.3944091796875
479608500.0 1.03533935546875 0.28448486328125
484604000.0 1.06884765625 0.170166015625
489599500.0 1.0904541015625 0.05169677734375
494595000.0 1.10040283203125 -0.06939697265625
499590500.0 1.09765625 -0.1927490234375
504586000.0 1.0819091796875 -0.31732177734375
509581500.0 1.05230712890625 -0.44171142578125
514577000.0 1.0078125 -0.56488037109375
519572500.0 0.94842529296875 -0.685089111328125
524568000.0 0.87347412109375 -0.800445556640625
529563500.0 0.783050537109375 -0.908294677734375
534559000.0 0.67742919921875 -1.0052490234375
539554500.0 0.558349609375 -1.08935546875
544550000.0 0.4283447265625 -1.15802001953125
549545500.0 0.28875732421875 -1.20941162109375
554541000.0 0.143798828125 -1.24273681640625
559536500.0 -0.00506591796875 -1.257568359375
564532000.0 -0.1546630859375 -1.25421142578125
569527500.0 -0.3031005859375 -1.23138427734375
574523000.0 -0.447509765625 -1.191162109375
579518500.0 -0.58489990234375 -1.13311767578125
584514000.0 -0.7138671875 -1.0587158203125
589509500.0 -0.8321533203125 -0.970458984375
594505000.0 -0.938201904296875 -0.869476318359375
599500500.0 -1.03143310546875 -0.75787353515625
604496000.0 -1.1109619140625 -0.63775634765625
609491500.0 -1.1761474609375 -0.5107421875
614487000.0 -1.2275390625 -0.37896728515625
619482500.0 -1.2650146484375 -0.2432861328125
624478000.0 -1.2886962890625 -0.104736328125
629473500.0 -1.29833984375 0.03521728515625
634469000.0 -1.29443359375 0.1756591796875
639464500.0 -1.27679443359375 0.31646728515625
644460000.0 -1.2451171875 0.45635986328125
649455500.0 -1.1993408203125 0.59454345703125
654451000.0 -1.13873291015625 0.7298583984375
659446500.0 -1.06280517578125 0.86065673828125
664442000.0 -0.9716796875 0.986358642578125
669437500.0 -0.86456298828125 1.1044921875
674433000.0 -0.74078369140625 1.21185302734375
679428500.0 -0.60205078125 1.3065185546875
684424000.0 -0.44879150390625 1.38507080078125
689419500.0 -0.282958984375 1.44525146484375
694415000.0 -0.1070556640625 1.48370361328125
699410500.0 0.075439453125 1.49847412109375
704406000.0 0.26025390625 1.48760986328125
709401500.0 0.44366455078125 1.45196533203125
714397000.0 0.62078857421875 1.390380859375
719392500.0 0.7879638671875 1.3057861328125
724388000.0 0.940673828125 1.2005615234375
729383500.0 1.07733154296875 1.076171875
734379000.0 1.19403076171875 0.9364013671875
739374500.0 1.29144287109375 0.786376953125
744370000.0 1.36688232421875 0.62689208984375
749365500.0 1.423095703125 0.463623046875
754361000.0 1.4599609375 0.2984619140625
759356500.0 1.477783203125 0.1328125
764352000.0 1.47784423828125 -0.0306396484375
769347500.0 1.46136474609375 -0.19085693359375
774343000.0 1.42974853515625 -0.347412109375
779338500.0 1.382568359375 -0.49847412109375
784334000.0 1.32305908203125 -0.6439208984375
789329500.0 1.24969482421875 -0.78326416015625
794325000.0 1.16339111328125 -0.9154052734375
799320500.0 1.06353759765625 -1.03900146484375
804316000.0 0.95147705078125 -1.154296875
809311500.0 0.8267822265625 -1.259765625
814307000.0 0.69000244140625 -1.353271484375
819302500.0 0.5411376953125 -1.43377685546875
824298000.0 0.38037109375 -1.49798583984375
829293500.0 0.2115478515625 -1.5462646484375
834289000.0 0.03350830078125 -1.572998046875
839284500.0 -0.1502685546875 -1.580322265625
844280000.0 -0.2708740234375 -1.5977783203125
849275500.0 -0.46063232421875 -1.56591796875
854271000.0 -0.64569091796875 -1.50848388671875
859266500.0 -0.82318115234375 -1.4276123046875
864262000.0 -0.9888916015625 -1.3233642578125
869257500.0 -1.14019775390625 -1.19854736328125
874253000.0 -1.27325439453125 -1.0557861328125
879248500.0 -1.38604736328125 -0.89849853515625
884244000.0 -1.47845458984375 -0.73028564453125
889239500.0 -1.54840087890625 -0.5540771484375
894235000.0 -1.5972900390625 -0.37347412109375
899230500.0 -1.6251220703125 -0.19073486328125
904226000.0 -1.63226318359375 -0.0074462890625
909221500.0 -1.61883544921875 0.17376708984375
914217000.0 -1.58599853515625 0.3507080078125
919212500.0 -1.53472900390625 0.5213623046875
924208000.0 -1.46649169921875 0.684326171875
929203500.0 -1.38385009765625 0.837646484375
934199000.0 -1.28717041015625 0.98150634765625
939194500.0 -1.1767578125 1.1138916015625
944190000.0 -1.0546875 1.237060546875
949185500.0 -0.9205322265625 1.34918212890625
954181000.0 -0.7747802734375 1.44775390625
959176500.0 -0.6180419921875 1.53350830078125
964172000.0 -0.449951171875 1.603515625
969167500.0 -0.27239990234375 1.657470703125
974163000.0 -0.086181640625 1.69134521484375
979158500.0 0.10687255859375 1.70428466796875
984154000.0 0.3038330078125 1.6949462890625
989149500.0 0.50225830078125 1.660888671875
994145000.0 0.6976318359375 1.6011962890625
999140500.0 0.88714599609375 1.51641845703125
1004136000.0 1.06610107421875 1.40631103515625
1009131500.0 1.23095703125 1.27325439453125
1014127000.0 1.377197265625 1.11846923828125
1019122500.0 1.50164794921875 0.94635009765625
1024118000.0 1.60137939453125 0.75970458984375
1029113500.0 1.6763916015625 0.563720703125
1034109000.0 1.72552490234375 0.36114501953125
1039104500.0 1.74896240234375 0.15679931640625
1044100000.0 1.747314453125 -0.04595947265625
1049095500.0 1.72198486328125 -0.24365234375
1054091000.0 1.67498779296875 -0.4349365234375
1059086500.0 1.608642578125 -0.6168212890625
1064082000.0 1.5242919921875 -0.7877197265625
1069077500.0 1.4239501953125 -0.9466552734375
1074073000.0 1.30914306640625 -1.09307861328125
1079068500.0 1.1810302734375 -1.227294921875
1084064000.0 1.04107666015625 -1.3470458984375
1089059500.0 0.8895263671875 -1.45257568359375
1094055000.0 0.728515625 -1.54290771484375
1099050500.0 0.55767822265625 -1.6171875
1104046000.0 0.3798828125 -1.6739501953125
1109041500.0 0.194091796875 -1.713134765625
1114037000.0 0.0040283203125 -1.73236083984375
1119032500.0 -0.1905517578125 -1.7308349609375
1124028000.0 -0.3870849609375 -1.7073974609375
1129023500.0 -0.581787109375 -1.66082763671875
1134019000.0 -0.773193359375 -1.59075927734375
1139014500.0 -0.95672607421875 -1.4970703125
1144010000.0 -1.12982177734375 -1.38043212890625
1149005500.0 -1.2879638671875 -1.2410888671875
1154001000.0 -1.4287109375 -1.08197021484375
1158996500.0 -1.54840087890625 -0.9056396484375
1163992000.0 -1.64422607421875 -0.7149658203125
1168987500.0 -1.714599609375 -0.5137939453125
1173983000.0 -1.7586669921875 -0.30645751953125
1178978500.0 -1.7755126953125 -0.096435546875
1183974000.0 -1.76678466796875 0.11248779296875
1188969500.0 -1.73193359375 0.31573486328125
1193965000.0 -1.67425537109375 0.5101318359375
1198960500.0 -1.5943603515625 0.694091796875
1203956000.0 -1.49566650390625 0.86480712890625
1208951500.0 -1.379150390625 1.020751953125
1213947000.0 -1.24908447265625 1.16070556640625
1218942500.0 -1.10601806640625 1.28375244140625
1223938000.0 -0.95355224609375 1.38946533203125
1228933500.0 -0.79217529296875 1.477294921875
1233929000.0 -0.62481689453125 1.548095703125
1238924500.0 -0.45233154296875 1.60028076171875
1243920000.0 -0.2763671875 1.63507080078125
1248915500.0 -0.09991455078125 1.65240478515625
1253911000.0 0.07763671875 1.6514892578125
1258906500.0 0.25421142578125 1.63330078125
1263902000.0 0.42999267578125 1.597900390625
1268897500.0 0.59808349609375 1.54278564453125
1273893000.0 0.762939453125 1.4716796875
1278888500.0 0.91973876953125 1.3829345703125
1283884000.0 1.06756591796875 1.27728271484375
1288879500.0 1.20477294921875 1.155517578125
1293875000.0 1.3277587890625 1.0179443359375
1298870500.0 1.4361572265625 0.86669921875
1303866000.0 1.52740478515625 0.70306396484375
1308861500.0 1.599853515625 0.52960205078125
1313857000.0 1.653076171875 0.34722900390625
1318852500.0 1.68450927734375 0.1593017578125
1323848000.0 1.69464111328125 -0.03179931640625
1328843500.0 1.6822509765625 -0.2236328125
1333839000.0 1.648193359375 -0.4129638671875
1338834500.0 1.59222412109375 -0.59814453125
1343830000.0 1.51568603515625 -0.77655029296875
1348825500.0 1.4180908203125 -0.94384765625
1353821000.0 1.30218505859375 -1.10064697265625
1358816500.0 1.16827392578125 -1.24169921875
1363812000.0 1.01910400390625 -1.36737060546875
1368807500.0 0.85595703125 -1.47442626953125
1373803000.0 0.68084716796875 -1.5615234375
1378798500.0 0.4971923828125 -1.627197265625
1383794000.0 0.30718994140625 -1.6708984375
1388789500.0 0.11383056640625 -1.6915283203125
1393785000.0 -0.0794677734375 -1.68927001953125
1398780500.0 -0.27044677734375 -1.6644287109375
1403776000.0 -0.4556884765625 -1.6177978515625
1408771500.0 -0.63330078125 -1.5499267578125
1413767000.0 -0.8006591796875 -1.46295166015625
1418762500.0 -0.95513916015625 -1.3587646484375
1423758000.0 -1.09521484375 -1.23883056640625
1428753500.0 -1.22021484375 -1.10577392578125
1433749000.0 -1.32965087890625 -0.96136474609375
1438744500.0 -1.421142578125 -0.80755615234375
1443740000.0 -1.49652099609375 -0.64605712890625
1448735500.0 -1.5535888671875 -0.47943115234375
1453731000.0 -1.59344482421875 -0.30853271484375
1458726500.0 -1.61566162109375 -0.13470458984375
1463722000.0 -1.6202392578125 0.03924560546875
1468717500.0 -1.60748291015625 0.2139892578125
1473713000.0 -1.57696533203125 0.38751220703125
1478708500.0 -1.52899169921875 0.55718994140625
1483704000.0 -1.4635009765625 0.72283935546875
1488699500.0 -1.380126953125 0.882080078125
1493695000.0 -1.27886962890625 1.0330810546875
1498690500.0 -1.160888671875 1.17462158203125
1503686000.0 -1.02532958984375 1.302978515625
1508681500.0 -0.87384033203125 1.41790771484375
1513677000.0 -0.70819091796875 1.5142822265625
1518672500.0 -0.52899169921875 1.59112548828125
1523668000.0 -0.3404541015625 1.64581298828125
1528663500.0 -0.14520263671875 1.67657470703125
1533659000.0 0.0543212890625 1.6824951171875
1538654500.0 0.25213623046875 1.6622314453125
1543650000.0 0.44561767578125 1.61663818359375
1548645500.0 0.63037109375 1.5462646484375
1553641000.0 0.80352783203125 1.45391845703125
1558636500.0 0.9605712890625 1.3416748046875
1563632000.0 1.101318359375 1.212890625
1568627500.0 1.222900390625 1.0699462890625
1573623000.0 1.32440185546875 0.91729736328125
1578618500.0 1.40631103515625 0.75677490234375
1583614000.0 1.4678955078125 0.59185791015625
1588609500.0 1.51055908203125 0.424072265625
1593605000.0 1.53558349609375 0.25634765625
1598600500.0 1.542724609375 0.08984375
1603596000.0 1.533447265625 -0.07415771484375
1608591500.0 1.5086669921875 -0.23443603515625
1613587000.0 1.4696044921875 -0.38970947265625
1618582500.0 1.4156494140625 -0.5389404296875
1623578000.0 1.3487548828125 -0.68267822265625
1628573500.0 1.2684326171875 -0.819580078125
1633569000.0 1.17535400390625 -0.9482421875
1638564500.0 1.070068359375 -1.0673828125
1643560000.0 0.9520263671875 -1.177490234375
1648555500.0 0.82232666015625 -1.27520751953125
1653551000.0 0.68109130859375 -1.3612060546875
1658546500.0 0.530029296875 -1.43157958984375
1663542000.0 0.37005615234375 -1.48590087890625
1668537500.0 0.20306396484375 -1.52215576171875
1673533000.0 0.031005859375 -1.53863525390625
1678528500.0 -0.14324951171875 -1.5347900390625
1683524000.0 -0.3170166015625 -1.5084228515625
1688519500.0 -0.48773193359375 -1.4617919921875
1693515000.0 -0.6505126953125 -1.39288330078125
1698510500.0 -0.80218505859375 -1.3062744140625
1703506000.0 -0.94073486328125 -1.2021484375
1708501500.0 -1.06475830078125 -1.0823974609375
1713497000.0 -1.1719970703125 -0.95086669921875
1718492500.0 -1.2615966796875 -0.8099365234375
1723488000.0 -1.33331298828125 -0.6627197265625
1728483500.0 -1.38787841796875 -0.51129150390625
1733479000.0 -1.42523193359375 -0.35784912109375
1738474500.0 -1.44635009765625 -0.20440673828125
1743470000.0 -1.451904296875 -0.05230712890625
1748465500.0 -1.4434814453125 0.097900390625
1753461000.0 -1.42193603515625 0.2452392578125
1758456500.0 -1.3875732421875 0.38922119140625
1763452000.0 -1.34027099609375 0.5289306640625
1768447500.0 -1.2811279296875 0.664306640625
1773443000.0 -1.20892333984375 0.794189453125
1778438500.0 -1.125 0.91912841796875
1783434000.0 -1.02813720703125 1.0367431640625
1788429500.0 -0.918701171875 1.14678955078125
1793425000.0 -0.7957763671875 1.24725341796875
1798420500.0 -0.66064453125 1.3359375
1803416000.0 -0.513427734375 1.41070556640625
1808411500.0 -0.3544921875 1.4698486328125
1813407000.0 -0.18658447265625 1.5101318359375
1818402500.0 -0.0125732421875 1.529296875
1823398000.0 0.165771484375 1.52691650390625
1828393500.0 0.34307861328125 1.5013427734375
1833389000.0 0.51690673828125 1.4520263671875
1838384500.0 0.68377685546875 1.38006591796875
1843380000.0 0.8380126953125 1.28778076171875
1848375500.0 0.97821044921875 1.1766357421875
1853371000.0 1.100830078125 1.05029296875
1858366500.0 1.20513916015625 0.912109375
1863362000.0 1.29034423828125 0.76483154296875
1868357500.0 1.35662841796875 0.61248779296875
1873353000.0 1.40435791015625 0.45733642578125
1878348500.0 1.4344482421875 0.301513671875
1883344000.0 1.448486328125 0.14630126953125
1888339500.0 1.44683837890625 -0.00604248046875
1893335000.0 1.431640625 -0.15533447265625
1898330500.0 1.40283203125 -0.30047607421875
1903326000.0 1.3619384765625 -0.44158935546875
1908321500.0 1.30865478515625 -0.576904296875
1913317000.0 1.24432373046875 -0.70782470703125
1918312500.0 1.16827392578125 -0.83349609375
1923308000.0 1.08026123046875 -0.952392578125
1928303500.0 0.98040771484375 -1.0645751953125
1933299000.0 0.86846923828125 -1.16845703125
1938294500.0 0.7445068359375 -1.26190185546875
1943290000.0 0.60894775390625 -1.3441162109375
1948285500.0 0.462158203125 -1.4130859375
1953281000.0 0.30548095703125 -1.46551513671875
1958276500.0 0.14056396484375 -1.50042724609375
1963272000.0 -0.03076171875 -1.515625
1968267500.0 -0.20501708984375 -1.509521484375
1973263000.0 -0.3782958984375 -1.48138427734375
1978258500.0 -0.548828125 -1.43060302734375
1983254000.0 -0.71142578125 -1.35821533203125
1988249500.0 -0.86309814453125 -1.2657470703125
1993245000.0 -1.00189208984375 -1.1546630859375
1998240500.0 -1.12396240234375 -1.0284423828125
2003236000.0 -1.2279052734375 -0.8905029296875
2008231500.0 -1.31402587890625 -0.7430419921875
2013227000.0 -1.38116455078125 -0.588134765625
2018222500.0 -1.42913818359375 -0.4298095703125
2023218000.0 -1.459228515625 -0.270263671875
2028213500.0 -1.47247314453125 -0.1104736328125
2033209000.0 -1.46893310546875 0.047119140625
2038204500.0 -1.4501953125 0.201904296875
2043200000.0 -1.41668701171875 0.3524169921875
2048195500.0 -1.36895751953125 0.49810791015625
2053191000.0 -1.307373046875 0.63861083984375
2058186500.0 -1.2337646484375 0.772705078125
2063182000.0 -1.145751953125 0.8984375
2068177500.0 -1.04638671875 1.0159912109375
2073173000.0 -0.93450927734375 1.1236572265625
2078168500.0 -0.81134033203125 1.22052001953125
2083164000.0 -0.67718505859375 1.30426025390625
2088159500.0 -0.53350830078125 1.3746337890625
2093155000.0 -0.38104248046875 1.42877197265625
2098150500.0 -0.222412109375 1.4656982421875
2103146000.0 -0.0587158203125 1.4852294921875
2108141500.0 0.106689453125 1.48406982421875
2113137000.0 0.271484375 1.464599609375
2118132500.0 0.43341064453125 1.42535400390625
2123128000.0 0.58892822265625 1.36651611328125
2128123500.0 0.7359619140625 1.29071044921875
2133119000.0 0.87213134765625 1.1988525390625
2138114500.0 0.9959716796875 1.09259033203125
2143110000.0 1.1055908203125 0.97418212890625
2148105500.0 1.199951171875 0.845458984375
2153101000.0 1.2794189453125 0.70928955078125
2158096500.0 1.34307861328125 0.56695556640625
2163092000.0 1.39215087890625 0.42047119140625
2168087500.0 1.42529296875 0.27166748046875
2173083000.0 1.4439697265625 0.121826171875
2178078500.0 1.44793701171875 -0.02825927734375
2183074000.0 1.43804931640625 -0.1785888671875
2188069500.0 1.4140625 -0.326416015625
