!Created with skrf (http://scikit-rf.org).
# Hz S RI R 50.0 
!freq ReS11 ImS11
300000.0 -1.016690771 -0.1535472648
5299970.0 -1.002592338 0.0081852839
10299940.0 -1.000881245 0.0131214496
15299910.0 -0.999857241 0.0252190228
20299880.0 -0.9995840078 0.0291235665
25299850.0 -0.9993541168 0.0375148606
30299820.0 -0.9991532248 0.0454901135
35299790.0 -0.9982075245 0.0506303904
40299760.0 -0.9974641009 0.0571868026
45299730.0 -0.9969947816 0.0644200841
50299700.0 -0.9966282409 0.0718117032
55299670.0 -0.9958223154 0.0794901752
60299640.0 -0.9948910293 0.0853978411
65299610.0 -0.9943054282 0.0925060679
70299580.0 -0.9933692599 0.0993426998
75299550.0 -0.9929612766 0.1058404324
80299520.0 -0.9917807034 0.1128118319
85299490.0 -0.9904566277 0.1198553865
90299460.0 -0.9893311629 0.126005523
95299430.0 -0.9890047893 0.1335256606
100299400.0 -0.9875041791 0.1402157888
105299370.0 -0.9860080458 0.1471158133
110299340.0 -0.9852105882 0.1539433226
115299310.0 -0.9839928935 0.1610019631
120299280.0 -0.9828564672 0.1670667114
125299250.0 -0.9820309134 0.1737104847
130299220.0 -0.979908978 0.1807357641
135299190.0 -0.9796029135 0.1873805974
140299160.0 -0.9775195575 0.1940475466
145299130.0 -0.9762846515 0.2009743349
150299100.0 -0.9744530904 0.2072403089
155299070.0 -0.9735066767 0.213789251
160299040.0 -0.9719479168 0.2208691362
165299010.0 -0.970460241 0.227125629
170298980.0 -0.9680305552 0.2340436901
175298950.0 -0.9653861745 0.2400030684
180298920.0 -0.9626401288 0.245438637
185298890.0 -0.9622700514 0.2527722796
190298860.0 -0.9617026174 0.2604628596
195298830.0 -0.9600751873 0.2669012593
200298800.0 -0.9582239563 0.2736277673
205298770.0 -0.9560572881 0.2793911695
210298740.0 -0.9539926411 0.2859810156
215298710.0 -0.9520593036 0.2928956145
220298680.0 -0.9502364671 0.2996040171
225298650.0 -0.9480904569 0.3069416434
230298620.0 -0.9454101184 0.3125067743
235298590.0 -0.9433803933 0.3190218387
240298560.0 -0.941073995 0.3257970248
245298530.0 -0.9390125462 0.3319519152
250298500.0 -0.9370915598 0.3389905296
255298470.0 -0.9339899715 0.3450192797
260298440.0 -0.9322375584 0.3512301668
265298410.0 -0.9293171891 0.3575168574
270298380.0 -0.9275272125 0.3641082031
275298350.0 -0.9240672614 0.37003933
280298320.0 -0.9216417762 0.3765510088
285298290.0 -0.918923899 0.3825972518
290298260.0 -0.9162995229 0.3894557657
295298230.0 -0.9141853543 0.3956911467
300298200.0 -0.9116445441 0.4018481195
305298170.0 -0.9081167636 0.4075839972
310298140.0 -0.9054560166 0.4140752706
315298110.0 -0.9025567973 0.4203254935
320298080.0 -0.8990893426 0.4267839068
325298050.0 -0.8969553252 0.4324226444
330298020.0 -0.8937165605 0.4385145017
335297990.0 -0.8901880457 0.4452039069
340297960.0 -0.8871427668 0.4512077719
345297930.0 -0.8842957371 0.4568477985
350297900.0 -0.8819981185 0.4628532559
355297870.0 -0.8785053085 0.4687491209
360297840.0 -0.8757945985 0.4754207406
365297810.0 -0.8728483151 0.4809315343
370297780.0 -0.868527584 0.486679044
375297750.0 -0.8646713458 0.4923380256
380297720.0 -0.8610731235 0.4983195759
385297690.0 -0.8583166477 0.5045626063
390297660.0 -0.8537171122 0.5106098767
395297630.0 -0.8508096781 0.5157966718
400297600.0 -0.8469348725 0.5222733438
405297570.0 -0.8434171314 0.5274277957
410297540.0 -0.8398410831 0.5336431477
415297510.0 -0.8365802195 0.5393458806
420297480.0 -0.8330876259 0.5452818955
425297450.0 -0.8284424036 0.5508181135
430297420.0 -0.8251360481 0.5565312372
435297390.0 -0.8206172288 0.5623429472
440297360.0 -0.8169275757 0.5679882244
445297330.0 -0.8127955775 0.5726202837
450297300.0 -0.8093352428 0.5787052225
455297270.0 -0.8056836224 0.5844393207
460297240.0 -0.8012810576 0.5898443616
465297210.0 -0.7970163236 0.5956148592
470297180.0 -0.7933250585 0.6008923325
475297150.0 -0.7887452874 0.6064250965
480297120.0 -0.7845560825 0.6115332048
485297090.0 -0.7805411594 0.6162090721
490297060.0 -0.7762175913 0.621670176
495297030.0 -0.7713647135 0.6274563901
500297000.0 -0.7677615405 0.6325830022
505296970.0 -0.7636934016 0.6381458391
510296940.0 -0.7593589032 0.6433333584
515296910.0 -0.7551299969 0.6482909543
520296880.0 -0.7506131485 0.6538891209
525296850.0 -0.7462809859 0.6591497677
530296820.0 -0.7415464793 0.6636143281
535296790.0 -0.7369936536 0.6688361768
540296760.0 -0.7317194998 0.6742261958
545296730.0 -0.7280640905 0.6792532678
550296700.0 -0.7231620174 0.6839495669
555296670.0 -0.7181944098 0.6886004563
560296640.0 -0.7133003694 0.6926617939
565296610.0 -0.7077040437 0.6976713349
570296580.0 -0.7030497956 0.703239952
575296550.0 -0.6979613687 0.7080207944
580296520.0 -0.6930323599 0.7124624722
585296490.0 -0.6878100158 0.7172578201
590296460.0 -0.6834570375 0.7221913145
595296430.0 -0.6789305669 0.7266131457
600296400.0 -0.6730902314 0.7313054937
605296370.0 -0.6686169992 0.7357037763
610296340.0 -0.6634000517 0.7396411892
615296310.0 -0.6584776013 0.7444390753
620296280.0 -0.6528419299 0.7492283926
625296250.0 -0.6480474971 0.7532602455
630296220.0 -0.6431853394 0.757657549
635296190.0 -0.638432404 0.7618873885
640296160.0 -0.6327053246 0.7660439552
645296130.0 -0.627528926 0.7706227201
650296100.0 -0.6219434482 0.7747204759
655296070.0 -0.6166065588 0.7791603456
660296040.0 -0.6109073058 0.7831637507
665296010.0 -0.6058916734 0.7868257927
670295980.0 -0.6004178337 0.7912515854
675295950.0 -0.5947019995 0.7956202245
680295920.0 -0.5894383119 0.8000204423
685295890.0 -0.5843677019 0.8038767483
690295860.0 -0.5786949559 0.8074813828
695295830.0 -0.5731237308 0.8118878163
700295800.0 -0.5675542913 0.8154794438
705295770.0 -0.5618630046 0.8189128889
710295740.0 -0.5566021001 0.8227636992
715295710.0 -0.5508625476 0.8263976559
720295680.0 -0.5450928934 0.8306161725
725295650.0 -0.5392993522 0.8342369225
730295620.0 -0.5336136431 0.8382731727
735295590.0 -0.5284463286 0.8414048518
740295560.0 -0.5225122106 0.8450783405
745295530.0 -0.5165543995 0.848815754
750295500.0 -0.5108439802 0.8525883525
755295470.0 -0.5045431374 0.8552562183
760295440.0 -0.4989621484 0.8584637627
765295410.0 -0.4934365703 0.861926826
770295380.0 -0.4866934158 0.8655370465
775295350.0 -0.48123107 0.8693278125
780295320.0 -0.4748287864 0.8725003679
785295290.0 -0.4690375757 0.8760210997
790295260.0 -0.4628069416 0.8785062205
795295230.0 -0.4566194371 0.8814041355
800295200.0 -0.450946273 0.8842584218
805295170.0 -0.445028654 0.8873450914
810295140.0 -0.4384391912 0.8900386086
815295110.0 -0.4322585333 0.8928591264
820295080.0 -0.4264367077 0.8964903386
825295050.0 -0.4201051626 0.8990582138
830295020.0 -0.4138400175 0.9015537434
835294990.0 -0.4077702039 0.9050901978
840294960.0 -0.401564716 0.9072497019
845294930.0 -0.3952853339 0.9104901338
850294900.0 -0.3888196502 0.9132785595
855294870.0 -0.382475944 0.9155205619
860294840.0 -0.3763579891 0.9181305615
865294810.0 -0.3699238642 0.9208437633
870294780.0 -0.3636862135 0.9229589126
875294750.0 -0.3578929381 0.925775825
880294720.0 -0.3516321709 0.9279227759
885294690.0 -0.3451973388 0.9300925777
890294660.0 -0.3382603443 0.9321649458
895294630.0 -0.3319416742 0.9346802456
900294600.0 -0.32589863 0.9366903128
905294570.0 -0.3195202779 0.9389160822
910294540.0 -0.3128912192 0.9408394037
915294510.0 -0.3060120247 0.9425773371
920294480.0 -0.3000574834 0.9448799784
925294450.0 -0.2936347961 0.9470688162
930294420.0 -0.2868622758 0.9492090287
935294390.0 -0.2805824611 0.9506249246
940294360.0 -0.2744654752 0.9524798265
945294330.0 -0.2677959485 0.9542131594
950294300.0 -0.2610232637 0.9561851411
955294270.0 -0.2542997705 0.9579451068
960294240.0 -0.2478605791 0.9595375089
965294210.0 -0.2410980439 0.961313342
970294180.0 -0.2347085107 0.9629207281
975294150.0 -0.2283347795 0.9644255364
980294120.0 -0.2219847115 0.9663157621
985294090.0 -0.2153256981 0.9675299378
990294060.0 -0.2087309864 0.9686737384
995294030.0 -0.2018264153 0.9702867818
1000294000.0 -0.195480502 0.9719405019
1005293970.0 -0.1889395888 0.9731602817
1010293940.0 -0.1820948516 0.9741500892
1015293910.0 -0.1751552417 0.9750805555
1020293880.0 -0.1687625808 0.9764478049
1025293850.0 -0.1628173326 0.9774149479
1030293820.0 -0.1553731908 0.9784155782
1035293790.0 -0.1491019325 0.9797556427
1040293760.0 -0.1423116891 0.9804250856
1045293730.0 -0.1349636208 0.981303286
1050293700.0 -0.1283165037 0.9825248775
1055293670.0 -0.1217796564 0.9832930986
1060293640.0 -0.1148357875 0.9842143932
1065293610.0 -0.1086499956 0.9843587983
1070293580.0 -0.1019022471 0.9851694571
1075293550.0 -0.095052473 0.9857471597
1080293520.0 -0.0883469348 0.9865565565
1085293490.0 -0.081692265 0.9868991618
1090293460.0 -0.0744830932 0.9875525536
1095293430.0 -0.067845382 0.9879259752
1100293400.0 -0.0606604974 0.9886075424
1105293370.0 -0.0537050964 0.9889604328
1110293340.0 -0.047233415 0.9893452549
1115293310.0 -0.0407171681 0.9895312897
1120293280.0 -0.0340257758 0.9898997598
1125293250.0 -0.0280316163 0.9899284149
1130293220.0 -0.0215406358 0.990341867
1135293190.0 -0.0147255046 0.9896618263
1140293160.0 -0.0071524904 0.9900904727
1145293130.0 -0.0001968183 0.9901682058
1150293100.0 0.0066299796 0.9904616451
1155293070.0 0.013113934 0.9900274735
1160293040.0 0.0201923169 0.9900758267
1165293010.0 0.0262903517 0.9901143797
1170292980.0 0.0334251242 0.9896638854
1175292950.0 0.0399791785 0.9888880493
1180292920.0 0.0464766711 0.9890690585
1185292890.0 0.0531913101 0.9886381993
1190292860.0 0.0602031967 0.9882909246
1195292830.0 0.0670011426 0.9877792976
1200292800.0 0.0734404688 0.986794953
1205292770.0 0.080159433 0.986489352
1210292740.0 0.0864034631 0.9859811922
1215292710.0 0.0936353749 0.9853134855
1220292680.0 0.1003357339 0.9847622535
1225292650.0 0.1074544637 0.9840747401
1230292620.0 0.1141479258 0.9832219209
1235292590.0 0.1209026709 0.9824880656
1240292560.0 0.1273120592 0.9817236557
1245292530.0 0.1342039803 0.9804836306
1250292500.0 0.1408336162 0.9798786098
1255292470.0 0.1479962311 0.97885978
1260292440.0 0.1537619029 0.9775095398
1265292410.0 0.1614506378 0.9768142862
1270292380.0 0.167370899 0.9751356491
1275292350.0 0.1738174761 0.9745267082
1280292320.0 0.1812120956 0.972323339
1285292290.0 0.1878937249 0.9717172162
1290292260.0 0.1943562438 0.9703954676
1295292230.0 0.200508024 0.9690104172
1300292200.0 0.2066417578 0.9674377553
1305292170.0 0.2136519829 0.9667578427
1310292140.0 0.2205343555 0.9655605094
1315292110.0 0.2269802386 0.9634668371
1320292080.0 0.2335555434 0.9619664211
1325292050.0 0.2399833087 0.9601435558
1330292020.0 0.2467822209 0.9581632519
1335291990.0 0.2532242133 0.9568879343
1340291960.0 0.2596962632 0.9550722593
1345291930.0 0.2668623483 0.9529771015
1350291900.0 0.2737238417 0.9514300813
1355291870.0 0.2795778113 0.9495111996
1360291840.0 0.2860503069 0.947619973
1365291810.0 0.292298391 0.9455598238
1370291780.0 0.2982308727 0.9432216744
1375291750.0 0.304871823 0.9411927217
1380291720.0 0.3113803562 0.939688066
1385291690.0 0.3181064656 0.9368873894
1390291660.0 0.3251679835 0.9350814294
1395291630.0 0.3307329676 0.9331280011
1400291600.0 0.3376456157 0.930637623
1405291570.0 0.3439126892 0.9279037397
1410291540.0 0.3498439786 0.9260473114
1415291510.0 0.355998142 0.9236999794
1420291480.0 0.3623606332 0.9209086141
1425291450.0 0.3690722626 0.9190286756
1430291420.0 0.3754183474 0.9157258034
1435291390.0 0.3813124251 0.9130324358
1440291360.0 0.3872334433 0.9105444217
1445291330.0 0.3932650948 0.9082722095
1450291300.0 0.3992273597 0.9051308754
1455291270.0 0.405672871 0.9029188067
1460291240.0 0.4113634194 0.8999655688
1465291210.0 0.4180192008 0.8972915918
1470291180.0 0.4245375155 0.8942949643
1475291150.0 0.4307390329 0.8915501599
1480291120.0 0.4363180016 0.8883595883
1485291090.0 0.4424541661 0.8856345984
1490291060.0 0.4482448924 0.8825956312
1495291030.0 0.4551614047 0.8795291483
1500291000.0 0.4601534219 0.8762177649
1505290970.0 0.4663861912 0.8725107008
1510290940.0 0.4727750141 0.8702118994
1515290910.0 0.4781739893 0.8664029762
1520290880.0 0.4845248105 0.8630543222
1525290850.0 0.4903418008 0.8597362678
1530290820.0 0.4962650668 0.8565404897
1535290790.0 0.501551968 0.8528238167
1540290760.0 0.5076087106 0.8489844959
1545290730.0 0.5134318714 0.8458913364
1550290700.0 0.5192287446 0.8423348869
1555290670.0 0.5250092192 0.8387572638
1560290640.0 0.5300141991 0.835658339
1565290610.0 0.536066087 0.8313666974
1570290580.0 0.5423779229 0.8285245487
1575290550.0 0.5479126556 0.8241347689
1580290520.0 0.5536250963 0.8210406987
1585290490.0 0.5592058111 0.8171676894
1590290460.0 0.5647427911 0.8132045261
1595290430.0 0.5704378623 0.8096312615
1600290400.0 0.5756140129 0.8054174761
1605290370.0 0.5816744443 0.8021689391
1610290340.0 0.5872614137 0.7973862753
1615290310.0 0.5925577857 0.7933699784
1620290280.0 0.5978314475 0.7897630035
1625290250.0 0.6030494181 0.7852924741
1630290220.0 0.6087476567 0.7809970009
1635290190.0 0.6135642855 0.7772291415
1640290160.0 0.61913256 0.773289335
1645290130.0 0.6233121068 0.7686206452
1650290100.0 0.629258979 0.7650797133
1655290070.0 0.6347413421 0.7601268984
1660290040.0 0.6392903152 0.7559886869
1665290010.0 0.6445508093 0.7511513017
1670289980.0 0.6498451183 0.74746147
1675289950.0 0.6548312398 0.7422329912
1680289920.0 0.6603145143 0.7379331419
1685289890.0 0.6655613094 0.7338676177
1690289860.0 0.6701659921 0.7284780795
1695289830.0 0.6754877138 0.723798758
1700289800.0 0.6804708091 0.7188054561
1705289770.0 0.6850283335 0.7150251039
1710289740.0 0.6903075001 0.7098287117
1715289710.0 0.6950162478 0.7051246856
1720289680.0 0.6997937426 0.7002760846
1725289650.0 0.7042273173 0.6954233543
1730289620.0 0.7089063158 0.6910769718
1735289590.0 0.7137748739 0.6865101744
1740289560.0 0.7190379419 0.6819057098
1745289530.0 0.7236563581 0.6765301855
1750289500.0 0.7278395629 0.6717718335
1755289470.0 0.7323751252 0.6662400391
1760289440.0 0.73676913 0.6617654255
1765289410.0 0.7413945122 0.6565326375
1770289380.0 0.745722336 0.6520653606
1775289350.0 0.7502491327 0.6469569738
1780289320.0 0.7547285327 0.6417699756
1785289290.0 0.7593208755 0.6361817519
1790289260.0 0.7628968681 0.6310563809
1795289230.0 0.7681489508 0.6255095636
1800289200.0 0.7725511131 0.6200306127
1805289170.0 0.7764560306 0.6147261255
1810289140.0 0.7806050403 0.6098688998
1815289110.0 0.785347739 0.604909222
1820289080.0 0.7885976992 0.5994810172
1825289050.0 0.7924920059 0.5942984503
1830289020.0 0.7964200877 0.5892901005
1835288990.0 0.8007983402 0.5845078135
1840288960.0 0.8041348514 0.5783302474
1845288930.0 0.8089242548 0.5732288461
1850288900.0 0.8123633591 0.567711995
1855288870.0 0.816205943 0.5620795213
1860288840.0 0.8200840678 0.5557697482
1865288810.0 0.8245401518 0.5505565913
1870288780.0 0.828105679 0.5445016846
1875288750.0 0.8317887393 0.5387378019
1880288720.0 0.8355372118 0.5334304154
1885288690.0 0.8390583756 0.527586267
1890288660.0 0.8424962722 0.5212838195
1895288630.0 0.8461952322 0.5157775912
1900288600.0 0.8497286043 0.5103542377
1905288570.0 0.8527527256 0.5042754569
1910288540.0 0.8568443244 0.4984435968
1915288510.0 0.8599047122 0.4927050063
1920288480.0 0.8639885953 0.4867397102
1925288450.0 0.8672757803 0.4808609073
1930288420.0 0.8703116617 0.4747113268
1935288390.0 0.873520207 0.4686090648
1940288360.0 0.8764433952 0.4625145528
1945288330.0 0.8795982047 0.4565396545
1950288300.0 0.8831651083 0.4500896192
1955288270.0 0.886570849 0.4440255807
1960288240.0 0.8890310942 0.438190703
1965288210.0 0.8922597718 0.431774997
1970288180.0 0.8952583495 0.4257465121
1975288150.0 0.8981474316 0.4201011428
1980288120.0 0.9009806641 0.4140689294
1985288090.0 0.9035356818 0.4082615863
1990288060.0 0.9063653159 0.4018737138
1995288030.0 0.9089988342 0.3958669242
2000288000.0 0.9112916179 0.3904383576
2005287970.0 0.9143647078 0.3845956967
2010287940.0 0.9165965233 0.3776836367
2015287910.0 0.9191393655 0.371905184
2020287880.0 0.9222363561 0.3655707521
2025287850.0 0.9241688751 0.3592748646
2030287820.0 0.9267260318 0.3526687379
2035287790.0 0.9292377064 0.3459824028
2040287760.0 0.9313928412 0.3399083078
2045287730.0 0.9336043394 0.3330773583
2050287700.0 0.9360827697 0.3273841112
2055287670.0 0.9382201013 0.3207944686
2060287640.0 0.9405532684 0.3141845782
2065287610.0 0.9427987247 0.3083602475
2070287580.0 0.9448569418 0.3017563285
2075287550.0 0.9471373032 0.2954188525
2080287520.0 0.949010767 0.2889054755
2085287490.0 0.9509091293 0.2822129311
2090287460.0 0.9529835722 0.2754150049
2095287430.0 0.9546614354 0.2694892289
2100287400.0 0.9562771912 0.2626342685
2105287370.0 0.9588727746 0.2559214115
2110287340.0 0.959990392 0.2503526822
2115287310.0 0.9616334386 0.242992719
2120287280.0 0.9633018536 0.2369717479
2125287250.0 0.9651267069 0.2297662854
2130287220.0 0.967201882 0.2233248332
2135287190.0 0.9679631131 0.2171614529
2140287160.0 0.9693347866 0.2093821102
2145287130.0 0.9711311255 0.2039786247
2150287100.0 0.9725929271 0.1965764747
2155287070.0 0.9732315084 0.1903440119
2160287040.0 0.9754108261 0.1840656118
2165287010.0 0.9756653824 0.177171708
2170286980.0 0.9776380619 0.1705224433
2175286950.0 0.9784778539 0.1640559316
2180286920.0 0.9794647224 0.1570503566
2185286890.0 0.9805795455 0.1508691747
2190286860.0 0.9818096117 0.1452133737
2195286830.0 0.9828102292 0.13838615
2200286800.0 0.9834895924 0.1316414087
2205286770.0 0.9842647607 0.1250811661
2210286740.0 0.9850957172 0.1185914212
2215286710.0 0.9856607461 0.1116602205
2220286680.0 0.9871708879 0.1047450211
2225286650.0 0.9875651698 0.0981683878
2230286620.0 0.9885919043 0.0910660019
2235286590.0 0.9885631326 0.0849712481
2240286560.0 0.9893526594 0.0783915952
2245286530.0 0.9899602817 0.0710947244
2250286500.0 0.9906648824 0.0637341957
2255286470.0 0.990747658 0.0574139567
2260286440.0 0.9906980206 0.0508825455
2265286410.0 0.991975737 0.0434915094
2270286380.0 0.9923071335 0.037165006
2275286350.0 0.9912656301 0.0298889958
2280286320.0 0.9922885561 0.023795294
2285286290.0 0.9918783025 0.0168312097
2290286260.0 0.9924222447 0.0098538564
2295286230.0 0.9920287667 0.0024827043
2300286200.0 0.9922053975 -0.0032003376
2305286170.0 0.992267859 -0.0107523684
2310286140.0 0.9918924297 -0.0174991778
2315286110.0 0.9922453944 -0.024124594
2320286080.0 0.9918584954 -0.0311233282
2325286050.0 0.9919607249 -0.0373503622
2330286020.0 0.9917690044 -0.0442555746
2335285990.0 0.9911497586 -0.0511098153
2340285960.0 0.9910600327 -0.0577656475
2345285930.0 0.9904157728 -0.0643287453
2350285900.0 0.990136967 -0.0713966251
2355285870.0 0.9896399817 -0.0779737885
2360285840.0 0.9885658306 -0.084804962
2365285810.0 0.9885504049 -0.0910854337
2370285780.0 0.9873293098 -0.0979015988
2375285750.0 0.9867098226 -0.1048935081
2380285720.0 0.9864444306 -0.1115641474
2385285690.0 0.9857256969 -0.1180558522
2390285660.0 0.9843115564 -0.124372389
2395285630.0 0.9836939355 -0.1307840853
2400285600.0 0.9829245179 -0.1377490085
2405285570.0 0.9818998532 -0.1444093338
2410285540.0 0.9808346042 -0.1506896558
2415285510.0 0.9799313472 -0.1571895351
2420285480.0 0.9783855997 -0.1641428462
2425285450.0 0.9773559124 -0.1701146617
2430285420.0 0.9762197301 -0.1774209238
2435285390.0 0.9756007328 -0.1836980158
2440285360.0 0.9740448855 -0.1907640639
2445285330.0 0.9726701457 -0.1968702061
2450285300.0 0.971568453 -0.2033673325
2455285270.0 0.9693760492 -0.2104946498
2460285240.0 0.9683219052 -0.2167519656
2465285210.0 0.9668626164 -0.2238197984
2470285180.0 0.9651659646 -0.2301534444
2475285150.0 0.9630239359 -0.2363595767
2480285120.0 0.9617772428 -0.2431711427
2485285090.0 0.9601627531 -0.2497001829
2490285060.0 0.9580617888 -0.2562158562
2495285030.0 0.956300828 -0.262995335
2500285000.0 0.9550406609 -0.2698660749
2505284970.0 0.9528822115 -0.2760089376
2510284940.0 0.9507861854 -0.2826447999
2515284910.0 0.9487606166 -0.2890151699
2520284880.0 0.9473492009 -0.2957381132
2525284850.0 0.9449796192 -0.3022044789
2530284820.0 0.9427826203 -0.3085292442
2535284790.0 0.941021757 -0.3143456619
2540284760.0 0.9384426233 -0.3210834771
2545284730.0 0.9366606514 -0.3276440648
2550284700.0 0.9341193697 -0.3340005653
