!Created with skrf (http://scikit-rf.org).
# Hz S RI R 50.0 
!freq ReS11 ImS11
300000.0 -1.014891358 -0.098986694
5299970.0 -1.001658694 0.0110402257
10299940.0 -1.000090639 0.0144552017
15299910.0 -0.9991420063 0.0259732168
20299880.0 -0.9989142663 0.0303252401
25299850.0 -0.9986024917 0.0394036736
30299820.0 -0.9984714909 0.0470623119
35299790.0 -0.997396542 0.0522158445
40299760.0 -0.9966711032 0.0596591926
45299730.0 -0.9965974283 0.0667597232
50299700.0 -0.9954303977 0.0745893807
55299670.0 -0.99469608 0.081838272
60299640.0 -0.9937932073 0.088523395
65299610.0 -0.9931871883 0.0953829643
70299580.0 -0.9921214934 0.1024145179
75299550.0 -0.9914357307 0.1096845789
80299520.0 -0.990150012 0.1166984487
85299490.0 -0.9893032646 0.1233349731
90299460.0 -0.9882794573 0.1303336699
95299430.0 -0.9871803176 0.137930998
100299400.0 -0.9862832579 0.1452669622
105299370.0 -0.9845203573 0.152265979
110299340.0 -0.9833095081 0.1588304057
115299310.0 -0.9820890687 0.1664902095
120299280.0 -0.9808421656 0.173308054
125299250.0 -0.9796147689 0.1800062931
130299220.0 -0.9787592979 0.1865970056
135299190.0 -0.9773829205 0.1938814008
140299160.0 -0.9755795974 0.2009388598
145299130.0 -0.9738875012 0.2079701584
150299100.0 -0.9727389361 0.2148086677
155299070.0 -0.9710264456 0.2218709992
160299040.0 -0.9692420632 0.2288148813
165299010.0 -0.96781238 0.235533279
170298980.0 -0.9658399546 0.2418451356
175298950.0 -0.9619956128 0.2483005988
180298920.0 -0.9601761218 0.2544918773
185298890.0 -0.9593377611 0.2617494559
190298860.0 -0.9584590674 0.2696452268
195298830.0 -0.9561162621 0.2766277325
200298800.0 -0.9542586178 0.2837582566
205298770.0 -0.9519491411 0.2901414084
210298740.0 -0.9503403252 0.2968270141
215298710.0 -0.9481499607 0.3039590219
220298680.0 -0.9451478803 0.3105599104
225298650.0 -0.9428610246 0.316727719
230298620.0 -0.9411352387 0.3235423077
235298590.0 -0.9389647315 0.3305051876
240298560.0 -0.9363185932 0.3367232691
245298530.0 -0.933998121 0.3435105799
250298500.0 -0.9312662088 0.3499865866
255298470.0 -0.9288584683 0.3567056883
260298440.0 -0.9263259293 0.3634184965
265298410.0 -0.9230785091 0.370041009
270298380.0 -0.9198278967 0.3762816009
275298350.0 -0.9181610034 0.3833320358
280298320.0 -0.9152682902 0.3895179687
285298290.0 -0.9122236317 0.3956480633
290298260.0 -0.9092716662 0.4023079795
295298230.0 -0.9064389984 0.4087652138
300298200.0 -0.9037396378 0.4157419931
305298170.0 -0.9004441029 0.4215530211
310298140.0 -0.8974778523 0.428184405
315298110.0 -0.8947819665 0.4346782522
320298080.0 -0.8916688473 0.4403775006
325298050.0 -0.8874980679 0.4471764288
330298020.0 -0.8848747843 0.453731598
335297990.0 -0.8816479907 0.4602741822
340297960.0 -0.8782939007 0.465932251
345297930.0 -0.875311553 0.4726161299
350297900.0 -0.8722258778 0.4783067038
355297870.0 -0.8692558729 0.4848631244
360297840.0 -0.8658196734 0.4909174625
365297810.0 -0.8627342096 0.4965874779
370297780.0 -0.8584148826 0.5027243747
375297750.0 -0.853815011 0.509203607
380297720.0 -0.850703901 0.515088062
385297690.0 -0.846946323 0.5214511796
390297660.0 -0.8428074221 0.527372459
395297630.0 -0.8392860776 0.5331137863
400297600.0 -0.8349184607 0.5392237766
405297570.0 -0.8312818205 0.5452195614
410297540.0 -0.8269754306 0.5507726157
415297510.0 -0.8233262985 0.5569197108
420297480.0 -0.8194017549 0.5627055672
425297450.0 -0.8157357827 0.5679555643
430297420.0 -0.8113817405 0.5742496823
435297390.0 -0.8070579674 0.5801908649
440297360.0 -0.8024507529 0.5851238509
445297330.0 -0.7985351696 0.5916102939
450297300.0 -0.7943622695 0.5971754358
455297270.0 -0.7903108598 0.6029840966
460297240.0 -0.7855235513 0.6081126098
465297210.0 -0.781449336 0.6141824318
470297180.0 -0.7772373009 0.6194247143
475297150.0 -0.7724757946 0.6242466377
480297120.0 -0.7686950098 0.6300326922
485297090.0 -0.7629761225 0.6357932428
490297060.0 -0.7590317443 0.6407835082
495297030.0 -0.7540919722 0.6465339305
500297000.0 -0.7499274003 0.6516386126
505296970.0 -0.7455994259 0.6568806853
510296940.0 -0.7409536029 0.6625463831
515296910.0 -0.736326746 0.6680122349
520296880.0 -0.7317625631 0.6725614873
525296850.0 -0.7272939906 0.6788339339
530296820.0 -0.7218865204 0.6836731018
535296790.0 -0.717185416 0.6889183577
540296760.0 -0.7124435545 0.6935820998
545296730.0 -0.7073246316 0.6983862483
550296700.0 -0.7028411182 0.7036434055
555296670.0 -0.696553373 0.708311555
560296640.0 -0.6916226087 0.7140461673
565296610.0 -0.6862720142 0.7174221509
570296580.0 -0.6808963356 0.7235894217
575296550.0 -0.6750715375 0.7280513337
580296520.0 -0.6705529563 0.7324267859
585296490.0 -0.6654133053 0.7371634943
590296460.0 -0.6599346137 0.7424326015
595296430.0 -0.654356701 0.7465523875
600296400.0 -0.6493766154 0.751117394
605296370.0 -0.6436379278 0.7552414848
610296340.0 -0.6384593405 0.7605159558
615296310.0 -0.6334919065 0.7647817509
620296280.0 -0.6274696888 0.7690968141
625296250.0 -0.6225417023 0.7734641876
630296220.0 -0.6170166492 0.7777662242
635296190.0 -0.6112704583 0.781943804
640296160.0 -0.6057907209 0.7865883303
645296130.0 -0.6003911438 0.7909963518
650296100.0 -0.5946145033 0.7944657264
655296070.0 -0.5886334619 0.7993966009
660296040.0 -0.5825588269 0.8032994999
665296010.0 -0.577008577 0.807441836
670295980.0 -0.571248398 0.8112937653
675295950.0 -0.5653009516 0.8150710299
680295920.0 -0.5604250901 0.819390243
685295890.0 -0.5541633377 0.8231540777
690295860.0 -0.5484339379 0.8276028216
695295830.0 -0.5423010839 0.8308035498
700295800.0 -0.5369066809 0.8350680447
705295770.0 -0.5309012095 0.8388671067
710295740.0 -0.5243611013 0.8426442833
715295710.0 -0.5187186188 0.8457674089
720295680.0 -0.5125917138 0.8503852123
725295650.0 -0.5063181891 0.8531102515
730295620.0 -0.5001754388 0.8571104327
735295590.0 -0.4941350001 0.8603821994
740295560.0 -0.4882542145 0.8640555769
745295530.0 -0.4823412619 0.8674803183
750295500.0 -0.4759119579 0.8704274186
755295470.0 -0.4697992233 0.8738877528
760295440.0 -0.4628460607 0.8771488419
765295410.0 -0.4572057461 0.8808889682
770295380.0 -0.4506356339 0.8837376527
775295350.0 -0.4438853103 0.8875967876
780295320.0 -0.437526663 0.8902906553
785295290.0 -0.4314021372 0.8936994155
790295260.0 -0.4252154498 0.8963909482
795295230.0 -0.4187544781 0.8990436484
800295200.0 -0.4118632839 0.9025398859
805295170.0 -0.4054324067 0.9047752838
810295140.0 -0.3994406331 0.9074867955
815295110.0 -0.392839869 0.9104600405
820295080.0 -0.3862617964 0.9130851285
825295050.0 -0.3797707843 0.9160991362
830295020.0 -0.3734937779 0.9186389262
835294990.0 -0.3667754763 0.921432289
840294960.0 -0.3600285842 0.9241448385
845294930.0 -0.3537840254 0.9261157156
850294900.0 -0.3475908358 0.9288371926
855294870.0 -0.3401026355 0.9311873756
860294840.0 -0.3336537214 0.9335436718
865294810.0 -0.3270257643 0.9358005945
870294780.0 -0.3202268549 0.938580067
875294750.0 -0.3140956392 0.9400549932
880294720.0 -0.3071536916 0.9421531307
885294690.0 -0.3000157702 0.9448914255
890294660.0 -0.293675345 0.9468538468
895294630.0 -0.2870020494 0.9483916996
900294600.0 -0.2802859187 0.9505761491
905294570.0 -0.2739342157 0.9522810282
910294540.0 -0.2667151977 0.9541241895
915294510.0 -0.2606108939 0.956142378
920294480.0 -0.2528160595 0.9575772849
925294450.0 -0.2462653956 0.959932941
930294420.0 -0.2392102272 0.9611009999
935294390.0 -0.2327448004 0.9628031709
940294360.0 -0.2256555602 0.9647641469
945294330.0 -0.2186660695 0.9656016377
950294300.0 -0.212085264 0.967570882
955294270.0 -0.2047178953 0.9690572669
960294240.0 -0.1976984717 0.9703485814
965294210.0 -0.1907840737 0.9714980666
970294180.0 -0.1836310134 0.973382089
975294150.0 -0.1773715454 0.97455226
980294120.0 -0.1703810689 0.9759518178
985294090.0 -0.163753352 0.9765160886
990294060.0 -0.1570062039 0.9772568019
995294030.0 -0.149874401 0.9791702106
1000294000.0 -0.1424081107 0.9800022803
1005293970.0 -0.1354995716 0.9808647094
1010293940.0 -0.128747425 0.9814699644
1015293910.0 -0.1215428709 0.9824749739
1020293880.0 -0.114791028 0.9837296661
1025293850.0 -0.1080808017 0.9845217776
1030293820.0 -0.1014381446 0.9846928066
1035293790.0 -0.0941403785 0.9856534426
1040293760.0 -0.0869033571 0.9863213151
1045293730.0 -0.0802091449 0.9863631901
1050293700.0 -0.0727957971 0.9876049339
1055293670.0 -0.0657637343 0.9874016985
1060293640.0 -0.0585309822 0.9878637823
1065293610.0 -0.0518091471 0.988766443
1070293580.0 -0.0452074245 0.9881919248
1075293550.0 -0.0378236743 0.989119116
1080293520.0 -0.0311863001 0.9890000036
1085293490.0 -0.0234810952 0.9895839036
1090293460.0 -0.0166491788 0.9902076908
1095293430.0 -0.0092010618 0.9898966386
1100293400.0 -0.0018308594 0.989946406
1105293370.0 0.0045166251 0.9897012476
1110293340.0 0.0122728797 0.9894839647
1115293310.0 0.0187375944 0.9896464759
1120293280.0 0.0260707401 0.9894436286
1125293250.0 0.0323510296 0.9893806986
1130293220.0 0.0388944304 0.9891448177
1135293190.0 0.0462839066 0.9882504404
1140293160.0 0.0532800576 0.9883166562
1145293130.0 0.0610800909 0.9877888831
1150293100.0 0.0681042059 0.987431107
1155293070.0 0.0747955184 0.987082437
1160293040.0 0.0818319426 0.9865188891
1165293010.0 0.0892011855 0.9858978016
1170292980.0 0.095623767 0.9853916878
1175292950.0 0.1025839715 0.9842203594
1180292920.0 0.1092884819 0.9833472783
1185292890.0 0.1163500582 0.982635795
1190292860.0 0.1231859098 0.9816516961
1195292830.0 0.1310472441 0.9809384527
1200292800.0 0.1370596188 0.9797320182
1205292770.0 0.1442312598 0.9791236689
1210292740.0 0.1511840821 0.9782567932
1215292710.0 0.158424263 0.9765816092
1220292680.0 0.1656268902 0.9755074377
1225292650.0 0.1719509072 0.9744192042
1230292620.0 0.1794038714 0.973186152
1235292590.0 0.1858225217 0.9713599911
1240292560.0 0.1930706494 0.9705628657
1245292530.0 0.1994743285 0.9691685337
1250292500.0 0.2068802215 0.967758964
1255292470.0 0.2134037569 0.966134147
1260292440.0 0.2206867172 0.9646714747
1265292410.0 0.2271249517 0.96268566
1270292380.0 0.2339810514 0.9609394351
1275292350.0 0.241026564 0.9600943557
1280292320.0 0.2483496513 0.9580412185
1285292290.0 0.2548779295 0.9560241009
1290292260.0 0.2614051362 0.9536989056
1295292230.0 0.2678667568 0.9523722003
1300292200.0 0.2751535693 0.9503089709
1305292170.0 0.2820559218 0.9485788922
1310292140.0 0.2887339625 0.9465688065
1315292110.0 0.2952085961 0.9443817338
1320292080.0 0.3014825457 0.9426301736
1325292050.0 0.3087016885 0.9397937355
1330292020.0 0.3157856336 0.9377142998
1335291990.0 0.3220623874 0.9352489499
1340291960.0 0.3283027075 0.9332336369
1345291930.0 0.3359520758 0.9310433236
1350291900.0 0.3426222029 0.9288083094
1355291870.0 0.3486100412 0.9259213225
1360291840.0 0.3548073922 0.9233560555
1365291810.0 0.3615806176 0.9208907459
1370291780.0 0.3680247178 0.9180551764
1375291750.0 0.3747976575 0.9157811182
1380291720.0 0.3809116916 0.9130853691
1385291690.0 0.3879449443 0.910451079
1390291660.0 0.3949922687 0.9076598644
1395291630.0 0.4007824793 0.9047282348
1400291600.0 0.407425812 0.9020522175
1405291570.0 0.4138787845 0.8986147723
1410291540.0 0.4206409661 0.8956241352
1415291510.0 0.4261802779 0.8930558593
1420291480.0 0.43301113 0.8897051636
1425291450.0 0.438845551 0.8869377522
1430291420.0 0.4447801765 0.8835129386
1435291390.0 0.4516836026 0.8809568267
1440291360.0 0.457183509 0.8776112846
1445291330.0 0.4635406412 0.874489638
1450291300.0 0.4699075059 0.8709355197
1455291270.0 0.4762677893 0.8676739413
1460291240.0 0.4822149633 0.8649300662
1465291210.0 0.4883039795 0.8607519749
1470291180.0 0.4947311356 0.8571907291
1475291150.0 0.5009989463 0.8536034468
1480291120.0 0.5067838457 0.8505468777
1485291090.0 0.5123102537 0.8459980185
1490291060.0 0.5189812741 0.8425653905
1495291030.0 0.5250926327 0.8392818669
1500291000.0 0.530607668 0.8354243546
1505290970.0 0.5367866603 0.8317499885
1510290940.0 0.5425115399 0.8282417247
1515290910.0 0.5480246237 0.8239873259
1520290880.0 0.5544868079 0.8207022432
1525290850.0 0.5599240163 0.8165842223
1530290820.0 0.5660099519 0.8119126888
1535290790.0 0.5716097903 0.8076551415
1540290760.0 0.57765041 0.8040416781
1545290730.0 0.5833104109 0.7997845404
1550290700.0 0.5888074529 0.7956215482
1555290670.0 0.5945084452 0.790952776
1560290640.0 0.5992976471 0.7869744124
1565290610.0 0.6053203146 0.7831759981
1570290580.0 0.6111623786 0.7785383268
1575290550.0 0.6163637688 0.7744178397
1580290520.0 0.6229009314 0.7701264242
1585290490.0 0.6278509302 0.7653739739
1590290460.0 0.6330966591 0.7607881329
1595290430.0 0.6392647252 0.756294553
1600290400.0 0.6444452012 0.7512708125
1605290370.0 0.6500286233 0.7473723088
1610290340.0 0.6548033283 0.7428589356
1615290310.0 0.6597649103 0.7379929087
1620290280.0 0.6645266953 0.7333566531
1625290250.0 0.6704282477 0.7287277579
1630290220.0 0.6755834236 0.7241200504
1635290190.0 0.6808065133 0.719230038
1640290160.0 0.6853916597 0.7141563337
1645290130.0 0.690282626 0.7095080472
1650290100.0 0.6954172566 0.7044103894
1655290070.0 0.7008466413 0.6994364986
1660290040.0 0.7055168404 0.6945098091
1665290010.0 0.7103687502 0.6894088516
1670289980.0 0.7147906995 0.6850260793
1675289950.0 0.7204041627 0.679670325
1680289920.0 0.7249094032 0.6745152435
1685289890.0 0.7301950699 0.6684347067
1690289860.0 0.7351596513 0.6635191354
1695289830.0 0.7397736858 0.6583226493
1700289800.0 0.7440815013 0.6522305734
1705289770.0 0.7493709608 0.6477874552
1710289740.0 0.7539865422 0.6423548878
1715289710.0 0.7582290726 0.6364767984
1720289680.0 0.7630985897 0.6313201631
1725289650.0 0.7670437824 0.6259654577
1730289620.0 0.7714671826 0.6207110254
1735289590.0 0.7761883283 0.615631628
1740289560.0 0.7803619387 0.6099591111
1745289530.0 0.7849893839 0.6045248048
1750289500.0 0.7891943431 0.5987421528
1755289470.0 0.7932822839 0.5932315365
1760289440.0 0.7973245155 0.5878352525
1765289410.0 0.8012615582 0.5823780463
1770289380.0 0.8055182857 0.5764710891
1775289350.0 0.8094403214 0.5709941441
1780289320.0 0.8137784049 0.5649940995
1785289290.0 0.8180938931 0.5592584658
1790289260.0 0.8219179903 0.5533235029
1795289230.0 0.8260224276 0.5470247238
1800289200.0 0.8292005528 0.5413491555
1805289170.0 0.833925171 0.5356689434
1810289140.0 0.8374408423 0.5296280141
1815289110.0 0.8411086349 0.5235165457
1820289080.0 0.8445081042 0.5185900526
1825289050.0 0.8483934213 0.5126307073
1830289020.0 0.8517000769 0.5066779848
1835288990.0 0.8558798742 0.5006656333
1840288960.0 0.8587557555 0.4945798954
1845288930.0 0.8626488112 0.4881072189
1850288900.0 0.8660558776 0.4820849335
1855288870.0 0.8691330273 0.4764046955
1860288840.0 0.8729721599 0.4700905579
1865288810.0 0.876603142 0.4631486365
1870288780.0 0.8791690936 0.4574539528
1875288750.0 0.8828246738 0.4507241702
1880288720.0 0.8856943512 0.4442374789
1885288690.0 0.8889503848 0.437480182
1890288660.0 0.891929573 0.4314637529
1895288630.0 0.8952778174 0.4251036364
1900288600.0 0.8986311899 0.4190282347
1905288570.0 0.9012236454 0.4125806661
1910288540.0 0.9043054063 0.4056390154
1915288510.0 0.9076514032 0.3994582154
1920288480.0 0.9102880475 0.393069118
1925288450.0 0.9128972925 0.3862790645
1930288420.0 0.9159130554 0.379540107
1935288390.0 0.9182687764 0.3732257848
1940288360.0 0.9211323478 0.3668304695
1945288330.0 0.9235786417 0.3600479818
1950288300.0 0.9265606054 0.3529586769
1955288270.0 0.9290970839 0.3468382375
1960288240.0 0.9312973216 0.3394108729
1965288210.0 0.9344913033 0.332882747
1970288180.0 0.9366222907 0.3260472037
1975288150.0 0.9389027912 0.3198210044
1980288120.0 0.940650266 0.3133262563
1985288090.0 0.9428603545 0.3072124625
1990288060.0 0.9446341581 0.300507778
1995288030.0 0.9473906228 0.293814415
2000288000.0 0.9492497471 0.2877169167
2005287970.0 0.9510888195 0.2813436185
2010287940.0 0.9530734327 0.2743876581
2015287910.0 0.9549172594 0.2678930492
2020287880.0 0.9570766774 0.260807352
2025287850.0 0.958554506 0.254151293
2030287820.0 0.9608174238 0.2469797668
2035287790.0 0.9622677532 0.2403072871
2040287760.0 0.9639500262 0.233509931
2045287730.0 0.9657795065 0.2261836916
2050287700.0 0.9675991744 0.2194868051
2055287670.0 0.9687016726 0.2130120432
2060287640.0 0.9704744551 0.2056117052
2065287610.0 0.9721698576 0.1993945301
2070287580.0 0.9734443626 0.192189605
2075287550.0 0.9748669192 0.1854580517
2080287520.0 0.9752207554 0.1787861697
2085287490.0 0.9771908394 0.1715287571
2090287460.0 0.9782727095 0.1646980499
2095287430.0 0.9792584156 0.1579891589
2100287400.0 0.9805903227 0.1501651913
2105287370.0 0.9814709209 0.1433273165
2110287340.0 0.9826445903 0.13656501
2115287310.0 0.9833683108 0.1296424492
2120287280.0 0.9842962449 0.1223543917
2125287250.0 0.9854304023 0.1154363505
2130287220.0 0.9866897057 0.1086955308
2135287190.0 0.9866659433 0.1012292658
2140287160.0 0.9874004603 0.094253967
2145287130.0 0.9880420511 0.0872926405
2150287100.0 0.9887838695 0.0804735221
2155287070.0 0.9893370603 0.0731390041
2160287040.0 0.9898514802 0.0664055552
2165287010.0 0.9903324324 0.0598265466
2170286980.0 0.9910874389 0.0526581729
2175286950.0 0.9910199287 0.0452168683
2180286920.0 0.9918138243 0.038853998
2185286890.0 0.9921334788 0.0319723873
2190286860.0 0.9921933703 0.0252211967
2195286830.0 0.9922401474 0.0182884485
2200286800.0 0.9926513448 0.0111364065
2205286770.0 0.9923642964 0.0045329599
2210286740.0 0.991838207 -0.0021397332
2215286710.0 0.9921382423 -0.0094696068
2220286680.0 0.9925583116 -0.0170967237
2225286650.0 0.9922217311 -0.0238673452
2230286620.0 0.9923510427 -0.0307994301
2235286590.0 0.9918249618 -0.0380852346
2240286560.0 0.991674299 -0.0447507809
2245286530.0 0.9909380246 -0.0522849503
2250286500.0 0.9902884296 -0.0590820468
2255286470.0 0.9906810596 -0.066168509
2260286440.0 0.9897683863 -0.0737807053
2265286410.0 0.9893369865 -0.0806914864
2270286380.0 0.9884999737 -0.0874311007
2275286350.0 0.9879297667 -0.0954626614
2280286320.0 0.9870384786 -0.1017758499
2285286290.0 0.9868684375 -0.1084294979
2290286260.0 0.9855668254 -0.1156517865
2295286230.0 0.9850256724 -0.1229172616
2300286200.0 0.9837607971 -0.1295396966
2305286170.0 0.9829429735 -0.1362998434
2310286140.0 0.9817707843 -0.1429394265
2315286110.0 0.9811754316 -0.1502982693
2320286080.0 0.9801094886 -0.1572278374
2325286050.0 0.979041404 -0.1642251233
2330286020.0 0.9776242167 -0.1706299401
2335285990.0 0.9766272481 -0.1777936729
2340285960.0 0.975256076 -0.1846645636
2345285930.0 0.9738128464 -0.1917458908
2350285900.0 0.9725236755 -0.1987568955
2355285870.0 0.9712943876 -0.2057639118
2360285840.0 0.9695007661 -0.2128780704
2365285810.0 0.9677566265 -0.219391451
2370285780.0 0.9666390992 -0.2260985706
2375285750.0 0.9643132837 -0.2331287917
2380285720.0 0.963287596 -0.2399608956
2385285690.0 0.9610149341 -0.2469148835
2390285660.0 0.9595411619 -0.2534176627
2395285630.0 0.957877793 -0.26024247
2400285600.0 0.9561386304 -0.2664480365
2405285570.0 0.9537013487 -0.2736120059
2410285540.0 0.9523186742 -0.2799451985
2415285510.0 0.9499274534 -0.2869459567
2420285480.0 0.9477594888 -0.2933130772
2425285450.0 0.9459108431 -0.3000887437
2430285420.0 0.9434175894 -0.3069375721
2435285390.0 0.9409461479 -0.3135104518
2440285360.0 0.9394684098 -0.3201150955
2445285330.0 0.9373857248 -0.326410297
2450285300.0 0.9350129516 -0.3336166964
2455285270.0 0.9322851754 -0.340526301
2460285240.0 0.9296150809 -0.3466694812
2465285210.0 0.9270766836 -0.3533988602
2470285180.0 0.9247506334 -0.3595389289
2475285150.0 0.9219573095 -0.3666606275
2480285120.0 0.9192659858 -0.3728176973
2485285090.0 0.9164889108 -0.3797868595
2490285060.0 0.9136980334 -0.385989782
2495285030.0 0.9108871219 -0.3919771245
2500285000.0 0.9086355032 -0.3994984902
2505284970.0 0.905244815 -0.4057947892
2510284940.0 0.9026696015 -0.4118475011
2515284910.0 0.8988494883 -0.4184443498
2520284880.0 0.8959245543 -0.424427298
2525284850.0 0.8932975021 -0.4311038091
2530284820.0 0.8902971054 -0.437383369
2535284790.0 0.8870609278 -0.4434477526
2540284760.0 0.8839657253 -0.4497771311
2545284730.0 0.8809894571 -0.4555316287
2550284700.0 0.8774204773 -0.4620212721
2555284670.0 0.8736415803 -0.4683749155
