!Created with skrf (http://scikit-rf.org).
# Hz S RI R 50.0 
!freq ReS11 ImS11
45000000.0 -0.081329345703125 -0.09353256225585938
49995500.0 -0.10199356079101562 -0.08963394165039062
54991000.0 -0.12265396118164062 -0.08129501342773438
59986500.0 -0.1413421630859375 -0.07952880859375
64982000.0 -0.1601409912109375 -0.0701751708984375
69977500.0 -0.17890167236328125 -0.0556640625
74973000.0 -0.1964569091796875 -0.0380401611328125
79968500.0 -0.21207427978515625 -0.01708221435546875
84964000.0 -0.2257232666015625 0.0068511962890625
89959500.0 -0.23656463623046875 0.03385162353515625
94955000.0 -0.243377685546875 0.06336212158203125
99950500.0 -0.24672698974609375 0.09583282470703125
104946000.0 -0.2454833984375 0.1296539306640625
109941500.0 -0.239288330078125 0.16428375244140625
114937000.0 -0.2279815673828125 0.19970703125
119932500.0 -0.21137237548828125 0.23468017578125
124928000.0 -0.1894989013671875 0.268524169921875
129923500.0 -0.1625518798828125 0.2996978759765625
134919000.0 -0.13031005859375 0.3287200927734375
139914500.0 -0.0929718017578125 0.3538970947265625
144910000.0 -0.051849365234375 0.374542236328125
149905500.0 -0.0069732666015625 0.3905181884765625
154901000.0 0.040679931640625 0.4004669189453125
159896500.0 0.0902557373046875 0.4043121337890625
164892000.0 0.141082763671875 0.402069091796875
169887500.0 0.1922454833984375 0.393096923828125
174883000.0 0.243255615234375 0.3774261474609375
179878500.0 0.292724609375 0.3554229736328125
184874000.0 0.3402252197265625 0.3269195556640625
189869500.0 0.3849639892578125 0.2920989990234375
194865000.0 0.4262542724609375 0.251678466796875
199860500.0 0.4629974365234375 0.205902099609375
204856000.0 0.4944305419921875 0.154693603515625
209851500.0 0.520477294921875 0.099151611328125
214847000.0 0.540557861328125 0.039825439453125
219842500.0 0.553741455078125 -0.023162841796875
224838000.0 0.5595703125 -0.08856201171875
229833500.0 0.558013916015625 -0.156036376953125
234829000.0 0.54791259765625 -0.22369384765625
239824500.0 0.529388427734375 -0.291595458984375
244820000.0 0.50213623046875 -0.358184814453125
249815500.0 0.466156005859375 -0.4224090576171875
254811000.0 0.4461517333984375 -0.469818115234375
259806500.0 0.397064208984375 -0.52825927734375
264802000.0 0.34033203125 -0.581451416015625
269797500.0 0.275726318359375 -0.627960205078125
274793000.0 0.2052001953125 -0.666900634765625
279788500.0 0.128814697265625 -0.697113037109375
284784000.0 0.049163818359375 -0.7181396484375
289779500.0 -0.034423828125 -0.729644775390625
294775000.0 -0.11956787109375 -0.730499267578125
299770500.0 -0.204742431640625 -0.721923828125
304766000.0 -0.28912353515625 -0.70330810546875
309761500.0 -0.371429443359375 -0.67413330078125
314757000.0 -0.4503173828125 -0.635406494140625
319752500.0 -0.52471923828125 -0.58734130859375
324748000.0 -0.59423828125 -0.531341552734375
329743500.0 -0.65789794921875 -0.46710205078125
334739000.0 -0.714996337890625 -0.39544677734375
339734500.0 -0.764190673828125 -0.3170166015625
344730000.0 -0.805267333984375 -0.23248291015625
349725500.0 -0.837066650390625 -0.1429443359375
354721000.0 -0.859649658203125 -0.049224853515625
359716500.0 -0.871795654296875 0.04815673828125
364712000.0 -0.873046875 0.1483154296875
369707500.0 -0.862457275390625 0.25006103515625
374703000.0 -0.839935302734375 0.3524169921875
379698500.0 -0.804779052734375 0.453155517578125
384694000.0 -0.7569580078125 0.551116943359375
389689500.0 -0.696624755859375 0.643951416015625
394685000.0 -0.623748779296875 0.730682373046875
399680500.0 -0.539581298828125 0.80828857421875
404676000.0 -0.445404052734375 0.87615966796875
409671500.0 -0.342010498046875 0.934051513671875
414667000.0 -0.232025146484375 0.9757080078125
419662500.0 -0.11578369140625 1.00433349609375
424658000.0 0.00390625 1.0179443359375
429653500.0 0.1251220703125 1.01678466796875
434649000.0 0.245819091796875 0.998870849609375
439644500.0 0.36083984375 0.966644287109375
444640000.0 0.470672607421875 0.92218017578125
449635500.0 0.573883056640625 0.866607666015625
454631000.0 0.671478271484375 0.801055908203125
459626500.0 0.761322021484375 0.723358154296875
464622000.0 0.841949462890625 0.636322021484375
469617500.0 0.911865234375 0.54193115234375
474613000.0 0.971649169921875 0.44036865234375
479608500.0 1.02069091796875 0.33319091796875
484604000.0 1.05938720703125 0.2208251953125
489599500.0 1.08636474609375 0.1043701171875
494595000.0 1.10162353515625 -0.01531982421875
499590500.0 1.104736328125 -0.13800048828125
504586000.0 1.09503173828125 -0.2620849609375
509581500.0 1.07196044921875 -0.38665771484375
514577000.0 1.0343017578125 -0.51055908203125
519572500.0 0.981781005859375 -0.632965087890625
524568000.0 0.91387939453125 -0.750946044921875
529563500.0 0.8302001953125 -0.8624267578125
534559000.0 0.7315673828125 -0.964813232421875
539554500.0 0.618408203125 -1.0552978515625
544550000.0 0.49334716796875 -1.1309814453125
549545500.0 0.3585205078125 -1.19061279296875
554541000.0 0.21527099609375 -1.23284912109375
559536500.0 0.06878662109375 -1.2568359375
564532000.0 -0.08050537109375 -1.262451171875
569527500.0 -0.2296142578125 -1.2493896484375
574523000.0 -0.3763427734375 -1.2174072265625
579518500.0 -0.5172119140625 -1.1680908203125
584514000.0 -0.65020751953125 -1.1021728515625
589509500.0 -0.77374267578125 -1.02093505859375
594505000.0 -0.88592529296875 -0.926300048828125
599500500.0 -0.985504150390625 -0.820526123046875
604496000.0 -1.0721435546875 -0.70513916015625
609491500.0 -1.14508056640625 -0.582275390625
614487000.0 -1.203857421875 -0.45379638671875
619482500.0 -1.24920654296875 -0.3204345703125
624478000.0 -1.280517578125 -0.18414306640625
629473500.0 -1.29852294921875 -0.045654296875
634469000.0 -1.30291748046875 0.09417724609375
639464500.0 -1.29376220703125 0.23529052734375
644460000.0 -1.27069091796875 0.37548828125
649455500.0 -1.23358154296875 0.514892578125
654451000.0 -1.181640625 0.65252685546875
659446500.0 -1.11517333984375 0.78692626953125
664442000.0 -1.03350830078125 0.9171142578125
669437500.0 -0.93572998046875 1.04058837890625
674433000.0 -0.8212890625 1.15484619140625
679428500.0 -0.6910400390625 1.25787353515625
684424000.0 -0.54571533203125 1.34661865234375
689419500.0 -0.38616943359375 1.41851806640625
694415000.0 -0.21563720703125 1.46942138671875
699410500.0 -0.03631591796875 1.49835205078125
704406000.0 0.14727783203125 1.50262451171875
709401500.0 0.33221435546875 1.48199462890625
714397000.0 0.51312255859375 1.43572998046875
719392500.0 0.68609619140625 1.36505126953125
724388000.0 0.847412109375 1.27252197265625
729383500.0 0.99371337890625 1.15997314453125
734379000.0 1.1217041015625 1.029296875
739374500.0 1.23095703125 0.88641357421875
744370000.0 1.32012939453125 0.73382568359375
749365500.0 1.38848876953125 0.5740966796875
754361000.0 1.43829345703125 0.4114990234375
759356500.0 1.4686279296875 0.2470703125
764352000.0 1.4810791015625 0.0831298828125
769347500.0 1.4766845703125 -0.07830810546875
774343000.0 1.456298828125 -0.23675537109375
779338500.0 1.420654296875 -0.39111328125
784334000.0 1.37127685546875 -0.540283203125
789329500.0 1.308349609375 -0.68414306640625
794325000.0 1.2322998046875 -0.82171630859375
799320500.0 1.1429443359375 -0.9521484375
804316000.0 1.04034423828125 -1.0743408203125
809311500.0 0.9248046875 -1.1875
814307000.0 0.79681396484375 -1.2906494140625
819302500.0 0.65679931640625 -1.381591796875
824298000.0 0.50390625 -1.4583740234375
829293500.0 0.34173583984375 -1.51959228515625
834289000.0 0.16815185546875 -1.5621337890625
839284500.0 -0.01123046875 -1.5838623046875
844280000.0 -0.129150390625 -1.61370849609375
849275500.0 -0.31890869140625 -1.59930419921875
854271000.0 -0.5072021484375 -1.56036376953125
859266500.0 -0.69036865234375 -1.49700927734375
864262000.0 -0.8646240234375 -1.409423828125
869257500.0 -1.026611328125 -1.300048828125
874253000.0 -1.1732177734375 -1.1715087890625
879248500.0 -1.3006591796875 -1.02593994140625
884244000.0 -1.4085693359375 -0.86737060546875
889239500.0 -1.49578857421875 -0.69818115234375
894235000.0 -1.5623779296875 -0.5220947265625
899230500.0 -1.60711669921875 -0.3421630859375
904226000.0 -1.63116455078125 -0.15972900390625
909221500.0 -1.63494873046875 0.0228271484375
914217000.0 -1.618408203125 0.20318603515625
919212500.0 -1.58270263671875 0.37896728515625
924208000.0 -1.52935791015625 0.5474853515625
929203500.0 -1.45965576171875 0.70751953125
934199000.0 -1.3759765625 0.85919189453125
939194500.0 -1.27825927734375 1.00164794921875
944190000.0 -1.168212890625 1.13458251953125
949185500.0 -1.04498291015625 1.25726318359375
954181000.0 -0.909912109375 1.36798095703125
959176500.0 -0.76275634765625 1.46649169921875
964172000.0 -0.6033935546875 1.55078125
969167500.0 -0.43408203125 1.62054443359375
974163000.0 -0.25396728515625 1.67230224609375
979158500.0 -0.06561279296875 1.70428466796875
984154000.0 0.12933349609375 1.71502685546875
989149500.0 0.3277587890625 1.702392578125
994145000.0 0.52703857421875 1.664306640625
999140500.0 0.722900390625 1.60076904296875
1004136000.0 0.91107177734375 1.51263427734375
1009131500.0 1.08917236328125 1.39910888671875
1014127000.0 1.25067138671875 1.2625732421875
1019122500.0 1.3936767578125 1.10546875
1024118000.0 1.51458740234375 0.93206787109375
1029113500.0 1.61181640625 0.7452392578125
1034109000.0 1.68353271484375 0.5489501953125
1039104500.0 1.72943115234375 0.3477783203125
1044100000.0 1.75030517578125 0.1453857421875
1049095500.0 1.74749755859375 -0.05621337890625
1054091000.0 1.720947265625 -0.251708984375
1059086500.0 1.6744384765625 -0.44073486328125
1064082000.0 1.6080322265625 -0.61993408203125
1069077500.0 1.52435302734375 -0.78936767578125
1074073000.0 1.42584228515625 -0.9481201171875
1079068500.0 1.31231689453125 -1.094970703125
1084064000.0 1.18505859375 -1.22821044921875
1089059500.0 1.04595947265625 -1.348876953125
1094055000.0 0.89605712890625 -1.45501708984375
1099050500.0 0.73529052734375 -1.54656982421875
1104046000.0 0.56494140625 -1.6217041015625
1109041500.0 0.38671875 -1.68017578125
1114037000.0 0.200927734375 -1.7198486328125
1119032500.0 0.00994873046875 -1.7406005859375
1124028000.0 -0.18585205078125 -1.73956298828125
1129023500.0 -0.3829345703125 -1.71697998046875
1134019000.0 -0.57855224609375 -1.67047119140625
1139014500.0 -0.770751953125 -1.6005859375
1144010000.0 -0.95489501953125 -1.50714111328125
1149005500.0 -1.12762451171875 -1.38995361328125
1154001000.0 -1.28692626953125 -1.25128173828125
1158996500.0 -1.42742919921875 -1.0924072265625
1163992000.0 -1.54730224609375 -0.91607666015625
1168987500.0 -1.6434326171875 -0.7261962890625
1173983000.0 -1.71417236328125 -0.52581787109375
1178978500.0 -1.75860595703125 -0.3193359375
1183974000.0 -1.77703857421875 -0.110107421875
1188969500.0 -1.7689208984375 0.0970458984375
1193965000.0 -1.73577880859375 0.29852294921875
1198960500.0 -1.67974853515625 0.4927978515625
1203956000.0 -1.6026611328125 0.6763916015625
1208951500.0 -1.5062255859375 0.84649658203125
1213947000.0 -1.3931884765625 1.002197265625
1218942500.0 -1.265869140625 1.14337158203125
1223938000.0 -1.1263427734375 1.2679443359375
1228933500.0 -0.9759521484375 1.3753662109375
1233929000.0 -0.8173828125 1.4658203125
1238924500.0 -0.65252685546875 1.53900146484375
1243920000.0 -0.48175048828125 1.59466552734375
1248915500.0 -0.30780029296875 1.63262939453125
1253911000.0 -0.1314697265625 1.65380859375
1258906500.0 0.04547119140625 1.65740966796875
1263902000.0 0.2227783203125 1.64337158203125
1268897500.0 0.3984375 1.61151123046875
1273893000.0 0.5679931640625 1.56011962890625
1278888500.0 0.73370361328125 1.4920654296875
1283884000.0 0.89324951171875 1.406982421875
1288879500.0 1.04339599609375 1.3038330078125
1293875000.0 1.182373046875 1.18487548828125
1298870500.0 1.3092041015625 1.050048828125
1303866000.0 1.42041015625 0.9014892578125
1308861500.0 1.51483154296875 0.73980712890625
1313857000.0 1.59100341796875 0.56787109375
1318852500.0 1.64776611328125 0.38665771484375
1323848000.0 1.68353271484375 0.200439453125
1328843500.0 1.69805908203125 0.01055908203125
1333839000.0 1.69036865234375 -0.18084716796875
1338834500.0 1.6614990234375 -0.3714599609375
1343830000.0 1.61041259765625 -0.556640625
1348825500.0 1.5386962890625 -0.7362060546875
1353821000.0 1.44659423828125 -0.90625
1358816500.0 1.3350830078125 -1.065185546875
1363812000.0 1.2054443359375 -1.21051025390625
1368807500.0 1.059814453125 -1.33917236328125
1373803000.0 0.90032958984375 -1.4501953125
1378798500.0 0.728271484375 -1.54278564453125
1383794000.0 0.54669189453125 -1.61334228515625
1388789500.0 0.3590087890625 -1.66217041015625
1393785000.0 0.167236328125 -1.68865966796875
1398780500.0 -0.02581787109375 -1.6923828125
1403776000.0 -0.2164306640625 -1.67266845703125
1408771500.0 -0.402587890625 -1.6317138671875
1413767000.0 -0.58050537109375 -1.56964111328125
1418762500.0 -0.749267578125 -1.489501953125
1423758000.0 -0.90667724609375 -1.3905029296875
1428753500.0 -1.04962158203125 -1.27618408203125
1433749000.0 -1.17791748046875 -1.14892578125
1438744500.0 -1.29119873046875 -1.00921630859375
1443740000.0 -1.38824462890625 -0.860107421875
1448735500.0 -1.46826171875 -0.703125
1453731000.0 -1.53155517578125 -0.53985595703125
1458726500.0 -1.57781982421875 -0.3719482421875
1463722000.0 -1.60711669921875 -0.20086669921875
1468717500.0 -1.61920166015625 -0.02740478515625
1473713000.0 -1.61395263671875 0.1461181640625
1478708500.0 -1.59124755859375 0.31915283203125
1483704000.0 -1.55078125 0.48980712890625
1488699500.0 -1.493408203125 0.65753173828125
1493695000.0 -1.4178466796875 0.81982421875
1498690500.0 -1.3240966796875 0.97503662109375
1503686000.0 -1.21240234375 1.12054443359375
1508681500.0 -1.08367919921875 1.25537109375
1513677000.0 -0.93817138671875 1.375732421875
1518672500.0 -0.7772216796875 1.479736328125
1523668000.0 -0.60321044921875 1.56390380859375
1528663500.0 -0.41778564453125 1.62725830078125
1533659000.0 -0.2249755859375 1.66668701171875
1538654500.0 -0.02752685546875 1.6810302734375
1543650000.0 0.1705322265625 1.67041015625
1548645500.0 0.3643798828125 1.6334228515625
1553641000.0 0.55078125 1.57275390625
1558636500.0 0.7264404296875 1.48980712890625
1563632000.0 0.8875732421875 1.3868408203125
1568627500.0 1.03277587890625 1.26641845703125
1573623000.0 1.1610107421875 1.13165283203125
1578618500.0 1.26904296875 0.9857177734375
1583614000.0 1.35894775390625 0.83135986328125
1588609500.0 1.42913818359375 0.6712646484375
1593605000.0 1.481201171875 0.50830078125
1598600500.0 1.51507568359375 0.34375
1603596000.0 1.53216552734375 0.17950439453125
1608591500.0 1.53265380859375 0.01678466796875
1613587000.0 1.51824951171875 -0.14349365234375
1618582500.0 1.489013671875 -0.29931640625
1623578000.0 1.4451904296875 -0.451171875
1628573500.0 1.3876953125 -0.59808349609375
1633569000.0 1.3170166015625 -0.7391357421875
1638564500.0 1.2330322265625 -0.8734130859375
1643560000.0 1.13525390625 -0.99932861328125
1648555500.0 1.0250244140625 -1.1160888671875
1653551000.0 0.90203857421875 -1.2232666015625
1658546500.0 0.766845703125 -1.31719970703125
1663542000.0 0.62078857421875 -1.39697265625
1668537500.0 0.464111328125 -1.4615478515625
1673533000.0 0.2996826171875 -1.50836181640625
1678528500.0 0.12890625 -1.53533935546875
1683524000.0 -0.0452880859375 -1.54168701171875
1688519500.0 -0.22052001953125 -1.5267333984375
1693515000.0 -0.39227294921875 -1.49017333984375
1698510500.0 -0.55908203125 -1.431884765625
1703506000.0 -0.71539306640625 -1.35430908203125
1708501500.0 -0.859619140625 -1.25958251953125
1713497000.0 -0.989990234375 -1.14874267578125
1718492500.0 -1.10430908203125 -1.02490234375
1723488000.0 -1.20184326171875 -0.89093017578125
1728483500.0 -1.28228759765625 -0.74993896484375
1733479000.0 -1.34564208984375 -0.60345458984375
1738474500.0 -1.3927001953125 -0.45489501953125
1743470000.0 -1.424072265625 -0.304443359375
1748465500.0 -1.44091796875 -0.15399169921875
1753461000.0 -1.44287109375 -0.0057373046875
1758456500.0 -1.4322509765625 0.1417236328125
1763452000.0 -1.40814208984375 0.28656005859375
1768447500.0 -1.37176513671875 0.42852783203125
1773443000.0 -1.32257080078125 0.566162109375
1778438500.0 -1.26129150390625 0.7010498046875
1783434000.0 -1.187255859375 0.8306884765625
1788429500.0 -1.10009765625 0.95477294921875
1793425000.0 -0.9996337890625 1.0718994140625
1798420500.0 -0.88543701171875 1.1806640625
1803416000.0 -0.7578125 1.27813720703125
1808411500.0 -0.6173095703125 1.3634033203125
1813407000.0 -0.464599609375 1.43353271484375
1818402500.0 -0.3018798828125 1.48553466796875
1823398000.0 -0.1302490234375 1.51812744140625
1828393500.0 0.0458984375 1.52874755859375
1833389000.0 0.22369384765625 1.51629638671875
1838384500.0 0.3994140625 1.48089599609375
1843380000.0 0.56854248046875 1.4229736328125
1848375500.0 0.72802734375 1.34320068359375
1853371000.0 0.87445068359375 1.2447509765625
1858366500.0 1.00531005859375 1.1298828125
1863362000.0 1.119140625 1.00213623046875
1868357500.0 1.21502685546875 0.8643798828125
1873353000.0 1.29168701171875 0.719970703125
1878348500.0 1.35205078125 0.57086181640625
1883344000.0 1.39459228515625 0.42022705078125
1888339500.0 1.421142578125 0.26904296875
1893335000.0 1.43292236328125 0.1190185546875
1898330500.0 1.43023681640625 -0.0291748046875
1903326000.0 1.41497802734375 -0.17437744140625
1908321500.0 1.38690185546875 -0.31646728515625
1913317000.0 1.3468017578125 -0.4552001953125
1918312500.0 1.294921875 -0.5894775390625
1923308000.0 1.231201171875 -0.71966552734375
1928303500.0 1.15484619140625 -0.84503173828125
1933299000.0 1.06671142578125 -0.964111328125
1938294500.0 0.96551513671875 -1.0762939453125
1943290000.0 0.85211181640625 -1.17999267578125
1948285500.0 0.72625732421875 -1.27313232421875
1953281000.0 0.58795166015625 -1.35345458984375
1958276500.0 0.4385986328125 -1.4195556640625
1963272000.0 0.2799072265625 -1.46966552734375
1968267500.0 0.11328125 -1.50048828125
1973263000.0 -0.05816650390625 -1.5106201171875
1978258500.0 -0.23150634765625 -1.49896240234375
1983254000.0 -0.4029541015625 -1.4656982421875
1988249500.0 -0.56939697265625 -1.41033935546875
1993245000.0 -0.72735595703125 -1.334228515625
1998240500.0 -0.8739013671875 -1.239501953125
2003236000.0 -1.0059814453125 -1.12823486328125
2008231500.0 -1.12188720703125 -1.00335693359375
2013227000.0 -1.220947265625 -0.86724853515625
2018222500.0 -1.30255126953125 -0.72296142578125
2023218000.0 -1.3670654296875 -0.5723876953125
2028213500.0 -1.41351318359375 -0.4190673828125
2033209000.0 -1.4432373046875 -0.26416015625
2038204500.0 -1.4569091796875 -0.1085205078125
2043200000.0 -1.455078125 0.04541015625
2048195500.0 -1.438720703125 0.197265625
2053191000.0 -1.407470703125 0.34619140625
2058186500.0 -1.3629150390625 0.49102783203125
2063182000.0 -1.30426025390625 0.63177490234375
2068177500.0 -1.23199462890625 0.7652587890625
2073173000.0 -1.14703369140625 0.89202880859375
2078168500.0 -1.04852294921875 1.01092529296875
2083164000.0 -0.9376220703125 1.1204833984375
2088159500.0 -0.81488037109375 1.218505859375
2093155000.0 -0.68023681640625 1.303955078125
2098150500.0 -0.53546142578125 1.37420654296875
2103146000.0 -0.38250732421875 1.42913818359375
2108141500.0 -0.2232666015625 1.4661865234375
2113137000.0 -0.05908203125 1.48406982421875
2118132500.0 0.1063232421875 1.4825439453125
2123128000.0 0.2703857421875 1.46112060546875
2128123500.0 0.43145751953125 1.42120361328125
2133119000.0 0.58544921875 1.3623046875
2138114500.0 0.73052978515625 1.286376953125
2143110000.0 0.86431884765625 1.195068359375
2148105500.0 0.985595703125 1.090087890625
2153101000.0 1.09393310546875 0.97381591796875
2158096500.0 1.18756103515625 0.84796142578125
2163092000.0 1.26611328125 0.71490478515625
2168087500.0 1.33050537109375 0.5760498046875
2173083000.0 1.38031005859375 0.43292236328125
2178078500.0 1.41607666015625 0.28656005859375
2183074000.0 1.437255859375 0.13885498046875
2188069500.0 1.4443359375 -0.010009765625
