!Created with skrf (http://scikit-rf.org).
# Hz S RI R 50.0 
!freq ReS11 ImS11
300000.0 -1.017016374 -0.1644756893
5299970.0 -1.001800205 0.0081576056
10299940.0 -1.000798108 0.0125609843
15299910.0 -1.000305135 0.0238316804
20299880.0 -1.000615091 0.0282974551
25299850.0 -0.9994168114 0.0366017204
30299820.0 -0.9992691419 0.0436248867
35299790.0 -0.9984352624 0.0488362833
40299760.0 -0.9972886185 0.0556998907
45299730.0 -0.9971218736 0.0625610977
50299700.0 -0.9963701253 0.0693416881
55299670.0 -0.9958060122 0.0763540857
60299640.0 -0.9952866376 0.083076486
65299610.0 -0.994436246 0.0892562888
70299580.0 -0.9940475344 0.0954943314
75299550.0 -0.9927524545 0.1026508562
80299520.0 -0.9924148748 0.1092215631
85299490.0 -0.9910416273 0.1153892459
90299460.0 -0.9902615966 0.1219606504
95299430.0 -0.9889777001 0.1285622557
100299400.0 -0.9878072005 0.1353935275
105299370.0 -0.9872060726 0.1418837329
110299340.0 -0.9856606722 0.1485597306
115299310.0 -0.9847838319 0.1550128085
120299280.0 -0.9835173281 0.1617537209
125299250.0 -0.9827737327 0.1680044278
130299220.0 -0.981636507 0.1746355027
135299190.0 -0.9800809081 0.1811485233
140299160.0 -0.978970204 0.1878338393
145299130.0 -0.9772056953 0.193354657
150299100.0 -0.9757251145 0.2004246258
155299070.0 -0.9748753179 0.2067366104
160299040.0 -0.9734003797 0.2133092153
165299010.0 -0.9716492705 0.2194845951
170298980.0 -0.9705446428 0.2264134017
175298950.0 -0.9666559938 0.2314663442
180298920.0 -0.964353713 0.2372429639
185298890.0 -0.9643361765 0.2440826315
190298860.0 -0.9635908068 0.25118489
195298830.0 -0.961935672 0.2582602371
200298800.0 -0.9600908805 0.2641795149
205298770.0 -0.9586703564 0.2709132204
210298740.0 -0.9564648464 0.2773063384
215298710.0 -0.9547092816 0.283686772
220298680.0 -0.9527615435 0.2901170965
225298650.0 -0.9508586361 0.2962146337
230298620.0 -0.9489865817 0.3022670641
235298590.0 -0.9465634111 0.3084635627
240298560.0 -0.945273066 0.3146469571
245298530.0 -0.9429143876 0.3203584769
250298500.0 -0.9404425447 0.3267695669
255298470.0 -0.9384676418 0.3330084277
260298440.0 -0.9360198301 0.339661319
265298410.0 -0.9339914712 0.3455979557
270298380.0 -0.9313168236 0.3520702558
275298350.0 -0.9289551016 0.3574626817
280298320.0 -0.9266902907 0.3638087893
285298290.0 -0.9236676594 0.3704192562
290298260.0 -0.9211058346 0.3761503146
295298230.0 -0.9186348391 0.3825403265
300298200.0 -0.9162383009 0.3888465855
305298170.0 -0.9135068046 0.3943798702
310298140.0 -0.9109074673 0.3996153382
315298110.0 -0.9084130495 0.4064915509
320298080.0 -0.9059905947 0.4120590268
325298050.0 -0.9028150256 0.4179821397
330298020.0 -0.9003596587 0.4243492127
335297990.0 -0.897396742 0.4303737238
340297960.0 -0.8940934413 0.4361843915
345297930.0 -0.8914823969 0.4414835637
350297900.0 -0.8889678196 0.4475491341
355297870.0 -0.8863659336 0.4542793099
360297840.0 -0.8831976188 0.4596802184
365297810.0 -0.8803197913 0.4654728296
370297780.0 -0.8769290604 0.4707470725
375297750.0 -0.873124007 0.4768282757
380297720.0 -0.8698029771 0.4824269864
385297690.0 -0.8663077795 0.4883019721
390297660.0 -0.862997961 0.494186555
395297630.0 -0.8601497514 0.4994190604
400297600.0 -0.8567545307 0.5053837472
405297570.0 -0.8532736041 0.5108821735
410297540.0 -0.8497029126 0.5168814311
415297510.0 -0.8466730704 0.5224140824
420297480.0 -0.8427763381 0.5282027647
425297450.0 -0.8393027169 0.5332816203
430297420.0 -0.8352902325 0.5386141902
435297390.0 -0.8324868695 0.5438017947
440297360.0 -0.8285412932 0.5498469527
445297330.0 -0.8246996036 0.5550717149
450297300.0 -0.820987324 0.5603747959
455297270.0 -0.8172832062 0.566045046
460297240.0 -0.8142598069 0.5713938778
465297210.0 -0.8099124493 0.5765305487
470297180.0 -0.8058766565 0.5821307988
475297150.0 -0.8023853669 0.5868557628
480297120.0 -0.7981664474 0.5923639853
485297090.0 -0.794007895 0.5973660499
490297060.0 -0.7900726039 0.6033081777
495297030.0 -0.7863776126 0.608002519
500297000.0 -0.782528926 0.6134891009
505296970.0 -0.7786124567 0.6184490407
510296940.0 -0.7747967427 0.623573391
515296910.0 -0.7705527937 0.6288370557
520296880.0 -0.766694536 0.6341502146
525296850.0 -0.7623469225 0.6391808521
530296820.0 -0.7583144717 0.644351605
535296790.0 -0.7540793291 0.649097987
540296760.0 -0.7497670979 0.6538549733
545296730.0 -0.7448898353 0.6593447316
550296700.0 -0.7405916588 0.6641631633
555296670.0 -0.7357731368 0.6680034601
560296640.0 -0.7313859726 0.6735956814
565296610.0 -0.7265935847 0.6779473955
570296580.0 -0.7219038713 0.6831129917
575296550.0 -0.7170008555 0.687426138
580296520.0 -0.7126447829 0.6922715552
585296490.0 -0.7083875899 0.6969408667
590296460.0 -0.7034105814 0.7014017294
595296430.0 -0.6985906457 0.7060130936
600296400.0 -0.6938058478 0.7106292087
605296370.0 -0.6899399902 0.7154933035
610296340.0 -0.6845968552 0.719345723
615296310.0 -0.6794625638 0.7242440778
620296280.0 -0.6748521496 0.7279327854
625296250.0 -0.6700648591 0.7331353649
630296220.0 -0.665884864 0.7371123275
635296190.0 -0.6608439302 0.7406715071
640296160.0 -0.6557315677 0.7452924884
645296130.0 -0.6508284227 0.7491626443
650296100.0 -0.6457758716 0.7539407234
655296070.0 -0.6400389558 0.7585787877
660296040.0 -0.6357090189 0.7622866071
665296010.0 -0.630391125 0.7664528887
670295980.0 -0.6251623508 0.7709570255
675295950.0 -0.6207222117 0.7747377595
680295920.0 -0.6156679808 0.7787564806
685295890.0 -0.6102868807 0.7827841844
690295860.0 -0.6051566805 0.7870310841
695295830.0 -0.5999114338 0.7905576546
700295800.0 -0.5943978356 0.7947555743
705295770.0 -0.5889538294 0.7992209376
710295740.0 -0.5842149486 0.8025013393
715295710.0 -0.5783264758 0.8065850009
720295680.0 -0.5731304678 0.8100927939
725295650.0 -0.5676826647 0.8135300277
730295620.0 -0.5628242964 0.8174683019
735295590.0 -0.557073837 0.8213838567
740295560.0 -0.5511183479 0.8246083669
745295530.0 -0.546249806 0.8284534346
750295500.0 -0.5407951072 0.8321351549
755295470.0 -0.5350753416 0.835886036
760295440.0 -0.5301657295 0.8389673553
765295410.0 -0.5247230697 0.8423844128
770295380.0 -0.518253601 0.8456552167
775295350.0 -0.5128491664 0.8492414014
780295320.0 -0.5072221585 0.8528208628
785295290.0 -0.5018664727 0.8558149379
790295260.0 -0.4960121062 0.8590515905
795295230.0 -0.4898605805 0.8620437507
800295200.0 -0.4842097421 0.8656492253
805295170.0 -0.4784489169 0.8685547258
810295140.0 -0.4728519557 0.8717288916
815295110.0 -0.4672598973 0.8748134321
820295080.0 -0.4619487583 0.8779049936
825295050.0 -0.4555932415 0.8802915973
830295020.0 -0.4496963681 0.8832695133
835294990.0 -0.4438397922 0.8866802307
840294960.0 -0.4385012211 0.8898019851
845294930.0 -0.4324587906 0.8922806111
850294900.0 -0.4264652668 0.8954260544
855294870.0 -0.420062042 0.8980963643
860294840.0 -0.4140898212 0.9001358681
865294810.0 -0.4080440337 0.9028614927
870294780.0 -0.4020493334 0.9056239207
875294750.0 -0.3970696494 0.9081371913
880294720.0 -0.3905610574 0.9112225419
885294690.0 -0.3846134991 0.9136460908
890294660.0 -0.3782947583 0.9158703908
895294630.0 -0.3721788145 0.9182451032
900294600.0 -0.3667023748 0.9209235843
905294570.0 -0.3607157228 0.9230881287
910294540.0 -0.3540764093 0.9246348867
915294510.0 -0.347858883 0.9270584266
920294480.0 -0.34183025 0.9290546094
925294450.0 -0.3362333061 0.9318638788
930294420.0 -0.3298460106 0.9338123344
935294390.0 -0.3231389666 0.935555139
940294360.0 -0.3175815242 0.9380099618
945294330.0 -0.311747797 0.9403529975
950294300.0 -0.3051606306 0.9419797855
955294270.0 -0.2987650293 0.9441482172
960294240.0 -0.2925925621 0.9458821781
965294210.0 -0.2858829742 0.9479250657
970294180.0 -0.2799221938 0.9491542846
975294150.0 -0.2735543959 0.9512663712
980294120.0 -0.2679926652 0.9531246553
985294090.0 -0.2615052956 0.9549442751
990294060.0 -0.2554171305 0.956402183
995294030.0 -0.248495374 0.9579002648
1000294000.0 -0.2424948828 0.9599596737
1005293970.0 -0.235709781 0.9610930688
1010293940.0 -0.2295781593 0.9628100393
1015293910.0 -0.223627682 0.9640040479
1020293880.0 -0.2171844358 0.9654851332
1025293850.0 -0.2111443455 0.9666169357
1030293820.0 -0.2045532865 0.9685438267
1035293790.0 -0.1982810161 0.9699504516
1040293760.0 -0.191642642 0.9704757224
1045293730.0 -0.184943541 0.9718600931
1050293700.0 -0.1789107724 0.9731277251
1055293670.0 -0.1723118146 0.9741044431
1060293640.0 -0.1658057989 0.9751148996
1065293610.0 -0.1599769484 0.9764624174
1070293580.0 -0.153264079 0.977301272
1075293550.0 -0.1467515507 0.9782837061
1080293520.0 -0.140706347 0.9790484349
1085293490.0 -0.1337248805 0.9796424085
1090293460.0 -0.1273155437 0.9809154083
1095293430.0 -0.120703062 0.9815812984
1100293400.0 -0.1138493112 0.9824643355
1105293370.0 -0.1074634539 0.9830817981
1110293340.0 -0.1010453701 0.9834367319
1115293310.0 -0.0949713232 0.9844577732
1120293280.0 -0.0884396467 0.984626494
1125293250.0 -0.0816704303 0.9854026517
1130293220.0 -0.0759213592 0.985812068
1135293190.0 -0.0691210976 0.9863739611
1140293160.0 -0.062952086 0.9870043615
1145293130.0 -0.0562922422 0.9874719078
1150293100.0 -0.0492891931 0.9878196728
1155293070.0 -0.0428240044 0.9877379003
1160293040.0 -0.0367932757 0.9885299777
1165293010.0 -0.0302441257 0.988220455
1170292980.0 -0.0237463111 0.988475466
1175292950.0 -0.0175610434 0.988386936
1180292920.0 -0.0106438551 0.9886443489
1185292890.0 -0.0047246216 0.9884504794
1190292860.0 0.0019386564 0.9880755003
1195292830.0 0.0086990042 0.9886780306
1200292800.0 0.0146606494 0.9882087321
1205292770.0 0.0214228913 0.9881827812
1210292740.0 0.0281500134 0.9879189478
1215292710.0 0.0343071919 0.9876792395
1220292680.0 0.0413087745 0.9872430139
1225292650.0 0.0477908109 0.9874779509
1230292620.0 0.0542274733 0.9867394884
1235292590.0 0.0603729362 0.9866262689
1240292560.0 0.0670057152 0.9857391065
1245292530.0 0.0737868618 0.9855017562
1250292500.0 0.08033903 0.9850187409
1255292470.0 0.086837604 0.984538556
1260292440.0 0.0936571243 0.9840004408
1265292410.0 0.0994598909 0.9826920208
1270292380.0 0.1059810552 0.9820705385
1275292350.0 0.1127259435 0.9814725738
1280292320.0 0.1190587409 0.9807082361
1285292290.0 0.1254700118 0.9796838112
1290292260.0 0.1321491887 0.979080897
1295292230.0 0.1377586882 0.9784501579
1300292200.0 0.1443395209 0.9772321644
1305292170.0 0.1503364526 0.9764470455
1310292140.0 0.1576245557 0.975459186
1315292110.0 0.1645230832 0.9743288499
1320292080.0 0.1704875762 0.9729193741
1325292050.0 0.1765176524 0.9717412651
1330292020.0 0.183694883 0.9707585221
1335291990.0 0.1899535734 0.9690867139
1340291960.0 0.1965256207 0.968146008
1345291930.0 0.2029619335 0.9671430775
1350291900.0 0.209092006 0.9651598481
1355291870.0 0.2148500425 0.9640717858
1360291840.0 0.2221957566 0.9633105727
1365291810.0 0.2276730793 0.9615041238
1370291780.0 0.2335228619 0.959924628
1375291750.0 0.2404097454 0.9577025081
1380291720.0 0.2466272978 0.9566548076
1385291690.0 0.2531939767 0.9551753227
1390291660.0 0.2587456359 0.9526820116
1395291630.0 0.2656984323 0.9510827481
1400291600.0 0.2725299249 0.9496905816
1405291570.0 0.2780763958 0.947269026
1410291540.0 0.2844732057 0.9458677734
1415291510.0 0.2901289952 0.9439794032
1420291480.0 0.2971524846 0.9421990428
1425291450.0 0.3032138719 0.9397940918
1430291420.0 0.3089165403 0.9383124
1435291390.0 0.3151543268 0.9359342004
1440291360.0 0.3211601284 0.9339305867
1445291330.0 0.3274002813 0.9322104608
1450291300.0 0.3327476274 0.9299322377
1455291270.0 0.3393320643 0.9271241708
1460291240.0 0.3450869993 0.9246063867
1465291210.0 0.3516752394 0.9223744897
1470291180.0 0.3580194243 0.9204657397
1475291150.0 0.3635802635 0.9182282888
1480291120.0 0.3693969489 0.9153434637
1485291090.0 0.3759270613 0.9131906309
1490291060.0 0.3820065444 0.9103474891
1495291030.0 0.3877897957 0.9082843193
1500291000.0 0.3935172933 0.9059907061
1505290970.0 0.3996300453 0.903521323
1510290940.0 0.405304035 0.900262247
1515290910.0 0.4113141137 0.8977038903
1520290880.0 0.4175476285 0.8948868036
1525290850.0 0.4234184399 0.892518584
1530290820.0 0.4289679106 0.8896012912
1535290790.0 0.4349598936 0.8871159998
1540290760.0 0.4407211663 0.8834845239
1545290730.0 0.4469189715 0.880584205
1550290700.0 0.4532050743 0.8784081023
1555290670.0 0.4587636223 0.8748839771
1560290640.0 0.4642438078 0.8715929661
1565290610.0 0.4695373825 0.8688112214
1570290580.0 0.4756366646 0.865590743
1575290550.0 0.480776692 0.8629557882
1580290520.0 0.4870197749 0.8592312439
1585290490.0 0.4928839622 0.8560261141
1590290460.0 0.4987508806 0.8526828445
1595290430.0 0.5039603346 0.8491490455
1600290400.0 0.5097788114 0.8461026989
1605290370.0 0.5150790988 0.8428793074
1610290340.0 0.5209245663 0.8393415217
1615290310.0 0.5260435485 0.8361173977
1620290280.0 0.5319399593 0.8324718728
1625290250.0 0.5371299849 0.8289009215
1630290220.0 0.5423546954 0.8256078231
1635290190.0 0.5475483396 0.8226906699
1640290160.0 0.5524031998 0.8186600087
1645290130.0 0.5580757688 0.8152574417
1650290100.0 0.5634362864 0.8106968144
1655290070.0 0.5689999658 0.8070299971
1660290040.0 0.5743482874 0.8031773134
1665290010.0 0.5795201693 0.7998626329
1670289980.0 0.5841769841 0.7961590984
1675289950.0 0.5899155253 0.7918175263
1680289920.0 0.5949007614 0.7881564025
1685289890.0 0.6010855301 0.7835368622
1690289860.0 0.606557086 0.7792223229
1695289830.0 0.611620013 0.776031737
1700289800.0 0.6165931981 0.7716329412
1705289770.0 0.6216354044 0.7672708659
1710289740.0 0.6262793166 0.7639447411
1715289710.0 0.631132534 0.7591208001
1720289680.0 0.6363638263 0.7550149568
1725289650.0 0.6412757038 0.7515184412
1730289620.0 0.6464176735 0.7469809626
1735289590.0 0.651207238 0.7424425503
1740289560.0 0.6555018482 0.7389084912
1745289530.0 0.6602680593 0.7344718159
1750289500.0 0.6658791933 0.7297607632
1755289470.0 0.6703050478 0.72525582
1760289440.0 0.6747274848 0.7209992277
1765289410.0 0.6796088681 0.7168808276
1770289380.0 0.6837047837 0.7119729663
1775289350.0 0.6888487141 0.7084371704
1780289320.0 0.6930957618 0.7033705789
1785289290.0 0.698529325 0.6982364212
1790289260.0 0.7032277245 0.6941350842
1795289230.0 0.707954707 0.6890616518
1800289200.0 0.7119561417 0.6848446812
1805289170.0 0.7169492336 0.6801448335
1810289140.0 0.7212853054 0.6756717635
1815289110.0 0.7253101074 0.6705963661
1820289080.0 0.7294787507 0.6663484557
1825289050.0 0.7340608104 0.6617057909
1830289020.0 0.7381038236 0.6567366538
1835288990.0 0.7424838944 0.6521741754
1840288960.0 0.7467621514 0.6470088851
1845288930.0 0.7510120461 0.6422478784
1850288900.0 0.7547047638 0.637291617
1855288870.0 0.7596313268 0.6319337829
1860288840.0 0.7637599357 0.626866112
1865288810.0 0.7679289308 0.6218961734
1870288780.0 0.7716963395 0.6167732901
1875288750.0 0.7763197276 0.611650089
1880288720.0 0.7806413708 0.6064679382
1885288690.0 0.7839786939 0.6009634727
1890288660.0 0.7884700014 0.5953996495
1895288630.0 0.7921862488 0.5906714956
1900288600.0 0.7956408311 0.5856148083
1905288570.0 0.7997544987 0.5800177319
1910288540.0 0.8035763451 0.5752485242
1915288510.0 0.8072248765 0.5695947009
1920288480.0 0.8109367084 0.5635798306
1925288450.0 0.8147924371 0.5586045473
1930288420.0 0.8188444929 0.5534176938
1935288390.0 0.8218897246 0.547862735
1940288360.0 0.826070902 0.5424688034
1945288330.0 0.8300249806 0.5373422347
1950288300.0 0.8332190695 0.5310770365
1955288270.0 0.8366473006 0.525569946
1960288240.0 0.8402762598 0.5195641236
1965288210.0 0.843865015 0.5143204719
1970288180.0 0.8468215327 0.5082424602
1975288150.0 0.8500816178 0.5031137212
1980288120.0 0.8537134239 0.4981253518
1985288090.0 0.8566312487 0.4928061779
1990288060.0 0.8599720483 0.4873715
1995288030.0 0.8629103676 0.4816948864
2000288000.0 0.8654874564 0.4762119119
2005287970.0 0.8690909775 0.4704673961
2010287940.0 0.8721392459 0.4650155435
2015287910.0 0.8748451574 0.4594782021
2020287880.0 0.8784200515 0.4534917506
2025287850.0 0.8809504814 0.4472755885
2030287820.0 0.8842454262 0.4414918696
2035287790.0 0.8872081491 0.436252045
2040287760.0 0.8893091783 0.4299712667
2045287730.0 0.8929387115 0.4245820651
2050287700.0 0.8952473806 0.4181480944
2055287670.0 0.8977637681 0.4126563623
2060287640.0 0.9006998722 0.4066310795
2065287610.0 0.9029986852 0.4007446186
2070287580.0 0.9063363191 0.3948525374
2075287550.0 0.908418971 0.3883407573
2080287520.0 0.9107043749 0.3828521824
2085287490.0 0.9138788905 0.3768370041
2090287460.0 0.9163888547 0.3712124839
2095287430.0 0.9185290719 0.364777716
2100287400.0 0.9206044257 0.3586284239
2105287370.0 0.9230726093 0.3525335232
2110287340.0 0.9261245942 0.3465250374
2115287310.0 0.9278658494 0.3402699127
2120287280.0 0.9303859297 0.3341025965
2125287250.0 0.9322236204 0.3282756082
2130287220.0 0.9346408927 0.3219206207
2135287190.0 0.9368879575 0.3157224648
2140287160.0 0.9388307589 0.3097057002
2145287130.0 0.9407419381 0.3032737466
2150287100.0 0.9428897384 0.2972912785
2155287070.0 0.9444273068 0.2912436099
2160287040.0 0.9461385591 0.2854932445
2165287010.0 0.9481274913 0.2790185894
2170286980.0 0.9500790557 0.2725893003
2175286950.0 0.9520652699 0.2663955353
2180286920.0 0.9536174169 0.2605352842
2185286890.0 0.9550473888 0.254958583
2190286860.0 0.956737762 0.2487938074
2195286830.0 0.9583832633 0.2427034816
2200286800.0 0.9601727609 0.2359702166
2205286770.0 0.9614898774 0.230509286
2210286740.0 0.9627738938 0.2242974061
2215286710.0 0.9646921079 0.217652476
2220286680.0 0.9659056032 0.2107661711
2225286650.0 0.9670678733 0.2048730507
2230286620.0 0.9685547111 0.1984131393
2235286590.0 0.969394291 0.1914824956
2240286560.0 0.9709475677 0.1849835592
2245286530.0 0.9723875897 0.1794250584
2250286500.0 0.9731959856 0.1728499891
2255286470.0 0.9743371777 0.1663366409
2260286440.0 0.9755375349 0.1596761153
2265286410.0 0.9767191201 0.1529372656
2270286380.0 0.9767708576 0.1465023078
2275286350.0 0.9784229032 0.1403725532
2280286320.0 0.9795491246 0.1341549557
2285286290.0 0.9805275436 0.1278766133
2290286260.0 0.9809393947 0.1211030396
2295286230.0 0.9818447596 0.1148197394
2300286200.0 0.9825678636 0.1084362287
2305286170.0 0.9828183858 0.1018437337
2310286140.0 0.9835691267 0.0951546216
2315286110.0 0.9847334962 0.0881895155
2320286080.0 0.9855673768 0.0824188716
2325286050.0 0.9859394362 0.0759714912
2330286020.0 0.9860630233 0.0692455671
2335285990.0 0.9864156095 0.0629882359
2340285960.0 0.9868896673 0.0565842477
2345285930.0 0.9870998465 0.0504813171
2350285900.0 0.9875986403 0.0433885366
2355285870.0 0.9877639708 0.0367983992
2360285840.0 0.9881155243 0.0307568468
2365285810.0 0.9885664794 0.0237634603
2370285780.0 0.9883974997 0.0177009263
2375285750.0 0.9888025195 0.0109458341
2380285720.0 0.9884887857 0.0049023912
2385285690.0 0.9883255749 -0.0016280627
2390285660.0 0.9883374056 -0.0078603312
2395285630.0 0.9882701396 -0.014319192
2400285600.0 0.9877366082 -0.0208373043
2405285570.0 0.9875823041 -0.0274106924
2410285540.0 0.9874125303 -0.0338665902
2415285510.0 0.9873079534 -0.039615543
2420285480.0 0.9866700503 -0.0456713821
2425285450.0 0.986625064 -0.0523888086
2430285420.0 0.9860173979 -0.058884825
2435285390.0 0.986048095 -0.065710701
2440285360.0 0.9851930813 -0.0717364774
2445285330.0 0.984966673 -0.0779316856
2450285300.0 0.9846067656 -0.0846407337
2455285270.0 0.9833308726 -0.0915626068
2460285240.0 0.9833178759 -0.0981157571
2465285210.0 0.9827055114 -0.1041953047
2470285180.0 0.9814017829 -0.1111105904
2475285150.0 0.9808288202 -0.1170347834
2480285120.0 0.9797546783 -0.1234977622
2485285090.0 0.9791219093 -0.1300521191
2490285060.0 0.9778693441 -0.1364368478
2495285030.0 0.9774480054 -0.1428798059
2500285000.0 0.9761971472 -0.1494584718
2505284970.0 0.975141523 -0.1563092462
2510284940.0 0.9748376218 -0.1623122761
2515284910.0 0.9729876898 -0.1684970953
2520284880.0 0.9720916181 -0.1747129373
2525284850.0 0.9709007441 -0.1816387183
2530284820.0 0.9695405498 -0.1881526814
2535284790.0 0.9681815114 -0.1939078253
2540284760.0 0.9676479169 -0.1998249652
2545284730.0 0.9655525058 -0.2069522314
2550284700.0 0.9638572354 -0.2126774286
2555284670.0 0.9625811642 -0.2191015512
