!Created with skrf (http://scikit-rf.org).
# Hz S RI R 50.0 
!freq ReS11 ImS11
300000.0 1.002099838 0.0011916305
5299970.0 1.00473003 -0.0076797573
10299940.0 1.004052379 -0.0157453288
15299910.0 1.004698779 -0.0212873169
20299880.0 1.003999323 -0.0283128936
25299850.0 1.003759273 -0.0352462151
30299820.0 1.002896353 -0.0417673224
35299790.0 1.003463462 -0.0482864421
40299760.0 1.003050243 -0.0547910278
45299730.0 1.002411059 -0.0614760825
50299700.0 1.002456601 -0.068830983
55299670.0 1.001720868 -0.0752115209
60299640.0 1.000938395 -0.0815926631
65299610.0 1.000283213 -0.0885507287
70299580.0 1.000683075 -0.0946139981
75299550.0 0.9994586236 -0.100815578
80299520.0 0.9986847559 -0.1081443401
85299490.0 0.9980666057 -0.1147434533
90299460.0 0.9973716509 -0.121276714
95299430.0 0.9964480241 -0.1278408589
100299400.0 0.995388793 -0.1338598109
105299370.0 0.9946223415 -0.1410428947
110299340.0 0.993692067 -0.1478729564
115299310.0 0.9926082443 -0.1545891723
120299280.0 0.9915288233 -0.1608853377
125299250.0 0.9905646794 -0.1675139408
130299220.0 0.9889174956 -0.174231795
135299190.0 0.9879077058 -0.1806956262
140299160.0 0.9874650761 -0.1876647156
145299130.0 0.9854504594 -0.1935646229
150299100.0 0.9839921406 -0.200316335
155299070.0 0.9828349872 -0.2059240023
160299040.0 0.9816205409 -0.2131711125
165299010.0 0.9799651573 -0.2195283904
170298980.0 0.9780997651 -0.2254385759
175298950.0 0.9761502275 -0.2321448449
180298920.0 0.9738893031 -0.2393713056
185298890.0 0.9724978996 -0.2454325206
190298860.0 0.972517582 -0.2517566932
195298830.0 0.9700299202 -0.2586225231
200298800.0 0.968837154 -0.2647395102
205298770.0 0.9669921553 -0.2708986033
210298740.0 0.9650406498 -0.2775124618
215298710.0 0.9632775666 -0.2834762504
220298680.0 0.9608478115 -0.2899560674
225298650.0 0.9589735388 -0.2967242268
230298620.0 0.9570905244 -0.3030930956
235298590.0 0.9556079572 -0.3090207014
240298560.0 0.9530470478 -0.315858298
245298530.0 0.9504805931 -0.3217547115
250298500.0 0.9487916539 -0.3277952859
255298470.0 0.946524653 -0.3343505823
260298440.0 0.9445525225 -0.3408505448
265298410.0 0.9425649169 -0.3465923176
270298380.0 0.939553876 -0.3529476021
275298350.0 0.9373651191 -0.3584550227
280298320.0 0.9352736163 -0.3657965503
285298290.0 0.9327693434 -0.37125973
290298260.0 0.9300838147 -0.3779270775
295298230.0 0.9278082968 -0.3839227819
300298200.0 0.9247005086 -0.3896855225
305298170.0 0.921996336 -0.3963919497
310298140.0 0.9191588691 -0.4017478876
315298110.0 0.916748058 -0.4081257464
320298080.0 0.9146093879 -0.4137329315
325298050.0 0.911184633 -0.4203939508
330298020.0 0.9082143583 -0.4259130887
335297990.0 0.9057303001 -0.4322408414
340297960.0 0.9027315475 -0.4386531364
345297930.0 0.9001491758 -0.4439916019
350297900.0 0.8972857256 -0.4502809809
355297870.0 0.8946664995 -0.4567363139
360297840.0 0.8916684992 -0.4622555512
365297810.0 0.8882676335 -0.4679848576
370297780.0 0.885096439 -0.4739432755
375297750.0 0.8810799643 -0.4792538192
380297720.0 0.8776003305 -0.4852661099
385297690.0 0.874644507 -0.4906052705
390297660.0 0.8716204108 -0.4968555471
395297630.0 0.8684042901 -0.5022926931
400297600.0 0.8651265116 -0.508044041
405297570.0 0.8615927586 -0.5137892742
410297540.0 0.8579037746 -0.5196365825
415297510.0 0.8547708037 -0.5251001436
420297480.0 0.8511093839 -0.5305885435
425297450.0 0.8479136349 -0.5361082263
430297420.0 0.8442395658 -0.5419203941
435297390.0 0.8404127421 -0.5475393728
440297360.0 0.8365275563 -0.552670871
445297330.0 0.8330394866 -0.5581908048
450297300.0 0.8298805652 -0.5641024335
455297270.0 0.8253580403 -0.5692375535
460297240.0 0.821889842 -0.5747414926
465297210.0 0.8181182948 -0.5801773137
470297180.0 0.8140466509 -0.5853532872
475297150.0 0.8106902909 -0.5907808085
480297120.0 0.806306574 -0.596361378
485297090.0 0.8024113965 -0.6016780901
490297060.0 0.798623194 -0.6069207092
495297030.0 0.7945460501 -0.6122896177
500297000.0 0.7904537379 -0.6177642003
505296970.0 0.7861902011 -0.6225192039
510296940.0 0.78239789 -0.62771775
515296910.0 0.7778702411 -0.6331551893
520296880.0 0.7735615355 -0.6380299491
525296850.0 0.7688605882 -0.6429916396
530296820.0 0.7650488687 -0.6484914568
535296790.0 0.760384533 -0.6531161487
540296760.0 0.7559086357 -0.658304541
545296730.0 0.7521254854 -0.6632217384
550296700.0 0.7471091298 -0.6676442877
555296670.0 0.7432859861 -0.6728893365
560296640.0 0.7389177808 -0.6777687616
565296610.0 0.734483325 -0.6825498015
570296580.0 0.7298751394 -0.6875257859
575296550.0 0.7253077092 -0.6927564892
580296520.0 0.720142387 -0.6978077232
585296490.0 0.7157361863 -0.7021793468
590296460.0 0.7112070464 -0.7070501302
595296430.0 0.7068444079 -0.7109502609
600296400.0 0.7020295229 -0.7156319117
605296370.0 0.6974822043 -0.7203479541
610296340.0 0.6926045609 -0.7249200098
615296310.0 0.6879401751 -0.7292263345
620296280.0 0.6828930008 -0.7342226382
625296250.0 0.6778467198 -0.7383464938
630296220.0 0.6731069489 -0.7432988951
635296190.0 0.6685009054 -0.7478138762
640296160.0 0.6633394525 -0.7520321776
645296130.0 0.6580818996 -0.7560744591
650296100.0 0.6532365902 -0.7609637261
655296070.0 0.6482720708 -0.7650273345
660296040.0 0.6426696611 -0.7694620127
665296010.0 0.6380002975 -0.773223546
670295980.0 0.6329537799 -0.7772908489
675295950.0 0.6277091637 -0.782166906
680295920.0 0.6227878949 -0.7856366348
685295890.0 0.6172869526 -0.7906059663
690295860.0 0.612101908 -0.7939060819
695295830.0 0.6065584193 -0.7983406544
700295800.0 0.6016528464 -0.8021877017
705295770.0 0.5961109975 -0.8057641408
710295740.0 0.5912662686 -0.8099860929
715295710.0 0.5851807477 -0.8141351771
720295680.0 0.5801246841 -0.8179941117
725295650.0 0.5744554709 -0.8217226769
730295620.0 0.5692764073 -0.8251789302
735295590.0 0.5636100959 -0.8284997253
740295560.0 0.5580986804 -0.8326764057
745295530.0 0.5526473074 -0.836421702
750295500.0 0.5470977993 -0.8404762563
755295470.0 0.5415157767 -0.8433106521
760295440.0 0.5361253869 -0.84724165
765295410.0 0.5299148926 -0.8512131604
770295380.0 0.5247564813 -0.8539211477
775295350.0 0.5189339953 -0.857974202
780295320.0 0.5132839554 -0.8612880919
785295290.0 0.507633651 -0.8645526505
790295260.0 0.5017368064 -0.8681017351
795295230.0 0.4961941464 -0.8714921618
800295200.0 0.4905527097 -0.8751072166
805295170.0 0.4845388206 -0.8781926246
810295140.0 0.479105104 -0.8809693208
815295110.0 0.4734736582 -0.8842708012
820295080.0 0.4675037485 -0.8867049473
825295050.0 0.4609765583 -0.8903469584
830295020.0 0.455254754 -0.8942038606
835294990.0 0.4497153261 -0.8966407483
840294960.0 0.4437026973 -0.8996155457
845294930.0 0.4376432914 -0.9025613295
850294900.0 0.4316953989 -0.9055376883
855294870.0 0.4258856958 -0.907551177
860294840.0 0.4195189428 -0.9103382236
865294810.0 0.4133555753 -0.9138469363
870294780.0 0.4073896989 -0.9163192836
875294750.0 0.4010819338 -0.9195090507
880294720.0 0.3957314541 -0.921359089
885294690.0 0.3898911226 -0.924461443
890294660.0 0.3836558561 -0.9265964981
895294630.0 0.3774317863 -0.9295014235
900294600.0 0.3709329864 -0.9317965101
905294570.0 0.3648315886 -0.9338348763
910294540.0 0.3584732763 -0.9362973389
915294510.0 0.3525680785 -0.9385465657
920294480.0 0.3462102397 -0.9413285015
925294450.0 0.3397670905 -0.9436903032
930294420.0 0.3338055411 -0.9457814579
935294390.0 0.3267932287 -0.947635912
940294360.0 0.3207221854 -0.9507119988
945294330.0 0.315261987 -0.9521632745
950294300.0 0.3083814815 -0.9541952544
955294270.0 0.3015724088 -0.9562026175
960294240.0 0.2952936401 -0.95881076
965294210.0 0.2890351341 -0.9607674139
970294180.0 0.2827386828 -0.9621477423
975294150.0 0.2759364829 -0.9641878824
980294120.0 0.2705747298 -0.9656902256
985294090.0 0.2636457751 -0.9673725208
990294060.0 0.2577609922 -0.9692067088
995294030.0 0.2511422739 -0.9711564389
1000294000.0 0.2442004014 -0.9726972159
1005293970.0 0.2373738782 -0.9745844703
1010293940.0 0.2310748755 -0.9758806711
1015293910.0 0.2253044401 -0.977275444
1020293880.0 0.2185312952 -0.9788181953
1025293850.0 0.212693075 -0.9800170674
1030293820.0 0.2058767562 -0.9812398172
1035293790.0 0.1991466379 -0.982781974
1040293760.0 0.192494057 -0.9838922865
1045293730.0 0.1857105865 -0.9844880257
1050293700.0 0.1796786615 -0.9866172492
1055293670.0 0.1727145994 -0.9878622181
1060293640.0 0.1662473863 -0.9885011763
1065293610.0 0.1603230025 -0.9904688254
1070293580.0 0.1533600361 -0.9911820226
1075293550.0 0.1474676977 -0.9923128861
1080293520.0 0.1405191698 -0.9925088471
1085293490.0 0.1329452921 -0.9940953936
1090293460.0 0.1270585264 -0.9946068543
1095293430.0 0.1206164273 -0.9950569469
1100293400.0 0.113622594 -0.9962363848
1105293370.0 0.1068982006 -0.9969300242
1110293340.0 0.1001176805 -0.9975126177
1115293310.0 0.0939411745 -0.998492088
1120293280.0 0.0873987905 -0.9991374245
1125293250.0 0.0806922398 -0.9990716808
1130293220.0 0.0750199565 -0.9994408054
1135293190.0 0.0676639886 -1.000754509
1140293160.0 0.0612393689 -1.000947177
1145293130.0 0.0540119582 -1.001308591
1150293100.0 0.0470538178 -1.001599491
1155293070.0 0.0400532501 -1.001701103
1160293040.0 0.0336863756 -1.001983619
1165293010.0 0.0274378315 -1.002379348
1170292980.0 0.0203188045 -1.002535734
1175292950.0 0.0137875722 -1.002278403
1180292920.0 0.0074387761 -1.002303064
1185292890.0 0.001335496 -1.002578685
1190292860.0 -0.0048077566 -1.002639668
1195292830.0 -0.0117637737 -1.002465427
1200292800.0 -0.0184992779 -1.002206236
1205292770.0 -0.0245871666 -1.00249632
1210292740.0 -0.0311587681 -1.002521338
1215292710.0 -0.037607391 -1.00191793
1220292680.0 -0.0448494805 -1.001816769
1225292650.0 -0.0512300835 -1.001753484
1230292620.0 -0.0579668273 -1.001165098
1235292590.0 -0.0648919959 -1.000167545
1240292560.0 -0.0716418667 -1.000033164
1245292530.0 -0.0781377728 -0.9988453927
1250292500.0 -0.0848715874 -0.9984969155
1255292470.0 -0.0909329382 -0.9978754236
1260292440.0 -0.0977438878 -0.9973036821
1265292410.0 -0.1042243486 -0.996716766
1270292380.0 -0.1104371171 -0.9960735348
1275292350.0 -0.1176957498 -0.9954492552
1280292320.0 -0.1241137595 -0.9943545268
1285292290.0 -0.1312604322 -0.9939050414
1290292260.0 -0.1372000525 -0.9922585282
1295292230.0 -0.1436369268 -0.991222097
1300292200.0 -0.1500877758 -0.9907600575
1305292170.0 -0.1565308781 -0.989441987
1310292140.0 -0.1636916213 -0.9887667489
1315292110.0 -0.1692855307 -0.9875323461
1320292080.0 -0.1760977388 -0.9861111122
1325292050.0 -0.183232057 -0.9848732434
1330292020.0 -0.1893734898 -0.9838057506
1335291990.0 -0.1964506606 -0.9823464711
1340291960.0 -0.2028882338 -0.9811818235
1345291930.0 -0.2095930673 -0.9790826497
1350291900.0 -0.2160367561 -0.977987404
1355291870.0 -0.2220066998 -0.9766120117
1360291840.0 -0.2285030957 -0.9746899946
1365291810.0 -0.2346165558 -0.9740815828
1370291780.0 -0.2406518137 -0.9717993199
1375291750.0 -0.2471458857 -0.9699299978
1380291720.0 -0.2537565391 -0.9684459588
1385291690.0 -0.2602676231 -0.9669147776
1390291660.0 -0.267087754 -0.9652855441
1395291630.0 -0.2732027205 -0.9631515589
1400291600.0 -0.2796583039 -0.9616349554
1405291570.0 -0.2861328529 -0.9602862098
1410291540.0 -0.2924900731 -0.9579100577
1415291510.0 -0.2984467367 -0.9557356898
1420291480.0 -0.3050652663 -0.9538213329
1425291450.0 -0.3109952718 -0.9513862046
1430291420.0 -0.3170578373 -0.9496871543
1435291390.0 -0.3226088314 -0.947293614
1440291360.0 -0.3292473322 -0.9451806889
1445291330.0 -0.3360631699 -0.9430711338
1450291300.0 -0.3412177275 -0.9410171799
1455291270.0 -0.347438507 -0.9385060003
1460291240.0 -0.3537425135 -0.9362132936
1465291210.0 -0.3606714253 -0.9336664822
1470291180.0 -0.3667380642 -0.9312585254
1475291150.0 -0.3728856706 -0.9287335452
1480291120.0 -0.3790625238 -0.9266285594
1485291090.0 -0.3850882069 -0.9239857125
1490291060.0 -0.3911203885 -0.921130982
1495291030.0 -0.3972827397 -0.9185325151
1500291000.0 -0.4030151747 -0.916326781
1505290970.0 -0.4089024849 -0.9131482322
1510290940.0 -0.4150638305 -0.9112166844
1515290910.0 -0.4209587299 -0.907264905
1520290880.0 -0.4267160882 -0.9048830895
1525290850.0 -0.4328624726 -0.9022841092
1530290820.0 -0.4388145055 -0.8993582911
1535290790.0 -0.4449290284 -0.8956337449
1540290760.0 -0.4506638443 -0.8931664327
1545290730.0 -0.4569317037 -0.8899332937
1550290700.0 -0.4621355223 -0.8869946719
1555290670.0 -0.4684424431 -0.8842643408
1560290640.0 -0.4738976337 -0.8811267561
1565290610.0 -0.4793412317 -0.8775558935
1570290580.0 -0.4853787549 -0.8743484414
1575290550.0 -0.4911600197 -0.8714858714
1580290520.0 -0.4972476357 -0.8678612892
1585290490.0 -0.5033297874 -0.8643512294
1590290460.0 -0.5086378883 -0.8608250288
1595290430.0 -0.5144339382 -0.8577999892
1600290400.0 -0.5195597814 -0.8541172812
1605290370.0 -0.5254347941 -0.8512130043
1610290340.0 -0.5312125786 -0.8469652762
1615290310.0 -0.5362744168 -0.8440224828
1620290280.0 -0.5422073157 -0.8401613645
1625290250.0 -0.5472063359 -0.8363488294
1630290220.0 -0.5524785024 -0.8328276246
1635290190.0 -0.5578090333 -0.8295446431
1640290160.0 -0.5631061909 -0.8258420545
1645290130.0 -0.5689043114 -0.821815849
1650290100.0 -0.5739666978 -0.8179670296
1655290070.0 -0.5794914884 -0.8139596786
1660290040.0 -0.5848536328 -0.8099165949
1665290010.0 -0.5897710499 -0.8061669848
1670289980.0 -0.5948843904 -0.8030258822
1675289950.0 -0.6004714712 -0.7982101921
1680289920.0 -0.605621977 -0.7946488385
1685289890.0 -0.6113431632 -0.7906257765
1690289860.0 -0.616954878 -0.7862117347
1695289830.0 -0.6212748707 -0.781583168
1700289800.0 -0.6268985155 -0.7775594543
1705289770.0 -0.6320863034 -0.7740619374
1710289740.0 -0.6371010731 -0.7698420933
1715289710.0 -0.6421376922 -0.7649875832
1720289680.0 -0.6475216017 -0.7605743916
1725289650.0 -0.6521408748 -0.756268465
1730289620.0 -0.6570714122 -0.7520162207
1735289590.0 -0.6618900698 -0.7478022215
1740289560.0 -0.6662106435 -0.7430400447
1745289530.0 -0.6711113954 -0.7391485722
1750289500.0 -0.6762243334 -0.7341999602
1755289470.0 -0.6807779064 -0.7299393519
1760289440.0 -0.6861228838 -0.7250737928
1765289410.0 -0.690660545 -0.7208064573
1770289380.0 -0.694870101 -0.7171518214
1775289350.0 -0.6992910846 -0.7119636987
1780289320.0 -0.7045224116 -0.7069215207
1785289290.0 -0.7090535769 -0.7020989742
1790289260.0 -0.71392517 -0.6976605014
1795289230.0 -0.7184286806 -0.6923636022
1800289200.0 -0.7232911121 -0.6874071112
1805289170.0 -0.7282069504 -0.6826755591
1810289140.0 -0.7319200201 -0.6778310261
1815289110.0 -0.7360830151 -0.6733943402
1820289080.0 -0.7404941228 -0.668581918
1825289050.0 -0.7447014659 -0.66368947
1830289020.0 -0.7490290058 -0.6590840594
1835288990.0 -0.7532855602 -0.6544579499
1840288960.0 -0.7571554993 -0.6493325916
1845288930.0 -0.7619322339 -0.6444434753
1850288900.0 -0.7658245705 -0.6389587863
1855288870.0 -0.7704634851 -0.6337020156
1860288840.0 -0.7746731387 -0.6287653872
1865288810.0 -0.778848931 -0.6235597459
1870288780.0 -0.7825644811 -0.617933738
1875288750.0 -0.7865220162 -0.6130169998
1880288720.0 -0.7907241053 -0.6073428755
1885288690.0 -0.7952234686 -0.6021028896
1890288660.0 -0.7987257972 -0.5970847715
1895288630.0 -0.8028871692 -0.5918321467
1900288600.0 -0.8058640294 -0.5863448341
1905288570.0 -0.8099975767 -0.5812810767
1910288540.0 -0.8135366596 -0.5756562071
1915288510.0 -0.8174047603 -0.5702446789
1920288480.0 -0.8215433479 -0.5641751252
1925288450.0 -0.824036356 -0.5587276522
1930288420.0 -0.8283953355 -0.5534136071
1935288390.0 -0.8316938227 -0.5476318983
1940288360.0 -0.8358334573 -0.5419365366
1945288330.0 -0.8394239974 -0.5364166035
1950288300.0 -0.8428724068 -0.5309631839
1955288270.0 -0.8467081803 -0.5249847336
1960288240.0 -0.8496464343 -0.5197165699
1965288210.0 -0.8531275631 -0.512967482
1970288180.0 -0.8562101313 -0.5075662756
1975288150.0 -0.8597860806 -0.5022377291
1980288120.0 -0.8627093641 -0.4969190355
1985288090.0 -0.8659566026 -0.4916948547
1990288060.0 -0.8689502497 -0.485779584
1995288030.0 -0.8722185951 -0.4802010944
2000288000.0 -0.8753158645 -0.4747388895
2005287970.0 -0.8777919181 -0.4689563009
2010287940.0 -0.8813585348 -0.4627394287
2015287910.0 -0.8839753684 -0.4564738419
2020287880.0 -0.8872663213 -0.4512182558
2025287850.0 -0.8901327575 -0.4447882432
2030287820.0 -0.8933109861 -0.4390778618
2035287790.0 -0.8958644916 -0.432702695
2040287760.0 -0.8989895967 -0.4270703116
2045287730.0 -0.9011979168 -0.4211072668
2050287700.0 -0.9038226967 -0.4149499469
2055287670.0 -0.9067412845 -0.4087453144
2060287640.0 -0.9096050486 -0.4030917652
2065287610.0 -0.9121052606 -0.396824397
2070287580.0 -0.9153759115 -0.3908299078
2075287550.0 -0.917936908 -0.3851098181
2080287520.0 -0.9194230866 -0.3785087452
2085287490.0 -0.9224995013 -0.3726139985
2090287460.0 -0.9242890685 -0.3667998431
2095287430.0 -0.9272558026 -0.3603015587
2100287400.0 -0.9289589344 -0.3546297342
2105287370.0 -0.9317872669 -0.3478009496
2110287340.0 -0.9334166293 -0.3418199209
2115287310.0 -0.9361087276 -0.3351928145
2120287280.0 -0.9383796454 -0.3290247955
2125287250.0 -0.9405317959 -0.3231387987
2130287220.0 -0.9423987863 -0.316375625
2135287190.0 -0.943978772 -0.3100461749
2140287160.0 -0.9465779721 -0.3032794495
2145287130.0 -0.9480454989 -0.2974300782
2150287100.0 -0.949935013 -0.2914452348
2155287070.0 -0.9518512509 -0.2846013296
2160287040.0 -0.9537997674 -0.2791169157
2165287010.0 -0.9556169202 -0.2724125163
2170286980.0 -0.9570291107 -0.2660226091
2175286950.0 -0.9591670714 -0.2602648887
2180286920.0 -0.9601715013 -0.253827172
2185286890.0 -0.9618928798 -0.2473379536
2190286860.0 -0.9637806715 -0.241631867
2195286830.0 -0.9644868914 -0.2353288633
2200286800.0 -0.9666721139 -0.2289847575
2205286770.0 -0.9681511556 -0.2224315725
2210286740.0 -0.9696860623 -0.2160173838
2215286710.0 -0.9709171172 -0.2097388078
2220286680.0 -0.9719525465 -0.2034411458
2225286650.0 -0.9738516586 -0.1966802698
2230286620.0 -0.975064116 -0.1902524078
2235286590.0 -0.9757968557 -0.1833361528
2240286560.0 -0.9770466309 -0.1768551261
2245286530.0 -0.978081016 -0.1703367147
2250286500.0 -0.9797204658 -0.1639873687
2255286470.0 -0.9802901359 -0.1572068547
2260286440.0 -0.9811561746 -0.1504151202
2265286410.0 -0.982444861 -0.1439092942
2270286380.0 -0.9834818262 -0.1370825419
2275286350.0 -0.983808395 -0.1306544506
2280286320.0 -0.9850178649 -0.1236956778
2285286290.0 -0.9852536026 -0.117203536
2290286260.0 -0.986305584 -0.1107390741
2295286230.0 -0.9875716667 -0.104543616
2300286200.0 -0.9880277506 -0.0975721168
2305286170.0 -0.9876579746 -0.091144734
2310286140.0 -0.9886835239 -0.0847802261
2315286110.0 -0.9895208593 -0.0778718785
2320286080.0 -0.9895530051 -0.0712069698
2325286050.0 -0.9901888029 -0.0646233525
2330286020.0 -0.9903894701 -0.0584067017
2335285990.0 -0.9903026364 -0.0518248547
2340285960.0 -0.9913710129 -0.045083799
2345285930.0 -0.9913012227 -0.0389933909
2350285900.0 -0.9916538566 -0.0321779317
2355285870.0 -0.9915812088 -0.025528892
2360285840.0 -0.9916932267 -0.0185760946
2365285810.0 -0.9918838594 -0.0121388667
2370285780.0 -0.9923503953 -0.0056247814
2375285750.0 -0.9917568867 0.0003839664
2380285720.0 -0.9919996206 0.0075949901
2385285690.0 -0.9920733977 0.0140325151
2390285660.0 -0.9916001358 0.0197307231
2395285630.0 -0.9912312373 0.0267226551
2400285600.0 -0.9913880849 0.0330182405
2405285570.0 -0.9911657562 0.0393946954
2410285540.0 -0.9901679661 0.0459604537
2415285510.0 -0.9900667174 0.0521544202
2420285480.0 -0.990004701 0.0585001215
2425285450.0 -0.9892837982 0.0656786431
2430285420.0 -0.9886260397 0.0717374028
2435285390.0 -0.9883859896 0.0782641283
2440285360.0 -0.9874314632 0.0846368147
2445285330.0 -0.9868118336 0.091443563
2450285300.0 -0.9866028164 0.0977244627
2455285270.0 -0.9855667739 0.104541632
2460285240.0 -0.9846640231 0.1111282775
2465285210.0 -0.9842984582 0.1179630809
2470285180.0 -0.9828906444 0.1249604619
2475285150.0 -0.9815898939 0.1309670668
2480285120.0 -0.9817933358 0.137681167
2485285090.0 -0.9806240703 0.143861923
2490285060.0 -0.9791280351 0.1504997938
2495285030.0 -0.9789547127 0.1571419304
2500285000.0 -0.9772753746 0.1639068832
