!Created with skrf (http://scikit-rf.org).
# Hz S RI R 50.0 
!freq ReS11 ImS11
45000000.0 -0.0814056396484375 -0.0931549072265625
49995500.0 -0.10203170776367188 -0.08922958374023438
54991000.0 -0.12265396118164062 -0.08104324340820312
59986500.0 -0.14107513427734375 -0.0787811279296875
64982000.0 -0.1598663330078125 -0.06967926025390625
69977500.0 -0.17847442626953125 -0.05527496337890625
74973000.0 -0.19589996337890625 -0.03774261474609375
79968500.0 -0.2115936279296875 -0.0167694091796875
84964000.0 -0.2248382568359375 0.007110595703125
89959500.0 -0.2355499267578125 0.03404998779296875
94955000.0 -0.24250030517578125 0.063812255859375
99950500.0 -0.2459259033203125 0.095855712890625
104946000.0 -0.24448394775390625 0.12957763671875
109941500.0 -0.23819732666015625 0.16416168212890625
114937000.0 -0.2267303466796875 0.19948577880859375
119932500.0 -0.21001434326171875 0.23404693603515625
124928000.0 -0.188446044921875 0.26812744140625
129923500.0 -0.161346435546875 0.299346923828125
134919000.0 -0.1291351318359375 0.328155517578125
139914500.0 -0.091827392578125 0.353302001953125
144910000.0 -0.0506439208984375 0.3738555908203125
149905500.0 -0.005889892578125 0.3895721435546875
154901000.0 0.0418548583984375 0.3994293212890625
159896500.0 0.0913848876953125 0.4028472900390625
164892000.0 0.1421051025390625 0.400482177734375
169887500.0 0.1930389404296875 0.39154052734375
174883000.0 0.2438507080078125 0.3758544921875
179878500.0 0.2933349609375 0.3536376953125
184874000.0 0.34027099609375 0.32501220703125
189869500.0 0.3849639892578125 0.29010009765625
194865000.0 0.426055908203125 0.249847412109375
199860500.0 0.4624786376953125 0.2040252685546875
204856000.0 0.4938201904296875 0.1525726318359375
209851500.0 0.519683837890625 0.097320556640625
214847000.0 0.5394287109375 0.037841796875
219842500.0 0.552490234375 -0.02520751953125
224838000.0 0.55804443359375 -0.090301513671875
229833500.0 0.5560302734375 -0.15753173828125
234829000.0 0.5458984375 -0.225128173828125
239824500.0 0.5269775390625 -0.292877197265625
244820000.0 0.499786376953125 -0.35931396484375
249815500.0 0.4634246826171875 -0.42333984375
254811000.0 0.4431304931640625 -0.47015380859375
259806500.0 0.39404296875 -0.528106689453125
264802000.0 0.337158203125 -0.580902099609375
269797500.0 0.272491455078125 -0.62701416015625
274793000.0 0.2020263671875 -0.665679931640625
279788500.0 0.126129150390625 -0.695343017578125
284784000.0 0.04595947265625 -0.71612548828125
289779500.0 -0.03729248046875 -0.72698974609375
294775000.0 -0.1219482421875 -0.72802734375
299770500.0 -0.2069091796875 -0.71881103515625
304766000.0 -0.29119873046875 -0.699859619140625
309761500.0 -0.373077392578125 -0.670623779296875
314757000.0 -0.45159912109375 -0.63177490234375
319752500.0 -0.525726318359375 -0.583526611328125
324748000.0 -0.594879150390625 -0.52703857421875
329743500.0 -0.65802001953125 -0.46282958984375
334739000.0 -0.7144775390625 -0.391021728515625
339734500.0 -0.763214111328125 -0.312469482421875
344730000.0 -0.803680419921875 -0.228271484375
349725500.0 -0.835205078125 -0.1390380859375
354721000.0 -0.857421875 -0.045196533203125
359716500.0 -0.868927001953125 0.052093505859375
364712000.0 -0.869476318359375 0.151885986328125
369707500.0 -0.858856201171875 0.25341796875
374703000.0 -0.83575439453125 0.355133056640625
379698500.0 -0.80029296875 0.45556640625
384694000.0 -0.752044677734375 0.55303955078125
389689500.0 -0.691375732421875 0.6456298828125
394685000.0 -0.618438720703125 0.7314453125
399680500.0 -0.53399658203125 0.808837890625
404676000.0 -0.43939208984375 0.876434326171875
409671500.0 -0.336151123046875 0.93292236328125
414667000.0 -0.22589111328125 0.97418212890625
419662500.0 -0.10992431640625 1.00225830078125
424658000.0 0.00933837890625 1.01556396484375
429653500.0 0.13067626953125 1.01348876953125
434649000.0 0.25067138671875 0.994873046875
439644500.0 0.365264892578125 0.962005615234375
444640000.0 0.47491455078125 0.916900634765625
449635500.0 0.577423095703125 0.860870361328125
454631000.0 0.674560546875 0.79486083984375
459626500.0 0.7637939453125 0.7171630859375
464622000.0 0.843597412109375 0.6300048828125
469617500.0 0.912567138671875 0.5350341796875
474613000.0 0.972137451171875 0.433502197265625
479608500.0 1.02056884765625 0.32611083984375
484604000.0 1.05810546875 0.21380615234375
489599500.0 1.08453369140625 0.09759521484375
494595000.0 1.09906005859375 -0.02215576171875
499590500.0 1.1014404296875 -0.14447021484375
504586000.0 1.09088134765625 -0.2684326171875
509581500.0 1.0673828125 -0.3929443359375
514577000.0 1.0289306640625 -0.51654052734375
519572500.0 0.97576904296875 -0.6383056640625
524568000.0 0.906982421875 -0.755645751953125
529563500.0 0.82275390625 -0.86651611328125
534559000.0 0.72332763671875 -0.9678955078125
539554500.0 0.60992431640625 -1.05767822265625
544550000.0 0.48443603515625 -1.13232421875
549545500.0 0.3489990234375 -1.19085693359375
554541000.0 0.2060546875 -1.23175048828125
559536500.0 0.05914306640625 -1.25482177734375
564532000.0 -0.08953857421875 -1.25927734375
569527500.0 -0.23870849609375 -1.24517822265625
574523000.0 -0.38482666015625 -1.212158203125
579518500.0 -0.5250244140625 -1.1619873046875
584514000.0 -0.6575927734375 -1.09490966796875
589509500.0 -0.78033447265625 -1.01287841796875
594505000.0 -0.89154052734375 -0.917877197265625
599500500.0 -0.99005126953125 -0.81121826171875
604496000.0 -1.07550048828125 -0.69537353515625
609491500.0 -1.1473388671875 -0.57232666015625
614487000.0 -1.205078125 -0.4434814453125
619482500.0 -1.24932861328125 -0.31024169921875
624478000.0 -1.27972412109375 -0.1737060546875
629473500.0 -1.29669189453125 -0.0352783203125
634469000.0 -1.300048828125 0.1044921875
639464500.0 -1.2894287109375 0.24493408203125
644460000.0 -1.26531982421875 0.38507080078125
649455500.0 -1.22747802734375 0.5242919921875
654451000.0 -1.1746826171875 0.661376953125
659446500.0 -1.10723876953125 0.79510498046875
664442000.0 -1.02423095703125 0.92437744140625
669437500.0 -0.92559814453125 1.0465087890625
674433000.0 -0.8099365234375 1.16058349609375
679428500.0 -0.67919921875 1.26226806640625
684424000.0 -0.53289794921875 1.34967041015625
689419500.0 -0.37298583984375 1.4200439453125
694415000.0 -0.20166015625 1.46905517578125
699410500.0 -0.02227783203125 1.49652099609375
704406000.0 0.16162109375 1.4990234375
709401500.0 0.3455810546875 1.476318359375
714397000.0 0.52593994140625 1.428466796875
719392500.0 0.69818115234375 1.35601806640625
724388000.0 0.85821533203125 1.26190185546875
729383500.0 1.003173828125 1.14801025390625
734379000.0 1.1297607421875 1.01617431640625
739374500.0 1.23699951171875 0.87255859375
744370000.0 1.32421875 0.719482421875
749365500.0 1.39129638671875 0.55938720703125
754361000.0 1.43939208984375 0.3968505859375
759356500.0 1.46771240234375 0.23223876953125
764352000.0 1.47882080078125 0.06878662109375
769347500.0 1.47265625 -0.092529296875
774343000.0 1.45098876953125 -0.250244140625
779338500.0 1.41387939453125 -0.40447998046875
784334000.0 1.36346435546875 -0.5526123046875
789329500.0 1.299072265625 -0.6951904296875
794325000.0 1.22186279296875 -0.8319091796875
799320500.0 1.13165283203125 -0.961181640625
804316000.0 1.028076171875 -1.0826416015625
809311500.0 0.9117431640625 -1.19482421875
814307000.0 0.78277587890625 -1.2962646484375
819302500.0 0.6419677734375 -1.3858642578125
824298000.0 0.48846435546875 -1.461181640625
829293500.0 0.32574462890625 -1.52093505859375
834289000.0 0.15179443359375 -1.5616455078125
839284500.0 -0.02783203125 -1.5816650390625
844280000.0 -0.1453857421875 -1.60894775390625
849275500.0 -0.3343505859375 -1.592529296875
854271000.0 -0.52197265625 -1.55157470703125
859266500.0 -0.7044677734375 -1.48614501953125
864262000.0 -0.87799072265625 -1.3975830078125
869257500.0 -1.0380859375 -1.28631591796875
874253000.0 -1.1826171875 -1.15618896484375
879248500.0 -1.308837890625 -1.0093994140625
884244000.0 -1.4146728515625 -0.84991455078125
889239500.0 -1.499755859375 -0.68017578125
894235000.0 -1.564208984375 -0.504150390625
899230500.0 -1.60687255859375 -0.32366943359375
904226000.0 -1.62896728515625 -0.1412353515625
909221500.0 -1.63037109375 0.0408935546875
914217000.0 -1.61187744140625 0.2208251953125
919212500.0 -1.57421875 0.39501953125
924208000.0 -1.51873779296875 0.56243896484375
929203500.0 -1.44830322265625 0.721923828125
934199000.0 -1.3631591796875 0.8719482421875
939194500.0 -1.26434326171875 1.01336669921875
944190000.0 -1.15234375 1.14422607421875
949185500.0 -1.02880859375 1.2647705078125
954181000.0 -0.892333984375 1.37420654296875
959176500.0 -0.74468994140625 1.47113037109375
964172000.0 -0.58514404296875 1.55413818359375
969167500.0 -0.41448974609375 1.62176513671875
974163000.0 -0.23394775390625 1.6710205078125
979158500.0 -0.04547119140625 1.70123291015625
984154000.0 0.14910888671875 1.70965576171875
989149500.0 0.34747314453125 1.6943359375
994145000.0 0.5460205078125 1.65411376953125
999140500.0 0.74053955078125 1.58856201171875
1004136000.0 0.92742919921875 1.49749755859375
1009131500.0 1.10321044921875 1.38189697265625
1014127000.0 1.2635498046875 1.24383544921875
1019122500.0 1.40460205078125 1.085205078125
1024118000.0 1.5225830078125 0.9105224609375
1029113500.0 1.6163330078125 0.72314453125
1034109000.0 1.685302734375 0.5263671875
1039104500.0 1.72894287109375 0.324951171875
1044100000.0 1.74749755859375 0.122314453125
1049095500.0 1.741455078125 -0.07781982421875
1054091000.0 1.713134765625 -0.27252197265625
1059086500.0 1.66424560546875 -0.460693359375
1064082000.0 1.5958251953125 -0.638916015625
1069077500.0 1.51043701171875 -0.80731201171875
1074073000.0 1.409423828125 -0.96392822265625
1079068500.0 1.29425048828125 -1.10858154296875
1084064000.0 1.16619873046875 -1.2406005859375
1089059500.0 1.02593994140625 -1.359130859375
1094055000.0 0.8748779296875 -1.4639892578125
1099050500.0 0.71319580078125 -1.552734375
1104046000.0 0.54241943359375 -1.62591552734375
1109041500.0 0.363525390625 -1.68212890625
1114037000.0 0.17791748046875 -1.7196044921875
1119032500.0 -0.01422119140625 -1.73748779296875
1124028000.0 -0.2091064453125 -1.7335205078125
1129023500.0 -0.40557861328125 -1.7080078125
1134019000.0 -0.6009521484375 -1.659423828125
1139014500.0 -0.79144287109375 -1.5869140625
1144010000.0 -0.9747314453125 -1.4901123046875
1149005500.0 -1.14599609375 -1.37078857421875
1154001000.0 -1.30218505859375 -1.229736328125
1158996500.0 -1.44036865234375 -1.0689697265625
1163992000.0 -1.55682373046875 -0.891357421875
1168987500.0 -1.64984130859375 -0.70013427734375
1173983000.0 -1.71795654296875 -0.49871826171875
1178978500.0 -1.75860595703125 -0.29205322265625
1183974000.0 -1.77337646484375 -0.083740234375
1188969500.0 -1.76220703125 0.12286376953125
1193965000.0 -1.72607421875 0.32354736328125
1198960500.0 -1.66717529296875 0.515625
1203956000.0 -1.5877685546875 0.69720458984375
1208951500.0 -1.4891357421875 0.8662109375
1213947000.0 -1.37457275390625 1.01959228515625
1218942500.0 -1.24530029296875 1.158203125
1223938000.0 -1.10418701171875 1.2801513671875
1228933500.0 -0.95355224609375 1.385498046875
1233929000.0 -0.79412841796875 1.4735107421875
1238924500.0 -0.62841796875 1.5439453125
1243920000.0 -0.4578857421875 1.5972900390625
1248915500.0 -0.283935546875 1.6337890625
1253911000.0 -0.10760498046875 1.65203857421875
1258906500.0 0.06951904296875 1.653076171875
1263902000.0 0.24639892578125 1.6368408203125
1268897500.0 0.42120361328125 1.60235595703125
1273893000.0 0.59051513671875 1.5491943359375
1278888500.0 0.755859375 1.478759765625
1283884000.0 0.91326904296875 1.39111328125
1288879500.0 1.06195068359375 1.285888671875
1293875000.0 1.19927978515625 1.1649169921875
1298870500.0 1.3236083984375 1.0281982421875
1303866000.0 1.432373046875 0.87738037109375
1308861500.0 1.52435302734375 0.71478271484375
1313857000.0 1.59765625 0.54150390625
1318852500.0 1.65155029296875 0.360107421875
1323848000.0 1.6842041015625 0.17266845703125
1328843500.0 1.69561767578125 -0.01751708984375
1333839000.0 1.68475341796875 -0.20867919921875
1338834500.0 1.652587890625 -0.3980712890625
1343830000.0 1.59857177734375 -0.58221435546875
1348825500.0 1.52392578125 -0.76031494140625
1353821000.0 1.4287109375 -0.9290771484375
1358816500.0 1.31475830078125 -1.0860595703125
1363812000.0 1.182861328125 -1.22833251953125
1368807500.0 1.0352783203125 -1.355224609375
1373803000.0 0.873779296875 -1.4635009765625
1378798500.0 0.7003173828125 -1.55181884765625
1383794000.0 0.51812744140625 -1.6197509765625
1388789500.0 0.32958984375 -1.66485595703125
1393785000.0 0.137939453125 -1.68768310546875
1398780500.0 -0.05474853515625 -1.68853759765625
1403776000.0 -0.24462890625 -1.66522216796875
1408771500.0 -0.42950439453125 -1.621337890625
1413767000.0 -0.6065673828125 -1.55682373046875
1418762500.0 -0.7734375 -1.4730224609375
1423758000.0 -0.92822265625 -1.3719482421875
1428753500.0 -1.06903076171875 -1.255615234375
1433749000.0 -1.196044921875 -1.1260986328125
1438744500.0 -1.3062744140625 -0.98529052734375
1443740000.0 -1.40032958984375 -0.83477783203125
1448735500.0 -1.47821044921875 -0.67706298828125
1453731000.0 -1.5384521484375 -0.5126953125
1458726500.0 -1.58197021484375 -0.3441162109375
1463722000.0 -1.6085205078125 -0.17254638671875
1468717500.0 -1.6173095703125 0.0003662109375
1473713000.0 -1.60943603515625 0.1741943359375
1478708500.0 -1.5838623046875 0.3465576171875
1483704000.0 -1.54095458984375 0.5172119140625
1488699500.0 -1.48016357421875 0.6834716796875
1493695000.0 -1.40167236328125 0.84454345703125
1498690500.0 -1.30548095703125 0.9981689453125
1503686000.0 -1.1912841796875 1.1422119140625
1508681500.0 -1.05950927734375 1.27410888671875
1513677000.0 -0.91180419921875 1.3917236328125
1518672500.0 -0.748779296875 1.49310302734375
1523668000.0 -0.57275390625 1.574462890625
1528663500.0 -0.38665771484375 1.63323974609375
1533659000.0 -0.1925048828125 1.6690673828125
1538654500.0 0.0052490234375 1.679931640625
1543650000.0 0.2027587890625 1.6650390625
1548645500.0 0.39556884765625 1.62457275390625
1553641000.0 0.5810546875 1.56036376953125
1558636500.0 0.75469970703125 1.47357177734375
1563632000.0 0.91400146484375 1.367431640625
1568627500.0 1.0562744140625 1.2435302734375
1573623000.0 1.18096923828125 1.10662841796875
1578618500.0 1.28619384765625 0.9588623046875
1583614000.0 1.372314453125 0.80328369140625
1588609500.0 1.43902587890625 0.64251708984375
1593605000.0 1.48785400390625 0.47869873046875
1598600500.0 1.51837158203125 0.3140869140625
1603596000.0 1.5325927734375 0.14990234375
1608591500.0 1.53033447265625 -0.01287841796875
1613587000.0 1.51312255859375 -0.1719970703125
1618582500.0 1.48065185546875 -0.327392578125
1623578000.0 1.4344482421875 -0.47821044921875
1628573500.0 1.37457275390625 -0.62353515625
1633569000.0 1.30126953125 -0.76300048828125
1638564500.0 1.214599609375 -0.8955078125
1643560000.0 1.114501953125 -1.019775390625
1648555500.0 1.0029296875 -1.134765625
1653551000.0 0.8779296875 -1.23944091796875
1658546500.0 0.74114990234375 -1.33087158203125
1663542000.0 0.59320068359375 -1.40850830078125
1668537500.0 0.43548583984375 -1.46917724609375
1673533000.0 0.27008056640625 -1.5135498046875
1678528500.0 0.09857177734375 -1.537353515625
1683524000.0 -0.07623291015625 -1.5401611328125
1688519500.0 -0.2515869140625 -1.5216064453125
1693515000.0 -0.42291259765625 -1.48126220703125
1698510500.0 -0.58856201171875 -1.41937255859375
1703506000.0 -0.7431640625 -1.3389892578125
1708501500.0 -0.884765625 -1.2412109375
1713497000.0 -1.01275634765625 -1.1273193359375
1718492500.0 -1.12481689453125 -1.0009765625
1723488000.0 -1.2196044921875 -0.8658447265625
1728483500.0 -1.29693603515625 -0.72314453125
1733479000.0 -1.35736083984375 -0.5755615234375
1738474500.0 -1.4012451171875 -0.42559814453125
1743470000.0 -1.42974853515625 -0.27490234375
1748465500.0 -1.4429931640625 -0.1248779296875
1753461000.0 -1.44244384765625 0.0242919921875
1758456500.0 -1.42822265625 0.17138671875
1763452000.0 -1.401611328125 0.31512451171875
1768447500.0 -1.3624267578125 0.4560546875
1773443000.0 -1.31109619140625 0.59429931640625
1778438500.0 -1.24725341796875 0.727294921875
1783434000.0 -1.17022705078125 0.85565185546875
1788429500.0 -1.08013916015625 0.9783935546875
1793425000.0 -0.976806640625 1.09320068359375
1798420500.0 -0.8604736328125 1.19976806640625
1803416000.0 -0.73046875 1.29559326171875
1808411500.0 -0.587646484375 1.37738037109375
1813407000.0 -0.43280029296875 1.44403076171875
1818402500.0 -0.26806640625 1.49298095703125
1823398000.0 -0.0958251953125 1.52166748046875
1828393500.0 0.08062744140625 1.528076171875
1833389000.0 0.2584228515625 1.5115966796875
1838384500.0 0.432861328125 1.471435546875
1843380000.0 0.60101318359375 1.4093017578125
1848375500.0 0.75860595703125 1.32574462890625
1853371000.0 0.90289306640625 1.22406005859375
1858366500.0 1.03045654296875 1.10595703125
1863362000.0 1.1409912109375 0.97589111328125
1868357500.0 1.23345947265625 0.8358154296875
1873353000.0 1.30731201171875 0.690185546875
1878348500.0 1.3634033203125 0.5404052734375
1883344000.0 1.40277099609375 0.38873291015625
1888339500.0 1.42608642578125 0.2371826171875
1893335000.0 1.4344482421875 0.0875244140625
1898330500.0 1.4290771484375 -0.06048583984375
1903326000.0 1.4105224609375 -0.205322265625
1908321500.0 1.3797607421875 -0.3472900390625
1913317000.0 1.33697509765625 -0.484619140625
1918312500.0 1.28228759765625 -0.618408203125
1923308000.0 1.2156982421875 -0.7476806640625
1928303500.0 1.13653564453125 -0.87115478515625
1933299000.0 1.0460205078125 -0.98931884765625
1938294500.0 0.94219970703125 -1.09869384765625
1943290000.0 0.8262939453125 -1.20025634765625
1948285500.0 0.69744873046875 -1.29144287109375
1953281000.0 0.5572509765625 -1.369140625
1958276500.0 0.40557861328125 -1.43243408203125
1963272000.0 0.24530029296875 -1.4779052734375
1968267500.0 0.07733154296875 -1.5048828125
1973263000.0 -0.0948486328125 -1.51068115234375
1978258500.0 -0.26861572265625 -1.4949951171875
1983254000.0 -0.43963623046875 -1.45721435546875
1988249500.0 -0.6048583984375 -1.3974609375
1993245000.0 -0.7611083984375 -1.31719970703125
1998240500.0 -0.90533447265625 -1.2181396484375
2003236000.0 -1.0340576171875 -1.103515625
2008231500.0 -1.1474609375 -0.9757080078125
2013227000.0 -1.243408203125 -0.8367919921875
2018222500.0 -1.3206787109375 -0.6907958984375
2023218000.0 -1.38079833984375 -0.53875732421875
2028213500.0 -1.42376708984375 -0.38421630859375
2033209000.0 -1.4498291015625 -0.22833251953125
2038204500.0 -1.4598388671875 -0.07281494140625
2043200000.0 -1.45440673828125 0.080810546875
2048195500.0 -1.43414306640625 0.2330322265625
2053191000.0 -1.3994140625 0.38079833984375
2058186500.0 -1.35107421875 0.52496337890625
2063182000.0 -1.28924560546875 0.6629638671875
2068177500.0 -1.2139892578125 0.79559326171875
2073173000.0 -1.125244140625 0.92095947265625
2078168500.0 -1.0240478515625 1.0377197265625
2083164000.0 -0.9102783203125 1.14373779296875
2088159500.0 -0.7847900390625 1.23974609375
2093155000.0 -0.64788818359375 1.32135009765625
2098150500.0 -0.50164794921875 1.38885498046875
2103146000.0 -0.3468017578125 1.43963623046875
2108141500.0 -0.18603515625 1.47216796875
2113137000.0 -0.0213623046875 1.4866943359375
2118132500.0 0.14422607421875 1.480712890625
2123128000.0 0.3084716796875 1.45550537109375
2128123500.0 0.467529296875 1.410888671875
2133119000.0 0.62042236328125 1.3480224609375
2138114500.0 0.7637939453125 1.268310546875
2143110000.0 0.89520263671875 1.173583984375
2148105500.0 1.01416015625 1.06536865234375
2153101000.0 1.119140625 0.94635009765625
2158096500.0 1.2098388671875 0.81829833984375
2163092000.0 1.28521728515625 0.68280029296875
2168087500.0 1.34613037109375 0.5426025390625
2173083000.0 1.39306640625 0.39727783203125
2178078500.0 1.42462158203125 0.25103759765625
2183074000.0 1.4420166015625 0.1021728515625
2188069500.0 1.44586181640625 -0.0469970703125
2193065000.0 1.43560791015625 -0.1961669921875
