!Created with skrf (http://scikit-rf.org).
# Hz S RI R 50.0 
!freq ReS11 ImS11
45000000.0 -0.003765583038330078 -0.00092315673828125
49995500.0 -0.004096508026123047 -0.0004475116729736328
54991000.0 -0.0043182373046875 3.2901763916015625e-05
59986500.0 -0.004613399505615234 0.0003304481506347656
64982000.0 -0.004700899124145508 0.0007467269897460938
69977500.0 -0.004868030548095703 0.0013377666473388672
74973000.0 -0.004920482635498047 0.0018656253814697266
79968500.0 -0.00483393669128418 0.002492189407348633
84964000.0 -0.004609346389770508 0.003248929977416992
89959500.0 -0.004408597946166992 0.0036993026733398438
94955000.0 -0.004160881042480469 0.004395723342895508
99950500.0 -0.003790140151977539 0.00490880012512207
104946000.0 -0.003183126449584961 0.005380392074584961
109941500.0 -0.002621173858642578 0.005990743637084961
114937000.0 -0.001986980438232422 0.006403446197509766
119932500.0 -0.0013713836669921875 0.006671905517578125
124928000.0 -0.0005660057067871094 0.006871938705444336
129923500.0 0.00021958351135253906 0.0070569515228271484
134919000.0 0.001041412353515625 0.007111549377441406
139914500.0 0.0019271373748779297 0.007111549377441406
144910000.0 0.002748727798461914 0.006945610046386719
149905500.0 0.0034711360931396484 0.006798744201660156
154901000.0 0.004411458969116211 0.006438255310058594
159896500.0 0.005106449127197266 0.006028652191162109
164892000.0 0.005781412124633789 0.005395412445068359
169887500.0 0.006562471389770508 0.0048732757568359375
174883000.0 0.007138967514038086 0.004206418991088867
179878500.0 0.00764918327331543 0.0034761428833007812
184874000.0 0.008049964904785156 0.0026121139526367188
189869500.0 0.008341312408447266 0.0017228126525878906
194865000.0 0.008607864379882812 0.0008449554443359375
199860500.0 0.008785724639892578 -0.00011110305786132812
204856000.0 0.008827686309814453 -0.0010495185852050781
209851500.0 0.008813858032226562 -0.002102375030517578
214847000.0 0.008627891540527344 -0.0031299591064453125
219842500.0 0.008286476135253906 -0.004019737243652344
224838000.0 0.007930278778076172 -0.004919528961181641
229833500.0 0.00741887092590332 -0.005932331085205078
234829000.0 0.0068149566650390625 -0.00672602653503418
239824500.0 0.006083965301513672 -0.007496356964111328
244820000.0 0.005391120910644531 -0.008122444152832031
249815500.0 0.004437923431396484 -0.008781909942626953
254811000.0 0.003920078277587891 -0.009320259094238281
259806500.0 0.0029664039611816406 -0.009752273559570312
264802000.0 0.0018677711486816406 -0.010175704956054688
269797500.0 0.0008878707885742188 -0.010322093963623047
274793000.0 -0.00015783309936523438 -0.01059865951538086
279788500.0 -0.001354217529296875 -0.01056814193725586
284784000.0 -0.0024614334106445312 -0.01055002212524414
289779500.0 -0.0036182403564453125 -0.010324478149414062
294775000.0 -0.004683971405029297 -0.009808063507080078
299770500.0 -0.005703449249267578 -0.009399890899658203
304766000.0 -0.006840229034423828 -0.008989334106445312
309761500.0 -0.007839202880859375 -0.008171558380126953
314757000.0 -0.00866556167602539 -0.0073642730712890625
319752500.0 -0.009506702423095703 -0.006367683410644531
324748000.0 -0.010167598724365234 -0.0054607391357421875
329743500.0 -0.010900497436523438 -0.004415035247802734
334739000.0 -0.011362075805664062 -0.003265380859375
339734500.0 -0.011676311492919922 -0.0019106864929199219
344730000.0 -0.011933326721191406 -0.0007357597351074219
349725500.0 -0.012050628662109375 0.00043010711669921875
354721000.0 -0.011894702911376953 0.0017886161804199219
359716500.0 -0.011749744415283203 0.003124713897705078
364712000.0 -0.011444568634033203 0.00433349609375
369707500.0 -0.010998725891113281 0.005634307861328125
374703000.0 -0.010393142700195312 0.0067539215087890625
379698500.0 -0.009600162506103516 0.007881641387939453
384694000.0 -0.00887918472290039 0.008947372436523438
389689500.0 -0.007843971252441406 0.009911060333251953
394685000.0 -0.006793498992919922 0.010693550109863281
399680500.0 -0.005638599395751953 0.011505603790283203
404676000.0 -0.004378795623779297 0.012002944946289062
409671500.0 -0.0031337738037109375 0.012603759765625
414667000.0 -0.0017299652099609375 0.012909412384033203
419662500.0 -0.00042724609375 0.013037681579589844
424658000.0 0.0010046958923339844 0.013072967529296875
429653500.0 0.0023713111877441406 0.013016700744628906
434649000.0 0.0037889480590820312 0.012645721435546875
439644500.0 0.005115509033203125 0.012186527252197266
444640000.0 0.006361484527587891 0.011601924896240234
449635500.0 0.007555484771728516 0.01102447509765625
454631000.0 0.008806228637695312 0.010136127471923828
459626500.0 0.009940624237060547 0.009235858917236328
464622000.0 0.010738849639892578 0.008168697357177734
469617500.0 0.011684417724609375 0.007025718688964844
474613000.0 0.01236581802368164 0.005751609802246094
479608500.0 0.012864112854003906 0.004368305206298828
484604000.0 0.013436317443847656 0.002933502197265625
489599500.0 0.013648033142089844 0.0016851425170898438
494595000.0 0.013822555541992188 0.00021886825561523438
499590500.0 0.013819217681884766 -0.0012354850769042969
504586000.0 0.013596057891845703 -0.002651214599609375
509581500.0 0.01316070556640625 -0.004058837890625
514577000.0 0.012735366821289062 -0.005522251129150391
519572500.0 0.012171268463134766 -0.006715297698974609
524568000.0 0.011411190032958984 -0.007999897003173828
529563500.0 0.010595321655273438 -0.009123802185058594
534559000.0 0.009623050689697266 -0.010142803192138672
539554500.0 0.008564472198486328 -0.011112213134765625
544550000.0 0.007430553436279297 -0.011934280395507812
549545500.0 0.006275653839111328 -0.012735843658447266
554541000.0 0.004921436309814453 -0.013216495513916016
559536500.0 0.0036191940307617188 -0.013817310333251953
564532000.0 0.002193927764892578 -0.014142036437988281
569527500.0 0.0006976127624511719 -0.014370441436767578
574523000.0 -0.0007252693176269531 -0.01446533203125
579518500.0 -0.002182483673095703 -0.014400959014892578
584514000.0 -0.003742694854736328 -0.014092445373535156
589509500.0 -0.005054950714111328 -0.013700008392333984
594505000.0 -0.006496429443359375 -0.013237476348876953
599500500.0 -0.00786733627319336 -0.0124359130859375
604496000.0 -0.009160041809082031 -0.011569499969482422
609491500.0 -0.010236263275146484 -0.010747909545898438
614487000.0 -0.011381149291992188 -0.009696006774902344
619482500.0 -0.01235342025756836 -0.008434772491455078
624478000.0 -0.01315927505493164 -0.007235050201416016
629473500.0 -0.013948917388916016 -0.0058231353759765625
634469000.0 -0.014380455017089844 -0.004394054412841797
639464500.0 -0.014934062957763672 -0.002925395965576172
644460000.0 -0.015095710754394531 -0.0014615058898925781
649455500.0 -0.015249252319335938 0.00011920928955078125
654451000.0 -0.015161991119384766 0.0017180442810058594
659446500.0 -0.014992713928222656 0.003219127655029297
664442000.0 -0.014619827270507812 0.004673480987548828
669437500.0 -0.014035224914550781 0.006137371063232422
674433000.0 -0.013469219207763672 0.007537841796875
679428500.0 -0.01263284683227539 0.009009838104248047
684424000.0 -0.011693000793457031 0.010220050811767578
689419500.0 -0.010579109191894531 0.01139211654663086
694415000.0 -0.009527206420898438 0.01237630844116211
699410500.0 -0.008183479309082031 0.013287544250488281
704406000.0 -0.006773471832275391 0.014159679412841797
709401500.0 -0.00539398193359375 0.01473379135131836
714397000.0 -0.0038657188415527344 0.015204906463623047
719392500.0 -0.002403736114501953 0.015589714050292969
724388000.0 -0.0007953643798828125 0.015746116638183594
729383500.0 0.0007686614990234375 0.015874862670898438
734379000.0 0.0023288726806640625 0.015689849853515625
739374500.0 0.0038886070251464844 0.015366077423095703
744370000.0 0.005397796630859375 0.015089035034179688
749365500.0 0.006939888000488281 0.014427661895751953
754361000.0 0.008311271667480469 0.013713359832763672
759356500.0 0.009657859802246094 0.012759685516357422
764352000.0 0.01088857650756836 0.01187276840209961
769347500.0 0.012028217315673828 0.010725021362304688
774343000.0 0.01300191879272461 0.009555816650390625
779338500.0 0.014025688171386719 0.008158206939697266
784334000.0 0.014680862426757812 0.006797313690185547
789329500.0 0.015352725982666016 0.005340576171875
794325000.0 0.015877723693847656 0.003887176513671875
799320500.0 0.0161895751953125 0.0022487640380859375
804316000.0 0.016348838806152344 0.0005884170532226562
809311500.0 0.016357421875 -0.00103759765625
814307000.0 0.016251564025878906 -0.002529144287109375
819302500.0 0.016023635864257812 -0.004082679748535156
824298000.0 0.015505790710449219 -0.005712032318115234
829293500.0 0.014891624450683594 -0.007183551788330078
834289000.0 0.01425313949584961 -0.008627891540527344
839284500.0 0.013331890106201172 -0.009989738464355469
844280000.0 0.012881278991699219 -0.010787487030029297
849275500.0 0.01191568374633789 -0.012113094329833984
854271000.0 0.010695934295654297 -0.013120174407958984
859266500.0 0.009473800659179688 -0.014148712158203125
864262000.0 0.007968902587890625 -0.01497030258178711
869257500.0 0.006572723388671875 -0.015814781188964844
874253000.0 0.005074501037597656 -0.016371726989746094
879248500.0 0.0036058425903320312 -0.016826629638671875
884244000.0 0.0018644332885742188 -0.017057418823242188
889239500.0 0.0003070831298828125 -0.01720905303955078
894235000.0 -0.0013561248779296875 -0.017388343811035156
899230500.0 -0.0029163360595703125 -0.01724529266357422
904226000.0 -0.004626274108886719 -0.016991615295410156
909221500.0 -0.006203651428222656 -0.016536712646484375
914217000.0 -0.007769584655761719 -0.015941619873046875
919212500.0 -0.009406566619873047 -0.015169620513916016
924208000.0 -0.010896682739257812 -0.014307022094726562
929203500.0 -0.012302875518798828 -0.01331186294555664
934199000.0 -0.01352834701538086 -0.012060165405273438
939194500.0 -0.014748096466064453 -0.010723590850830078
944190000.0 -0.0158233642578125 -0.009377479553222656
949185500.0 -0.01673412322998047 -0.007886886596679688
954181000.0 -0.017482757568359375 -0.006175994873046875
959176500.0 -0.017991065979003906 -0.0044002532958984375
964172000.0 -0.01852893829345703 -0.0027866363525390625
969167500.0 -0.018840789794921875 -0.0008792877197265625
974163000.0 -0.01886272430419922 0.0008726119995117188
979158500.0 -0.018721580505371094 0.002620697021484375
984154000.0 -0.0185089111328125 0.004542350769042969
989149500.0 -0.018100738525390625 0.0062961578369140625
994145000.0 -0.017416954040527344 0.007982254028320312
999140500.0 -0.01665019989013672 0.009781837463378906
1004136000.0 -0.01576995849609375 0.011303901672363281
1009131500.0 -0.014508724212646484 0.012888431549072266
1014127000.0 -0.013353824615478516 0.014204025268554688
1019122500.0 -0.011888504028320312 0.015604972839355469
1024118000.0 -0.01053619384765625 0.016689300537109375
1029113500.0 -0.008829116821289062 0.017778396606445312
1034109000.0 -0.007099151611328125 0.018634796142578125
1039104500.0 -0.005177497863769531 0.019453048706054688
1044100000.0 -0.0034046173095703125 0.020017623901367188
1049095500.0 -0.001560211181640625 0.020295143127441406
1054091000.0 0.00058746337890625 0.02035045623779297
1059086500.0 0.002552032470703125 0.020397186279296875
1064082000.0 0.004511833190917969 0.02008533477783203
1069077500.0 0.0064868927001953125 0.0196075439453125
1074073000.0 0.008391380310058594 0.01897144317626953
1079068500.0 0.010293960571289062 0.018115997314453125
1084064000.0 0.012038230895996094 0.017181396484375
1089059500.0 0.013766288757324219 0.01597881317138672
1094055000.0 0.015305519104003906 0.014803886413574219
1099050500.0 0.016829490661621094 0.013326644897460938
1104046000.0 0.01799488067626953 0.011609077453613281
1109041500.0 0.019082069396972656 0.009855270385742188
1114037000.0 0.019939422607421875 0.007986068725585938
1119032500.0 0.020906448364257812 0.006008148193359375
1124028000.0 0.021581649780273438 0.003924369812011719
1129023500.0 0.0218658447265625 0.0017795562744140625
1134019000.0 0.022016525268554688 -0.0002918243408203125
1139014500.0 0.022014617919921875 -0.0025415420532226562
1144010000.0 0.021770477294921875 -0.004693031311035156
1149005500.0 0.02129077911376953 -0.00682830810546875
1154001000.0 0.02064037322998047 -0.008970260620117188
1158996500.0 0.019817352294921875 -0.010899543762207031
1163992000.0 0.018625259399414062 -0.0128631591796875
1168987500.0 0.017251014709472656 -0.014698982238769531
1173983000.0 0.015921592712402344 -0.01636505126953125
1178978500.0 0.014249801635742188 -0.018036842346191406
1183974000.0 0.012408256530761719 -0.019346237182617188
1188969500.0 0.010502815246582031 -0.020493507385253906
1193965000.0 0.008549690246582031 -0.021625518798828125
1198960500.0 0.006478309631347656 -0.022403717041015625
1203956000.0 0.0042705535888671875 -0.022874832153320312
1208951500.0 0.0020608901977539062 -0.023428916931152344
1213947000.0 -0.00031948089599609375 -0.02350616455078125
1218942500.0 -0.0026521682739257812 -0.02343463897705078
1223938000.0 -0.0048351287841796875 -0.02323627471923828
1228933500.0 -0.007167816162109375 -0.022714614868164062
1233929000.0 -0.009366989135742188 -0.02201080322265625
1238924500.0 -0.011563301086425781 -0.020918846130371094
1243920000.0 -0.013644218444824219 -0.02001667022705078
1248915500.0 -0.01544952392578125 -0.018525123596191406
1253911000.0 -0.0173797607421875 -0.01708507537841797
1258906500.0 -0.018886566162109375 -0.015421867370605469
1263902000.0 -0.02047443389892578 -0.013639450073242188
1268897500.0 -0.021768569946289062 -0.011606216430664062
1273893000.0 -0.022942543029785156 -0.009474754333496094
1278888500.0 -0.02385711669921875 -0.007229804992675781
1283884000.0 -0.024595260620117188 -0.004891395568847656
1288879500.0 -0.02512073516845703 -0.0024652481079101562
1293875000.0 -0.025320053100585938 -2.193450927734375e-05
1298870500.0 -0.02531147003173828 0.002490997314453125
1303866000.0 -0.025084495544433594 0.0049686431884765625
1308861500.0 -0.024672508239746094 0.0074710845947265625
1313857000.0 -0.024003982543945312 0.00989532470703125
1318852500.0 -0.02295398712158203 0.012361526489257812
1323848000.0 -0.0217437744140625 0.014598846435546875
1328843500.0 -0.020340919494628906 0.016710281372070312
1333839000.0 -0.01853656768798828 0.018752098083496094
1338834500.0 -0.01674175262451172 0.020685195922851562
1343830000.0 -0.014666557312011719 0.02227497100830078
1348825500.0 -0.012549400329589844 0.023677825927734375
1353821000.0 -0.010222434997558594 0.024938583374023438
1358816500.0 -0.007617950439453125 0.025960922241210938
1363812000.0 -0.0049762725830078125 0.026700973510742188
1368807500.0 -0.0024394989013671875 0.027196884155273438
1373803000.0 0.00038242340087890625 0.02746868133544922
1378798500.0 0.003063201904296875 0.027339935302734375
1383794000.0 0.0057735443115234375 0.027068138122558594
1388789500.0 0.008428573608398438 0.02645587921142578
1393785000.0 0.011181831359863281 0.025554656982421875
1398780500.0 0.013593673706054688 0.024444580078125
1403776000.0 0.016046524047851562 0.02302265167236328
1408771500.0 0.018265724182128906 0.021402359008789062
1413767000.0 0.02053546905517578 0.01955890655517578
1418762500.0 0.022400856018066406 0.01754474639892578
1423758000.0 0.024140357971191406 0.015223503112792969
1428753500.0 0.025701522827148438 0.012767791748046875
1433749000.0 0.02687835693359375 0.010150909423828125
1438744500.0 0.027846336364746094 0.007540702819824219
1443740000.0 0.02853870391845703 0.00481414794921875
1448735500.0 0.028879165649414062 0.001857757568359375
1453731000.0 0.029071807861328125 -0.00103759765625
1458726500.0 0.028944969177246094 -0.003964424133300781
1463722000.0 0.028463363647460938 -0.006934165954589844
1468717500.0 0.02769947052001953 -0.009647369384765625
1473713000.0 0.026607513427734375 -0.012407302856445312
1478708500.0 0.025384902954101562 -0.015105247497558594
1483704000.0 0.023708343505859375 -0.01767730712890625
1488699500.0 0.02190113067626953 -0.019998550415039062
1493695000.0 0.019832611083984375 -0.022144317626953125
1498690500.0 0.017740249633789062 -0.02395153045654297
1503686000.0 0.015188217163085938 -0.025765419006347656
1508681500.0 0.012533187866210938 -0.027169227600097656
1513677000.0 0.009705543518066406 -0.028354644775390625
1518672500.0 0.006873130798339844 -0.02927875518798828
1523668000.0 0.0040378570556640625 -0.029863357543945312
1528663500.0 0.0010662078857421875 -0.030119895935058594
1533659000.0 -0.0018835067749023438 -0.03008747100830078
1538654500.0 -0.0049533843994140625 -0.029845237731933594
1543650000.0 -0.00797271728515625 -0.02931499481201172
1548645500.0 -0.010852813720703125 -0.02838420867919922
1553641000.0 -0.013580322265625 -0.027245521545410156
1558636500.0 -0.01627349853515625 -0.025693893432617188
1563632000.0 -0.018663406372070312 -0.02389049530029297
1568627500.0 -0.021004676818847656 -0.022045135498046875
1573623000.0 -0.023087501525878906 -0.019916534423828125
1578618500.0 -0.024954795837402344 -0.01751995086669922
1583614000.0 -0.0265655517578125 -0.014966964721679688
1588609500.0 -0.027937889099121094 -0.0122833251953125
1593605000.0 -0.02904796600341797 -0.009420394897460938
1598600500.0 -0.02987957000732422 -0.006604194641113281
1603596000.0 -0.030406951904296875 -0.003467559814453125
1608591500.0 -0.03063678741455078 -0.0005636215209960938
1613587000.0 -0.030562400817871094 0.0024728775024414062
1618582500.0 -0.030081748962402344 0.0054569244384765625
1623578000.0 -0.029516220092773438 0.008429527282714844
1628573500.0 -0.028548240661621094 0.011187553405761719
1633569000.0 -0.02723217010498047 0.013976097106933594
1638564500.0 -0.025814056396484375 0.016529083251953125
1643560000.0 -0.0241851806640625 0.01901531219482422
1648555500.0 -0.022207260131835938 0.02132892608642578
1653551000.0 -0.02002429962158203 0.02331829071044922
1658546500.0 -0.017772674560546875 0.025293350219726562
1663542000.0 -0.015237808227539062 0.02688312530517578
1668537500.0 -0.012549400329589844 0.028270721435546875
1673533000.0 -0.009761810302734375 0.02940082550048828
1678528500.0 -0.00682830810546875 0.03043365478515625
1683524000.0 -0.00379180908203125 0.030918121337890625
1688519500.0 -0.00077056884765625 0.031189918518066406
1693515000.0 0.002285003662109375 0.031236648559570312
1698510500.0 0.0054035186767578125 0.030847549438476562
1703506000.0 0.008399009704589844 0.0302581787109375
1708501500.0 0.011280059814453125 0.02930736541748047
1713497000.0 0.014147758483886719 0.02804279327392578
1718492500.0 0.01694488525390625 0.026595115661621094
1723488000.0 0.019392013549804688 0.02482128143310547
1728483500.0 0.02180767059326172 0.022788047790527344
1733479000.0 0.024045944213867188 0.02056121826171875
1738474500.0 0.02591705322265625 0.01815032958984375
1743470000.0 0.02759552001953125 0.015543937683105469
1748465500.0 0.028993606567382812 0.012714385986328125
1753461000.0 0.03017902374267578 0.009756088256835938
1758456500.0 0.031131744384765625 0.006815910339355469
1763452000.0 0.03163909912109375 0.0037078857421875
1768447500.0 0.03177833557128906 0.00060272216796875
1773443000.0 0.03172492980957031 -0.0026092529296875
1778438500.0 0.031280517578125 -0.0056705474853515625
1783434000.0 0.030584335327148438 -0.008787155151367188
1788429500.0 0.029598236083984375 -0.011693000793457031
1793425000.0 0.02833843231201172 -0.014589309692382812
1798420500.0 0.02680683135986328 -0.01736164093017578
1803416000.0 0.024942398071289062 -0.01987743377685547
1808411500.0 0.0228424072265625 -0.0222320556640625
1813407000.0 0.020519256591796875 -0.024440765380859375
1818402500.0 0.018073081970214844 -0.026275634765625
1823398000.0 0.015394210815429688 -0.02792835235595703
1828393500.0 0.012598991394042969 -0.02941608428955078
1833389000.0 0.009608268737792969 -0.030394554138183594
1838384500.0 0.00661468505859375 -0.03127479553222656
1843380000.0 0.0035343170166015625 -0.03164482116699219
