!Created with skrf (http://scikit-rf.org).
# Hz S RI R 50.0 
!freq ReS11 ImS11
45000000.0 0.0019237995147705078 -0.00431370735168457
49995500.0 0.001142740249633789 -0.0045239925384521484
54991000.0 0.0003039836883544922 -0.0047223567962646484
59986500.0 -0.0002357959747314453 -0.004507780075073242
64982000.0 -0.0009789466857910156 -0.004801273345947266
69977500.0 -0.0016579627990722656 -0.004663705825805664
74973000.0 -0.002363443374633789 -0.004364728927612305
79968500.0 -0.003019094467163086 -0.0039825439453125
84964000.0 -0.003629446029663086 -0.0035903453826904297
89959500.0 -0.0040700435638427734 -0.0029201507568359375
94955000.0 -0.004635334014892578 -0.002393007278442383
99950500.0 -0.004969120025634766 -0.001699209213256836
104946000.0 -0.005243062973022461 -0.0011029243469238281
109941500.0 -0.0053174495697021484 -0.00019097328186035156
114937000.0 -0.005333662033081055 0.0005738735198974609
119932500.0 -0.0053157806396484375 0.0013985633850097656
124928000.0 -0.005041360855102539 0.002054452896118164
129923500.0 -0.004853010177612305 0.0027773380279541016
134919000.0 -0.0044097900390625 0.0035240650177001953
139914500.0 -0.003955841064453125 0.004160165786743164
144910000.0 -0.0033762454986572266 0.0046710968017578125
149905500.0 -0.0026793479919433594 0.005200862884521484
154901000.0 -0.002068042755126953 0.00557708740234375
159896500.0 -0.0012388229370117188 0.005875825881958008
164892000.0 -0.0004909038543701172 0.006096601486206055
169887500.0 0.0003287792205810547 0.006204843521118164
174883000.0 0.0011665821075439453 0.006011247634887695
179878500.0 0.002034902572631836 0.005930423736572266
184874000.0 0.0027883052825927734 0.005702495574951172
189869500.0 0.0035552978515625 0.005374431610107422
194865000.0 0.004253387451171875 0.004923343658447266
199860500.0 0.0048749446868896484 0.004412174224853516
204856000.0 0.00546574592590332 0.0038530826568603516
209851500.0 0.005906105041503906 0.003050565719604492
214847000.0 0.006353139877319336 0.0022819042205810547
219842500.0 0.006657838821411133 0.0015916824340820312
224838000.0 0.006855964660644531 0.0007164478302001953
229833500.0 0.006934404373168945 -0.00023245811462402344
234829000.0 0.007001638412475586 -0.001089334487915039
239824500.0 0.006886482238769531 -0.0019199848175048828
244820000.0 0.006575107574462891 -0.0027856826782226562
249815500.0 0.006262302398681641 -0.003595590591430664
254811000.0 0.006085634231567383 -0.004138946533203125
259806500.0 0.0055637359619140625 -0.004885435104370117
264802000.0 0.004991292953491211 -0.005587100982666016
269797500.0 0.00437474250793457 -0.006092548370361328
274793000.0 0.0035610198974609375 -0.0066874027252197266
279788500.0 0.0029315948486328125 -0.007185935974121094
284784000.0 0.0019447803497314453 -0.007531881332397461
289779500.0 0.0009646415710449219 -0.007756233215332031
294775000.0 0.00012922286987304688 -0.007900714874267578
299770500.0 -0.0007052421569824219 -0.007945060729980469
304766000.0 -0.0017147064208984375 -0.0079803466796875
309761500.0 -0.0026712417602539062 -0.007715463638305664
314757000.0 -0.0035657882690429688 -0.007383584976196289
319752500.0 -0.004408836364746094 -0.006941080093383789
324748000.0 -0.005243539810180664 -0.0063402652740478516
329743500.0 -0.006005525588989258 -0.005710124969482422
334739000.0 -0.006563663482666016 -0.005113124847412109
339734500.0 -0.007228374481201172 -0.004350900650024414
344730000.0 -0.0077550411224365234 -0.0034034252166748047
349725500.0 -0.008108139038085938 -0.0026044845581054688
354721000.0 -0.008327007293701172 -0.0015416145324707031
359716500.0 -0.008503437042236328 -0.0006313323974609375
364712000.0 -0.008601188659667969 0.0003733634948730469
369707500.0 -0.008409976959228516 0.0013942718505859375
374703000.0 -0.008258342742919922 0.002349853515625
379698500.0 -0.007958412170410156 0.0031957626342773438
384694000.0 -0.007631063461303711 0.0042574405670166016
389689500.0 -0.007087230682373047 0.005028724670410156
394685000.0 -0.006449460983276367 0.005907535552978516
399680500.0 -0.00569915771484375 0.006546497344970703
404676000.0 -0.005042552947998047 0.0071833133697509766
409671500.0 -0.0041942596435546875 0.007646322250366211
414667000.0 -0.0032591819763183594 0.008026123046875
419662500.0 -0.00238037109375 0.008386611938476562
424658000.0 -0.0014209747314453125 0.008585929870605469
429653500.0 -0.0004324913024902344 0.008740901947021484
434649000.0 0.0005440711975097656 0.008742809295654297
439644500.0 0.0015034675598144531 0.0086212158203125
444640000.0 0.0025196075439453125 0.008326530456542969
449635500.0 0.0033507347106933594 0.008031845092773438
454631000.0 0.004121303558349609 0.007626771926879883
459626500.0 0.005022287368774414 0.00704193115234375
464622000.0 0.00583338737487793 0.0065386295318603516
469617500.0 0.006453752517700195 0.0057675838470458984
474613000.0 0.00702357292175293 0.005095243453979492
479608500.0 0.007532358169555664 0.004146099090576172
484604000.0 0.007765531539916992 0.003374338150024414
489599500.0 0.008183956146240234 0.0023899078369140625
494595000.0 0.008317947387695312 0.0015687942504882812
499590500.0 0.008451461791992188 0.0006837844848632812
504586000.0 0.008428573608398438 -0.00020551681518554688
509581500.0 0.00824594497680664 -0.001064300537109375
514577000.0 0.008026599884033203 -0.0019698143005371094
519572500.0 0.007730722427368164 -0.002680063247680664
524568000.0 0.007406711578369141 -0.0035123825073242188
529563500.0 0.006901979446411133 -0.0041904449462890625
534559000.0 0.00648045539855957 -0.0048940181732177734
539554500.0 0.005849361419677734 -0.005367755889892578
544550000.0 0.00518488883972168 -0.0059320926666259766
549545500.0 0.0046923160552978516 -0.0064203739166259766
554541000.0 0.0039997100830078125 -0.006813526153564453
559536500.0 0.0033271312713623047 -0.007159233093261719
564532000.0 0.0025680065155029297 -0.007440090179443359
569527500.0 0.0017130374908447266 -0.0075953006744384766
574523000.0 0.0010383129119873047 -0.007742643356323242
579518500.0 0.00018644332885742188 -0.007745504379272461
584514000.0 -0.0006201267242431641 -0.007703065872192383
589509500.0 -0.001239776611328125 -0.007594108581542969
594505000.0 -0.0020437240600585938 -0.007409095764160156
599500500.0 -0.0027496814727783203 -0.007190704345703125
604496000.0 -0.0034046173095703125 -0.006795167922973633
609491500.0 -0.003979682922363281 -0.006482124328613281
614487000.0 -0.004637479782104492 -0.006016969680786133
619482500.0 -0.005048036575317383 -0.005525827407836914
624478000.0 -0.005606412887573242 -0.004944324493408203
629473500.0 -0.006009817123413086 -0.004489421844482422
634469000.0 -0.006368160247802734 -0.0038361549377441406
639464500.0 -0.006696462631225586 -0.003279447555541992
644460000.0 -0.006859302520751953 -0.0025534629821777344
649455500.0 -0.007021188735961914 -0.001936197280883789
654451000.0 -0.007205486297607422 -0.0012667179107666016
659446500.0 -0.007214546203613281 -0.0006873607635498047
664442000.0 -0.007275819778442383 -3.5762786865234375e-05
669437500.0 -0.007111787796020508 0.0006346702575683594
674433000.0 -0.0070116519927978516 0.0012085437774658203
679428500.0 -0.006971120834350586 0.0017621517181396484
684424000.0 -0.00673365592956543 0.002414226531982422
689419500.0 -0.006563425064086914 0.002917766571044922
694415000.0 -0.006243705749511719 0.003506898880004883
699410500.0 -0.0060198307037353516 0.0040912628173828125
704406000.0 -0.00557398796081543 0.004470109939575195
709401500.0 -0.0052165985107421875 0.004918575286865234
714397000.0 -0.004770517349243164 0.005397796630859375
719392500.0 -0.004311561584472656 0.00580596923828125
724388000.0 -0.003896951675415039 0.006087064743041992
729383500.0 -0.0033979415893554688 0.006490230560302734
734379000.0 -0.002895355224609375 0.006781339645385742
739374500.0 -0.002360820770263672 0.0071086883544921875
744370000.0 -0.0017271041870117188 0.007230997085571289
749365500.0 -0.0012505054473876953 0.00746464729309082
754361000.0 -0.0005583763122558594 0.0075032711029052734
759356500.0 -3.123283386230469e-05 0.007669210433959961
764352000.0 0.0005879402160644531 0.007853507995605469
769347500.0 0.0012459754943847656 0.007785797119140625
774343000.0 0.0018897056579589844 0.007838249206542969
779338500.0 0.002591371536254883 0.0077893733978271484
784334000.0 0.003391265869140625 0.007588624954223633
789329500.0 0.003951311111450195 0.007396697998046875
794325000.0 0.004529714584350586 0.007238149642944336
799320500.0 0.005296230316162109 0.006902933120727539
804316000.0 0.006051540374755859 0.006474018096923828
809311500.0 0.0065538883209228516 0.006089448928833008
814307000.0 0.00725865364074707 0.00553441047668457
819302500.0 0.007918357849121094 0.005084037780761719
824298000.0 0.008410453796386719 0.004451751708984375
829293500.0 0.008918285369873047 0.0037064552307128906
834289000.0 0.009454727172851562 0.0030002593994140625
839284500.0 0.009806632995605469 0.002243518829345703
844280000.0 0.01023721694946289 0.0018625259399414062
849275500.0 0.010589599609375 0.0008835792541503906
854271000.0 0.010847091674804688 7.62939453125e-06
859266500.0 0.010941028594970703 -0.0010395050048828125
864262000.0 0.011219501495361328 -0.0021181106567382812
869257500.0 0.011130809783935547 -0.00312042236328125
874253000.0 0.010922908782958984 -0.004207611083984375
879248500.0 0.010798931121826172 -0.005195140838623047
884244000.0 0.010436534881591797 -0.006330966949462891
889239500.0 0.010107040405273438 -0.007501125335693359
894235000.0 0.009661197662353516 -0.008366107940673828
899230500.0 0.009009361267089844 -0.009727954864501953
904226000.0 0.008180618286132812 -0.010596275329589844
909221500.0 0.007241249084472656 -0.011621952056884766
914217000.0 0.006251335144042969 -0.012517452239990234
919212500.0 0.005145072937011719 -0.013400077819824219
924208000.0 0.003882884979248047 -0.014182090759277344
929203500.0 0.0026412010192871094 -0.014745235443115234
934199000.0 0.0011210441589355469 -0.015185356140136719
939194500.0 -0.0003886222839355469 -0.015569210052490234
944190000.0 -0.001850128173828125 -0.015789031982421875
949185500.0 -0.0034360885620117188 -0.01587963104248047
954181000.0 -0.005244255065917969 -0.015857696533203125
959176500.0 -0.006915569305419922 -0.015491485595703125
964172000.0 -0.00854349136352539 -0.014982223510742188
969167500.0 -0.010166168212890625 -0.014330387115478516
974163000.0 -0.011813640594482422 -0.013516902923583984
979158500.0 -0.013360977172851562 -0.01257181167602539
984154000.0 -0.014855384826660156 -0.011276721954345703
989149500.0 -0.016127586364746094 -0.009875297546386719
994145000.0 -0.01743316650390625 -0.008432388305664062
999140500.0 -0.018537521362304688 -0.006751060485839844
1004136000.0 -0.019304275512695312 -0.004848480224609375
1009131500.0 -0.020041465759277344 -0.0029840469360351562
1014127000.0 -0.020549774169921875 -0.0008573532104492188
1019122500.0 -0.020958900451660156 0.0013532638549804688
1024118000.0 -0.020974159240722656 0.0033960342407226562
1029113500.0 -0.02082061767578125 0.0056705474853515625
1034109000.0 -0.020486831665039062 0.007889747619628906
1039104500.0 -0.01994609832763672 0.010133743286132812
1044100000.0 -0.019044876098632812 0.012293815612792969
1049095500.0 -0.01791095733642578 0.014356613159179688
1054091000.0 -0.016570091247558594 0.016364097595214844
1059086500.0 -0.014966964721679688 0.018349647521972656
1064082000.0 -0.0131988525390625 0.019903182983398438
1069077500.0 -0.011243820190429688 0.021602630615234375
1074073000.0 -0.009049415588378906 0.022991180419921875
1079068500.0 -0.0068035125732421875 0.02412700653076172
1084064000.0 -0.004300117492675781 0.02508258819580078
1089059500.0 -0.0016393661499023438 0.02558422088623047
1094055000.0 0.0011930465698242188 0.02617359161376953
1099050500.0 0.0039272308349609375 0.026254653930664062
1104046000.0 0.006748199462890625 0.025963783264160156
1109041500.0 0.009305000305175781 0.025465011596679688
1114037000.0 0.01210784912109375 0.024608612060546875
1119032500.0 0.014859199523925781 0.02360248565673828
1124028000.0 0.01742267608642578 0.02220630645751953
1129023500.0 0.019947052001953125 0.020562171936035156
1134019000.0 0.022187232971191406 0.018451690673828125
1139014500.0 0.024390220642089844 0.016321182250976562
1144010000.0 0.026178359985351562 0.013752937316894531
1149005500.0 0.027802467346191406 0.010922431945800781
1154001000.0 0.029153823852539062 0.00815582275390625
1158996500.0 0.03014373779296875 0.0050830841064453125
1163992000.0 0.03093242645263672 0.0018548965454101562
1168987500.0 0.03133964538574219 -0.0012340545654296875
1173983000.0 0.03128814697265625 -0.004741668701171875
1178978500.0 0.030897140502929688 -0.008031845092773438
1183974000.0 0.030300140380859375 -0.01129913330078125
1188969500.0 0.029064178466796875 -0.014634132385253906
1193965000.0 0.02776813507080078 -0.01788330078125
1198960500.0 0.02602672576904297 -0.020813941955566406
1203956000.0 0.023903846740722656 -0.02361583709716797
1208951500.0 0.021505355834960938 -0.026190757751464844
1213947000.0 0.018848419189453125 -0.028553009033203125
1218942500.0 0.015871047973632812 -0.03072357177734375
1223938000.0 0.012678146362304688 -0.03239631652832031
1228933500.0 0.009286880493164062 -0.033863067626953125
1233929000.0 0.0058135986328125 -0.03492164611816406
1238924500.0 0.002124786376953125 -0.0357208251953125
1243920000.0 -0.0016498565673828125 -0.03597450256347656
1248915500.0 -0.005397796630859375 -0.036006927490234375
1253911000.0 -0.00910186767578125 -0.03551673889160156
1258906500.0 -0.012857437133789062 -0.03466606140136719
1263902000.0 -0.016633987426757812 -0.03338050842285156
1268897500.0 -0.020078659057617188 -0.03178977966308594
1273893000.0 -0.023433685302734375 -0.029794692993164062
1278888500.0 -0.026828765869140625 -0.027474403381347656
1283884000.0 -0.02957916259765625 -0.02482318878173828
1288879500.0 -0.03231048583984375 -0.021722793579101562
1293875000.0 -0.03479576110839844 -0.018299102783203125
1298870500.0 -0.0368194580078125 -0.014822006225585938
1303866000.0 -0.03844642639160156 -0.010854721069335938
1308861500.0 -0.03977012634277344 -0.00690460205078125
1313857000.0 -0.04049110412597656 -0.0026531219482421875
1318852500.0 -0.04100799560546875 0.0016384124755859375
1323848000.0 -0.04088783264160156 0.0059337615966796875
1328843500.0 -0.04030799865722656 0.010213851928710938
1333839000.0 -0.039203643798828125 0.014553070068359375
1338834500.0 -0.03774833679199219 0.018796920776367188
1343830000.0 -0.035823822021484375 0.022769927978515625
1348825500.0 -0.033477783203125 0.026683807373046875
1353821000.0 -0.030742645263671875 0.030153274536132812
1358816500.0 -0.02751922607421875 0.033496856689453125
1363812000.0 -0.024049758911132812 0.03646659851074219
1368807500.0 -0.020183563232421875 0.03899192810058594
1373803000.0 -0.016082763671875 0.04118919372558594
1378798500.0 -0.011762619018554688 0.04292869567871094
1383794000.0 -0.007232666015625 0.04422569274902344
1388789500.0 -0.0025539398193359375 0.04505157470703125
1393785000.0 0.002166748046875 0.045299530029296875
1398780500.0 0.0070285797119140625 0.0450286865234375
1403776000.0 0.0118255615234375 0.0443115234375
1408771500.0 0.016496658325195312 0.04320526123046875
1413767000.0 0.0210418701171875 0.04128074645996094
1418762500.0 0.025577545166015625 0.0390777587890625
1423758000.0 0.029664993286132812 0.03631401062011719
1428753500.0 0.033596038818359375 0.033107757568359375
1433749000.0 0.03700447082519531 0.029582977294921875
1438744500.0 0.04011344909667969 0.025682449340820312
1443740000.0 0.04290580749511719 0.021291732788085938
1448735500.0 0.045074462890625 0.016775131225585938
1453731000.0 0.04678153991699219 0.011888504028320312
1458726500.0 0.04794502258300781 0.00695037841796875
1463722000.0 0.04858589172363281 0.0019359588623046875
1468717500.0 0.048709869384765625 -0.0032806396484375
1473713000.0 0.048343658447265625 -0.008451461791992188
1478708500.0 0.04740715026855469 -0.013538360595703125
1483704000.0 0.045841217041015625 -0.018423080444335938
1488699500.0 0.04373741149902344 -0.023288726806640625
1493695000.0 0.04111480712890625 -0.027738571166992188
1498690500.0 0.03822517395019531 -0.0322113037109375
1503686000.0 0.03472709655761719 -0.03606986999511719
1508681500.0 0.0307769775390625 -0.03980445861816406
1513677000.0 0.02645111083984375 -0.04279327392578125
1518672500.0 0.02190399169921875 -0.04551887512207031
1523668000.0 0.017072677612304688 -0.04770088195800781
1528663500.0 0.011873245239257812 -0.04938316345214844
1533659000.0 0.0067577362060546875 -0.050449371337890625
1538654500.0 0.0013675689697265625 -0.050937652587890625
1543650000.0 -0.0040111541748046875 -0.050983428955078125
1548645500.0 -0.009304046630859375 -0.05040740966796875
1553641000.0 -0.014558792114257812 -0.04916954040527344
1558636500.0 -0.019535064697265625 -0.04744148254394531
1563632000.0 -0.024463653564453125 -0.04532051086425781
1568627500.0 -0.0291900634765625 -0.04256629943847656
1573623000.0 -0.03338813781738281 -0.03936958312988281
1578618500.0 -0.03748130798339844 -0.03578376770019531
1583614000.0 -0.040843963623046875 -0.03164100646972656
1588609500.0 -0.04404640197753906 -0.027265548706054688
1593605000.0 -0.046588897705078125 -0.0226287841796875
1598600500.0 -0.04874992370605469 -0.017591476440429688
1603596000.0 -0.050380706787109375 -0.012620925903320312
1608591500.0 -0.0514984130859375 -0.0072422027587890625
1613587000.0 -0.05200386047363281 -0.0020084381103515625
1618582500.0 -0.05198478698730469 0.0032863616943359375
1623578000.0 -0.051300048828125 0.008695602416992188
1628573500.0 -0.050312042236328125 0.013883590698242188
1633569000.0 -0.04871177673339844 0.018991470336914062
1638564500.0 -0.046535491943359375 0.023942947387695312
1643560000.0 -0.04389190673828125 0.028522491455078125
1648555500.0 -0.04083061218261719 0.03289985656738281
1653551000.0 -0.03721427917480469 0.0369415283203125
1658546500.0 -0.033329010009765625 0.040691375732421875
1663542000.0 -0.02899932861328125 0.043918609619140625
1668537500.0 -0.024509429931640625 0.04665374755859375
1673533000.0 -0.019664764404296875 0.04905128479003906
1678528500.0 -0.014528274536132812 0.05091094970703125
1683524000.0 -0.009256362915039062 0.052249908447265625
1688519500.0 -0.0039577484130859375 0.052867889404296875
1693515000.0 0.001453399658203125 0.05321693420410156
1698510500.0 0.006946563720703125 0.05289459228515625
1703506000.0 0.012424468994140625 0.05186653137207031
1708501500.0 0.017669677734375 0.05052947998046875
1713497000.0 0.022808074951171875 0.04844093322753906
1718492500.0 0.027795791625976562 0.04586029052734375
1723488000.0 0.032428741455078125 0.042999267578125
1728483500.0 0.03671836853027344 0.03937339782714844
1733479000.0 0.04069328308105469 0.03547477722167969
1738474500.0 0.04413032531738281 0.031078338623046875
1743470000.0 0.047252655029296875 0.026292800903320312
1748465500.0 0.04975700378417969 0.0214080810546875
1753461000.0 0.05173683166503906 0.01605224609375
1758456500.0 0.053157806396484375 0.01065826416015625
1763452000.0 0.054065704345703125 0.005237579345703125
1768447500.0 0.054286956787109375 -0.0004730224609375
1773443000.0 0.053989410400390625 -0.0060577392578125
1778438500.0 0.053066253662109375 -0.011547088623046875
1783434000.0 0.0515899658203125 -0.017059326171875
1788429500.0 0.049541473388671875 -0.0223236083984375
1793425000.0 0.04704856872558594 -0.027330398559570312
1798420500.0 0.044010162353515625 -0.03205680847167969
1803416000.0 0.04040336608886719 -0.03636932373046875
1808411500.0 0.03637123107910156 -0.04033470153808594
1813407000.0 0.032077789306640625 -0.043949127197265625
1818402500.0 0.027292251586914062 -0.04683494567871094
1823398000.0 0.0223541259765625 -0.0494384765625
1828393500.0 0.017103195190429688 -0.05145454406738281
1833389000.0 0.011638641357421875 -0.05295562744140625
1838384500.0 0.0061092376708984375 -0.05384063720703125
1843380000.0 0.0006122589111328125 -0.05407142639160156
