!Created with skrf (http://scikit-rf.org).
# Hz S RI R 50.0 
!freq ReS11 ImS11
300000.0 -0.0065176892 -0.0343960946
5299970.0 0.0003493605 -5.291e-05
10299940.0 0.0008370217 -0.0001230433
15299910.0 0.0010818727 0.001085138
20299880.0 0.0009572924 0.0006934419
25299850.0 0.0013977403 0.0013464881
30299820.0 0.0013768261 0.0016738132
35299790.0 0.0013292363 0.0013822705
40299760.0 0.0016059414 0.0016908764
45299730.0 0.0016978918 0.0019056775
50299700.0 0.0018331093 0.0019242669
55299670.0 0.002211598 0.0020344458
60299640.0 0.0023088078 0.0022607818
65299610.0 0.0025149518 0.0022138506
70299580.0 0.0026939706 0.0022749133
75299550.0 0.0028398472 0.0021215514
80299520.0 0.0030800828 0.00229
85299490.0 0.0031639277 0.0024468791
90299460.0 0.0033414564 0.0022004903
95299430.0 0.0035973579 0.0022962423
100299400.0 0.0035922741 0.0023114261
105299370.0 0.0039269469 0.0024216043
110299340.0 0.0041498257 0.002308789
115299310.0 0.0042008998 0.0022790386
120299280.0 0.0042132057 0.0023377378
125299250.0 0.0044999815 0.0021551281
130299220.0 0.0043656657 0.0022208367
135299190.0 0.0044248358 0.0021396126
140299160.0 0.0048120265 0.0020582058
145299130.0 0.0049393535 0.0018349023
150299100.0 0.0051450366 0.001821081
155299070.0 0.0049438719 0.0018289275
160299040.0 0.0051995003 0.0015171532
165299010.0 0.005280332 0.001681108
170298980.0 0.0054898939 0.0017479062
175298950.0 0.0054364966 0.0013668582
180298920.0 0.0053564608 0.0014219697
185298890.0 0.0054279871 0.0014336121
190298860.0 0.0054682496 0.0013428046
195298830.0 0.0058004478 0.0013487169
200298800.0 0.0057271358 0.0010308072
205298770.0 0.0059078901 0.0011731184
210298740.0 0.0060220311 0.0008931324
215298710.0 0.0058620126 0.0009581571
220298680.0 0.0060285177 0.0008483551
225298650.0 0.0059932717 0.0007629341
230298620.0 0.0062278667 0.0004136547
235298590.0 0.00621597 0.0003383661
240298560.0 0.0060271477 0.0004008439
245298530.0 0.0061402017 0.0002092323
250298500.0 0.0059470327 0.0001569398
255298470.0 0.0061277199 -1.03786e-05
260298440.0 0.0062151884 2.51032e-05
265298410.0 0.0062147293 2.32694e-05
270298380.0 0.0060504617 -0.0001012501
275298350.0 0.006230723 -0.0001321069
280298320.0 0.0062548596 -0.0004599125
285298290.0 0.0060943981 -0.0004550295
290298260.0 0.0062824751 -0.0004524837
295298230.0 0.006091149 -0.0005565545
300298200.0 0.0063509533 -0.0008581224
305298170.0 0.0063649752 -0.0006226
310298140.0 0.0060923197 -0.0007976363
315298110.0 0.0060783588 -0.0009678667
320298080.0 0.006116803 -0.0008300187
325298050.0 0.0060698247 -0.0010092422
330298020.0 0.0059350822 -0.0011495191
335297990.0 0.0060555125 -0.001348983
340297960.0 0.0060097213 -0.0011388773
345297930.0 0.0060774596 -0.0014391471
350297900.0 0.006453226 -0.0014973782
355297870.0 0.0064267117 -0.0015860812
360297840.0 0.0062455228 -0.0016870378
365297810.0 0.0060314931 -0.0018543318
370297780.0 0.0060988568 -0.0018000546
375297750.0 0.0058941916 -0.0017212313
380297720.0 0.0058535172 -0.0017999193
385297690.0 0.0058885484 -0.0020032243
390297660.0 0.0059298114 -0.0017951287
395297630.0 0.0059866758 -0.0018805254
400297600.0 0.0057477391 -0.0019813316
405297570.0 0.0057764294 -0.0023739116
410297540.0 0.0056941196 -0.0022584222
415297510.0 0.0056385707 -0.0019827437
420297480.0 0.0056518571 -0.0022781765
425297450.0 0.0055647042 -0.0022344425
430297420.0 0.0055076138 -0.0023075721
435297390.0 0.0054153872 -0.002437165
440297360.0 0.005576027 -0.0026424263
445297330.0 0.0052943283 -0.002489787
450297300.0 0.0053663762 -0.0024789861
455297270.0 0.0052979639 -0.0023788185
460297240.0 0.005206862 -0.0025525075
465297210.0 0.0050403878 -0.0025511447
470297180.0 0.005254565 -0.0026117626
475297150.0 0.0050648663 -0.0027730285
480297120.0 0.0050850082 -0.0027786371
485297090.0 0.005032791 -0.0029203399
490297060.0 0.0049648876 -0.0028608403
495297030.0 0.0048808184 -0.0029210453
500297000.0 0.0051331474 -0.0030494178
505296970.0 0.0050547456 -0.0027086447
510296940.0 0.0048139826 -0.002840286
515296910.0 0.0046659403 -0.0028284236
520296880.0 0.0046045866 -0.0028801456
525296850.0 0.0046818251 -0.0027729854
530296820.0 0.0045771441 -0.00282577
535296790.0 0.0044633557 -0.0029522342
540296760.0 0.0043238972 -0.0030213191
545296730.0 0.0045735266 -0.0029814918
550296700.0 0.0046309718 -0.0030314409
555296670.0 0.0042927186 -0.0029663205
560296640.0 0.0044858376 -0.0032711163
565296610.0 0.0045953141 -0.0032271698
570296580.0 0.004655388 -0.0031343921
575296550.0 0.0045171441 -0.0031461679
580296520.0 0.0045723149 -0.0032111791
585296490.0 0.0043855828 -0.0033497342
590296460.0 0.0044338704 -0.0033890469
595296430.0 0.0044035615 -0.003420023
600296400.0 0.0043153704 -0.0032857306
605296370.0 0.0042187853 -0.003571931
610296340.0 0.0042596227 -0.0034639759
615296310.0 0.0042279087 -0.0035260795
620296280.0 0.0041386398 -0.0035525086
625296250.0 0.0040037847 -0.0032312496
630296220.0 0.0040561219 -0.0035267102
635296190.0 0.0039998213 -0.0035732389
640296160.0 0.0040418997 -0.0035217917
645296130.0 0.0040096255 -0.0035665238
650296100.0 0.0037842306 -0.0034510504
655296070.0 0.0040233283 -0.0037399151
660296040.0 0.0039580895 -0.0035495753
665296010.0 0.0039365241 -0.0036684361
670295980.0 0.0039954609 -0.0036711914
675295950.0 0.003879085 -0.0034390227
680295920.0 0.003822512 -0.0039179259
685295890.0 0.0040205728 -0.0036048253
690295860.0 0.0038886407 -0.0036217552
695295830.0 0.0037204845 -0.0037382161
700295800.0 0.0036860671 -0.0036453288
705295770.0 0.0036556079 -0.0039277002
710295740.0 0.0035282386 -0.0036865812
715295710.0 0.003550919 -0.0038139324
720295680.0 0.0037225663 -0.0038336479
725295650.0 0.0035710016 -0.0036626852
730295620.0 0.003586158 -0.0038358478
735295590.0 0.0035036541 -0.0039194342
740295560.0 0.0035516649 -0.0038389165
745295530.0 0.003473657 -0.0039721085
750295500.0 0.0032192667 -0.0037611186
755295470.0 0.0034944188 -0.0038834127
760295440.0 0.003375644 -0.0037416614
765295410.0 0.0034351715 -0.0037634121
770295380.0 0.0032813311 -0.0039573014
775295350.0 0.0032311442 -0.0039800919
780295320.0 0.0031220047 -0.0039390376
785295290.0 0.0031862818 -0.0039590498
790295260.0 0.0033588669 -0.0041649949
795295230.0 0.0032961932 -0.004054904
800295200.0 0.0033230728 -0.0040480664
805295170.0 0.0031938208 -0.0040787516
810295140.0 0.0031572081 -0.0040280241
815295110.0 0.0030588854 -0.004058768
820295080.0 0.0030031324 -0.0042690547
825295050.0 0.0031073094 -0.004321732
830295020.0 0.0031986878 -0.0042556398
835294990.0 0.0030244726 -0.0041761841
840294960.0 0.0029293085 -0.0042766528
845294930.0 0.0030722857 -0.004174458
850294900.0 0.0030051031 -0.0041781542
855294870.0 0.0029402274 -0.0041971919
860294840.0 0.0030709948 -0.0040270916
865294810.0 0.0029534497 -0.0041766405
870294780.0 0.0029867999 -0.0041884906
875294750.0 0.0029139725 -0.0043807843
880294720.0 0.0029121321 -0.0043575974
885294690.0 0.003005658 -0.0045919254
890294660.0 0.0028296834 -0.0044097433
895294630.0 0.0030524362 -0.0042870681
900294600.0 0.0030457268 -0.0044105292
905294570.0 0.0028419872 -0.0045026902
910294540.0 0.0029102044 -0.0044387579
915294510.0 0.0027719158 -0.0045463154
920294480.0 0.0027482799 -0.0045952652
925294450.0 0.0031530074 -0.0043655502
930294420.0 0.0026468293 -0.00423679
935294390.0 0.002821566 -0.0045133243
940294360.0 0.0029070278 -0.0046359045
945294330.0 0.0027872187 -0.0045617471
950294300.0 0.0027275324 -0.0044840715
955294270.0 0.0027314808 -0.0044873727
960294240.0 0.0025578076 -0.0044337035
965294210.0 0.0026037062 -0.004615897
970294180.0 0.0023559164 -0.0045493209
975294150.0 0.0025574877 -0.0047004588
980294120.0 0.0025143392 -0.0045193518
985294090.0 0.0024511153 -0.0048488897
990294060.0 0.0025276418 -0.0047138123
995294030.0 0.0023772555 -0.0047665903
1000294000.0 0.0023938354 -0.004757238
1005293970.0 0.0025329253 -0.0049060385
1010293940.0 0.0025214334 -0.0046609612
1015293910.0 0.0022447653 -0.0049750669
1020293880.0 0.0026220486 -0.0047807658
1025293850.0 0.0024821945 -0.0047925844
1030293820.0 0.002438256 -0.0048423476
1035293790.0 0.0023681712 -0.0048597395
1040293760.0 0.0026428409 -0.0050332094
1045293730.0 0.0024378308 -0.0050829285
1050293700.0 0.002228041 -0.0048491502
1055293670.0 0.0023268462 -0.0050020341
1060293640.0 0.0023035407 -0.0048303746
1065293610.0 0.0023012362 -0.0050186037
1070293580.0 0.0024596993 -0.0047717369
1075293550.0 0.0024421173 -0.0048918467
1080293520.0 0.0025814291 -0.0051176085
1085293490.0 0.0022829177 -0.0050921034
1090293460.0 0.0023038067 -0.0049262594
1095293430.0 0.0024995177 -0.0049593016
1100293400.0 0.0021993252 -0.0051020254
1105293370.0 0.0023836306 -0.0051015846
1110293340.0 0.0025384333 -0.0052454091
1115293310.0 0.0023042536 -0.0051149739
1120293280.0 0.0020811997 -0.005322419
1125293250.0 0.0022149228 -0.0051495911
1130293220.0 0.0020826762 -0.0048652299
1135293190.0 0.0021790696 -0.0050022983
1140293160.0 0.0021872465 -0.004867961
1145293130.0 0.001777653 -0.0049439251
1150293100.0 0.0018357743 -0.0050188877
1155293070.0 0.0017261568 -0.0049564677
1160293040.0 0.001729372 -0.0052421066
1165293010.0 0.0019177062 -0.0049063443
1170292980.0 0.001787562 -0.0051066482
1175292950.0 0.0017747441 -0.0053008387
1180292920.0 0.0019020077 -0.005218476
1185292890.0 0.0018034054 -0.0050866629
1190292860.0 0.0020845555 -0.0053487911
1195292830.0 0.002161487 -0.0052912704
1200292800.0 0.0019689464 -0.0055143226
1205292770.0 0.0021183616 -0.0054330609
1210292740.0 0.0020507567 -0.0052871375
1215292710.0 0.0020257304 -0.0054784704
1220292680.0 0.0020588527 -0.0054899948
1225292650.0 0.0020867738 -0.0055786201
1230292620.0 0.0020026372 -0.0054930298
1235292590.0 0.0020491266 -0.0054050183
1240292560.0 0.0018820729 -0.0056066968
1245292530.0 0.0020663982 -0.005516561
1250292500.0 0.0020860824 -0.0056016428
1255292470.0 0.0020523058 -0.0055732207
1260292440.0 0.0020225191 -0.0056942078
1265292410.0 0.0020459394 -0.005681311
1270292380.0 0.0020355435 -0.0055276499
1275292350.0 0.0021073477 -0.005597068
1280292320.0 0.0019022036 -0.0055315714
1285292290.0 0.0018480255 -0.0056422607
1290292260.0 0.0020916989 -0.0054799599
1295292230.0 0.0019745132 -0.0056324173
1300292200.0 0.0019686294 -0.0057119635
1305292170.0 0.0018658614 -0.005639226
1310292140.0 0.0020416649 -0.0057747027
1315292110.0 0.0018014785 -0.0056865853
1320292080.0 0.0018364789 -0.0057781113
1325292050.0 0.0019566549 -0.0057070566
1330292020.0 0.0019608227 -0.0057905689
1335291990.0 0.0021793579 -0.0058894236
1340291960.0 0.0018841648 -0.0057682553
1345291930.0 0.0018834911 -0.0056183263
1350291900.0 0.0019399027 -0.005801367
1355291870.0 0.0017747122 -0.0059014034
1360291840.0 0.001871523 -0.0057177519
1365291810.0 0.0016934557 -0.0058068815
1370291780.0 0.001950057 -0.0060540512
1375291750.0 0.0017931585 -0.0059373005
1380291720.0 0.0019326982 -0.0058818255
1385291690.0 0.0017955601 -0.0058686645
1390291660.0 0.0019373979 -0.0058596807
1395291630.0 0.0016108117 -0.0060256162
1400291600.0 0.0018444379 -0.0057638748
1405291570.0 0.0017048246 -0.0057940014
1410291540.0 0.0017888583 -0.0058820696
1415291510.0 0.0018286987 -0.0058919193
1420291480.0 0.0017811873 -0.006113795
1425291450.0 0.0016547137 -0.0060151952
1430291420.0 0.0016797645 -0.0060189529
1435291390.0 0.0017982767 -0.0059086948
1440291360.0 0.0017234258 -0.0062529099
1445291330.0 0.0017361462 -0.0058528363
1450291300.0 0.0016707597 -0.006051223
1455291270.0 0.0017966931 -0.0061395942
1460291240.0 0.0014499522 -0.0060401067
1465291210.0 0.0017054239 -0.0061194558
1470291180.0 0.0016946368 -0.0062900975
1475291150.0 0.0016511846 -0.0060433709
1480291120.0 0.0015802861 -0.0060384216
1485291090.0 0.0017076717 -0.0060691501
1490291060.0 0.0016258685 -0.0063169184
1495291030.0 0.0016953591 -0.0061433958
1500291000.0 0.0017414126 -0.0061905614
1505290970.0 0.0016418023 -0.0061900548
1510290940.0 0.0015224186 -0.0063618302
1515290910.0 0.0015916986 -0.0062921872
1520290880.0 0.0018027746 -0.0064716107
1525290850.0 0.001565572 -0.0062438341
1530290820.0 0.0015190484 -0.0062965651
1535290790.0 0.0017029696 -0.0063030918
1540290760.0 0.0017857107 -0.0064333747
1545290730.0 0.0015327971 -0.0062835942
1550290700.0 0.0016869309 -0.0062674687
1555290670.0 0.0017263618 -0.0063440022
1560290640.0 0.0017221393 -0.0062921591
1565290610.0 0.0014739863 -0.0064342276
1570290580.0 0.0014930708 -0.0065046746
1575290550.0 0.0015526389 -0.0064764254
1580290520.0 0.0014353866 -0.0063383156
1585290490.0 0.001653061 -0.0064061725
1590290460.0 0.0014908185 -0.0064654308
1595290430.0 0.0016652733 -0.0064426649
1600290400.0 0.001444119 -0.0062665425
1605290370.0 0.0016247099 -0.0063121633
1610290340.0 0.0016902046 -0.0064000033
1615290310.0 0.0016400339 -0.0064398792
1620290280.0 0.0014952406 -0.0063393679
1625290250.0 0.0015271721 -0.0063702218
1630290220.0 0.0014345761 -0.0064948491
1635290190.0 0.0014545321 -0.0063960852
1640290160.0 0.0017930493 -0.006609112
1645290130.0 0.0015549098 -0.0063990195
1650290100.0 0.0016543209 -0.0065215116
1655290070.0 0.0014576368 -0.006518479
1660290040.0 0.0015791653 -0.0065203498
1665290010.0 0.0015683406 -0.0065916425
1670289980.0 0.0014510659 -0.0064162201
1675289950.0 0.0014159177 -0.0065350938
1680289920.0 0.0015437644 -0.0066885199
1685289890.0 0.001560783 -0.0066780296
1690289860.0 0.0015664621 -0.0068992502
1695289830.0 0.0015479786 -0.006632383
1700289800.0 0.0014740649 -0.0066915776
1705289770.0 0.0015692828 -0.0065913664
1710289740.0 0.0015509208 -0.0067943552
1715289710.0 0.0015143341 -0.0066174203
1720289680.0 0.0013156672 -0.0064028034
1725289650.0 0.0015492547 -0.0065299058
1730289620.0 0.0015525328 -0.0064215159
1735289590.0 0.0015859243 -0.0068179922
1740289560.0 0.001289095 -0.006608154
1745289530.0 0.0013510573 -0.0067943662
1750289500.0 0.0016990425 -0.0065290881
1755289470.0 0.001535665 -0.0066202165
1760289440.0 0.0014266609 -0.0066056556
1765289410.0 0.0014881371 -0.0066718253
1770289380.0 0.0011667079 -0.0066584982
1775289350.0 0.0014781999 -0.0066055925
1780289320.0 0.0013622727 -0.0066988922
1785289290.0 0.0012563727 -0.0065040214
1790289260.0 0.001574519 -0.006549606
1795289230.0 0.0014907187 -0.0066964583
1800289200.0 0.0013967085 -0.0065771036
1805289170.0 0.001362113 -0.006669989
1810289140.0 0.0013554973 -0.00671655
1815289110.0 0.0015612753 -0.0068133911
1820289080.0 0.0014112612 -0.0069013256
1825289050.0 0.0013775883 -0.0066710839
1830289020.0 0.0014253803 -0.0066135913
1835288990.0 0.0014678221 -0.0067589203
1840288960.0 0.0013276728 -0.0068424268
1845288930.0 0.0015423143 -0.0067147675
1850288900.0 0.0012650845 -0.0067309351
1855288870.0 0.0014125894 -0.0067773469
1860288840.0 0.00140648 -0.0069113846
1865288810.0 0.0012340261 -0.0063656314
1870288780.0 0.0013701783 -0.0068677734
1875288750.0 0.0013894316 -0.0067945131
1880288720.0 0.0013464078 -0.0068993959
1885288690.0 0.0014491772 -0.0067676748
1890288660.0 0.00132235 -0.0067168561
1895288630.0 0.0013744075 -0.0067547473
1900288600.0 0.0013498332 -0.006779998
1905288570.0 0.0014061241 -0.0067161234
1910288540.0 0.0013043363 -0.0067902312
1915288510.0 0.0013836186 -0.0067483178
1920288480.0 0.0012522268 -0.0067157558
1925288450.0 0.0014083015 -0.0067293876
1930288420.0 0.0013602459 -0.0065710365
1935288390.0 0.0012983097 -0.0067570545
1940288360.0 0.0012633735 -0.006781881
1945288330.0 0.0012568915 -0.0069183608
1950288300.0 0.0012629402 -0.0067102286
1955288270.0 0.001210033 -0.006879861
1960288240.0 0.0013711648 -0.0068910731
1965288210.0 0.0014671929 -0.0068872974
1970288180.0 0.0013103124 -0.0068419087
1975288150.0 0.0012291722 -0.0066808802
1980288120.0 0.0012982445 -0.0067931794
1985288090.0 0.0015096143 -0.0066709019
1990288060.0 0.0013069941 -0.0068756979
1995288030.0 0.0011289209 -0.0065493743
2000288000.0 0.0013511733 -0.0068844927
2005287970.0 0.0012203878 -0.0067724003
2010287940.0 0.0010727474 -0.0065670557
2015287910.0 0.0014170036 -0.0068242309
2020287880.0 0.001133454 -0.0066132543
2025287850.0 0.0010799443 -0.0067030192
2030287820.0 0.0010611887 -0.0067300944
2035287790.0 0.0010659986 -0.0066040187
2040287760.0 0.0012171354 -0.0065876375
2045287730.0 0.0011975893 -0.0066025695
2050287700.0 0.0011775539 -0.0067541415
2055287670.0 0.0010041426 -0.0066814791
2060287640.0 0.0011262772 -0.0066348646
2065287610.0 0.0010135412 -0.0066475336
2070287580.0 0.0010380588 -0.0067938414
2075287550.0 0.0011262691 -0.0069244074
2080287520.0 0.0009744501 -0.0065532816
2085287490.0 0.0011590377 -0.0066662332
2090287460.0 0.0010300253 -0.0065909702
2095287430.0 0.0009809684 -0.0066994995
2100287400.0 0.0012217502 -0.0065104729
2105287370.0 0.001190275 -0.0067413094
2110287340.0 0.0011878307 -0.0066840466
2115287310.0 0.0009251582 -0.0065254019
2120287280.0 0.0011152714 -0.0067813963
2125287250.0 0.0009985824 -0.0064131855
2130287220.0 0.0012134692 -0.0064052865
2135287190.0 0.0009454129 -0.0065922179
2140287160.0 0.0011194364 -0.0064794804
2145287130.0 0.0010904268 -0.0064834712
2150287100.0 0.0009898848 -0.006615181
2155287070.0 0.0008449686 -0.0065606282
2160287040.0 0.0009074091 -0.0065343146
2165287010.0 0.0011321404 -0.0065512184
2170286980.0 0.000787075 -0.0064852192
2175286950.0 0.0011527178 -0.0065774418
2180286920.0 0.0009116958 -0.0065483377
2185286890.0 0.0010375935 -0.0065544445
2190286860.0 0.0009837977 -0.0064802779
2195286830.0 0.000908144 -0.0065811022
2200286800.0 0.001356493 -0.0065490682
2205286770.0 0.0009979388 -0.0064488546
2210286740.0 0.0008346353 -0.0065054829
2215286710.0 0.0007959466 -0.0066744217
2220286680.0 0.0008079755 -0.0063229169
2225286650.0 0.0010207773 -0.0064306412
2230286620.0 0.0008627134 -0.0065098181
2235286590.0 0.0007240774 -0.0064219377
2240286560.0 0.0008848752 -0.0066100194
2245286530.0 0.0007913332 -0.0065733656
2250286500.0 0.0007439607 -0.0064931868
2255286470.0 0.0007700983 -0.0064038902
2260286440.0 0.0007635381 -0.0064225118
2265286410.0 0.0009527812 -0.0064568096
2270286380.0 0.0009290395 -0.0065965494
2275286350.0 0.0006743995 -0.0063150546
2280286320.0 0.0009603685 -0.0063916371
2285286290.0 0.0006835 -0.0064683921
2290286260.0 0.0006305959 -0.0063733541
2295286230.0 0.0008522574 -0.0064250753
2300286200.0 0.0007152546 -0.0063674952
2305286170.0 0.000489733 -0.0063157993
2310286140.0 0.0006373433 -0.0065306346
2315286110.0 0.0005440434 -0.0064637425
2320286080.0 0.0006663481 -0.0062633999
2325286050.0 0.0004901293 -0.0064288467
2330286020.0 0.000651713 -0.0064295394
2335285990.0 0.0006428538 -0.0062529675
2340285960.0 0.000487483 -0.0064933752
2345285930.0 0.0006346686 -0.0061259589
2350285900.0 0.0005625208 -0.0063269462
2355285870.0 0.0007062719 -0.0062144578
2360285840.0 0.0006037835 -0.0063289097
2365285810.0 0.0004962031 -0.0062850395
2370285780.0 0.0005849581 -0.0063044075
2375285750.0 0.0006981878 -0.0062455185
2380285720.0 0.0003808377 -0.0063005292
2385285690.0 0.0003811314 -0.0062337263
2390285660.0 0.0004301343 -0.006331699
2395285630.0 0.0005271073 -0.0062167862
2400285600.0 0.0004520071 -0.0061474252
2405285570.0 0.0005209163 -0.0065343629
2410285540.0 0.0003481663 -0.0061930935
2415285510.0 0.000228332 -0.0063137994
2420285480.0 0.0005146747 -0.0061612082
2425285450.0 0.0002259726 -0.0063093661
2430285420.0 0.0004171413 -0.0061888661
2435285390.0 0.000328411 -0.0064543381
2440285360.0 0.0002380761 -0.0061763804
2445285330.0 0.000121859 -0.0063627401
2450285300.0 0.0002454733 -0.0065282538
2455285270.0 0.0001529427 -0.0062305548
2460285240.0 0.0002920422 -0.0061625076
2465285210.0 0.0002369915 -0.0061457079
2470285180.0 0.0001596894 -0.0062063898
2475285150.0 -9.56889e-05 -0.0060573245
2480285120.0 0.0001711808 -0.0061702043
2485285090.0 0.0001020248 -0.006125234
2490285060.0 -1.5509e-06 -0.0062764164
2495285030.0 0.0002120959 -0.0063046328
2500285000.0 0.0001389411 -0.0061342887
2505284970.0 4.95312e-05 -0.0060785342
2510284940.0 0.0001534234 -0.006048091
2515284910.0 -6.34568e-05 -0.0063392001
2520284880.0 0.0001890305 -0.0062663054
2525284850.0 8.46732e-05 -0.006338285
2530284820.0 -1.67926e-05 -0.0061619175
