!Created with skrf (http://scikit-rf.org).
# Hz S RI R 50.0 
!freq ReS11 ImS11
300000.0 -1.029116515 -0.17140967
5299970.0 -1.002605781 0.0083427085
10299940.0 -1.001262237 0.0136789695
15299910.0 -1.000064842 0.0252347025
20299880.0 -1.000000892 0.0296383575
25299850.0 -0.999497644 0.0386400627
30299820.0 -0.9989008784 0.0463699915
35299790.0 -0.9980577939 0.0513443289
40299760.0 -0.997000192 0.0582497873
45299730.0 -0.9967176622 0.0653484266
50299700.0 -0.9956198212 0.0732336386
55299670.0 -0.995622834 0.0802595604
60299640.0 -0.9948257819 0.0872608979
65299610.0 -0.9940204251 0.0941182605
70299580.0 -0.9928755202 0.1011583338
75299550.0 -0.9922174368 0.1076430256
80299520.0 -0.9918338222 0.1146538651
85299490.0 -0.9901220293 0.1215133525
90299460.0 -0.9893726609 0.1288250301
95299430.0 -0.988203243 0.135518945
100299400.0 -0.9872664555 0.142870522
105299370.0 -0.9863728829 0.1498846002
110299340.0 -0.984423962 0.1566219212
115299310.0 -0.983176176 0.1627735408
120299280.0 -0.9825446337 0.1697247483
125299250.0 -0.9812250047 0.1766872856
130299220.0 -0.9795239888 0.183286077
135299190.0 -0.9785348066 0.1903625356
140299160.0 -0.9771036356 0.1970167494
145299130.0 -0.97573556 0.204044201
150299100.0 -0.9738620194 0.2105025897
155299070.0 -0.9718695933 0.2169413135
160299040.0 -0.9707593746 0.2240763199
165299010.0 -0.9693936627 0.2311155206
170298980.0 -0.9670238567 0.237449496
175298950.0 -0.9635117364 0.2435640137
180298920.0 -0.9615854689 0.2492605799
185298890.0 -0.9613678461 0.2566852934
190298860.0 -0.9604079705 0.2642096466
195298830.0 -0.9583311897 0.2710026024
200298800.0 -0.9565284064 0.2780817505
205298770.0 -0.9538446748 0.2840575719
210298740.0 -0.9522725454 0.2911446386
215298710.0 -0.9498069871 0.2977910297
220298680.0 -0.9482370892 0.3043059121
225298650.0 -0.9455937047 0.3109529959
230298620.0 -0.9441585005 0.3172290612
235298590.0 -0.9418958108 0.3241589433
240298560.0 -0.9393886282 0.330976723
245298530.0 -0.9362035482 0.3367510206
250298500.0 -0.9345151737 0.3437340845
255298470.0 -0.9324314597 0.3497903522
260298440.0 -0.9295885647 0.3565534139
265298410.0 -0.9270981936 0.3629746527
270298380.0 -0.9245017124 0.3697714385
275298350.0 -0.9214953134 0.3751203086
280298320.0 -0.9191953017 0.382034988
285298290.0 -0.9157450284 0.3883237494
290298260.0 -0.9132656819 0.3950712043
295298230.0 -0.9110657986 0.4010906242
300298200.0 -0.9079878316 0.4075772257
305298170.0 -0.9051368868 0.41331431
310298140.0 -0.9019982764 0.4200721187
315298110.0 -0.8992051743 0.4262360793
320298080.0 -0.8961772662 0.4320979959
325298050.0 -0.8925542392 0.4388647237
330298020.0 -0.8899237618 0.4447414944
335297990.0 -0.8864037223 0.4513789623
340297960.0 -0.8828084919 0.4569890174
345297930.0 -0.8807107468 0.4640775643
350297900.0 -0.8780349151 0.4696478597
355297870.0 -0.8742704213 0.4754873971
360297840.0 -0.87136506 0.4817362229
365297810.0 -0.8680446297 0.4875291399
370297780.0 -0.8640019563 0.493065439
375297750.0 -0.8602605612 0.499488681
380297720.0 -0.8563672374 0.5050830613
385297690.0 -0.8530268682 0.5118508686
390297660.0 -0.8489892524 0.517001094
395297630.0 -0.8450997371 0.5227476134
400297600.0 -0.8419284191 0.5286922148
405297570.0 -0.8382424216 0.5345974489
410297540.0 -0.8347956382 0.5400522685
415297510.0 -0.8310359563 0.5461632523
420297480.0 -0.8272516073 0.5523023354
425297450.0 -0.8229229795 0.5578758785
430297420.0 -0.8197025304 0.5640395397
435297390.0 -0.8150400285 0.569205353
440297360.0 -0.8112367681 0.5749865716
445297330.0 -0.8068716902 0.5804948053
450297300.0 -0.8029600492 0.5857435357
455297270.0 -0.7993123054 0.5915888224
460297240.0 -0.7947804115 0.5974193473
465297210.0 -0.7902278096 0.6020639249
470297180.0 -0.7862832952 0.6078529216
475297150.0 -0.7813336589 0.6137430072
480297120.0 -0.7774149888 0.6188662757
485297090.0 -0.7731072629 0.6241870074
490297060.0 -0.7694463897 0.6296794197
495297030.0 -0.7642979783 0.6345322088
500297000.0 -0.7602768287 0.6400412574
505296970.0 -0.7558241806 0.6452844518
510296940.0 -0.7512635637 0.65061746
515296910.0 -0.7471221944 0.6559776798
520296880.0 -0.7430717053 0.6610987858
525296850.0 -0.7388040544 0.6665139996
530296820.0 -0.7335066796 0.6710022251
535296790.0 -0.7288483314 0.6765640324
540296760.0 -0.7244785172 0.6816237416
545296730.0 -0.7191069302 0.6867811229
550296700.0 -0.713973094 0.6907384798
555296670.0 -0.7089938207 0.6959956192
560296640.0 -0.7040514312 0.7004396564
565296610.0 -0.6990490582 0.7063535901
570296580.0 -0.6941239635 0.7106391473
575296550.0 -0.6891001168 0.7156979694
580296520.0 -0.6841468379 0.7204674887
585296490.0 -0.6785558567 0.7250008862
590296460.0 -0.674221064 0.7296825716
595296430.0 -0.6690299979 0.7341292384
600296400.0 -0.6632557661 0.7382800823
605296370.0 -0.6584186365 0.7428791822
610296340.0 -0.6534734224 0.7475765018
615296310.0 -0.6481981483 0.7519309719
620296280.0 -0.6426190379 0.7565052567
625296250.0 -0.6374371306 0.7607509985
630296220.0 -0.6322509498 0.7650145779
635296190.0 -0.6265944658 0.7693089182
640296160.0 -0.6221039444 0.7733958226
645296130.0 -0.6166586695 0.7774362161
650296100.0 -0.6112200656 0.7818144367
655296070.0 -0.6053222884 0.7864497526
660296040.0 -0.5990114105 0.790822329
665296010.0 -0.5938466699 0.7941502384
670295980.0 -0.5888871421 0.7987424659
675295950.0 -0.5833047191 0.802765329
680295920.0 -0.5779410234 0.8068678493
685295890.0 -0.5723176161 0.8106000268
690295860.0 -0.566336417 0.8146341731
695295830.0 -0.5611589019 0.8182388756
700295800.0 -0.5549522532 0.8223245444
705295770.0 -0.5492186927 0.8259988279
710295740.0 -0.5433863313 0.8296453459
715295710.0 -0.5377614509 0.8336861375
720295680.0 -0.5320497207 0.8370824032
725295650.0 -0.5258800164 0.8405387019
730295620.0 -0.5207075222 0.8442557096
735295590.0 -0.5147025452 0.8479039669
740295560.0 -0.5091255872 0.8518526971
745295530.0 -0.5026920996 0.854948271
750295500.0 -0.4969157835 0.8579308605
755295470.0 -0.4909044809 0.8618750194
760295440.0 -0.4850259074 0.8651113161
765295410.0 -0.4789772473 0.868605455
770295380.0 -0.4723109442 0.8717843231
775295350.0 -0.4661995522 0.8755222758
780295320.0 -0.4605704716 0.8781159369
785295290.0 -0.4541872651 0.8808357722
790295260.0 -0.4482990787 0.8841545842
795295230.0 -0.4416165027 0.8874114152
800295200.0 -0.4353095163 0.8906727148
805295170.0 -0.4291049163 0.8929772711
810295140.0 -0.4239600505 0.8960042147
815295110.0 -0.4173936368 0.8993421541
820295080.0 -0.4111058193 0.9017908771
825295050.0 -0.4045364459 0.9046292294
830295020.0 -0.3985871518 0.9077129083
835294990.0 -0.3915690476 0.9101774568
840294960.0 -0.3856225728 0.9130654598
845294930.0 -0.3794839303 0.9155805048
850294900.0 -0.3727278944 0.9183442974
855294870.0 -0.3666711927 0.9207786408
860294840.0 -0.3601537045 0.9229048188
865294810.0 -0.3541220057 0.9258406744
870294780.0 -0.3474531853 0.9279915977
875294750.0 -0.3413426285 0.9303150938
880294720.0 -0.3348779076 0.9329371184
885294690.0 -0.3279990252 0.9348475213
890294660.0 -0.3219821774 0.9368676858
895294630.0 -0.3153576192 0.939203743
900294600.0 -0.3089477406 0.9409883132
905294570.0 -0.3019503838 0.9431192684
910294540.0 -0.2950291903 0.9450747449
915294510.0 -0.2891779102 0.9473930913
920294480.0 -0.282607745 0.9492764075
925294450.0 -0.2760037457 0.9513789311
930294420.0 -0.269278271 0.9527334549
935294390.0 -0.2628930731 0.9538119229
940294360.0 -0.2562678172 0.9560926983
945294330.0 -0.2496333224 0.9577645813
950294300.0 -0.242675465 0.9594807678
955294270.0 -0.2365046074 0.9611157837
960294240.0 -0.2292819147 0.9625034372
965294210.0 -0.2224625374 0.9644047695
970294180.0 -0.2157614028 0.9656948952
975294150.0 -0.2094630692 0.9673601672
980294120.0 -0.2028702402 0.9688193604
985294090.0 -0.1960303077 0.970363808
990294060.0 -0.1894197694 0.9713696989
995294030.0 -0.1822465076 0.9720897676
1000294000.0 -0.1757259367 0.973493838
1005293970.0 -0.1686202106 0.9754074183
1010293940.0 -0.1618923413 0.9763802428
1015293910.0 -0.1561564699 0.976786897
1020293880.0 -0.1492291829 0.9781291747
1025293850.0 -0.1425723566 0.9788268688
1030293820.0 -0.1359626672 0.9797389638
1035293790.0 -0.1285930803 0.9812071085
1040293760.0 -0.1219463332 0.9814326315
1045293730.0 -0.1146715549 0.9824375893
1050293700.0 -0.1080881471 0.9831480997
1055293670.0 -0.1014702042 0.9840280747
1060293640.0 -0.0946296531 0.9844929092
1065293610.0 -0.0876070906 0.9853847318
1070293580.0 -0.0811215455 0.9855959395
1075293550.0 -0.0742044025 0.9864085493
1080293520.0 -0.0671208279 0.986159643
1085293490.0 -0.0602360353 0.9875266834
1090293460.0 -0.0533660813 0.9876508535
1095293430.0 -0.0465306869 0.988182546
1100293400.0 -0.03949076 0.9879323027
1105293370.0 -0.0326183282 0.9881577626
1110293340.0 -0.0259794608 0.9887780636
1115293310.0 -0.0190425856 0.9884894056
1120293280.0 -0.0124159887 0.9884310385
1125293250.0 -0.0053683061 0.989192219
1130293220.0 0.000474501 0.9888884657
1135293190.0 0.0078216014 0.9888657894
1140293160.0 0.0148884676 0.9888587065
1145293130.0 0.0220194772 0.9885536112
1150293100.0 0.0287617969 0.9884247436
1155293070.0 0.0352670648 0.9881278255
1160293040.0 0.0425745835 0.9879111397
1165293010.0 0.0487928746 0.9880290648
1170292980.0 0.0554563604 0.9875069307
1175292950.0 0.0625022005 0.9869159151
1180292920.0 0.0691117737 0.986435933
1185292890.0 0.0761669075 0.9859051632
1190292860.0 0.0827969145 0.9854002692
1195292830.0 0.0897801203 0.9846562791
1200292800.0 0.0964373227 0.9836112762
1205292770.0 0.1032899254 0.9826430149
1210292740.0 0.1105130649 0.982215933
1215292710.0 0.1169108818 0.9816689094
1220292680.0 0.1235839935 0.981192127
1225292650.0 0.1307080337 0.9797483714
1230292620.0 0.1378078419 0.9792539055
1235292590.0 0.1443456996 0.9777029248
1240292560.0 0.1512508263 0.9769229957
1245292530.0 0.1576488739 0.9757070005
1250292500.0 0.1649523272 0.9746835241
1255292470.0 0.1716486901 0.9732894214
1260292440.0 0.1781079062 0.9720839072
1265292410.0 0.1847390677 0.9714371739
1270292380.0 0.1908510307 0.9698626659
1275292350.0 0.1983811208 0.9684390952
1280292320.0 0.2053194497 0.9669129995
1285292290.0 0.2119491412 0.9655662384
1290292260.0 0.2181587699 0.9637268609
1295292230.0 0.2247472549 0.9626448145
1300292200.0 0.2311844955 0.9603756285
1305292170.0 0.2377247676 0.959126021
1310292140.0 0.2448349653 0.9572595232
1315292110.0 0.2517153238 0.9554382879
1320292080.0 0.2578454452 0.9547103403
1325292050.0 0.2650611678 0.9525484398
1330292020.0 0.2715992004 0.9506162307
1335291990.0 0.2779729085 0.9482177186
1340291960.0 0.2851310933 0.9471343396
1345291930.0 0.2915067201 0.9450713429
1350291900.0 0.2981437048 0.942271998
1355291870.0 0.3047254729 0.9406919484
1360291840.0 0.3105720938 0.9380055366
1365291810.0 0.3169894449 0.936251444
1370291780.0 0.3235349531 0.9343480204
1375291750.0 0.3299828107 0.9315309716
1380291720.0 0.3365115369 0.9294333979
1385291690.0 0.3433942272 0.9273110912
1390291660.0 0.3497723673 0.9247618136
1395291630.0 0.3563190494 0.9221876175
1400291600.0 0.3626481053 0.9197311156
1405291570.0 0.3686827648 0.9176814137
1410291540.0 0.3762578822 0.9152472362
1415291510.0 0.3815704388 0.9121759372
1420291480.0 0.3877693182 0.9089738681
1425291450.0 0.3939430761 0.9064033331
1430291420.0 0.3998189567 0.9042958576
1435291390.0 0.4063316065 0.9010960767
1440291360.0 0.4124678404 0.8980394486
1445291330.0 0.418415319 0.8950574276
1450291300.0 0.4248949923 0.8927538337
1455291270.0 0.4305217752 0.8895302637
1460291240.0 0.4367963731 0.8866775647
1465291210.0 0.4431417851 0.8829222654
1470291180.0 0.449487087 0.880502571
1475291150.0 0.4552213391 0.8771514866
1480291120.0 0.4616486936 0.8745706869
1485291090.0 0.4675173506 0.870811507
1490291060.0 0.4739047089 0.8672309341
1495291030.0 0.4796249561 0.8647275232
1500291000.0 0.4856678047 0.8611383082
1505290970.0 0.4914280186 0.8576384883
1510290940.0 0.4973565861 0.8541259301
1515290910.0 0.503252389 0.851291249
1520290880.0 0.5095613534 0.8473196249
1525290850.0 0.5146409617 0.8441118132
1530290820.0 0.5207164319 0.8403545932
1535290790.0 0.5268711798 0.8366236629
1540290760.0 0.5328923639 0.8321900944
1545290730.0 0.5391175209 0.8284425476
1550290700.0 0.5447359165 0.8256099653
1555290670.0 0.5500794198 0.8216243116
1560290640.0 0.5554248079 0.8175521646
1565290610.0 0.5612217519 0.8141128718
1570290580.0 0.5670408357 0.8100667118
1575290550.0 0.5726097154 0.8064908301
1580290520.0 0.5788871363 0.801834114
1585290490.0 0.5844213285 0.7975600093
1590290460.0 0.5901140702 0.793828031
1595290430.0 0.595243777 0.7895033009
1600290400.0 0.5999479021 0.7861372603
1605290370.0 0.6055191425 0.7819262532
1610290340.0 0.6111625124 0.7771827212
1615290310.0 0.6170609111 0.7731159747
1620290280.0 0.6220844889 0.7694860432
1625290250.0 0.6275040388 0.765447847
1630290220.0 0.6322576643 0.7605243749
1635290190.0 0.6376499026 0.7563183965
1640290160.0 0.6429806968 0.7515749826
1645290130.0 0.6475489748 0.7474243405
1650290100.0 0.652871098 0.7425126543
1655290070.0 0.6586757188 0.7384076466
1660290040.0 0.6640539657 0.7330116081
1665290010.0 0.6683930065 0.7288278213
1670289980.0 0.6733368902 0.7240258497
1675289950.0 0.6785092374 0.7194786462
1680289920.0 0.6837302345 0.7149918039
1685289890.0 0.6884639865 0.7098765664
1690289860.0 0.6938925864 0.7048526994
1695289830.0 0.6990950059 0.6995706189
1700289800.0 0.7035152777 0.6947201225
1705289770.0 0.7084432107 0.6908054943
1710289740.0 0.7128441119 0.6851873483
1715289710.0 0.717813889 0.68024501
1720289680.0 0.7228771829 0.6756295464
1725289650.0 0.7273025396 0.6700229063
1730289620.0 0.7315168733 0.6654677343
1735289590.0 0.7368650025 0.6603961836
1740289560.0 0.7408828787 0.655782956
1745289530.0 0.7457026307 0.6502451299
1750289500.0 0.7497330278 0.6447481233
1755289470.0 0.754759986 0.6397234449
1760289440.0 0.7586512379 0.6349457914
1765289410.0 0.7630686018 0.6297724883
1770289380.0 0.7680285302 0.6247046851
1775289350.0 0.7716957604 0.6189844769
1780289320.0 0.7762598917 0.6142678033
1785289290.0 0.7807916187 0.6084983643
1790289260.0 0.7849175587 0.6034342437
1795289230.0 0.7890486782 0.5971097224
1800289200.0 0.7933383499 0.5919899483
1805289170.0 0.7974370854 0.5862395938
1810289140.0 0.8019035936 0.5812950055
1815289110.0 0.805815396 0.575685646
1820289080.0 0.8094664954 0.5702383068
1825289050.0 0.8128669777 0.5644084459
1830289020.0 0.8166349594 0.5595184758
1835288990.0 0.8207207983 0.5539552978
1840288960.0 0.8238194656 0.548416034
1845288930.0 0.8278946152 0.5425959947
1850288900.0 0.8318255508 0.5362518816
1855288870.0 0.8354159274 0.5310615771
1860288840.0 0.8393341621 0.524764017
1865288810.0 0.8429884387 0.5192524682
1870288780.0 0.8471255635 0.5131504521
1875288750.0 0.8504700365 0.5070284932
1880288720.0 0.8538376464 0.501101886
1885288690.0 0.8577945886 0.4946008749
1890288660.0 0.8611387607 0.48886676
1895288630.0 0.8649081875 0.4829633249
1900288600.0 0.8674116395 0.4769062198
1905288570.0 0.8700388407 0.4709818249
1910288540.0 0.8739152357 0.464637443
1915288510.0 0.8772304052 0.4587455244
1920288480.0 0.880663456 0.4526348801
1925288450.0 0.8838268949 0.4468630751
1930288420.0 0.8873702975 0.4404728058
1935288390.0 0.8893052969 0.4345975566
1940288360.0 0.8930553305 0.4281716217
1945288330.0 0.8961886408 0.4214719737
1950288300.0 0.89920916 0.4156227684
1955288270.0 0.9016354759 0.4086547833
1960288240.0 0.9048288238 0.4017220818
1965288210.0 0.9081202605 0.3960702782
1970288180.0 0.9098626933 0.3894300372
1975288150.0 0.9129025096 0.3839011095
1980288120.0 0.915186487 0.3770679504
1985288090.0 0.9179635862 0.3719807542
1990288060.0 0.9201906761 0.3652063803
1995288030.0 0.9235460673 0.3582935113
2000288000.0 0.9253444848 0.3525829675
2005287970.0 0.9280201009 0.3467221931
2010287940.0 0.930232454 0.3402150541
2015287910.0 0.932388134 0.3339119055
2020287880.0 0.9347826045 0.3270142124
2025287850.0 0.9376711025 0.3215912625
2030287820.0 0.9394898097 0.3142484706
2035287790.0 0.9408733122 0.3074487156
2040287760.0 0.9436698324 0.3011546478
2045287730.0 0.9454609631 0.2945095614
2050287700.0 0.9476214509 0.2885172281
2055287670.0 0.9494986386 0.2815680587
2060287640.0 0.9512934806 0.2752679411
2065287610.0 0.9532761244 0.2685503325
2070287580.0 0.9555830925 0.2616744349
2075287550.0 0.9570909594 0.2555512281
2080287520.0 0.9588170884 0.2486903909
2085287490.0 0.960274858 0.2421194819
2090287460.0 0.9628344932 0.2356906111
2095287430.0 0.9642067537 0.2292152606
2100287400.0 0.965950435 0.2222353189
2105287370.0 0.966759366 0.2149591224
2110287340.0 0.9685683086 0.2078039494
2115287310.0 0.9703379396 0.2021122082
2120287280.0 0.9715945989 0.194806853
2125287250.0 0.9725398403 0.1885815812
2130287220.0 0.9744187344 0.1815285742
2135287190.0 0.9748057566 0.1743259787
2140287160.0 0.9765614845 0.1680714932
2145287130.0 0.9772626321 0.1607303543
2150287100.0 0.9789042985 0.1544330677
2155287070.0 0.9797460621 0.1477121544
2160287040.0 0.9807922203 0.141415956
2165287010.0 0.981512197 0.1342288381
2170286980.0 0.9824990736 0.1278189034
2175286950.0 0.9833772163 0.121066875
2180286920.0 0.9844205456 0.1148364758
2185286890.0 0.9850061568 0.1082300117
2190286860.0 0.9855708606 0.1014000177
2195286830.0 0.9865105716 0.0949116566
2200286800.0 0.9872022172 0.0882262527
2205286770.0 0.9882594545 0.081711177
2210286740.0 0.9888380833 0.0749148505
2215286710.0 0.9884685422 0.0675725728
2220286680.0 0.9890507919 0.0609688088
2225286650.0 0.9899339048 0.0535202753
2230286620.0 0.990139347 0.0469305663
2235286590.0 0.9901380994 0.0401109878
2240286560.0 0.9911064688 0.0327907081
2245286530.0 0.9909808256 0.0260238265
2250286500.0 0.9910129468 0.019423194
2255286470.0 0.9913258738 0.0121083358
2260286440.0 0.9911446999 0.005306624
2265286410.0 0.9911068628 -0.001371573
2270286380.0 0.9915368452 -0.008223816
2275286350.0 0.9912082369 -0.0154969819
2280286320.0 0.9910190388 -0.022261432
2285286290.0 0.9908302 -0.0290164499
2290286260.0 0.9908333645 -0.0354389641
2295286230.0 0.990402239 -0.0429030946
2300286200.0 0.9903471009 -0.0496370806
2305286170.0 0.9893142354 -0.0566407131
2310286140.0 0.9888944982 -0.0635481869
2315286110.0 0.9883036499 -0.0698404844
2320286080.0 0.988354402 -0.0770481599
2325286050.0 0.987718747 -0.0834815501
2330286020.0 0.9870897172 -0.0900348148
2335285990.0 0.9869080973 -0.0973382781
2340285960.0 0.9856791514 -0.1038436224
2345285930.0 0.9847301466 -0.1101836607
2350285900.0 0.9845215018 -0.1177936307
2355285870.0 0.9835543375 -0.1243288245
2360285840.0 0.9828480936 -0.1315958799
2365285810.0 0.9815592912 -0.138624096
2370285780.0 0.9806711168 -0.1451057444
2375285750.0 0.9794248018 -0.1511277786
2380285720.0 0.9786615613 -0.1580569613
2385285690.0 0.9772364742 -0.1647924206
2390285660.0 0.97640246 -0.1712019888
2395285630.0 0.9745359471 -0.1783091173
2400285600.0 0.9739453208 -0.1849695149
2405285570.0 0.9723529305 -0.1913183454
2410285540.0 0.9711309471 -0.1982284425
2415285510.0 0.9697042623 -0.2040740852
2420285480.0 0.968447154 -0.2105437099
2425285450.0 0.9670755779 -0.2174835898
2430285420.0 0.9654013377 -0.2245572632
2435285390.0 0.9637683626 -0.2317140706
2440285360.0 0.9621253855 -0.2376253277
2445285330.0 0.9601049087 -0.2443051881
2450285300.0 0.9585203622 -0.2510238026
2455285270.0 0.9572439479 -0.257773158
2460285240.0 0.9548190041 -0.2647586282
2465285210.0 0.9525912297 -0.2709543792
2470285180.0 0.9511393114 -0.2774812374
2475285150.0 0.9487291542 -0.284470406
2480285120.0 0.9475960229 -0.2911026413
2485285090.0 0.9449269014 -0.2975514701
2490285060.0 0.9431604375 -0.3037367734
2495285030.0 0.9410359781 -0.3098432545
2500285000.0 0.9385959703 -0.3173284627
2505284970.0 0.936643089 -0.3237489747
2510284940.0 0.9342271591 -0.3304571405
2515284910.0 0.9318398543 -0.3368025315
2520284880.0 0.9296249582 -0.3423630149
2525284850.0 0.9269088815 -0.3495819923
2530284820.0 0.9246373974 -0.355766741
2535284790.0 0.9222430629 -0.3614862914
2540284760.0 0.9193751125 -0.367736699
2545284730.0 0.9173087 -0.3743757696
2550284700.0 0.9147411547 -0.3810343474
2555284670.0 0.9119860232 -0.3873389005
