!Created with skrf (http://scikit-rf.org).
# Hz S RI R 50.0 
!freq ReS11 ImS11
300000.0 -1.021148319 -0.1546728052
5299970.0 -1.003050059 0.0083885982
10299940.0 -1.000978092 0.0131144124
15299910.0 -1.000093381 0.024425363
20299880.0 -1.000374025 0.0287943491
25299850.0 -0.9992943149 0.0380094209
30299820.0 -0.9989265538 0.0458586177
35299790.0 -0.9988938787 0.0505634347
40299760.0 -0.9978151727 0.0577419338
45299730.0 -0.9970827234 0.0644447134
50299700.0 -0.9963019651 0.0717209252
55299670.0 -0.9953759009 0.0786302846
60299640.0 -0.9947108676 0.0857909998
65299610.0 -0.9943911723 0.0922425624
70299580.0 -0.993489985 0.099144872
75299550.0 -0.9928780032 0.1056551671
80299520.0 -0.9918233133 0.1126050619
85299490.0 -0.9906734363 0.1194286338
90299460.0 -0.989974275 0.1268301606
95299430.0 -0.9886556776 0.133231763
100299400.0 -0.987428593 0.1401023253
105299370.0 -0.9863490334 0.1471335724
110299340.0 -0.9854185713 0.1535451729
115299310.0 -0.983601139 0.1604860431
120299280.0 -0.9832110415 0.1674142577
125299250.0 -0.9817874122 0.1737128943
130299220.0 -0.9805518725 0.1805897953
135299190.0 -0.9792860729 0.1871794997
140299160.0 -0.9781546082 0.1938834787
145299130.0 -0.9761625248 0.2010315776
150299100.0 -0.9751057888 0.2074524715
155299070.0 -0.9732381309 0.2138635525
160299040.0 -0.9717548951 0.22085451
165299010.0 -0.9701969322 0.2275781081
170298980.0 -0.9683952539 0.2341536104
175298950.0 -0.9647714854 0.2403117298
180298920.0 -0.9628492666 0.2452961713
185298890.0 -0.9623102865 0.2525057168
190298860.0 -0.9619706125 0.2602803931
195298830.0 -0.9595817592 0.2667841665
200298800.0 -0.9579265878 0.2734479153
205298770.0 -0.9568473633 0.2801368109
210298740.0 -0.9538540176 0.2871453491
215298710.0 -0.9518926877 0.293118706
220298680.0 -0.9497509092 0.2997748733
225298650.0 -0.9481388511 0.3062535255
230298620.0 -0.9455630777 0.3129725833
235298590.0 -0.9439209735 0.3192437109
240298560.0 -0.9414505971 0.3256726971
245298530.0 -0.9389855608 0.3321675082
250298500.0 -0.9368728026 0.3386883887
255298470.0 -0.9344517609 0.3449500444
260298440.0 -0.9324771886 0.3513353909
265298410.0 -0.9293236473 0.3575267148
270298380.0 -0.9269134644 0.3640316269
275298350.0 -0.9242539114 0.3700146876
280298320.0 -0.9213785974 0.3766263034
285298290.0 -0.9191763653 0.3827298337
290298260.0 -0.9163265256 0.3893679929
295298230.0 -0.9134453081 0.3959097093
300298200.0 -0.9109768483 0.4015904754
305298170.0 -0.9081447715 0.4078808086
310298140.0 -0.9053728845 0.4136761604
315298110.0 -0.9030961204 0.4202694194
320298080.0 -0.8990720849 0.4262256627
325298050.0 -0.8967335351 0.4325961004
330298020.0 -0.8933085387 0.4386396413
335297990.0 -0.8906351567 0.4443152173
340297960.0 -0.8873326238 0.4510199756
345297930.0 -0.8842815323 0.4571248589
350297900.0 -0.8820383811 0.4631425002
355297870.0 -0.878682345 0.4693544887
360297840.0 -0.8761548084 0.4753394463
365297810.0 -0.8720504724 0.4810749873
370297780.0 -0.8685023667 0.4870119461
375297750.0 -0.8646023422 0.4934041602
380297720.0 -0.8608952943 0.4988595477
385297690.0 -0.8579959091 0.5044335586
390297660.0 -0.8542926325 0.5105456869
395297630.0 -0.8506848655 0.5164055195
400297600.0 -0.8467537663 0.5220093208
405297570.0 -0.843563741 0.5278352535
410297540.0 -0.8401048552 0.5333627157
415297510.0 -0.8360567961 0.5395544177
420297480.0 -0.8324846325 0.5451823868
425297450.0 -0.8282930593 0.5505810402
430297420.0 -0.8247380032 0.5569559529
435297390.0 -0.8210793885 0.5614844962
440297360.0 -0.8171367146 0.5671362802
445297330.0 -0.8134868911 0.5733129964
450297300.0 -0.809421451 0.5788998833
455297270.0 -0.8057766479 0.5843879305
460297240.0 -0.8011447343 0.589801829
465297210.0 -0.7973292616 0.5956048735
470297180.0 -0.7930124461 0.6007201134
475297150.0 -0.7883595746 0.6054806881
480297120.0 -0.7843890541 0.6116781329
485297090.0 -0.7806680276 0.6173635616
490297060.0 -0.7761610672 0.6219937088
495297030.0 -0.7723337839 0.6270128466
500297000.0 -0.76765806 0.6319331021
505296970.0 -0.7632044421 0.6376082515
510296940.0 -0.7596730462 0.6431609392
515296910.0 -0.754988051 0.6484760517
520296880.0 -0.7507062483 0.653595761
525296850.0 -0.7460586123 0.6586935903
530296820.0 -0.7416478278 0.6637532299
535296790.0 -0.7370776516 0.6691649268
540296760.0 -0.7321993934 0.673965239
545296730.0 -0.7277682823 0.6790825826
550296700.0 -0.7227744186 0.6838198332
555296670.0 -0.7179605037 0.6886648222
560296640.0 -0.7130273483 0.6932243586
565296610.0 -0.7087875141 0.6983295779
570296580.0 -0.7031645013 0.7025799213
575296550.0 -0.6979267245 0.7079673321
580296520.0 -0.6930863904 0.7127540795
585296490.0 -0.6885536736 0.7168783331
590296460.0 -0.6836560609 0.7218288777
595296430.0 -0.678503839 0.7261714306
600296400.0 -0.6732089429 0.7310047878
605296370.0 -0.6684236572 0.7357579973
610296340.0 -0.6633331761 0.7400277021
615296310.0 -0.6580751655 0.7446726909
620296280.0 -0.6533517465 0.7489147253
625296250.0 -0.6480360517 0.7531398584
630296220.0 -0.6438122197 0.757329944
635296190.0 -0.6377135331 0.7614385881
640296160.0 -0.6330321808 0.7661495359
645296130.0 -0.6274180147 0.7705600758
650296100.0 -0.6222010521 0.7749154761
655296070.0 -0.6168784464 0.7796862546
660296040.0 -0.6111775903 0.7828138149
665296010.0 -0.6055886988 0.7872469415
670295980.0 -0.6003285317 0.7908608061
675295950.0 -0.5947146571 0.7957385805
680295920.0 -0.5890473983 0.7996613843
685295890.0 -0.5842396963 0.8037397926
690295860.0 -0.5788228636 0.8077344265
695295830.0 -0.5735702085 0.8113304787
700295800.0 -0.5680652817 0.8157851536
705295770.0 -0.5620608047 0.8190715732
710295740.0 -0.5559808165 0.823441365
715295710.0 -0.5508016116 0.8269593689
720295680.0 -0.5447556421 0.8303199398
725295650.0 -0.5393521694 0.834565573
730295620.0 -0.5335425082 0.8381417215
735295590.0 -0.5278904314 0.8413980838
740295560.0 -0.5226102213 0.8447661114
745295530.0 -0.5166482245 0.8481774411
750295500.0 -0.5111867138 0.8522564481
755295470.0 -0.5048958956 0.8556286204
760295440.0 -0.49898378 0.8582975081
765295410.0 -0.4930509583 0.8621596036
770295380.0 -0.4870321223 0.8656862973
775295350.0 -0.4808558074 0.869175803
780295320.0 -0.4749117454 0.8720644961
785295290.0 -0.469115105 0.8751535118
790295260.0 -0.4627616363 0.878418163
795295230.0 -0.4569674256 0.8817865512
800295200.0 -0.450516519 0.8845958831
805295170.0 -0.4442519465 0.8873926686
810295140.0 -0.4382954034 0.8903234157
815295110.0 -0.4326326361 0.8933621213
820295080.0 -0.4261790364 0.8963224907
825295050.0 -0.4207926215 0.8992702613
830295020.0 -0.4140367654 0.9024429902
835294990.0 -0.4077844297 0.905024387
840294960.0 -0.4016317559 0.9076791228
845294930.0 -0.3950981602 0.910222501
850294900.0 -0.3893757184 0.9134064104
855294870.0 -0.3826248392 0.9159384328
860294840.0 -0.3766379539 0.9182038195
865294810.0 -0.370166278 0.9203447048
870294780.0 -0.3642920531 0.9229515524
875294750.0 -0.358149665 0.9258431845
880294720.0 -0.3510893389 0.9274183122
885294690.0 -0.3448195127 0.9302414911
890294660.0 -0.3383685304 0.932290905
895294630.0 -0.3317509381 0.9344600837
900294600.0 -0.3259472616 0.9367598964
905294570.0 -0.3195715897 0.9388016461
910294540.0 -0.3129168657 0.9408039454
915294510.0 -0.306572885 0.9427377428
920294480.0 -0.2997741023 0.9453575274
925294450.0 -0.2939170509 0.9469765563
930294420.0 -0.2871628177 0.9487762498
935294390.0 -0.2806189872 0.9507339872
940294360.0 -0.2746894353 0.952740924
945294330.0 -0.267815946 0.9541784862
950294300.0 -0.2611827525 0.956037388
955294270.0 -0.2545255099 0.9579241092
960294240.0 -0.2482331292 0.9597718125
965294210.0 -0.2414360111 0.9610397406
970294180.0 -0.2349450111 0.9632044737
975294150.0 -0.2284093462 0.9644231723
980294120.0 -0.2218034627 0.96587912
985294090.0 -0.215705905 0.9670466543
990294060.0 -0.2090007617 0.9687470527
995294030.0 -0.2020265081 0.9700938458
1000294000.0 -0.1952767849 0.9713232772
1005293970.0 -0.1885645961 0.9729007716
1010293940.0 -0.1821875255 0.9735539682
1015293910.0 -0.1755140771 0.9751993472
1020293880.0 -0.168725655 0.9761269459
1025293850.0 -0.1624903847 0.9775938046
1030293820.0 -0.1559470704 0.9786328842
1035293790.0 -0.149144364 0.9793304103
1040293760.0 -0.1421362302 0.9799195267
1045293730.0 -0.1353469441 0.981276032
1050293700.0 -0.1281275843 0.9820379772
1055293670.0 -0.1220116624 0.983278564
1060293640.0 -0.1153597165 0.9839893576
1065293610.0 -0.1082864578 0.9848959923
1070293580.0 -0.1017163809 0.9855884948
1075293550.0 -0.0954598451 0.9857741982
1080293520.0 -0.0882639022 0.9862903822
1085293490.0 -0.081117217 0.9869780618
1090293460.0 -0.0744847001 0.9876802995
1095293430.0 -0.0677172709 0.9878001076
1100293400.0 -0.0606828432 0.9879753139
1105293370.0 -0.0540668914 0.9889122318
1110293340.0 -0.0476955233 0.9887281535
1115293310.0 -0.0402984678 0.9893783968
1120293280.0 -0.0346073435 0.9900476653
1125293250.0 -0.0278312102 0.9897148979
1130293220.0 -0.0210477284 0.9900506144
1135293190.0 -0.0142386601 0.9906155423
1140293160.0 -0.0072462067 0.9907864528
1145293130.0 -0.0006991339 0.9901827021
1150293100.0 0.0062594314 0.9898343338
1155293070.0 0.0131881168 0.9901827753
1160293040.0 0.0205139179 0.99001476
1165293010.0 0.0265234 0.9901161674
1170292980.0 0.0332352791 0.989213304
1175292950.0 0.0400703278 0.9888291657
1180292920.0 0.0466609795 0.989114678
1185292890.0 0.0533350476 0.988719418
1190292860.0 0.0595893227 0.9880339209
1195292830.0 0.0668547981 0.9875413373
1200292800.0 0.0736492022 0.9878380466
1205292770.0 0.0799372882 0.9865606743
1210292740.0 0.0863906029 0.9860373202
1215292710.0 0.0936527031 0.9854460933
1220292680.0 0.1010580321 0.9845975264
1225292650.0 0.1073466825 0.9843829427
1230292620.0 0.1138617945 0.9828165341
1235292590.0 0.1209709858 0.9824893698
1240292560.0 0.1272446332 0.9817240581
1245292530.0 0.1339138672 0.9806494969
1250292500.0 0.1403563026 0.9789984885
1255292470.0 0.1472602766 0.9792070085
1260292440.0 0.1542621638 0.9777254047
1265292410.0 0.1611168457 0.9767976991
1270292380.0 0.1674885962 0.9763112549
1275292350.0 0.1739369016 0.9741796898
1280292320.0 0.1806877641 0.9729875695
1285292290.0 0.1875927607 0.9716639554
1290292260.0 0.1943841723 0.9699210389
1295292230.0 0.2003370272 0.9690636264
1300292200.0 0.2072246404 0.9671685557
1305292170.0 0.2138410264 0.9664465652
1310292140.0 0.2199553504 0.9652972505
1315292110.0 0.2267844347 0.9634402778
1320292080.0 0.2334309056 0.9618207647
1325292050.0 0.2395857987 0.9603473477
1330292020.0 0.2468940182 0.9588893556
1335291990.0 0.2538836993 0.9567456291
1340291960.0 0.2602592178 0.9548785262
1345291930.0 0.266986218 0.9531785188
1350291900.0 0.2733693322 0.9510170828
1355291870.0 0.2791983404 0.9493217057
1360291840.0 0.2862109377 0.9476106769
1365291810.0 0.2923684932 0.9459228976
1370291780.0 0.298454989 0.9439248652
1375291750.0 0.3048444174 0.9420607331
1380291720.0 0.3120971404 0.9391400598
1385291690.0 0.3178689321 0.9372669634
1390291660.0 0.3245624371 0.9350990524
1395291630.0 0.3311636398 0.9324817228
1400291600.0 0.3373319521 0.9300757227
1405291570.0 0.3440232007 0.9280261613
1410291540.0 0.3504358078 0.9264691581
1415291510.0 0.3565406428 0.9238308184
1420291480.0 0.3621338782 0.9210324402
1425291450.0 0.3686750731 0.9185815728
1430291420.0 0.374963387 0.9157440056
1435291390.0 0.3811255178 0.9137410058
1440291360.0 0.3867951947 0.9107460898
1445291330.0 0.3936950074 0.9083956602
1450291300.0 0.3992700508 0.9056334488
1455291270.0 0.405098986 0.9030981348
1460291240.0 0.4114691983 0.9003992756
1465291210.0 0.4181126055 0.8966331135
1470291180.0 0.4237773837 0.894224081
1475291150.0 0.4300415175 0.8917330418
1480291120.0 0.4365889847 0.8884661187
1485291090.0 0.4426292676 0.885762182
1490291060.0 0.4481805021 0.881937097
1495291030.0 0.4548155568 0.8788984871
1500291000.0 0.4601961944 0.8763233946
1505290970.0 0.4663004856 0.8729909671
1510290940.0 0.4722493759 0.8699277247
1515290910.0 0.4775341894 0.8665233169
1520290880.0 0.4835750641 0.864034202
1525290850.0 0.4894029383 0.8600517231
1530290820.0 0.4957377977 0.8569648078
1535290790.0 0.5024063933 0.8538080661
1540290760.0 0.5079734427 0.8492858965
1545290730.0 0.5134449928 0.846266473
1550290700.0 0.5195583719 0.8429129767
1555290670.0 0.5250487026 0.8389883916
1560290640.0 0.5307467285 0.8360987802
1565290610.0 0.5365590422 0.8327098111
1570290580.0 0.542645147 0.8284046344
1575290550.0 0.5474064741 0.8241253422
1580290520.0 0.5537324341 0.8211793901
1585290490.0 0.5594710947 0.8167444869
1590290460.0 0.5652471758 0.8132456919
1595290430.0 0.5701620952 0.8093736855
1600290400.0 0.5758699068 0.8056058406
1605290370.0 0.5814050379 0.8012627038
1610290340.0 0.5863338182 0.7972918049
1615290310.0 0.5923318723 0.7932091063
1620290280.0 0.5978371199 0.7893740362
1625290250.0 0.6029236881 0.7857808053
1630290220.0 0.6078821018 0.7816022989
1635290190.0 0.6135292708 0.7772251989
1640290160.0 0.6185420885 0.7727656442
1645290130.0 0.6233084706 0.7690547882
1650290100.0 0.6290598943 0.7652016547
1655290070.0 0.6345134922 0.7599351314
1660290040.0 0.6397493694 0.7558002412
1665290010.0 0.6448439784 0.7508631141
1670289980.0 0.6494080475 0.7473759907
1675289950.0 0.6550117068 0.742926796
1680289920.0 0.6594867991 0.7376294734
1685289890.0 0.665194283 0.7332201819
1690289860.0 0.671016173 0.7288509368
1695289830.0 0.6753846878 0.7237460887
1700289800.0 0.6804640171 0.7197244092
1705289770.0 0.6851714135 0.7142841346
1710289740.0 0.6902166365 0.7101237998
1715289710.0 0.6951026231 0.7055887817
1720289680.0 0.699445126 0.7003991501
1725289650.0 0.7053036235 0.6958002755
1730289620.0 0.7093985427 0.6909831643
1735289590.0 0.7137817112 0.6866121074
1740289560.0 0.7186836445 0.6814807133
1745289530.0 0.7236479208 0.6764870136
1750289500.0 0.7282321938 0.6719828022
1755289470.0 0.732414992 0.6671582757
1760289440.0 0.7370796362 0.6619687383
1765289410.0 0.7408316129 0.6573229803
1770289380.0 0.7457343541 0.6523386535
1775289350.0 0.7501908392 0.6468577873
1780289320.0 0.7546415557 0.6419601639
1785289290.0 0.7597858182 0.6371148262
1790289260.0 0.7637311177 0.6310228562
1795289230.0 0.7684964127 0.6261212672
1800289200.0 0.7727359856 0.6208782142
1805289170.0 0.7767453568 0.6159008679
1810289140.0 0.7807660538 0.6102781032
1815289110.0 0.7845893665 0.605664986
1820289080.0 0.7889445685 0.5999209193
1825289050.0 0.7926410626 0.5944463088
1830289020.0 0.7964084135 0.5892264541
1835288990.0 0.8005740547 0.5843689161
1840288960.0 0.8045008011 0.5786888694
1845288930.0 0.8082972654 0.5735564097
1850288900.0 0.812281296 0.5678477993
1855288870.0 0.8163337708 0.5620618642
1860288840.0 0.8200436445 0.5561881874
1865288810.0 0.8235895762 0.5507360825
1870288780.0 0.8276373356 0.5447836193
1875288750.0 0.8315429438 0.5388453138
1880288720.0 0.8355868603 0.533133018
1885288690.0 0.8391897107 0.5274405768
1890288660.0 0.8429247047 0.5217303145
1895288630.0 0.846410347 0.5155996239
1900288600.0 0.8494189961 0.5099715954
1905288570.0 0.8532100364 0.5040765357
1910288540.0 0.8567876825 0.4987712506
1915288510.0 0.8600549719 0.4927580519
1920288480.0 0.8637432714 0.4864583483
1925288450.0 0.8670393478 0.480757874
1930288420.0 0.8699793897 0.4752361639
1935288390.0 0.8735169513 0.4681936284
1940288360.0 0.8767198496 0.4624917156
1945288330.0 0.8795064938 0.4570223996
1950288300.0 0.8827262228 0.450847658
1955288270.0 0.8857034133 0.4448118621
1960288240.0 0.889520295 0.4378777141
1965288210.0 0.892172906 0.4317563321
1970288180.0 0.8953480072 0.4260233376
1975288150.0 0.898232755 0.4199490237
1980288120.0 0.9009801486 0.4143731177
1985288090.0 0.9039414593 0.4080532188
1990288060.0 0.9064863584 0.4022181523
1995288030.0 0.9091009618 0.3962350158
2000288000.0 0.9114454318 0.3904616943
2005287970.0 0.9134961826 0.3845228732
2010287940.0 0.9166331449 0.3783148564
2015287910.0 0.9194420003 0.3717352264
2020287880.0 0.9218742333 0.3657167091
2025287850.0 0.9241640553 0.3589068847
2030287820.0 0.9271479292 0.3528609003
2035287790.0 0.9290141359 0.3464529739
2040287760.0 0.9310518852 0.3401226127
2045287730.0 0.9333999551 0.3334095742
2050287700.0 0.9360039328 0.3277767995
2055287670.0 0.9384630822 0.32109413
2060287640.0 0.9405727219 0.3147647486
2065287610.0 0.9427875388 0.3080286586
2070287580.0 0.9444582181 0.3012769487
2075287550.0 0.9466365764 0.2951061657
2080287520.0 0.9486407484 0.2896189831
2085287490.0 0.9507821716 0.2828366681
2090287460.0 0.9527075604 0.2759817477
2095287430.0 0.9546489548 0.269276045
2100287400.0 0.9563412641 0.2627148202
2105287370.0 0.9582323758 0.2560873002
2110287340.0 0.960884276 0.2494608963
2115287310.0 0.961771766 0.2433322609
2120287280.0 0.9632841027 0.2369921079
2125287250.0 0.9646834752 0.2301908463
2130287220.0 0.9659613891 0.2233506844
2135287190.0 0.9677838757 0.2170383339
2140287160.0 0.9700127732 0.2103178484
2145287130.0 0.9707326984 0.2041003944
2150287100.0 0.9721795102 0.1966680052
2155287070.0 0.9741774897 0.1903612801
2160287040.0 0.9753519556 0.1843295555
2165287010.0 0.9761668237 0.1775927249
2170286980.0 0.9775927821 0.1709915464
2175286950.0 0.9784159137 0.1641594942
2180286920.0 0.9795608363 0.1574338875
2185286890.0 0.9807393897 0.1510162415
2190286860.0 0.980925388 0.1452356105
2195286830.0 0.9827813118 0.1385901345
2200286800.0 0.9830737857 0.1318862009
2205286770.0 0.9843014347 0.125750031
2210286740.0 0.9850206078 0.1184804952
2215286710.0 0.9864134342 0.1121950815
2220286680.0 0.9865594197 0.1050644095
2225286650.0 0.9873720817 0.098236466
2230286620.0 0.9877867859 0.0915229277
2235286590.0 0.9889889068 0.0848269797
2240286560.0 0.9895139313 0.0782731955
2245286530.0 0.9897481369 0.0707985177
2250286500.0 0.9904805162 0.0645231087
2255286470.0 0.9905312977 0.0576353749
2260286440.0 0.9912969771 0.0509337255
2265286410.0 0.9914817291 0.0438590554
2270286380.0 0.9911401205 0.0371914985
2275286350.0 0.9919221765 0.0300582134
2280286320.0 0.9923422103 0.0233153099
2285286290.0 0.9919717388 0.0163982049
2290286260.0 0.9923491595 0.0101144465
2295286230.0 0.9924645579 0.0030554956
2300286200.0 0.9928648507 -0.0036655019
2305286170.0 0.9923590087 -0.0100306057
2310286140.0 0.9925828035 -0.0170343236
2315286110.0 0.9921317395 -0.0240978159
2320286080.0 0.9926069373 -0.0308762465
2325286050.0 0.9920608364 -0.0371661084
2330286020.0 0.9914903868 -0.0441084708
2335285990.0 0.9908335438 -0.0503624511
2340285960.0 0.9907570604 -0.0568892386
2345285930.0 0.9898297088 -0.064022197
2350285900.0 0.9894242398 -0.0705035319
2355285870.0 0.9897223219 -0.077848327
2360285840.0 0.9890038735 -0.0849857029
2365285810.0 0.9877626979 -0.0913836003
2370285780.0 0.9876509598 -0.0980314741
2375285750.0 0.9867960712 -0.1049332728
2380285720.0 0.98637633 -0.1112202686
2385285690.0 0.9852371366 -0.1173006533
2390285660.0 0.9847218278 -0.1242857182
2395285630.0 0.9835083694 -0.1307706696
2400285600.0 0.9830934019 -0.1377211235
2405285570.0 0.9818850792 -0.144223894
2410285540.0 0.9806938676 -0.1502852631
2415285510.0 0.9803172156 -0.1567364531
2420285480.0 0.9789079747 -0.1641116735
2425285450.0 0.9778111102 -0.1702516747
2430285420.0 0.9761156815 -0.1776788377
2435285390.0 0.9755678569 -0.1836424602
2440285360.0 0.9741160426 -0.1901552832
2445285330.0 0.9727998413 -0.1971144982
2450285300.0 0.9713630241 -0.2031528151
2455285270.0 0.9697273442 -0.2104431923
2460285240.0 0.9680877424 -0.2167664229
2465285210.0 0.966664188 -0.2232533814
2470285180.0 0.9652091429 -0.2301248515
2475285150.0 0.9634841187 -0.2365371247
2480285120.0 0.9617737841 -0.2429924612
2485285090.0 0.9593586584 -0.24953826
2490285060.0 0.9584542692 -0.2563795076
2495285030.0 0.9566954868 -0.2626690589
2500285000.0 0.9551304681 -0.269853312
2505284970.0 0.9525848988 -0.2765175417
2510284940.0 0.9508142982 -0.2824932065
2515284910.0 0.9490481331 -0.2887313752
2520284880.0 0.9469218664 -0.2952740208
2525284850.0 0.9446949311 -0.3020477925
2530284820.0 0.942756962 -0.3083728018
2535284790.0 0.9408807635 -0.3142890526
2540284760.0 0.9387232882 -0.3204642623
2545284730.0 0.9361748536 -0.3267460491
2550284700.0 0.9341874223 -0.3339729455
