!Created with skrf (http://scikit-rf.org).
# Hz S RI R 50.0 
!freq ReS11 ImS11
300000.0 -1.019462618 -0.0938356681
5299970.0 -1.002035661 0.0104369643
10299940.0 -1.000592545 0.0148198752
15299910.0 -0.9995305215 0.0261877177
20299880.0 -0.9996025681 0.0307269365
25299850.0 -0.9983963116 0.0395538041
30299820.0 -0.9985804273 0.0472908117
35299790.0 -0.9977263897 0.0524228842
40299760.0 -0.9967486737 0.0596305246
45299730.0 -0.9961940083 0.0667232415
50299700.0 -0.9956958989 0.0742958965
55299670.0 -0.9949448703 0.0818142955
60299640.0 -0.9940046018 0.088390659
65299610.0 -0.9936499179 0.0954595604
70299580.0 -0.9923740641 0.1025339064
75299550.0 -0.991526244 0.1095524504
80299520.0 -0.9902463757 0.1165983953
85299490.0 -0.9896076543 0.1237518841
90299460.0 -0.9882169668 0.1306871922
95299430.0 -0.9877156884 0.1380958088
100299400.0 -0.9860832774 0.1453977728
105299370.0 -0.9851980195 0.1523572844
110299340.0 -0.9838828178 0.1590283161
115299310.0 -0.9821492929 0.1660472896
120299280.0 -0.981173599 0.1728236163
125299250.0 -0.9798073549 0.179832131
130299220.0 -0.9784497058 0.1872293527
135299190.0 -0.9772835634 0.1936493202
140299160.0 -0.9754679101 0.2008200144
145299130.0 -0.9746113409 0.2077645935
150299100.0 -0.9727456432 0.2144904069
155299070.0 -0.9704696838 0.2212168277
160299040.0 -0.9690743805 0.2284574468
165299010.0 -0.9678427795 0.2356523953
170298980.0 -0.9657749496 0.2426559024
175298950.0 -0.9616877833 0.2483564451
180298920.0 -0.9596264843 0.2546370046
185298890.0 -0.9588331979 0.2618391742
190298860.0 -0.9584178764 0.2696173702
195298830.0 -0.9560397683 0.2762667009
200298800.0 -0.9541513476 0.283372869
205298770.0 -0.9526691389 0.2904782395
210298740.0 -0.9497905584 0.2969271965
215298710.0 -0.9482781557 0.3036180421
220298680.0 -0.9455923506 0.3106929236
225298650.0 -0.9434057581 0.3170224842
230298620.0 -0.9409036971 0.3242700853
235298590.0 -0.9382582561 0.33061888
240298560.0 -0.9361020145 0.337053033
245298530.0 -0.934048123 0.3440499943
250298500.0 -0.9315917732 0.3505784978
255298470.0 -0.9287360341 0.3571158798
260298440.0 -0.9261702211 0.3636705905
265298410.0 -0.9234501053 0.3697012919
270298380.0 -0.9208882199 0.3765768018
275298350.0 -0.9181858662 0.3831947706
280298320.0 -0.9151354382 0.3893311247
285298290.0 -0.9127854806 0.3959915654
290298260.0 -0.9097249098 0.4027908843
295298230.0 -0.9070885005 0.4090266161
300298200.0 -0.9041315212 0.4156171235
305298170.0 -0.9007862969 0.4220780896
310298140.0 -0.897711261 0.4282935784
315298110.0 -0.8945657261 0.4347617875
320298080.0 -0.8914636949 0.4408194286
325298050.0 -0.888049859 0.4475818392
330298020.0 -0.8846881178 0.4535239776
335297990.0 -0.8813761207 0.4599477403
340297960.0 -0.8779486046 0.4661018571
345297930.0 -0.8751311438 0.4724203143
350297900.0 -0.8720089928 0.4788368048
355297870.0 -0.8692049593 0.484939138
360297840.0 -0.8658425109 0.490955288
365297810.0 -0.8622494364 0.4969198349
370297780.0 -0.8578904208 0.5030272442
375297750.0 -0.8541070622 0.508711388
380297720.0 -0.8501104605 0.5150738154
385297690.0 -0.8461249263 0.5215560453
390297660.0 -0.8422003679 0.5272635086
395297630.0 -0.8393606131 0.5334532167
400297600.0 -0.8352028577 0.5389141161
405297570.0 -0.8311098967 0.5449886387
410297540.0 -0.827650385 0.5510402907
415297510.0 -0.8228198173 0.556793278
420297480.0 -0.8194385252 0.5628881117
425297450.0 -0.8151061628 0.5688496882
430297420.0 -0.811339458 0.5741443405
435297390.0 -0.8070705327 0.5800033169
440297360.0 -0.8031565645 0.585431303
445297330.0 -0.7985622018 0.5919339824
450297300.0 -0.7944315738 0.5973291589
455297270.0 -0.790120175 0.6025847591
460297240.0 -0.7853609154 0.6084280444
465297210.0 -0.7818317586 0.6137531422
470297180.0 -0.7767969189 0.6190499124
475297150.0 -0.7723389561 0.6247513751
480297120.0 -0.7675962283 0.6303407292
485297090.0 -0.7636654908 0.6356553394
490297060.0 -0.7586813527 0.6412345339
495297030.0 -0.7545717233 0.646553458
500297000.0 -0.7503118063 0.6517322905
505296970.0 -0.7459157877 0.6573151796
510296940.0 -0.7414169395 0.6623109638
515296910.0 -0.7363498308 0.6675726382
520296880.0 -0.7322165849 0.673398035
525296850.0 -0.7269809963 0.6786040053
530296820.0 -0.7211391435 0.6834146065
535296790.0 -0.7167904604 0.6890537621
540296760.0 -0.7120590921 0.6940564572
545296730.0 -0.7075036972 0.6991119456
550296700.0 -0.7022583967 0.7035847376
555296670.0 -0.6972873485 0.7085028741
560296640.0 -0.6916863283 0.712909952
565296610.0 -0.6860174 0.7183173079
570296580.0 -0.6810899642 0.7232427638
575296550.0 -0.6756105779 0.727793788
580296520.0 -0.6701956988 0.733026076
585296490.0 -0.6652428113 0.7374438685
590296460.0 -0.6600000493 0.7423852504
595296430.0 -0.6546781136 0.7465713465
600296400.0 -0.6492301083 0.7508554961
605296370.0 -0.6438079315 0.755986105
610296340.0 -0.6386164257 0.7600230924
615296310.0 -0.6335770025 0.7648082698
620296280.0 -0.627897829 0.7696568024
625296250.0 -0.6225886523 0.7732501114
630296220.0 -0.6170859385 0.7775253498
635296190.0 -0.6112176978 0.7820737568
640296160.0 -0.6054792553 0.7866466492
645296130.0 -0.6005407291 0.790813067
650296100.0 -0.5940354908 0.7949501464
655296070.0 -0.588500487 0.7992419642
660296040.0 -0.5826223378 0.8031763676
665296010.0 -0.5773921029 0.8068896387
670295980.0 -0.5713166065 0.8114068902
675295950.0 -0.5652889648 0.8158462059
680295920.0 -0.5600141804 0.8193494099
685295890.0 -0.5543192035 0.8238565862
690295860.0 -0.5476069148 0.8273689721
695295830.0 -0.5425399879 0.8309725201
700295800.0 -0.5366978181 0.8350788113
705295770.0 -0.5310806812 0.8385528859
710295740.0 -0.5248969641 0.8422480149
715295710.0 -0.5184737748 0.8469665444
720295680.0 -0.5122544462 0.8497134946
725295650.0 -0.5062433273 0.8535765487
730295620.0 -0.5002128305 0.8568475538
735295590.0 -0.4939121737 0.8603700856
740295560.0 -0.4883094087 0.8641010459
745295530.0 -0.4818760293 0.8675145641
750295500.0 -0.4758872552 0.871083007
755295470.0 -0.4694077976 0.8742935161
760295440.0 -0.4633361299 0.8777522402
765295410.0 -0.4569488357 0.8807547787
770295380.0 -0.4503838603 0.8838802723
775295350.0 -0.4441852522 0.8873730506
780295320.0 -0.4375207324 0.8901290807
785295290.0 -0.4313042214 0.8934591878
790295260.0 -0.4247652349 0.8967086348
795295230.0 -0.4182437713 0.8992448195
800295200.0 -0.4120198443 0.9018004074
805295170.0 -0.4054626466 0.905186674
810295140.0 -0.3995001795 0.9081256358
815295110.0 -0.3928189925 0.9106611208
820295080.0 -0.3862905714 0.9129029423
825295050.0 -0.3797594123 0.91614731
830295020.0 -0.3731760407 0.9184531479
835294990.0 -0.3665596277 0.9214193372
840294960.0 -0.3600723677 0.9244595299
845294930.0 -0.3537829372 0.9261303368
850294900.0 -0.3472850059 0.9289192799
855294870.0 -0.3404359064 0.9317902614
860294840.0 -0.3338237469 0.9333490108
865294810.0 -0.3265589001 0.9358445473
870294780.0 -0.3200293822 0.9384523302
875294750.0 -0.3132623049 0.9407058766
880294720.0 -0.3067970879 0.9423862651
885294690.0 -0.3006018084 0.945048917
890294660.0 -0.2935089971 0.9463285862
895294630.0 -0.2865910172 0.9488683855
900294600.0 -0.280157554 0.9503530758
905294570.0 -0.2735537308 0.9527675189
910294540.0 -0.2666049765 0.9543510215
915294510.0 -0.2597586045 0.95616445
920294480.0 -0.2531388359 0.9577951099
925294450.0 -0.2456800093 0.9594788354
930294420.0 -0.2395106047 0.9612083152
935294390.0 -0.2328248693 0.9632539735
940294360.0 -0.2260524683 0.9646524566
945294330.0 -0.2193540304 0.9662878753
950294300.0 -0.2117205059 0.9674440732
955294270.0 -0.2051238566 0.9690743227
960294240.0 -0.197760985 0.9701804715
965294210.0 -0.1910023158 0.9723867871
970294180.0 -0.1838842843 0.9730610681
975294150.0 -0.1772730664 0.9746384756
980294120.0 -0.170735617 0.9756576856
985294090.0 -0.1638414665 0.9766385161
990294060.0 -0.1566881812 0.9777390128
995294030.0 -0.1495945273 0.9790512703
1000294000.0 -0.1422064223 0.9805394492
1005293970.0 -0.1354704396 0.9810899076
1010293940.0 -0.129072667 0.9821153184
1015293910.0 -0.1213551729 0.9830332313
1020293880.0 -0.1146881849 0.9834762482
1025293850.0 -0.1080636511 0.9843434488
1030293820.0 -0.1014346546 0.9848866597
1035293790.0 -0.0940912327 0.9857688255
1040293760.0 -0.0868446478 0.9860222642
1045293730.0 -0.0801097572 0.9867158326
1050293700.0 -0.0727265064 0.987563576
1055293670.0 -0.0657140044 0.9876657617
1060293640.0 -0.0586892647 0.9885224584
1065293610.0 -0.0515150075 0.9887468598
1070293580.0 -0.0450963144 0.988971787
1075293550.0 -0.0380344797 0.9888570971
1080293520.0 -0.0312220652 0.9894871908
1085293490.0 -0.0234647143 0.9899043816
1090293460.0 -0.016415834 0.9897686496
1095293430.0 -0.0094317784 0.9895763764
1100293400.0 -0.0018937261 0.9902887304
1105293370.0 0.0049404408 0.9897951209
1110293340.0 0.0118839347 0.989673535
1115293310.0 0.0193343962 0.9897260581
1120293280.0 0.0257977615 0.9892871825
1125293250.0 0.0321846691 0.9891357967
1130293220.0 0.0397184077 0.9896295357
1135293190.0 0.0465668571 0.9888886056
1140293160.0 0.0536688981 0.9882017725
1145293130.0 0.0603699181 0.9875635802
1150293100.0 0.0677383017 0.9873032415
1155293070.0 0.0748816484 0.9868022159
1160293040.0 0.0819026351 0.9866063479
1165293010.0 0.0887790806 0.9853452596
1170292980.0 0.0957937165 0.9850218241
1175292950.0 0.102699853 0.9840678648
1180292920.0 0.1099536046 0.983312442
1185292890.0 0.116589486 0.9823200324
1190292860.0 0.1236012097 0.9821453726
1195292830.0 0.1306374663 0.9807628972
1200292800.0 0.1373397539 0.9801044766
1205292770.0 0.1440251946 0.9788404553
1210292740.0 0.1512733335 0.9776756428
1215292710.0 0.1584762155 0.9766051084
1220292680.0 0.1656710934 0.9754706165
1225292650.0 0.1724294933 0.9743403383
1230292620.0 0.1799284406 0.9727644965
1235292590.0 0.1864288252 0.9714119967
1240292560.0 0.1928430149 0.9705374281
1245292530.0 0.1999268815 0.9692796461
1250292500.0 0.2068404989 0.967692618
1255292470.0 0.2141003952 0.9655804602
1260292440.0 0.2206745767 0.964539494
1265292410.0 0.2268447746 0.9626393089
1270292380.0 0.2345744 0.9613232451
1275292350.0 0.2409399359 0.959832469
1280292320.0 0.2481151278 0.9578452115
1285292290.0 0.2548604846 0.9561913451
1290292260.0 0.2620614353 0.9540564668
1295292230.0 0.2682604032 0.9528043193
1300292200.0 0.2748506001 0.9503047471
1305292170.0 0.2817782308 0.9485059273
1310292140.0 0.2885316773 0.9464851509
1315292110.0 0.2951592568 0.9448360489
1320292080.0 0.3021752593 0.9422153987
1325292050.0 0.3088722315 0.9402195808
1330292020.0 0.3155131609 0.9378384916
1335291990.0 0.3224450764 0.9355494988
1340291960.0 0.3290014024 0.9330252531
1345291930.0 0.3358344323 0.9309113934
1350291900.0 0.3425096653 0.9285509774
1355291870.0 0.3490164473 0.9260114044
1360291840.0 0.355164935 0.923522666
1365291810.0 0.3619678421 0.921076808
1370291780.0 0.3684502532 0.9182155417
1375291750.0 0.3749349889 0.9159811775
1380291720.0 0.3809684395 0.913469547
1385291690.0 0.3881360214 0.9098599917
1390291660.0 0.3948775162 0.9077694103
1395291630.0 0.4010844875 0.9045609561
1400291600.0 0.4074239186 0.901546689
1405291570.0 0.4137074407 0.8993193181
1410291540.0 0.4198359467 0.8958608224
1415291510.0 0.4266654312 0.8930151688
1420291480.0 0.4327643518 0.8903071326
1425291450.0 0.4391249264 0.8868946887
1430291420.0 0.4454047124 0.8835259417
1435291390.0 0.4510980462 0.8807097081
1440291360.0 0.4577671115 0.8769491595
1445291330.0 0.4638701433 0.8743674733
1450291300.0 0.4697782618 0.8710356415
1455291270.0 0.475671007 0.8670935919
1460291240.0 0.4816339336 0.8643349073
1465291210.0 0.4881234116 0.8606600351
1470291180.0 0.4944341289 0.8567452143
1475291150.0 0.500834294 0.8538692773
1480291120.0 0.5067707149 0.8499775138
1485291090.0 0.5124151964 0.8465376439
1490291060.0 0.5189361125 0.8430217867
1495291030.0 0.5246649434 0.8384572476
1500291000.0 0.530667195 0.8349897213
1505290970.0 0.536677558 0.8317637391
1510290940.0 0.5425590191 0.8276906086
1515290910.0 0.5480089502 0.8240608414
1520290880.0 0.5540172866 0.8200063578
1525290850.0 0.5597691843 0.8163010861
1530290820.0 0.5658385934 0.8116794012
1535290790.0 0.5718917719 0.8078016766
1540290760.0 0.5780412852 0.8038172774
1545290730.0 0.5838506282 0.7996919006
1550290700.0 0.5889726518 0.7950737387
1555290670.0 0.5944217251 0.7909955418
1560290640.0 0.600215751 0.7871766492
1565290610.0 0.6057313316 0.7827814226
1570290580.0 0.6111310418 0.7789971439
1575290550.0 0.6160435012 0.7744748959
1580290520.0 0.6221893806 0.7693930279
1585290490.0 0.6282781599 0.7654416387
1590290460.0 0.6333463183 0.7612048101
1595290430.0 0.6387232448 0.756226734
1600290400.0 0.6440360232 0.7514111846
1605290370.0 0.6498153156 0.7479744074
1610290340.0 0.6552467427 0.7425051556
1615290310.0 0.6596273133 0.7383612718
1620290280.0 0.6650135109 0.733491707
1625290250.0 0.6707850186 0.7291473545
1630290220.0 0.6756730974 0.7241266844
1635290190.0 0.681012532 0.7195394956
1640290160.0 0.6853196462 0.7141590883
1645290130.0 0.6905655075 0.7094552709
1650290100.0 0.6954037603 0.7044748387
1655290070.0 0.7008755619 0.7000354991
1660290040.0 0.7059515028 0.6945146303
1665290010.0 0.7111741983 0.6895351281
1670289980.0 0.7155689343 0.6846266587
1675289950.0 0.720170777 0.6794276877
1680289920.0 0.72525945 0.6742719472
1685289890.0 0.7303827056 0.6687062835
1690289860.0 0.7350905982 0.6632812566
1695289830.0 0.739791568 0.6576673503
1700289800.0 0.7443941655 0.6530969993
1705289770.0 0.749149388 0.6474495902
1710289740.0 0.7541146804 0.6423254325
1715289710.0 0.7585136503 0.6362337411
1720289680.0 0.7631317429 0.6311924185
1725289650.0 0.7676419287 0.6263378581
1730289620.0 0.7718339327 0.6207036492
1735289590.0 0.776157399 0.6159049998
1740289560.0 0.7807351903 0.6098318283
1745289530.0 0.7847437395 0.6043137015
1750289500.0 0.7885776918 0.5989929567
1755289470.0 0.7937181607 0.5931219056
1760289440.0 0.7975559969 0.5872820484
1765289410.0 0.8013958307 0.5818914499
1770289380.0 0.8056737141 0.5764962868
1775289350.0 0.8096294512 0.5713609941
1780289320.0 0.8137161623 0.5644272299
1785289290.0 0.8182575064 0.5589578352
1790289260.0 0.8217118176 0.553377868
1795289230.0 0.8261902414 0.5468638375
1800289200.0 0.8301680906 0.5411106396
1805289170.0 0.8334971276 0.5353413674
1810289140.0 0.8376192959 0.5294120726
1815289110.0 0.841124508 0.5240086024
1820289080.0 0.8449179223 0.5180473804
1825289050.0 0.8482771556 0.5123643262
1830289020.0 0.8519730676 0.506161365
1835288990.0 0.8556941232 0.500419778
1840288960.0 0.8582684942 0.4946145105
1845288930.0 0.8624015765 0.4889412918
1850288900.0 0.8661247705 0.4823501724
1855288870.0 0.869274147 0.4756473623
1860288840.0 0.8724958597 0.4694450032
1865288810.0 0.8764467022 0.4634627138
1870288780.0 0.8793429003 0.4566454801
1875288750.0 0.8826350312 0.4511496708
1880288720.0 0.8866633015 0.4439434096
1885288690.0 0.8889343113 0.4377094113
1890288660.0 0.8924419716 0.4314158351
1895288630.0 0.8956321902 0.4249713839
1900288600.0 0.8986980343 0.4186676104
1905288570.0 0.9015529837 0.4128922495
1910288540.0 0.9040480266 0.4053169463
1915288510.0 0.907398197 0.3990180217
1920288480.0 0.9100449595 0.3926532385
1925288450.0 0.9135292412 0.3868980229
1930288420.0 0.9159153691 0.3803740999
1935288390.0 0.9184176935 0.3729853912
1940288360.0 0.9213558874 0.3666676386
1945288330.0 0.9240964353 0.3602023866
1950288300.0 0.9262075005 0.3534909361
1955288270.0 0.9285914387 0.3462367043
1960288240.0 0.9317964503 0.3392246747
1965288210.0 0.933999723 0.3325198198
1970288180.0 0.9364244381 0.3261842213
1975288150.0 0.9385922849 0.3197304024
1980288120.0 0.9408495719 0.3130618126
1985288090.0 0.9434429216 0.30727251
1990288060.0 0.9450642204 0.3004949677
1995288030.0 0.9469285772 0.294501117
2000288000.0 0.9495570788 0.2871597777
2005287970.0 0.9509713935 0.2812301456
2010287940.0 0.9530695569 0.274603456
2015287910.0 0.9554390483 0.2674699159
2020287880.0 0.956938452 0.2604594202
2025287850.0 0.9584539404 0.2536124791
2030287820.0 0.9601642373 0.2467212876
2035287790.0 0.9620463391 0.2404719583
2040287760.0 0.963975291 0.2330477872
2045287730.0 0.9654938416 0.2261430367
2050287700.0 0.9670116278 0.2192757543
2055287670.0 0.9691612618 0.2129092939
2060287640.0 0.9701548391 0.2059385614
2065287610.0 0.9712796041 0.1992725833
2070287580.0 0.9735439343 0.1925857643
2075287550.0 0.9742483369 0.184946032
2080287520.0 0.97637017 0.178210602
2085287490.0 0.9770432383 0.1716737876
2090287460.0 0.9785945282 0.1644227936
2095287430.0 0.9795775394 0.1571622291
2100287400.0 0.980063818 0.1500912557
2105287370.0 0.9818218301 0.1432087507
2110287340.0 0.9826424563 0.1364721302
2115287310.0 0.9834960632 0.1291720898
2120287280.0 0.984824012 0.1223859089
2125287250.0 0.985099767 0.1152363036
2130287220.0 0.9857475068 0.1086161706
2135287190.0 0.9869101788 0.1009200256
2140287160.0 0.9875984744 0.093768345
2145287130.0 0.9881246666 0.0871926933
2150287100.0 0.9893707263 0.0801446329
2155287070.0 0.9901093095 0.0731597603
2160287040.0 0.9897573672 0.0668298605
2165287010.0 0.9899021747 0.0594125507
2170286980.0 0.9907817615 0.0524068588
2175286950.0 0.9914156803 0.0448988592
2180286920.0 0.9918220165 0.0387412764
2185286890.0 0.9924203564 0.0321724304
2190286860.0 0.9925220944 0.0251852112
2195286830.0 0.9923595261 0.0182386077
2200286800.0 0.9923878753 0.0116175103
2205286770.0 0.9931550304 0.0046862454
2210286740.0 0.9921419858 -0.0024753001
2215286710.0 0.9925687342 -0.0095176122
2220286680.0 0.9926065568 -0.0168920218
2225286650.0 0.9923052984 -0.0241060884
2230286620.0 0.9919589367 -0.0308508449
2235286590.0 0.9914642581 -0.0381063013
2240286560.0 0.9912378027 -0.0453902315
2245286530.0 0.9907556521 -0.0521898815
2250286500.0 0.9908491226 -0.0593997154
2255286470.0 0.9900212205 -0.0667415902
2260286440.0 0.98964412 -0.0735797573
2265286410.0 0.989086042 -0.0803562172
2270286380.0 0.9882377129 -0.0875134948
2275286350.0 0.9882650744 -0.0948795974
2280286320.0 0.9872342222 -0.1015864418
2285286290.0 0.9866836406 -0.1085173782
2290286260.0 0.9857032001 -0.1159751217
2295286230.0 0.9843680496 -0.1229702686
2300286200.0 0.9843070759 -0.129711455
2305286170.0 0.9832691313 -0.1363058118
2310286140.0 0.9820795792 -0.1435608384
2315286110.0 0.9810407765 -0.1505933455
2320286080.0 0.9802044032 -0.1575148936
2325286050.0 0.978852852 -0.1647272596
2330286020.0 0.977504275 -0.1713938427
2335285990.0 0.9764467115 -0.1783172899
2340285960.0 0.9751978639 -0.1845750547
2345285930.0 0.9735039535 -0.1922488004
2350285900.0 0.9722753223 -0.1991782637
2355285870.0 0.9707716598 -0.2063404871
2360285840.0 0.9694301772 -0.2128690584
2365285810.0 0.9678914431 -0.21991133
2370285780.0 0.9665594693 -0.2264751911
2375285750.0 0.9649266644 -0.2334067439
2380285720.0 0.9630484338 -0.2399182493
2385285690.0 0.9610391226 -0.2468220615
2390285660.0 0.9595075284 -0.2535213141
2395285630.0 0.9572957993 -0.2601331108
2400285600.0 0.9557521489 -0.2671449025
2405285570.0 0.9534894733 -0.2742474961
2410285540.0 0.9515912933 -0.2804982113
2415285510.0 0.949933342 -0.2868303007
2420285480.0 0.9480697272 -0.2927680023
2425285450.0 0.9452827964 -0.3003669186
2430285420.0 0.9432187738 -0.3064580322
2435285390.0 0.9415061547 -0.3138761686
2440285360.0 0.9392498696 -0.3204357131
2445285330.0 0.936690799 -0.3269071763
2450285300.0 0.9342492787 -0.3337075657
2455285270.0 0.9319333887 -0.3402556575
2460285240.0 0.9297834946 -0.3473911637
2465285210.0 0.9270924129 -0.3536449133
2470285180.0 0.9243326074 -0.360232856
2475285150.0 0.9224230628 -0.3666327805
2480285120.0 0.9189228473 -0.3733868455
2485285090.0 0.9164270349 -0.3796725307
2490285060.0 0.9137052656 -0.386132379
2495285030.0 0.9114809335 -0.3925078029
2500285000.0 0.9080544371 -0.3994725544
2505284970.0 0.9055198995 -0.4062977622
2510284940.0 0.9022732117 -0.4124384162
2515284910.0 0.8989224595 -0.4186544327
2520284880.0 0.8965785551 -0.4249757876
2525284850.0 0.8934204704 -0.4313223533
2530284820.0 0.8902521497 -0.4371023187
2535284790.0 0.8873616547 -0.4432631226
2540284760.0 0.8839996268 -0.4495543398
2545284730.0 0.8806820462 -0.4558303553
2550284700.0 0.8773704411 -0.4621207216
