!Created with skrf (http://scikit-rf.org).
# Hz S RI R 50.0 
!freq ReS11 ImS11
300000.0 -0.0067102986 -0.0405353031
5299970.0 -0.0001443418 -0.0003318165
10299940.0 0.0003823208 -0.0006339077
15299910.0 0.0005059203 0.0005186149
20299880.0 0.0004654454 -0.000171579
25299850.0 0.0005433993 0.0005145419
30299820.0 0.0006233545 0.0005926445
35299790.0 0.0004507097 0.0002797331
40299760.0 0.0005362085 0.0003255051
45299730.0 0.0004519248 0.0005197721
50299700.0 0.0007452206 0.0008104843
55299670.0 0.0006980551 0.0005892598
60299640.0 0.0008896024 0.0007025007
65299610.0 0.0008695586 0.0004842256
70299580.0 0.00086978 0.0006528836
75299550.0 0.0009026236 0.0005216348
80299520.0 0.001170448 0.0007580468
85299490.0 0.0010383657 0.0005240732
90299460.0 0.0013024545 0.0004830749
95299430.0 0.0010058935 0.000822521
100299400.0 0.0012255205 0.0006039822
105299370.0 0.0012062718 0.0008831757
110299340.0 0.0012949904 0.0008512644
115299310.0 0.0012196275 0.0007216068
120299280.0 0.0011056837 0.0009331023
125299250.0 0.0012849197 0.000850286
130299220.0 0.0013357212 0.000718191
135299190.0 0.0012114762 0.000820483
140299160.0 0.0013004286 0.0011564853
145299130.0 0.0014288993 0.0010409039
150299100.0 0.0015302622 0.000927783
155299070.0 0.0013052629 0.0007391016
160299040.0 0.0017451149 0.0008773571
165299010.0 0.0015604413 0.0008146351
170298980.0 0.0016203273 0.001096773
175298950.0 0.0016154974 0.0009278775
180298920.0 0.0013680212 0.0009686383
185298890.0 0.0015149655 0.0009187689
190298860.0 0.001485619 0.0009475881
195298830.0 0.0016550077 0.0010074464
200298800.0 0.001803098 0.0009936451
205298770.0 0.0017713712 0.000935663
210298740.0 0.0018243027 0.000838758
215298710.0 0.0017571525 0.0009394989
220298680.0 0.0018619357 0.000928342
225298650.0 0.0019136271 0.0012291886
230298620.0 0.0016477546 0.0011040293
235298590.0 0.0017944507 0.0008792866
240298560.0 0.0018951258 0.0008995144
245298530.0 0.0017646001 0.0011292606
250298500.0 0.0017230433 0.0010011581
255298470.0 0.0020340257 0.0010974874
260298440.0 0.0019839707 0.0009588454
265298410.0 0.0020239363 0.0010580085
270298380.0 0.0018567958 0.0010321306
275298350.0 0.0018818215 0.0010029059
280298320.0 0.0019368018 0.0009627629
285298290.0 0.0019146652 0.0009026593
290298260.0 0.0018989602 0.0009417836
295298230.0 0.00176764 0.0008626311
300298200.0 0.0020806229 0.0010986774
305298170.0 0.0021426924 0.0009757984
310298140.0 0.0019619687 0.0006934881
315298110.0 0.0023097162 0.0008873327
320298080.0 0.0021494733 0.0008688606
325298050.0 0.0020237725 0.0008017787
330298020.0 0.0021850721 0.0009601201
335297990.0 0.0020926546 0.0008937724
340297960.0 0.0021646745 0.0009850226
345297930.0 0.0021793729 0.0011022836
350297900.0 0.0022954619 0.0008270477
355297870.0 0.0024287081 0.0007711728
360297840.0 0.0023752715 0.0007086674
365297810.0 0.002317995 0.000851367
370297780.0 0.0022397205 0.0010985314
375297750.0 0.002181985 0.0008758365
380297720.0 0.0023218977 0.0008722256
385297690.0 0.0022198986 0.0010434687
390297660.0 0.0023533661 0.0010274429
395297630.0 0.0023396452 0.0006266417
400297600.0 0.0022297437 0.0009785147
405297570.0 0.0023056508 0.0008300548
410297540.0 0.0024213741 0.0007528111
415297510.0 0.002434129 0.0005194226
420297480.0 0.0024358398 0.0007631378
425297450.0 0.0026517054 0.0009968888
430297420.0 0.00266722 0.0006676787
435297390.0 0.0025521079 0.00070304
440297360.0 0.0024296912 0.0009008034
445297330.0 0.002679333 0.0007183714
450297300.0 0.002651123 0.0006384672
455297270.0 0.0025135967 0.0007227185
460297240.0 0.0024401936 0.0006104735
465297210.0 0.0024586265 0.0006446428
470297180.0 0.0024968399 0.0006017179
475297150.0 0.0027275362 0.0006034367
480297120.0 0.0026753967 0.0006988468
485297090.0 0.0025756747 0.0007728192
490297060.0 0.0025616754 0.0005177737
495297030.0 0.0026025443 0.0006839958
500297000.0 0.0024665348 0.0007284636
505296970.0 0.0026157332 0.0006635274
510296940.0 0.0027163013 0.0005156518
515296910.0 0.0024429889 0.0006499415
520296880.0 0.0023349683 0.0008018633
525296850.0 0.0025332685 0.0006181979
530296820.0 0.0024849591 0.0006173147
535296790.0 0.0023639431 0.0005229591
540296760.0 0.0024879623 0.000554951
545296730.0 0.0024707467 0.0005170712
550296700.0 0.0025849011 0.0001657149
555296670.0 0.0028411999 0.000437081
560296640.0 0.002681355 0.0005319589
565296610.0 0.002612067 0.0002003628
570296580.0 0.0027014781 0.0002275108
575296550.0 0.0028208825 0.0003440896
580296520.0 0.0027611381 0.0004328521
585296490.0 0.0027177665 0.0004393266
590296460.0 0.0026810744 0.0001533295
595296430.0 0.0028078363 4.41142e-05
600296400.0 0.0026916457 0.0001803528
605296370.0 0.0029504926 0.0004258769
610296340.0 0.0026569101 0.0002830684
615296310.0 0.0028674629 0.0001472964
620296280.0 0.0028335565 0.0001448434
625296250.0 0.0027523625 0.000132576
630296220.0 0.002893998 4.00859e-05
635296190.0 0.0028430763 2.73804e-05
640296160.0 0.0026444518 3.33774e-05
645296130.0 0.0027508785 5.44844e-05
650296100.0 0.0027893131 -1.941e-07
655296070.0 0.0028940919 5.25256e-05
660296040.0 0.0030378158 -5.85087e-05
665296010.0 0.0029265973 -0.0001540333
670295980.0 0.002986196 -8.62411e-05
675295950.0 0.0027707655 5.47309e-05
680295920.0 0.0029983166 -5.16777e-05
685295890.0 0.0028278965 -0.0001213338
690295860.0 0.0030422251 -0.0001029898
695295830.0 0.0030218869 -0.0001038837
700295800.0 0.0029776573 -0.0001240686
705295770.0 0.0028216763 -0.0001146646
710295740.0 0.0029257314 -0.0003875605
715295710.0 0.0030099388 -0.0002728999
720295680.0 0.0029694156 -0.0001884703
725295650.0 0.0029248103 -0.000264836
730295620.0 0.0028871534 -0.0001543781
735295590.0 0.002995091 -0.0003536532
740295560.0 0.0029247884 -8.82565e-05
745295530.0 0.0028066979 -0.000338708
750295500.0 0.0029879218 -0.0003506662
755295470.0 0.0029716035 -0.0003888753
760295440.0 0.002756798 -0.0003096263
765295410.0 0.0029989991 -0.0002090838
770295380.0 0.0028443128 -0.0005632774
775295350.0 0.0029246645 -0.0003246853
780295320.0 0.0029307609 -0.0007124202
785295290.0 0.0029436215 -0.000709352
790295260.0 0.0028879276 -0.0004458091
795295230.0 0.002905456 -0.000651659
800295200.0 0.0028209165 -0.000635616
805295170.0 0.0029703714 -0.0007223801
810295140.0 0.0028334644 -0.0009184036
815295110.0 0.0031229724 -0.0006919826
820295080.0 0.0029952552 -0.000732721
825295050.0 0.0030006343 -0.0008739364
830295020.0 0.0029763817 -0.0008712644
835294990.0 0.0030476199 -0.0008554553
840294960.0 0.0029487177 -0.0007165256
845294930.0 0.0029201395 -0.0008917365
850294900.0 0.0030327137 -0.0009722235
855294870.0 0.0029665041 -0.0009263358
860294840.0 0.0030999834 -0.000862915
865294810.0 0.002978569 -0.0011001965
870294780.0 0.0029058004 -0.0009577992
875294750.0 0.0028370156 -0.0010415445
880294720.0 0.0027933626 -0.0012296464
885294690.0 0.0029828718 -0.0010568454
890294660.0 0.0029214374 -0.001249788
895294630.0 0.0029380684 -0.0010706023
900294600.0 0.0030168903 -0.0011248729
905294570.0 0.0030205076 -0.0012814977
910294540.0 0.0030547407 -0.0012617995
915294510.0 0.0028857858 -0.0011945423
920294480.0 0.0029590299 -0.0013199385
925294450.0 0.0031226934 -0.0013631959
930294420.0 0.0029536352 -0.0012849252
935294390.0 0.0031266842 -0.0013665899
940294360.0 0.0028661401 -0.0015729432
945294330.0 0.0027781785 -0.0016290028
950294300.0 0.0030373855 -0.0015236213
955294270.0 0.0030322978 -0.0014383361
960294240.0 0.0029727821 -0.0013396338
965294210.0 0.0029982278 -0.0016817458
970294180.0 0.003200301 -0.0013977995
975294150.0 0.0030250769 -0.0015367105
980294120.0 0.0031476354 -0.0016333606
985294090.0 0.0030109776 -0.001731648
990294060.0 0.0027337418 -0.0017158894
995294030.0 0.0028832475 -0.0018539869
1000294000.0 0.0031861318 -0.0017184749
1005293970.0 0.0030007846 -0.0018156464
1010293940.0 0.0028855578 -0.0020564163
1015293910.0 0.0030435463 -0.0018248666
1020293880.0 0.0030321629 -0.0019441772
1025293850.0 0.0031593305 -0.0018619428
1030293820.0 0.003152776 -0.0020339408
1035293790.0 0.0027731052 -0.0021260561
1040293760.0 0.0029405796 -0.0017434207
1045293730.0 0.0030524687 -0.0020841988
1050293700.0 0.0030359718 -0.0020271781
1055293670.0 0.003194804 -0.0020649866
1060293640.0 0.0033585634 -0.0022025388
1065293610.0 0.0029539632 -0.0022186497
1070293580.0 0.0032013796 -0.0020379725
1075293550.0 0.0029778075 -0.002054904
1080293520.0 0.0030983083 -0.0022277585
1085293490.0 0.0029794506 -0.0021220083
1090293460.0 0.0028818698 -0.0020817572
1095293430.0 0.0028287581 -0.0021849635
1100293400.0 0.0029986255 -0.0022187041
1105293370.0 0.0029323924 -0.0024269236
1110293340.0 0.0029974901 -0.0025690272
1115293310.0 0.0029924503 -0.0022781031
1120293280.0 0.0029896005 -0.0024522936
1125293250.0 0.0028507676 -0.0022951301
1130293220.0 0.0031955544 -0.0023100281
1135293190.0 0.0029917872 -0.0022550094
1140293160.0 0.0028061184 -0.0022344795
1145293130.0 0.0028245484 -0.0021925864
1150293100.0 0.0029064326 -0.0022758273
1155293070.0 0.0026174401 -0.0022958503
1160293040.0 0.0026664391 -0.002338754
1165293010.0 0.0026472512 -0.0023177326
1170292980.0 0.0027972122 -0.0024488073
1175292950.0 0.0029324327 -0.0025507194
1180292920.0 0.0027338853 -0.0025567628
1185292890.0 0.0028537027 -0.0026916325
1190292860.0 0.0030295267 -0.0029564811
1195292830.0 0.0030569344 -0.0028530426
1200292800.0 0.0031059771 -0.0027509528
1205292770.0 0.0031504754 -0.0027507582
1210292740.0 0.0029789742 -0.0029188494
1215292710.0 0.0029649127 -0.0029606513
1220292680.0 0.0029501465 -0.0029807977
1225292650.0 0.0031910535 -0.0028880859
1230292620.0 0.0029615695 -0.0031003293
1235292590.0 0.0029667459 -0.0030512799
1240292560.0 0.0031290327 -0.0029578283
1245292530.0 0.0030039288 -0.0029903684
1250292500.0 0.0031172024 -0.003192566
1255292470.0 0.0030762132 -0.0031207082
1260292440.0 0.003012291 -0.0031291402
1265292410.0 0.0030703064 -0.0030421635
1270292380.0 0.0030404636 -0.0032355385
1275292350.0 0.0030639928 -0.003100301
1280292320.0 0.0029424131 -0.0032684669
1285292290.0 0.003016433 -0.0032336658
1290292260.0 0.0030037026 -0.0030626756
1295292230.0 0.0030629773 -0.0032955791
1300292200.0 0.0030412498 -0.0034186704
1305292170.0 0.0031462612 -0.0034024919
1310292140.0 0.0030004388 -0.0033836078
1315292110.0 0.0031054698 -0.0032615409
1320292080.0 0.0030975063 -0.0034140763
1325292050.0 0.0031005547 -0.0034475324
1330292020.0 0.0029488965 -0.00359285
1335291990.0 0.0029019514 -0.0035198991
1340291960.0 0.003267296 -0.0034422394
1345291930.0 0.0028180352 -0.0035638617
1350291900.0 0.0032339728 -0.0035775115
1355291870.0 0.002986127 -0.003866655
1360291840.0 0.0029524771 -0.0037304022
1365291810.0 0.0030382296 -0.0036235474
1370291780.0 0.0029851891 -0.0036017446
1375291750.0 0.0032187534 -0.0034398189
1380291720.0 0.0031701 -0.0036810364
1385291690.0 0.0029609646 -0.0037990706
1390291660.0 0.003135247 -0.0036660099
1395291630.0 0.0030746062 -0.0036805719
1400291600.0 0.0029839571 -0.0039602754
1405291570.0 0.0029664517 -0.0036318293
1410291540.0 0.0031561653 -0.0037959561
1415291510.0 0.0030070472 -0.0038164578
1420291480.0 0.0029803995 -0.0038548508
1425291450.0 0.0031294556 -0.0040542559
1430291420.0 0.0029504743 -0.0040427791
1435291390.0 0.0031335185 -0.0040801473
1440291360.0 0.0031027009 -0.0040138931
1445291330.0 0.0028481142 -0.0039231953
1450291300.0 0.0029523897 -0.0041318994
1455291270.0 0.0030159694 -0.0038860846
1460291240.0 0.0030132539 -0.0040838076
1465291210.0 0.0030544438 -0.0042026192
1470291180.0 0.0029337108 -0.003980508
1475291150.0 0.0028977368 -0.0038991804
1480291120.0 0.0028198872 -0.0039895893
1485291090.0 0.0031183605 -0.0039805542
1490291060.0 0.0026928795 -0.0041565795
1495291030.0 0.002991941 -0.0041814618
1500291000.0 0.0028796281 -0.0041340213
1505290970.0 0.0029823622 -0.0044466906
1510290940.0 0.0028991759 -0.0042497737
1515290910.0 0.003035925 -0.0042435339
1520290880.0 0.0030448857 -0.0043432735
1525290850.0 0.0028110259 -0.0043079429
1530290820.0 0.0030637293 -0.0043769647
1535290790.0 0.0030288959 -0.0043937306
1540290760.0 0.0029412983 -0.00426442
1545290730.0 0.0029931444 -0.0046218572
1550290700.0 0.003100536 -0.0043059095
1555290670.0 0.003072738 -0.004456501
1560290640.0 0.0028969566 -0.0044107327
1565290610.0 0.0030244292 -0.0044110494
1570290580.0 0.0027864334 -0.0046836146
1575290550.0 0.002879771 -0.0046596113
1580290520.0 0.0031907198 -0.0044276393
1585290490.0 0.003041607 -0.0046518703
1590290460.0 0.0027849142 -0.0046913946
1595290430.0 0.0030121872 -0.0046749011
1600290400.0 0.0028852526 -0.0045152694
1605290370.0 0.0030618146 -0.0042371708
1610290340.0 0.0028257099 -0.0042929559
1615290310.0 0.0027255488 -0.0046922625
1620290280.0 0.0028689578 -0.0045981857
1625290250.0 0.00290453 -0.0046016425
1630290220.0 0.0029623181 -0.0047984719
1635290190.0 0.002884983 -0.0048256705
1640290160.0 0.0028524077 -0.0047934329
1645290130.0 0.0030824591 -0.0048231665
1650290100.0 0.0027831059 -0.0047642698
1655290070.0 0.0028440702 -0.0045925443
1660290040.0 0.0029604226 -0.0047411507
1665290010.0 0.0029389565 -0.0049619133
1670289980.0 0.0029220251 -0.0049062529
1675289950.0 0.0030183609 -0.004938251
1680289920.0 0.0028335408 -0.0049105434
1685289890.0 0.0028321024 -0.0048415421
1690289860.0 0.0028274274 -0.0049791507
1695289830.0 0.0028821822 -0.0048751205
1700289800.0 0.0029057335 -0.0051139218
1705289770.0 0.0027640219 -0.0049885124
1710289740.0 0.0029753843 -0.0049068207
1715289710.0 0.0029959953 -0.0048601742
1720289680.0 0.0027677198 -0.0050110521
1725289650.0 0.0029567705 -0.0049368883
1730289620.0 0.0028798604 -0.0049786148
1735289590.0 0.0029354927 -0.0049929533
1740289560.0 0.0029936064 -0.0050552211
1745289530.0 0.002836602 -0.0049849147
1750289500.0 0.0029874214 -0.0050169295
1755289470.0 0.0027902556 -0.0050403938
1760289440.0 0.002780705 -0.005075551
1765289410.0 0.002985238 -0.0050817634
1770289380.0 0.0029602538 -0.0050921223
1775289350.0 0.0029970787 -0.0049880879
1780289320.0 0.0029433352 -0.0050073204
1785289290.0 0.0029757174 -0.0052476922
1790289260.0 0.00303872 -0.0049839561
1795289230.0 0.0029606372 -0.0051185059
1800289200.0 0.0029643483 -0.005115301
1805289170.0 0.0028778285 -0.005222735
1810289140.0 0.0029589609 -0.0052700145
1815289110.0 0.0031200022 -0.005264316
1820289080.0 0.0031493509 -0.004883466
1825289050.0 0.0028429396 -0.0050613182
1830289020.0 0.002969155 -0.0052236854
1835288990.0 0.0029040347 -0.0051861665
1840288960.0 0.0028974728 -0.0053128229
1845288930.0 0.0029803001 -0.0051096873
1850288900.0 0.0028395249 -0.0052810492
1855288870.0 0.0028663757 -0.0053548983
1860288840.0 0.0027134308 -0.0052279488
1865288810.0 0.0027500161 -0.0052478992
1870288780.0 0.0028859559 -0.0053293432
1875288750.0 0.002711733 -0.0052705402
1880288720.0 0.0029624659 -0.0051715051
1885288690.0 0.0029571145 -0.00544519
1890288660.0 0.0029612611 -0.0053143785
1895288630.0 0.00292 -0.0053116287
1900288600.0 0.0027635092 -0.0051597637
1905288570.0 0.0030308838 -0.0051437614
1910288540.0 0.0030443807 -0.0052421429
1915288510.0 0.0028243271 -0.0054000346
1920288480.0 0.0032337404 -0.0054065106
1925288450.0 0.002912797 -0.0054104553
1930288420.0 0.0030456419 -0.0053160356
1935288390.0 0.0029856906 -0.0052394843
1940288360.0 0.002876323 -0.0051794369
1945288330.0 0.002999862 -0.0051399807
1950288300.0 0.0029687552 -0.0053373493
1955288270.0 0.0031443167 -0.0054374292
1960288240.0 0.0029699564 -0.0054043203
1965288210.0 0.0030338269 -0.0051558265
1970288180.0 0.0029937422 -0.0053108098
1975288150.0 0.0028844324 -0.0051535166
1980288120.0 0.0028857501 -0.0052269202
1985288090.0 0.0028348803 -0.0052418449
1990288060.0 0.0026647085 -0.0051678305
1995288030.0 0.0031593887 -0.0054269194
2000288000.0 0.0028934738 -0.0051379768
2005287970.0 0.0030280116 -0.0053331455
2010287940.0 0.0027773609 -0.0052723229
2015287910.0 0.0028686284 -0.0051556727
2020287880.0 0.0027774783 -0.0052379454
2025287850.0 0.0028619135 -0.0053185412
2030287820.0 0.0028529571 -0.0051621685
2035287790.0 0.0027764743 -0.0056217067
2040287760.0 0.002705108 -0.0051979873
2045287730.0 0.0028542887 -0.0050973019
2050287700.0 0.0025420016 -0.0051283852
2055287670.0 0.0026366877 -0.0051088149
2060287640.0 0.0028087355 -0.0052588993
2065287610.0 0.0027646424 -0.0052196374
2070287580.0 0.0026172805 -0.0051459764
2075287550.0 0.0028056936 -0.0052526923
2080287520.0 0.0028454733 -0.0052245516
2085287490.0 0.0028109671 -0.0053122535
2090287460.0 0.002745977 -0.0053481906
2095287430.0 0.0028673156 -0.0050121693
2100287400.0 0.002737475 -0.0052096136
2105287370.0 0.0028544227 -0.005065693
2110287340.0 0.0028174056 -0.0052319599
2115287310.0 0.002729429 -0.0052005837
2120287280.0 0.0027576197 -0.0052099267
2125287250.0 0.0027752733 -0.0049621931
2130287220.0 0.0026418166 -0.00518775
2135287190.0 0.0025247467 -0.0050421864
2140287160.0 0.0027325304 -0.0054446569
2145287130.0 0.0027450779 -0.0052906429
2150287100.0 0.0029377757 -0.0051575039
2155287070.0 0.0025506486 -0.0049431913
2160287040.0 0.0026177588 -0.0050489216
2165287010.0 0.0026691959 -0.0050196308
2170286980.0 0.0026684417 -0.0052523502
2175286950.0 0.0027020472 -0.005157297
2180286920.0 0.0026039178 -0.0051532833
2185286890.0 0.0026198261 -0.0051556313
2190286860.0 0.0024808103 -0.0050189154
2195286830.0 0.002659433 -0.0051032773
2200286800.0 0.0026544054 -0.005098652
2205286770.0 0.002579774 -0.0050809872
2210286740.0 0.0025824441 -0.0047801641
2215286710.0 0.0026150393 -0.0050012299
2220286680.0 0.0027306346 -0.0050593395
2225286650.0 0.0026806111 -0.0051268592
2230286620.0 0.002459161 -0.0050032653
2235286590.0 0.0026810852 -0.0049004465
2240286560.0 0.0024968322 -0.0050354379
2245286530.0 0.0024807449 -0.0049746253
2250286500.0 0.002572317 -0.0051054732
2255286470.0 0.0023430116 -0.0049563934
2260286440.0 0.0025036757 -0.0050154202
2265286410.0 0.0026543032 -0.0049975109
2270286380.0 0.0023123765 -0.0049782374
2275286350.0 0.0024765575 -0.0048640727
2280286320.0 0.0026155195 -0.0051590241
2285286290.0 0.002737914 -0.0049427558
2290286260.0 0.0025634711 -0.0049436112
2295286230.0 0.0024766019 -0.0050493616
2300286200.0 0.0024317804 -0.0050392559
2305286170.0 0.0024914032 -0.0049882405
2310286140.0 0.0025261933 -0.0051135451
2315286110.0 0.0025323329 -0.0048290001
2320286080.0 0.0024401787 -0.0048941757
2325286050.0 0.0023643031 -0.0048855709
2330286020.0 0.0023184997 -0.0049056855
2335285990.0 0.002362245 -0.0050182307
2340285960.0 0.0024172843 -0.0048362715
2345285930.0 0.0021453421 -0.0050455792
2350285900.0 0.0023775537 -0.004770835
2355285870.0 0.0025330081 -0.0048574863
2360285840.0 0.0022381843 -0.0047791304
2365285810.0 0.0022679526 -0.0050175551
2370285780.0 0.0020661788 -0.0048763374
2375285750.0 0.0022714649 -0.0049377238
2380285720.0 0.0021660149 -0.0045926504
2385285690.0 0.0022860599 -0.0048760328
2390285660.0 0.0021731762 -0.0047472964
2395285630.0 0.0021607033 -0.0048436484
2400285600.0 0.0023090238 -0.0046682947
2405285570.0 0.0022168237 -0.0047718227
2410285540.0 0.002216593 -0.0046792003
2415285510.0 0.0023216259 -0.0047715564
2420285480.0 0.0021909639 -0.0047335041
2425285450.0 0.0021260098 -0.0048382844
2430285420.0 0.002095892 -0.0047092175
2435285390.0 0.002221734 -0.004729443
2440285360.0 0.002116927 -0.0049709522
2445285330.0 0.0020461206 -0.0047337925
2450285300.0 0.0021426302 -0.004682784
2455285270.0 0.0022405918 -0.0049884806
2460285240.0 0.0022065681 -0.0046710989
2465285210.0 0.0023039637 -0.00467288
2470285180.0 0.002053577 -0.0046087187
2475285150.0 0.0021779387 -0.0046300405
2480285120.0 0.0019479778 -0.0046629172
2485285090.0 0.0018712766 -0.0046755674
2490285060.0 0.0019193768 -0.0044723967
2495285030.0 0.001906098 -0.0046394082
2500285000.0 0.0019506926 -0.0045507897
2505284970.0 0.0018650799 -0.0045402366
2510284940.0 0.0021939365 -0.0046125209
2515284910.0 0.0020733686 -0.0048274287
2520284880.0 0.0019796447 -0.0046427549
2525284850.0 0.0020303468 -0.0046929393
2530284820.0 0.0017753249 -0.0048615122
2535284790.0 0.0020318705 -0.0044371491
2540284760.0 0.001977921 -0.0045904063
2545284730.0 0.0018472983 -0.0046751773
