!Created with skrf (http://scikit-rf.org).
# Hz S RI R 50.0 
!freq ReS11 ImS11
300000.0 -1.028945593 -0.1232976539
5299970.0 -1.001936992 0.0097943854
10299940.0 -1.000262041 0.0137663875
15299910.0 -0.999027457 0.0249864786
20299880.0 -0.9989694265 0.0287750729
25299850.0 -0.9983998553 0.0369692441
30299820.0 -0.998072693 0.0446131728
35299790.0 -0.9968855889 0.0493863116
40299760.0 -0.9958298879 0.0561620197
45299730.0 -0.9956410353 0.063139806
50299700.0 -0.9951206335 0.0695923846
55299670.0 -0.9941437271 0.0767912114
60299640.0 -0.9933041453 0.0826569104
65299610.0 -0.9924833638 0.0890571398
70299580.0 -0.9917170341 0.0956916276
75299550.0 -0.9913853991 0.1019403094
80299520.0 -0.9901725912 0.1089540512
85299490.0 -0.9894871691 0.1149397019
90299460.0 -0.988107816 0.1219377454
95299430.0 -0.9872330901 0.1280236448
100299400.0 -0.986154886 0.1345316771
105299370.0 -0.9848541786 0.1419515664
110299340.0 -0.9842230798 0.1483405037
115299310.0 -0.9830098283 0.1545198254
120299280.0 -0.9820095753 0.1611503981
125299250.0 -0.9808551135 0.1672204185
130299220.0 -0.9796202817 0.1739430698
135299190.0 -0.9785008041 0.1801146685
140299160.0 -0.9771493003 0.1867867062
145299130.0 -0.9761667095 0.1931241827
150299100.0 -0.974308099 0.1997471568
155299070.0 -0.9730896457 0.2058226274
160299040.0 -0.9719993371 0.2125949324
165299010.0 -0.9702451546 0.2190595034
170298980.0 -0.9689280823 0.2247060884
175298950.0 -0.9652356253 0.2305307623
180298920.0 -0.9628853454 0.2361573513
185298890.0 -0.9626868641 0.2431054395
190298860.0 -0.9622165837 0.250437931
195298830.0 -0.9604180808 0.2570384345
200298800.0 -0.9584203113 0.2633611306
205298770.0 -0.9567875963 0.2700234692
210298740.0 -0.9548700888 0.2757925621
215298710.0 -0.9535346935 0.2828869648
220298680.0 -0.9510315739 0.2886870489
225298650.0 -0.9495913534 0.2948148221
230298620.0 -0.9472905092 0.3009079058
235298590.0 -0.9454962172 0.3072480567
240298560.0 -0.9435383781 0.3132422471
245298530.0 -0.9410747228 0.3195734296
250298500.0 -0.9392241923 0.3255856779
255298470.0 -0.9370320493 0.3321851647
260298440.0 -0.9347494876 0.3380124514
265298410.0 -0.9328199961 0.344600574
270298380.0 -0.9297755745 0.3503897267
275298350.0 -0.9278111294 0.356752605
280298320.0 -0.9251052288 0.3621096177
285298290.0 -0.922650643 0.3684002186
290298260.0 -0.9199505559 0.3747383645
295298230.0 -0.9176069166 0.3806243887
300298200.0 -0.9150301681 0.3872274947
305298170.0 -0.912528756 0.39288946
310298140.0 -0.9096159095 0.398673237
315298110.0 -0.9073245373 0.4052836377
320298080.0 -0.9041449069 0.4101494072
325298050.0 -0.9015728146 0.4166797779
330298020.0 -0.8981287485 0.4228622864
335297990.0 -0.8957740744 0.4283938528
340297960.0 -0.8932176771 0.4342366275
345297930.0 -0.8910241877 0.4399106439
350297900.0 -0.8877286807 0.4464959924
355297870.0 -0.8852515581 0.4520028172
360297840.0 -0.8825923685 0.4578677291
365297810.0 -0.8792920536 0.4636980994
370297780.0 -0.875801145 0.4694919689
375297750.0 -0.8723130145 0.4747332806
380297720.0 -0.8688892846 0.4803748372
385297690.0 -0.865474079 0.4863010664
390297660.0 -0.8628809535 0.4922170262
395297630.0 -0.8596454406 0.4977076128
400297600.0 -0.8557690534 0.5034680157
405297570.0 -0.8527001402 0.5091189821
410297540.0 -0.8491081435 0.5145653255
415297510.0 -0.8457278749 0.5199809827
420297480.0 -0.8422092804 0.5255538567
425297450.0 -0.8379378224 0.5312807316
430297420.0 -0.8347168783 0.5372886318
435297390.0 -0.8315432784 0.5421689053
440297360.0 -0.8277238207 0.5479464272
445297330.0 -0.8239076268 0.55321982
450297300.0 -0.8204996838 0.5588713132
455297270.0 -0.817041794 0.5639508436
460297240.0 -0.8127233205 0.5693779733
465297210.0 -0.8092707204 0.5748068851
470297180.0 -0.8053951518 0.5802452881
475297150.0 -0.8014286203 0.5850425291
480297120.0 -0.797890453 0.5905867557
485297090.0 -0.7938696124 0.5962438313
490297060.0 -0.7897977246 0.6006741266
495297030.0 -0.7851567425 0.6070988273
500297000.0 -0.7815308646 0.6111073131
505296970.0 -0.7777659186 0.6164222331
510296940.0 -0.7742166006 0.6215856135
515296910.0 -0.770264264 0.62702389
520296880.0 -0.7662343038 0.6320278696
525296850.0 -0.7618992281 0.6366245639
530296820.0 -0.7578149993 0.642051924
535296790.0 -0.7536509531 0.6469379305
540296760.0 -0.7488029363 0.6522146686
545296730.0 -0.744903863 0.6571022146
550296700.0 -0.7402160067 0.662053788
555296670.0 -0.7353750086 0.6660321176
560296640.0 -0.7309252949 0.6710095557
565296610.0 -0.726368033 0.6756155144
570296580.0 -0.7219290849 0.6807066731
575296550.0 -0.7172724036 0.6858089429
580296520.0 -0.7125439086 0.6904478073
585296490.0 -0.7081143121 0.6951349249
590296460.0 -0.7031289968 0.699671558
595296430.0 -0.6981951882 0.7042562055
600296400.0 -0.6937849012 0.709260219
605296370.0 -0.6894779539 0.7123043186
610296340.0 -0.6846499201 0.7172593538
615296310.0 -0.6798790296 0.7218477904
620296280.0 -0.6747799843 0.7267121565
625296250.0 -0.6703289069 0.7303427992
630296220.0 -0.665949735 0.7346713721
635296190.0 -0.6608052905 0.739131618
640296160.0 -0.6554933111 0.7433885679
645296130.0 -0.650639333 0.747773729
650296100.0 -0.6460241571 0.7520907414
655296070.0 -0.6405015864 0.7562282037
660296040.0 -0.6358809157 0.760349927
665296010.0 -0.6311585003 0.7644888247
670295980.0 -0.6257371036 0.7685915468
675295950.0 -0.6203618386 0.77263028
680295920.0 -0.6155079339 0.7772749313
685295890.0 -0.6102815688 0.7813295669
690295860.0 -0.6049853537 0.7854109682
695295830.0 -0.6006881112 0.7888250275
700295800.0 -0.5946723501 0.7935481052
705295770.0 -0.589209852 0.7971285262
710295740.0 -0.5845400665 0.8005141256
715295710.0 -0.578992144 0.8049920157
720295680.0 -0.5737075416 0.8087190477
725295650.0 -0.568333317 0.8125175877
730295620.0 -0.5630557896 0.8160058278
735295590.0 -0.5579065708 0.8187845766
740295560.0 -0.5525008364 0.8231647158
745295530.0 -0.5469136422 0.8265121012
750295500.0 -0.5416512513 0.8300321305
755295470.0 -0.5358931642 0.8343159026
760295440.0 -0.5302337123 0.8372792199
765295410.0 -0.5250126852 0.8406777236
770295380.0 -0.5186041802 0.8442696144
775295350.0 -0.5133120122 0.8472696065
780295320.0 -0.5077468368 0.8508413611
785295290.0 -0.5023300112 0.8542669989
790295260.0 -0.4968497644 0.8570297788
795295230.0 -0.4905793053 0.8607226825
800295200.0 -0.4850754799 0.8639060352
805295170.0 -0.4791076279 0.866709129
810295140.0 -0.4738526883 0.869730859
815295110.0 -0.4676863244 0.8729473624
820295080.0 -0.4620657593 0.8760091951
825295050.0 -0.4560827678 0.8788689802
830295020.0 -0.4503815322 0.8823837001
835294990.0 -0.4450410461 0.8846559483
840294960.0 -0.4387327075 0.8877651508
845294930.0 -0.4331742266 0.8909324354
850294900.0 -0.4274351167 0.8935962736
855294870.0 -0.4210091821 0.8965875656
860294840.0 -0.4145706286 0.8993671847
865294810.0 -0.4094972854 0.9022404826
870294780.0 -0.4036018848 0.904494404
875294750.0 -0.3974549091 0.9071030901
880294720.0 -0.3914854809 0.909657825
885294690.0 -0.3852717578 0.9121567255
890294660.0 -0.3787405129 0.914333647
895294630.0 -0.3734129235 0.9168438558
900294600.0 -0.3673690419 0.9190044015
905294570.0 -0.3609800069 0.9207869792
910294540.0 -0.3549635738 0.9236671951
915294510.0 -0.3490574176 0.9257473087
920294480.0 -0.3428344866 0.9283025719
925294450.0 -0.3365472467 0.9308416973
930294420.0 -0.3307397185 0.9324216399
935294390.0 -0.3242165226 0.9346200207
940294360.0 -0.3188441155 0.9364064513
945294330.0 -0.3127324117 0.9388031766
950294300.0 -0.3064094416 0.9406215608
955294270.0 -0.2995611368 0.9429437032
960294240.0 -0.293368597 0.9444385041
965294210.0 -0.2873536658 0.9466658897
970294180.0 -0.2803708112 0.9483450869
975294150.0 -0.2752481294 0.9501249964
980294120.0 -0.2686366925 0.9519039057
985294090.0 -0.2628732951 0.9535328837
990294060.0 -0.2564963055 0.9550119211
995294030.0 -0.2501685185 0.9571608385
1000294000.0 -0.2432513249 0.958321512
1005293970.0 -0.2370927827 0.9600180568
1010293940.0 -0.230486073 0.9617267437
1015293910.0 -0.224468933 0.9628450025
1020293880.0 -0.2177800281 0.9641035354
1025293850.0 -0.2118932023 0.9658661659
1030293820.0 -0.2054696409 0.9670779573
1035293790.0 -0.1997424362 0.9685526471
1040293760.0 -0.1926592019 0.9695345486
1045293730.0 -0.1860995392 0.9710097264
1050293700.0 -0.179916088 0.9719928121
1055293670.0 -0.1730238416 0.9734523109
1060293640.0 -0.1665465348 0.9746258135
1065293610.0 -0.160554214 0.975418609
1070293580.0 -0.1541905266 0.9766463085
1075293550.0 -0.1477670449 0.9773670412
1080293520.0 -0.1412723033 0.9781856349
1085293490.0 -0.1348837934 0.9791953916
1090293460.0 -0.1278717712 0.9801103543
1095293430.0 -0.1213572872 0.980902182
1100293400.0 -0.1151030975 0.9818761004
1105293370.0 -0.1082542955 0.9825922408
1110293340.0 -0.1023248368 0.982770413
1115293310.0 -0.0955765119 0.9836470475
1120293280.0 -0.0894364002 0.9845988832
1125293250.0 -0.0827853883 0.9846647739
1130293220.0 -0.0769728261 0.9852276949
1135293190.0 -0.0703426061 0.9861448372
1140293160.0 -0.0637505732 0.9863500211
1145293130.0 -0.0570152364 0.986623141
1150293100.0 -0.0505335152 0.9869046072
1155293070.0 -0.0439684217 0.9878605572
1160293040.0 -0.0369999477 0.9877753682
1165293010.0 -0.0310210483 0.9879728807
1170292980.0 -0.0247742062 0.9872911783
1175292950.0 -0.0181000805 0.9875113973
1180292920.0 -0.0116015576 0.9877596399
1185292890.0 -0.0052561564 0.9882296602
1190292860.0 0.0013585046 0.9879867377
1195292830.0 0.0077423558 0.9881973533
1200292800.0 0.0144873787 0.9879350843
1205292770.0 0.0209076008 0.9883058513
1210292740.0 0.0267920123 0.9879258405
1215292710.0 0.0338924786 0.9871938949
1220292680.0 0.0404982837 0.987068655
1225292650.0 0.0469279204 0.9865409085
1230292620.0 0.0533553927 0.9864559469
1235292590.0 0.0594898643 0.9861214795
1240292560.0 0.0663380072 0.9858165149
1245292530.0 0.072668716 0.9846075711
1250292500.0 0.0790161888 0.9848594942
1255292470.0 0.0859529519 0.9839675393
1260292440.0 0.0925331452 0.9833147844
1265292410.0 0.0986512191 0.9826862652
1270292380.0 0.1051821627 0.9826864071
1275292350.0 0.1119721796 0.9809758337
1280292320.0 0.1182609205 0.9806157743
1285292290.0 0.1249023607 0.9800414892
1290292260.0 0.1314316689 0.9789233131
1295292230.0 0.1374734391 0.9779962032
1300292200.0 0.1435664064 0.9768554925
1305292170.0 0.1502117291 0.9761864796
1310292140.0 0.1567091094 0.9751949398
1315292110.0 0.1628572536 0.974427741
1320292080.0 0.169553822 0.9730418973
1325292050.0 0.1759852234 0.971589972
1330292020.0 0.183038098 0.9707847641
1335291990.0 0.1891927293 0.9695434875
1340291960.0 0.1958558066 0.968391822
1345291930.0 0.2026186665 0.9674848889
1350291900.0 0.2086522796 0.9657510172
1355291870.0 0.2147621762 0.9645176938
1360291840.0 0.2205184943 0.9626553475
1365291810.0 0.2270583183 0.9607226287
1370291780.0 0.2331017354 0.959749863
1375291750.0 0.2390605235 0.9582641834
1380291720.0 0.2455889328 0.9566951944
1385291690.0 0.2528451104 0.9551770719
1390291660.0 0.2585452454 0.9533047309
1395291630.0 0.2651130022 0.9511506056
1400291600.0 0.2722763244 0.9498979385
1405291570.0 0.2779255238 0.9482391723
1410291540.0 0.2839224612 0.9457255855
1415291510.0 0.2904168045 0.9446698606
1420291480.0 0.2965405661 0.9422103522
1425291450.0 0.3020187771 0.9409302141
1430291420.0 0.3084180036 0.9387294863
1435291390.0 0.3146474455 0.9364807354
1440291360.0 0.320544839 0.9346991372
1445291330.0 0.3263917932 0.9317970918
1450291300.0 0.3329074219 0.9297706209
1455291270.0 0.3381253362 0.9272085183
1460291240.0 0.3444217645 0.9260353475
1465291210.0 0.3512434692 0.9232393733
1470291180.0 0.3572199157 0.9208176018
1475291150.0 0.3632353164 0.9183189784
1480291120.0 0.3690568716 0.9161864371
1485291090.0 0.3755200318 0.9134820747
1490291060.0 0.3813004794 0.9108209689
1495291030.0 0.38741562 0.9081916949
1500291000.0 0.3932051239 0.9066773523
1505290970.0 0.3989396559 0.9034078608
1510290940.0 0.4052576023 0.9010973538
1515290910.0 0.4110122139 0.8985924572
1520290880.0 0.4168672421 0.8950709994
1525290850.0 0.4228434824 0.8924268432
1530290820.0 0.4291848194 0.8900840229
1535290790.0 0.4347796855 0.8866927952
1540290760.0 0.4403931981 0.8837384036
1545290730.0 0.4467205466 0.8809309618
1550290700.0 0.4520463197 0.8781234079
1555290670.0 0.4580040731 0.8751823105
1560290640.0 0.463455682 0.8714151648
1565290610.0 0.4694863328 0.8686603622
1570290580.0 0.4748981912 0.866104355
1575290550.0 0.4807071175 0.8631952264
1580290520.0 0.4865134041 0.8600726429
1585290490.0 0.4925330087 0.856354957
1590290460.0 0.4984628165 0.8530459372
1595290430.0 0.5037962164 0.8495443167
1600290400.0 0.5091029116 0.846320035
1605290370.0 0.5149596176 0.8432122412
1610290340.0 0.5203632866 0.8397558488
1615290310.0 0.5260106926 0.8363954137
1620290280.0 0.5314636036 0.8335384254
1625290250.0 0.5371121409 0.8296726084
1630290220.0 0.5416150449 0.8258766874
1635290190.0 0.5480435648 0.8223038371
1640290160.0 0.5528971478 0.8191426129
1645290130.0 0.5579514396 0.8154139533
1650290100.0 0.5637110602 0.8109356347
1655290070.0 0.5693674812 0.8080105021
1660290040.0 0.5745585858 0.8035136654
1665290010.0 0.5799931542 0.7997867268
1670289980.0 0.5845553335 0.7962299286
1675289950.0 0.5898105339 0.7925628899
1680289920.0 0.595608925 0.788244124
1685289890.0 0.6005076815 0.7842972619
1690289860.0 0.6063011898 0.7801062271
1695289830.0 0.611157128 0.7760915168
1700289800.0 0.6168223671 0.7723076187
1705289770.0 0.621663237 0.7685471616
1710289740.0 0.6268063022 0.7641357605
1715289710.0 0.631613849 0.7600048578
1720289680.0 0.6366564613 0.7559349272
1725289650.0 0.6418978544 0.7517849144
1730289620.0 0.6469591369 0.7472429415
1735289590.0 0.6516027758 0.7427723672
1740289560.0 0.6554830925 0.739068509
1745289530.0 0.6611563726 0.7350402782
1750289500.0 0.6658381566 0.7303459016
1755289470.0 0.6703621876 0.7262098501
1760289440.0 0.6757034911 0.7218019751
1765289410.0 0.6803122951 0.7172323545
1770289380.0 0.6848925886 0.7132070489
1775289350.0 0.6894882774 0.7087934561
1780289320.0 0.6945342257 0.7041664661
1785289290.0 0.6991942317 0.6993017542
1790289260.0 0.7033551208 0.694640526
1795289230.0 0.7080249474 0.6899451959
1800289200.0 0.7131629616 0.6848729269
1805289170.0 0.7171075708 0.6802157489
1810289140.0 0.7218354146 0.6758343764
1815289110.0 0.7262918787 0.6709267124
1820289080.0 0.7307092433 0.6664128188
1825289050.0 0.7351845367 0.6620930488
1830289020.0 0.7392065376 0.6574779031
1835288990.0 0.7432735524 0.6523854079
1840288960.0 0.7470955391 0.6480022199
1845288930.0 0.7516547368 0.6427622155
1850288900.0 0.7557776527 0.6375980011
1855288870.0 0.7596088968 0.6326452114
1860288840.0 0.7646253151 0.6270151934
1865288810.0 0.768702321 0.6220063696
1870288780.0 0.773021754 0.6171652727
1875288750.0 0.7770254762 0.6124726232
1880288720.0 0.7811894984 0.6065207563
1885288690.0 0.7847878929 0.6011854831
1890288660.0 0.7894269542 0.5958840095
1895288630.0 0.7928262392 0.5910091828
1900288600.0 0.7968575319 0.5856513209
1905288570.0 0.8007636329 0.5812032956
1910288540.0 0.8047865472 0.575387824
1915288510.0 0.8084534789 0.5699533537
1920288480.0 0.8127255537 0.5641713339
1925288450.0 0.8155345573 0.5590532072
1930288420.0 0.8195751303 0.5540552126
1935288390.0 0.8232298137 0.5484818878
1940288360.0 0.8266080029 0.5427674762
1945288330.0 0.8308970298 0.5372812027
1950288300.0 0.8343629187 0.5316874766
1955288270.0 0.8375741046 0.5260461728
1960288240.0 0.8418455368 0.5203089033
1965288210.0 0.8449259988 0.5141385356
1970288180.0 0.8483603559 0.5088539121
1975288150.0 0.852177283 0.5035603198
1980288120.0 0.8547264169 0.4978252597
1985288090.0 0.8576945039 0.4926342665
1990288060.0 0.8611821728 0.4870378859
1995288030.0 0.8639975466 0.4818038614
2000288000.0 0.8671875377 0.4764874943
2005287970.0 0.8706910078 0.4707649547
2010287940.0 0.8735023661 0.4653695094
2015287910.0 0.8764116959 0.459470905
2020287880.0 0.879343465 0.4537641751
2025287850.0 0.8823108462 0.4478244596
2030287820.0 0.8856267201 0.4420208811
2035287790.0 0.8882056528 0.4359798693
2040287760.0 0.8909587566 0.4299669924
2045287730.0 0.8939428423 0.4239741015
2050287700.0 0.8966503676 0.4179681472
2055287670.0 0.8996201141 0.4126637538
2060287640.0 0.9019023905 0.4066684152
2065287610.0 0.9049762143 0.4008388473
2070287580.0 0.9077752816 0.3948817871
2075287550.0 0.9102521979 0.3887483246
2080287520.0 0.9131918051 0.3825061485
2085287490.0 0.9155551679 0.3765655062
2090287460.0 0.9181771238 0.3701412071
2095287430.0 0.9203676418 0.3650132407
2100287400.0 0.9223919089 0.3585035486
2105287370.0 0.9248876857 0.3517384328
2110287340.0 0.9274615335 0.3461254032
2115287310.0 0.9301331501 0.3402582182
2120287280.0 0.9320197795 0.3335885836
2125287250.0 0.9346460622 0.3275760659
2130287220.0 0.9365408403 0.3215441784
2135287190.0 0.9385634326 0.3153170832
2140287160.0 0.9407050368 0.3094425519
2145287130.0 0.9426458874 0.3026520931
2150287100.0 0.9441339605 0.2965072037
2155287070.0 0.9465538082 0.290474275
2160287040.0 0.9483907859 0.2842094932
2165287010.0 0.9500713481 0.2782336552
2170286980.0 0.9522872634 0.2720680315
2175286950.0 0.9538975068 0.2658681744
2180286920.0 0.9557247966 0.2598865509
2185286890.0 0.9571850977 0.2536878576
2190286860.0 0.9586261884 0.24823293
2195286830.0 0.9605103117 0.241450758
2200286800.0 0.9620146752 0.2362143364
2205286770.0 0.9637421681 0.2287580099
2210286740.0 0.9651332662 0.2227861416
2215286710.0 0.9668803894 0.216829709
2220286680.0 0.9677766368 0.2105193245
2225286650.0 0.96935059 0.2039363397
2230286620.0 0.9704539537 0.1971178434
2235286590.0 0.9715576378 0.1910482614
2240286560.0 0.9733923152 0.1840952679
2245286530.0 0.9744231185 0.1777976203
2250286500.0 0.9758054684 0.1710630138
2255286470.0 0.9767368554 0.1645066735
2260286440.0 0.9781435221 0.1582216137
2265286410.0 0.978597811 0.1521146456
2270286380.0 0.9800563437 0.1452732266
2275286350.0 0.9809410915 0.1389535771
2280286320.0 0.9812923882 0.1323867728
2285286290.0 0.9824499098 0.1258382027
2290286260.0 0.9834076184 0.1194862853
2295286230.0 0.9836588069 0.1129501755
2300286200.0 0.9850424884 0.1066210662
2305286170.0 0.9854602498 0.0999553475
2310286140.0 0.9864720304 0.0938492454
2315286110.0 0.9868577782 0.0869641616
2320286080.0 0.9870641685 0.0803202663
2325286050.0 0.9878669982 0.0740057898
2330286020.0 0.9881061015 0.0676540131
2335285990.0 0.9884382716 0.0612642274
2340285960.0 0.9893796725 0.0551213186
2345285930.0 0.9894743327 0.0477681376
2350285900.0 0.9893121875 0.0414111298
2355285870.0 0.9902407113 0.0352356459
2360285840.0 0.9903990699 0.0283180431
2365285810.0 0.9902223665 0.0218364659
2370285780.0 0.9904873708 0.0152410234
2375285750.0 0.9905470653 0.0091605809
2380285720.0 0.9909162764 0.002336001
2385285690.0 0.9901251924 -0.0038113781
2390285660.0 0.9907925105 -0.0103930372
2395285630.0 0.9902167293 -0.016519865
2400285600.0 0.9903184087 -0.0233368016
2405285570.0 0.990100515 -0.0294138841
2410285540.0 0.9899328382 -0.036133428
2415285510.0 0.9901339935 -0.0423477461
2420285480.0 0.9899089931 -0.0485076003
2425285450.0 0.9891550644 -0.0554111805
2430285420.0 0.9885387177 -0.0620801301
2435285390.0 0.9880663698 -0.0686289121
2440285360.0 0.9881000922 -0.0751127101
2445285330.0 0.9872366375 -0.0813451536
2450285300.0 0.9869103464 -0.0871116528
2455285270.0 0.9865421285 -0.0937681574
2460285240.0 0.9852793599 -0.1012588568
2465285210.0 0.9844355675 -0.1068234837
2470285180.0 0.9839980732 -0.1137883873
2475285150.0 0.9828872879 -0.1199319839
2480285120.0 0.9821149052 -0.1266570088
2485285090.0 0.981391007 -0.1335941721
2490285060.0 0.9806807583 -0.1395172562
2495285030.0 0.97959592 -0.1455376764
2500285000.0 0.9782622224 -0.1526404808
2505284970.0 0.9774526847 -0.1591352971
2510284940.0 0.9766859193 -0.165625131
2515284910.0 0.9755315941 -0.1720994791
2520284880.0 0.9740383417 -0.1788531691
2525284850.0 0.9733420329 -0.1852550577
2530284820.0 0.9710745642 -0.1910834462
2535284790.0 0.9704050756 -0.1973789673
2540284760.0 0.9691854682 -0.2034412002
2545284730.0 0.9673903036 -0.2101220416
2550284700.0 0.9660460791 -0.2164735632
2555284670.0 0.9650136507 -0.2227745074
