!Created with skrf (http://scikit-rf.org).
# Hz S RI R 50.0 
!freq ReS11 ImS11
45000000.0 0.069244384765625 0.08636474609375
49995500.0 0.08806991577148438 0.0861968994140625
54991000.0 0.10829925537109375 0.0823211669921875
59986500.0 0.127166748046875 0.08348846435546875
64982000.0 0.14766693115234375 0.07718658447265625
69977500.0 0.16854095458984375 0.0647125244140625
74973000.0 0.1888885498046875 0.04833984375
79968500.0 0.20734405517578125 0.02736663818359375
84964000.0 0.223236083984375 0.00301361083984375
89959500.0 0.2356414794921875 -0.02553558349609375
94955000.0 0.2438812255859375 -0.05657196044921875
99950500.0 0.2474822998046875 -0.09079742431640625
104946000.0 0.24559783935546875 -0.1258544921875
109941500.0 0.23845672607421875 -0.1614990234375
114937000.0 0.2257080078125 -0.1971893310546875
119932500.0 0.20786285400390625 -0.23162078857421875
124928000.0 0.1849212646484375 -0.2644500732421875
129923500.0 0.15753173828125 -0.2945098876953125
134919000.0 0.12554931640625 -0.3215179443359375
139914500.0 0.089111328125 -0.3452911376953125
144910000.0 0.049163818359375 -0.364715576171875
149905500.0 0.005889892578125 -0.379486083984375
154901000.0 -0.03961181640625 -0.3892364501953125
159896500.0 -0.087188720703125 -0.3932342529296875
164892000.0 -0.1364288330078125 -0.3915557861328125
169887500.0 -0.1861724853515625 -0.383636474609375
174883000.0 -0.236297607421875 -0.369415283203125
179878500.0 -0.2855682373046875 -0.3485107421875
184874000.0 -0.33306884765625 -0.32086181640625
189869500.0 -0.3778533935546875 -0.2866363525390625
194865000.0 -0.4193572998046875 -0.2463836669921875
199860500.0 -0.4559326171875 -0.2002716064453125
204856000.0 -0.48699951171875 -0.1484222412109375
209851500.0 -0.511962890625 -0.092498779296875
214847000.0 -0.530242919921875 -0.032196044921875
219842500.0 -0.54119873046875 0.03057861328125
224838000.0 -0.54412841796875 0.095184326171875
229833500.0 -0.539642333984375 0.1607666015625
234829000.0 -0.527099609375 0.225616455078125
239824500.0 -0.50640869140625 0.289825439453125
244820000.0 -0.47833251953125 0.3516845703125
249815500.0 -0.4429779052734375 0.410858154296875
254811000.0 -0.4235382080078125 0.4529571533203125
259806500.0 -0.3778076171875 0.506256103515625
264802000.0 -0.32550048828125 0.555206298828125
269797500.0 -0.2664794921875 0.5989990234375
274793000.0 -0.20233154296875 0.63641357421875
279788500.0 -0.132904052734375 0.66729736328125
284784000.0 -0.058929443359375 0.690826416015625
289779500.0 0.019134521484375 0.70654296875
294775000.0 0.100341796875 0.713165283203125
299770500.0 0.18426513671875 0.710906982421875
304766000.0 0.26873779296875 0.698486328125
309761500.0 0.35345458984375 0.675079345703125
314757000.0 0.43682861328125 0.640777587890625
319752500.0 0.51678466796875 0.59515380859375
324748000.0 0.59234619140625 0.539276123046875
329743500.0 0.6619873046875 0.4736328125
334739000.0 0.723846435546875 0.397491455078125
339734500.0 0.77655029296875 0.313323974609375
344730000.0 0.818511962890625 0.221832275390625
349725500.0 0.848602294921875 0.124725341796875
354721000.0 0.866455078125 0.024017333984375
359716500.0 0.8717041015625 -0.078643798828125
364712000.0 0.86395263671875 -0.18212890625
369707500.0 0.844085693359375 -0.28399658203125
374703000.0 0.811737060546875 -0.383056640625
379698500.0 0.767974853515625 -0.477935791015625
384694000.0 0.71337890625 -0.5672607421875
389689500.0 0.649139404296875 -0.649871826171875
394685000.0 0.57550048828125 -0.725128173828125
399680500.0 0.494140625 -0.7919921875
404676000.0 0.40570068359375 -0.85040283203125
409671500.0 0.31072998046875 -0.900421142578125
414667000.0 0.210601806640625 -0.938323974609375
419662500.0 0.105072021484375 -0.9664306640625
424658000.0 -0.004730224609375 -0.98370361328125
429653500.0 -0.118316650390625 -0.988311767578125
434649000.0 -0.233917236328125 -0.978729248046875
439644500.0 -0.34814453125 -0.9560546875
444640000.0 -0.461029052734375 -0.920867919921875
449635500.0 -0.571044921875 -0.872772216796875
454631000.0 -0.678466796875 -0.811187744140625
459626500.0 -0.780181884765625 -0.73443603515625
464622000.0 -0.8726806640625 -0.6422119140625
469617500.0 -0.953643798828125 -0.53778076171875
474613000.0 -1.02117919921875 -0.42205810546875
479608500.0 -1.07305908203125 -0.29705810546875
484604000.0 -1.10809326171875 -0.16510009765625
489599500.0 -1.125 -0.029052734375
494595000.0 -1.12335205078125 0.107421875
499590500.0 -1.10382080078125 0.24237060546875
504586000.0 -1.06683349609375 0.3720703125
509581500.0 -1.0146484375 0.4932861328125
514577000.0 -0.948394775390625 0.60589599609375
519572500.0 -0.870819091796875 0.707672119140625
524568000.0 -0.784515380859375 0.797821044921875
529563500.0 -0.691497802734375 0.87640380859375
534559000.0 -0.59375 0.94439697265625
539554500.0 -0.49224853515625 1.0028076171875
544550000.0 -0.38671875 1.0528564453125
549545500.0 -0.27642822265625 1.09423828125
554541000.0 -0.16107177734375 1.126708984375
559536500.0 -0.0413818359375 1.14910888671875
564532000.0 0.0833740234375 1.1597900390625
569527500.0 0.21148681640625 1.15716552734375
574523000.0 0.341796875 1.1412353515625
579518500.0 0.47235107421875 1.10992431640625
584514000.0 0.60101318359375 1.063232421875
589509500.0 0.72686767578125 1.00128173828125
594505000.0 0.847381591796875 0.923004150390625
599500500.0 0.960296630859375 0.829437255859375
604496000.0 1.06402587890625 0.72027587890625
609491500.0 1.15509033203125 0.596435546875
614487000.0 1.23114013671875 0.4599609375
619482500.0 1.2904052734375 0.31158447265625
624478000.0 1.329833984375 0.15472412109375
629473500.0 1.3487548828125 -0.00701904296875
634469000.0 1.34521484375 -0.1715087890625
639464500.0 1.31927490234375 -0.33428955078125
644460000.0 1.27227783203125 -0.4925537109375
649455500.0 1.204345703125 -0.64263916015625
654451000.0 1.1190185546875 -0.78106689453125
659446500.0 1.0166015625 -0.90655517578125
664442000.0 0.90191650390625 -1.01702880859375
669437500.0 0.77630615234375 -1.1112060546875
674433000.0 0.642822265625 -1.18896484375
679428500.0 0.5035400390625 -1.25030517578125
684424000.0 0.360595703125 -1.29510498046875
689419500.0 0.21588134765625 -1.32452392578125
694415000.0 0.07080078125 -1.338623046875
699410500.0 -0.0733642578125 -1.338623046875
704406000.0 -0.2161865234375 -1.3250732421875
709401500.0 -0.3565673828125 -1.29815673828125
714397000.0 -0.494384765625 -1.2576904296875
719392500.0 -0.62890625 -1.20556640625
724388000.0 -0.758544921875 -1.14019775390625
729383500.0 -0.88427734375 -1.06121826171875
734379000.0 -1.0029296875 -0.96826171875
739374500.0 -1.11444091796875 -0.8614501953125
744370000.0 -1.21661376953125 -0.7415771484375
749365500.0 -1.30755615234375 -0.60723876953125
754361000.0 -1.384521484375 -0.460205078125
759356500.0 -1.44488525390625 -0.3009033203125
764352000.0 -1.48663330078125 -0.13116455078125
769347500.0 -1.5069580078125 0.04595947265625
774343000.0 -1.50408935546875 0.22802734375
779338500.0 -1.477783203125 0.41107177734375
784334000.0 -1.42462158203125 0.5908203125
789329500.0 -1.3468017578125 0.76226806640625
794325000.0 -1.24725341796875 0.92279052734375
799320500.0 -1.12677001953125 1.06744384765625
804316000.0 -0.98895263671875 1.19384765625
809311500.0 -0.8375244140625 1.29925537109375
814307000.0 -0.6763916015625 1.3837890625
819302500.0 -0.509033203125 1.44635009765625
824298000.0 -0.33721923828125 1.48712158203125
829293500.0 -0.16741943359375 1.508544921875
834289000.0 0.002197265625 1.50958251953125
839284500.0 0.1671142578125 1.492919921875
844280000.0 0.264892578125 1.49066162109375
849275500.0 0.42279052734375 1.4501953125
854271000.0 0.5733642578125 1.3948974609375
859266500.0 0.717041015625 1.326416015625
864262000.0 0.85406494140625 1.24542236328125
869257500.0 0.98162841796875 1.15130615234375
874253000.0 1.10064697265625 1.0455322265625
879248500.0 1.20989990234375 0.92840576171875
884244000.0 1.309326171875 0.80029296875
889239500.0 1.396728515625 0.66204833984375
894235000.0 1.4727783203125 0.51324462890625
899230500.0 1.5343017578125 0.35516357421875
904226000.0 1.58154296875 0.1861572265625
909221500.0 1.60992431640625 0.00836181640625
914217000.0 1.61724853515625 -0.17706298828125
919212500.0 1.6015625 -0.3673095703125
924208000.0 1.5615234375 -0.5572509765625
929203500.0 1.49664306640625 -0.7432861328125
934199000.0 1.40631103515625 -0.921630859375
939194500.0 1.29229736328125 -1.08721923828125
944190000.0 1.156494140625 -1.23779296875
949185500.0 1.001953125 -1.36956787109375
954181000.0 0.8319091796875 -1.478759765625
959176500.0 0.65057373046875 -1.5638427734375
964172000.0 0.46136474609375 -1.625
969167500.0 0.26910400390625 -1.66119384765625
974163000.0 0.07666015625 -1.6739501953125
979158500.0 -0.1131591796875 -1.66424560546875
984154000.0 -0.29705810546875 -1.63360595703125
989149500.0 -0.473876953125 -1.583984375
994145000.0 -0.642333984375 -1.517578125
999140500.0 -0.80059814453125 -1.43499755859375
1004136000.0 -0.94866943359375 -1.33843994140625
1009131500.0 -1.08636474609375 -1.22869873046875
1014127000.0 -1.212158203125 -1.1065673828125
1019122500.0 -1.3255615234375 -0.97259521484375
1024118000.0 -1.4268798828125 -0.8280029296875
1029113500.0 -1.5137939453125 -0.67242431640625
1034109000.0 -1.58642578125 -0.5069580078125
1039104500.0 -1.6414794921875 -0.33306884765625
1044100000.0 -1.67974853515625 -0.1512451171875
1049095500.0 -1.697998046875 0.036865234375
1054091000.0 -1.694580078125 0.2294921875
1059086500.0 -1.6690673828125 0.423583984375
1064082000.0 -1.61981201171875 0.61669921875
1069077500.0 -1.54644775390625 0.80517578125
1074073000.0 -1.4486083984375 0.98468017578125
1079068500.0 -1.32763671875 1.152587890625
1084064000.0 -1.1856689453125 1.30523681640625
1089059500.0 -1.0247802734375 1.43792724609375
1094055000.0 -0.8472900390625 1.548828125
1099050500.0 -0.658447265625 1.635986328125
1104046000.0 -0.46112060546875 1.6978759765625
1109041500.0 -0.25885009765625 1.734130859375
1114037000.0 -0.05682373046875 1.7449951171875
1119032500.0 0.14263916015625 1.732177734375
1124028000.0 0.33636474609375 1.69586181640625
1129023500.0 0.52197265625 1.63885498046875
1134019000.0 0.6978759765625 1.562744140625
1139014500.0 0.8616943359375 1.46923828125
1144010000.0 1.01263427734375 1.36041259765625
1149005500.0 1.15093994140625 1.23870849609375
1154001000.0 1.27398681640625 1.1041259765625
1158996500.0 1.38311767578125 0.958984375
1163992000.0 1.4765625 0.8045654296875
1168987500.0 1.55438232421875 0.6414794921875
1173983000.0 1.615234375 0.47064208984375
1178978500.0 1.65972900390625 0.2952880859375
1183974000.0 1.68499755859375 0.11474609375
1188969500.0 1.69256591796875 -0.0682373046875
1193965000.0 1.68072509765625 -0.25323486328125
1198960500.0 1.64923095703125 -0.43731689453125
1203956000.0 1.59765625 -0.6190185546875
1208951500.0 1.5257568359375 -0.79534912109375
1213947000.0 1.43359375 -0.964599609375
1218942500.0 1.321533203125 -1.12445068359375
1223938000.0 1.1904296875 -1.27105712890625
1228933500.0 1.04217529296875 -1.40283203125
1233929000.0 0.87841796875 -1.51702880859375
1238924500.0 0.7010498046875 -1.61212158203125
1243920000.0 0.51287841796875 -1.68487548828125
1248915500.0 0.31671142578125 -1.7344970703125
1253911000.0 0.11590576171875 -1.7603759765625
1258906500.0 -0.0872802734375 -1.76275634765625
1263902000.0 -0.28924560546875 -1.74127197265625
1268897500.0 -0.4857177734375 -1.69525146484375
1273893000.0 -0.673583984375 -1.62677001953125
1278888500.0 -0.85247802734375 -1.53802490234375
1283884000.0 -1.018798828125 -1.42974853515625
1288879500.0 -1.17108154296875 -1.30377197265625
1293875000.0 -1.30718994140625 -1.161865234375
1298870500.0 -1.42669677734375 -1.00665283203125
1303866000.0 -1.52734375 -0.83929443359375
1308861500.0 -1.60870361328125 -0.66265869140625
1313857000.0 -1.66986083984375 -0.47894287109375
1318852500.0 -1.70941162109375 -0.28961181640625
1323848000.0 -1.72821044921875 -0.09783935546875
1328843500.0 -1.72650146484375 0.09429931640625
1333839000.0 -1.7025146484375 0.2843017578125
1338834500.0 -1.65814208984375 0.4703369140625
1343830000.0 -1.59454345703125 0.649658203125
1348825500.0 -1.51092529296875 0.82061767578125
1353821000.0 -1.41033935546875 0.98114013671875
1358816500.0 -1.29290771484375 1.12890625
1363812000.0 -1.16009521484375 1.263916015625
1368807500.0 -1.01397705078125 1.3826904296875
1373803000.0 -0.85638427734375 1.4853515625
1378798500.0 -0.688720703125 1.570556640625
1383794000.0 -0.5120849609375 1.636962890625
1388789500.0 -0.32989501953125 1.68450927734375
1393785000.0 -0.14312744140625 1.7120361328125
1398780500.0 0.046630859375 1.719970703125
1403776000.0 0.23663330078125 1.70758056640625
1408771500.0 0.42486572265625 1.6737060546875
1413767000.0 0.61004638671875 1.62017822265625
1418762500.0 0.78912353515625 1.545654296875
1423758000.0 0.96002197265625 1.450927734375
1428753500.0 1.12005615234375 1.33642578125
1433749000.0 1.26873779296875 1.20361328125
1438744500.0 1.3997802734375 1.052978515625
1443740000.0 1.51336669921875 0.88641357421875
1448735500.0 1.6060791015625 0.706298828125
1453731000.0 1.67779541015625 0.5157470703125
1458726500.0 1.7247314453125 0.31695556640625
1463722000.0 1.74652099609375 0.11431884765625
1468717500.0 1.74298095703125 -0.0894775390625
1473713000.0 1.714111328125 -0.2890625
1478708500.0 1.66131591796875 -0.48248291015625
1483704000.0 1.585693359375 -0.666259765625
1488699500.0 1.48956298828125 -0.8363037109375
1493695000.0 1.3760986328125 -0.99169921875
1498690500.0 1.24713134765625 -1.13104248046875
1503686000.0 1.10614013671875 -1.25213623046875
1508681500.0 0.9547119140625 -1.35546875
1513677000.0 0.79638671875 -1.44012451171875
1518672500.0 0.6329345703125 -1.5068359375
1523668000.0 0.46624755859375 -1.55584716796875
1528663500.0 0.29791259765625 -1.5875244140625
1533659000.0 0.12939453125 -1.60211181640625
1538654500.0 -0.03857421875 -1.6014404296875
1543650000.0 -0.20465087890625 -1.5843505859375
1548645500.0 -0.3675537109375 -1.55224609375
1553641000.0 -0.52740478515625 -1.505126953125
1558636500.0 -0.68170166015625 -1.44268798828125
1563632000.0 -0.83074951171875 -1.365478515625
1568627500.0 -0.97296142578125 -1.272705078125
1573623000.0 -1.10540771484375 -1.16571044921875
1578618500.0 -1.22808837890625 -1.04351806640625
1583614000.0 -1.33868408203125 -0.90765380859375
1588609500.0 -1.43511962890625 -0.75836181640625
1593605000.0 -1.51556396484375 -0.59722900390625
1598600500.0 -1.5772705078125 -0.4261474609375
1603596000.0 -1.61907958984375 -0.24713134765625
1608591500.0 -1.63836669921875 -0.063232421875
1613587000.0 -1.63616943359375 0.1221923828125
1618582500.0 -1.61090087890625 0.30682373046875
1623578000.0 -1.56427001953125 0.4869384765625
1628573500.0 -1.49517822265625 0.6593017578125
1633569000.0 -1.40673828125 0.82037353515625
1638564500.0 -1.30047607421875 0.96881103515625
1643560000.0 -1.17913818359375 1.1015625
1648555500.0 -1.04498291015625 1.218994140625
1653551000.0 -0.90093994140625 1.3179931640625
1658546500.0 -0.74945068359375 1.400146484375
1663542000.0 -0.5921630859375 1.46429443359375
1668537500.0 -0.4315185546875 1.51226806640625
1673533000.0 -0.26910400390625 1.54278564453125
1678528500.0 -0.10626220703125 1.55792236328125
1683524000.0 0.05596923828125 1.5572509765625
1688519500.0 0.21673583984375 1.5413818359375
1693515000.0 0.37518310546875 1.510986328125
1698510500.0 0.53094482421875 1.4654541015625
1703506000.0 0.68206787109375 1.40655517578125
1708501500.0 0.8280029296875 1.3333740234375
1713497000.0 0.96875 1.24505615234375
1718492500.0 1.10247802734375 1.1412353515625
1723488000.0 1.22662353515625 1.02197265625
1728483500.0 1.34051513671875 0.887939453125
1733479000.0 1.43988037109375 0.73846435546875
1738474500.0 1.52349853515625 0.57586669921875
1743470000.0 1.5882568359375 0.4007568359375
1748465500.0 1.63128662109375 0.21661376953125
1753461000.0 1.65081787109375 0.025146484375
1758456500.0 1.6451416015625 -0.16845703125
1763452000.0 1.614501953125 -0.360595703125
1768447500.0 1.55804443359375 -0.546630859375
1773443000.0 1.4783935546875 -0.72332763671875
1778438500.0 1.376953125 -0.8857421875
1783434000.0 1.25738525390625 -1.0321044921875
1788429500.0 1.1226806640625 -1.15985107421875
1793425000.0 0.97662353515625 -1.2677001953125
1798420500.0 0.822998046875 -1.3560791015625
1803416000.0 0.6640625 -1.4251708984375
1808411500.0 0.502685546875 -1.4749755859375
1813407000.0 0.340087890625 -1.508056640625
1818402500.0 0.1793212890625 -1.52423095703125
1823398000.0 0.02032470703125 -1.5247802734375
1828393500.0 -0.1356201171875 -1.5115966796875
1833389000.0 -0.28814697265625 -1.48455810546875
1838384500.0 -0.4373779296875 -1.445068359375
1843380000.0 -0.58245849609375 -1.39202880859375
1848375500.0 -0.722412109375 -1.32745361328125
1853371000.0 -0.8575439453125 -1.2493896484375
1858366500.0 -0.98602294921875 -1.157958984375
1863362000.0 -1.10748291015625 -1.053466796875
1868357500.0 -1.2200927734375 -0.9345703125
1873353000.0 -1.32220458984375 -0.8028564453125
1878348500.0 -1.4105224609375 -0.6571044921875
1883344000.0 -1.4842529296875 -0.49945068359375
1888339500.0 -1.5394287109375 -0.3314208984375
1893335000.0 -1.57427978515625 -0.1546630859375
1898330500.0 -1.586669921875 0.027587890625
1903326000.0 -1.57550048828125 0.211669921875
1908321500.0 -1.540283203125 0.3936767578125
1913317000.0 -1.48187255859375 0.569580078125
1918312500.0 -1.400390625 0.735595703125
1923308000.0 -1.2996826171875 0.88812255859375
1928303500.0 -1.181640625 1.02459716796875
1933299000.0 -1.04949951171875 1.1436767578125
1938294500.0 -0.9068603515625 1.2435302734375
1943290000.0 -0.7574462890625 1.32366943359375
1948285500.0 -0.60302734375 1.38568115234375
1953281000.0 -0.44622802734375 1.429931640625
1958276500.0 -0.28985595703125 1.45635986328125
1963272000.0 -0.13470458984375 1.46673583984375
1968267500.0 0.01849365234375 1.4627685546875
1973263000.0 0.16790771484375 1.4444580078125
1978258500.0 0.31298828125 1.4129638671875
1983254000.0 0.45361328125 1.3690185546875
1988249500.0 0.58929443359375 1.31207275390625
1993245000.0 0.71917724609375 1.24407958984375
1998240500.0 0.8424072265625 1.16375732421875
2003236000.0 0.9583740234375 1.072265625
2008231500.0 1.0660400390625 0.968505859375
2013227000.0 1.163818359375 0.85406494140625
2018222500.0 1.25006103515625 0.7286376953125
2023218000.0 1.324462890625 0.5936279296875
2028213500.0 1.38421630859375 0.44976806640625
2033209000.0 1.42840576171875 0.299072265625
2038204500.0 1.4552001953125 0.1424560546875
2043200000.0 1.46478271484375 -0.01715087890625
2048195500.0 1.45538330078125 -0.177734375
2053191000.0 1.42718505859375 -0.33636474609375
2058186500.0 1.38104248046875 -0.49017333984375
2063182000.0 1.31732177734375 -0.6375732421875
2068177500.0 1.23760986328125 -0.77581787109375
2073173000.0 1.1434326171875 -0.9031982421875
2078168500.0 1.036865234375 -1.01788330078125
2083164000.0 0.91912841796875 -1.120361328125
2088159500.0 0.79296875 -1.2081298828125
2093155000.0 0.65936279296875 -1.28167724609375
2098150500.0 0.51971435546875 -1.3416748046875
2103146000.0 0.37646484375 -1.38580322265625
2108141500.0 0.2308349609375 -1.416015625
2113137000.0 0.0826416015625 -1.4324951171875
2118132500.0 -0.0657958984375 -1.43450927734375
2123128000.0 -0.21429443359375 -1.42266845703125
2128123500.0 -0.3616943359375 -1.3966064453125
2133119000.0 -0.5064697265625 -1.35589599609375
2138114500.0 -0.64892578125 -1.30126953125
2143110000.0 -0.78631591796875 -1.23175048828125
2148105500.0 -0.91748046875 -1.1470947265625
2153101000.0 -1.04119873046875 -1.04827880859375
2158096500.0 -1.15582275390625 -0.9345703125
2163092000.0 -1.258056640625 -0.806640625
2168087500.0 -1.34625244140625 -0.66607666015625
2173083000.0 -1.41912841796875 -0.51409912109375
2178078500.0 -1.4736328125 -0.35302734375
2183074000.0 -1.50799560546875 -0.18450927734375
2188069500.0 -1.5220947265625 -0.0128173828125
2193065000.0 -1.51458740234375 0.1602783203125
2198060500.0 -1.48541259765625 0.33026123046875
