!Created with skrf (http://scikit-rf.org).
# Hz S RI R 50.0 
!freq ReS11 ImS11
300000.0 -0.005414494 -0.0380628042
5299970.0 0.0005924914 -0.0003431836
10299940.0 0.0009262251 -0.0003694865
15299910.0 0.0014532645 0.0005988188
20299880.0 0.0012235444 -0.0001788421
25299850.0 0.001271319 0.0004203449
30299820.0 0.0012916336 0.0007959031
35299790.0 0.0014671149 0.0003255659
40299760.0 0.001445845 0.0003977911
45299730.0 0.0012863552 0.0005218233
50299700.0 0.0014102199 0.0007260821
55299670.0 0.0016714408 0.0005227929
60299640.0 0.0013803205 0.0005706336
65299610.0 0.0015882493 0.0006952968
70299580.0 0.0017154071 0.0005661356
75299550.0 0.0016639844 0.0005655429
80299520.0 0.0017164723 0.0009261925
85299490.0 0.0019941303 0.000995213
90299460.0 0.0015792278 0.0006053069
95299430.0 0.0016821615 0.0008017866
100299400.0 0.0017811337 0.0007618147
105299370.0 0.0019393862 0.000625502
110299340.0 0.0020232315 0.0007051687
115299310.0 0.001970156 0.0008712249
120299280.0 0.0020342627 0.0008558068
125299250.0 0.0020201606 0.0008618938
130299220.0 0.0018721295 0.0007553239
135299190.0 0.0019948259 0.0010197342
140299160.0 0.0018568104 0.0009262538
145299130.0 0.0020251812 0.0008965438
150299100.0 0.0019096672 0.0009616344
155299070.0 0.0022277109 0.0008867972
160299040.0 0.0022320466 0.0008963908
165299010.0 0.0022844712 0.0010468579
170298980.0 0.0022251995 0.0009070955
175298950.0 0.002269126 0.0010709169
180298920.0 0.0021957734 0.0008967746
185298890.0 0.0019255715 0.0010372218
190298860.0 0.0022100994 0.0011531428
195298830.0 0.0022400749 0.001158186
200298800.0 0.0024586099 0.0010425088
205298770.0 0.0025100145 0.0011849567
210298740.0 0.0022756735 0.0011389995
215298710.0 0.0025222242 0.001118718
220298680.0 0.0025841022 0.0012966919
225298650.0 0.0025273582 0.0010919732
230298620.0 0.0026357863 0.0011289823
235298590.0 0.0025490354 0.0011878182
240298560.0 0.0025100002 0.0010199337
245298530.0 0.0025132947 0.0011891421
250298500.0 0.0025479405 0.0009498821
255298470.0 0.0027689679 0.0011309526
260298440.0 0.0025832272 0.0009181226
265298410.0 0.0026397495 0.0009424387
270298380.0 0.0026213311 0.0010657613
275298350.0 0.0025289543 0.0011215884
280298320.0 0.0025502155 0.0010364272
285298290.0 0.0029511956 0.0013121798
290298260.0 0.0026978714 0.001128323
295298230.0 0.0026671198 0.0011651554
300298200.0 0.0027209317 0.001123463
305298170.0 0.0026449126 0.0009692699
310298140.0 0.0029592836 0.0010304472
315298110.0 0.0027393267 0.0011425023
320298080.0 0.002976245 0.0011044646
325298050.0 0.0031196789 0.001003334
330298020.0 0.0027978799 0.0010619452
335297990.0 0.002976239 0.0008085778
340297960.0 0.0031054337 0.0010183269
345297930.0 0.0030340119 0.0010943465
350297900.0 0.0030956242 0.0009507995
355297870.0 0.0031716381 0.0009851425
360297840.0 0.0033276453 0.001022755
365297810.0 0.0031958784 0.0010430713
370297780.0 0.0032521321 0.0009810078
375297750.0 0.0031674934 0.0010485377
380297720.0 0.0032879804 0.0010956651
385297690.0 0.0033747322 0.0009601985
390297660.0 0.0030790208 0.0010375026
395297630.0 0.0033594168 0.00111722
400297600.0 0.0030731737 0.0011080779
405297570.0 0.0032878983 0.0010094452
410297540.0 0.0034477272 0.0011756622
415297510.0 0.0032892286 0.0011055184
420297480.0 0.0034808612 0.0011195756
425297450.0 0.003447375 0.0009237372
430297420.0 0.0034041411 0.0010523296
435297390.0 0.0032674612 0.0009837968
440297360.0 0.003385192 0.0009072529
445297330.0 0.0035123375 0.0009043471
450297300.0 0.0032438504 0.0008424128
455297270.0 0.0034187852 0.0008711318
460297240.0 0.003531389 0.0009991321
465297210.0 0.0033946774 0.0007389403
470297180.0 0.0034594098 0.0008875138
475297150.0 0.0034234195 0.0009969227
480297120.0 0.0033655823 0.0010090547
485297090.0 0.0036102951 0.0007536457
490297060.0 0.0035258083 0.0008319344
495297030.0 0.0033621533 0.0010244235
500297000.0 0.0035989226 0.000936599
505296970.0 0.003359982 0.0007397316
510296940.0 0.0034174559 0.0008736255
515296910.0 0.0035470982 0.0011431919
520296880.0 0.0035997925 0.0009553939
525296850.0 0.0035190192 0.0008895297
530296820.0 0.0033842259 0.0009722087
535296790.0 0.003618453 0.0009380267
540296760.0 0.0036319656 0.0009306959
545296730.0 0.0036431465 0.0008446228
550296700.0 0.0037004573 0.0006470999
555296670.0 0.0039897484 0.0007298044
560296640.0 0.0037684103 0.0006085635
565296610.0 0.0040735981 0.000663308
570296580.0 0.0037174888 0.0004492328
575296550.0 0.0039679169 0.0005635237
580296520.0 0.0039570446 0.000734468
585296490.0 0.0039144378 0.0004878365
590296460.0 0.0039347819 0.0005240331
595296430.0 0.0039719501 0.00031368
600296400.0 0.003932871 0.000453604
605296370.0 0.0039042383 0.0002884325
610296340.0 0.0042290939 0.0004029894
615296310.0 0.0039819138 0.000338277
620296280.0 0.0040981602 0.000155674
625296250.0 0.0041876593 0.0005491652
630296220.0 0.004006158 0.0005431763
635296190.0 0.0040928348 0.0002669381
640296160.0 0.0038195655 0.0002476583
645296130.0 0.0042630025 0.0002593122
650296100.0 0.004160182 0.0003630914
655296070.0 0.0041959076 0.0002255308
660296040.0 0.0042980371 9.1951e-05
665296010.0 0.0041328191 9.62759e-05
670295980.0 0.0042720164 0.0001010589
675295950.0 0.0041574412 0.0001311328
680295920.0 0.0041773419 9.53918e-05
685295890.0 0.0041770134 0.0001499114
690295860.0 0.00415767 0.000356365
695295830.0 0.0040678132 0.0002295379
700295800.0 0.0043736928 0.0001233055
705295770.0 0.0042055524 -9.1597e-06
710295740.0 0.0043102147 5.54699e-05
715295710.0 0.0040720388 5.42894e-05
720295680.0 0.0042058672 3.54629e-05
725295650.0 0.0043619737 -4.17033e-05
730295620.0 0.0043382872 9.1603e-05
735295590.0 0.0044494321 -0.0001081723
740295560.0 0.0044247845 -0.0001260752
745295530.0 0.0042817277 -1.76237e-05
750295500.0 0.0043036567 -0.0002505528
755295470.0 0.0043857828 -0.0001861365
760295440.0 0.0044914635 -0.0001391325
765295410.0 0.0043308901 -0.0001729389
770295380.0 0.0042104768 2.62491e-05
775295350.0 0.0043389407 -0.0003073484
780295320.0 0.0046389289 -0.0002686351
785295290.0 0.0047229227 -0.0003384056
790295260.0 0.0046408341 -0.0004824944
795295230.0 0.0046585576 -0.0005041771
800295200.0 0.0043635368 -0.0003829226
805295170.0 0.004470093 -0.0004430044
810295140.0 0.0045895776 -0.0005376172
815295110.0 0.0044363755 -0.000592197
820295080.0 0.0046819207 -0.0006126275
825295050.0 0.0044268095 -0.0004921508
830295020.0 0.0045921227 -0.0005782098
835294990.0 0.004591906 -0.0006886165
840294960.0 0.0046756184 -0.0006852362
845294930.0 0.0046204438 -0.000750756
850294900.0 0.0046192039 -0.0007719111
855294870.0 0.0047714456 -0.0009338335
860294840.0 0.0048001717 -0.0009580845
865294810.0 0.004748173 -0.0010073525
870294780.0 0.0047486044 -0.0009510419
875294750.0 0.0047606094 -0.0009948066
880294720.0 0.0047904463 -0.0009756933
885294690.0 0.0049100726 -0.0010340714
890294660.0 0.0047453681 -0.0010722545
895294630.0 0.0049242499 -0.0010227984
900294600.0 0.0048848558 -0.0011609977
905294570.0 0.0047680115 -0.0014055612
910294540.0 0.0047171882 -0.0012359743
915294510.0 0.0049223851 -0.0013359707
920294480.0 0.0046393159 -0.000933218
925294450.0 0.0048638907 -0.0013883265
930294420.0 0.0047084797 -0.0013658785
935294390.0 0.0046291901 -0.0015006182
940294360.0 0.0047086223 -0.0014436005
945294330.0 0.004672694 -0.0014026651
950294300.0 0.0048477238 -0.0016528823
955294270.0 0.0048052286 -0.0015903483
960294240.0 0.0047049028 -0.0015342165
965294210.0 0.004735447 -0.0016637176
970294180.0 0.004890302 -0.0015376873
975294150.0 0.0047928832 -0.0015541646
980294120.0 0.0049027627 -0.0017381317
985294090.0 0.0048574347 -0.0018259411
990294060.0 0.0048608602 -0.0018310315
995294030.0 0.0048335988 -0.0016524186
1000294000.0 0.0047142146 -0.0018081477
1005293970.0 0.0047061437 -0.001802998
1010293940.0 0.0048288168 -0.0020747182
1015293910.0 0.0051042563 -0.002031304
1020293880.0 0.0048250582 -0.0020995588
1025293850.0 0.0048453792 -0.0020326914
1030293820.0 0.0050837854 -0.0021115484
1035293790.0 0.0048518436 -0.0021587316
1040293760.0 0.0049339672 -0.0022876631
1045293730.0 0.0050943121 -0.0019436817
1050293700.0 0.0051119018 -0.002321008
1055293670.0 0.004878852 -0.0023067326
1060293640.0 0.0052259483 -0.0023158658
1065293610.0 0.0049973849 -0.0022717136
1070293580.0 0.0049719734 -0.0021866246
1075293550.0 0.005140785 -0.0024747972
1080293520.0 0.0048924261 -0.0024789392
1085293490.0 0.0052120693 -0.0025215612
1090293460.0 0.0050782805 -0.0026579455
1095293430.0 0.0050913262 -0.0025897364
1100293400.0 0.0049986154 -0.0026032835
1105293370.0 0.005001931 -0.0026494806
1110293340.0 0.0050955987 -0.0027629851
1115293310.0 0.0050638737 -0.0027033131
1120293280.0 0.0050488215 -0.0027074651
1125293250.0 0.0051006784 -0.0027276339
1130293220.0 0.0051849172 -0.00284703
1135293190.0 0.0050704534 -0.0026923621
1140293160.0 0.004832853 -0.0028740077
1145293130.0 0.0049462888 -0.0024586076
1150293100.0 0.0048050231 -0.0028063607
1155293070.0 0.0048887779 -0.0026957606
1160293040.0 0.0047888071 -0.0028729268
1165293010.0 0.0047398121 -0.0026576344
1170292980.0 0.0050439156 -0.0029860791
1175292950.0 0.0049882112 -0.0028308972
1180292920.0 0.0048088744 -0.0031394501
1185292890.0 0.0049947418 -0.0030315358
1190292860.0 0.0051534067 -0.0032774732
1195292830.0 0.0051319548 -0.003191065
1200292800.0 0.0052413604 -0.0033183199
1205292770.0 0.0050788927 -0.0033706114
1210292740.0 0.0053114248 -0.003561389
1215292710.0 0.0051646966 -0.0035109342
1220292680.0 0.0051976233 -0.0036504912
1225292650.0 0.0052041605 -0.0038231934
1230292620.0 0.0053437093 -0.0035138023
1235292590.0 0.0054813892 -0.0036689188
1240292560.0 0.0052583883 -0.0036655822
1245292530.0 0.0052846159 -0.0039491988
1250292500.0 0.0050597649 -0.0037916708
1255292470.0 0.0053098529 -0.0039096941
1260292440.0 0.005366003 -0.0041560695
1265292410.0 0.0054591362 -0.003811612
1270292380.0 0.0054169082 -0.0037561702
1275292350.0 0.0053663069 -0.0037656973
1280292320.0 0.0053472096 -0.0039476757
1285292290.0 0.005308974 -0.0039482114
1290292260.0 0.0053000465 -0.004097719
1295292230.0 0.0053463011 -0.0041748006
1300292200.0 0.0053360768 -0.0043314545
1305292170.0 0.0053070902 -0.0040353197
1310292140.0 0.0052287022 -0.0041364118
1315292110.0 0.0052691932 -0.0042412215
1320292080.0 0.0053058931 -0.0044444491
1325292050.0 0.0054899849 -0.0044137
1330292020.0 0.0053078751 -0.0043950546
1335291990.0 0.0054439501 -0.0043189706
1340291960.0 0.0052784061 -0.004479717
1345291930.0 0.0054472453 -0.004478251
1350291900.0 0.0052725632 -0.0046119537
1355291870.0 0.0053247922 -0.0043820232
1360291840.0 0.0052132706 -0.0046422321
1365291810.0 0.0053081953 -0.0046513369
1370291780.0 0.0054755897 -0.0048981574
1375291750.0 0.0051515534 -0.0048298899
1380291720.0 0.0055258575 -0.004649844
1385291690.0 0.0053207168 -0.004760299
1390291660.0 0.0053662327 -0.0049544234
1395291630.0 0.0051758097 -0.0047608907
1400291600.0 0.0052292096 -0.0050224528
1405291570.0 0.0052494803 -0.0050397505
1410291540.0 0.0052155587 -0.0051351459
1415291510.0 0.0054026803 -0.0048736014
1420291480.0 0.0054265665 -0.0050372105
1425291450.0 0.0052745642 -0.0051721651
1430291420.0 0.005320172 -0.0050491498
1435291390.0 0.0053335015 -0.0051593556
1440291360.0 0.0052936066 -0.0053868301
1445291330.0 0.0052265266 -0.0053914363
1450291300.0 0.0051501373 -0.0054981358
1455291270.0 0.0054833915 -0.0052430718
1460291240.0 0.005369785 -0.0051812108
1465291210.0 0.0051615151 -0.0052917807
1470291180.0 0.0054538034 -0.0054999849
1475291150.0 0.0051763578 -0.0057189072
1480291120.0 0.0053128924 -0.0055410324
1485291090.0 0.0051984652 -0.0055860267
1490291060.0 0.0052503523 -0.0057408185
1495291030.0 0.005357171 -0.0057418103
1500291000.0 0.0053751587 -0.0058422517
1505290970.0 0.0050578583 -0.0056115038
1510290940.0 0.0052780055 -0.0057109472
1515290910.0 0.0051634595 -0.0057970549
1520290880.0 0.00525027 -0.0058197868
1525290850.0 0.0050857187 -0.0057392095
1530290820.0 0.0053984799 -0.0057610018
1535290790.0 0.0052243995 -0.0058605031
1540290760.0 0.0053268557 -0.0061645642
1545290730.0 0.0052816173 -0.0060698689
1550290700.0 0.0052361968 -0.0061335217
1555290670.0 0.0052107398 -0.0062123876
1560290640.0 0.0053200572 -0.0062978414
1565290610.0 0.0053206984 -0.0061137057
1570290580.0 0.0052554002 -0.0063024396
1575290550.0 0.0050609866 -0.0060921239
1580290520.0 0.0052509401 -0.0061015196
1585290490.0 0.0052661827 -0.0062927656
1590290460.0 0.0051900348 -0.0063975878
1595290430.0 0.0052341735 -0.0063324154
1600290400.0 0.0052318345 -0.0065583823
1605290370.0 0.0051914246 -0.0064122658
1610290340.0 0.0052913019 -0.0063262979
1615290310.0 0.0052200107 -0.0063729005
1620290280.0 0.0051473769 -0.0063860733
1625290250.0 0.0052035462 -0.0064440293
1630290220.0 0.0052163218 -0.0064376402
1635290190.0 0.0050789485 -0.0065213489
1640290160.0 0.0050604232 -0.0067482001
1645290130.0 0.0050808916 -0.0067213207
1650290100.0 0.0051953939 -0.0066826423
1655290070.0 0.0051885683 -0.0065935351
1660290040.0 0.0050738647 -0.0066691393
1665290010.0 0.0053001938 -0.0067878137
1670289980.0 0.0051803058 -0.0069365043
1675289950.0 0.0053129209 -0.0069103537
1680289920.0 0.0050825237 -0.0070571007
1685289890.0 0.0050886249 -0.0068312076
1690289860.0 0.0051599337 -0.0070124379
1695289830.0 0.0051651335 -0.0069610819
1700289800.0 0.0051007161 -0.007198191
1705289770.0 0.0050458583 -0.0072140401
1710289740.0 0.004837976 -0.0070759947
1715289710.0 0.0047907848 -0.0071214074
1720289680.0 0.0050237732 -0.007154271
1725289650.0 0.004909869 -0.0073371501
1730289620.0 0.0049822348 -0.0071129819
1735289590.0 0.0047444237 -0.0070512054
1740289560.0 0.0046881848 -0.0072724755
1745289530.0 0.0049498494 -0.0073194173
1750289500.0 0.0050915581 -0.007209105
1755289470.0 0.0048813801 -0.0072617596
1760289440.0 0.0050013621 -0.007284858
1765289410.0 0.0050685514 -0.0074051065
1770289380.0 0.0048363719 -0.0076156036
1775289350.0 0.0048470833 -0.0074877977
1780289320.0 0.0049463549 -0.0077108543
1785289290.0 0.0048239961 -0.007462492
1790289260.0 0.0048891408 -0.0075508125
1795289230.0 0.0047686288 -0.0073688421
1800289200.0 0.0048661388 -0.0075851983
1805289170.0 0.0047211007 -0.0076031608
1810289140.0 0.0046109147 -0.0077171381
1815289110.0 0.0048231454 -0.0073702589
1820289080.0 0.0048087074 -0.0076272726
1825289050.0 0.0048008948 -0.0077812313
1830289020.0 0.0047520562 -0.007787031
1835288990.0 0.0047939574 -0.0078295779
1840288960.0 0.0046675148 -0.0078602659
1845288930.0 0.0046163993 -0.0077438899
1850288900.0 0.0049312984 -0.0079058845
1855288870.0 0.0045829913 -0.007937132
1860288840.0 0.0045926102 -0.007848014
1865288810.0 0.0046740851 -0.0079554027
1870288780.0 0.0049347012 -0.0079881684
1875288750.0 0.004660894 -0.0080887853
1880288720.0 0.004525118 -0.0081410413
1885288690.0 0.0044305298 -0.0080131092
1890288660.0 0.0046367111 -0.007943529
1895288630.0 0.0046431073 -0.0079814959
1900288600.0 0.0044991244 -0.0078209969
1905288570.0 0.0045825817 -0.0080542591
1910288540.0 0.004679098 -0.0079743205
1915288510.0 0.0045702863 -0.0081551196
1920288480.0 0.0044573748 -0.0082052523
1925288450.0 0.0044942499 -0.0078920553
1930288420.0 0.0043627145 -0.0082059504
1935288390.0 0.004429053 -0.0081111499
1940288360.0 0.0044547928 -0.0081277792
1945288330.0 0.0043793053 -0.00815158
1950288300.0 0.0044890177 -0.0080202949
1955288270.0 0.0043368654 -0.0082953507
1960288240.0 0.0044014509 -0.0082340682
1965288210.0 0.0042201885 -0.0082415116
1970288180.0 0.0044976333 -0.0081965297
1975288150.0 0.0043827076 -0.0084724206
1980288120.0 0.0042766024 -0.0083083983
1985288090.0 0.0042476776 -0.0084760687
1990288060.0 0.0042365587 -0.0084809831
1995288030.0 0.0042040272 -0.0083548239
2000288000.0 0.0042481781 -0.0083666243
2005287970.0 0.0043363886 -0.0084354943
2010287940.0 0.0040578665 -0.0084732751
2015287910.0 0.0039735339 -0.0083479937
2020287880.0 0.0039436971 -0.0083839876
2025287850.0 0.0039367323 -0.0084377491
2030287820.0 0.0039951903 -0.0085084346
2035287790.0 0.0037499871 -0.0084821284
2040287760.0 0.0040980081 -0.008271653
2045287730.0 0.0038260056 -0.0085499466
2050287700.0 0.004038056 -0.0086630286
2055287670.0 0.0037249268 -0.0086290212
2060287640.0 0.00376992 -0.0085399912
2065287610.0 0.0039063441 -0.0084511706
2070287580.0 0.0038218279 -0.0085531964
2075287550.0 0.003627317 -0.0085724948
2080287520.0 0.0037851421 -0.0085591778
2085287490.0 0.0036925884 -0.0084765485
2090287460.0 0.0037953407 -0.0085143961
2095287430.0 0.0037125923 -0.0085300016
2100287400.0 0.0037571094 -0.0086350898
2105287370.0 0.0037188787 -0.0085126094
2110287340.0 0.0036446703 -0.0087250704
2115287310.0 0.003434696 -0.0086612149
2120287280.0 0.0036379114 -0.008763529
2125287250.0 0.0036239893 -0.0086493107
2130287220.0 0.0034945874 -0.0086814527
2135287190.0 0.0036763211 -0.0086416506
2140287160.0 0.0035124139 -0.0086185019
2145287130.0 0.0034931374 -0.0087416025
2150287100.0 0.0034400983 -0.0087704056
2155287070.0 0.0033703651 -0.0087572941
2160287040.0 0.0033983966 -0.0087173094
2165287010.0 0.0035157094 -0.0086191712
2170286980.0 0.0033564581 -0.0085413975
2175286950.0 0.0034667535 -0.0085218856
2180286920.0 0.0034685864 -0.0087063177
2185286890.0 0.0031143863 -0.0085154235
2190286860.0 0.0032606338 -0.0088118934
2195286830.0 0.0033275979 -0.0084113825
2200286800.0 0.0032380564 -0.0087192718
2205286770.0 0.0032417928 -0.0087792221
2210286740.0 0.0031106678 -0.0086271519
2215286710.0 0.0030864088 -0.0088539871
2220286680.0 0.0029716852 -0.0086527892
2225286650.0 0.0028552475 -0.008837958
2230286620.0 0.003078876 -0.0087885332
2235286590.0 0.0030589066 -0.0089053162
2240286560.0 0.0027587291 -0.0090248188
2245286530.0 0.0028802106 -0.0087434009
2250286500.0 0.0029300902 -0.0087124981
2255286470.0 0.0028897835 -0.0087330692
2260286440.0 0.0026949548 -0.0088920796
2265286410.0 0.0027971565 -0.0089068873
2270286380.0 0.0026553318 -0.0087629758
2275286350.0 0.0025494462 -0.0088207776
2280286320.0 0.0026675502 -0.0090267978
2285286290.0 0.0027121311 -0.008796
2290286260.0 0.0024971156 -0.0088048668
2295286230.0 0.0025522055 -0.0088015665
2300286200.0 0.0024004203 -0.0087594318
2305286170.0 0.0026276739 -0.0089412487
2310286140.0 0.0025806459 -0.0087423958
2315286110.0 0.0023804836 -0.0088180146
2320286080.0 0.0024146946 -0.0086206873
2325286050.0 0.0021638292 -0.0086227249
2330286020.0 0.0024180608 -0.0087539342
2335285990.0 0.0024659344 -0.0087995249
2340285960.0 0.0023060921 -0.00880507
2345285930.0 0.0021629504 -0.0087427733
2350285900.0 0.0021096006 -0.008664241
2355285870.0 0.0020552607 -0.0085201624
2360285840.0 0.0021246506 -0.0089048891
2365285810.0 0.0020712511 -0.0085804563
2370285780.0 0.002090383 -0.0086119415
2375285750.0 0.0021146884 -0.0086572938
2380285720.0 0.0020654384 -0.0087659979
2385285690.0 0.0018528446 -0.0086790073
2390285660.0 0.0017439099 -0.0087068067
2395285630.0 0.0019719403 -0.0087985831
2400285600.0 0.0018979994 -0.008751942
2405285570.0 0.0016211183 -0.0087248232
2410285540.0 0.001977142 -0.0086435609
2415285510.0 0.0017925548 -0.0087716618
2420285480.0 0.0016561404 -0.0088291112
2425285450.0 0.0018967304 -0.0087682814
2430285420.0 0.0016225097 -0.0088198041
2435285390.0 0.0016662673 -0.0086859007
2440285360.0 0.0014584907 -0.0088356586
2445285330.0 0.0014984165 -0.0089148572
2450285300.0 0.0016019541 -0.0086993521
2455285270.0 0.0015747742 -0.0087479686
2460285240.0 0.001530251 -0.0084261372
2465285210.0 0.001474547 -0.00855204
2470285180.0 0.0014680025 -0.0084848738
2475285150.0 0.0010876386 -0.0083826074
2480285120.0 0.0010716351 -0.0086569756
2485285090.0 0.0010745172 -0.0083421333
2490285060.0 0.0010183785 -0.0084848587
2495285030.0 0.0010042654 -0.0085865307
2500285000.0 0.0009980221 -0.0086692408
2505284970.0 0.0009236282 -0.008533982
2510284940.0 0.001068818 -0.0084861337
2515284910.0 0.0008796195 -0.0084789291
2520284880.0 0.0010520307 -0.0084796037
2525284850.0 0.000794588 -0.0086862571
2530284820.0 0.0007474923 -0.0085763272
2535284790.0 0.0008119346 -0.0084397988
2540284760.0 0.0007637179 -0.0085667411
2545284730.0 0.000734933 -0.0085059907
