!Created with skrf (http://scikit-rf.org).
# Hz S RI R 50.0 
!freq ReS11 ImS11
45000000.0 -0.08148193359375 -0.0927581787109375
49995500.0 -0.102264404296875 -0.08877944946289062
54991000.0 -0.122711181640625 -0.08042526245117188
59986500.0 -0.14095306396484375 -0.07848358154296875
64982000.0 -0.15972137451171875 -0.0690765380859375
69977500.0 -0.1781005859375 -0.0544586181640625
74973000.0 -0.1952667236328125 -0.0366058349609375
79968500.0 -0.210723876953125 -0.0157928466796875
84964000.0 -0.224029541015625 0.00812530517578125
89959500.0 -0.23448944091796875 0.035003662109375
94955000.0 -0.2413177490234375 0.06458282470703125
99950500.0 -0.24431610107421875 0.09662628173828125
104946000.0 -0.24261474609375 0.1302947998046875
109941500.0 -0.2363739013671875 0.16484832763671875
114937000.0 -0.22486114501953125 0.20003509521484375
119932500.0 -0.2082672119140625 0.2342529296875
124928000.0 -0.186370849609375 0.268341064453125
129923500.0 -0.158935546875 0.2990875244140625
134919000.0 -0.126739501953125 0.32769775390625
139914500.0 -0.08935546875 0.352691650390625
144910000.0 -0.0480499267578125 0.3729095458984375
149905500.0 -0.002960205078125 0.388397216796875
154901000.0 0.04461669921875 0.3975982666015625
159896500.0 0.0938873291015625 0.4010772705078125
164892000.0 0.1444549560546875 0.39813232421875
169887500.0 0.1955108642578125 0.3885955810546875
174883000.0 0.2459716796875 0.3725738525390625
179878500.0 0.295074462890625 0.34979248046875
184874000.0 0.341949462890625 0.3208770751953125
189869500.0 0.386138916015625 0.2855987548828125
194865000.0 0.426788330078125 0.2449493408203125
199860500.0 0.4627685546875 0.1988525390625
204856000.0 0.49346923828125 0.1475067138671875
209851500.0 0.518768310546875 0.092010498046875
214847000.0 0.537994384765625 0.032470703125
219842500.0 0.550384521484375 -0.030303955078125
224838000.0 0.5552978515625 -0.0955810546875
229833500.0 0.552520751953125 -0.162628173828125
234829000.0 0.541717529296875 -0.22991943359375
239824500.0 0.5223388671875 -0.2974853515625
244820000.0 0.49432373046875 -0.3632354736328125
249815500.0 0.457427978515625 -0.4269561767578125
254811000.0 0.4363861083984375 -0.4730072021484375
259806500.0 0.386627197265625 -0.530242919921875
264802000.0 0.32940673828125 -0.582489013671875
269797500.0 0.264312744140625 -0.6278076171875
274793000.0 0.193603515625 -0.665191650390625
279788500.0 0.1173095703125 -0.69384765625
284784000.0 0.037322998046875 -0.713470458984375
289779500.0 -0.045745849609375 -0.72357177734375
294775000.0 -0.1304931640625 -0.723175048828125
299770500.0 -0.214996337890625 -0.713134765625
304766000.0 -0.29852294921875 -0.69305419921875
309761500.0 -0.379669189453125 -0.662841796875
314757000.0 -0.4576416015625 -0.6229248046875
319752500.0 -0.530914306640625 -0.574005126953125
324748000.0 -0.59906005859375 -0.516937255859375
329743500.0 -0.66107177734375 -0.4517822265625
334739000.0 -0.71649169921875 -0.379608154296875
339734500.0 -0.764129638671875 -0.30084228515625
344730000.0 -0.80340576171875 -0.216217041015625
349725500.0 -0.83349609375 -0.126556396484375
354721000.0 -0.854400634765625 -0.032684326171875
359716500.0 -0.86431884765625 0.064208984375
364712000.0 -0.863494873046875 0.1641845703125
369707500.0 -0.851287841796875 0.26519775390625
374703000.0 -0.826873779296875 0.366363525390625
379698500.0 -0.78985595703125 0.466064453125
384694000.0 -0.74066162109375 0.562408447265625
389689500.0 -0.678192138671875 0.653900146484375
394685000.0 -0.6043701171875 0.738433837890625
399680500.0 -0.518829345703125 0.8143310546875
404676000.0 -0.423736572265625 0.8798828125
409671500.0 -0.319305419921875 0.93438720703125
414667000.0 -0.208740234375 0.97406005859375
419662500.0 -0.0924072265625 1.0
424658000.0 0.0267333984375 1.01080322265625
429653500.0 0.14764404296875 1.0067138671875
434649000.0 0.26708984375 0.986053466796875
439644500.0 0.380828857421875 0.95111083984375
444640000.0 0.48907470703125 0.9046630859375
449635500.0 0.590576171875 0.847015380859375
454631000.0 0.686065673828125 0.779571533203125
459626500.0 0.773681640625 0.70025634765625
464622000.0 0.8515625 0.6119384765625
469617500.0 0.919219970703125 0.515899658203125
474613000.0 0.976104736328125 0.413726806640625
479608500.0 1.02264404296875 0.30572509765625
484604000.0 1.05816650390625 0.1929931640625
489599500.0 1.08258056640625 0.07623291015625
494595000.0 1.094970703125 -0.04351806640625
499590500.0 1.094970703125 -0.16552734375
504586000.0 1.08221435546875 -0.28912353515625
509581500.0 1.05609130859375 -0.4129638671875
514577000.0 1.01544189453125 -0.535888671875
519572500.0 0.959503173828125 -0.65655517578125
524568000.0 0.88836669921875 -0.77276611328125
529563500.0 0.801513671875 -0.881591796875
534559000.0 0.699951171875 -0.98089599609375
539554500.0 0.58441162109375 -1.06756591796875
544550000.0 0.45745849609375 -1.13922119140625
549545500.0 0.32122802734375 -1.19451904296875
554541000.0 0.17803955078125 -1.232177734375
559536500.0 0.0308837890625 -1.25164794921875
564532000.0 -0.11834716796875 -1.25262451171875
569527500.0 -0.26666259765625 -1.23516845703125
574523000.0 -0.411376953125 -1.1988525390625
579518500.0 -0.550048828125 -1.14532470703125
584514000.0 -0.680419921875 -1.075439453125
589509500.0 -0.800872802734375 -0.9906005859375
594505000.0 -0.909423828125 -0.89300537109375
599500500.0 -1.00531005859375 -0.78448486328125
604496000.0 -1.08795166015625 -0.66741943359375
609491500.0 -1.15643310546875 -0.54278564453125
614487000.0 -1.21099853515625 -0.41278076171875
619482500.0 -1.2520751953125 -0.2789306640625
624478000.0 -1.27911376953125 -0.142333984375
629473500.0 -1.29266357421875 -0.00341796875
634469000.0 -1.29278564453125 0.13580322265625
639464500.0 -1.2791748046875 0.2762451171875
644460000.0 -1.25213623046875 0.4156494140625
649455500.0 -1.21063232421875 0.55377197265625
654451000.0 -1.1546630859375 0.68975830078125
659446500.0 -1.08380126953125 0.82177734375
664442000.0 -0.997711181640625 0.948944091796875
669437500.0 -0.8951416015625 1.0692138671875
674433000.0 -0.7769775390625 1.17974853515625
679428500.0 -0.64276123046875 1.27801513671875
684424000.0 -0.49395751953125 1.3614501953125
689419500.0 -0.33184814453125 1.42669677734375
694415000.0 -0.1590576171875 1.470947265625
699410500.0 0.02099609375 1.4927978515625
704406000.0 0.20501708984375 1.48980712890625
709401500.0 0.38824462890625 1.46112060546875
714397000.0 0.56695556640625 1.4073486328125
719392500.0 0.73614501953125 1.32965087890625
724388000.0 0.89276123046875 1.23077392578125
729383500.0 1.03338623046875 1.1123046875
734379000.0 1.15496826171875 0.9771728515625
739374500.0 1.2574462890625 0.8310546875
744370000.0 1.3388671875 0.67535400390625
749365500.0 1.40087890625 0.5145263671875
754361000.0 1.4437255859375 0.35150146484375
759356500.0 1.4669189453125 0.187255859375
764352000.0 1.47296142578125 0.02423095703125
769347500.0 1.46270751953125 -0.13592529296875
774343000.0 1.43658447265625 -0.2926025390625
779338500.0 1.3946533203125 -0.4444580078125
784334000.0 1.3406982421875 -0.5911865234375
789329500.0 1.2728271484375 -0.731689453125
794325000.0 1.191650390625 -0.86566162109375
799320500.0 1.09759521484375 -0.9923095703125
804316000.0 0.99066162109375 -1.1104736328125
809311500.0 0.87127685546875 -1.2188720703125
814307000.0 0.739501953125 -1.31683349609375
819302500.0 0.595703125 -1.40240478515625
824298000.0 0.44012451171875 -1.47235107421875
829293500.0 0.27496337890625 -1.52667236328125
834289000.0 0.099853515625 -1.561767578125
839284500.0 -0.08111572265625 -1.57611083984375
844280000.0 -0.1981201171875 -1.59765625
849275500.0 -0.386474609375 -1.57470703125
854271000.0 -0.57269287109375 -1.52703857421875
859266500.0 -0.7528076171875 -1.45538330078125
864262000.0 -0.9215087890625 -1.36029052734375
869257500.0 -1.07733154296875 -1.24365234375
874253000.0 -1.21697998046875 -1.109130859375
879248500.0 -1.3380126953125 -0.958251953125
884244000.0 -1.4373779296875 -0.79541015625
889239500.0 -1.51580810546875 -0.6234130859375
894235000.0 -1.572509765625 -0.44573974609375
899230500.0 -1.60894775390625 -0.26495361328125
904226000.0 -1.6236572265625 -0.08270263671875
909221500.0 -1.619140625 0.0982666015625
914217000.0 -1.5938720703125 0.2764892578125
919212500.0 -1.55029296875 0.4481201171875
924208000.0 -1.48992919921875 0.61260986328125
929203500.0 -1.4140625 0.76904296875
934199000.0 -1.3243408203125 0.91558837890625
939194500.0 -1.22100830078125 1.05291748046875
944190000.0 -1.1058349609375 1.17938232421875
949185500.0 -0.97808837890625 1.29595947265625
954181000.0 -0.83795166015625 1.400634765625
959176500.0 -0.6875 1.492431640625
964172000.0 -0.5245361328125 1.5692138671875
969167500.0 -0.35198974609375 1.62982177734375
974163000.0 -0.17022705078125 1.67291259765625
979158500.0 0.01953125 1.6956787109375
984154000.0 0.2147216796875 1.69671630859375
989149500.0 0.41241455078125 1.67340087890625
994145000.0 0.60882568359375 1.6253662109375
999140500.0 0.80120849609375 1.5516357421875
1004136000.0 0.98406982421875 1.45281982421875
1009131500.0 1.15435791015625 1.33013916015625
1014127000.0 1.3076171875 1.18536376953125
1019122500.0 1.44012451171875 1.02117919921875
1024118000.0 1.550537109375 0.84210205078125
1029113500.0 1.63665771484375 0.65142822265625
1034109000.0 1.6966552734375 0.45294189453125
1039104500.0 1.73089599609375 0.25103759765625
1044100000.0 1.7406005859375 0.0491943359375
1049095500.0 1.726806640625 -0.1492919921875
1054091000.0 1.6903076171875 -0.342041015625
1059086500.0 1.633544921875 -0.5263671875
1064082000.0 1.5587158203125 -0.7012939453125
1069077500.0 1.467041015625 -0.86505126953125
1074073000.0 1.36053466796875 -1.0167236328125
1079068500.0 1.240234375 -1.15570068359375
1084064000.0 1.10736083984375 -1.282470703125
1089059500.0 0.96319580078125 -1.39483642578125
1094055000.0 0.8079833984375 -1.492431640625
1099050500.0 0.64349365234375 -1.5755615234375
1104046000.0 0.46990966796875 -1.64093017578125
1109041500.0 0.28900146484375 -1.6893310546875
1114037000.0 0.1016845703125 -1.7191162109375
1119032500.0 -0.0909423828125 -1.728271484375
1124028000.0 -0.2864990234375 -1.71636962890625
1129023500.0 -0.4813232421875 -1.68121337890625
1134019000.0 -0.6741943359375 -1.6236572265625
1139014500.0 -0.86151123046875 -1.54205322265625
1144010000.0 -1.03851318359375 -1.4368896484375
1149005500.0 -1.2039794921875 -1.30902099609375
1154001000.0 -1.3531494140625 -1.16058349609375
1158996500.0 -1.48272705078125 -0.99371337890625
1163992000.0 -1.58953857421875 -0.810546875
1168987500.0 -1.67181396484375 -0.61602783203125
1173983000.0 -1.72955322265625 -0.412353515625
1178978500.0 -1.75933837890625 -0.2052001953125
1183974000.0 -1.76318359375 0.00225830078125
1188969500.0 -1.7421875 0.20672607421875
1193965000.0 -1.696533203125 0.404541015625
1198960500.0 -1.628662109375 0.59222412109375
1203956000.0 -1.54132080078125 0.76837158203125
1208951500.0 -1.43560791015625 0.9305419921875
1213947000.0 -1.31463623046875 1.07763671875
1218942500.0 -1.18023681640625 1.20806884765625
1223938000.0 -1.0352783203125 1.32257080078125
1228933500.0 -0.8802490234375 1.420654296875
1233929000.0 -0.718505859375 1.50030517578125
1238924500.0 -0.55078125 1.562744140625
1243920000.0 -0.378662109375 1.6085205078125
1248915500.0 -0.2044677734375 1.6363525390625
1253911000.0 -0.028076171875 1.6470947265625
1258906500.0 0.14874267578125 1.6396484375
1263902000.0 0.3245849609375 1.6158447265625
1268897500.0 0.49658203125 1.572509765625
1273893000.0 0.6630859375 1.511474609375
1278888500.0 0.82513427734375 1.43377685546875
1283884000.0 0.978271484375 1.33831787109375
1288879500.0 1.12091064453125 1.2261962890625
1293875000.0 1.252685546875 1.09771728515625
1298870500.0 1.3692626953125 0.95513916015625
1303866000.0 1.47052001953125 0.79901123046875
1308861500.0 1.55364990234375 0.63153076171875
1313857000.0 1.6182861328125 0.45458984375
1318852500.0 1.66192626953125 0.27044677734375
1323848000.0 1.684326171875 0.08233642578125
1328843500.0 1.68524169921875 -0.10797119140625
1333839000.0 1.664306640625 -0.298095703125
1338834500.0 1.62115478515625 -0.48541259765625
1343830000.0 1.5577392578125 -0.66632080078125
1348825500.0 1.4727783203125 -0.83880615234375
1353821000.0 1.36883544921875 -1.00177001953125
1358816500.0 1.24664306640625 -1.15185546875
1363812000.0 1.1075439453125 -1.28643798828125
1368807500.0 0.95391845703125 -1.40374755859375
1373803000.0 0.78680419921875 -1.502197265625
1378798500.0 0.60943603515625 -1.58087158203125
1383794000.0 0.42376708984375 -1.6383056640625
1388789500.0 0.234375 -1.6724853515625
1393785000.0 0.04156494140625 -1.684326171875
1398780500.0 -0.14923095703125 -1.6734619140625
1403776000.0 -0.33673095703125 -1.63995361328125
1408771500.0 -0.51788330078125 -1.585693359375
1413767000.0 -0.69036865234375 -1.51177978515625
1418762500.0 -0.8514404296875 -1.41900634765625
1423758000.0 -0.99932861328125 -1.30999755859375
1428753500.0 -1.1324462890625 -1.1866455078125
1433749000.0 -1.25140380859375 -1.051025390625
1438744500.0 -1.35308837890625 -0.90447998046875
1443740000.0 -1.43878173828125 -0.75006103515625
1448735500.0 -1.50738525390625 -0.58856201171875
1453731000.0 -1.55816650390625 -0.42193603515625
1458726500.0 -1.5926513671875 -0.251953125
1463722000.0 -1.60955810546875 -0.07940673828125
1468717500.0 -1.609130859375 0.09375
1473713000.0 -1.5914306640625 0.26678466796875
1478708500.0 -1.55584716796875 0.4378662109375
1483704000.0 -1.50360107421875 0.60577392578125
1488699500.0 -1.43341064453125 0.76849365234375
1493695000.0 -1.3455810546875 0.92523193359375
1498690500.0 -1.24005126953125 1.0736083984375
1503686000.0 -1.11676025390625 1.21044921875
1508681500.0 -0.9769287109375 1.33477783203125
1513677000.0 -0.82171630859375 1.443115234375
1518672500.0 -0.6524658203125 1.53375244140625
1523668000.0 -0.47119140625 1.60308837890625
1528663500.0 -0.28045654296875 1.65020751953125
1533659000.0 -0.08447265625 1.67254638671875
1538654500.0 0.113037109375 1.669677734375
1543650000.0 0.30859375 1.6414794921875
1548645500.0 0.49853515625 1.5880126953125
1553641000.0 0.677978515625 1.51092529296875
1558636500.0 0.84454345703125 1.41314697265625
1563632000.0 0.99505615234375 1.2969970703125
1568627500.0 1.128173828125 1.16522216796875
1573623000.0 1.24200439453125 1.02130126953125
1578618500.0 1.33636474609375 0.86785888671875
1583614000.0 1.4117431640625 0.7083740234375
1588609500.0 1.46783447265625 0.54473876953125
1593605000.0 1.50555419921875 0.37945556640625
1598600500.0 1.52557373046875 0.21466064453125
1603596000.0 1.52935791015625 0.05108642578125
1608591500.0 1.5172119140625 -0.10919189453125
1613587000.0 1.49017333984375 -0.26654052734375
1618582500.0 1.4486083984375 -0.41851806640625
1623578000.0 1.39373779296875 -0.56585693359375
1628573500.0 1.325439453125 -0.70703125
1633569000.0 1.2440185546875 -0.84161376953125
1638564500.0 1.1494140625 -0.96795654296875
1643560000.0 1.0428466796875 -1.0858154296875
1648555500.0 0.9232177734375 -1.1939697265625
1653551000.0 0.79217529296875 -1.2900390625
1658546500.0 0.64990234375 -1.37298583984375
1663542000.0 0.4969482421875 -1.440185546875
1668537500.0 0.33538818359375 -1.491943359375
1673533000.0 0.16656494140625 -1.52392578125
1678528500.0 -0.00616455078125 -1.5360107421875
1683524000.0 -0.18096923828125 -1.52667236328125
1688519500.0 -0.353271484375 -1.49554443359375
1693515000.0 -0.52203369140625 -1.4432373046875
1698510500.0 -0.68243408203125 -1.36962890625
1703506000.0 -0.829833984375 -1.27960205078125
1708501500.0 -0.96466064453125 -1.1715087890625
1713497000.0 -1.08380126953125 -1.04962158203125
1718492500.0 -1.185546875 -0.91650390625
1723488000.0 -1.26983642578125 -0.775634765625
1728483500.0 -1.33709716796875 -0.62896728515625
1733479000.0 -1.3868408203125 -0.47882080078125
1738474500.0 -1.42083740234375 -0.32720947265625
1743470000.0 -1.4390869140625 -0.1759033203125
1748465500.0 -1.4425048828125 -0.02569580078125
1753461000.0 -1.43267822265625 0.122802734375
1758456500.0 -1.40936279296875 0.267822265625
1763452000.0 -1.37322998046875 0.40985107421875
1768447500.0 -1.32550048828125 0.5484619140625
1773443000.0 -1.264892578125 0.68255615234375
1778438500.0 -1.19189453125 0.81201171875
1783434000.0 -1.106201171875 0.93560791015625
1788429500.0 -1.00799560546875 1.05224609375
1793425000.0 -0.8961181640625 1.1607666015625
1798420500.0 -0.771240234375 1.25946044921875
1803416000.0 -0.63385009765625 1.344970703125
1808411500.0 -0.484375 1.4173583984375
1813407000.0 -0.3238525390625 1.47259521484375
1818402500.0 -0.1551513671875 1.50848388671875
1823398000.0 0.019775390625 1.52313232421875
1828393500.0 0.1966552734375 1.51544189453125
1833389000.0 0.3724365234375 1.484130859375
1838384500.0 0.5438232421875 1.43035888671875
1843380000.0 0.70574951171875 1.3543701171875
1848375500.0 0.85516357421875 1.25860595703125
1853371000.0 0.990234375 1.14617919921875
1858366500.0 1.107177734375 1.01904296875
1863362000.0 1.20599365234375 0.88165283203125
1868357500.0 1.28668212890625 0.73614501953125
1873353000.0 1.34881591796875 0.58642578125
1878348500.0 1.3935546875 0.4339599609375
1883344000.0 1.421875 0.2811279296875
1888339500.0 1.43402099609375 0.129638671875
1893335000.0 1.4317626953125 -0.01947021484375
1898330500.0 1.4158935546875 -0.1661376953125
1903326000.0 1.38800048828125 -0.30908203125
1908321500.0 1.34765625 -0.44793701171875
1913317000.0 1.295166015625 -0.58197021484375
1918312500.0 1.231201171875 -0.7122802734375
1923308000.0 1.15509033203125 -0.83673095703125
1928303500.0 1.067626953125 -0.95489501953125
1933299000.0 0.9677734375 -1.066650390625
1938294500.0 0.85540771484375 -1.169921875
1943290000.0 0.73114013671875 -1.2626953125
1948285500.0 0.59442138671875 -1.34442138671875
1953281000.0 0.447265625 -1.4112548828125
1958276500.0 0.28997802734375 -1.46246337890625
1963272000.0 0.12457275390625 -1.494873046875
1968267500.0 -0.046142578125 -1.50762939453125
1973263000.0 -0.21929931640625 -1.49847412109375
1978258500.0 -0.39129638671875 -1.4677734375
1983254000.0 -0.559326171875 -1.41485595703125
1988249500.0 -0.71893310546875 -1.34033203125
1993245000.0 -0.867431640625 -1.24658203125
1998240500.0 -1.00250244140625 -1.13531494140625
2003236000.0 -1.1207275390625 -1.01031494140625
2008231500.0 -1.22161865234375 -0.873291015625
2013227000.0 -1.3046875 -0.72747802734375
2018222500.0 -1.36944580078125 -0.57568359375
2023218000.0 -1.416015625 -0.4202880859375
2028213500.0 -1.44561767578125 -0.2633056640625
2033209000.0 -1.4588623046875 -0.10662841796875
2038204500.0 -1.4560546875 0.04888916015625
2043200000.0 -1.43792724609375 0.201171875
2048195500.0 -1.4058837890625 0.3502197265625
2053191000.0 -1.35906982421875 0.49456787109375
2058186500.0 -1.299560546875 0.63446044921875
2063182000.0 -1.22674560546875 0.766845703125
2068177500.0 -1.1405029296875 0.89263916015625
2073173000.0 -1.04241943359375 1.01019287109375
2078168500.0 -0.931396484375 1.11822509765625
2083164000.0 -0.8089599609375 1.2154541015625
2088159500.0 -0.67547607421875 1.2999267578125
2093155000.0 -0.53173828125 1.3697509765625
2098150500.0 -0.3797607421875 1.42425537109375
2103146000.0 -0.22113037109375 1.4617919921875
2108141500.0 -0.05828857421875 1.47991943359375
2113137000.0 0.107177734375 1.4794921875
2118132500.0 0.27117919921875 1.458740234375
2123128000.0 0.431884765625 1.41876220703125
2128123500.0 0.58685302734375 1.361083984375
2133119000.0 0.7327880859375 1.28497314453125
2138114500.0 0.86767578125 1.19317626953125
2143110000.0 0.98974609375 1.08746337890625
2148105500.0 1.0986328125 0.9700927734375
2153101000.0 1.19256591796875 0.84307861328125
2158096500.0 1.27154541015625 0.70849609375
2163092000.0 1.3353271484375 0.56793212890625
2168087500.0 1.38433837890625 0.4232177734375
2173083000.0 1.4180908203125 0.27557373046875
2178078500.0 1.4371337890625 0.12725830078125
2183074000.0 1.44305419921875 -0.02239990234375
2188069500.0 1.43450927734375 -0.171875
2193065000.0 1.41162109375 -0.31915283203125
