!Created with skrf (http://scikit-rf.org).
# Hz S RI R 50.0 
!freq ReS11 ImS11
45000000.0 -0.08135604858398438 -0.09283447265625
49995500.0 -0.10198211669921875 -0.08866500854492188
54991000.0 -0.12240982055664062 -0.0806427001953125
59986500.0 -0.14064788818359375 -0.078826904296875
64982000.0 -0.159423828125 -0.06941986083984375
69977500.0 -0.17783355712890625 -0.0548553466796875
74973000.0 -0.1950531005859375 -0.0374755859375
79968500.0 -0.2106170654296875 -0.01663970947265625
84964000.0 -0.22389984130859375 0.00717926025390625
89959500.0 -0.23467254638671875 0.033966064453125
94955000.0 -0.24138641357421875 0.0634918212890625
99950500.0 -0.2446746826171875 0.09552001953125
104946000.0 -0.24323272705078125 0.12912750244140625
109941500.0 -0.2369537353515625 0.163543701171875
114937000.0 -0.225982666015625 0.19835662841796875
119932500.0 -0.20935821533203125 0.2334442138671875
124928000.0 -0.187713623046875 0.2669525146484375
129923500.0 -0.160675048828125 0.298248291015625
134919000.0 -0.1284027099609375 0.3268280029296875
139914500.0 -0.091644287109375 0.351715087890625
144910000.0 -0.0504913330078125 0.372467041015625
149905500.0 -0.0059661865234375 0.3878631591796875
154901000.0 0.041290283203125 0.3976593017578125
159896500.0 0.0907440185546875 0.4014892578125
164892000.0 0.1412353515625 0.3987884521484375
169887500.0 0.19207763671875 0.3897857666015625
174883000.0 0.242706298828125 0.374267578125
179878500.0 0.2919464111328125 0.3521575927734375
184874000.0 0.339019775390625 0.3236846923828125
189869500.0 0.383331298828125 0.2890167236328125
194865000.0 0.424224853515625 0.248748779296875
199860500.0 0.46051025390625 0.203155517578125
204856000.0 0.49163818359375 0.152374267578125
209851500.0 0.51739501953125 0.097137451171875
214847000.0 0.537078857421875 0.037933349609375
219842500.0 0.55010986328125 -0.024658203125
224838000.0 0.555755615234375 -0.089569091796875
229833500.0 0.553802490234375 -0.156402587890625
234829000.0 0.5438232421875 -0.2239990234375
239824500.0 0.525177001953125 -0.291046142578125
244820000.0 0.4981536865234375 -0.3572998046875
249815500.0 0.4619903564453125 -0.421234130859375
254811000.0 0.4418792724609375 -0.4674072265625
259806500.0 0.39306640625 -0.52496337890625
264802000.0 0.336578369140625 -0.577850341796875
269797500.0 0.2723388671875 -0.62371826171875
274793000.0 0.20208740234375 -0.662017822265625
279788500.0 0.126556396484375 -0.6917724609375
284784000.0 0.047027587890625 -0.71246337890625
289779500.0 -0.03564453125 -0.723419189453125
294775000.0 -0.119964599609375 -0.72479248046875
299770500.0 -0.20489501953125 -0.71600341796875
304766000.0 -0.288360595703125 -0.697052001953125
309761500.0 -0.369842529296875 -0.668212890625
314757000.0 -0.44818115234375 -0.629364013671875
319752500.0 -0.521759033203125 -0.58148193359375
324748000.0 -0.590728759765625 -0.52557373046875
329743500.0 -0.653656005859375 -0.46185302734375
334739000.0 -0.71002197265625 -0.390625
339734500.0 -0.758758544921875 -0.312652587890625
344730000.0 -0.799102783203125 -0.22894287109375
349725500.0 -0.830718994140625 -0.140045166015625
354721000.0 -0.852752685546875 -0.047210693359375
359716500.0 -0.86456298828125 0.049652099609375
364712000.0 -0.865478515625 0.149139404296875
369707500.0 -0.85491943359375 0.24993896484375
374703000.0 -0.83245849609375 0.35137939453125
379698500.0 -0.797515869140625 0.45135498046875
384694000.0 -0.750091552734375 0.54840087890625
389689500.0 -0.689849853515625 0.64068603515625
394685000.0 -0.617431640625 0.726165771484375
399680500.0 -0.53399658203125 0.803466796875
404676000.0 -0.4400634765625 0.870849609375
409671500.0 -0.337646484375 0.9276123046875
414667000.0 -0.2281494140625 0.96844482421875
419662500.0 -0.112518310546875 0.997314453125
424658000.0 0.006103515625 1.01080322265625
429653500.0 0.12652587890625 1.00885009765625
434649000.0 0.246337890625 0.990631103515625
439644500.0 0.36065673828125 0.958648681640625
444640000.0 0.46978759765625 0.914581298828125
449635500.0 0.57196044921875 0.858978271484375
454631000.0 0.6685791015625 0.793426513671875
459626500.0 0.757965087890625 0.716339111328125
464622000.0 0.837310791015625 0.630035400390625
469617500.0 0.90673828125 0.53570556640625
474613000.0 0.965728759765625 0.434967041015625
479608500.0 1.014404296875 0.3282470703125
484604000.0 1.0526123046875 0.2166748046875
489599500.0 1.07891845703125 0.10113525390625
494595000.0 1.09405517578125 -0.017822265625
499590500.0 1.0966796875 -0.1396484375
504586000.0 1.0870361328125 -0.2626953125
509581500.0 1.06353759765625 -0.38671875
514577000.0 1.02606201171875 -0.50994873046875
519572500.0 0.97393798828125 -0.63104248046875
524568000.0 0.906097412109375 -0.747833251953125
529563500.0 0.8223876953125 -0.859161376953125
534559000.0 0.724639892578125 -0.96002197265625
539554500.0 0.61199951171875 -1.04949951171875
544550000.0 0.48797607421875 -1.12457275390625
549545500.0 0.353515625 -1.1837158203125
554541000.0 0.21124267578125 -1.22540283203125
559536500.0 0.06573486328125 -1.24920654296875
564532000.0 -0.08270263671875 -1.25421142578125
569527500.0 -0.23138427734375 -1.24114990234375
574523000.0 -0.3768310546875 -1.20941162109375
579518500.0 -0.5172119140625 -1.159912109375
584514000.0 -0.64910888671875 -1.09368896484375
589509500.0 -0.77197265625 -1.01287841796875
594505000.0 -0.883270263671875 -0.91851806640625
599500500.0 -0.982208251953125 -0.812896728515625
604496000.0 -1.0677490234375 -0.69805908203125
609491500.0 -1.1396484375 -0.57562255859375
614487000.0 -1.19781494140625 -0.44775390625
619482500.0 -1.24249267578125 -0.31524658203125
624478000.0 -1.2734375 -0.1795654296875
629473500.0 -1.2908935546875 -0.04180908203125
634469000.0 -1.294677734375 0.0970458984375
639464500.0 -1.285400390625 0.23699951171875
644460000.0 -1.26190185546875 0.37664794921875
649455500.0 -1.224853515625 0.51507568359375
654451000.0 -1.173095703125 0.6519775390625
659446500.0 -1.10687255859375 0.78521728515625
664442000.0 -1.025146484375 0.91448974609375
669437500.0 -0.927490234375 1.0372314453125
674433000.0 -0.8134765625 1.15045166015625
679428500.0 -0.68341064453125 1.25286865234375
684424000.0 -0.53900146484375 1.34063720703125
689419500.0 -0.38018798828125 1.4112548828125
694415000.0 -0.2100830078125 1.46160888671875
699410500.0 -0.03192138671875 1.48980712890625
704406000.0 0.15093994140625 1.4935302734375
709401500.0 0.3348388671875 1.47216796875
714397000.0 0.514404296875 1.42559814453125
719392500.0 0.686279296875 1.3548583984375
724388000.0 0.8463134765625 1.26239013671875
729383500.0 0.9915771484375 1.14971923828125
734379000.0 1.11822509765625 1.0196533203125
739374500.0 1.226318359375 0.87725830078125
744370000.0 1.314453125 0.72540283203125
749365500.0 1.381591796875 0.566162109375
754361000.0 1.43060302734375 0.40472412109375
759356500.0 1.460205078125 0.24114990234375
764352000.0 1.47174072265625 0.078369140625
769347500.0 1.4669189453125 -0.0821533203125
774343000.0 1.446044921875 -0.23944091796875
779338500.0 1.410400390625 -0.392578125
784334000.0 1.3609619140625 -0.5406494140625
789329500.0 1.29840087890625 -0.68316650390625
794325000.0 1.22210693359375 -0.819580078125
799320500.0 1.1329345703125 -0.9490966796875
804316000.0 1.0308837890625 -1.07012939453125
809311500.0 0.91583251953125 -1.18255615234375
814307000.0 0.78900146484375 -1.28460693359375
819302500.0 0.64923095703125 -1.37445068359375
824298000.0 0.497314453125 -1.45068359375
829293500.0 0.33612060546875 -1.5108642578125
834289000.0 0.16375732421875 -1.55279541015625
839284500.0 -0.01483154296875 -1.5743408203125
844280000.0 -0.13043212890625 -1.6014404296875
849275500.0 -0.319091796875 -1.5870361328125
854271000.0 -0.50579833984375 -1.54852294921875
859266500.0 -0.68768310546875 -1.48504638671875
864262000.0 -0.86102294921875 -1.39813232421875
869257500.0 -1.02117919921875 -1.28924560546875
874253000.0 -1.16632080078125 -1.1611328125
879248500.0 -1.2938232421875 -1.0166015625
884244000.0 -1.400390625 -0.8585205078125
889239500.0 -1.48736572265625 -0.690673828125
894235000.0 -1.55224609375 -0.5159912109375
899230500.0 -1.5965576171875 -0.33660888671875
904226000.0 -1.61956787109375 -0.1552734375
909221500.0 -1.623046875 0.02630615234375
914217000.0 -1.60577392578125 0.20526123046875
919212500.0 -1.570068359375 0.3792724609375
924208000.0 -1.5164794921875 0.54638671875
929203500.0 -1.44732666015625 0.705322265625
934199000.0 -1.36383056640625 0.85546875
939194500.0 -1.266845703125 0.99688720703125
944190000.0 -1.1572265625 1.12823486328125
949185500.0 -1.03466796875 1.2489013671875
954181000.0 -0.900390625 1.35931396484375
959176500.0 -0.75433349609375 1.45660400390625
964172000.0 -0.5965576171875 1.54034423828125
969167500.0 -0.42755126953125 1.60888671875
974163000.0 -0.24932861328125 1.6600341796875
979158500.0 -0.06207275390625 1.691650390625
984154000.0 0.13134765625 1.70196533203125
989149500.0 0.32879638671875 1.68896484375
994145000.0 0.52642822265625 1.65093994140625
999140500.0 0.7203369140625 1.58758544921875
1004136000.0 0.9071044921875 1.4993896484375
1009131500.0 1.0836181640625 1.38616943359375
1014127000.0 1.2440185546875 1.2503662109375
1019122500.0 1.38531494140625 1.09478759765625
1024118000.0 1.5050048828125 0.92205810546875
1029113500.0 1.600830078125 0.7362060546875
1034109000.0 1.671630859375 0.54144287109375
1039104500.0 1.7171630859375 0.34136962890625
1044100000.0 1.7373046875 0.140625
1049095500.0 1.73333740234375 -0.0587158203125
1054091000.0 1.70794677734375 -0.2535400390625
1059086500.0 1.6605224609375 -0.4410400390625
1064082000.0 1.59515380859375 -0.619384765625
1069077500.0 1.51190185546875 -0.7872314453125
1074073000.0 1.4129638671875 -0.94476318359375
1079068500.0 1.29974365234375 -1.0899658203125
1084064000.0 1.173583984375 -1.222412109375
1089059500.0 1.03515625 -1.341796875
1094055000.0 0.885986328125 -1.4471435546875
1099050500.0 0.72601318359375 -1.53765869140625
1104046000.0 0.55718994140625 -1.61181640625
1109041500.0 0.379150390625 -1.66937255859375
1114037000.0 0.19512939453125 -1.70831298828125
1119032500.0 0.00457763671875 -1.72796630859375
1124028000.0 -0.18902587890625 -1.72662353515625
1129023500.0 -0.3853759765625 -1.703857421875
1134019000.0 -0.579345703125 -1.656982421875
1139014500.0 -0.76959228515625 -1.586669921875
1144010000.0 -0.9527587890625 -1.49322509765625
1149005500.0 -1.12432861328125 -1.37628173828125
1154001000.0 -1.2811279296875 -1.2376708984375
1158996500.0 -1.42034912109375 -1.07965087890625
1163992000.0 -1.53839111328125 -0.9041748046875
1168987500.0 -1.63311767578125 -0.71539306640625
1173983000.0 -1.702880859375 -0.5164794921875
1178978500.0 -1.7454833984375 -0.31109619140625
1183974000.0 -1.76287841796875 -0.10394287109375
1188969500.0 -1.754150390625 0.10125732421875
1193965000.0 -1.720947265625 0.30126953125
1198960500.0 -1.6651611328125 0.49371337890625
1203956000.0 -1.58795166015625 0.67449951171875
1208951500.0 -1.49237060546875 0.84332275390625
1213947000.0 -1.38043212890625 0.9976806640625
1218942500.0 -1.2537841796875 1.13690185546875
1223938000.0 -1.1151123046875 1.2598876953125
1228933500.0 -0.96630859375 1.36700439453125
1233929000.0 -0.8087158203125 1.45635986328125
1238924500.0 -0.64508056640625 1.5286865234375
1243920000.0 -0.47607421875 1.5841064453125
1248915500.0 -0.303955078125 1.62164306640625
1253911000.0 -0.12823486328125 1.64300537109375
1258906500.0 0.04791259765625 1.646484375
1263902000.0 0.22442626953125 1.63238525390625
1268897500.0 0.39898681640625 1.6005859375
1273893000.0 0.568115234375 1.5496826171875
1278888500.0 0.73321533203125 1.48175048828125
1283884000.0 0.89208984375 1.39654541015625
1288879500.0 1.04052734375 1.293701171875
1293875000.0 1.17901611328125 1.17437744140625
1298870500.0 1.30426025390625 1.04022216796875
1303866000.0 1.41461181640625 0.89141845703125
1308861500.0 1.508056640625 0.73046875
1313857000.0 1.583251953125 0.558837890625
1318852500.0 1.63885498046875 0.3785400390625
1323848000.0 1.673828125 0.1923828125
1328843500.0 1.68695068359375 0.00396728515625
1333839000.0 1.6790771484375 -0.1859130859375
1338834500.0 1.6490478515625 -0.37469482421875
1343830000.0 1.59814453125 -0.55938720703125
1348825500.0 1.52581787109375 -0.73712158203125
1353821000.0 1.43389892578125 -0.90582275390625
1358816500.0 1.32208251953125 -1.06292724609375
1363812000.0 1.19293212890625 -1.20684814453125
1368807500.0 1.047607421875 -1.3343505859375
1373803000.0 0.88873291015625 -1.44390869140625
1378798500.0 0.7176513671875 -1.53472900390625
1383794000.0 0.53765869140625 -1.60479736328125
1388789500.0 0.35076904296875 -1.65252685546875
1393785000.0 0.16021728515625 -1.67755126953125
1398780500.0 -0.03118896484375 -1.68035888671875
1403776000.0 -0.22100830078125 -1.6610107421875
1408771500.0 -0.4052734375 -1.619384765625
1413767000.0 -0.58203125 -1.5574951171875
1418762500.0 -0.74969482421875 -1.476318359375
1423758000.0 -0.90484619140625 -1.3785400390625
1428753500.0 -1.04693603515625 -1.26416015625
1433749000.0 -1.1741943359375 -1.13690185546875
1438744500.0 -1.28619384765625 -0.99798583984375
1443740000.0 -1.38201904296875 -0.84979248046875
1448735500.0 -1.4613037109375 -0.69390869140625
1453731000.0 -1.52374267578125 -0.53167724609375
1458726500.0 -1.568603515625 -0.36431884765625
1463722000.0 -1.597412109375 -0.194091796875
1468717500.0 -1.609375 -0.02191162109375
1473713000.0 -1.603515625 0.15081787109375
1478708500.0 -1.5804443359375 0.32269287109375
1483704000.0 -1.5400390625 0.4918212890625
1488699500.0 -1.482177734375 0.65826416015625
1493695000.0 -1.4066162109375 0.8199462890625
1498690500.0 -1.31298828125 0.97344970703125
1503686000.0 -1.2017822265625 1.1182861328125
1508681500.0 -1.0733642578125 1.2510986328125
1513677000.0 -0.92816162109375 1.3709716796875
1518672500.0 -0.76776123046875 1.473876953125
1523668000.0 -0.594482421875 1.5567626953125
1528663500.0 -0.4097900390625 1.61883544921875
1533659000.0 -0.2176513671875 1.65814208984375
1538654500.0 -0.021728515625 1.6708984375
1543650000.0 0.1749267578125 1.65985107421875
1548645500.0 0.36810302734375 1.6231689453125
1553641000.0 0.55340576171875 1.5621337890625
1558636500.0 0.72760009765625 1.4781494140625
1563632000.0 0.88800048828125 1.3748779296875
1568627500.0 1.03204345703125 1.2547607421875
1573623000.0 1.15753173828125 1.11993408203125
1578618500.0 1.2652587890625 0.97467041015625
1583614000.0 1.35296630859375 0.82098388671875
1588609500.0 1.422607421875 0.6617431640625
1593605000.0 1.47320556640625 0.49920654296875
1598600500.0 1.5059814453125 0.33575439453125
1603596000.0 1.522705078125 0.17279052734375
1608591500.0 1.5224609375 0.01153564453125
1613587000.0 1.50732421875 -0.14691162109375
1618582500.0 1.477783203125 -0.3018798828125
1623578000.0 1.43450927734375 -0.45245361328125
1628573500.0 1.3773193359375 -0.59808349609375
1633569000.0 1.3067626953125 -0.738037109375
1638564500.0 1.222900390625 -0.87103271484375
1643560000.0 1.12603759765625 -0.99578857421875
1648555500.0 1.01654052734375 -1.11175537109375
1653551000.0 0.89447021484375 -1.218017578125
1658546500.0 0.7601318359375 -1.3118896484375
1663542000.0 0.61468505859375 -1.39166259765625
1668537500.0 0.4591064453125 -1.45574951171875
1673533000.0 0.29486083984375 -1.50244140625
1678528500.0 0.1246337890625 -1.52960205078125
1683524000.0 -0.04901123046875 -1.53564453125
1688519500.0 -0.2237548828125 -1.52008056640625
1693515000.0 -0.39569091796875 -1.483642578125
1698510500.0 -0.561767578125 -1.425048828125
1703506000.0 -0.717529296875 -1.3468017578125
1708501500.0 -0.8607177734375 -1.251708984375
1713497000.0 -0.9903564453125 -1.1405029296875
1718492500.0 -1.10400390625 -1.01641845703125
1723488000.0 -1.2008056640625 -0.882568359375
1728483500.0 -1.2806396484375 -0.7415771484375
1733479000.0 -1.343017578125 -0.59564208984375
1738474500.0 -1.38946533203125 -0.44683837890625
1743470000.0 -1.4195556640625 -0.2967529296875
1748465500.0 -1.43548583984375 -0.14739990234375
1753461000.0 -1.43719482421875 0.001220703125
1758456500.0 -1.4254150390625 0.14825439453125
1763452000.0 -1.40057373046875 0.292236328125
1768447500.0 -1.36370849609375 0.43292236328125
1773443000.0 -1.31414794921875 0.570556640625
1778438500.0 -1.25238037109375 0.70440673828125
1783434000.0 -1.17803955078125 0.8330078125
1788429500.0 -1.090576171875 0.955810546875
1793425000.0 -0.9896240234375 1.0721435546875
1798420500.0 -0.8753662109375 1.17950439453125
1803416000.0 -0.7476806640625 1.2764892578125
1808411500.0 -0.60760498046875 1.3604736328125
1813407000.0 -0.45513916015625 1.4293212890625
1818402500.0 -0.29241943359375 1.48046875
1823398000.0 -0.121826171875 1.5118408203125
1828393500.0 0.05364990234375 1.52105712890625
1833389000.0 0.230224609375 1.50762939453125
1838384500.0 0.404541015625 1.47149658203125
1843380000.0 0.5723876953125 1.41253662109375
1848375500.0 0.73095703125 1.33258056640625
1853371000.0 0.87603759765625 1.23370361328125
1858366500.0 1.0054931640625 1.11883544921875
1863362000.0 1.11822509765625 0.9913330078125
1868357500.0 1.2122802734375 0.85400390625
1873353000.0 1.28839111328125 0.71002197265625
1878348500.0 1.34716796875 0.56182861328125
1883344000.0 1.38897705078125 0.41192626953125
1888339500.0 1.4150390625 0.26141357421875
1893335000.0 1.4259033203125 0.11224365234375
1898330500.0 1.42303466796875 -0.0352783203125
1903326000.0 1.40692138671875 -0.1795654296875
1908321500.0 1.37890625 -0.3209228515625
1913317000.0 1.33868408203125 -0.458740234375
1918312500.0 1.2860107421875 -0.59210205078125
1923308000.0 1.22198486328125 -0.72174072265625
1928303500.0 1.14605712890625 -0.8458251953125
1933299000.0 1.057373046875 -0.96417236328125
1938294500.0 0.95672607421875 -1.0755615234375
1943290000.0 0.84332275390625 -1.17877197265625
1948285500.0 0.71746826171875 -1.2703857421875
1953281000.0 0.5794677734375 -1.35040283203125
1958276500.0 0.43060302734375 -1.4158935546875
1963272000.0 0.27203369140625 -1.4649658203125
1968267500.0 0.106201171875 -1.49420166015625
1973263000.0 -0.06475830078125 -1.50372314453125
1978258500.0 -0.23724365234375 -1.49176025390625
1983254000.0 -0.40838623046875 -1.457275390625
1988249500.0 -0.57366943359375 -1.40179443359375
1993245000.0 -0.7310791015625 -1.325439453125
1998240500.0 -0.87640380859375 -1.22998046875
2003236000.0 -1.0069580078125 -1.11865234375
2008231500.0 -1.1224365234375 -0.9937744140625
2013227000.0 -1.219970703125 -0.8577880859375
2018222500.0 -1.30078125 -0.71331787109375
2023218000.0 -1.36383056640625 -0.56390380859375
2028213500.0 -1.40966796875 -0.41046142578125
2033209000.0 -1.4381103515625 -0.2559814453125
2038204500.0 -1.45135498046875 -0.10137939453125
2043200000.0 -1.4488525390625 0.05242919921875
2048195500.0 -1.43121337890625 0.2034912109375
2053191000.0 -1.40008544921875 0.3515625
2058186500.0 -1.35455322265625 0.4952392578125
2063182000.0 -1.295654296875 0.6343994140625
2068177500.0 -1.22314453125 0.76690673828125
2073173000.0 -1.13818359375 0.8934326171875
2078168500.0 -1.03948974609375 1.0111083984375
2083164000.0 -0.92877197265625 1.12005615234375
2088159500.0 -0.806396484375 1.21673583984375
2093155000.0 -0.67218017578125 1.30133056640625
2098150500.0 -0.528076171875 1.37152099609375
2103146000.0 -0.37579345703125 1.4254150390625
2108141500.0 -0.21673583984375 1.4617919921875
2113137000.0 -0.052734375 1.47955322265625
2118132500.0 0.1119384765625 1.47772216796875
2123128000.0 0.276611328125 1.45611572265625
2128123500.0 0.43621826171875 1.41522216796875
2133119000.0 0.58917236328125 1.35601806640625
2138114500.0 0.7340087890625 1.279541015625
2143110000.0 0.8680419921875 1.18798828125
2148105500.0 0.9886474609375 1.08251953125
2153101000.0 1.09564208984375 0.96624755859375
2158096500.0 1.18878173828125 0.84014892578125
2163092000.0 1.26715087890625 0.70672607421875
2168087500.0 1.33056640625 0.56787109375
2173083000.0 1.37994384765625 0.42462158203125
2178078500.0 1.41424560546875 0.2786865234375
2183074000.0 1.43450927734375 0.1307373046875
2188069500.0 1.44122314453125 -0.01776123046875
