!Created with skrf (http://scikit-rf.org).
# Hz S RI R 50.0 
!freq ReS11 ImS11
300000.0 -1.020270709 -0.1597138816
5299970.0 -1.002639828 0.0077993125
10299940.0 -1.000886437 0.0125875291
15299910.0 -1.000026438 0.0238259215
20299880.0 -1.000144307 0.0279227603
25299850.0 -0.9997136302 0.0364502326
30299820.0 -0.9992933262 0.0436904538
35299790.0 -0.998112677 0.0491140039
40299760.0 -0.9975090793 0.0554867768
45299730.0 -0.9971659606 0.0622412725
50299700.0 -0.9965465368 0.0694003882
55299670.0 -0.9957963627 0.0768647652
60299640.0 -0.9948016931 0.082610101
65299610.0 -0.9939090948 0.0891287602
70299580.0 -0.9937283803 0.0956969802
75299550.0 -0.9927396129 0.1018914152
80299520.0 -0.9917953949 0.1089832101
85299490.0 -0.99094998 0.1153636599
90299460.0 -0.9904662248 0.1218533656
95299430.0 -0.989222467 0.128660329
100299400.0 -0.9877400404 0.1353337478
105299370.0 -0.9866543481 0.1421571092
110299340.0 -0.9858599584 0.1483392514
115299310.0 -0.9849819384 0.1551719228
120299280.0 -0.9835149138 0.1611038173
125299250.0 -0.9826134805 0.1681678782
130299220.0 -0.9818027923 0.1748955498
135299190.0 -0.9803168946 0.1810787829
140299160.0 -0.9785867555 0.1874503428
145299130.0 -0.977249801 0.193894463
150299100.0 -0.9763861668 0.2002431666
155299070.0 -0.9748806842 0.2069505638
160299040.0 -0.973296945 0.2127369021
165299010.0 -0.9718978487 0.219727784
170298980.0 -0.9701235591 0.2259086126
175298950.0 -0.9664668379 0.2317609233
180298920.0 -0.964344065 0.2371682711
185298890.0 -0.9642469407 0.2439408311
190298860.0 -0.9638687964 0.2516951975
195298830.0 -0.9619337092 0.2580449797
200298800.0 -0.96053962 0.2644672089
205298770.0 -0.9584327309 0.2703247324
210298740.0 -0.9565146916 0.2770948275
215298710.0 -0.9548842504 0.2834165116
220298680.0 -0.9529491547 0.2900450885
225298650.0 -0.9509972804 0.2962754446
230298620.0 -0.9489109987 0.3021947234
235298590.0 -0.9468169405 0.3083786708
240298560.0 -0.9444797998 0.3146027235
245298530.0 -0.9427823534 0.3207780758
250298500.0 -0.9406205983 0.3270270865
255298470.0 -0.9378484487 0.3330908335
260298440.0 -0.935735853 0.3399553662
265298410.0 -0.9338382386 0.3458547957
270298380.0 -0.9315453484 0.3517058408
275298350.0 -0.9287636764 0.3580845296
280298320.0 -0.9266242167 0.3637452935
285298290.0 -0.9239911878 0.3704412984
290298260.0 -0.9210557422 0.3758054958
295298230.0 -0.918659359 0.3818615182
300298200.0 -0.916706307 0.3885036033
305298170.0 -0.9137480775 0.3939436707
310298140.0 -0.9113676588 0.4004886022
315298110.0 -0.9087048191 0.4063280518
320298080.0 -0.9054081641 0.4121692585
325298050.0 -0.9025968323 0.4181305039
330298020.0 -0.8998762347 0.4242396133
335297990.0 -0.89701223 0.4302476512
340297960.0 -0.8941481478 0.4356315109
345297930.0 -0.8913474508 0.4413151092
350297900.0 -0.8890437541 0.4476248714
355297870.0 -0.8864213772 0.4541887055
360297840.0 -0.8837452507 0.460170863
365297810.0 -0.8801416584 0.4653342151
370297780.0 -0.876424395 0.471160689
375297750.0 -0.8729606872 0.4764173508
380297720.0 -0.8697288216 0.4824659294
385297690.0 -0.8670031289 0.4884065408
390297660.0 -0.8633553293 0.4936632441
395297630.0 -0.8598439747 0.4998299371
400297600.0 -0.8568666564 0.5047635591
405297570.0 -0.8529825979 0.5111885197
410297540.0 -0.8501261769 0.5160459086
415297510.0 -0.8467852013 0.5220938291
420297480.0 -0.8427928719 0.5278832946
425297450.0 -0.8393031746 0.532848
430297420.0 -0.8354242033 0.5383080095
435297390.0 -0.8322453604 0.5440678377
440297360.0 -0.8282965522 0.5497255396
445297330.0 -0.8246792544 0.5552998564
450297300.0 -0.8215738778 0.5605010073
455297270.0 -0.8173041049 0.5661496498
460297240.0 -0.8133564638 0.5715265076
465297210.0 -0.8096383521 0.5766733261
470297180.0 -0.8058032171 0.5817701051
475297150.0 -0.8018195369 0.5875744662
480297120.0 -0.7984938998 0.5929741461
485297090.0 -0.7946637913 0.5977043703
490297060.0 -0.7905506057 0.6032207073
495297030.0 -0.786541388 0.6080981451
500297000.0 -0.7825222864 0.6128472414
505296970.0 -0.7787083763 0.6187754013
510296940.0 -0.7746498443 0.6236663273
515296910.0 -0.7702242881 0.6283978818
520296880.0 -0.7668472702 0.6343881314
525296850.0 -0.7624996021 0.6387641328
530296820.0 -0.7582164669 0.6433245471
535296790.0 -0.7541061105 0.6486833451
540296760.0 -0.7493148405 0.653905813
545296730.0 -0.7444383882 0.6588043454
550296700.0 -0.7405646346 0.6634093852
555296670.0 -0.7363377233 0.6679189816
560296640.0 -0.7311247936 0.6732329976
565296610.0 -0.7266046354 0.6776872094
570296580.0 -0.7221303516 0.6823813906
575296550.0 -0.7172506096 0.6874823252
580296520.0 -0.7128328838 0.6920143326
585296490.0 -0.7078151779 0.6972019521
590296460.0 -0.7036872771 0.7011720429
595296430.0 -0.698677008 0.7059159355
600296400.0 -0.6940452217 0.7103822338
605296370.0 -0.6898779916 0.7146395794
610296340.0 -0.6851013447 0.7195625747
615296310.0 -0.6797481802 0.7242430596
620296280.0 -0.6749045313 0.7285625874
625296250.0 -0.6703612955 0.732323232
630296220.0 -0.6650279766 0.7371380124
635296190.0 -0.6605833047 0.7412253977
640296160.0 -0.6554874099 0.7454061011
645296130.0 -0.650417303 0.7490718433
650296100.0 -0.6458875714 0.7538772519
655296070.0 -0.6405357397 0.7581115656
660296040.0 -0.6360920782 0.7622934184
665296010.0 -0.6305172912 0.7662639718
670295980.0 -0.6254896814 0.7706402631
675295950.0 -0.6204611808 0.775163384
680295920.0 -0.6151510562 0.779217352
685295890.0 -0.6101199989 0.7825524621
690295860.0 -0.6054999613 0.7871575317
695295830.0 -0.6003041569 0.7910404827
700295800.0 -0.594605908 0.7951660716
705295770.0 -0.5890053647 0.7988930384
710295740.0 -0.584086754 0.8023195452
715295710.0 -0.5790092663 0.8067919329
720295680.0 -0.5731797105 0.8101864006
725295650.0 -0.56820852 0.8142812612
730295620.0 -0.5627833883 0.8172155085
735295590.0 -0.5572144987 0.8208717455
740295560.0 -0.5519658463 0.8247668125
745295530.0 -0.5467872947 0.8285475865
750295500.0 -0.5410696626 0.8317703548
755295470.0 -0.5355947334 0.8354566923
760295440.0 -0.5299961542 0.8391734577
765295410.0 -0.5245733389 0.842217813
770295380.0 -0.5184948233 0.8457887385
775295350.0 -0.5129765593 0.8495625191
780295320.0 -0.5077364958 0.8522964791
785295290.0 -0.5013639312 0.856210645
790295260.0 -0.4959790482 0.8591176205
795295230.0 -0.4904266866 0.8619222216
800295200.0 -0.4841485577 0.865548379
805295170.0 -0.4790227639 0.8687910059
810295140.0 -0.4732749341 0.8717702145
815295110.0 -0.4669778603 0.8744499955
820295080.0 -0.4612674246 0.877594397
825295050.0 -0.4553814415 0.8805056303
830295020.0 -0.4502672724 0.8835096421
835294990.0 -0.444051239 0.8864858323
840294960.0 -0.4382837034 0.8888310908
845294930.0 -0.4325175611 0.8920895013
850294900.0 -0.4262825353 0.8950228965
855294870.0 -0.4207701428 0.8985328713
860294840.0 -0.414190462 0.9005391353
865294810.0 -0.408533818 0.9033767403
870294780.0 -0.4027141818 0.905847098
875294750.0 -0.3965289746 0.9085929872
880294720.0 -0.391044494 0.9107155193
885294690.0 -0.3848912435 0.9134540018
890294660.0 -0.3785898847 0.9159080161
895294630.0 -0.3721784173 0.9180741784
900294600.0 -0.3667061453 0.9209351465
905294570.0 -0.3601560326 0.9227389321
910294540.0 -0.3542533485 0.9248803944
915294510.0 -0.3482852208 0.9272391434
920294480.0 -0.3416032569 0.9296868327
925294450.0 -0.335806914 0.9317454573
930294420.0 -0.3297660289 0.9340449921
935294390.0 -0.3236989022 0.9356120242
940294360.0 -0.3173673455 0.938007019
945294330.0 -0.311851885 0.9402769347
950294300.0 -0.30488031 0.94181313
955294270.0 -0.2989248126 0.9440910253
960294240.0 -0.2921403078 0.9461366367
965294210.0 -0.2864762599 0.9477046172
970294180.0 -0.2796895856 0.9496129659
975294150.0 -0.2742694244 0.9514110368
980294120.0 -0.2679115889 0.953071574
985294090.0 -0.2613753077 0.9548725889
990294060.0 -0.2552188992 0.9564951397
995294030.0 -0.2489993311 0.9578912947
1000294000.0 -0.2420621931 0.9601756762
1005293970.0 -0.2362854417 0.9613687622
1010293940.0 -0.229854556 0.9624978707
1015293910.0 -0.2233482884 0.9638706049
1020293880.0 -0.2170561183 0.9650568548
1025293850.0 -0.2113362974 0.9666895543
1030293820.0 -0.2045204325 0.9680843313
1035293790.0 -0.1986911042 0.9693566173
1040293760.0 -0.1917267951 0.9704994305
1045293730.0 -0.1852005684 0.9717707913
1050293700.0 -0.178637859 0.9733399343
1055293670.0 -0.1724131271 0.9741838143
1060293640.0 -0.1659796753 0.9754019177
1065293610.0 -0.1597122945 0.976180885
1070293580.0 -0.1535180666 0.9767459187
1075293550.0 -0.1475582749 0.9784100561
1080293520.0 -0.1405325344 0.9783937693
1085293490.0 -0.1339808594 0.9804841838
1090293460.0 -0.1268750573 0.9806528637
1095293430.0 -0.1207079899 0.9820150862
1100293400.0 -0.1140960342 0.9821059027
1105293370.0 -0.1075457524 0.9831322584
1110293340.0 -0.1007293084 0.9832431976
1115293310.0 -0.094221461 0.9841550737
1120293280.0 -0.088284341 0.9846586413
1125293250.0 -0.0818294378 0.9852334283
1130293220.0 -0.0759474894 0.9861069032
1135293190.0 -0.0695373359 0.9867528707
1140293160.0 -0.0626426376 0.9870082396
1145293130.0 -0.0562666322 0.9872913158
1150293100.0 -0.049628523 0.9877624977
1155293070.0 -0.0431364007 0.9880794444
1160293040.0 -0.0365785194 0.9877678999
1165293010.0 -0.029955229 0.9879625828
1170292980.0 -0.0240261596 0.9885006894
1175292950.0 -0.0176342792 0.9878551841
1180292920.0 -0.0108720523 0.9881330701
1185292890.0 -0.0047723234 0.9882387147
1190292860.0 0.0019693552 0.9881614381
1195292830.0 0.0087135586 0.9887313006
1200292800.0 0.0152236009 0.9880059115
1205292770.0 0.021605697 0.9880100831
1210292740.0 0.0273529667 0.9879540307
1215292710.0 0.0343664124 0.9873554676
1220292680.0 0.0413055934 0.9871356248
1225292650.0 0.0482098883 0.9868053968
1230292620.0 0.053930705 0.986649979
1235292590.0 0.0608124339 0.9860088028
1240292560.0 0.0668615632 0.9857579057
1245292530.0 0.0734993667 0.98541057
1250292500.0 0.0800495495 0.9848843815
1255292470.0 0.0865691659 0.9841064425
1260292440.0 0.0932220695 0.9840066183
1265292410.0 0.0992488855 0.9831587348
1270292380.0 0.1060815702 0.9824326091
1275292350.0 0.112719338 0.9813366975
1280292320.0 0.1192294921 0.9810102133
1285292290.0 0.1258051604 0.9797512327
1290292260.0 0.1320017167 0.9790696386
1295292230.0 0.1382811608 0.9783846907
1300292200.0 0.1445888282 0.9772585537
1305292170.0 0.1510596591 0.976641927
1310292140.0 0.1575478049 0.9750528969
1315292110.0 0.1635474414 0.9740746897
1320292080.0 0.169749173 0.9732802817
1325292050.0 0.176300817 0.9721459692
1330292020.0 0.1832920257 0.9708257796
1335291990.0 0.1895766087 0.9693412759
1340291960.0 0.1964457782 0.9682100991
1345291930.0 0.2029277864 0.9669876513
1350291900.0 0.2092747653 0.9661471311
1355291870.0 0.2153797536 0.9639815888
1360291840.0 0.221630479 0.9628346104
1365291810.0 0.227443614 0.9610270121
1370291780.0 0.2335928561 0.9598072697
1375291750.0 0.2396630933 0.9579170394
1380291720.0 0.246245748 0.9562331049
1385291690.0 0.2528374146 0.9551131393
1390291660.0 0.2593381965 0.9532379528
1395291630.0 0.2655068316 0.951232754
1400291600.0 0.2719426624 0.9491992955
1405291570.0 0.2784923619 0.9477211229
1410291540.0 0.2844063412 0.945786906
1415291510.0 0.2904763759 0.9443262466
1420291480.0 0.2971718361 0.9425381488
1425291450.0 0.3028173247 0.9401867047
1430291420.0 0.3088213276 0.9385408428
1435291390.0 0.3148964812 0.9357296399
1440291360.0 0.3211994919 0.9338460223
1445291330.0 0.3267505153 0.9314670267
1450291300.0 0.3329061686 0.929807296
1455291270.0 0.3391314488 0.9276106032
1460291240.0 0.34530199 0.9250954007
1465291210.0 0.3514727797 0.9232821036
1470291180.0 0.3574394548 0.9204768937
1475291150.0 0.363660814 0.9178772114
1480291120.0 0.369696211 0.9160120325
1485291090.0 0.3757009281 0.9134830692
1490291060.0 0.3810068454 0.9108921118
1495291030.0 0.3877935811 0.9083308267
1500291000.0 0.3935245875 0.9056248907
1505290970.0 0.3993389658 0.9026573779
1510290940.0 0.4049477954 0.9009390856
1515290910.0 0.411127102 0.8979622767
1520290880.0 0.417011225 0.8951474441
1525290850.0 0.4234467371 0.8926765222
1530290820.0 0.4293869053 0.8896776602
1535290790.0 0.4349870919 0.8863887195
1540290760.0 0.4406291068 0.8833917052
1545290730.0 0.4464109551 0.8807810527
1550290700.0 0.4528773957 0.8773944864
1555290670.0 0.4583353747 0.8752163223
1560290640.0 0.4639949402 0.8712786025
1565290610.0 0.469141281 0.8687370143
1570290580.0 0.4752599013 0.8655548242
1575290550.0 0.481395969 0.8626327054
1580290520.0 0.4863931993 0.8597098939
1585290490.0 0.4933425535 0.85589641
1590290460.0 0.4981423118 0.8523869504
1595290430.0 0.5039159303 0.8494039008
1600290400.0 0.5094706404 0.8460337044
1605290370.0 0.5147963923 0.8429743615
1610290340.0 0.5204358904 0.8399300985
1615290310.0 0.5252456019 0.8361112844
1620290280.0 0.5315155117 0.8319859146
1625290250.0 0.5372228521 0.8291463449
1630290220.0 0.5420398764 0.8249664341
1635290190.0 0.5474211345 0.8217890647
1640290160.0 0.5530987932 0.818788578
1645290130.0 0.5579672848 0.8148047503
1650290100.0 0.563348546 0.8109758759
1655290070.0 0.5691952018 0.8073173025
1660290040.0 0.5735591268 0.8030815007
1665290010.0 0.5799387589 0.7994788705
1670289980.0 0.5847733577 0.7960079446
1675289950.0 0.5902560658 0.7914419763
1680289920.0 0.5955511005 0.7880212262
1685289890.0 0.6009549694 0.7835561602
1690289860.0 0.6056259816 0.7797337006
1695289830.0 0.6113880923 0.7753024855
1700289800.0 0.615955717 0.7712511053
1705289770.0 0.6206715763 0.7673557746
1710289740.0 0.6265446265 0.7638500248
1715289710.0 0.6313814753 0.7594910753
1720289680.0 0.6364145148 0.7552935506
1725289650.0 0.641305782 0.7511315476
1730289620.0 0.6458382355 0.747178287
1735289590.0 0.6512253984 0.7425362152
1740289560.0 0.6557668336 0.7386611468
1745289530.0 0.6604660268 0.7343421909
1750289500.0 0.6656371237 0.7300592255
1755289470.0 0.6701638159 0.7259933293
1760289440.0 0.6748780841 0.7214994675
1765289410.0 0.6794571174 0.7167820561
1770289380.0 0.6843617319 0.7121775938
1775289350.0 0.6888743926 0.7076866295
1780289320.0 0.6932467064 0.7033944871
1785289290.0 0.6983026465 0.698571465
1790289260.0 0.7034053851 0.693874445
1795289230.0 0.7073239625 0.6890504224
1800289200.0 0.7124252793 0.6851553486
1805289170.0 0.7167064283 0.6792256319
1810289140.0 0.7210796315 0.6752256435
1815289110.0 0.7248606463 0.6707250544
1820289080.0 0.7298357626 0.6656548791
1825289050.0 0.7337409409 0.6610042828
1830289020.0 0.7385824155 0.6571826092
1835288990.0 0.7427533971 0.651880049
1840288960.0 0.7465082139 0.6469279292
1845288930.0 0.750508424 0.6422033326
1850288900.0 0.7552486478 0.6373768082
1855288870.0 0.7589288526 0.6319255453
1860288840.0 0.7635053855 0.6265217058
1865288810.0 0.7675418483 0.6215838361
1870288780.0 0.7715992554 0.6166255402
1875288750.0 0.7764508516 0.6112576311
1880288720.0 0.7803655247 0.606106314
1885288690.0 0.7839027896 0.6007228603
1890288660.0 0.788174526 0.5956480586
1895288630.0 0.7919342879 0.5906189921
1900288600.0 0.7956590641 0.5857491766
1905288570.0 0.7995856626 0.58077945
1910288540.0 0.8035163465 0.5747353705
1915288510.0 0.8075454435 0.5691649126
1920288480.0 0.8109879263 0.5642105964
1925288450.0 0.8145415409 0.5585253864
1930288420.0 0.8186447831 0.5535567343
1935288390.0 0.8223497383 0.5477137472
1940288360.0 0.8258714751 0.5425287435
1945288330.0 0.8291777675 0.5373219756
1950288300.0 0.8329539788 0.5310142148
1955288270.0 0.8362389392 0.5253700586
1960288240.0 0.8402804381 0.5203074167
1965288210.0 0.8435613773 0.5142324813
1970288180.0 0.847034278 0.5082955673
1975288150.0 0.8503858492 0.5038410991
1980288120.0 0.8535619843 0.4981314423
1985288090.0 0.8565345435 0.4929730384
1990288060.0 0.8598205337 0.4872997091
1995288030.0 0.8630679425 0.4820414738
2000288000.0 0.8657657845 0.4763805585
2005287970.0 0.8688858636 0.4712531538
2010287940.0 0.8717405509 0.465207074
2015287910.0 0.8753690856 0.4589832893
2020287880.0 0.8774417185 0.4535168382
2025287850.0 0.8813405116 0.4477168017
2030287820.0 0.8839268473 0.4417096784
2035287790.0 0.886921979 0.4362059583
2040287760.0 0.8893221169 0.4299505455
2045287730.0 0.892262137 0.4242596055
2050287700.0 0.8946742133 0.4181946353
2055287670.0 0.8968677061 0.4125568809
2060287640.0 0.9001854917 0.406735558
2065287610.0 0.9034196537 0.4009136832
2070287580.0 0.9054236078 0.3948799193
2075287550.0 0.9086694736 0.3889859376
2080287520.0 0.9109302361 0.382596101
2085287490.0 0.9136685977 0.3769491525
2090287460.0 0.9160514725 0.3705425273
2095287430.0 0.9184138444 0.3653212396
2100287400.0 0.9213916383 0.3589507345
2105287370.0 0.9232298451 0.3524972016
2110287340.0 0.9256473558 0.3464475486
2115287310.0 0.928022749 0.3403647632
2120287280.0 0.929647951 0.3345854982
2125287250.0 0.9322112885 0.3283685111
2130287220.0 0.9343090357 0.3219055977
2135287190.0 0.9369537601 0.3158399313
2140287160.0 0.9385022942 0.3095517905
2145287130.0 0.9407211924 0.3034668187
2150287100.0 0.9427925131 0.2973597094
2155287070.0 0.9448888056 0.2917921936
2160287040.0 0.9456372014 0.2853343338
2165287010.0 0.9481087008 0.2788670744
2170286980.0 0.9498853036 0.272610647
2175286950.0 0.9519228704 0.2666954241
2180286920.0 0.9533338164 0.2606517747
2185286890.0 0.9552800705 0.2547478257
2190286860.0 0.9560352047 0.2484315047
2195286830.0 0.9581847197 0.2430268926
2200286800.0 0.9596452021 0.2362735711
2205286770.0 0.9612615608 0.2302334502
2210286740.0 0.9631031926 0.2235882794
2215286710.0 0.9639178071 0.2175559082
2220286680.0 0.9661617198 0.2114567672
2225286650.0 0.9669950966 0.2047889242
2230286620.0 0.9684030761 0.1984884744
2235286590.0 0.9701188373 0.1924224651
2240286560.0 0.9706569218 0.1854810579
2245286530.0 0.9721279841 0.1796409502
2250286500.0 0.9733768002 0.172800027
2255286470.0 0.974138807 0.1665267632
2260286440.0 0.9752983563 0.1599520507
2265286410.0 0.9762454704 0.1530637716
2270286380.0 0.9774519369 0.1468494528
2275286350.0 0.9782537023 0.1402336382
2280286320.0 0.9791482235 0.1341653405
2285286290.0 0.9799850311 0.1271893856
2290286260.0 0.9807536201 0.12134784
2295286230.0 0.9819505376 0.1146653518
2300286200.0 0.9823577297 0.1085796764
2305286170.0 0.9833703929 0.101859333
2310286140.0 0.9836591626 0.095105017
2315286110.0 0.9845655412 0.089106806
2320286080.0 0.98506034 0.0824288925
2325286050.0 0.9855333798 0.0759049351
2330286020.0 0.9859826426 0.0695628531
2335285990.0 0.9863974646 0.0631827543
2340285960.0 0.9869333792 0.0571685494
2345285930.0 0.9874308296 0.0503410147
2350285900.0 0.9874839496 0.0432125688
2355285870.0 0.9877929845 0.0373798864
2360285840.0 0.9882924341 0.0303213628
2365285810.0 0.988204645 0.0244561877
2370285780.0 0.9880482513 0.0174868809
2375285750.0 0.9883836629 0.0111769318
2380285720.0 0.9882138903 0.0049272952
2385285690.0 0.9883958814 -0.0013771501
2390285660.0 0.988595921 -0.0078229072
2395285630.0 0.9882946884 -0.0142465332
2400285600.0 0.9880727434 -0.0202616234
2405285570.0 0.9876969503 -0.0273657478
2410285540.0 0.9878080174 -0.0333775613
2415285510.0 0.9875968051 -0.0394572951
2420285480.0 0.9877527303 -0.0457900036
2425285450.0 0.9870237775 -0.0525286932
2430285420.0 0.9866275121 -0.0588437196
2435285390.0 0.9860349822 -0.0655111773
2440285360.0 0.9860002425 -0.0713430885
2445285330.0 0.9845431741 -0.0776428187
2450285300.0 0.9847773866 -0.0843947525
2455285270.0 0.9840056948 -0.0911483471
2460285240.0 0.9831534965 -0.0974002814
2465285210.0 0.9824183399 -0.1045491091
2470285180.0 0.9814272329 -0.110599833
2475285150.0 0.981077517 -0.1170070221
2480285120.0 0.9800213151 -0.1236169893
2485285090.0 0.9787249318 -0.1300823103
2490285060.0 0.9787173663 -0.1360982247
2495285030.0 0.9773490105 -0.1423747849
2500285000.0 0.9764612827 -0.150163592
2505284970.0 0.9749697276 -0.1564577603
2510284940.0 0.9743116848 -0.162638024
2515284910.0 0.973011645 -0.1688151661
2520284880.0 0.9719464337 -0.1753028672
2525284850.0 0.9711591106 -0.181535778
2530284820.0 0.9695413178 -0.1877579579
2535284790.0 0.9680072017 -0.1937631071
2540284760.0 0.9671577195 -0.1998522022
2545284730.0 0.9655281235 -0.2060722496
2550284700.0 0.9643375588 -0.2126040657
2555284670.0 0.9626478793 -0.2187605222
