!Created with skrf (http://scikit-rf.org).
# Hz S RI R 50.0 
!freq ReS11 ImS11
45000000.0 -0.0816192626953125 -0.09279632568359375
49995500.0 -0.10248565673828125 -0.08875656127929688
54991000.0 -0.12296295166015625 -0.08039093017578125
59986500.0 -0.1412506103515625 -0.07825469970703125
64982000.0 -0.1597747802734375 -0.0687255859375
69977500.0 -0.178314208984375 -0.05408477783203125
74973000.0 -0.19545745849609375 -0.036224365234375
79968500.0 -0.21083831787109375 -0.01531982421875
84964000.0 -0.224151611328125 0.00862884521484375
89959500.0 -0.234588623046875 0.0355682373046875
94955000.0 -0.24135589599609375 0.06537628173828125
99950500.0 -0.2441558837890625 0.097320556640625
104946000.0 -0.24256134033203125 0.13117218017578125
109941500.0 -0.23587799072265625 0.1658172607421875
114937000.0 -0.224456787109375 0.20082855224609375
119932500.0 -0.20734405517578125 0.2355194091796875
124928000.0 -0.18536376953125 0.269287109375
129923500.0 -0.1577606201171875 0.3001861572265625
134919000.0 -0.125213623046875 0.32861328125
139914500.0 -0.08782958984375 0.3535003662109375
144910000.0 -0.04638671875 0.37335205078125
149905500.0 -0.001434326171875 0.3882904052734375
154901000.0 0.0466156005859375 0.3977813720703125
159896500.0 0.095947265625 0.40057373046875
164892000.0 0.14666748046875 0.397552490234375
169887500.0 0.197784423828125 0.3876953125
174883000.0 0.2482757568359375 0.371185302734375
179878500.0 0.29736328125 0.34844970703125
184874000.0 0.3441619873046875 0.3189697265625
189869500.0 0.3883056640625 0.2833099365234375
194865000.0 0.4284515380859375 0.242431640625
199860500.0 0.464385986328125 0.196014404296875
204856000.0 0.4946746826171875 0.14422607421875
209851500.0 0.5196533203125 0.088348388671875
214847000.0 0.538543701171875 0.02874755859375
219842500.0 0.550262451171875 -0.0345458984375
224838000.0 0.554718017578125 -0.100006103515625
229833500.0 0.551666259765625 -0.1669921875
234829000.0 0.5401611328125 -0.234344482421875
239824500.0 0.5201416015625 -0.301910400390625
244820000.0 0.491546630859375 -0.3676605224609375
249815500.0 0.454010009765625 -0.4312591552734375
254811000.0 0.4327239990234375 -0.4771881103515625
259806500.0 0.38232421875 -0.5341796875
264802000.0 0.323944091796875 -0.585906982421875
269797500.0 0.258636474609375 -0.630645751953125
274793000.0 0.18701171875 -0.66754150390625
279788500.0 0.110748291015625 -0.695556640625
284784000.0 0.03045654296875 -0.714447021484375
289779500.0 -0.053009033203125 -0.723419189453125
294775000.0 -0.13763427734375 -0.722442626953125
299770500.0 -0.22247314453125 -0.711456298828125
304766000.0 -0.305938720703125 -0.690521240234375
309761500.0 -0.38714599609375 -0.659393310546875
314757000.0 -0.4644775390625 -0.61834716796875
319752500.0 -0.537200927734375 -0.568389892578125
324748000.0 -0.605010986328125 -0.51055908203125
329743500.0 -0.66644287109375 -0.444976806640625
334739000.0 -0.72119140625 -0.371917724609375
339734500.0 -0.768035888671875 -0.292327880859375
344730000.0 -0.806243896484375 -0.207122802734375
349725500.0 -0.835540771484375 -0.117095947265625
354721000.0 -0.85516357421875 -0.02264404296875
359716500.0 -0.864288330078125 0.074676513671875
364712000.0 -0.8621826171875 0.1748046875
369707500.0 -0.84857177734375 0.275787353515625
374703000.0 -0.823028564453125 0.37725830078125
379698500.0 -0.784515380859375 0.47662353515625
384694000.0 -0.733856201171875 0.572601318359375
389689500.0 -0.67041015625 0.663421630859375
394685000.0 -0.594879150390625 0.747406005859375
399680500.0 -0.508087158203125 0.822052001953125
404676000.0 -0.411468505859375 0.88641357421875
409671500.0 -0.306640625 0.939208984375
414667000.0 -0.19476318359375 0.9775390625
419662500.0 -0.078125 1.00189208984375
424658000.0 0.04144287109375 1.01116943359375
429653500.0 0.16253662109375 1.00494384765625
434649000.0 0.28192138671875 0.982696533203125
439644500.0 0.39495849609375 0.945892333984375
444640000.0 0.502838134765625 0.897552490234375
449635500.0 0.603363037109375 0.83819580078125
454631000.0 0.69818115234375 0.7691650390625
459626500.0 0.784698486328125 0.688812255859375
464622000.0 0.86138916015625 0.59906005859375
469617500.0 0.927276611328125 0.5020751953125
474613000.0 0.9832763671875 0.398712158203125
479608500.0 1.0281982421875 0.28985595703125
484604000.0 1.0621337890625 0.17626953125
489599500.0 1.08477783203125 0.058837890625
494595000.0 1.09527587890625 -0.06146240234375
499590500.0 1.09344482421875 -0.18389892578125
504586000.0 1.07843017578125 -0.307861328125
509581500.0 1.05029296875 -0.43170166015625
514577000.0 1.00726318359375 -0.55450439453125
519572500.0 0.948760986328125 -0.67449951171875
524568000.0 0.875396728515625 -0.78985595703125
529563500.0 0.785980224609375 -0.89764404296875
534559000.0 0.682220458984375 -0.994964599609375
539554500.0 0.5645751953125 -1.07965087890625
544550000.0 0.43585205078125 -1.14898681640625
549545500.0 0.2978515625 -1.20147705078125
554541000.0 0.1536865234375 -1.236083984375
559536500.0 0.00604248046875 -1.25250244140625
564532000.0 -0.1431884765625 -1.2503662109375
569527500.0 -0.291259765625 -1.2296142578125
574523000.0 -0.4354248046875 -1.1905517578125
579518500.0 -0.57305908203125 -1.13385009765625
584514000.0 -0.7021484375 -1.061279296875
589509500.0 -0.820709228515625 -0.973876953125
594505000.0 -0.9273681640625 -0.87432861328125
599500500.0 -1.02099609375 -0.76397705078125
604496000.0 -1.1011962890625 -0.64471435546875
609491500.0 -1.16741943359375 -0.51885986328125
614487000.0 -1.21966552734375 -0.38800048828125
619482500.0 -1.2576904296875 -0.25323486328125
624478000.0 -1.282470703125 -0.11566162109375
629473500.0 -1.2933349609375 0.02337646484375
634469000.0 -1.2906494140625 0.1634521484375
639464500.0 -1.2744140625 0.3035888671875
644460000.0 -1.2440185546875 0.44287109375
649455500.0 -1.19964599609375 0.58074951171875
654451000.0 -1.14044189453125 0.71588134765625
659446500.0 -1.0665283203125 0.846923828125
664442000.0 -0.977294921875 0.9730224609375
669437500.0 -0.8717041015625 1.09112548828125
674433000.0 -0.7501220703125 1.199462890625
679428500.0 -0.613037109375 1.294921875
684424000.0 -0.4617919921875 1.37481689453125
689419500.0 -0.29742431640625 1.43621826171875
694415000.0 -0.12249755859375 1.47613525390625
699410500.0 0.05865478515625 1.4931640625
704406000.0 0.242919921875 1.4849853515625
709401500.0 0.42608642578125 1.451416015625
714397000.0 0.60296630859375 1.39263916015625
719392500.0 0.77008056640625 1.30987548828125
724388000.0 0.92413330078125 1.20660400390625
729383500.0 1.0614013671875 1.08441162109375
734379000.0 1.17950439453125 0.94635009765625
739374500.0 1.2779541015625 0.7977294921875
744370000.0 1.35498046875 0.63970947265625
749365500.0 1.4127197265625 0.47747802734375
754361000.0 1.451171875 0.31365966796875
759356500.0 1.4705810546875 0.14892578125
764352000.0 1.47247314453125 -0.01385498046875
769347500.0 1.4578857421875 -0.17388916015625
774343000.0 1.42767333984375 -0.3297119140625
779338500.0 1.38238525390625 -0.4805908203125
784334000.0 1.324951171875 -0.6258544921875
789329500.0 1.25323486328125 -0.7652587890625
794325000.0 1.16876220703125 -0.8974609375
799320500.0 1.0716552734375 -1.0216064453125
804316000.0 0.9613037109375 -1.137939453125
809311500.0 0.83831787109375 -1.24371337890625
814307000.0 0.70361328125 -1.33831787109375
819302500.0 0.55682373046875 -1.41998291015625
824298000.0 0.39862060546875 -1.48614501953125
829293500.0 0.2313232421875 -1.53607177734375
834289000.0 0.05438232421875 -1.56585693359375
839284500.0 -0.1279296875 -1.57513427734375
844280000.0 -0.24676513671875 -1.593017578125
849275500.0 -0.43475341796875 -1.56402587890625
854271000.0 -0.61944580078125 -1.51025390625
859266500.0 -0.7977294921875 -1.43255615234375
864262000.0 -0.96435546875 -1.33160400390625
869257500.0 -1.116943359375 -1.2098388671875
874253000.0 -1.25103759765625 -1.070068359375
879248500.0 -1.36663818359375 -0.9151611328125
884244000.0 -1.46099853515625 -0.74945068359375
889239500.0 -1.5335693359375 -0.5748291015625
894235000.0 -1.58465576171875 -0.3956298828125
899230500.0 -1.61505126953125 -0.21392822265625
904226000.0 -1.62432861328125 -0.03155517578125
909221500.0 -1.614013671875 0.14923095703125
914217000.0 -1.58349609375 0.32635498046875
919212500.0 -1.534912109375 0.49688720703125
924208000.0 -1.4693603515625 0.6597900390625
929203500.0 -1.38848876953125 0.81317138671875
934199000.0 -1.2945556640625 0.957275390625
939194500.0 -1.18719482421875 1.09136962890625
944190000.0 -1.0677490234375 1.214599609375
949185500.0 -0.9361572265625 1.32733154296875
954181000.0 -0.79302978515625 1.427734375
959176500.0 -0.63812255859375 1.51513671875
964172000.0 -0.47308349609375 1.58770751953125
969167500.0 -0.2977294921875 1.64300537109375
974163000.0 -0.113525390625 1.6798095703125
979158500.0 0.07806396484375 1.69671630859375
984154000.0 0.2738037109375 1.69049072265625
989149500.0 0.47174072265625 1.65997314453125
994145000.0 0.66705322265625 1.60455322265625
999140500.0 0.85675048828125 1.52294921875
1004136000.0 1.03631591796875 1.41748046875
1009131500.0 1.2027587890625 1.28759765625
1014127000.0 1.35009765625 1.13653564453125
1019122500.0 1.47723388671875 0.96771240234375
1024118000.0 1.5804443359375 0.78424072265625
1029113500.0 1.65875244140625 0.58953857421875
1034109000.0 1.71099853515625 0.38958740234375
1039104500.0 1.73785400390625 0.18658447265625
1044100000.0 1.7398681640625 -0.01568603515625
1049095500.0 1.71826171875 -0.21295166015625
1054091000.0 1.6748046875 -0.4041748046875
1059086500.0 1.611328125 -0.5863037109375
1064082000.0 1.5306396484375 -0.75738525390625
1069077500.0 1.43328857421875 -0.91790771484375
1074073000.0 1.32135009765625 -1.0653076171875
1079068500.0 1.1964111328125 -1.2015380859375
1084064000.0 1.0589599609375 -1.32257080078125
1089059500.0 0.91009521484375 -1.4298095703125
1094055000.0 0.751708984375 -1.52215576171875
1099050500.0 0.58349609375 -1.5987548828125
1104046000.0 0.4071044921875 -1.65875244140625
1109041500.0 0.2237548828125 -1.700439453125
1114037000.0 0.0343017578125 -1.72320556640625
1119032500.0 -0.1583251953125 -1.72467041015625
1124028000.0 -0.354248046875 -1.7052001953125
1129023500.0 -0.548583984375 -1.66229248046875
1134019000.0 -0.739990234375 -1.5965576171875
1139014500.0 -0.92431640625 -1.50653076171875
1144010000.0 -1.09796142578125 -1.3931884765625
1149005500.0 -1.2581787109375 -1.25897216796875
1154001000.0 -1.400390625 -1.103271484375
1158996500.0 -1.5228271484375 -0.93017578125
1163992000.0 -1.62200927734375 -0.74237060546875
1168987500.0 -1.696044921875 -0.54388427734375
1173983000.0 -1.74383544921875 -0.33837890625
1178978500.0 -1.764892578125 -0.12933349609375
1183974000.0 -1.75994873046875 0.07763671875
1188969500.0 -1.7293701171875 0.28070068359375
1193965000.0 -1.67529296875 0.47564697265625
1198960500.0 -1.5997314453125 0.65985107421875
1203956000.0 -1.5050048828125 0.83197021484375
1208951500.0 -1.3927001953125 0.98846435546875
1213947000.0 -1.265869140625 1.1302490234375
1218942500.0 -1.1268310546875 1.25537109375
1223938000.0 -0.97674560546875 1.3636474609375
1228933500.0 -0.8182373046875 1.4544677734375
1233929000.0 -0.6534423828125 1.52728271484375
1238924500.0 -0.483642578125 1.58331298828125
1243920000.0 -0.30914306640625 1.6212158203125
1248915500.0 -0.1336669921875 1.6427001953125
1253911000.0 0.04241943359375 1.64532470703125
1258906500.0 0.21923828125 1.6317138671875
1263902000.0 0.39501953125 1.5999755859375
1268897500.0 0.56414794921875 1.54925537109375
1273893000.0 0.72906494140625 1.48138427734375
1278888500.0 0.8873291015625 1.39654541015625
1283884000.0 1.03662109375 1.2939453125
1288879500.0 1.1756591796875 1.17523193359375
1293875000.0 1.30108642578125 1.0408935546875
1298870500.0 1.4117431640625 0.8924560546875
1303866000.0 1.50592041015625 0.7318115234375
1308861500.0 1.5819091796875 0.55999755859375
1313857000.0 1.63800048828125 0.3797607421875
1318852500.0 1.67315673828125 0.193359375
1323848000.0 1.68719482421875 0.0029296875
1328843500.0 1.67889404296875 -0.1868896484375
1333839000.0 1.64892578125 -0.37615966796875
1338834500.0 1.59716796875 -0.56182861328125
1343830000.0 1.5247802734375 -0.74017333984375
1348825500.0 1.431396484375 -0.90985107421875
1353821000.0 1.31982421875 -1.06683349609375
1358816500.0 1.1898193359375 -1.2108154296875
1363812000.0 1.04351806640625 -1.33837890625
1368807500.0 0.88409423828125 -1.4486083984375
1373803000.0 0.71185302734375 -1.53912353515625
1378798500.0 0.53033447265625 -1.608642578125
1383794000.0 0.34295654296875 -1.65576171875
1388789500.0 0.1512451171875 -1.6812744140625
1393785000.0 -0.04144287109375 -1.68359375
1398780500.0 -0.23199462890625 -1.6630859375
1403776000.0 -0.417724609375 -1.62066650390625
1408771500.0 -0.595947265625 -1.55670166015625
1413767000.0 -0.763916015625 -1.47442626953125
1418762500.0 -0.919677734375 -1.37408447265625
1423758000.0 -1.06256103515625 -1.25775146484375
1428753500.0 -1.18988037109375 -1.12841796875
1433749000.0 -1.301025390625 -0.98699951171875
1438744500.0 -1.39630126953125 -0.83624267578125
1443740000.0 -1.474365234375 -0.67694091796875
1448735500.0 -1.5350341796875 -0.51220703125
1453731000.0 -1.577880859375 -0.34332275390625
1458726500.0 -1.603759765625 -0.17120361328125
1463722000.0 -1.61285400390625 0.00244140625
1468717500.0 -1.60430908203125 0.1759033203125
1473713000.0 -1.5780029296875 0.3482666015625
1478708500.0 -1.53363037109375 0.51837158203125
1483704000.0 -1.472412109375 0.68414306640625
1488699500.0 -1.39361572265625 0.8441162109375
1493695000.0 -1.29730224609375 0.9970703125
1498690500.0 -1.18310546875 1.1397705078125
1503686000.0 -1.052001953125 1.2713623046875
1508681500.0 -0.9046630859375 1.38861083984375
1513677000.0 -0.742431640625 1.48931884765625
1518672500.0 -0.5670166015625 1.56976318359375
1523668000.0 -0.38116455078125 1.62908935546875
1528663500.0 -0.18743896484375 1.6649169921875
1533659000.0 0.010009765625 1.67578125
1538654500.0 0.20782470703125 1.66094970703125
1543650000.0 0.402099609375 1.62103271484375
1548645500.0 0.58819580078125 1.556396484375
1553641000.0 0.76263427734375 1.46868896484375
1558636500.0 0.9228515625 1.3609619140625
1563632000.0 1.06585693359375 1.23614501953125
1568627500.0 1.1905517578125 1.0972900390625
1573623000.0 1.29522705078125 0.94744873046875
1578618500.0 1.38116455078125 0.789306640625
1583614000.0 1.44671630859375 0.62628173828125
1588609500.0 1.49322509765625 0.4608154296875
1593605000.0 1.52178955078125 0.294189453125
1598600500.0 1.53314208984375 0.12872314453125
1603596000.0 1.52813720703125 -0.03472900390625
1608591500.0 1.507080078125 -0.19403076171875
1613587000.0 1.47161865234375 -0.3492431640625
1618582500.0 1.42254638671875 -0.4993896484375
1623578000.0 1.3592529296875 -0.643798828125
1628573500.0 1.2833251953125 -0.7813720703125
1633569000.0 1.1944580078125 -0.91107177734375
1638564500.0 1.09326171875 -1.0328369140625
1643560000.0 0.97930908203125 -1.144775390625
1648555500.0 0.85345458984375 -1.24652099609375
1653551000.0 0.7164306640625 -1.33514404296875
1658546500.0 0.56805419921875 -1.40985107421875
1663542000.0 0.41107177734375 -1.4686279296875
1668537500.0 0.24554443359375 -1.51025390625
1673533000.0 0.07501220703125 -1.53179931640625
1678528500.0 -0.09918212890625 -1.53326416015625
1683524000.0 -0.27325439453125 -1.51287841796875
1688519500.0 -0.4443359375 -1.47088623046875
1693515000.0 -0.6090087890625 -1.4075927734375
1698510500.0 -0.763916015625 -1.32525634765625
1703506000.0 -0.9052734375 -1.2254638671875
1708501500.0 -1.03253173828125 -1.10894775390625
1713497000.0 -1.14288330078125 -0.980712890625
1718492500.0 -1.23681640625 -0.8426513671875
1723488000.0 -1.312744140625 -0.69677734375
1728483500.0 -1.3702392578125 -0.54718017578125
1733479000.0 -1.41168212890625 -0.3948974609375
1738474500.0 -1.43603515625 -0.24212646484375
1743470000.0 -1.44610595703125 -0.09002685546875
1748465500.0 -1.44134521484375 0.06005859375
1753461000.0 -1.42315673828125 0.20745849609375
1758456500.0 -1.39202880859375 0.35162353515625
1763452000.0 -1.3482666015625 0.4915771484375
1768447500.0 -1.29229736328125 0.6280517578125
1773443000.0 -1.224365234375 0.7591552734375
1778438500.0 -1.14361572265625 0.885009765625
1783434000.0 -1.05023193359375 1.00433349609375
1788429500.0 -0.9443359375 1.11578369140625
1793425000.0 -0.8251953125 1.21844482421875
1798420500.0 -0.69329833984375 1.30987548828125
1803416000.0 -0.5489501953125 1.3883056640625
1808411500.0 -0.39385986328125 1.45068359375
1813407000.0 -0.228515625 1.495849609375
1818402500.0 -0.056640625 1.5198974609375
1823398000.0 0.12054443359375 1.52294921875
1828393500.0 0.2972412109375 1.50262451171875
1833389000.0 0.4715576171875 1.45916748046875
1838384500.0 0.638916015625 1.3929443359375
1843380000.0 0.79559326171875 1.30560302734375
1848375500.0 0.93798828125 1.1993408203125
1853371000.0 1.06427001953125 1.0775146484375
1858366500.0 1.17242431640625 0.94342041015625
1863362000.0 1.261474609375 0.7996826171875
1868357500.0 1.33209228515625 0.6495361328125
1873353000.0 1.38421630859375 0.496337890625
1878348500.0 1.4189453125 0.34173583984375
1883344000.0 1.43707275390625 0.18798828125
1888339500.0 1.4398193359375 0.03631591796875
1893335000.0 1.428466796875 -0.11236572265625
1898330500.0 1.40350341796875 -0.25775146484375
1903326000.0 1.366943359375 -0.3990478515625
1908321500.0 1.31817626953125 -0.53594970703125
1913317000.0 1.25775146484375 -0.667236328125
1918312500.0 1.185546875 -0.7938232421875
1923308000.0 1.1015625 -0.91448974609375
1928303500.0 1.005859375 -1.02813720703125
1933299000.0 0.8978271484375 -1.13409423828125
1938294500.0 0.777587890625 -1.23095703125
1943290000.0 0.646484375 -1.31591796875
1948285500.0 0.50311279296875 -1.388427734375
1953281000.0 0.34918212890625 -1.44635009765625
1958276500.0 0.187255859375 -1.4862060546875
1963272000.0 0.01806640625 -1.506591796875
1968267500.0 -0.1549072265625 -1.50628662109375
1973263000.0 -0.32843017578125 -1.48492431640625
1978258500.0 -0.49847412109375 -1.440185546875
1983254000.0 -0.66278076171875 -1.37420654296875
1988249500.0 -0.81695556640625 -1.287353515625
1993245000.0 -0.95843505859375 -1.18170166015625
1998240500.0 -1.08416748046875 -1.0606689453125
2003236000.0 -1.19293212890625 -0.92626953125
2008231500.0 -1.28314208984375 -0.7823486328125
2013227000.0 -1.3551025390625 -0.63067626953125
2018222500.0 -1.408203125 -0.474853515625
2023218000.0 -1.44384765625 -0.31597900390625
2028213500.0 -1.46148681640625 -0.15765380859375
2033209000.0 -1.46337890625 -0.0006103515625
2038204500.0 -1.4495849609375 0.154052734375
2043200000.0 -1.42108154296875 0.30450439453125
2048195500.0 -1.3778076171875 0.45172119140625
2053191000.0 -1.3214111328125 0.59259033203125
2058186500.0 -1.25177001953125 0.7274169921875
2063182000.0 -1.16943359375 0.85504150390625
2068177500.0 -1.07440185546875 0.975341796875
2073173000.0 -0.967041015625 1.0858154296875
2078168500.0 -0.8480224609375 1.18603515625
2083164000.0 -0.71783447265625 1.27392578125
2088159500.0 -0.577880859375 1.348876953125
2093155000.0 -0.42901611328125 1.40802001953125
2098150500.0 -0.272216796875 1.45074462890625
2103146000.0 -0.11041259765625 1.475830078125
2108141500.0 0.05438232421875 1.48162841796875
2113137000.0 0.21923828125 1.46783447265625
2118132500.0 0.3817138671875 1.43487548828125
2123128000.0 0.5389404296875 1.3824462890625
2128123500.0 0.68792724609375 1.3118896484375
2133119000.0 0.82763671875 1.22528076171875
2138114500.0 0.9547119140625 1.1234130859375
2143110000.0 1.0687255859375 1.00933837890625
2148105500.0 1.1676025390625 0.8841552734375
2153101000.0 1.25152587890625 0.75067138671875
2158096500.0 1.32037353515625 0.6107177734375
2163092000.0 1.37335205078125 0.46636962890625
2168087500.0 1.4117431640625 0.31903076171875
2173083000.0 1.43499755859375 0.16961669921875
2178078500.0 1.4443359375 0.019287109375
2183074000.0 1.43853759765625 -0.13006591796875
2188069500.0 1.41943359375 -0.2783203125
2193065000.0 1.38641357421875 -0.42535400390625
