!Created with skrf (http://scikit-rf.org).
# Hz S RI R 50.0 
!freq ReS11 ImS11
300000.0 0.9867268428 -0.1212701171
5299970.0 0.1794383636 -0.3791836878
10299940.0 0.0588517041 -0.2266761108
15299910.0 0.0291503795 -0.1579695149
20299880.0 0.0175518594 -0.1218259908
25299850.0 0.0119897537 -0.09852199
30299820.0 0.0085636368 -0.0825069161
35299790.0 0.0066536823 -0.0716529878
40299760.0 0.0051556411 -0.0629867693
45299730.0 0.0039898952 -0.0560298635
50299700.0 0.0030500083 -0.0506284335
55299670.0 0.0028386747 -0.0460532866
60299640.0 0.0023308586 -0.0420842264
65299610.0 0.0018113874 -0.0390485448
70299580.0 0.0013258208 -0.0362192871
75299550.0 0.0012074388 -0.0334221558
80299520.0 0.0008216555 -0.0314140086
85299490.0 0.0006181306 -0.0296047923
90299460.0 0.0005750544 -0.0278056089
95299430.0 0.0003370721 -0.0262400503
100299400.0 0.0003292991 -0.0246551094
105299370.0 0.000533602 -0.0233204766
110299340.0 8.94542e-05 -0.0221965938
115299310.0 0.0001662731 -0.0209234499
120299280.0 0.0001642183 -0.019960357
125299250.0 4.65141e-05 -0.0187686821
130299220.0 1.14796e-05 -0.0179561775
135299190.0 6.15355e-05 -0.0171927166
140299160.0 5.59364e-05 -0.0163499853
145299130.0 -8.22686e-05 -0.0158188346
150299100.0 0.0001137571 -0.0149428308
155299070.0 -2.61382e-05 -0.0144574613
160299040.0 -7.19474e-05 -0.013881683
165299010.0 0.0002520431 -0.0130059646
170298980.0 4.52352e-05 -0.0125605676
175298950.0 2.15597e-05 -0.0122318788
180298920.0 2.1428e-06 -0.0115993623
185298890.0 -1.66565e-05 -0.0111097222
190298860.0 -3.75322e-05 -0.0106839654
195298830.0 5.56511e-05 -0.0103059181
200298800.0 0.0002029029 -0.0097446729
205298770.0 0.0004253759 -0.009332757
210298740.0 0.0003503741 -0.0090865469
215298710.0 0.0004552762 -0.0085310447
220298680.0 0.0006602764 -0.008215392
225298650.0 0.0004328137 -0.0081327438
230298620.0 0.0008317891 -0.0077431445
235298590.0 0.0009079103 -0.0075495719
240298560.0 0.0009347358 -0.0070956157
245298530.0 0.0008266927 -0.0068816046
250298500.0 0.0010029755 -0.0065741693
255298470.0 0.0011334432 -0.0064241475
260298440.0 0.0009542318 -0.0058885595
265298410.0 0.0009224303 -0.0058380179
270298380.0 0.0011978225 -0.0054674772
275298350.0 0.0011099776 -0.0054139591
280298320.0 0.0013047057 -0.0051198997
285298290.0 0.0015022565 -0.0049130924
290298260.0 0.0014688268 -0.0047052903
295298230.0 0.0017456064 -0.0043193951
300298200.0 0.0015809101 -0.0043083681
305298170.0 0.0016185058 -0.0038741689
310298140.0 0.0016812919 -0.0037498256
315298110.0 0.0018027797 -0.0037344662
320298080.0 0.0019537853 -0.0035268017
325298050.0 0.0019965374 -0.0034307213
330298020.0 0.0022041393 -0.0033202417
335297990.0 0.0022028802 -0.0029935334
340297960.0 0.0021860109 -0.0028635857
345297930.0 0.0023947718 -0.002786623
350297900.0 0.002825129 -0.0025702804
355297870.0 0.0025542963 -0.0025791567
360297840.0 0.0029340014 -0.0025163874
365297810.0 0.0029595095 -0.0022765067
370297780.0 0.0027320356 -0.0021282954
375297750.0 0.0031632349 -0.0020031163
380297720.0 0.0031591771 -0.0019557377
385297690.0 0.0032070709 -0.0015987687
390297660.0 0.0031833165 -0.001403315
395297630.0 0.0034978984 -0.0015351466
400297600.0 0.0035228193 -0.0015134722
405297570.0 0.0037807654 -0.0013882025
410297540.0 0.0036368799 -0.0012999983
415297510.0 0.0038164909 -0.0010372072
420297480.0 0.00391694 -0.0011460636
425297450.0 0.0041609443 -0.001207313
430297420.0 0.003978283 -0.0009546747
435297390.0 0.0042379721 -0.0009468453
440297360.0 0.004375058 -0.0007496656
445297330.0 0.0045604649 -0.0006494979
450297300.0 0.0046031146 -0.0002140922
455297270.0 0.004697373 -0.0006321911
460297240.0 0.0047606601 -0.0003005703
465297210.0 0.0047170605 -0.0004756794
470297180.0 0.0048599497 -0.0004260452
475297150.0 0.0049381211 -0.0004840609
480297120.0 0.0052338713 -0.0004143219
485297090.0 0.0051907303 -0.0003902286
490297060.0 0.0051688912 -0.0001872175
495297030.0 0.0053353135 -2.59075e-05
500297000.0 0.0054933468 -0.0001801653
505296970.0 0.005663518 6.47684e-05
510296940.0 0.00570054 1.70694e-05
515296910.0 0.0057218876 3.76932e-05
520296880.0 0.0058393521 1.50556e-05
525296850.0 0.0059142276 0.0001396767
530296820.0 0.0059870774 0.0001095849
535296790.0 0.006066794 0.0002410972
540296760.0 0.0063466308 -0.0001552424
545296730.0 0.006270929 8.16257e-05
550296700.0 0.0063045322 0.0001977365
555296670.0 0.0066438832 0.0002502827
560296640.0 0.0068131455 0.0002001954
565296610.0 0.0068654179 -5.58555e-05
570296580.0 0.0071002283 -0.0001603226
575296550.0 0.0071615664 8.9205e-05
580296520.0 0.0071827278 6.80112e-05
585296490.0 0.0072377044 -7.07501e-05
590296460.0 0.0072282533 -0.0001653614
595296430.0 0.0074922045 -2.35158e-05
600296400.0 0.0077845985 -1.95725e-05
605296370.0 0.0076810026 -0.000262409
610296340.0 0.0076756242 -0.000217336
615296310.0 0.0078911899 -7.87883e-05
620296280.0 0.0079468898 -0.0002306314
625296250.0 0.0079790284 -8.94027e-05
630296220.0 0.0081866716 -0.0002486186
635296190.0 0.0081122058 -0.0001777936
640296160.0 0.0083135375 -0.0004127404
645296130.0 0.0082380087 -0.0004190166
650296100.0 0.0082989483 -0.0002034551
655296070.0 0.008532049 -0.0001894345
660296040.0 0.0088267603 -0.0003976525
665296010.0 0.0088952381 -0.0005034063
670295980.0 0.0091305623 -0.0005625834
675295950.0 0.0090573472 -0.0006817806
680295920.0 0.0090136952 -0.0006439863
685295890.0 0.0091362502 -0.0008218747
690295860.0 0.0094335788 -0.0007261863
695295830.0 0.0092539469 -0.0008333509
700295800.0 0.0092973418 -0.0008738682
705295770.0 0.0091957263 -0.0008429845
710295740.0 0.0095326324 -0.0009147988
715295710.0 0.0095704729 -0.0009651269
720295680.0 0.0096685886 -0.00091863
725295650.0 0.0097235714 -0.0010966543
730295620.0 0.009986895 -0.0012031543
735295590.0 0.0097247015 -0.0011852797
740295560.0 0.0098543769 -0.0012619554
745295530.0 0.0100780665 -0.0014213236
750295500.0 0.0102481047 -0.0013799583
755295470.0 0.0103799008 -0.0015191891
760295440.0 0.0102524298 -0.001568121
765295410.0 0.0101832999 -0.0016007907
770295380.0 0.010338688 -0.0017799076
775295350.0 0.0103455397 -0.0019351827
780295320.0 0.0106308336 -0.002095167
785295290.0 0.0107027277 -0.002128768
790295260.0 0.0108909453 -0.0019433889
795295230.0 0.0108611692 -0.0020830545
800295200.0 0.0107432297 -0.0021680071
805295170.0 0.0109563337 -0.0025405103
810295140.0 0.0109300791 -0.0025190173
815295110.0 0.0109863504 -0.0026019351
820295080.0 0.0111497462 -0.0026491032
825295050.0 0.0111092576 -0.0028803006
830295020.0 0.0112307339 -0.0030743272
835294990.0 0.0112927531 -0.0028159937
840294960.0 0.0113975432 -0.0027807355
845294930.0 0.0114985964 -0.0030855419
850294900.0 0.0114749041 -0.0033158188
855294870.0 0.0116513678 -0.0032442898
860294840.0 0.0116312268 -0.0032968336
865294810.0 0.0115716903 -0.0035551567
870294780.0 0.0116796738 -0.0037689787
875294750.0 0.011721755 -0.0037638978
880294720.0 0.0120816023 -0.0039647341
885294690.0 0.0118023849 -0.0039332409
890294660.0 0.0119389567 -0.0041045537
895294630.0 0.0118068203 -0.0040773404
900294600.0 0.0121265859 -0.0042703991
905294570.0 0.0120547407 -0.0042817923
910294540.0 0.012213936 -0.0045308819
915294510.0 0.011889038 -0.0046735789
920294480.0 0.0120203724 -0.0048115841
925294450.0 0.012167925 -0.0049876156
930294420.0 0.0120543069 -0.0047002136
935294390.0 0.0123792925 -0.005014327
940294360.0 0.0120995029 -0.0053092293
945294330.0 0.0124267346 -0.005285841
950294300.0 0.0122434877 -0.0055381272
955294270.0 0.0122915052 -0.0055862503
960294240.0 0.0122675389 -0.0057861397
965294210.0 0.0123817271 -0.0057600591
970294180.0 0.0124668806 -0.0057714888
975294150.0 0.0124213581 -0.0058857548
980294120.0 0.0126587835 -0.0061652546
985294090.0 0.0124654777 -0.0062102695
990294060.0 0.0123666907 -0.0065234875
995294030.0 0.0123356925 -0.0064361354
1000294000.0 0.012719089 -0.0067376948
1005293970.0 0.0127196479 -0.0068076572
1010293940.0 0.0125078615 -0.0068639745
1015293910.0 0.0125273606 -0.007034164
1020293880.0 0.0127146382 -0.0072796397
1025293850.0 0.0126553325 -0.0073469051
1030293820.0 0.0127992854 -0.0076399001
1035293790.0 0.012788376 -0.0073175743
1040293760.0 0.0127789186 -0.0076200292
1045293730.0 0.0128103073 -0.0078782836
1050293700.0 0.012693117 -0.0078809551
1055293670.0 0.0128136821 -0.0079584454
1060293640.0 0.0126098242 -0.0084071781
1065293610.0 0.0126568723 -0.0083853777
1070293580.0 0.0125832109 -0.00831804
1075293550.0 0.0128036644 -0.0088143012
1080293520.0 0.0128663236 -0.0086681666
1085293490.0 0.0126569997 -0.0088870373
1090293460.0 0.0128607028 -0.0089715145
1095293430.0 0.0126985871 -0.0090917701
1100293400.0 0.0128328196 -0.0091692369
1105293370.0 0.0128322663 -0.0094328727
1110293340.0 0.0128491393 -0.0094474847
1115293310.0 0.0127709989 -0.0095430454
1120293280.0 0.0126127074 -0.0098342219
1125293250.0 0.0125902469 -0.0099474011
1130293220.0 0.0126221525 -0.0096824801
1135293190.0 0.0124350024 -0.0099439455
1140293160.0 0.0123392907 -0.0099684212
1145293130.0 0.0123147709 -0.0100778011
1150293100.0 0.0121266604 -0.010176026
1155293070.0 0.012259409 -0.0104127873
1160293040.0 0.0121709254 -0.0103380031
1165293010.0 0.0121036092 -0.0109059299
1170292980.0 0.0119757398 -0.0109440791
1175292950.0 0.0119651411 -0.0112026513
1180292920.0 0.0122499056 -0.0112530721
1185292890.0 0.0122757728 -0.0114075632
1190292860.0 0.0121023377 -0.0114534967
1195292830.0 0.0122744197 -0.011578656
1200292800.0 0.0122170456 -0.0116339119
1205292770.0 0.0121803277 -0.0119897079
1210292740.0 0.012194349 -0.0119855018
1215292710.0 0.01207031 -0.0125439542
1220292680.0 0.0120070952 -0.012411012
1225292650.0 0.0122098349 -0.012453534
1230292620.0 0.0121251197 -0.0126097922
1235292590.0 0.0120207767 -0.0125613351
1240292560.0 0.0119667336 -0.0130267076
1245292530.0 0.0117947845 -0.0129460195
1250292500.0 0.0117163404 -0.0132417607
1255292470.0 0.0118196754 -0.0132447539
1260292440.0 0.0118389652 -0.0134405338
1265292410.0 0.0116121557 -0.0135519053
1270292380.0 0.0117740288 -0.0135939842
1275292350.0 0.0115567486 -0.0136125507
1280292320.0 0.0115085919 -0.0138322885
1285292290.0 0.0115738164 -0.013929272
1290292260.0 0.011282955 -0.0142461873
1295292230.0 0.0112991961 -0.0143251139
1300292200.0 0.0112841679 -0.0142608353
1305292170.0 0.0111092474 -0.0145844937
1310292140.0 0.0112417361 -0.0144366015
1315292110.0 0.011028625 -0.0146304143
1320292080.0 0.0108148094 -0.0148391339
1325292050.0 0.0109101033 -0.0150566433
1330292020.0 0.0111581235 -0.0151569598
1335291990.0 0.0106986307 -0.0151499087
1340291960.0 0.010620534 -0.0155571353
1345291930.0 0.0107765772 -0.0155464608
1350291900.0 0.0105841032 -0.0155084009
1355291870.0 0.0104198442 -0.0156907608
1360291840.0 0.0104003219 -0.0157385156
1365291810.0 0.0103413656 -0.0158226042
1370291780.0 0.010065973 -0.0161700778
1375291750.0 0.0102733531 -0.0162064703
1380291720.0 0.0101630013 -0.0162785644
1385291690.0 0.0101379954 -0.0163870545
1390291660.0 0.0099443381 -0.0162885575
1395291630.0 0.0098765145 -0.0165167374
1400291600.0 0.0096500184 -0.0166728834
1405291570.0 0.009891727 -0.0167504871
1410291540.0 0.0096168617 -0.0168788134
1415291510.0 0.0096576987 -0.0169860863
1420291480.0 0.0092996747 -0.0170047112
1425291450.0 0.009345246 -0.0174396471
1430291420.0 0.0091173632 -0.0171644231
1435291390.0 0.0093170292 -0.0174361963
1440291360.0 0.0089917376 -0.0174810109
1445291330.0 0.0092184579 -0.0175718745
1450291300.0 0.0091830339 -0.0177418464
1455291270.0 0.0088774046 -0.0176608331
1460291240.0 0.0088505216 -0.0180117654
1465291210.0 0.0086633909 -0.0180100515
1470291180.0 0.0085325644 -0.0181396434
1475291150.0 0.0083543874 -0.0180891321
1480291120.0 0.0082507695 -0.0184871048
1485291090.0 0.0083263983 -0.0182876493
1490291060.0 0.0083567629 -0.0184325898
1495291030.0 0.0081628434 -0.0184989131
1500291000.0 0.0080799358 -0.0186142744
1505290970.0 0.0080060908 -0.0185608372
1510290940.0 0.0080515012 -0.0186903802
1515290910.0 0.0078575188 -0.0188493454
1520290880.0 0.0075609462 -0.018811705
1525290850.0 0.007517106 -0.0190655285
1530290820.0 0.0075445073 -0.0191996889
1535290790.0 0.0073134236 -0.0193135303
1540290760.0 0.0070481246 -0.0194003469
1545290730.0 0.0068824565 -0.0194652191
1550290700.0 0.0071216328 -0.019532559
1555290670.0 0.0068122438 -0.0195894434
1560290640.0 0.0068731661 -0.0197056373
1565290610.0 0.0066697313 -0.0199117161
1570290580.0 0.0066052022 -0.0197423805
1575290550.0 0.006582663 -0.0198422239
1580290520.0 0.0066414028 -0.0198480993
1585290490.0 0.0062286611 -0.0198935546
1590290460.0 0.0059297401 -0.0200180551
1595290430.0 0.0060362682 -0.0202261347
1600290400.0 0.0058638987 -0.0202411482
1605290370.0 0.0059413712 -0.0202467509
1610290340.0 0.0057012174 -0.0201852051
1615290310.0 0.0055855922 -0.0204164087
1620290280.0 0.0055327927 -0.0204318191
1625290250.0 0.0052220471 -0.0204318507
1630290220.0 0.0053850665 -0.0204768382
1635290190.0 0.0053383399 -0.0207467732
1640290160.0 0.0052313561 -0.0206423505
1645290130.0 0.0049531735 -0.0208125335
1650290100.0 0.0047544606 -0.020945766
1655290070.0 0.0044842925 -0.0210530657
1660290040.0 0.0044191879 -0.0211041528
1665290010.0 0.004598687 -0.021270527
1670289980.0 0.0045701372 -0.0211570049
1675289950.0 0.0041229416 -0.0212141625
1680289920.0 0.0040248689 -0.0214152315
1685289890.0 0.0040295569 -0.0213198633
1690289860.0 0.0038611578 -0.021353999
1695289830.0 0.0036490389 -0.0213289753
1700289800.0 0.0035076864 -0.0214716315
1705289770.0 0.0032152188 -0.0214239165
1710289740.0 0.0033295248 -0.0218006704
1715289710.0 0.0031232392 -0.0216302661
1720289680.0 0.0029924798 -0.0217242903
1725289650.0 0.0028497316 -0.0215292576
1730289620.0 0.0028473868 -0.0218904163
1735289590.0 0.0025951059 -0.0217267801
1740289560.0 0.0024928234 -0.0218483113
1745289530.0 0.0026081141 -0.0217768788
1750289500.0 0.0020841137 -0.0217675229
1755289470.0 0.0022182021 -0.0219589041
1760289440.0 0.0019312305 -0.0219512048
1765289410.0 0.0018010688 -0.0218439659
1770289380.0 0.0018801212 -0.021871075
1775289350.0 0.0016542803 -0.0217600686
1780289320.0 0.0015488846 -0.0220509829
1785289290.0 0.0015883015 -0.0220190673
1790289260.0 0.0010936209 -0.0221572387
1795289230.0 0.0011645175 -0.0220296318
1800289200.0 0.0009059655 -0.0220885203
1805289170.0 0.0006926067 -0.0220412276
1810289140.0 0.0006877462 -0.0222329376
1815289110.0 0.00062902 -0.0220552247
1820289080.0 0.0005957125 -0.0222175074
1825289050.0 0.0004612413 -0.0222084266
1830289020.0 0.0003028424 -0.0220619691
1835288990.0 0.0002322896 -0.0219683597
1840288960.0 -7.19449e-05 -0.0221468188
1845288930.0 -0.0002323534 -0.0224876609
1850288900.0 -0.0003754747 -0.0221849122
1855288870.0 -0.0005908096 -0.0220729151
1860288840.0 -0.000597824 -0.0223695824
1865288810.0 -0.0008301467 -0.0224083787
1870288780.0 -0.0009995722 -0.0222079932
1875288750.0 -0.0010058125 -0.0223575968
1880288720.0 -0.0013893278 -0.0220631836
1885288690.0 -0.001167919 -0.0223505352
1890288660.0 -0.0013336755 -0.0224247158
1895288630.0 -0.0014306361 -0.022263243
1900288600.0 -0.0016899986 -0.0221497037
1905288570.0 -0.0016406052 -0.0222422491
1910288540.0 -0.0020724981 -0.022111411
1915288510.0 -0.0021899585 -0.0223220097
1920288480.0 -0.002117535 -0.0222606428
1925288450.0 -0.0024435345 -0.0221396787
1930288420.0 -0.002572815 -0.0222343467
1935288390.0 -0.0026775609 -0.0222318868
1940288360.0 -0.0026496111 -0.0223218664
1945288330.0 -0.0030893607 -0.0222747421
1950288300.0 -0.0032344494 -0.0220224247
1955288270.0 -0.0032801312 -0.0221751824
1960288240.0 -0.0032296639 -0.0221462572
1965288210.0 -0.0034950896 -0.0219895572
1970288180.0 -0.0038031513 -0.0220093519
1975288150.0 -0.0038319871 -0.0219893763
1980288120.0 -0.003801156 -0.022038767
1985288090.0 -0.0041465307 -0.0218464198
1990288060.0 -0.0040186123 -0.0217936518
1995288030.0 -0.0043496371 -0.021901356
2000288000.0 -0.004428682 -0.021942645
2005287970.0 -0.0045511601 -0.0218980797
2010287940.0 -0.0047601855 -0.0215779982
2015287910.0 -0.0048777426 -0.0215580665
2020287880.0 -0.004926641 -0.0217087817
2025287850.0 -0.0052899024 -0.0216215333
2030287820.0 -0.0054185166 -0.0216018047
2035287790.0 -0.0055348273 -0.0215828985
2040287760.0 -0.0055187813 -0.0215170868
2045287730.0 -0.0057070626 -0.0212579384
2050287700.0 -0.0061688775 -0.0213597377
2055287670.0 -0.0060482407 -0.021285014
2060287640.0 -0.006220443 -0.0213242217
2065287610.0 -0.0064636597 -0.0211623909
2070287580.0 -0.0063570852 -0.0210405281
2075287550.0 -0.0067560464 -0.0210720428
2080287520.0 -0.0068482033 -0.0211756835
2085287490.0 -0.0068485434 -0.0208772999
2090287460.0 -0.0068607757 -0.0209757031
2095287430.0 -0.0072085711 -0.020916411
2100287400.0 -0.0071167231 -0.0206443645
2105287370.0 -0.0073668533 -0.0206413185
2110287340.0 -0.0075084294 -0.0207134293
2115287310.0 -0.0076850236 -0.0206341972
2120287280.0 -0.0077629723 -0.0206608228
2125287250.0 -0.0079904616 -0.0204176798
2130287220.0 -0.0078255224 -0.0204905486
2135287190.0 -0.0081694636 -0.020093236
2140287160.0 -0.0085188892 -0.0202596
2145287130.0 -0.0086782066 -0.0201164415
2150287100.0 -0.0087198334 -0.0201305537
2155287070.0 -0.0087197698 -0.0201524638
2160287040.0 -0.0088393626 -0.0197539293
2165287010.0 -0.0089577264 -0.0200375319
2170286980.0 -0.0090076781 -0.0199600708
2175286950.0 -0.0092335973 -0.0197792224
2180286920.0 -0.0092891326 -0.0198351391
2185286890.0 -0.0093183724 -0.01944455
2190286860.0 -0.0094723956 -0.01934676
2195286830.0 -0.0096738849 -0.0191559677
2200286800.0 -0.0100265494 -0.0192601017
2205286770.0 -0.0100449716 -0.0190144093
2210286740.0 -0.0100425724 -0.0192527549
2215286710.0 -0.0101425042 -0.018970271
2220286680.0 -0.010161333 -0.0188458039
2225286650.0 -0.0104007792 -0.0187985329
2230286620.0 -0.0106140997 -0.0186187508
2235286590.0 -0.0108774832 -0.0187863588
2240286560.0 -0.0108534135 -0.0184827275
2245286530.0 -0.0110525717 -0.0185275335
2250286500.0 -0.0110801822 -0.018392
2255286470.0 -0.011368742 -0.0182973305
2260286440.0 -0.0114698515 -0.0180683591
2265286410.0 -0.0114086536 -0.018096531
2270286380.0 -0.0114004967 -0.0178760588
2275286350.0 -0.0116533391 -0.0178851968
2280286320.0 -0.0117067052 -0.0178495975
2285286290.0 -0.0117276096 -0.0174571212
2290286260.0 -0.0119899771 -0.0175420564
2295286230.0 -0.012205666 -0.0174806994
2300286200.0 -0.0124788571 -0.0171835331
2305286170.0 -0.0123573074 -0.0171184016
2310286140.0 -0.0124478795 -0.0169911325
2315286110.0 -0.0125229689 -0.0169853159
2320286080.0 -0.012705488 -0.016727898
2325286050.0 -0.0127590279 -0.0165146255
2330286020.0 -0.0127718374 -0.0165563106
2335285990.0 -0.0132253126 -0.0162852136
2340285960.0 -0.0129992178 -0.0162374465
2345285930.0 -0.0134509711 -0.015946823
2350285900.0 -0.0135275856 -0.0160349574
2355285870.0 -0.0136553448 -0.0158437124
2360285840.0 -0.0134296661 -0.0157296285
2365285810.0 -0.0138519271 -0.0155255092
2370285780.0 -0.0139085162 -0.0155012289
2375285750.0 -0.0140720398 -0.015282878
2380285720.0 -0.0140275576 -0.015217914
2385285690.0 -0.0139583561 -0.0149526882
2390285660.0 -0.0140363395 -0.0149776549
2395285630.0 -0.01444027 -0.0148352087
2400285600.0 -0.0145155274 -0.0147179623
2405285570.0 -0.0144310986 -0.0144047965
2410285540.0 -0.0146180481 -0.0147267927
2415285510.0 -0.0146043716 -0.0143756821
2420285480.0 -0.0148646976 -0.0143399139
2425285450.0 -0.0147984532 -0.0140066065
2430285420.0 -0.0146926878 -0.014023467
2435285390.0 -0.0149402705 -0.0139200326
2440285360.0 -0.0150799222 -0.0140165495
2445285330.0 -0.014780806 -0.0134980471
2450285300.0 -0.0151538643 -0.0137120383
2455285270.0 -0.015019648 -0.0133440296
2460285240.0 -0.0152733377 -0.0130363299
2465285210.0 -0.0152460923 -0.0127798797
2470285180.0 -0.0153536112 -0.0128481322
2475285150.0 -0.0156564043 -0.0127810814
2480285120.0 -0.0156233394 -0.0125825395
2485285090.0 -0.0157533678 -0.0124678359
2490285060.0 -0.0157849374 -0.0125430683
2495285030.0 -0.015911361 -0.0123700159
2500285000.0 -0.0159267775 -0.0123970292
2505284970.0 -0.0160204921 -0.0117034613
2510284940.0 -0.0159059447 -0.0119664184
