!Created with skrf (http://scikit-rf.org).
# Hz S RI R 50.0 
!freq ReS11 ImS11
45000000.0 -0.008646488189697266 -0.0065937042236328125
49995500.0 -0.010103225708007812 -0.005990505218505859
54991000.0 -0.011694908142089844 -0.005078315734863281
59986500.0 -0.013229846954345703 -0.00475311279296875
64982000.0 -0.014639854431152344 -0.0037331581115722656
69977500.0 -0.016002655029296875 -0.0022840499877929688
74973000.0 -0.017206192016601562 -0.00054168701171875
79968500.0 -0.01813220977783203 0.0014629364013671875
84964000.0 -0.018909454345703125 0.0037126541137695312
89959500.0 -0.019367218017578125 0.006084442138671875
94955000.0 -0.019445419311523438 0.00873565673828125
99950500.0 -0.019331932067871094 0.011403083801269531
104946000.0 -0.018598556518554688 0.014287948608398438
109941500.0 -0.01749134063720703 0.01697254180908203
114937000.0 -0.015850067138671875 0.019697189331054688
119932500.0 -0.014017105102539062 0.02227497100830078
124928000.0 -0.011739730834960938 0.02457904815673828
129923500.0 -0.009082794189453125 0.026697158813476562
134919000.0 -0.0060710906982421875 0.02852916717529297
139914500.0 -0.0025377273559570312 0.030002593994140625
144910000.0 0.001018524169921875 0.03095531463623047
149905500.0 0.004741668701171875 0.03163909912109375
154901000.0 0.008640289306640625 0.03168296813964844
159896500.0 0.012607574462890625 0.03139686584472656
164892000.0 0.01678943634033203 0.030417442321777344
169887500.0 0.02070140838623047 0.029043197631835938
174883000.0 0.024659156799316406 0.026975631713867188
179878500.0 0.028222084045410156 0.02465057373046875
184874000.0 0.031734466552734375 0.021587371826171875
189869500.0 0.03487968444824219 0.018175125122070312
194865000.0 0.03759765625 0.014392852783203125
199860500.0 0.04000282287597656 0.010066986083984375
204856000.0 0.041728973388671875 0.005435943603515625
209851500.0 0.043064117431640625 0.000514984130859375
214847000.0 0.04367637634277344 -0.004573822021484375
219842500.0 0.04375457763671875 -0.0098876953125
224838000.0 0.0431060791015625 -0.01522064208984375
229833500.0 0.04193305969238281 -0.020593643188476562
234829000.0 0.04004096984863281 -0.025739669799804688
239824500.0 0.0374298095703125 -0.030828475952148438
244820000.0 0.03426361083984375 -0.03565216064453125
249815500.0 0.030385971069335938 -0.04001617431640625
254811000.0 0.028163909912109375 -0.04348945617675781
259806500.0 0.023359298706054688 -0.04712104797363281
264802000.0 0.018114089965820312 -0.05050086975097656
269797500.0 0.012376785278320312 -0.05316352844238281
274793000.0 0.0064411163330078125 -0.055255889892578125
279788500.0 7.62939453125e-06 -0.056537628173828125
284784000.0 -0.006591796875 -0.05708885192871094
289779500.0 -0.013368606567382812 -0.05686378479003906
294775000.0 -0.020132064819335938 -0.05580902099609375
299770500.0 -0.026775360107421875 -0.05395317077636719
304766000.0 -0.03345298767089844 -0.05125617980957031
309761500.0 -0.03972434997558594 -0.047801971435546875
314757000.0 -0.0455474853515625 -0.04343605041503906
319752500.0 -0.05089759826660156 -0.038238525390625
324748000.0 -0.05562782287597656 -0.03265190124511719
329743500.0 -0.05986785888671875 -0.026182174682617188
334739000.0 -0.06332778930664062 -0.0193939208984375
339734500.0 -0.06591415405273438 -0.01190948486328125
344730000.0 -0.0676116943359375 -0.00415802001953125
349725500.0 -0.06855392456054688 0.003814697265625
354721000.0 -0.0683746337890625 0.0118255615234375
359716500.0 -0.0672454833984375 0.019985198974609375
364712000.0 -0.06507110595703125 0.02793121337890625
369707500.0 -0.06207847595214844 0.03565406799316406
374703000.0 -0.058017730712890625 0.04325294494628906
379698500.0 -0.05316925048828125 0.050159454345703125
384694000.0 -0.04735565185546875 0.05666160583496094
389689500.0 -0.04069328308105469 0.062435150146484375
394685000.0 -0.033473968505859375 0.067474365234375
399680500.0 -0.02553558349609375 0.07143783569335938
404676000.0 -0.017131805419921875 0.07466506958007812
409671500.0 -0.008457183837890625 0.07675933837890625
414667000.0 0.000591278076171875 0.078033447265625
419662500.0 0.00983428955078125 0.07804489135742188
424658000.0 0.0191192626953125 0.07703018188476562
429653500.0 0.02834320068359375 0.07489776611328125
434649000.0 0.037136077880859375 0.071380615234375
439644500.0 0.045543670654296875 0.06694412231445312
444640000.0 0.0532379150390625 0.061786651611328125
449635500.0 0.06035423278808594 0.055492401123046875
454631000.0 0.06704330444335938 0.04848480224609375
459626500.0 0.07277297973632812 0.040508270263671875
464622000.0 0.0774993896484375 0.031902313232421875
469617500.0 0.08131790161132812 0.022708892822265625
474613000.0 0.08385467529296875 0.013088226318359375
479608500.0 0.0853118896484375 0.003204345703125
484604000.0 0.08563995361328125 -0.006816864013671875
489599500.0 0.08469009399414062 -0.016895294189453125
494595000.0 0.082672119140625 -0.02667236328125
499590500.0 0.07928466796875 -0.036457061767578125
504586000.0 0.07500076293945312 -0.0456085205078125
509581500.0 0.06955337524414062 -0.0542755126953125
514577000.0 0.063018798828125 -0.062236785888671875
519572500.0 0.05562591552734375 -0.06941604614257812
524568000.0 0.047428131103515625 -0.0756683349609375
529563500.0 0.038421630859375 -0.08090591430664062
534559000.0 0.02918243408203125 -0.08513641357421875
539554500.0 0.019287109375 -0.088165283203125
544550000.0 0.009243011474609375 -0.09032821655273438
549545500.0 -0.00107574462890625 -0.09117507934570312
554541000.0 -0.011569976806640625 -0.09093856811523438
559536500.0 -0.021892547607421875 -0.08945846557617188
564532000.0 -0.032329559326171875 -0.08705520629882812
569527500.0 -0.042400360107421875 -0.08324813842773438
574523000.0 -0.0520477294921875 -0.07828521728515625
579518500.0 -0.0610809326171875 -0.07211685180664062
584514000.0 -0.0693817138671875 -0.0648956298828125
589509500.0 -0.07683181762695312 -0.056674957275390625
594505000.0 -0.08323287963867188 -0.0475006103515625
599500500.0 -0.088531494140625 -0.037776947021484375
604496000.0 -0.09268951416015625 -0.02730560302734375
609491500.0 -0.09576416015625 -0.0163726806640625
614487000.0 -0.09737777709960938 -0.005229949951171875
619482500.0 -0.09762954711914062 0.006084442138671875
624478000.0 -0.09671783447265625 0.017383575439453125
629473500.0 -0.09444046020507812 0.028564453125
634469000.0 -0.09073638916015625 0.0393829345703125
639464500.0 -0.0859375 0.049915313720703125
644460000.0 -0.07988357543945312 0.05974578857421875
649455500.0 -0.07274627685546875 0.068817138671875
654451000.0 -0.06455612182617188 0.07704544067382812
659446500.0 -0.05527496337890625 0.08423233032226562
664442000.0 -0.045276641845703125 0.09040069580078125
669437500.0 -0.0345458984375 0.09546661376953125
674433000.0 -0.023151397705078125 0.09913253784179688
679428500.0 -0.01160430908203125 0.10150909423828125
684424000.0 0.00048065185546875 0.10245513916015625
689419500.0 0.012462615966796875 0.10189056396484375
694415000.0 0.024288177490234375 0.0999908447265625
699410500.0 0.035755157470703125 0.0966033935546875
704406000.0 0.046977996826171875 0.091827392578125
709401500.0 0.05750274658203125 0.08578872680664062
714397000.0 0.06723785400390625 0.07856369018554688
719392500.0 0.07593154907226562 0.07036209106445312
724388000.0 0.08377838134765625 0.061187744140625
729383500.0 0.09036636352539062 0.0510406494140625
734379000.0 0.09568405151367188 0.040187835693359375
739374500.0 0.0998077392578125 0.02880859375
744370000.0 0.10263824462890625 0.017040252685546875
749365500.0 0.10387039184570312 0.0050048828125
754361000.0 0.10372161865234375 -0.007076263427734375
759356500.0 0.1022796630859375 -0.019001007080078125
764352000.0 0.09935760498046875 -0.03064727783203125
769347500.0 0.09523773193359375 -0.0420074462890625
774343000.0 0.08988189697265625 -0.05271148681640625
779338500.0 0.08303070068359375 -0.0627593994140625
784334000.0 0.07524871826171875 -0.07198715209960938
789329500.0 0.0663909912109375 -0.080291748046875
794325000.0 0.0566253662109375 -0.08745574951171875
799320500.0 0.04615020751953125 -0.09340667724609375
804316000.0 0.035007476806640625 -0.0981292724609375
809311500.0 0.023395538330078125 -0.10147476196289062
814307000.0 0.011505126953125 -0.10348892211914062
819302500.0 -0.00054168701171875 -0.10405731201171875
824298000.0 -0.012714385986328125 -0.10302352905273438
829293500.0 -0.02454376220703125 -0.10102462768554688
834289000.0 -0.036006927490234375 -0.097412109375
839284500.0 -0.046825408935546875 -0.09246063232421875
844280000.0 -0.054107666015625 -0.0898284912109375
849275500.0 -0.06406784057617188 -0.082916259765625
854271000.0 -0.07312774658203125 -0.07489013671875
859266500.0 -0.08109664916992188 -0.06580734252929688
864262000.0 -0.08796310424804688 -0.05606842041015625
869257500.0 -0.09379196166992188 -0.045383453369140625
874253000.0 -0.09802627563476562 -0.034358978271484375
879248500.0 -0.1011962890625 -0.02301025390625
884244000.0 -0.10294723510742188 -0.011257171630859375
889239500.0 -0.10346221923828125 0.000629425048828125
894235000.0 -0.10266876220703125 0.0124053955078125
899230500.0 -0.10065841674804688 0.024089813232421875
904226000.0 -0.09719467163085938 0.03542327880859375
909221500.0 -0.09259033203125 0.046268463134765625
914217000.0 -0.08654403686523438 0.056766510009765625
919212500.0 -0.0793914794921875 0.0662689208984375
924208000.0 -0.0711669921875 0.07515335083007812
929203500.0 -0.06189727783203125 0.08275604248046875
934199000.0 -0.0518798828125 0.08945083618164062
939194500.0 -0.04105377197265625 0.09466552734375
944190000.0 -0.0296783447265625 0.09889602661132812
949185500.0 -0.018024444580078125 0.10157012939453125
954181000.0 -0.006175994873046875 0.102996826171875
959176500.0 0.0058441162109375 0.10287094116210938
964172000.0 0.01788330078125 0.10125732421875
969167500.0 0.02968597412109375 0.09842681884765625
974163000.0 0.04105377197265625 0.09418869018554688
979158500.0 0.05168914794921875 0.088653564453125
984154000.0 0.0615081787109375 0.08176803588867188
989149500.0 0.0706634521484375 0.073883056640625
994145000.0 0.0787353515625 0.06468582153320312
999140500.0 0.08562850952148438 0.055027008056640625
1004136000.0 0.09137344360351562 0.044292449951171875
1009131500.0 0.09565353393554688 0.033138275146484375
1014127000.0 0.09876632690429688 0.021587371826171875
1019122500.0 0.1003265380859375 0.0098876953125
1024118000.0 0.10046005249023438 -0.00208282470703125
1029113500.0 0.09915924072265625 -0.013904571533203125
1034109000.0 0.09656906127929688 -0.025485992431640625
1039104500.0 0.09270477294921875 -0.03664398193359375
1044100000.0 0.08763504028320312 -0.047336578369140625
1049095500.0 0.08107376098632812 -0.05701446533203125
1054091000.0 0.0736541748046875 -0.06602096557617188
1059086500.0 0.065032958984375 -0.07390594482421875
1064082000.0 0.055606842041015625 -0.08097457885742188
1069077500.0 0.045558929443359375 -0.08675765991210938
1074073000.0 0.0348358154296875 -0.09111404418945312
1079068500.0 0.023876190185546875 -0.09444427490234375
1084064000.0 0.01235198974609375 -0.09636306762695312
1089059500.0 0.0008697509765625 -0.09689712524414062
1094055000.0 -0.010646820068359375 -0.09600067138671875
1099050500.0 -0.02188873291015625 -0.0938262939453125
1104046000.0 -0.032840728759765625 -0.09032440185546875
1109041500.0 -0.0430908203125 -0.0856170654296875
1114037000.0 -0.05286407470703125 -0.07960128784179688
1119032500.0 -0.0619049072265625 -0.07242584228515625
1124028000.0 -0.06992340087890625 -0.0642852783203125
1129023500.0 -0.0768280029296875 -0.0553741455078125
1134019000.0 -0.0825958251953125 -0.045597076416015625
1139014500.0 -0.08728790283203125 -0.0352783203125
1144010000.0 -0.0906219482421875 -0.02440643310546875
1149005500.0 -0.0924835205078125 -0.013427734375
1154001000.0 -0.09313583374023438 -0.002185821533203125
1158996500.0 -0.09224319458007812 0.008960723876953125
1163992000.0 -0.09030532836914062 0.020168304443359375
1168987500.0 -0.08695220947265625 0.03061676025390625
1173983000.0 -0.08233261108398438 0.0406646728515625
1178978500.0 -0.07656097412109375 0.050121307373046875
1183974000.0 -0.06968307495117188 0.0586395263671875
1188969500.0 -0.062000274658203125 0.06635665893554688
1193965000.0 -0.05341339111328125 0.07309341430664062
1198960500.0 -0.04415130615234375 0.078643798828125
1203956000.0 -0.0341949462890625 0.08291244506835938
1208951500.0 -0.02386474609375 0.08618927001953125
1213947000.0 -0.01354217529296875 0.08807373046875
1218942500.0 -0.00283050537109375 0.08879470825195312
1223938000.0 0.007808685302734375 0.0882568359375
1228933500.0 0.018184661865234375 0.08647918701171875
1233929000.0 0.028202056884765625 0.08332061767578125
1238924500.0 0.037891387939453125 0.07920455932617188
1243920000.0 0.046840667724609375 0.07404327392578125
1248915500.0 0.05516815185546875 0.06782913208007812
1253911000.0 0.06275558471679688 0.060581207275390625
1258906500.0 0.06942367553710938 0.05265045166015625
1263902000.0 0.0750274658203125 0.044002532958984375
1268897500.0 0.07976913452148438 0.0345611572265625
1273893000.0 0.08324432373046875 0.024936676025390625
1278888500.0 0.08550262451171875 0.01483917236328125
1283884000.0 0.08665847778320312 0.004444122314453125
1288879500.0 0.08648300170898438 -0.005893707275390625
1293875000.0 0.08518218994140625 -0.01622772216796875
1298870500.0 0.08257675170898438 -0.02635955810546875
1303866000.0 0.07880020141601562 -0.036163330078125
1308861500.0 0.07390975952148438 -0.045200347900390625
1313857000.0 0.06797027587890625 -0.053802490234375
1318852500.0 0.060863494873046875 -0.06155586242675781
1323848000.0 0.05304718017578125 -0.06840896606445312
1328843500.0 0.044475555419921875 -0.07436370849609375
1333839000.0 0.035121917724609375 -0.07923507690429688
1338834500.0 0.0252532958984375 -0.08288192749023438
1343830000.0 0.0150909423828125 -0.08538818359375
1348825500.0 0.004695892333984375 -0.08650588989257812
1353821000.0 -0.005695343017578125 -0.08669662475585938
1358816500.0 -0.01613616943359375 -0.08526229858398438
1363812000.0 -0.026371002197265625 -0.08275985717773438
1368807500.0 -0.036083221435546875 -0.07903671264648438
1373803000.0 -0.045413970947265625 -0.0740966796875
1378798500.0 -0.0540618896484375 -0.0682373046875
1383794000.0 -0.06199836730957031 -0.06127738952636719
1388789500.0 -0.06892013549804688 -0.0534210205078125
1393785000.0 -0.0748443603515625 -0.04480743408203125
1398780500.0 -0.079803466796875 -0.0354461669921875
1403776000.0 -0.08367156982421875 -0.025508880615234375
1408771500.0 -0.0861663818359375 -0.015346527099609375
1413767000.0 -0.08759307861328125 -0.004970550537109375
1418762500.0 -0.08759307861328125 0.0055694580078125
1423758000.0 -0.08635330200195312 0.01609039306640625
1428753500.0 -0.08388137817382812 0.026256561279296875
1433749000.0 -0.08026123046875 0.0362091064453125
1438744500.0 -0.075531005859375 0.0457000732421875
1443740000.0 -0.06975173950195312 0.054393768310546875
1448735500.0 -0.06282806396484375 0.06230926513671875
1453731000.0 -0.055027008056640625 0.06960678100585938
1458726500.0 -0.046451568603515625 0.07577896118164062
1463722000.0 -0.037078857421875 0.0809783935546875
1468717500.0 -0.0272064208984375 0.08497238159179688
1473713000.0 -0.01694488525390625 0.08782958984375
1478708500.0 -0.0064239501953125 0.08938980102539062
1483704000.0 0.004299163818359375 0.08978271484375
1488699500.0 0.01499176025390625 0.08885574340820312
1493695000.0 0.025440216064453125 0.08652877807617188
1498690500.0 0.035694122314453125 0.08319473266601562
1503686000.0 0.04547882080078125 0.0785369873046875
1508681500.0 0.054431915283203125 0.07274246215820312
1513677000.0 0.06288909912109375 0.06581878662109375
1518672500.0 0.07042312622070312 0.058139801025390625
1523668000.0 0.07680511474609375 0.049587249755859375
1528663500.0 0.08221817016601562 0.040218353271484375
1533659000.0 0.08668136596679688 0.030181884765625
1538654500.0 0.08966064453125 0.01983642578125
1543650000.0 0.09152603149414062 0.00928497314453125
1548645500.0 0.09212493896484375 -0.00145721435546875
1553641000.0 0.09148025512695312 -0.012332916259765625
1558636500.0 0.08959579467773438 -0.022968292236328125
1563632000.0 0.08649063110351562 -0.03330230712890625
1568627500.0 0.08200454711914062 -0.043109893798828125
1573623000.0 0.0766448974609375 -0.05243682861328125
1578618500.0 0.07015609741210938 -0.06114959716796875
1583614000.0 0.0629119873046875 -0.06882095336914062
1588609500.0 0.054576873779296875 -0.07574462890625
1593605000.0 0.045589447021484375 -0.08166885375976562
1598600500.0 0.03601837158203125 -0.08651351928710938
1603596000.0 0.025997161865234375 -0.09019088745117188
1608591500.0 0.015522003173828125 -0.09272003173828125
1613587000.0 0.004852294921875 -0.09419631958007812
1618582500.0 -0.00580596923828125 -0.09442138671875
1623578000.0 -0.016582489013671875 -0.09331512451171875
1628573500.0 -0.027042388916015625 -0.0911865234375
1633569000.0 -0.037204742431640625 -0.08772659301757812
1638564500.0 -0.0469512939453125 -0.08322525024414062
1643560000.0 -0.05643463134765625 -0.07762527465820312
1648555500.0 -0.06496429443359375 -0.07102203369140625
1653551000.0 -0.07278823852539062 -0.06346511840820312
1658546500.0 -0.07990264892578125 -0.055049896240234375
1663542000.0 -0.08575439453125 -0.04598236083984375
1668537500.0 -0.0907745361328125 -0.036113739013671875
1673533000.0 -0.0946197509765625 -0.0258636474609375
1678528500.0 -0.09738540649414062 -0.014942169189453125
1683524000.0 -0.09876632690429688 -0.00402069091796875
1688519500.0 -0.09903717041015625 0.00714874267578125
1693515000.0 -0.0980072021484375 0.01837158203125
1698510500.0 -0.09563446044921875 0.029483795166015625
1703506000.0 -0.09217453002929688 0.040027618408203125
1708501500.0 -0.08736038208007812 0.05030059814453125
1713497000.0 -0.08155059814453125 0.06000518798828125
1718492500.0 -0.07464218139648438 0.0691070556640625
1723488000.0 -0.06669235229492188 0.07738876342773438
1728483500.0 -0.057956695556640625 0.08465194702148438
1733479000.0 -0.048221588134765625 0.09088516235351562
1738474500.0 -0.037899017333984375 0.09627151489257812
1743470000.0 -0.02712249755859375 0.1002349853515625
1748465500.0 -0.015743255615234375 0.10311126708984375
1753461000.0 -0.00424957275390625 0.10465240478515625
1758456500.0 0.007568359375 0.10507965087890625
1763452000.0 0.01941680908203125 0.10391998291015625
1768447500.0 0.030887603759765625 0.1015472412109375
1773443000.0 0.04222869873046875 0.09788131713867188
1778438500.0 0.05326080322265625 0.09287643432617188
1783434000.0 0.06349945068359375 0.08671951293945312
1788429500.0 0.07303619384765625 0.07944488525390625
1793425000.0 0.08181381225585938 0.07095718383789062
1798420500.0 0.08967208862304688 0.061679840087890625
1803416000.0 0.09637832641601562 0.051479339599609375
1808411500.0 0.10181427001953125 0.040500640869140625
1813407000.0 0.10603713989257812 0.029048919677734375
1818402500.0 0.10893630981445312 0.0170440673828125
1823398000.0 0.11049270629882812 0.004787445068359375
1828393500.0 0.1107635498046875 -0.007472991943359375
1833389000.0 0.10951614379882812 -0.019870758056640625
1838384500.0 0.10696029663085938 -0.031970977783203125
1843380000.0 0.10306167602539062 -0.043636322021484375
1848375500.0 0.09784317016601562 -0.054962158203125
1853371000.0 0.09145736694335938 -0.06568527221679688
1858366500.0 0.08369064331054688 -0.07560348510742188
1863362000.0 0.07525253295898438 -0.08449172973632812
1868357500.0 0.06565475463867188 -0.092529296875
1873353000.0 0.055255889892578125 -0.09946823120117188
1878348500.0 0.044055938720703125 -0.10530853271484375
1883344000.0 0.03238677978515625 -0.10984420776367188
1888339500.0 0.02021026611328125 -0.11306381225585938
1893335000.0 0.007659912109375 -0.11505126953125
1898330500.0 -0.00494384765625 -0.11541366577148438
1903326000.0 -0.017581939697265625 -0.1146697998046875
1908321500.0 -0.030376434326171875 -0.11236953735351562
