!Created with skrf (http://scikit-rf.org).
# Hz S RI R 50.0 
!freq ReS11 ImS11
300000.0 1.001777253 0.000891006
5299970.0 1.004899703 -0.0082000747
10299940.0 1.00435676 -0.0147575846
15299910.0 1.00418009 -0.0212124382
20299880.0 1.003686968 -0.027681342
25299850.0 1.003414107 -0.0345593233
30299820.0 1.003309002 -0.0405435615
35299790.0 1.002596591 -0.0474981069
40299760.0 1.002775264 -0.0539862443
45299730.0 1.002249851 -0.0604802805
50299700.0 1.001936999 -0.0678515818
55299670.0 1.001465479 -0.0741686726
60299640.0 1.001515924 -0.0801497138
65299610.0 1.000424429 -0.0867363087
70299580.0 0.9998310146 -0.092753216
75299550.0 0.9989549269 -0.1002278544
80299520.0 0.998440167 -0.1069155982
85299490.0 0.9978125603 -0.1126569015
90299460.0 0.9971103764 -0.1193545286
95299430.0 0.996183453 -0.1259065232
100299400.0 0.99519021 -0.1326885118
105299370.0 0.9947263805 -0.1388559291
110299340.0 0.9934819607 -0.1455704772
115299310.0 0.9932009039 -0.1519224646
120299280.0 0.9917840482 -0.1580198715
125299250.0 0.9905276557 -0.1647781261
130299220.0 0.9890047624 -0.1716166809
135299190.0 0.98819721 -0.1780724354
140299160.0 0.9869356848 -0.183786151
145299130.0 0.9853123174 -0.1904287083
150299100.0 0.9842002455 -0.1970116254
155299070.0 0.983285818 -0.2032797048
160299040.0 0.9819676271 -0.209869408
165299010.0 0.98030249 -0.2162012631
170298980.0 0.9791663699 -0.2222345935
175298950.0 0.9762593021 -0.2295660329
180298920.0 0.9737823863 -0.2355582851
185298890.0 0.9734579975 -0.2414417416
190298860.0 0.9729524856 -0.2476028606
195298830.0 0.9710732989 -0.2545837248
200298800.0 0.969356703 -0.2602799868
205298770.0 0.9676778607 -0.2668208644
210298740.0 0.9655929962 -0.2737810425
215298710.0 0.9638132279 -0.2791628865
220298680.0 0.9616257 -0.285895518
225298650.0 0.9599672281 -0.291860284
230298620.0 0.9583445547 -0.2985204254
235298590.0 0.955714723 -0.3045269761
240298560.0 0.954046586 -0.3108588877
245298530.0 0.952036438 -0.3169351566
250298500.0 0.9495311776 -0.3233100995
255298470.0 0.9478304483 -0.3295498408
260298440.0 0.9455647715 -0.3355091071
265298410.0 0.9437580944 -0.3415793061
270298380.0 0.9414513882 -0.3477749027
275298350.0 0.938706749 -0.3543972244
280298320.0 0.9365733136 -0.3598736341
285298290.0 0.9341447668 -0.3659517915
290298260.0 0.9322669618 -0.3720893136
295298230.0 0.9290442632 -0.3778062854
300298200.0 0.9269984333 -0.383757474
305298170.0 0.9242782822 -0.3899053443
310298140.0 0.9212538018 -0.3964931941
315298110.0 0.9190477079 -0.4022577981
320298080.0 0.9163805448 -0.4086453276
325298050.0 0.913088369 -0.4140840079
330298020.0 0.9106702169 -0.4203750982
335297990.0 0.9081428241 -0.4260451256
340297960.0 0.9052260396 -0.4315124708
345297930.0 0.9025953591 -0.438236028
350297900.0 0.9004423284 -0.4439732991
355297870.0 0.8975077546 -0.449932287
360297840.0 0.8950196116 -0.4559786002
365297810.0 0.8918340928 -0.4616190974
370297780.0 0.8879433402 -0.4671481257
375297750.0 0.8842724345 -0.4727316554
380297720.0 0.8810195651 -0.4783372582
385297690.0 0.8778747293 -0.484056177
390297660.0 0.8750579951 -0.4897185189
395297630.0 0.871291727 -0.4954628293
400297600.0 0.8687050266 -0.5009858523
405297570.0 0.8650933714 -0.5060260528
410297540.0 0.8618857054 -0.5120652757
415297510.0 0.8582894894 -0.5179778809
420297480.0 0.8549587155 -0.5234992633
425297450.0 0.8520201071 -0.528829938
430297420.0 0.8481435794 -0.5342291564
435297390.0 0.8446013705 -0.5399316813
440297360.0 0.8413290222 -0.5453758072
445297330.0 0.8374323964 -0.5506363964
450297300.0 0.8339144984 -0.5564593418
455297270.0 0.8305723433 -0.5615315987
460297240.0 0.8265271231 -0.5672895859
465297210.0 0.8234323449 -0.5721089507
470297180.0 0.8191763684 -0.5781156374
475297150.0 0.8153986325 -0.5832086178
480297120.0 0.8116755321 -0.5885760234
485297090.0 0.8076499161 -0.5937716061
490297060.0 0.8041473777 -0.5990166315
495297030.0 0.7997786591 -0.6043276661
500297000.0 0.7960426649 -0.6098642579
505296970.0 0.7917404311 -0.6148847875
510296940.0 0.787304306 -0.6195534018
515296910.0 0.7833254009 -0.6250338328
520296880.0 0.7793506165 -0.6295936259
525296850.0 0.7749526809 -0.6343396674
530296820.0 0.7708588818 -0.639772979
535296790.0 0.7665644948 -0.6445511606
540296760.0 0.7626674931 -0.649574707
545296730.0 0.7581479259 -0.6542872059
550296700.0 0.7539409671 -0.6595201861
555296670.0 0.7498315306 -0.6647946867
560296640.0 0.7460500324 -0.669310516
565296610.0 0.7413857732 -0.6744584172
570296580.0 0.7375259441 -0.6792261379
575296550.0 0.7328581689 -0.684050176
580296520.0 0.7277456398 -0.6885431545
585296490.0 0.724019244 -0.693128523
590296460.0 0.7188966743 -0.6983118175
595296430.0 0.7145121399 -0.7026270587
600296400.0 0.7103714597 -0.7073299334
605296370.0 0.7054636493 -0.7120020839
610296340.0 0.7013664177 -0.7163318159
615296310.0 0.6963959522 -0.7207171078
620296280.0 0.6911960661 -0.7255340271
625296250.0 0.6867347161 -0.7298881994
630296220.0 0.6818725148 -0.7344305791
635296190.0 0.6766977086 -0.7387245471
640296160.0 0.6721591974 -0.7432661771
645296130.0 0.6677492654 -0.7473120611
650296100.0 0.6626378737 -0.7515426304
655296070.0 0.6575856237 -0.7557636492
660296040.0 0.6525432901 -0.7599168624
665296010.0 0.6476787651 -0.7645744221
670295980.0 0.6425709901 -0.768212564
675295950.0 0.6380594436 -0.7728545742
680295920.0 0.6324827583 -0.7772198063
685295890.0 0.6273358748 -0.7809716292
690295860.0 0.622939956 -0.785142163
695295830.0 0.6168977848 -0.7892252344
700295800.0 0.6126166718 -0.7934811821
705295770.0 0.6071006309 -0.7971130897
710295740.0 0.6020032227 -0.8012722679
715295710.0 0.5962981841 -0.8051244127
720295680.0 0.5911386967 -0.8092292272
725295650.0 0.5858469475 -0.8130760095
730295620.0 0.5806123201 -0.8166863611
735295590.0 0.57586806 -0.8202818321
740295560.0 0.5697878943 -0.8238778291
745295530.0 0.5640618406 -0.8278354026
750295500.0 0.5587299594 -0.8311048661
755295470.0 0.5535244064 -0.8351503622
760295440.0 0.5481885516 -0.8384728101
765295410.0 0.5430221688 -0.8422908572
770295380.0 0.537507661 -0.8457939524
775295350.0 0.5317333962 -0.8495862482
780295320.0 0.5262796966 -0.8533875048
785295290.0 0.5207347954 -0.8557398188
790295260.0 0.5154492902 -0.8596856232
795295230.0 0.5089882555 -0.863275798
800295200.0 0.5037086332 -0.8666141819
805295170.0 0.4978122569 -0.8691544779
810295140.0 0.4929235195 -0.8723418777
815295110.0 0.487091096 -0.8762052149
820295080.0 0.4808650538 -0.8794281268
825295050.0 0.4756573768 -0.8826310708
830295020.0 0.4698658152 -0.8853916633
835294990.0 0.4640283643 -0.888940588
840294960.0 0.4583938407 -0.8915949885
845294930.0 0.4526089523 -0.8944127048
850294900.0 0.4465788039 -0.8969506094
855294870.0 0.440478688 -0.9001699135
860294840.0 0.4345497951 -0.9029489065
865294810.0 0.429041508 -0.9058625425
870294780.0 0.4230911811 -0.909372072
875294750.0 0.4174849254 -0.9109735868
880294720.0 0.4118965725 -0.9140276843
885294690.0 0.4055222076 -0.9159784513
890294660.0 0.3993724631 -0.9188727654
895294630.0 0.3931340556 -0.921619009
900294600.0 0.3877370659 -0.9241914475
905294570.0 0.381396809 -0.9272636377
910294540.0 0.3758192395 -0.928955299
915294510.0 0.3692056019 -0.9318823763
920294480.0 0.3633336646 -0.9340395294
925294450.0 0.3564875096 -0.9367030615
930294420.0 0.3506692181 -0.9391593604
935294390.0 0.3449042813 -0.9408415015
940294360.0 0.3388170178 -0.9434308459
945294330.0 0.3326065487 -0.9453526095
950294300.0 0.3265430968 -0.9476763361
955294270.0 0.3200180229 -0.9496041169
960294240.0 0.313553506 -0.9516683127
965294210.0 0.3072186267 -0.954018231
970294180.0 0.3006825056 -0.9561693809
975294150.0 0.2944765979 -0.9576008127
980294120.0 0.2890015214 -0.9598258482
985294090.0 0.2828164236 -0.961544286
990294060.0 0.2765210196 -0.9628185737
995294030.0 0.2695600567 -0.9648210092
1000294000.0 0.2636162391 -0.9672747416
1005293970.0 0.2575363011 -0.9680339105
1010293940.0 0.2509858516 -0.9704749512
1015293910.0 0.244388446 -0.9716275437
1020293880.0 0.2390536008 -0.9729844138
1025293850.0 0.2324651276 -0.974566387
1030293820.0 0.2263182695 -0.9759681198
1035293790.0 0.2202605225 -0.9779079812
1040293760.0 0.2125539665 -0.9788723072
1045293730.0 0.2069482877 -0.9806951037
1050293700.0 0.2000235335 -0.9818814767
1055293670.0 0.1939007825 -0.9823595645
1060293640.0 0.1882065379 -0.9840898196
1065293610.0 0.1811022243 -0.9855486597
1070293580.0 0.1753677936 -0.9861760958
1075293550.0 0.1687988363 -0.9875518271
1080293520.0 0.1624839389 -0.9892178832
1085293490.0 0.1550820071 -0.9896631993
1090293460.0 0.1489063355 -0.9907733904
1095293430.0 0.1418481219 -0.9918328046
1100293400.0 0.135378975 -0.9929590083
1105293370.0 0.1291285266 -0.9935870619
1110293340.0 0.122721495 -0.9941510908
1115293310.0 0.1163520344 -0.9950411434
1120293280.0 0.1100082046 -0.9963391725
1125293250.0 0.1038380972 -0.9966471909
1130293220.0 0.0974550958 -0.9973033716
1135293190.0 0.0910149125 -0.9973953849
1140293160.0 0.0842458391 -0.9983764604
1145293130.0 0.0771586164 -0.9991412133
1150293100.0 0.0704044886 -0.9996669922
1155293070.0 0.0639430162 -0.9999882842
1160293040.0 0.0571464752 -1.000199181
1165293010.0 0.050542762 -1.00015786
1170292980.0 0.0442483262 -1.000982066
1175292950.0 0.0378348055 -1.000993137
1180292920.0 0.0314203894 -1.001261203
1185292890.0 0.024881071 -1.001483273
1190292860.0 0.0189518224 -1.001159959
1195292830.0 0.0125727453 -1.001491613
1200292800.0 0.0062691808 -1.001715248
1205292770.0 -5.48029e-05 -1.002156137
1210292740.0 -0.0065817238 -1.001999687
1215292710.0 -0.0130477836 -1.002127478
1220292680.0 -0.0195333628 -1.001821467
1225292650.0 -0.0264585582 -1.00106141
1230292620.0 -0.0327183212 -1.001614897
1235292590.0 -0.0396505932 -1.000500654
1240292560.0 -0.0456363844 -1.000330949
1245292530.0 -0.052690279 -0.9999251022
1250292500.0 -0.0587169578 -0.9995741625
1255292470.0 -0.0651476893 -0.9996921168
1260292440.0 -0.0718203567 -0.9991826537
1265292410.0 -0.0781612987 -0.998614132
1270292380.0 -0.0843198213 -0.9979185283
1275292350.0 -0.0910903678 -0.9972298002
1280292320.0 -0.09794818 -0.9964903964
1285292290.0 -0.1044848214 -0.9954933692
1290292260.0 -0.110302817 -0.99561143
1295292230.0 -0.117344071 -0.9941603781
1300292200.0 -0.1238207496 -0.9932225253
1305292170.0 -0.1295055392 -0.9926118118
1310292140.0 -0.1363472488 -0.9919541642
1315292110.0 -0.142923942 -0.9904680407
1320292080.0 -0.1490993561 -0.9902869373
1325292050.0 -0.1554838363 -0.989010115
1330292020.0 -0.1620942864 -0.9875202517
1335291990.0 -0.1691703124 -0.9864183206
1340291960.0 -0.1758176389 -0.9852071828
1345291930.0 -0.1825510545 -0.9841075212
1350291900.0 -0.1883494894 -0.9831594404
1355291870.0 -0.1950929123 -0.981086638
1360291840.0 -0.2007615652 -0.9800389589
1365291810.0 -0.2067886 -0.9789554915
1370291780.0 -0.2135103661 -0.9777210014
1375291750.0 -0.2194735725 -0.9762298187
1380291720.0 -0.2256085491 -0.974247223
1385291690.0 -0.232174794 -0.9732300326
1390291660.0 -0.2388374463 -0.9713639688
1395291630.0 -0.2450893707 -0.969939988
1400291600.0 -0.251813928 -0.9683675763
1405291570.0 -0.2584669666 -0.9671718137
1410291540.0 -0.2643363923 -0.9648597608
1415291510.0 -0.2698557326 -0.9632801291
1420291480.0 -0.2760960832 -0.9614486266
1425291450.0 -0.2825234561 -0.9595030223
1430291420.0 -0.2883636802 -0.9577785769
1435291390.0 -0.2950073998 -0.9562095609
1440291360.0 -0.3009909322 -0.9535679223
1445291330.0 -0.3068918926 -0.9517534622
1450291300.0 -0.3126045297 -0.9503936522
1455291270.0 -0.3189367226 -0.947979917
1460291240.0 -0.3253545533 -0.9452396992
1465291210.0 -0.3313948857 -0.9437290002
1470291180.0 -0.3375953414 -0.9419337201
1475291150.0 -0.3438661214 -0.9384534194
1480291120.0 -0.3496173809 -0.9365056893
1485291090.0 -0.3556674836 -0.934279729
1490291060.0 -0.3617330022 -0.9319055866
1495291030.0 -0.3680728065 -0.9295820304
1500291000.0 -0.3737617395 -0.9273281749
1505290970.0 -0.3794302793 -0.9247987984
1510290940.0 -0.3857061629 -0.9224854351
1515290910.0 -0.3914157927 -0.9194787931
1520290880.0 -0.3973843949 -0.9170868536
1525290850.0 -0.4034283567 -0.9143945395
1530290820.0 -0.4089952276 -0.9112993156
1535290790.0 -0.415584389 -0.9090769798
1540290760.0 -0.4209714708 -0.9063871575
1545290730.0 -0.4276318717 -0.903424894
1550290700.0 -0.4332158821 -0.9009219413
1555290670.0 -0.4389018823 -0.8976831784
1560290640.0 -0.4442503595 -0.895151917
1565290610.0 -0.450470897 -0.8923433538
1570290580.0 -0.4561644817 -0.8894705219
1575290550.0 -0.461723944 -0.8862968334
1580290520.0 -0.4675882803 -0.8833396381
1585290490.0 -0.4733985755 -0.8793959799
1590290460.0 -0.4793657947 -0.8767829073
1595290430.0 -0.4848689305 -0.8736452671
1600290400.0 -0.4904130214 -0.8707352383
1605290370.0 -0.4959855642 -0.8670198746
1610290340.0 -0.5015696328 -0.8640273682
1615290310.0 -0.5070814301 -0.8608114501
1620290280.0 -0.512320267 -0.8573468103
1625290250.0 -0.5177791526 -0.8538073534
1630290220.0 -0.5237495022 -0.8503088672
1635290190.0 -0.5287633323 -0.8470883618
1640290160.0 -0.5341456459 -0.8439519904
1645290130.0 -0.5395560877 -0.8405579084
1650290100.0 -0.5452204518 -0.8367827818
1655290070.0 -0.5505697351 -0.8326766436
1660290040.0 -0.555718775 -0.8295198167
1665290010.0 -0.5610423283 -0.8260273793
1670289980.0 -0.5658602976 -0.8223669048
1675289950.0 -0.5714813912 -0.818398657
1680289920.0 -0.5768026674 -0.8148880159
1685289890.0 -0.5826503358 -0.8110236597
1690289860.0 -0.5874160564 -0.8063053861
1695289830.0 -0.5934726982 -0.8024692306
1700289800.0 -0.5977651139 -0.7987351128
1705289770.0 -0.6030904085 -0.7947718951
1710289740.0 -0.6085671972 -0.7912136778
1715289710.0 -0.6138088718 -0.7872191314
1720289680.0 -0.6188319969 -0.7829517436
1725289650.0 -0.6239996014 -0.7787324052
1730289620.0 -0.6285483714 -0.7747574458
1735289590.0 -0.6335175916 -0.7711979644
1740289560.0 -0.6382658095 -0.7669404128
1745289530.0 -0.6432700053 -0.7622979012
1750289500.0 -0.6480667528 -0.7583234366
1755289470.0 -0.6527766424 -0.7543025861
1760289440.0 -0.6580528764 -0.7500682497
1765289410.0 -0.6620558447 -0.7453399151
1770289380.0 -0.666597241 -0.7415385872
1775289350.0 -0.6717775726 -0.736912893
1780289320.0 -0.6765172438 -0.732240926
1785289290.0 -0.6818023467 -0.7286134241
1790289260.0 -0.6863917719 -0.7234508472
1795289230.0 -0.691372631 -0.7193294243
1800289200.0 -0.6954761878 -0.7141535665
1805289170.0 -0.7004539819 -0.7094575724
1810289140.0 -0.7047186952 -0.7054262037
1815289110.0 -0.7095775577 -0.7007296676
1820289080.0 -0.7133780702 -0.6961149326
1825289050.0 -0.7176073994 -0.6920493558
1830289020.0 -0.7217723599 -0.6873127597
1835288990.0 -0.7258201228 -0.6827746586
1840288960.0 -0.7302599352 -0.6778238781
1845288930.0 -0.734289884 -0.6732004979
1850288900.0 -0.7398583794 -0.6682726886
1855288870.0 -0.7439668485 -0.6634390532
1860288840.0 -0.7482586151 -0.6581978584
1865288810.0 -0.7527404337 -0.6529299286
1870288780.0 -0.7566654196 -0.6485291933
1875288750.0 -0.7606275299 -0.6430246416
1880288720.0 -0.7647787753 -0.6380409253
1885288690.0 -0.7693111522 -0.6326563738
1890288660.0 -0.7739564477 -0.6278014197
1895288630.0 -0.7770201797 -0.623113897
1900288600.0 -0.7809379914 -0.6180370183
1905288570.0 -0.7846578946 -0.6130809335
1910288540.0 -0.7890546414 -0.6074250125
1915288510.0 -0.7925256343 -0.6021605348
1920288480.0 -0.7969711405 -0.5968444806
1925288450.0 -0.8008469324 -0.5919528241
1930288420.0 -0.8044929636 -0.586805495
1935288390.0 -0.8082334482 -0.5816705129
1940288360.0 -0.8119068009 -0.5759346368
1945288330.0 -0.8160148194 -0.5707961139
1950288300.0 -0.8195121363 -0.5649460846
1955288270.0 -0.8229225041 -0.5598449227
1960288240.0 -0.826887503 -0.55408798
1965288210.0 -0.8301582514 -0.5485340616
1970288180.0 -0.8339544138 -0.5430195637
1975288150.0 -0.8368751978 -0.5373323518
1980288120.0 -0.8403531253 -0.5324207413
1985288090.0 -0.843991792 -0.5273423799
1990288060.0 -0.8470232101 -0.521958697
1995288030.0 -0.8502275841 -0.5164619262
2000288000.0 -0.8529608372 -0.5111738219
2005287970.0 -0.8567834717 -0.5054881332
2010287940.0 -0.8596706468 -0.5000338229
2015287910.0 -0.8628699599 -0.4946773941
2020287880.0 -0.8660565579 -0.4888025123
2025287850.0 -0.8692423122 -0.4827074441
2030287820.0 -0.8724354586 -0.477022734
2035287790.0 -0.8751480803 -0.4716326466
2040287760.0 -0.8781878054 -0.4660746647
2045287730.0 -0.8818550831 -0.4603436546
2050287700.0 -0.8846450387 -0.4541609847
2055287670.0 -0.8874626658 -0.4480154591
2060287640.0 -0.8904413337 -0.4428995258
2065287610.0 -0.8931798289 -0.4362136379
2070287580.0 -0.8955938095 -0.4313733817
2075287550.0 -0.8985071654 -0.42516609
2080287520.0 -0.9008720434 -0.4196693822
2085287490.0 -0.9039083218 -0.4131447711
2090287460.0 -0.9066310819 -0.4079062972
2095287430.0 -0.9089577521 -0.4016632059
2100287400.0 -0.9109819806 -0.3959066737
2105287370.0 -0.9138997358 -0.3894687306
2110287340.0 -0.9166565004 -0.3832619373
2115287310.0 -0.9193882322 -0.3777280027
2120287280.0 -0.9212391502 -0.3712696469
2125287250.0 -0.9241067395 -0.3658589497
2130287220.0 -0.9258637469 -0.359634849
2135287190.0 -0.9280781688 -0.353619492
2140287160.0 -0.9304117931 -0.3468780475
2145287130.0 -0.9327951926 -0.3407221999
2150287100.0 -0.934931093 -0.3345700928
2155287070.0 -0.9368295117 -0.3287341241
2160287040.0 -0.9389294149 -0.3234550012
2165287010.0 -0.9410543656 -0.3171961011
2170286980.0 -0.9431895334 -0.3108354643
2175286950.0 -0.9449793674 -0.3051880714
2180286920.0 -0.9461138319 -0.2986454555
2185286890.0 -0.9479499081 -0.292752324
2190286860.0 -0.9501974236 -0.2867760389
2195286830.0 -0.9518692534 -0.2810283743
2200286800.0 -0.9537308422 -0.274757169
2205286770.0 -0.9551350902 -0.2684206155
2210286740.0 -0.9569633799 -0.2626473854
2215286710.0 -0.9587092291 -0.2565408568
2220286680.0 -0.9600593837 -0.2501646019
2225286650.0 -0.9619268128 -0.2431873373
2230286620.0 -0.963515366 -0.2369551958
2235286590.0 -0.9651857049 -0.2303972594
2240286560.0 -0.9667830324 -0.2247274466
2245286530.0 -0.9681087058 -0.2180995205
2250286500.0 -0.9690983028 -0.2117410217
2255286470.0 -0.9706805168 -0.2047482885
2260286440.0 -0.9723221725 -0.1985717484
2265286410.0 -0.9729730886 -0.1923039026
2270286380.0 -0.9748739194 -0.1857294818
2275286350.0 -0.9756340014 -0.1794057936
2280286320.0 -0.9769406565 -0.1728016544
2285286290.0 -0.9779749044 -0.1662321164
2290286260.0 -0.9787835881 -0.1602057579
2295286230.0 -0.9797236188 -0.1540401369
2300286200.0 -0.9808669813 -0.1475094954
2305286170.0 -0.981590966 -0.1411065331
2310286140.0 -0.9822108624 -0.134322607
2315286110.0 -0.9833283064 -0.1282450323
2320286080.0 -0.9839003417 -0.1213390624
2325286050.0 -0.9848538999 -0.1149297878
2330286020.0 -0.986129924 -0.1093098537
2335285990.0 -0.9860676452 -0.1028489376
2340285960.0 -0.9868030531 -0.0960021344
2345285930.0 -0.9874360616 -0.0898388175
2350285900.0 -0.9880398053 -0.0836455773
2355285870.0 -0.9881028633 -0.0773870749
2360285840.0 -0.9889312811 -0.0703301711
2365285810.0 -0.9892750662 -0.0635716425
2370285780.0 -0.9894841722 -0.0576655174
2375285750.0 -0.9896955634 -0.0515038067
2380285720.0 -0.9902724742 -0.0451192945
2385285690.0 -0.9903326025 -0.0390330352
2390285660.0 -0.9902504288 -0.032119551
2395285630.0 -0.9903036203 -0.0256002173
2400285600.0 -0.9903718142 -0.0193075411
2405285570.0 -0.9906789986 -0.0135067147
2410285540.0 -0.9907442288 -0.0069596426
2415285510.0 -0.9903933831 -0.00050176
2420285480.0 -0.9910044812 0.0051916008
2425285450.0 -0.9909627522 0.0121911564
2430285420.0 -0.9903413567 0.0188538434
2435285390.0 -0.9904244814 0.0252279279
2440285360.0 -0.9894905019 0.0307063953
2445285330.0 -0.9894040339 0.0377987607
2450285300.0 -0.9891596158 0.0448475857
2455285270.0 -0.9890941939 0.051157914
2460285240.0 -0.988514696 0.0574759609
2465285210.0 -0.9884664686 0.0637033063
2470285180.0 -0.9876587694 0.0698647455
2475285150.0 -0.9873908205 0.0768375357
2480285120.0 -0.9867242444 0.0834750645
2485285090.0 -0.9856885601 0.0897991476
2490285060.0 -0.98556142 0.0965666178
2495285030.0 -0.9847042153 0.1024184883
2500285000.0 -0.9835664328 0.1092131644
