!Created with skrf (http://scikit-rf.org).
# Hz S RI R 50.0 
!freq ReS11 ImS11
45000000.0 -0.08184814453125 -0.092681884765625
49995500.0 -0.10243988037109375 -0.08837127685546875
54991000.0 -0.12296295166015625 -0.08014297485351562
59986500.0 -0.141448974609375 -0.077606201171875
64982000.0 -0.15990447998046875 -0.0684356689453125
69977500.0 -0.178314208984375 -0.0537567138671875
74973000.0 -0.195465087890625 -0.03597259521484375
79968500.0 -0.21082305908203125 -0.01506805419921875
84964000.0 -0.2240447998046875 0.008941650390625
89959500.0 -0.23465728759765625 0.03603363037109375
94955000.0 -0.24117279052734375 0.06565093994140625
99950500.0 -0.24394989013671875 0.09784698486328125
104946000.0 -0.24205780029296875 0.13177490234375
109941500.0 -0.23557281494140625 0.166351318359375
114937000.0 -0.2236328125 0.201507568359375
119932500.0 -0.20676422119140625 0.2360076904296875
124928000.0 -0.184600830078125 0.2694854736328125
129923500.0 -0.1568603515625 0.3006134033203125
134919000.0 -0.124267578125 0.328765869140625
139914500.0 -0.0868377685546875 0.353424072265625
144910000.0 -0.045166015625 0.373687744140625
149905500.0 -0.0001983642578125 0.3884429931640625
154901000.0 0.0477294921875 0.397735595703125
159896500.0 0.09716796875 0.400482177734375
164892000.0 0.1481170654296875 0.3971405029296875
169887500.0 0.199188232421875 0.387054443359375
174883000.0 0.2494659423828125 0.3703765869140625
179878500.0 0.298675537109375 0.3474273681640625
184874000.0 0.3453369140625 0.3177337646484375
189869500.0 0.3892974853515625 0.2819366455078125
194865000.0 0.4296112060546875 0.240875244140625
199860500.0 0.4652862548828125 0.194366455078125
204856000.0 0.4952850341796875 0.1423187255859375
209851500.0 0.520050048828125 0.086181640625
214847000.0 0.538726806640625 0.026397705078125
219842500.0 0.5504150390625 -0.0367431640625
224838000.0 0.554473876953125 -0.102294921875
229833500.0 0.550994873046875 -0.16949462890625
234829000.0 0.539093017578125 -0.237030029296875
239824500.0 0.518829345703125 -0.304168701171875
244820000.0 0.4897613525390625 -0.370208740234375
249815500.0 0.451904296875 -0.4332122802734375
254811000.0 0.429840087890625 -0.47955322265625
259806500.0 0.379608154296875 -0.53631591796875
264802000.0 0.321044921875 -0.587493896484375
269797500.0 0.255340576171875 -0.631866455078125
274793000.0 0.183502197265625 -0.668548583984375
279788500.0 0.10675048828125 -0.695892333984375
284784000.0 0.026153564453125 -0.71435546875
289779500.0 -0.057098388671875 -0.723052978515625
294775000.0 -0.141754150390625 -0.7216796875
299770500.0 -0.22637939453125 -0.710113525390625
304766000.0 -0.309967041015625 -0.688568115234375
309761500.0 -0.390716552734375 -0.656982421875
314757000.0 -0.468231201171875 -0.615631103515625
319752500.0 -0.5406494140625 -0.56512451171875
324748000.0 -0.608001708984375 -0.506744384765625
329743500.0 -0.669219970703125 -0.440582275390625
334739000.0 -0.723602294921875 -0.3671875
339734500.0 -0.77020263671875 -0.287322998046875
344730000.0 -0.807769775390625 -0.20184326171875
349725500.0 -0.836456298828125 -0.111297607421875
354721000.0 -0.855560302734375 -0.016998291015625
359716500.0 -0.8638916015625 0.080841064453125
364712000.0 -0.86114501953125 0.180908203125
369707500.0 -0.84674072265625 0.28204345703125
374703000.0 -0.820343017578125 0.38330078125
379698500.0 -0.781097412109375 0.48260498046875
384694000.0 -0.7296142578125 0.578338623046875
389689500.0 -0.665252685546875 0.668701171875
394685000.0 -0.588897705078125 0.752197265625
399680500.0 -0.501678466796875 0.826019287109375
404676000.0 -0.404296875 0.889678955078125
409671500.0 -0.298919677734375 0.941650390625
414667000.0 -0.1871337890625 0.9791259765625
419662500.0 -0.06982421875 1.002197265625
424658000.0 0.050048828125 1.0107421875
429653500.0 0.1707763671875 1.0032958984375
434649000.0 0.2900390625 0.97991943359375
439644500.0 0.403076171875 0.942626953125
444640000.0 0.5103759765625 0.892974853515625
449635500.0 0.6107177734375 0.8331298828125
454631000.0 0.704620361328125 0.762908935546875
459626500.0 0.790618896484375 0.681793212890625
464622000.0 0.86676025390625 0.591522216796875
469617500.0 0.932098388671875 0.4935302734375
474613000.0 0.98681640625 0.3897705078125
479608500.0 1.031005859375 0.28070068359375
484604000.0 1.06396484375 0.16656494140625
489599500.0 1.08551025390625 0.04876708984375
494595000.0 1.09490966796875 -0.07183837890625
499590500.0 1.09185791015625 -0.194580078125
504586000.0 1.0760498046875 -0.31854248046875
509581500.0 1.046142578125 -0.44244384765625
514577000.0 1.0018310546875 -0.56494140625
519572500.0 0.94232177734375 -0.6845703125
524568000.0 0.86724853515625 -0.79913330078125
529563500.0 0.776947021484375 -0.905975341796875
534559000.0 0.671630859375 -1.00250244140625
539554500.0 0.55303955078125 -1.08575439453125
544550000.0 0.42340087890625 -1.15374755859375
549545500.0 0.28436279296875 -1.204833984375
554541000.0 0.14013671875 -1.2379150390625
559536500.0 -0.00811767578125 -1.25213623046875
564532000.0 -0.157470703125 -1.24847412109375
569527500.0 -0.30523681640625 -1.22607421875
574523000.0 -0.4488525390625 -1.18505859375
579518500.0 -0.58587646484375 -1.12689208984375
584514000.0 -0.71417236328125 -1.052734375
589509500.0 -0.831878662109375 -0.96429443359375
594505000.0 -0.937408447265625 -0.863128662109375
599500500.0 -1.029541015625 -0.751708984375
604496000.0 -1.1083984375 -0.631591796875
609491500.0 -1.1729736328125 -0.50518798828125
614487000.0 -1.2235107421875 -0.37359619140625
619482500.0 -1.26043701171875 -0.23828125
624478000.0 -1.28375244140625 -0.10040283203125
629473500.0 -1.29302978515625 0.0390625
634469000.0 -1.28875732421875 0.17901611328125
639464500.0 -1.2706298828125 0.31903076171875
644460000.0 -1.2386474609375 0.458251953125
649455500.0 -1.1927490234375 0.59564208984375
654451000.0 -1.13189697265625 0.730224609375
659446500.0 -1.05621337890625 0.8607177734375
664442000.0 -0.9647216796875 0.9857177734375
669437500.0 -0.8577880859375 1.10302734375
674433000.0 -0.734130859375 1.20977783203125
679428500.0 -0.595458984375 1.3035888671875
684424000.0 -0.44281005859375 1.3818359375
689419500.0 -0.27716064453125 1.44122314453125
694415000.0 -0.1016845703125 1.47845458984375
699410500.0 0.08056640625 1.49267578125
704406000.0 0.26458740234375 1.4814453125
709401500.0 0.44683837890625 1.44512939453125
714397000.0 0.62310791015625 1.38287353515625
719392500.0 0.7896728515625 1.2979736328125
724388000.0 0.94158935546875 1.19207763671875
729383500.0 1.0770263671875 1.06817626953125
734379000.0 1.1923828125 0.92822265625
739374500.0 1.28887939453125 0.7783203125
744370000.0 1.363525390625 0.619140625
749365500.0 1.41864013671875 0.45635986328125
754361000.0 1.4544677734375 0.2918701171875
759356500.0 1.471435546875 0.126953125
764352000.0 1.470947265625 -0.0360107421875
769347500.0 1.4541015625 -0.195068359375
774343000.0 1.42193603515625 -0.350830078125
779338500.0 1.374755859375 -0.5010986328125
784334000.0 1.31512451171875 -0.6455078125
789329500.0 1.241455078125 -0.78387451171875
794325000.0 1.15509033203125 -0.91522216796875
799320500.0 1.05572509765625 -1.037841796875
804316000.0 0.9437255859375 -1.152587890625
809311500.0 0.8192138671875 -1.2568359375
814307000.0 0.6826171875 -1.349853515625
819302500.0 0.5341796875 -1.42950439453125
824298000.0 0.37451171875 -1.49298095703125
829293500.0 0.20611572265625 -1.54052734375
834289000.0 0.02838134765625 -1.56646728515625
839284500.0 -0.15460205078125 -1.57342529296875
844280000.0 -0.274169921875 -1.58905029296875
849275500.0 -0.4615478515625 -1.5565185546875
854271000.0 -0.646240234375 -1.49920654296875
859266500.0 -0.82275390625 -1.41827392578125
864262000.0 -0.98760986328125 -1.31390380859375
869257500.0 -1.13775634765625 -1.18939208984375
874253000.0 -1.2696533203125 -1.04681396484375
879248500.0 -1.38201904296875 -0.89044189453125
884244000.0 -1.4735107421875 -0.722412109375
889239500.0 -1.54302978515625 -0.546630859375
894235000.0 -1.59051513671875 -0.36651611328125
899230500.0 -1.61712646484375 -0.18475341796875
904226000.0 -1.62359619140625 -0.0023193359375
909221500.0 -1.60992431640625 0.17822265625
914217000.0 -1.57623291015625 0.35430908203125
919212500.0 -1.52471923828125 0.52423095703125
924208000.0 -1.4564208984375 0.68536376953125
929203500.0 -1.37298583984375 0.83721923828125
934199000.0 -1.27642822265625 0.98028564453125
939194500.0 -1.1669921875 1.11224365234375
944190000.0 -1.04510498046875 1.234130859375
949185500.0 -0.91162109375 1.34429931640625
954181000.0 -0.76654052734375 1.4427490234375
959176500.0 -0.60968017578125 1.52728271484375
964172000.0 -0.44317626953125 1.59637451171875
969167500.0 -0.26611328125 1.64862060546875
974163000.0 -0.08087158203125 1.6827392578125
979158500.0 0.11163330078125 1.69525146484375
984154000.0 0.30755615234375 1.68487548828125
989149500.0 0.5047607421875 1.65032958984375
994145000.0 0.69940185546875 1.5904541015625
999140500.0 0.88800048828125 1.505126953125
1004136000.0 1.0654296875 1.39599609375
1009131500.0 1.22882080078125 1.2620849609375
1014127000.0 1.37384033203125 1.1077880859375
1019122500.0 1.496826171875 0.935791015625
1024118000.0 1.5953369140625 0.75048828125
1029113500.0 1.66961669921875 0.554443359375
1034109000.0 1.71722412109375 0.35302734375
1039104500.0 1.73980712890625 0.1497802734375
1044100000.0 1.73724365234375 -0.0521240234375
1049095500.0 1.7115478515625 -0.2491455078125
1054091000.0 1.664794921875 -0.4385986328125
1059086500.0 1.597900390625 -0.61932373046875
1064082000.0 1.5130615234375 -0.78875732421875
1069077500.0 1.412841796875 -0.947265625
1074073000.0 1.297607421875 -1.09246826171875
1079068500.0 1.16973876953125 -1.225341796875
1084064000.0 1.02978515625 -1.3441162109375
1089059500.0 0.87921142578125 -1.4482421875
1094055000.0 0.7183837890625 -1.5382080078125
1099050500.0 0.54864501953125 -1.61114501953125
1104046000.0 0.37103271484375 -1.66717529296875
1109041500.0 0.186279296875 -1.70526123046875
1114037000.0 -0.0037841796875 -1.723388671875
1119032500.0 -0.1976318359375 -1.72113037109375
1124028000.0 -0.39263916015625 -1.69671630859375
1129023500.0 -0.58642578125 -1.64959716796875
1134019000.0 -0.7764892578125 -1.5791015625
1139014500.0 -0.959228515625 -1.4847412109375
1144010000.0 -1.13018798828125 -1.36749267578125
1149005500.0 -1.2869873046875 -1.22833251953125
1154001000.0 -1.4263916015625 -1.0699462890625
1158996500.0 -1.5439453125 -0.89300537109375
1163992000.0 -1.6385498046875 -0.70318603515625
1168987500.0 -1.70782470703125 -0.5023193359375
1173983000.0 -1.75006103515625 -0.295654296875
1178978500.0 -1.765869140625 -0.08673095703125
1183974000.0 -1.75537109375 0.1202392578125
1188969500.0 -1.72027587890625 0.32220458984375
1193965000.0 -1.6612548828125 0.51556396484375
1198960500.0 -1.58154296875 0.6981201171875
1203956000.0 -1.48260498046875 0.86688232421875
1208951500.0 -1.3665771484375 1.02093505859375
1213947000.0 -1.236328125 1.1593017578125
1218942500.0 -1.09454345703125 1.28106689453125
1223938000.0 -0.94232177734375 1.3848876953125
1228933500.0 -0.78167724609375 1.47235107421875
1233929000.0 -0.61602783203125 1.54107666015625
1238924500.0 -0.44439697265625 1.59344482421875
1243920000.0 -0.26983642578125 1.626708984375
1248915500.0 -0.09344482421875 1.64434814453125
1253911000.0 0.08319091796875 1.643310546875
1258906500.0 0.25921630859375 1.62432861328125
1263902000.0 0.4349365234375 1.589111328125
1268897500.0 0.6024169921875 1.534423828125
1273893000.0 0.7657470703125 1.46240234375
1278888500.0 0.92218017578125 1.373046875
1283884000.0 1.0689697265625 1.26702880859375
1288879500.0 1.204833984375 1.144775390625
1293875000.0 1.3270263671875 1.00726318359375
1298870500.0 1.43438720703125 0.8560791015625
1303866000.0 1.52471923828125 0.69207763671875
1308861500.0 1.5955810546875 0.51849365234375
1313857000.0 1.6473388671875 0.3367919921875
1318852500.0 1.67779541015625 0.1492919921875
1323848000.0 1.68621826171875 -0.041259765625
1328843500.0 1.6734619140625 -0.23211669921875
1333839000.0 1.637939453125 -0.4205322265625
1338834500.0 1.5814208984375 -0.60540771484375
1343830000.0 1.50396728515625 -0.78057861328125
1348825500.0 1.406005859375 -0.9476318359375
1353821000.0 1.28936767578125 -1.1021728515625
1358816500.0 1.1553955078125 -1.24273681640625
1363812000.0 1.005859375 -1.36663818359375
1368807500.0 0.842529296875 -1.47216796875
1373803000.0 0.66827392578125 -1.557373046875
1378798500.0 0.48565673828125 -1.62139892578125
1383794000.0 0.29620361328125 -1.6640625
1388789500.0 0.10382080078125 -1.68377685546875
1393785000.0 -0.0888671875 -1.68017578125
1398780500.0 -0.27825927734375 -1.654296875
1403776000.0 -0.46307373046875 -1.60675048828125
1408771500.0 -0.63909912109375 -1.53875732421875
1413767000.0 -0.80462646484375 -1.451171875
1418762500.0 -0.9576416015625 -1.34637451171875
1423758000.0 -1.09722900390625 -1.22625732421875
1428753500.0 -1.22064208984375 -1.093505859375
1433749000.0 -1.32818603515625 -0.94915771484375
1438744500.0 -1.4188232421875 -0.795654296875
1443740000.0 -1.49249267578125 -0.6343994140625
1448735500.0 -1.5482177734375 -0.46844482421875
1453731000.0 -1.58685302734375 -0.2982177734375
1458726500.0 -1.6082763671875 -0.12506103515625
1463722000.0 -1.61236572265625 0.048828125
1468717500.0 -1.59881591796875 0.22259521484375
1473713000.0 -1.5675048828125 0.394775390625
1478708500.0 -1.51885986328125 0.5633544921875
1483704000.0 -1.4527587890625 0.728271484375
1488699500.0 -1.36834716796875 0.88665771484375
1493695000.0 -1.2674560546875 1.0364990234375
1498690500.0 -1.14837646484375 1.17681884765625
1503686000.0 -1.0128173828125 1.3040771484375
1508681500.0 -0.8616943359375 1.41680908203125
1513677000.0 -0.69549560546875 1.5118408203125
1518672500.0 -0.51739501953125 1.58758544921875
1523668000.0 -0.328857421875 1.64117431640625
1528663500.0 -0.13421630859375 1.67041015625
1533659000.0 0.0645751953125 1.67425537109375
1538654500.0 0.26177978515625 1.65283203125
1543650000.0 0.45452880859375 1.6064453125
1548645500.0 0.6375732421875 1.53515625
1553641000.0 0.80908203125 1.44146728515625
1558636500.0 0.966064453125 1.3291015625
1563632000.0 1.104248046875 1.19970703125
1568627500.0 1.22406005859375 1.05682373046875
1573623000.0 1.3238525390625 0.9039306640625
1578618500.0 1.40411376953125 0.7435302734375
1583614000.0 1.464111328125 0.57879638671875
1588609500.0 1.505615234375 0.41217041015625
1593605000.0 1.52880859375 0.2451171875
1598600500.0 1.53472900390625 0.0794677734375
1603596000.0 1.5247802734375 -0.083251953125
1608591500.0 1.498779296875 -0.24188232421875
1613587000.0 1.4588623046875 -0.39605712890625
1618582500.0 1.405029296875 -0.5445556640625
1623578000.0 1.33770751953125 -0.68670654296875
1628573500.0 1.25732421875 -0.8221435546875
1633569000.0 1.16424560546875 -0.94940185546875
1638564500.0 1.058837890625 -1.06787109375
1643560000.0 0.94134521484375 -1.1767578125
1648555500.0 0.81219482421875 -1.27423095703125
1653551000.0 0.67120361328125 -1.35858154296875
1658546500.0 0.5205078125 -1.4290771484375
1663542000.0 0.36090087890625 -1.48260498046875
1668537500.0 0.1942138671875 -1.51800537109375
1673533000.0 0.02227783203125 -1.5340576171875
1678528500.0 -0.15179443359375 -1.52838134765625
1683524000.0 -0.324951171875 -1.50201416015625
1688519500.0 -0.4947509765625 -1.4539794921875
1693515000.0 -0.65753173828125 -1.38482666015625
1698510500.0 -0.80841064453125 -1.29705810546875
1703506000.0 -0.9461669921875 -1.19232177734375
1708501500.0 -1.0692138671875 -1.07196044921875
1713497000.0 -1.17529296875 -0.94012451171875
1718492500.0 -1.263671875 -0.79852294921875
1723488000.0 -1.3341064453125 -0.651123046875
1728483500.0 -1.38702392578125 -0.4996337890625
1733479000.0 -1.423095703125 -0.34649658203125
1738474500.0 -1.44305419921875 -0.19293212890625
1743470000.0 -1.44757080078125 -0.0408935546875
1748465500.0 -1.43817138671875 0.10870361328125
1753461000.0 -1.415283203125 0.25537109375
1758456500.0 -1.37939453125 0.3985595703125
1763452000.0 -1.33135986328125 0.53765869140625
1768447500.0 -1.27105712890625 0.6724853515625
1773443000.0 -1.198486328125 0.8013916015625
1778438500.0 -1.113525390625 0.9251708984375
1783434000.0 -1.015869140625 1.04193115234375
1788429500.0 -0.90570068359375 1.150390625
1793425000.0 -0.782958984375 1.24908447265625
1798420500.0 -0.6468505859375 1.33642578125
1803416000.0 -0.49932861328125 1.4095458984375
1808411500.0 -0.3408203125 1.46661376953125
1813407000.0 -0.173583984375 1.50567626953125
1818402500.0 0.00048828125 1.52313232421875
1823398000.0 0.1776123046875 1.51898193359375
1828393500.0 0.35443115234375 1.491943359375
1833389000.0 0.52703857421875 1.44110107421875
1838384500.0 0.692138671875 1.368408203125
1843380000.0 0.8447265625 1.27447509765625
1848375500.0 0.98309326171875 1.162841796875
1853371000.0 1.10467529296875 1.0362548828125
1858366500.0 1.2071533203125 0.8978271484375
1863362000.0 1.29058837890625 0.7509765625
1868357500.0 1.3553466796875 0.598876953125
1873353000.0 1.40142822265625 0.44390869140625
1878348500.0 1.43048095703125 0.288330078125
1883344000.0 1.4427490234375 0.134521484375
1888339500.0 1.44012451171875 -0.01690673828125
1893335000.0 1.4237060546875 -0.165771484375
1898330500.0 1.39434814453125 -0.3096923828125
1903326000.0 1.352294921875 -0.44989013671875
1908321500.0 1.29888916015625 -0.58465576171875
1913317000.0 1.233642578125 -0.71502685546875
1918312500.0 1.15655517578125 -0.83868408203125
1923308000.0 1.0682373046875 -0.95684814453125
1928303500.0 0.968017578125 -1.0682373046875
1933299000.0 0.8555908203125 -1.1705322265625
1938294500.0 0.7318115234375 -1.262939453125
1943290000.0 0.59588623046875 -1.343505859375
1948285500.0 0.4488525390625 -1.41119384765625
1953281000.0 0.292236328125 -1.4627685546875
1958276500.0 0.12744140625 -1.49603271484375
1963272000.0 -0.04327392578125 -1.5098876953125
1968267500.0 -0.21673583984375 -1.501708984375
1973263000.0 -0.3897705078125 -1.472412109375
1978258500.0 -0.55902099609375 -1.42083740234375
1983254000.0 -0.7203369140625 -1.34698486328125
1988249500.0 -0.87109375 -1.25347900390625
1993245000.0 -1.00811767578125 -1.1416015625
1998240500.0 -1.12841796875 -1.0145263671875
2003236000.0 -1.2313232421875 -0.87628173828125
2008231500.0 -1.3150634765625 -0.72845458984375
2013227000.0 -1.3800048828125 -0.5738525390625
2018222500.0 -1.4266357421875 -0.4158935546875
2023218000.0 -1.454833984375 -0.25616455078125
2028213500.0 -1.46722412109375 -0.09735107421875
2033209000.0 -1.46209716796875 0.0596923828125
2038204500.0 -1.4420166015625 0.21368408203125
2043200000.0 -1.4072265625 0.36260986328125
2048195500.0 -1.35845947265625 0.5081787109375
2053191000.0 -1.2965087890625 0.64739990234375
2058186500.0 -1.2213134765625 0.77899169921875
2063182000.0 -1.13323974609375 0.90374755859375
2068177500.0 -1.0333251953125 1.01983642578125
2073173000.0 -0.92144775390625 1.12646484375
2078168500.0 -0.79791259765625 1.2216796875
2083164000.0 -0.66412353515625 1.304443359375
2088159500.0 -0.52056884765625 1.37335205078125
2093155000.0 -0.36846923828125 1.42572021484375
2098150500.0 -0.209716796875 1.4620361328125
2103146000.0 -0.046875 1.47979736328125
2108141500.0 0.11834716796875 1.47845458984375
2113137000.0 0.28253173828125 1.45751953125
2118132500.0 0.4432373046875 1.41668701171875
2123128000.0 0.59844970703125 1.35760498046875
2128123500.0 0.7442626953125 1.2808837890625
2133119000.0 0.87933349609375 1.18792724609375
2138114500.0 1.00238037109375 1.08050537109375
2143110000.0 1.11029052734375 0.96173095703125
2148105500.0 1.20428466796875 0.83282470703125
2153101000.0 1.28277587890625 0.6961669921875
2158096500.0 1.3446044921875 0.553955078125
2163092000.0 1.39178466796875 0.407470703125
2168087500.0 1.42352294921875 0.25848388671875
2173083000.0 1.44134521484375 0.108154296875
2178078500.0 1.44415283203125 -0.04180908203125
2183074000.0 1.432373046875 -0.19158935546875
2188069500.0 1.40728759765625 -0.33880615234375
2193065000.0 1.36822509765625 -0.484375
