!Created with skrf (http://scikit-rf.org).
# Hz S RI R 50.0 
!freq ReS11 ImS11
45000000.0 -0.0038852691650390625 -0.001022934913635254
49995500.0 -0.004202127456665039 -0.0006334781646728516
54991000.0 -0.004426717758178711 -5.626678466796875e-05
59986500.0 -0.004712820053100586 0.0002269744873046875
64982000.0 -0.0049474239349365234 0.0006787776947021484
69977500.0 -0.004963397979736328 0.0011878013610839844
74973000.0 -0.005118131637573242 0.0017802715301513672
79968500.0 -0.004963874816894531 0.002508401870727539
84964000.0 -0.00500178337097168 0.00307464599609375
89959500.0 -0.004703044891357422 0.003727436065673828
94955000.0 -0.004369258880615234 0.004325389862060547
99950500.0 -0.003985881805419922 0.004923582077026367
104946000.0 -0.0033998489379882812 0.0054662227630615234
109941500.0 -0.002956390380859375 0.006097316741943359
114937000.0 -0.002374887466430664 0.00646662712097168
119932500.0 -0.0016055107116699219 0.0067920684814453125
124928000.0 -0.0008873939514160156 0.007235050201416016
129923500.0 -3.7670135498046875e-05 0.007271528244018555
134919000.0 0.0007853507995605469 0.007422924041748047
139914500.0 0.0016236305236816406 0.007410287857055664
144910000.0 0.002509593963623047 0.007321596145629883
149905500.0 0.0034074783325195312 0.007126331329345703
154901000.0 0.004137992858886719 0.006896495819091797
159896500.0 0.005059003829956055 0.006525516510009766
164892000.0 0.005696535110473633 0.005954265594482422
169887500.0 0.006453275680541992 0.005331277847290039
174883000.0 0.007106781005859375 0.004769086837768555
179878500.0 0.007727384567260742 0.00400543212890625
184874000.0 0.00826406478881836 0.0031523704528808594
189869500.0 0.008759021759033203 0.0022406578063964844
194865000.0 0.00891256332397461 0.0012755393981933594
199860500.0 0.009177684783935547 0.0004138946533203125
204856000.0 0.009276866912841797 -0.0006785392761230469
209851500.0 0.009215354919433594 -0.00160980224609375
214847000.0 0.00913238525390625 -0.0027332305908203125
219842500.0 0.008915901184082031 -0.003749370574951172
224838000.0 0.008624076843261719 -0.004717826843261719
229833500.0 0.008182048797607422 -0.005703449249267578
234829000.0 0.007549762725830078 -0.006570339202880859
239824500.0 0.006894826889038086 -0.007447481155395508
244820000.0 0.006081104278564453 -0.008188724517822266
249815500.0 0.0052814483642578125 -0.008812427520751953
254811000.0 0.004782676696777344 -0.009335517883300781
259806500.0 0.003787517547607422 -0.00992441177368164
264802000.0 0.0026865005493164062 -0.010437488555908203
269797500.0 0.0015721321105957031 -0.010827064514160156
274793000.0 0.00045680999755859375 -0.011006832122802734
279788500.0 -0.0005955696105957031 -0.011095523834228516
284784000.0 -0.0017518997192382812 -0.011195659637451172
289779500.0 -0.0028977394104003906 -0.010947227478027344
294775000.0 -0.00421905517578125 -0.010668277740478516
299770500.0 -0.005336761474609375 -0.010322093963623047
304766000.0 -0.006403923034667969 -0.009943962097167969
309761500.0 -0.007549762725830078 -0.009073257446289062
314757000.0 -0.008510112762451172 -0.008292198181152344
319752500.0 -0.009406089782714844 -0.007512569427490234
324748000.0 -0.010237693786621094 -0.0065288543701171875
329743500.0 -0.010975360870361328 -0.005438804626464844
334739000.0 -0.011536121368408203 -0.004214286804199219
339734500.0 -0.012067317962646484 -0.0030570030212402344
344730000.0 -0.012426376342773438 -0.0017752647399902344
349725500.0 -0.01264333724975586 -0.0003662109375
354721000.0 -0.012792587280273438 0.0008392333984375
359716500.0 -0.012625694274902344 0.002250194549560547
364712000.0 -0.012394905090332031 0.0036163330078125
369707500.0 -0.012052536010742188 0.004883766174316406
374703000.0 -0.011527061462402344 0.006132602691650391
379698500.0 -0.010918140411376953 0.007395744323730469
384694000.0 -0.010113239288330078 0.008553504943847656
389689500.0 -0.009247779846191406 0.009719371795654297
394685000.0 -0.008259773254394531 0.01068878173828125
399680500.0 -0.007117271423339844 0.011663436889648438
404676000.0 -0.005822181701660156 0.012347221374511719
409671500.0 -0.004549503326416016 0.012869834899902344
414667000.0 -0.0031185150146484375 0.013417243957519531
419662500.0 -0.0017576217651367188 0.013754844665527344
424658000.0 -0.0003647804260253906 0.013957023620605469
429653500.0 0.0011224746704101562 0.014098167419433594
434649000.0 0.0027074813842773438 0.013863563537597656
439644500.0 0.004183292388916016 0.013584613800048828
444640000.0 0.005591869354248047 0.013188362121582031
449635500.0 0.006907939910888672 0.012525081634521484
454631000.0 0.008185386657714844 0.011837005615234375
459626500.0 0.009407520294189453 0.01102304458618164
464622000.0 0.010663509368896484 0.009967803955078125
469617500.0 0.01163482666015625 0.008792877197265625
474613000.0 0.012572765350341797 0.007596492767333984
479608500.0 0.01344442367553711 0.006237030029296875
484604000.0 0.013994693756103516 0.004922389984130859
489599500.0 0.014449596405029297 0.0033812522888183594
494595000.0 0.014791488647460938 0.0019488334655761719
499590500.0 0.01498270034790039 0.0002994537353515625
504586000.0 0.014986515045166016 -0.0012464523315429688
509581500.0 0.014763832092285156 -0.002910614013671875
514577000.0 0.014472484588623047 -0.004399776458740234
519572500.0 0.013968467712402344 -0.005865573883056641
524568000.0 0.013435840606689453 -0.007287502288818359
529563500.0 0.012643814086914062 -0.00852346420288086
534559000.0 0.011744499206542969 -0.00986480712890625
539554500.0 0.010754108428955078 -0.010986328125
544550000.0 0.009616851806640625 -0.011993408203125
549545500.0 0.008407115936279297 -0.013086795806884766
554541000.0 0.007103443145751953 -0.013812541961669922
559536500.0 0.005852222442626953 -0.01462411880493164
564532000.0 0.004239082336425781 -0.015204906463623047
569527500.0 0.002639293670654297 -0.015621185302734375
574523000.0 0.0011529922485351562 -0.01597309112548828
579518500.0 -0.0005245208740234375 -0.016042709350585938
584514000.0 -0.0021419525146484375 -0.016098976135253906
589509500.0 -0.003765106201171875 -0.0157928466796875
594505000.0 -0.00550079345703125 -0.01546478271484375
599500500.0 -0.0070896148681640625 -0.014903068542480469
604496000.0 -0.0085296630859375 -0.01416635513305664
609491500.0 -0.010045051574707031 -0.013357162475585938
614487000.0 -0.011343002319335938 -0.012275218963623047
619482500.0 -0.012651920318603516 -0.011084556579589844
624478000.0 -0.01380157470703125 -0.009758472442626953
629473500.0 -0.014746665954589844 -0.00837850570678711
634469000.0 -0.015556812286376953 -0.0068206787109375
639464500.0 -0.01633167266845703 -0.005276679992675781
644460000.0 -0.016855239868164062 -0.0035572052001953125
649455500.0 -0.017274856567382812 -0.0018777847290039062
654451000.0 -0.01736927032470703 -0.0002079010009765625
659446500.0 -0.01739788055419922 0.0016279220581054688
664442000.0 -0.01721954345703125 0.0033807754516601562
669437500.0 -0.016880035400390625 0.005068778991699219
674433000.0 -0.01641368865966797 0.006783485412597656
679428500.0 -0.015763282775878906 0.008388519287109375
684424000.0 -0.014889240264892578 0.010115623474121094
689419500.0 -0.013798236846923828 0.011614322662353516
694415000.0 -0.012579917907714844 0.01305246353149414
699410500.0 -0.011278152465820312 0.014237403869628906
704406000.0 -0.00979471206665039 0.01534128189086914
709401500.0 -0.00812530517578125 0.016371726989746094
714397000.0 -0.006519317626953125 0.01720142364501953
719392500.0 -0.004820823669433594 0.017953872680664062
724388000.0 -0.00299072265625 0.018342018127441406
729383500.0 -0.00113677978515625 0.018670082092285156
734379000.0 0.0006265640258789062 0.018652915954589844
739374500.0 0.0025777816772460938 0.018646240234375
744370000.0 0.004530906677246094 0.01838397979736328
749365500.0 0.006333351135253906 0.017905235290527344
754361000.0 0.008138656616210938 0.017221450805664062
759356500.0 0.009820938110351562 0.01648426055908203
764352000.0 0.01155710220336914 0.015456676483154297
769347500.0 0.013022899627685547 0.01427602767944336
774343000.0 0.014444828033447266 0.012891769409179688
779338500.0 0.015745162963867188 0.011454582214355469
784334000.0 0.01685047149658203 0.009930610656738281
789329500.0 0.017935752868652344 0.008248329162597656
794325000.0 0.01873016357421875 0.0063018798828125
799320500.0 0.019336700439453125 0.004464149475097656
804316000.0 0.019715309143066406 0.0025196075439453125
809311500.0 0.020067214965820312 0.0006151199340820312
814307000.0 0.020099639892578125 -0.0015096664428710938
819302500.0 0.019845008850097656 -0.00344085693359375
824298000.0 0.019433021545410156 -0.005425453186035156
829293500.0 0.018927574157714844 -0.0074024200439453125
834289000.0 0.018209457397460938 -0.009182929992675781
839284500.0 0.017290115356445312 -0.011020660400390625
844280000.0 0.01689910888671875 -0.012055397033691406
849275500.0 0.015639305114746094 -0.013823509216308594
854271000.0 0.014279365539550781 -0.015344619750976562
859266500.0 0.012871742248535156 -0.01672077178955078
864262000.0 0.011042594909667969 -0.018003463745117188
869257500.0 0.009392738342285156 -0.01907062530517578
874253000.0 0.007613182067871094 -0.019867897033691406
879248500.0 0.0055065155029296875 -0.020656585693359375
884244000.0 0.0035343170166015625 -0.02117633819580078
889239500.0 0.0013933181762695312 -0.02155303955078125
894235000.0 -0.0007410049438476562 -0.021699905395507812
899230500.0 -0.0027208328247070312 -0.021773338317871094
904226000.0 -0.004993438720703125 -0.02151203155517578
909221500.0 -0.006969451904296875 -0.02101898193359375
914217000.0 -0.009065628051757812 -0.020302772521972656
919212500.0 -0.011213302612304688 -0.01961231231689453
924208000.0 -0.013103485107421875 -0.018380165100097656
929203500.0 -0.015082359313964844 -0.0170135498046875
934199000.0 -0.01677227020263672 -0.015605926513671875
939194500.0 -0.018340110778808594 -0.013922691345214844
944190000.0 -0.019677162170410156 -0.012116432189941406
949185500.0 -0.020900726318359375 -0.010075569152832031
954181000.0 -0.02199268341064453 -0.008011817932128906
959176500.0 -0.022747039794921875 -0.005898475646972656
964172000.0 -0.02338409423828125 -0.0036439895629882812
969167500.0 -0.023778915405273438 -0.00122833251953125
974163000.0 -0.02380657196044922 0.00102996826171875
979158500.0 -0.0238494873046875 0.0034313201904296875
984154000.0 -0.023413658142089844 0.005768775939941406
989149500.0 -0.022674560546875 0.008294105529785156
994145000.0 -0.021945953369140625 0.010382652282714844
999140500.0 -0.020897865295410156 0.012751579284667969
1004136000.0 -0.019539833068847656 0.014842987060546875
1009131500.0 -0.018041610717773438 0.016811370849609375
1014127000.0 -0.016462326049804688 0.01855945587158203
1019122500.0 -0.014519691467285156 0.020139694213867188
1024118000.0 -0.012537002563476562 0.021656036376953125
1029113500.0 -0.010374069213867188 0.022951126098632812
1034109000.0 -0.008055686950683594 0.023834228515625
1039104500.0 -0.005795478820800781 0.024688720703125
1044100000.0 -0.0031404495239257812 0.025205612182617188
1049095500.0 -0.000701904296875 0.025582313537597656
1054091000.0 0.001842498779296875 0.025571823120117188
1059086500.0 0.004445075988769531 0.02542400360107422
1064082000.0 0.007000923156738281 0.024953842163085938
1069077500.0 0.009577751159667969 0.02409648895263672
1074073000.0 0.011873245239257812 0.023215293884277344
1079068500.0 0.014245986938476562 0.021947860717773438
1084064000.0 0.016498565673828125 0.020430564880371094
1089059500.0 0.018590927124023438 0.01869678497314453
1094055000.0 0.020389556884765625 0.016877174377441406
1099050500.0 0.022150039672851562 0.014861106872558594
1104046000.0 0.023572921752929688 0.012701988220214844
1109041500.0 0.024866104125976562 0.010232925415039062
1114037000.0 0.02571392059326172 0.007863998413085938
1119032500.0 0.02646636962890625 0.005103111267089844
1124028000.0 0.02703380584716797 0.00238037109375
1129023500.0 0.02714252471923828 -0.00019073486328125
1134019000.0 0.027105331420898438 -0.0029516220092773438
1139014500.0 0.026714324951171875 -0.005627632141113281
1144010000.0 0.0261383056640625 -0.008375167846679688
1149005500.0 0.025252342224121094 -0.010931968688964844
1154001000.0 0.024115562438964844 -0.013499259948730469
1158996500.0 0.02272796630859375 -0.015931129455566406
1163992000.0 0.020915985107421875 -0.018123626708984375
1168987500.0 0.019182205200195312 -0.02029705047607422
1173983000.0 0.017068862915039062 -0.022130966186523438
1178978500.0 0.014716148376464844 -0.023817062377929688
1183974000.0 0.012311935424804688 -0.0252227783203125
1188969500.0 0.009862899780273438 -0.02635955810546875
1193965000.0 0.0071468353271484375 -0.02723407745361328
1198960500.0 0.004459381103515625 -0.02788066864013672
1203956000.0 0.0015382766723632812 -0.02821826934814453
1208951500.0 -0.0012674331665039062 -0.028347015380859375
1213947000.0 -0.003916740417480469 -0.02814197540283203
1218942500.0 -0.006771087646484375 -0.027685165405273438
1223938000.0 -0.009548187255859375 -0.026900291442871094
1228933500.0 -0.012295722961425781 -0.02581024169921875
1233929000.0 -0.01485443115234375 -0.024456024169921875
1238924500.0 -0.017047882080078125 -0.023032188415527344
1243920000.0 -0.019349098205566406 -0.021264076232910156
1248915500.0 -0.021402359008789062 -0.019222259521484375
1253911000.0 -0.023331642150878906 -0.01711273193359375
1258906500.0 -0.0250091552734375 -0.0147247314453125
1263902000.0 -0.02632617950439453 -0.012307167053222656
1268897500.0 -0.027414321899414062 -0.009599685668945312
1273893000.0 -0.028496742248535156 -0.006880760192871094
1278888500.0 -0.029085159301757812 -0.004189491271972656
1283884000.0 -0.029443740844726562 -0.0011777877807617188
1288879500.0 -0.029623985290527344 0.00165557861328125
1293875000.0 -0.029272079467773438 0.004718780517578125
1298870500.0 -0.02872467041015625 0.0076580047607421875
1303866000.0 -0.028001785278320312 0.010563850402832031
1308861500.0 -0.026848793029785156 0.013385772705078125
1313857000.0 -0.02546215057373047 0.015829086303710938
1318852500.0 -0.02378559112548828 0.01837444305419922
1323848000.0 -0.021986961364746094 0.020641326904296875
1328843500.0 -0.019835472106933594 0.022795677185058594
1333839000.0 -0.0174560546875 0.024971961975097656
1338834500.0 -0.014909744262695312 0.026558876037597656
1343830000.0 -0.012249946594238281 0.02800750732421875
1348825500.0 -0.009296417236328125 0.02914142608642578
1353821000.0 -0.006308555603027344 0.030019760131835938
1358816500.0 -0.0032787322998046875 0.03050708770751953
1363812000.0 -0.00028896331787109375 0.030813217163085938
1368807500.0 0.0027866363525390625 0.03074932098388672
1373803000.0 0.0058441162109375 0.030404090881347656
1378798500.0 0.008909225463867188 0.029758453369140625
1383794000.0 0.0120391845703125 0.028723716735839844
1388789500.0 0.01470184326171875 0.02750110626220703
1393785000.0 0.017439842224121094 0.025979042053222656
1398780500.0 0.02001953125 0.0240631103515625
1403776000.0 0.022377967834472656 0.0219879150390625
1408771500.0 0.02458953857421875 0.01959514617919922
1413767000.0 0.026335716247558594 0.01697540283203125
1418762500.0 0.027904510498046875 0.014353752136230469
1423758000.0 0.029460906982421875 0.011511802673339844
1428753500.0 0.030363082885742188 0.008581161499023438
1433749000.0 0.031019210815429688 0.005463600158691406
1438744500.0 0.03169441223144531 0.0022106170654296875
1443740000.0 0.03162574768066406 -0.0009479522705078125
1448735500.0 0.031463623046875 -0.0041217803955078125
1453731000.0 0.030818939208984375 -0.007343292236328125
1458726500.0 0.030063629150390625 -0.010439872741699219
1463722000.0 0.0289154052734375 -0.013356208801269531
1468717500.0 0.027355194091796875 -0.01616382598876953
1473713000.0 0.02565765380859375 -0.01884746551513672
1478708500.0 0.023639678955078125 -0.021318435668945312
1483704000.0 0.0213623046875 -0.02367115020751953
1488699500.0 0.018876075744628906 -0.02565288543701172
1493695000.0 0.01628875732421875 -0.027385711669921875
1498690500.0 0.013462066650390625 -0.028893470764160156
1503686000.0 0.010418891906738281 -0.030152320861816406
1508681500.0 0.007382392883300781 -0.03107929229736328
1513677000.0 0.0043354034423828125 -0.03160667419433594
1518672500.0 0.001102447509765625 -0.03182792663574219
1523668000.0 -0.002079010009765625 -0.0318145751953125
1528663500.0 -0.0052165985107421875 -0.031520843505859375
1533659000.0 -0.008385658264160156 -0.030626296997070312
1538654500.0 -0.011420249938964844 -0.029720306396484375
1543650000.0 -0.014398574829101562 -0.028364181518554688
1548645500.0 -0.01698017120361328 -0.026815414428710938
1553641000.0 -0.019525527954101562 -0.025014877319335938
1558636500.0 -0.022065162658691406 -0.02288532257080078
1563632000.0 -0.024048805236816406 -0.02059459686279297
1568627500.0 -0.026048660278320312 -0.018105506896972656
1573623000.0 -0.02760791778564453 -0.015384674072265625
1578618500.0 -0.029061317443847656 -0.012543678283691406
1583614000.0 -0.030043601989746094 -0.009587287902832031
1588609500.0 -0.030831336975097656 -0.006500244140625
1593605000.0 -0.031284332275390625 -0.0034160614013671875
1598600500.0 -0.03144645690917969 -0.0002803802490234375
1603596000.0 -0.031139373779296875 0.0026483535766601562
1608591500.0 -0.030742645263671875 0.005825042724609375
1613587000.0 -0.02989959716796875 0.008724212646484375
1618582500.0 -0.028853416442871094 0.011724472045898438
1623578000.0 -0.027609825134277344 0.01433563232421875
1628573500.0 -0.026076316833496094 0.01701831817626953
1633569000.0 -0.02424144744873047 0.019484519958496094
1638564500.0 -0.022195816040039062 0.0217132568359375
1643560000.0 -0.019995689392089844 0.02374553680419922
1648555500.0 -0.01741790771484375 0.025419235229492188
1653551000.0 -0.014941215515136719 0.02711009979248047
1658546500.0 -0.012300491333007812 0.028304100036621094
1663542000.0 -0.009538650512695312 0.02947521209716797
1668537500.0 -0.006539344787597656 0.030157089233398438
1673533000.0 -0.0035066604614257812 0.03073596954345703
1678528500.0 -0.0004329681396484375 0.030767440795898438
1683524000.0 0.0024576187133789062 0.030645370483398438
1688519500.0 0.005343437194824219 0.03039836883544922
1693515000.0 0.008434295654296875 0.029753684997558594
1698510500.0 0.011258125305175781 0.028623580932617188
1703506000.0 0.013978958129882812 0.02746868133544922
1708501500.0 0.0167083740234375 0.025928497314453125
1713497000.0 0.01909923553466797 0.024194717407226562
1718492500.0 0.021330833435058594 0.022119522094726562
1723488000.0 0.023500442504882812 0.02000141143798828
1728483500.0 0.02531909942626953 0.017507553100585938
1733479000.0 0.026857376098632812 0.014925003051757812
1738474500.0 0.028280258178710938 0.012281417846679688
1743470000.0 0.02918529510498047 0.009288787841796875
1748465500.0 0.030012130737304688 0.006430625915527344
1753461000.0 0.030485153198242188 0.0034570693969726562
1758456500.0 0.03059101104736328 0.0005006790161132812
1763452000.0 0.030450820922851562 -0.0025873184204101562
1768447500.0 0.030057907104492188 -0.005496978759765625
1773443000.0 0.02920246124267578 -0.008416175842285156
1778438500.0 0.028263092041015625 -0.011321067810058594
1783434000.0 0.0269317626953125 -0.0140533447265625
1788429500.0 0.02529621124267578 -0.01654052734375
1793425000.0 0.023576736450195312 -0.01888751983642578
1798420500.0 0.021584510803222656 -0.021162986755371094
1803416000.0 0.019330978393554688 -0.023004531860351562
1808411500.0 0.017006874084472656 -0.02481555938720703
1813407000.0 0.014489173889160156 -0.026285171508789062
1818402500.0 0.011808395385742188 -0.027512550354003906
1823398000.0 0.008927345275878906 -0.028383255004882812
1828393500.0 0.006155967712402344 -0.02919483184814453
1833389000.0 0.0032749176025390625 -0.02959442138671875
1838384500.0 0.00037860870361328125 -0.02968120574951172
1843380000.0 -0.0025396347045898438 -0.029496192932128906
1848375500.0 -0.005390167236328125 -0.029081344604492188
