!Created with skrf (http://scikit-rf.org).
# Hz S RI R 50.0 
!freq ReS11 ImS11
300000.0 -0.0063727892 -0.028463642
5299970.0 -0.0003673653 0.0003462055
10299940.0 -0.000112485 -0.0005185106
15299910.0 -8.93159e-05 0.0005871048
20299880.0 -0.0001832248 0.0002387617
25299850.0 9.91439e-05 0.0004679197
30299820.0 0.0001356973 0.0007820568
35299790.0 0.0001834495 0.0003816193
40299760.0 -5.66273e-05 0.0003755303
45299730.0 0.0003999713 0.0004496151
50299700.0 0.000298037 0.0008206213
55299670.0 0.0003698612 0.0007380527
60299640.0 0.0002750904 0.0006419932
65299610.0 0.0004949588 0.0004742186
70299580.0 0.0004504129 0.0002088495
75299550.0 0.0004528089 0.0006931137
80299520.0 0.0004231026 0.0005068328
85299490.0 0.0006751328 0.0006445622
90299460.0 0.0006675252 0.0004516502
95299430.0 0.0003900348 0.000541494
100299400.0 0.0005473482 0.0005593269
105299370.0 0.000823631 0.000690436
110299340.0 0.0005360645 0.0008021517
115299310.0 0.0006901247 0.0008903921
120299280.0 0.0008719927 0.0007382565
125299250.0 0.0010123339 0.0007251558
130299220.0 0.000730307 0.0008157272
135299190.0 0.0007554524 0.0006630017
140299160.0 0.0008896035 0.000821631
145299130.0 0.0008944824 0.0006812519
150299100.0 0.0008967699 0.0006723465
155299070.0 0.0007002947 0.0006940156
160299040.0 0.0008460896 0.0007817741
165299010.0 0.0010924828 0.0007747676
170298980.0 0.0010551035 0.0007866332
175298950.0 0.0012041164 0.0007647278
180298920.0 0.0010051955 0.0009057584
185298890.0 0.0009609773 0.0009784738
190298860.0 0.0010745161 0.0007517634
195298830.0 0.0010759854 0.0007820295
200298800.0 0.0011588145 0.0010600745
205298770.0 0.0011775676 0.0008749007
210298740.0 0.00108093 0.0007726538
215298710.0 0.001270658 0.0008804605
220298680.0 0.0011272517 0.00057751
225298650.0 0.0013043036 0.0009111068
230298620.0 0.0013550958 0.0007436305
235298590.0 0.0015501075 0.0006719493
240298560.0 0.0012826836 0.0009632228
245298530.0 0.0013104095 0.0007271233
250298500.0 0.001212892 0.0005861862
255298470.0 0.0016481476 0.0007629014
260298440.0 0.001429464 0.0007390507
265298410.0 0.0012325464 0.0006810493
270298380.0 0.0012438539 0.0007076017
275298350.0 0.0013369252 0.0006859472
280298320.0 0.0011471126 0.0007719736
285298290.0 0.0015073679 0.0005659418
290298260.0 0.0012855532 0.0006524186
295298230.0 0.0014941268 0.0005518625
300298200.0 0.0014083535 0.0007378895
305298170.0 0.0013942788 0.0005908163
310298140.0 0.0014385345 0.0007425507
315298110.0 0.0014984243 0.0006774561
320298080.0 0.0015378878 0.0005395468
325298050.0 0.0016703288 0.0006329502
330298020.0 0.0015263374 0.0007740411
335297990.0 0.001592088 0.0005413919
340297960.0 0.001588773 0.0007591448
345297930.0 0.0017382835 0.0006029908
350297900.0 0.0018262794 0.0004347907
355297870.0 0.0019101696 0.0005085932
360297840.0 0.0017456278 0.0004173249
365297810.0 0.0016844575 0.0002168467
370297780.0 0.0017245068 0.0003897418
375297750.0 0.001701219 0.0004548131
380297720.0 0.0017524358 0.0005023583
385297690.0 0.0016372833 0.0004573322
390297660.0 0.001544481 0.0005812178
395297630.0 0.0019517815 0.0006303661
400297600.0 0.0019199985 0.00049242
405297570.0 0.0018471145 0.0004204526
410297540.0 0.0018389548 0.0004432837
415297510.0 0.0019647455 0.0003902544
420297480.0 0.0020318087 0.0003023806
425297450.0 0.0018033286 0.0002770362
430297420.0 0.0020809639 0.0005573741
435297390.0 0.0019195528 0.0004096667
440297360.0 0.0020678633 0.0003380725
445297330.0 0.0019671945 0.0002713331
450297300.0 0.0018509672 0.0002433906
455297270.0 0.0019361976 0.0002962674
460297240.0 0.0019426538 0.0001224556
465297210.0 0.0018115637 0.0004035014
470297180.0 0.0019048093 0.0002440377
475297150.0 0.0018425255 0.0002084018
480297120.0 0.0019121616 0.000376533
485297090.0 0.0019868967 0.0002363083
490297060.0 0.0018342031 0.0002635792
495297030.0 0.0020956551 7.26376e-05
500297000.0 0.0019631566 9.81708e-05
505296970.0 0.0020384622 7.77718e-05
510296940.0 0.0017377246 0.0001283986
515296910.0 0.0021506504 0.0002671669
520296880.0 0.0018526502 9.44152e-05
525296850.0 0.0018637847 0.0001442158
530296820.0 0.0020395731 0.0001581358
535296790.0 0.0019952824 0.0001457102
540296760.0 0.0017613272 8.98992e-05
545296730.0 0.0021091067 0.000180803
550296700.0 0.0021127947 5.38404e-05
555296670.0 0.0019801294 -4.48973e-05
560296640.0 0.0019583868 -5.71948e-05
565296610.0 0.0023079531 -0.0001439248
570296580.0 0.0022836439 -2.53963e-05
575296550.0 0.0022216332 -0.0002635072
580296520.0 0.0022819408 -0.0002329137
585296490.0 0.0022179734 -0.0002305113
590296460.0 0.0021557898 -0.0002419547
595296430.0 0.0023614529 -0.0002166989
600296400.0 0.0021977622 -0.0002674187
605296370.0 0.0021546934 -0.0002816907
610296340.0 0.002305303 -0.0002550285
615296310.0 0.0023016958 -0.000379645
620296280.0 0.0021978946 -0.0003105398
625296250.0 0.0022418313 -0.0004816195
630296220.0 0.002111103 -0.0003223323
635296190.0 0.0023241971 -0.0004712896
640296160.0 0.0023744455 -0.000518446
645296130.0 0.0023257734 -0.0005014243
650296100.0 0.0023063048 -0.0004327271
655296070.0 0.0020221641 -0.0007754885
660296040.0 0.0021855128 -0.0005395984
665296010.0 0.0022063045 -0.0005821205
670295980.0 0.0021771023 -0.0007438405
675295950.0 0.0024032201 -0.0006855593
680295920.0 0.002267356 -0.00052567
685295890.0 0.0021838368 -0.0006819099
690295860.0 0.0022038599 -0.0006337391
695295830.0 0.0022004632 -0.0006320303
700295800.0 0.002258651 -0.0006542822
705295770.0 0.0022285088 -0.0006200427
710295740.0 0.0021908119 -0.0005372104
715295710.0 0.0021202008 -0.0007004409
720295680.0 0.002407981 -0.0007024191
725295650.0 0.0023104803 -0.0006257614
730295620.0 0.0022655246 -0.0007324819
735295590.0 0.0022303488 -0.0006585481
740295560.0 0.0019919672 -0.0009032776
745295530.0 0.0022243294 -0.0009268187
750295500.0 0.0022724041 -0.0008437765
755295470.0 0.0021485323 -0.0007603483
760295440.0 0.0022549888 -0.0008285975
765295410.0 0.0022620781 -0.0008812828
770295380.0 0.0023409602 -0.0009046365
775295350.0 0.0021697254 -0.0011569173
780295320.0 0.0021793945 -0.00091677
785295290.0 0.002242122 -0.0009523421
790295260.0 0.0021822038 -0.0011724439
795295230.0 0.002223446 -0.0011094433
800295200.0 0.0022601341 -0.0013015597
805295170.0 0.0021963684 -0.0012659371
810295140.0 0.0020784023 -0.0009944019
815295110.0 0.0021405659 -0.001246744
820295080.0 0.0020338885 -0.0014643505
825295050.0 0.0022683789 -0.0014205023
830295020.0 0.0021497241 -0.001381915
835294990.0 0.0020510943 -0.001215643
840294960.0 0.0021389541 -0.0012752557
845294930.0 0.0023019923 -0.0014809914
850294900.0 0.002182102 -0.0012995587
855294870.0 0.002229426 -0.0012602065
860294840.0 0.0020833601 -0.0014202334
865294810.0 0.0022406914 -0.0014952439
870294780.0 0.002222761 -0.0015846605
875294750.0 0.0022947536 -0.0014548641
880294720.0 0.0022317249 -0.0015965033
885294690.0 0.0020042321 -0.0013437986
890294660.0 0.0024251748 -0.0016602464
895294630.0 0.0021983878 -0.0016037849
900294600.0 0.0021722381 -0.0017011138
905294570.0 0.0021739565 -0.0016257691
910294540.0 0.0021048568 -0.001794649
915294510.0 0.0021401735 -0.0015833305
920294480.0 0.0021510624 -0.0016220426
925294450.0 0.0020985578 -0.0017180234
930294420.0 0.0019160065 -0.0018197038
935294390.0 0.0021708749 -0.0017715458
940294360.0 0.0019665714 -0.001892302
945294330.0 0.0020596255 -0.0016972806
950294300.0 0.0021832832 -0.0020294092
955294270.0 0.0021338133 -0.0017833192
960294240.0 0.0019797987 -0.0019622839
965294210.0 0.002317853 -0.0019377707
970294180.0 0.002204092 -0.001828983
975294150.0 0.0021718637 -0.0020507488
980294120.0 0.0021993875 -0.0019551598
985294090.0 0.0020290715 -0.0020524154
990294060.0 0.002342768 -0.0021843341
995294030.0 0.0019938932 -0.0021548099
1000294000.0 0.002201699 -0.0022965971
1005293970.0 0.0020437352 -0.0022065025
1010293940.0 0.0020049876 -0.0021601808
1015293910.0 0.0022176845 -0.0021892294
1020293880.0 0.0019997158 -0.002229245
1025293850.0 0.0020595473 -0.002218466
1030293820.0 0.0021736677 -0.0019591178
1035293790.0 0.0021112859 -0.0022962718
1040293760.0 0.002008169 -0.0023374474
1045293730.0 0.0021342831 -0.0023748296
1050293700.0 0.0019921153 -0.0023375731
1055293670.0 0.0019993159 -0.0023883856
1060293640.0 0.0019429979 -0.0023049935
1065293610.0 0.0020594747 -0.0023454493
1070293580.0 0.0020784545 -0.0023542877
1075293550.0 0.0020454525 -0.0025907604
1080293520.0 0.0021566709 -0.0025404425
1085293490.0 0.0021369602 -0.0025567523
1090293460.0 0.0020776149 -0.0025490894
1095293430.0 0.0021661706 -0.0028120848
1100293400.0 0.0020508543 -0.0025576603
1105293370.0 0.0021938245 -0.0025052403
1110293340.0 0.0021478924 -0.0025958202
1115293310.0 0.0019829576 -0.0025201262
1120293280.0 0.002002185 -0.0025578175
1125293250.0 0.0022298093 -0.0026070988
1130293220.0 0.0020813225 -0.0023389331
1135293190.0 0.0018979862 -0.0025701802
1140293160.0 0.0019046817 -0.0025720474
1145293130.0 0.0017830895 -0.0025020041
1150293100.0 0.0017412293 -0.0024803812
1155293070.0 0.0016135375 -0.0024861911
1160293040.0 0.0016140838 -0.0026202234
1165293010.0 0.0018121065 -0.0025471598
1170292980.0 0.0015908056 -0.0026479991
1175292950.0 0.0017629911 -0.0027129297
1180292920.0 0.0015497693 -0.0028904503
1185292890.0 0.0018966684 -0.0027751901
1190292860.0 0.0019490688 -0.0026737859
1195292830.0 0.001863117 -0.0030764895
1200292800.0 0.0019161386 -0.0030144751
1205292770.0 0.0019583788 -0.0027877863
1210292740.0 0.0019244725 -0.0029232697
1215292710.0 0.001948046 -0.0030305576
1220292680.0 0.0020709036 -0.0030201156
1225292650.0 0.0020199467 -0.0031684441
1230292620.0 0.0019258115 -0.0029562067
1235292590.0 0.0018254235 -0.0028678422
1240292560.0 0.0019373781 -0.0032208458
1245292530.0 0.0017478018 -0.003014317
1250292500.0 0.0020058377 -0.0032840298
1255292470.0 0.002101787 -0.0030866781
1260292440.0 0.0019960267 -0.0029473127
1265292410.0 0.0020084578 -0.0030061656
1270292380.0 0.0020029601 -0.0031478167
1275292350.0 0.002001675 -0.0033276536
1280292320.0 0.0020461993 -0.0032624503
1285292290.0 0.0019971345 -0.0031910445
1290292260.0 0.0021383599 -0.0032684446
1295292230.0 0.0018832894 -0.0031626361
1300292200.0 0.0021877428 -0.0033146126
1305292170.0 0.0019716397 -0.0033751956
1310292140.0 0.0017810028 -0.0034205694
1315292110.0 0.0020104107 -0.0033535728
1320292080.0 0.0020471784 -0.0033333318
1325292050.0 0.002022185 -0.0035030679
1330292020.0 0.0020171359 -0.0033723074
1335291990.0 0.0020921892 -0.0036298628
1340291960.0 0.002082174 -0.0035876049
1345291930.0 0.0020266785 -0.0036053116
1350291900.0 0.0020858274 -0.003339962
1355291870.0 0.0018957015 -0.0034899874
1360291840.0 0.0018030681 -0.00358768
1365291810.0 0.0019885971 -0.0035982229
1370291780.0 0.0020126487 -0.0035386143
1375291750.0 0.0019727892 -0.0035176789
1380291720.0 0.0020691021 -0.0036232454
1385291690.0 0.0019636967 -0.0034030344
1390291660.0 0.0020560783 -0.0034826797
1395291630.0 0.0018624865 -0.003474981
1400291600.0 0.0019109918 -0.0036810711
1405291570.0 0.0018717926 -0.0035532173
1410291540.0 0.0020392697 -0.0039307346
1415291510.0 0.0018040878 -0.0038879571
1420291480.0 0.0019638252 -0.0036855919
1425291450.0 0.0019560225 -0.0037994123
1430291420.0 0.002198533 -0.0037537394
1435291390.0 0.0019058707 -0.003758388
1440291360.0 0.0019732816 -0.0035582774
1445291330.0 0.0019224478 -0.0036609368
1450291300.0 0.0019634113 -0.0036326612
1455291270.0 0.0018895846 -0.0039137857
1460291240.0 0.0017745631 -0.0037538794
1465291210.0 0.0020640404 -0.0038016758
1470291180.0 0.0017657979 -0.0037194501
1475291150.0 0.0019121283 -0.0039239467
1480291120.0 0.0020623741 -0.0037806643
1485291090.0 0.0018826362 -0.0039153569
1490291060.0 0.0018885462 -0.0038586824
1495291030.0 0.0019286206 -0.0038809625
1500291000.0 0.0019381295 -0.0040777464
1505290970.0 0.0019414935 -0.0038993004
1510290940.0 0.0019588229 -0.0039852931
1515290910.0 0.0020291505 -0.0036983517
1520290880.0 0.0019717229 -0.0039690871
1525290850.0 0.0018358652 -0.0039869172
1530290820.0 0.001965339 -0.0038260314
1535290790.0 0.0019359671 -0.0039296159
1540290760.0 0.0021043799 -0.0039142582
1545290730.0 0.0019424571 -0.0040784989
1550290700.0 0.0018967836 -0.0038575427
1555290670.0 0.0020097546 -0.0041531384
1560290640.0 0.0020884118 -0.0040862163
1565290610.0 0.0020784637 -0.0041304288
1570290580.0 0.0021827483 -0.0043384052
1575290550.0 0.0020920456 -0.0041048707
1580290520.0 0.0020734748 -0.0042849678
1585290490.0 0.0018338118 -0.0040367802
1590290460.0 0.0018907969 -0.0040550556
1595290430.0 0.0022600575 -0.0042074174
1600290400.0 0.0020502436 -0.0042341986
1605290370.0 0.0018303551 -0.0041556088
1610290340.0 0.0020467817 -0.0041825474
1615290310.0 0.0021424959 -0.0041538523
1620290280.0 0.002033989 -0.0043183598
1625290250.0 0.0019930792 -0.0042679209
1630290220.0 0.0020924333 -0.0042306767
1635290190.0 0.0019086161 -0.0043748817
1640290160.0 0.002097153 -0.0041079054
1645290130.0 0.0020692996 -0.0042877093
1650290100.0 0.0021026198 -0.0040740535
1655290070.0 0.0020101694 -0.0041855949
1660290040.0 0.0021015621 -0.0042492838
1665290010.0 0.0020245829 -0.004154749
1670289980.0 0.0017399868 -0.0046488045
1675289950.0 0.0018107617 -0.004383096
1680289920.0 0.0020679969 -0.0042444699
1685289890.0 0.0021422253 -0.0042801568
1690289860.0 0.0017978624 -0.0043302014
1695289830.0 0.0019779891 -0.0043974169
1700289800.0 0.0020341818 -0.0043651069
1705289770.0 0.0020200283 -0.0045431578
1710289740.0 0.0020262632 -0.0044666867
1715289710.0 0.0021615104 -0.0043077851
1720289680.0 0.0017984946 -0.0045612596
1725289650.0 0.001930113 -0.0045338856
1730289620.0 0.0019340084 -0.0044049471
1735289590.0 0.0020219814 -0.0044433397
1740289560.0 0.002044404 -0.0043622033
1745289530.0 0.0019686404 -0.0044567488
1750289500.0 0.0020503841 -0.0045431971
1755289470.0 0.0021195553 -0.0045758515
1760289440.0 0.0019078587 -0.0044639602
1765289410.0 0.0018027713 -0.0044988776
1770289380.0 0.002161892 -0.0043471268
1775289350.0 0.0018677769 -0.0044513694
1780289320.0 0.0019830195 -0.0043985891
1785289290.0 0.002070008 -0.0043527659
1790289260.0 0.0020773089 -0.0043509184
1795289230.0 0.0019098416 -0.0043855136
1800289200.0 0.0019958629 -0.0045118046
1805289170.0 0.0019845555 -0.0046253996
1810289140.0 0.0021447899 -0.0043705817
1815289110.0 0.0021788701 -0.0045977067
1820289080.0 0.0019147534 -0.0046460625
1825289050.0 0.0018897332 -0.0045821506
1830289020.0 0.0019985041 -0.0045685585
1835288990.0 0.0017970142 -0.0046024871
1840288960.0 0.0021056054 -0.0045325454
1845288930.0 0.0019131178 -0.0046938768
1850288900.0 0.0020672164 -0.0045447909
1855288870.0 0.0019493257 -0.0044895179
1860288840.0 0.0019764274 -0.0046294284
1865288810.0 0.0019698474 -0.0044734953
1870288780.0 0.0020469111 -0.004780252
1875288750.0 0.0019343768 -0.0044451241
1880288720.0 0.0019440104 -0.0045796065
1885288690.0 0.0019773619 -0.0047703079
1890288660.0 0.002139411 -0.0046113348
1895288630.0 0.002076234 -0.0044544647
1900288600.0 0.0021154862 -0.004763888
1905288570.0 0.0020720104 -0.0046988113
1910288540.0 0.0020089325 -0.0046420689
1915288510.0 0.0020173616 -0.0044401403
1920288480.0 0.0020028322 -0.0045420654
1925288450.0 0.0021474509 -0.0044170983
1930288420.0 0.0021293146 -0.0045815713
1935288390.0 0.0021776403 -0.0046960309
1940288360.0 0.0020821215 -0.0045698577
1945288330.0 0.0023619002 -0.0044839722
1950288300.0 0.0019900649 -0.0046948283
1955288270.0 0.002257206 -0.0046609538
1960288240.0 0.0019350315 -0.0047188599
1965288210.0 0.0020669176 -0.0046213848
1970288180.0 0.002139048 -0.0045498952
1975288150.0 0.0021355267 -0.0044378293
1980288120.0 0.0020818462 -0.0046931283
1985288090.0 0.0022687861 -0.0046033084
1990288060.0 0.0022819216 -0.0046198473
1995288030.0 0.0020696182 -0.0047957135
2000288000.0 0.0019394696 -0.004633048
2005287970.0 0.0022620688 -0.0044718766
2010287940.0 0.0023888206 -0.0045235134
2015287910.0 0.0021506052 -0.0046390678
2020287880.0 0.0021967214 -0.0048347985
2025287850.0 0.0022058151 -0.0046441781
2030287820.0 0.002193964 -0.0045600211
2035287790.0 0.0020670621 -0.0047099782
2040287760.0 0.0018361371 -0.0046435201
2045287730.0 0.0021841128 -0.0046870985
2050287700.0 0.0020516738 -0.00456081
2055287670.0 0.0019053819 -0.0046248622
2060287640.0 0.002288269 -0.0046409548
2065287610.0 0.0020410224 -0.0045188551
2070287580.0 0.0020875459 -0.0044510536
2075287550.0 0.0021620476 -0.0044449732
2080287520.0 0.0021252715 -0.0045827388
2085287490.0 0.0020884195 -0.0047698429
2090287460.0 0.0021060141 -0.0046837496
2095287430.0 0.0021442507 -0.0044132393
2100287400.0 0.0019773951 -0.0046201077
2105287370.0 0.0021081615 -0.0044950087
2110287340.0 0.0021124301 -0.0046065897
2115287310.0 0.002040284 -0.0044494283
2120287280.0 0.0019609246 -0.0045448709
2125287250.0 0.0020854255 -0.0045309611
2130287220.0 0.0021010014 -0.0046478246
2135287190.0 0.0020632551 -0.0044824855
2140287160.0 0.0020075145 -0.0046224921
2145287130.0 0.0021183891 -0.0046470404
2150287100.0 0.0018902702 -0.0046953854
2155287070.0 0.0020294465 -0.0045572869
2160287040.0 0.0021807389 -0.0045787992
2165287010.0 0.0021905754 -0.004510993
2170286980.0 0.0020664041 -0.0045861438
2175286950.0 0.0020825081 -0.0045857257
2180286920.0 0.0020967304 -0.0043608449
2185286890.0 0.0020438141 -0.0044587464
2190286860.0 0.0021801722 -0.0045417992
2195286830.0 0.0020057847 -0.0042604451
2200286800.0 0.0020093851 -0.0044817193
2205286770.0 0.0020126568 -0.0045822418
2210286740.0 0.0020723601 -0.0046187643
2215286710.0 0.0020386856 -0.0044667403
2220286680.0 0.0020066732 -0.0045200162
2225286650.0 0.0022220496 -0.0044697155
2230286620.0 0.002201769 -0.0045987764
2235286590.0 0.0018763164 -0.0045101526
2240286560.0 0.001763443 -0.0045146503
2245286530.0 0.0019116344 -0.0046628386
2250286500.0 0.0017899094 -0.0046479448
2255286470.0 0.0020523637 -0.0043728775
2260286440.0 0.0018116407 -0.0044276601
2265286410.0 0.001914378 -0.0044041403
2270286380.0 0.0020189411 -0.0045712092
2275286350.0 0.0020320005 -0.0045990698
2280286320.0 0.0016580819 -0.0044838201
2285286290.0 0.0017873725 -0.0045358074
2290286260.0 0.0020579521 -0.004655696
2295286230.0 0.0019703489 -0.0043596777
2300286200.0 0.001884044 -0.0045536387
2305286170.0 0.0020161562 -0.0041222378
2310286140.0 0.001847113 -0.0041899948
2315286110.0 0.0019996449 -0.0045181365
2320286080.0 0.0017535267 -0.0045928774
2325286050.0 0.0018636219 -0.0044082733
2330286020.0 0.0020723078 -0.0045242388
2335285990.0 0.0019936767 -0.0043189601
2340285960.0 0.0018668865 -0.0043242601
2345285930.0 0.0020717089 -0.0043678763
2350285900.0 0.00172942 -0.0044301932
2355285870.0 0.0019123167 -0.0044683102
2360285840.0 0.0018199006 -0.0044344021
2365285810.0 0.0018202155 -0.0044199206
2370285780.0 0.001771065 -0.0043824228
2375285750.0 0.0017775358 -0.0041206431
2380285720.0 0.0018286046 -0.0044020049
2385285690.0 0.0017838828 -0.0043372915
2390285660.0 0.0016915977 -0.0044223516
2395285630.0 0.0017257882 -0.0043030585
2400285600.0 0.0016653586 -0.0044106087
2405285570.0 0.0015736302 -0.0042299746
2410285540.0 0.0017632603 -0.0043933331
2415285510.0 0.0018587976 -0.004388725
2420285480.0 0.0018474945 -0.004389418
2425285450.0 0.0016409412 -0.0043870344
2430285420.0 0.0016212266 -0.0042981411
2435285390.0 0.0015710613 -0.0045579979
2440285360.0 0.0016787256 -0.0043858799
2445285330.0 0.0015970164 -0.0044502219
2450285300.0 0.0019353062 -0.0043004825
2455285270.0 0.0014519614 -0.0041969205
2460285240.0 0.0017666643 -0.004306288
2465285210.0 0.0016316453 -0.0043311633
2470285180.0 0.0016094921 -0.0043322823
2475285150.0 0.0016075437 -0.004164141
2480285120.0 0.00156648 -0.004493787
2485285090.0 0.0014909349 -0.0043814366
2490285060.0 0.0017587954 -0.0042738772
2495285030.0 0.0014468655 -0.0043088876
2500285000.0 0.0013446031 -0.0040490062
2505284970.0 0.0015618684 -0.0042896837
2510284940.0 0.0016995609 -0.0040369712
2515284910.0 0.0016249961 -0.004444803
2520284880.0 0.0015541622 -0.0043643818
2525284850.0 0.0015254706 -0.004544693
2530284820.0 0.0016934703 -0.004257
2535284790.0 0.0016451297 -0.0043866114
2540284760.0 0.0014299936 -0.0041172161
