!Created with skrf (http://scikit-rf.org).
# Hz S RI R 50.0 
!freq ReS11 ImS11
45000000.0 0.06938934326171875 0.086456298828125
49995500.0 0.08830642700195312 0.08624267578125
54991000.0 0.10861587524414062 0.08217239379882812
59986500.0 0.12752532958984375 0.08354949951171875
64982000.0 0.14801788330078125 0.076873779296875
69977500.0 0.169036865234375 0.06447601318359375
74973000.0 0.1893310546875 0.04779052734375
79968500.0 0.20772552490234375 0.02683258056640625
84964000.0 0.2237091064453125 0.00238037109375
89959500.0 0.23622894287109375 -0.02642059326171875
94955000.0 0.24410247802734375 -0.05794525146484375
99950500.0 0.2473297119140625 -0.09186553955078125
104946000.0 0.2453155517578125 -0.12720489501953125
109941500.0 0.2378692626953125 -0.16278076171875
114937000.0 0.22499847412109375 -0.1987457275390625
119932500.0 0.20652008056640625 -0.233062744140625
124928000.0 0.183624267578125 -0.2658538818359375
129923500.0 0.15582275390625 -0.2956695556640625
134919000.0 0.1233367919921875 -0.3228912353515625
139914500.0 0.0867462158203125 -0.34619140625
144910000.0 0.0464935302734375 -0.3653717041015625
149905500.0 0.0029144287109375 -0.3798828125
154901000.0 -0.0428009033203125 -0.3893585205078125
159896500.0 -0.0905914306640625 -0.3929901123046875
164892000.0 -0.1399078369140625 -0.3907623291015625
169887500.0 -0.1898040771484375 -0.38238525390625
174883000.0 -0.2400360107421875 -0.3676605224609375
179878500.0 -0.28912353515625 -0.34613037109375
184874000.0 -0.336395263671875 -0.317840576171875
189869500.0 -0.381072998046875 -0.2828521728515625
194865000.0 -0.422149658203125 -0.242340087890625
199860500.0 -0.45843505859375 -0.19537353515625
204856000.0 -0.489105224609375 -0.1428680419921875
209851500.0 -0.513336181640625 -0.08624267578125
214847000.0 -0.531036376953125 -0.02593994140625
219842500.0 -0.54119873046875 0.03729248046875
224838000.0 -0.54327392578125 0.1021728515625
229833500.0 -0.537933349609375 0.167694091796875
234829000.0 -0.5244140625 0.232757568359375
239824500.0 -0.50286865234375 0.296661376953125
244820000.0 -0.473876953125 0.3583831787109375
249815500.0 -0.4375152587890625 0.417266845703125
254811000.0 -0.417510986328125 0.459228515625
259806500.0 -0.37078857421875 0.512176513671875
264802000.0 -0.317413330078125 0.560546875
269797500.0 -0.2578125 0.603485107421875
274793000.0 -0.192901611328125 0.64013671875
279788500.0 -0.122589111328125 0.670196533203125
284784000.0 -0.04791259765625 0.692626953125
289779500.0 0.030670166015625 0.707061767578125
294775000.0 0.1126708984375 0.712646484375
299770500.0 0.196533203125 0.708587646484375
304766000.0 0.281494140625 0.694549560546875
309761500.0 0.365997314453125 0.669769287109375
314757000.0 0.4488525390625 0.633697509765625
319752500.0 0.5284423828125 0.586669921875
324748000.0 0.603179931640625 0.529296875
329743500.0 0.671539306640625 0.461517333984375
334739000.0 0.732330322265625 0.3841552734375
339734500.0 0.783416748046875 0.29827880859375
344730000.0 0.82354736328125 0.205535888671875
349725500.0 0.851654052734375 0.10760498046875
354721000.0 0.867767333984375 0.00640869140625
359716500.0 0.870635986328125 -0.09661865234375
364712000.0 0.860870361328125 -0.2000732421875
369707500.0 0.83837890625 -0.301513671875
374703000.0 0.8040771484375 -0.40093994140625
379698500.0 0.757904052734375 -0.494964599609375
384694000.0 0.701690673828125 -0.583465576171875
389689500.0 0.635040283203125 -0.66455078125
394685000.0 0.55963134765625 -0.738555908203125
399680500.0 0.47650146484375 -0.803802490234375
404676000.0 0.386505126953125 -0.860321044921875
409671500.0 0.2900390625 -0.907989501953125
414667000.0 0.1884765625 -0.944244384765625
419662500.0 0.082061767578125 -0.970001220703125
424658000.0 -0.02850341796875 -0.984283447265625
429653500.0 -0.14276123046875 -0.986419677734375
434649000.0 -0.258575439453125 -0.973907470703125
439644500.0 -0.372955322265625 -0.948150634765625
444640000.0 -0.485198974609375 -0.910064697265625
449635500.0 -0.5947265625 -0.858673095703125
454631000.0 -0.700531005859375 -0.7940673828125
459626500.0 -0.800628662109375 -0.713714599609375
464622000.0 -0.89080810546875 -0.61895751953125
469617500.0 -0.96881103515625 -0.511688232421875
474613000.0 -1.0330810546875 -0.3936767578125
479608500.0 -1.08160400390625 -0.26629638671875
484604000.0 -1.11260986328125 -0.133056640625
489599500.0 -1.12554931640625 0.00341796875
494595000.0 -1.119873046875 0.1405029296875
499590500.0 -1.09625244140625 0.27471923828125
504586000.0 -1.05523681640625 0.4031982421875
509581500.0 -0.99932861328125 0.523681640625
514577000.0 -0.929656982421875 0.634063720703125
519572500.0 -0.849273681640625 0.73358154296875
524568000.0 -0.760101318359375 0.821044921875
529563500.0 -0.664825439453125 0.897125244140625
534559000.0 -0.564666748046875 0.962249755859375
539554500.0 -0.4613037109375 1.01800537109375
544550000.0 -0.3538818359375 1.06463623046875
549545500.0 -0.2421875 1.10284423828125
554541000.0 -0.12603759765625 1.1322021484375
559536500.0 -0.0048828125 1.1507568359375
564532000.0 0.12066650390625 1.15789794921875
569527500.0 0.24932861328125 1.1514892578125
574523000.0 0.37957763671875 1.13079833984375
579518500.0 0.509521484375 1.0950927734375
584514000.0 0.63775634765625 1.04449462890625
589509500.0 0.761962890625 0.9776611328125
594505000.0 0.88067626953125 0.894805908203125
599500500.0 0.99066162109375 0.796661376953125
604496000.0 1.0909423828125 0.6832275390625
609491500.0 1.17730712890625 0.555419921875
614487000.0 1.2490234375 0.41497802734375
619482500.0 1.3026123046875 0.26409912109375
624478000.0 1.3363037109375 0.105224609375
629473500.0 1.34844970703125 -0.05810546875
634469000.0 1.33843994140625 -0.22265625
639464500.0 1.30584716796875 -0.3848876953125
644460000.0 1.25201416015625 -0.541259765625
649455500.0 1.17864990234375 -0.6884765625
654451000.0 1.08709716796875 -0.82354736328125
659446500.0 0.98052978515625 -0.944915771484375
664442000.0 0.86138916015625 -1.0504150390625
669437500.0 0.73236083984375 -1.13995361328125
674433000.0 0.59588623046875 -1.21240234375
679428500.0 0.454345703125 -1.26837158203125
684424000.0 0.31011962890625 -1.30804443359375
689419500.0 0.164306640625 -1.33184814453125
694415000.0 0.0184326171875 -1.34051513671875
699410500.0 -0.12591552734375 -1.33544921875
704406000.0 -0.2684326171875 -1.31646728515625
709401500.0 -0.40814208984375 -1.2841796875
714397000.0 -0.54498291015625 -1.23907470703125
719392500.0 -0.67755126953125 -1.180908203125
724388000.0 -0.80615234375 -1.11065673828125
729383500.0 -0.92913818359375 -1.02655029296875
734379000.0 -1.044921875 -0.9278564453125
739374500.0 -1.15283203125 -0.8155517578125
744370000.0 -1.2510986328125 -0.69110107421875
749365500.0 -1.336181640625 -0.55126953125
754361000.0 -1.40740966796875 -0.40020751953125
759356500.0 -1.46112060546875 -0.237060546875
764352000.0 -1.49530029296875 -0.06396484375
769347500.0 -1.50677490234375 0.1156005859375
774343000.0 -1.49517822265625 0.29852294921875
779338500.0 -1.46002197265625 0.4808349609375
784334000.0 -1.3968505859375 0.65869140625
789329500.0 -1.31060791015625 0.827392578125
794325000.0 -1.20257568359375 0.982421875
799320500.0 -1.07489013671875 1.12091064453125
804316000.0 -0.93035888671875 1.240234375
809311500.0 -0.77386474609375 1.338134765625
814307000.0 -0.60894775390625 1.4146728515625
819302500.0 -0.43829345703125 1.46893310546875
824298000.0 -0.2652587890625 1.5010986328125
829293500.0 -0.09454345703125 1.51416015625
834289000.0 0.0750732421875 1.50762939453125
839284500.0 0.2392578125 1.48321533203125
844280000.0 0.33709716796875 1.47711181640625
849275500.0 0.49273681640625 1.42938232421875
854271000.0 0.640625 1.3671875
859266500.0 0.78155517578125 1.2921142578125
864262000.0 0.91448974609375 1.2041015625
869257500.0 1.03887939453125 1.10382080078125
874253000.0 1.1533203125 0.9921875
879248500.0 1.2581787109375 0.8687744140625
884244000.0 1.351806640625 0.7354736328125
889239500.0 1.43365478515625 0.59112548828125
894235000.0 1.50177001953125 0.43780517578125
899230500.0 1.55584716796875 0.2752685546875
904226000.0 1.5938720703125 0.10308837890625
909221500.0 1.6131591796875 -0.0784912109375
914217000.0 1.6104736328125 -0.265380859375
919212500.0 1.5843505859375 -0.45501708984375
924208000.0 1.5325927734375 -0.64398193359375
929203500.0 1.45660400390625 -0.82659912109375
934199000.0 1.35552978515625 -1.00048828125
939194500.0 1.2313232421875 -1.15997314453125
944190000.0 1.08612060546875 -1.3026123046875
949185500.0 0.92376708984375 -1.42523193359375
954181000.0 0.74749755859375 -1.52392578125
959176500.0 0.56085205078125 -1.59906005859375
964172000.0 0.368896484375 -1.64837646484375
969167500.0 0.1746826171875 -1.6741943359375
974163000.0 -0.01800537109375 -1.676025390625
979158500.0 -0.206298828125 -1.655029296875
984154000.0 -0.38824462890625 -1.61474609375
989149500.0 -0.56243896484375 -1.55596923828125
994145000.0 -0.72674560546875 -1.47998046875
999140500.0 -0.8804931640625 -1.38885498046875
1004136000.0 -1.0235595703125 -1.28436279296875
1009131500.0 -1.15557861328125 -1.1676025390625
1014127000.0 -1.275146484375 -1.0382080078125
1019122500.0 -1.38238525390625 -0.8974609375
1024118000.0 -1.4757080078125 -0.74639892578125
1029113500.0 -1.5548095703125 -0.5858154296875
1034109000.0 -1.61785888671875 -0.4150390625
1039104500.0 -1.66461181640625 -0.23675537109375
1044100000.0 -1.69183349609375 -0.05133056640625
1049095500.0 -1.69879150390625 0.1397705078125
1054091000.0 -1.68438720703125 0.3333740234375
1059086500.0 -1.6461181640625 0.5272216796875
1064082000.0 -1.5843505859375 0.718505859375
1069077500.0 -1.4981689453125 0.90350341796875
1074073000.0 -1.3880615234375 1.0772705078125
1079068500.0 -1.25543212890625 1.23809814453125
1084064000.0 -1.10260009765625 1.3814697265625
1089059500.0 -0.93206787109375 1.50421142578125
1094055000.0 -0.7470703125 1.60345458984375
1099050500.0 -0.55224609375 1.67742919921875
1104046000.0 -0.35009765625 1.726318359375
1109041500.0 -0.146240234375 1.7490234375
1114037000.0 0.05645751953125 1.746826171875
1119032500.0 0.2550048828125 1.72064208984375
1124028000.0 0.44610595703125 1.6715087890625
1129023500.0 0.62774658203125 1.60296630859375
1134019000.0 0.7978515625 1.5159912109375
1139014500.0 0.9556884765625 1.4127197265625
1144010000.0 1.10015869140625 1.2943115234375
1149005500.0 1.23065185546875 1.16351318359375
1154001000.0 1.34625244140625 1.02130126953125
1158996500.0 1.4464111328125 0.869140625
1163992000.0 1.53021240234375 0.7081298828125
1168987500.0 1.59796142578125 0.53973388671875
1173983000.0 1.64898681640625 0.36492919921875
1178978500.0 1.681396484375 0.18511962890625
1183974000.0 1.69610595703125 0.00213623046875
1188969500.0 1.69140625 -0.18292236328125
1193965000.0 1.66766357421875 -0.36810302734375
1198960500.0 1.62353515625 -0.55126953125
1203956000.0 1.5587158203125 -0.7308349609375
1208951500.0 1.47381591796875 -0.90435791015625
1213947000.0 1.368896484375 -1.0682373046875
1218942500.0 1.2445068359375 -1.22125244140625
1223938000.0 1.10162353515625 -1.3594970703125
1228933500.0 0.94219970703125 -1.48114013671875
1233929000.0 0.76904296875 -1.583984375
1238924500.0 0.5836181640625 -1.6654052734375
1243920000.0 0.3885498046875 -1.7249755859375
1248915500.0 0.18792724609375 -1.7591552734375
1253911000.0 -0.01580810546875 -1.7698974609375
1258906500.0 -0.2198486328125 -1.75653076171875
1263902000.0 -0.42144775390625 -1.7193603515625
1268897500.0 -0.61297607421875 -1.6578369140625
1273893000.0 -0.79571533203125 -1.57476806640625
1278888500.0 -0.967529296875 -1.4720458984375
1283884000.0 -1.12591552734375 -1.35107421875
1288879500.0 -1.267578125 -1.21295166015625
1293875000.0 -1.3934326171875 -1.06072998046875
1298870500.0 -1.50067138671875 -0.89666748046875
1303866000.0 -1.5885009765625 -0.72161865234375
1308861500.0 -1.65594482421875 -0.53887939453125
1313857000.0 -1.7032470703125 -0.35052490234375
1318852500.0 -1.728271484375 -0.15936279296875
1323848000.0 -1.73284912109375 0.03485107421875
1328843500.0 -1.71527099609375 0.22625732421875
1333839000.0 -1.67779541015625 0.4146728515625
1338834500.0 -1.619384765625 0.59716796875
1343830000.0 -1.54119873046875 0.77081298828125
1348825500.0 -1.44537353515625 0.93646240234375
1353821000.0 -1.33209228515625 1.088623046875
1358816500.0 -1.2030029296875 1.22802734375
1363812000.0 -1.0599365234375 1.3525390625
1368807500.0 -0.904541015625 1.46063232421875
1373803000.0 -0.73858642578125 1.5511474609375
1378798500.0 -0.5638427734375 1.623046875
1383794000.0 -0.38189697265625 1.67608642578125
1388789500.0 -0.1953125 1.71014404296875
1393785000.0 -0.00579833984375 1.7230224609375
1398780500.0 0.18524169921875 1.7159423828125
1403776000.0 0.37469482421875 1.6876220703125
1408771500.0 0.5611572265625 1.6390380859375
1413767000.0 0.74237060546875 1.5697021484375
1418762500.0 0.91644287109375 1.48016357421875
1423758000.0 1.080078125 1.370849609375
1428753500.0 1.2313232421875 1.24224853515625
1433749000.0 1.3682861328125 1.09619140625
1438744500.0 1.48748779296875 0.93365478515625
1443740000.0 1.58660888671875 0.756591796875
1448735500.0 1.664794921875 0.56768798828125
1453731000.0 1.71826171875 0.37054443359375
1458726500.0 1.747314453125 0.1678466796875
1463722000.0 1.75115966796875 -0.036376953125
1468717500.0 1.72869873046875 -0.23858642578125
1473713000.0 1.682373046875 -0.4356689453125
1478708500.0 1.6123046875 -0.62347412109375
1483704000.0 1.5213623046875 -0.79913330078125
1488699500.0 1.410888671875 -0.960205078125
1493695000.0 1.28460693359375 -1.105224609375
1498690500.0 1.1446533203125 -1.23187255859375
1503686000.0 0.994384765625 -1.34075927734375
1508681500.0 0.835693359375 -1.43072509765625
1513677000.0 0.671142578125 -1.501708984375
1518672500.0 0.5030517578125 -1.55450439453125
1523668000.0 0.332763671875 -1.5902099609375
1528663500.0 0.1622314453125 -1.608154296875
1533659000.0 -0.007080078125 -1.60992431640625
1538654500.0 -0.1749267578125 -1.59515380859375
1543650000.0 -0.3397216796875 -1.5654296875
1548645500.0 -0.500732421875 -1.5196533203125
1553641000.0 -0.65667724609375 -1.45904541015625
1558636500.0 -0.8072509765625 -1.38397216796875
1563632000.0 -0.9510498046875 -1.29339599609375
1568627500.0 -1.08538818359375 -1.18756103515625
1573623000.0 -1.21044921875 -1.06787109375
1578618500.0 -1.3236083984375 -0.93402099609375
1583614000.0 -1.4237060546875 -0.78631591796875
1588609500.0 -1.5067138671875 -0.62664794921875
1593605000.0 -1.57171630859375 -0.456787109375
1598600500.0 -1.61724853515625 -0.27862548828125
1603596000.0 -1.6416015625 -0.0943603515625
1608591500.0 -1.64361572265625 0.0924072265625
1613587000.0 -1.62200927734375 0.2784423828125
1618582500.0 -1.57861328125 0.4608154296875
1623578000.0 -1.5125732421875 0.6357421875
1628573500.0 -1.42657470703125 0.8004150390625
1633569000.0 -1.3221435546875 0.95257568359375
1638564500.0 -1.20166015625 1.089599609375
1643560000.0 -1.068115234375 1.20989990234375
1648555500.0 -0.92327880859375 1.3125
1653551000.0 -0.77069091796875 1.39764404296875
1658546500.0 -0.61212158203125 1.4644775390625
1663542000.0 -0.44970703125 1.51416015625
1668537500.0 -0.28582763671875 1.546630859375
1673533000.0 -0.1212158203125 1.56207275390625
1678528500.0 0.04254150390625 1.56207275390625
1683524000.0 0.20440673828125 1.54620361328125
1688519500.0 0.36395263671875 1.51654052734375
1693515000.0 0.5198974609375 1.4713134765625
1698510500.0 0.67181396484375 1.41204833984375
1703506000.0 0.81695556640625 1.33929443359375
1708501500.0 0.9580078125 1.25115966796875
1713497000.0 1.0908203125 1.14813232421875
1718492500.0 1.2152099609375 1.0303955078125
1723488000.0 1.32891845703125 0.89794921875
1728483500.0 1.42926025390625 0.7506103515625
1733479000.0 1.5145263671875 0.58941650390625
1738474500.0 1.5810546875 0.4168701171875
1743470000.0 1.626953125 0.23333740234375
1748465500.0 1.649169921875 0.04339599609375
1753461000.0 1.6470947265625 -0.15045166015625
1758456500.0 1.619384765625 -0.34368896484375
1763452000.0 1.5665283203125 -0.53106689453125
1768447500.0 1.48919677734375 -0.71002197265625
1773443000.0 1.38946533203125 -0.87530517578125
1778438500.0 1.27099609375 -1.0244140625
1783434000.0 1.13623046875 -1.15594482421875
1788429500.0 0.9893798828125 -1.26690673828125
1793425000.0 0.8341064453125 -1.35760498046875
1798420500.0 0.673095703125 -1.428466796875
1803416000.0 0.50921630859375 -1.47979736328125
1808411500.0 0.3448486328125 -1.512451171875
1813407000.0 0.1820068359375 -1.5286865234375
1818402500.0 0.0213623046875 -1.5289306640625
1823398000.0 -0.13580322265625 -1.51409912109375
1828393500.0 -0.2891845703125 -1.48638916015625
1833389000.0 -0.4384765625 -1.4449462890625
1838384500.0 -0.5828857421875 -1.39129638671875
1843380000.0 -0.72259521484375 -1.32464599609375
1848375500.0 -0.8560791015625 -1.24591064453125
1853371000.0 -0.98419189453125 -1.155029296875
1858366500.0 -1.10430908203125 -1.0494384765625
1863362000.0 -1.215576171875 -0.93182373046875
1868357500.0 -1.31658935546875 -0.800537109375
1873353000.0 -1.40380859375 -0.656982421875
1878348500.0 -1.47760009765625 -0.50030517578125
1883344000.0 -1.5325927734375 -0.3341064453125
1888339500.0 -1.56903076171875 -0.15850830078125
1893335000.0 -1.5828857421875 0.02252197265625
1898330500.0 -1.57342529296875 0.20684814453125
1903326000.0 -1.54010009765625 0.38861083984375
1908321500.0 -1.48284912109375 0.5657958984375
1913317000.0 -1.4034423828125 0.73291015625
1918312500.0 -1.30316162109375 0.88702392578125
1923308000.0 -1.18511962890625 1.0255126953125
1928303500.0 -1.05242919921875 1.14617919921875
1933299000.0 -0.90875244140625 1.24786376953125
1938294500.0 -0.75689697265625 1.32965087890625
1943290000.0 -0.600830078125 1.39208984375
1948285500.0 -0.442138671875 1.43585205078125
1953281000.0 -0.28314208984375 1.46185302734375
1958276500.0 -0.1263427734375 1.4716796875
1963272000.0 0.02783203125 1.46612548828125
1968267500.0 0.177978515625 1.4456787109375
1973263000.0 0.3238525390625 1.41241455078125
1978258500.0 0.46453857421875 1.365966796875
1983254000.0 0.60003662109375 1.30755615234375
1988249500.0 0.72869873046875 1.23822021484375
1993245000.0 0.85125732421875 1.1561279296875
1998240500.0 0.9666748046875 1.0626220703125
2003236000.0 1.0728759765625 0.958740234375
2008231500.0 1.1690673828125 0.84307861328125
2013227000.0 1.25457763671875 0.71783447265625
2018222500.0 1.32720947265625 0.58258056640625
2023218000.0 1.38623046875 0.43804931640625
2028213500.0 1.42913818359375 0.287109375
2033209000.0 1.45556640625 0.1304931640625
2038204500.0 1.4637451171875 -0.0296630859375
2043200000.0 1.45367431640625 -0.19049072265625
2048195500.0 1.424560546875 -0.349365234375
2053191000.0 1.37664794921875 -0.50360107421875
2058186500.0 1.311767578125 -0.65167236328125
2063182000.0 1.23052978515625 -0.79010009765625
2068177500.0 1.13433837890625 -0.9171142578125
2073173000.0 1.02532958984375 -1.03204345703125
2078168500.0 0.90570068359375 -1.1328125
2083164000.0 0.7767333984375 -1.22003173828125
2088159500.0 0.6412353515625 -1.29156494140625
2093155000.0 0.5001220703125 -1.3485107421875
2098150500.0 0.355224609375 -1.39111328125
2103146000.0 0.20794677734375 -1.4189453125
2108141500.0 0.05950927734375 -1.432373046875
2113137000.0 -0.08941650390625 -1.43157958984375
2118132500.0 -0.23809814453125 -1.41632080078125
2123128000.0 -0.3839111328125 -1.38671875
2128123500.0 -0.528076171875 -1.34368896484375
2133119000.0 -0.6685791015625 -1.2861328125
2138114500.0 -0.80377197265625 -1.21435546875
2143110000.0 -0.93353271484375 -1.12774658203125
2148105500.0 -1.05487060546875 -1.0272216796875
2153101000.0 -1.1668701171875 -0.9119873046875
2158096500.0 -1.2662353515625 -0.78338623046875
2163092000.0 -1.35272216796875 -0.6422119140625
2168087500.0 -1.42266845703125 -0.48980712890625
2173083000.0 -1.47509765625 -0.32843017578125
2178078500.0 -1.5074462890625 -0.16009521484375
2183074000.0 -1.5194091796875 0.01220703125
2188069500.0 -1.50927734375 0.1846923828125
2193065000.0 -1.478515625 0.35491943359375
