!Created with skrf (http://scikit-rf.org).
# Hz S RI R 50.0 
!freq ReS11 ImS11
45000000.0 -0.08185195922851562 -0.09296417236328125
49995500.0 -0.10248184204101562 -0.088897705078125
54991000.0 -0.12308883666992188 -0.08064651489257812
59986500.0 -0.1415557861328125 -0.07875823974609375
64982000.0 -0.16043853759765625 -0.06909942626953125
69977500.0 -0.17894744873046875 -0.0543365478515625
74973000.0 -0.196533203125 -0.03653717041015625
79968500.0 -0.21196746826171875 -0.015533447265625
84964000.0 -0.22548675537109375 0.0088043212890625
89959500.0 -0.2357940673828125 0.03594207763671875
94955000.0 -0.24267578125 0.0657196044921875
99950500.0 -0.2454986572265625 0.09813690185546875
104946000.0 -0.2437591552734375 0.1319122314453125
109941500.0 -0.23712921142578125 0.16689300537109375
114937000.0 -0.2253875732421875 0.20214080810546875
119932500.0 -0.20819854736328125 0.23686981201171875
124928000.0 -0.1858978271484375 0.2703094482421875
129923500.0 -0.1583099365234375 0.3016204833984375
134919000.0 -0.1254730224609375 0.3301849365234375
139914500.0 -0.0879669189453125 0.3549652099609375
144910000.0 -0.046112060546875 0.3748016357421875
149905500.0 -0.00103759765625 0.3903961181640625
154901000.0 0.0470123291015625 0.399505615234375
159896500.0 0.0969390869140625 0.402496337890625
164892000.0 0.147857666015625 0.3990325927734375
169887500.0 0.1990966796875 0.3892669677734375
174883000.0 0.24981689453125 0.372772216796875
179878500.0 0.2990570068359375 0.3497467041015625
184874000.0 0.3459930419921875 0.3201141357421875
189869500.0 0.3902587890625 0.284332275390625
194865000.0 0.4308319091796875 0.2431640625
199860500.0 0.466766357421875 0.196197509765625
204856000.0 0.4972381591796875 0.144256591796875
209851500.0 0.5220947265625 0.088104248046875
214847000.0 0.54095458984375 0.0279541015625
219842500.0 0.5528564453125 -0.035491943359375
224838000.0 0.55712890625 -0.101318359375
229833500.0 0.553741455078125 -0.16888427734375
234829000.0 0.5419921875 -0.236480712890625
239824500.0 0.52166748046875 -0.30426025390625
244820000.0 0.4927520751953125 -0.370452880859375
249815500.0 0.454864501953125 -0.4340667724609375
254811000.0 0.4335784912109375 -0.481170654296875
259806500.0 0.3826904296875 -0.53802490234375
264802000.0 0.324127197265625 -0.589752197265625
269797500.0 0.257965087890625 -0.634765625
274793000.0 0.186309814453125 -0.671539306640625
279788500.0 0.108917236328125 -0.69964599609375
284784000.0 0.027923583984375 -0.718109130859375
289779500.0 -0.05584716796875 -0.727081298828125
294775000.0 -0.141326904296875 -0.725738525390625
299770500.0 -0.226348876953125 -0.714599609375
304766000.0 -0.310028076171875 -0.693084716796875
309761500.0 -0.3916015625 -0.661468505859375
314757000.0 -0.469512939453125 -0.620330810546875
319752500.0 -0.542724609375 -0.569732666015625
324748000.0 -0.61029052734375 -0.5111083984375
329743500.0 -0.672088623046875 -0.444732666015625
334739000.0 -0.726837158203125 -0.371124267578125
339734500.0 -0.773651123046875 -0.29083251953125
344730000.0 -0.811920166015625 -0.204986572265625
349725500.0 -0.84112548828125 -0.11383056640625
354721000.0 -0.8603515625 -0.0189208984375
359716500.0 -0.869049072265625 0.079193115234375
364712000.0 -0.86639404296875 0.179931640625
369707500.0 -0.852142333984375 0.28173828125
374703000.0 -0.825775146484375 0.3834228515625
379698500.0 -0.786651611328125 0.4833984375
384694000.0 -0.734527587890625 0.57977294921875
389689500.0 -0.670196533203125 0.670806884765625
394685000.0 -0.59381103515625 0.754364013671875
399680500.0 -0.50634765625 0.8292236328125
404676000.0 -0.408782958984375 0.893280029296875
409671500.0 -0.302703857421875 0.94561767578125
414667000.0 -0.190338134765625 0.983795166015625
419662500.0 -0.0728759765625 1.00732421875
424658000.0 0.047607421875 1.015869140625
429653500.0 0.1693115234375 1.00921630859375
434649000.0 0.288665771484375 0.985870361328125
439644500.0 0.4029541015625 0.9483642578125
444640000.0 0.510528564453125 0.898956298828125
449635500.0 0.611785888671875 0.838775634765625
454631000.0 0.70623779296875 0.768585205078125
459626500.0 0.792877197265625 0.687408447265625
464622000.0 0.869171142578125 0.596527099609375
469617500.0 0.9354248046875 0.498504638671875
474613000.0 0.990692138671875 0.39422607421875
479608500.0 1.03521728515625 0.2845458984375
484604000.0 1.06884765625 0.1700439453125
489599500.0 1.0904541015625 0.0517578125
494595000.0 1.10040283203125 -0.06964111328125
499590500.0 1.097412109375 -0.19281005859375
504586000.0 1.08172607421875 -0.31732177734375
509581500.0 1.05218505859375 -0.44183349609375
514577000.0 1.0078125 -0.565185546875
519572500.0 0.94830322265625 -0.685150146484375
524568000.0 0.87347412109375 -0.800506591796875
529563500.0 0.782806396484375 -0.908172607421875
534559000.0 0.67755126953125 -1.0052490234375
539554500.0 0.55816650390625 -1.08935546875
544550000.0 0.42816162109375 -1.15765380859375
549545500.0 0.28863525390625 -1.20904541015625
554541000.0 0.14361572265625 -1.24285888671875
559536500.0 -0.00494384765625 -1.2576904296875
564532000.0 -0.15472412109375 -1.254150390625
569527500.0 -0.30291748046875 -1.23175048828125
574523000.0 -0.44744873046875 -1.1907958984375
579518500.0 -0.5850830078125 -1.13299560546875
584514000.0 -0.7137451171875 -1.05902099609375
589509500.0 -0.832244873046875 -0.970428466796875
594505000.0 -0.938385009765625 -0.8692626953125
599500500.0 -1.03118896484375 -0.7576904296875
604496000.0 -1.11090087890625 -0.63751220703125
609491500.0 -1.1763916015625 -0.51055908203125
614487000.0 -1.2276611328125 -0.3787841796875
619482500.0 -1.264892578125 -0.24298095703125
624478000.0 -1.28851318359375 -0.10479736328125
629473500.0 -1.29840087890625 0.03509521484375
634469000.0 -1.2943115234375 0.17572021484375
639464500.0 -1.27691650390625 0.3165283203125
644460000.0 -1.24530029296875 0.45623779296875
649455500.0 -1.19903564453125 0.59454345703125
654451000.0 -1.13848876953125 0.729736328125
659446500.0 -1.0631103515625 0.86083984375
664442000.0 -0.971466064453125 0.9864501953125
669437500.0 -0.86431884765625 1.10418701171875
674433000.0 -0.740966796875 1.21173095703125
679428500.0 -0.60198974609375 1.3065185546875
684424000.0 -0.448974609375 1.385498046875
689419500.0 -0.282958984375 1.4454345703125
694415000.0 -0.10723876953125 1.483642578125
699410500.0 0.075439453125 1.49835205078125
704406000.0 0.260498046875 1.488037109375
709401500.0 0.44384765625 1.45172119140625
714397000.0 0.62078857421875 1.39068603515625
719392500.0 0.78778076171875 1.3057861328125
724388000.0 0.94097900390625 1.2003173828125
729383500.0 1.077392578125 1.076171875
734379000.0 1.194091796875 0.93621826171875
739374500.0 1.29119873046875 0.78619384765625
744370000.0 1.3668212890625 0.62664794921875
749365500.0 1.42315673828125 0.4635009765625
754361000.0 1.4599609375 0.29840087890625
759356500.0 1.47747802734375 0.1329345703125
764352000.0 1.47784423828125 -0.030517578125
769347500.0 1.4615478515625 -0.1910400390625
774343000.0 1.42950439453125 -0.347412109375
779338500.0 1.382568359375 -0.49859619140625
784334000.0 1.3232421875 -0.643798828125
789329500.0 1.24957275390625 -0.78314208984375
794325000.0 1.16326904296875 -0.915283203125
799320500.0 1.0635986328125 -1.0391845703125
804316000.0 0.95123291015625 -1.1544189453125
809311500.0 0.82659912109375 -1.259765625
814307000.0 0.68988037109375 -1.35357666015625
819302500.0 0.54095458984375 -1.43377685546875
824298000.0 0.38037109375 -1.49810791015625
829293500.0 0.21142578125 -1.5462646484375
834289000.0 0.03326416015625 -1.57293701171875
839284500.0 -0.1502685546875 -1.58001708984375
844280000.0 -0.27099609375 -1.5977783203125
849275500.0 -0.46051025390625 -1.56573486328125
854271000.0 -0.64581298828125 -1.50860595703125
859266500.0 -0.8233642578125 -1.42791748046875
864262000.0 -0.9893798828125 -1.32330322265625
869257500.0 -1.139892578125 -1.1981201171875
874253000.0 -1.273193359375 -1.05584716796875
879248500.0 -1.38653564453125 -0.89825439453125
884244000.0 -1.47882080078125 -0.73016357421875
889239500.0 -1.54888916015625 -0.55401611328125
894235000.0 -1.5972900390625 -0.37322998046875
899230500.0 -1.624755859375 -0.19061279296875
904226000.0 -1.6317138671875 -0.00750732421875
909221500.0 -1.61883544921875 0.173828125
914217000.0 -1.5858154296875 0.35125732421875
919212500.0 -1.53460693359375 0.52197265625
924208000.0 -1.4664306640625 0.68463134765625
929203500.0 -1.383544921875 0.83770751953125
934199000.0 -1.286865234375 0.98095703125
939194500.0 -1.17681884765625 1.1146240234375
944190000.0 -1.05487060546875 1.237548828125
949185500.0 -0.92041015625 1.34881591796875
954181000.0 -0.77490234375 1.447998046875
959176500.0 -0.6181640625 1.53338623046875
964172000.0 -0.45050048828125 1.60357666015625
969167500.0 -0.2728271484375 1.65716552734375
974163000.0 -0.0860595703125 1.691162109375
979158500.0 0.10662841796875 1.70452880859375
984154000.0 0.303466796875 1.694580078125
989149500.0 0.50201416015625 1.66064453125
994145000.0 0.6976318359375 1.60125732421875
999140500.0 0.88818359375 1.516357421875
1004136000.0 1.0662841796875 1.4063720703125
1009131500.0 1.230712890625 1.273193359375
1014127000.0 1.37664794921875 1.1182861328125
1019122500.0 1.5010986328125 0.94610595703125
1024118000.0 1.60198974609375 0.75994873046875
1029113500.0 1.67633056640625 0.56353759765625
1034109000.0 1.7257080078125 0.361083984375
1039104500.0 1.74859619140625 0.15667724609375
1044100000.0 1.74749755859375 -0.04620361328125
1049095500.0 1.721923828125 -0.2440185546875
1054091000.0 1.67510986328125 -0.43499755859375
1059086500.0 1.608642578125 -0.61651611328125
1064082000.0 1.52447509765625 -0.7877197265625
1069077500.0 1.42376708984375 -0.94659423828125
1074073000.0 1.3089599609375 -1.09356689453125
1079068500.0 1.18096923828125 -1.227294921875
1084064000.0 1.04071044921875 -1.34661865234375
1089059500.0 0.88958740234375 -1.4517822265625
1094055000.0 0.72882080078125 -1.5426025390625
1099050500.0 0.5582275390625 -1.61688232421875
1104046000.0 0.3797607421875 -1.67413330078125
1109041500.0 0.1947021484375 -1.71282958984375
1114037000.0 0.00335693359375 -1.7322998046875
1119032500.0 -0.191162109375 -1.730712890625
1124028000.0 -0.38702392578125 -1.70758056640625
1129023500.0 -0.581787109375 -1.660888671875
1134019000.0 -0.773193359375 -1.59088134765625
1139014500.0 -0.956787109375 -1.49700927734375
1144010000.0 -1.129638671875 -1.38006591796875
1149005500.0 -1.28790283203125 -1.24078369140625
1154001000.0 -1.4287109375 -1.0819091796875
1158996500.0 -1.54815673828125 -0.9058837890625
1163992000.0 -1.643798828125 -0.71502685546875
1168987500.0 -1.71453857421875 -0.51385498046875
1173983000.0 -1.7589111328125 -0.30596923828125
1178978500.0 -1.77569580078125 -0.09576416015625
1183974000.0 -1.7664794921875 0.11260986328125
1188969500.0 -1.7320556640625 0.31646728515625
1193965000.0 -1.6739501953125 0.5107421875
1198960500.0 -1.59405517578125 0.69439697265625
1203956000.0 -1.495361328125 0.865234375
1208951500.0 -1.37908935546875 1.020751953125
1213947000.0 -1.2489013671875 1.160400390625
1218942500.0 -1.1058349609375 1.28363037109375
1223938000.0 -0.9527587890625 1.38995361328125
1228933500.0 -0.79193115234375 1.477294921875
1233929000.0 -0.625 1.54736328125
1238924500.0 -0.4522705078125 1.59991455078125
1243920000.0 -0.27691650390625 1.63433837890625
1248915500.0 -0.0997314453125 1.65203857421875
1253911000.0 0.07720947265625 1.6512451171875
1258906500.0 0.25421142578125 1.6331787109375
1263902000.0 0.4302978515625 1.59771728515625
1268897500.0 0.5986328125 1.5433349609375
1273893000.0 0.7626953125 1.4715576171875
1278888500.0 0.91986083984375 1.38311767578125
1283884000.0 1.068115234375 1.27703857421875
1288879500.0 1.20477294921875 1.15496826171875
1293875000.0 1.3280029296875 1.0179443359375
1298870500.0 1.43603515625 0.8665771484375
1303866000.0 1.5277099609375 0.7032470703125
1308861500.0 1.599853515625 0.5294189453125
1313857000.0 1.652587890625 0.34722900390625
1318852500.0 1.684326171875 0.1593017578125
1323848000.0 1.6944580078125 -0.0322265625
1328843500.0 1.68206787109375 -0.22344970703125
1333839000.0 1.6480712890625 -0.4132080078125
1338834500.0 1.5921630859375 -0.5982666015625
1343830000.0 1.51544189453125 -0.7757568359375
1348825500.0 1.41851806640625 -0.94403076171875
1353821000.0 1.30206298828125 -1.0997314453125
1358816500.0 1.1685791015625 -1.24176025390625
1363812000.0 1.01898193359375 -1.36749267578125
1368807500.0 0.85595703125 -1.474365234375
1373803000.0 0.68096923828125 -1.5623779296875
1378798500.0 0.497314453125 -1.6273193359375
1383794000.0 0.30731201171875 -1.67083740234375
1388789500.0 0.11419677734375 -1.6917724609375
1393785000.0 -0.0794677734375 -1.6890869140625
1398780500.0 -0.2701416015625 -1.66448974609375
1403776000.0 -0.4559326171875 -1.61737060546875
1408771500.0 -0.63323974609375 -1.55035400390625
1413767000.0 -0.80023193359375 -1.46282958984375
1418762500.0 -0.95489501953125 -1.358642578125
1423758000.0 -1.095458984375 -1.23919677734375
1428753500.0 -1.22052001953125 -1.10589599609375
1433749000.0 -1.32958984375 -0.96099853515625
1438744500.0 -1.42144775390625 -0.807373046875
1443740000.0 -1.49609375 -0.646240234375
1448735500.0 -1.55328369140625 -0.4793701171875
1453731000.0 -1.593505859375 -0.30816650390625
1458726500.0 -1.6156005859375 -0.1346435546875
1463722000.0 -1.62030029296875 0.0400390625
1468717500.0 -1.60736083984375 0.21435546875
1473713000.0 -1.576904296875 0.38720703125
1478708500.0 -1.529052734375 0.55712890625
1483704000.0 -1.46331787109375 0.7225341796875
1488699500.0 -1.3798828125 0.88232421875
1493695000.0 -1.27899169921875 1.0335693359375
1498690500.0 -1.160400390625 1.17449951171875
1503686000.0 -1.0252685546875 1.30316162109375
1508681500.0 -0.873779296875 1.417724609375
1513677000.0 -0.7078857421875 1.51434326171875
1518672500.0 -0.52911376953125 1.59124755859375
1523668000.0 -0.3402099609375 1.64678955078125
1528663500.0 -0.14471435546875 1.677001953125
1533659000.0 0.0538330078125 1.68243408203125
1538654500.0 0.25238037109375 1.6622314453125
1543650000.0 0.44580078125 1.6158447265625
1548645500.0 0.63092041015625 1.54638671875
1553641000.0 0.8037109375 1.4541015625
1558636500.0 0.961181640625 1.3419189453125
1563632000.0 1.10137939453125 1.21282958984375
1568627500.0 1.2225341796875 1.07025146484375
1573623000.0 1.324462890625 0.917236328125
1578618500.0 1.40618896484375 0.75653076171875
1583614000.0 1.46820068359375 0.59136962890625
1588609500.0 1.5111083984375 0.423828125
1593605000.0 1.5355224609375 0.2557373046875
1598600500.0 1.5428466796875 0.089599609375
1603596000.0 1.533203125 -0.0740966796875
1608591500.0 1.50848388671875 -0.23419189453125
1613587000.0 1.46929931640625 -0.38922119140625
1618582500.0 1.41571044921875 -0.5391845703125
1623578000.0 1.34881591796875 -0.6826171875
1628573500.0 1.26837158203125 -0.81878662109375
1633569000.0 1.17523193359375 -0.94769287109375
1638564500.0 1.06939697265625 -1.06787109375
1643560000.0 0.95208740234375 -1.17755126953125
1648555500.0 0.8221435546875 -1.27581787109375
1653551000.0 0.68133544921875 -1.361328125
1658546500.0 0.5299072265625 -1.43182373046875
1663542000.0 0.3701171875 -1.48602294921875
1668537500.0 0.202880859375 -1.52239990234375
1673533000.0 0.0308837890625 -1.53839111328125
1678528500.0 -0.14373779296875 -1.53466796875
1683524000.0 -0.3172607421875 -1.5089111328125
1688519500.0 -0.48724365234375 -1.46148681640625
1693515000.0 -0.65045166015625 -1.39300537109375
1698510500.0 -0.80224609375 -1.3060302734375
1703506000.0 -0.941162109375 -1.20196533203125
1708501500.0 -1.06488037109375 -1.082275390625
1713497000.0 -1.1722412109375 -0.95074462890625
1718492500.0 -1.26177978515625 -0.80999755859375
1723488000.0 -1.3336181640625 -0.66259765625
1728483500.0 -1.387939453125 -0.51116943359375
1733479000.0 -1.42510986328125 -0.35809326171875
1738474500.0 -1.44622802734375 -0.20428466796875
1743470000.0 -1.45263671875 -0.052001953125
1748465500.0 -1.44384765625 0.098388671875
1753461000.0 -1.42193603515625 0.2452392578125
1758456500.0 -1.38763427734375 0.3892822265625
1763452000.0 -1.34039306640625 0.52874755859375
1768447500.0 -1.28082275390625 0.66436767578125
1773443000.0 -1.20904541015625 0.79449462890625
1778438500.0 -1.1246337890625 0.91949462890625
1783434000.0 -1.02789306640625 1.0372314453125
1788429500.0 -0.9183349609375 1.1470947265625
1793425000.0 -0.79547119140625 1.2467041015625
1798420500.0 -0.6607666015625 1.33544921875
1803416000.0 -0.5128173828125 1.41094970703125
1808411500.0 -0.35443115234375 1.46966552734375
1813407000.0 -0.186767578125 1.5101318359375
1818402500.0 -0.01239013671875 1.5299072265625
1823398000.0 0.16558837890625 1.52703857421875
1828393500.0 0.34326171875 1.50091552734375
1833389000.0 0.5174560546875 1.45184326171875
1838384500.0 0.6834716796875 1.37994384765625
1843380000.0 0.8380126953125 1.2874755859375
1848375500.0 0.9781494140625 1.176513671875
1853371000.0 1.10113525390625 1.050048828125
1858366500.0 1.20513916015625 0.9119873046875
1863362000.0 1.29058837890625 0.7646484375
1868357500.0 1.357177734375 0.6123046875
1873353000.0 1.4046630859375 0.45721435546875
1878348500.0 1.4346923828125 0.3011474609375
1883344000.0 1.4483642578125 0.14630126953125
1888339500.0 1.44732666015625 -0.00634765625
1893335000.0 1.4315185546875 -0.15533447265625
1898330500.0 1.40264892578125 -0.30023193359375
1903326000.0 1.3616943359375 -0.4412841796875
1908321500.0 1.30853271484375 -0.57684326171875
1913317000.0 1.24407958984375 -0.707763671875
1918312500.0 1.16815185546875 -0.8333740234375
1923308000.0 1.07977294921875 -0.95220947265625
1928303500.0 0.98040771484375 -1.06451416015625
1933299000.0 0.86822509765625 -1.16790771484375
1938294500.0 0.74462890625 -1.26165771484375
1943290000.0 0.609130859375 -1.34393310546875
1948285500.0 0.4620361328125 -1.41302490234375
1953281000.0 0.30535888671875 -1.4649658203125
1958276500.0 0.14019775390625 -1.50067138671875
1963272000.0 -0.03082275390625 -1.51580810546875
1968267500.0 -0.20458984375 -1.509033203125
1973263000.0 -0.37872314453125 -1.48138427734375
1978258500.0 -0.54852294921875 -1.43048095703125
1983254000.0 -0.71148681640625 -1.358154296875
1988249500.0 -0.86383056640625 -1.265869140625
1993245000.0 -1.0015869140625 -1.15478515625
1998240500.0 -1.1241455078125 -1.0286865234375
2003236000.0 -1.22833251953125 -0.890380859375
2008231500.0 -1.31402587890625 -0.74261474609375
2013227000.0 -1.38104248046875 -0.588134765625
2018222500.0 -1.428955078125 -0.429931640625
2023218000.0 -1.45904541015625 -0.26995849609375
2028213500.0 -1.4722900390625 -0.11065673828125
2033209000.0 -1.468505859375 0.0467529296875
2038204500.0 -1.45025634765625 0.20166015625
2043200000.0 -1.41656494140625 0.35223388671875
2048195500.0 -1.36865234375 0.49847412109375
2053191000.0 -1.307373046875 0.63873291015625
2058186500.0 -1.233154296875 0.7723388671875
2063182000.0 -1.14581298828125 0.8984375
2068177500.0 -1.04620361328125 1.0159912109375
2073173000.0 -0.9346923828125 1.12335205078125
2078168500.0 -0.81097412109375 1.22039794921875
2083164000.0 -0.67724609375 1.30419921875
2088159500.0 -0.533203125 1.37506103515625
2093155000.0 -0.381103515625 1.428955078125
2098150500.0 -0.2222900390625 1.4659423828125
2103146000.0 -0.058837890625 1.4849853515625
2108141500.0 0.1068115234375 1.484619140625
2113137000.0 0.271728515625 1.4647216796875
2118132500.0 0.433349609375 1.4249267578125
2123128000.0 0.58892822265625 1.36663818359375
2128123500.0 0.7364501953125 1.29052734375
2133119000.0 0.87225341796875 1.19873046875
2138114500.0 0.9957275390625 1.0921630859375
2143110000.0 1.10577392578125 0.9735107421875
2148105500.0 1.2003173828125 0.8453369140625
2153101000.0 1.2794189453125 0.7088623046875
2158096500.0 1.34356689453125 0.56695556640625
2163092000.0 1.3917236328125 0.4207763671875
2168087500.0 1.42535400390625 0.27203369140625
2173083000.0 1.44384765625 0.12176513671875
2178078500.0 1.44775390625 -0.0283203125
2183074000.0 1.43817138671875 -0.1783447265625
2188069500.0 1.4140625 -0.32659912109375
