!Created with skrf (http://scikit-rf.org).
# Hz S RI R 50.0 
!freq ReS11 ImS11
45000000.0 -0.0037505626678466797 -0.0008653402328491211
49995500.0 -0.00405573844909668 -0.0005502700805664062
54991000.0 -0.00439906120300293 6.461143493652344e-05
59986500.0 -0.00465083122253418 0.00032520294189453125
64982000.0 -0.0047724246978759766 0.0008053779602050781
69977500.0 -0.00478363037109375 0.0012993812561035156
74973000.0 -0.004881858825683594 0.0019714832305908203
79968500.0 -0.004752397537231445 0.002531766891479492
84964000.0 -0.004643917083740234 0.003134012222290039
89959500.0 -0.0044972896575927734 0.0037763118743896484
94955000.0 -0.004191875457763672 0.0043375492095947266
99950500.0 -0.003794431686401367 0.004878520965576172
104946000.0 -0.0032188892364501953 0.00547337532043457
109941500.0 -0.00269317626953125 0.0059697628021240234
114937000.0 -0.0020394325256347656 0.006326436996459961
119932500.0 -0.001268625259399414 0.006738901138305664
124928000.0 -0.0005636215209960938 0.0068209171295166016
129923500.0 0.00015115737915039062 0.007044553756713867
134919000.0 0.0010471343994140625 0.0071375370025634766
139914500.0 0.0018606185913085938 0.0070056915283203125
144910000.0 0.0026710033416748047 0.0069277286529541016
149905500.0 0.0035076141357421875 0.00671839714050293
154901000.0 0.004404783248901367 0.006322145462036133
159896500.0 0.0050601959228515625 0.005945444107055664
164892000.0 0.005791902542114258 0.005461692810058594
169887500.0 0.006464242935180664 0.0048482418060302734
174883000.0 0.007085323333740234 0.0041980743408203125
179878500.0 0.007574558258056641 0.003431081771850586
184874000.0 0.007997512817382812 0.002552509307861328
189869500.0 0.008357048034667969 0.0016627311706542969
194865000.0 0.008636474609375 0.0007448196411132812
199860500.0 0.008739471435546875 -0.00015211105346679688
204856000.0 0.00885152816772461 -0.00113677978515625
209851500.0 0.008783340454101562 -0.0021767616271972656
214847000.0 0.00849294662475586 -0.0031604766845703125
219842500.0 0.008304119110107422 -0.003978252410888672
224838000.0 0.007861614227294922 -0.004963874816894531
229833500.0 0.007370710372924805 -0.005910396575927734
234829000.0 0.006762504577636719 -0.00675511360168457
239824500.0 0.006103038787841797 -0.007470369338989258
244820000.0 0.005255699157714844 -0.008157730102539062
249815500.0 0.004410266876220703 -0.008827686309814453
254811000.0 0.003991603851318359 -0.009250164031982422
259806500.0 0.0029706954956054688 -0.00991201400756836
264802000.0 0.0019383430480957031 -0.010004997253417969
269797500.0 0.0008301734924316406 -0.010378360748291016
274793000.0 -0.00017499923706054688 -0.010567188262939453
279788500.0 -0.0013780593872070312 -0.010585308074951172
284784000.0 -0.002502918243408203 -0.010444164276123047
289779500.0 -0.0035910606384277344 -0.010179996490478516
294775000.0 -0.0046291351318359375 -0.009877681732177734
299770500.0 -0.005812644958496094 -0.009370803833007812
304766000.0 -0.0068206787109375 -0.008780479431152344
309761500.0 -0.007775783538818359 -0.008198261260986328
314757000.0 -0.008647441864013672 -0.0074062347412109375
319752500.0 -0.009493350982666016 -0.006428241729736328
324748000.0 -0.010173320770263672 -0.005564689636230469
329743500.0 -0.010753154754638672 -0.004357337951660156
334739000.0 -0.011299610137939453 -0.003196239471435547
339734500.0 -0.011578083038330078 -0.00203704833984375
344730000.0 -0.011940479278564453 -0.0007047653198242188
349725500.0 -0.011954307556152344 0.0005216598510742188
354721000.0 -0.01189565658569336 0.0017590522766113281
359716500.0 -0.011760234832763672 0.003024578094482422
364712000.0 -0.011450767517089844 0.004412174224853516
369707500.0 -0.011095523834228516 0.005561351776123047
374703000.0 -0.010396003723144531 0.006768226623535156
379698500.0 -0.009693622589111328 0.007987499237060547
384694000.0 -0.00882101058959961 0.00902557373046875
389689500.0 -0.007912158966064453 0.009832382202148438
394685000.0 -0.006753444671630859 0.01074361801147461
399680500.0 -0.0056209564208984375 0.01148843765258789
404676000.0 -0.004378795623779297 0.012000083923339844
409671500.0 -0.0030412673950195312 0.012468814849853516
414667000.0 -0.0017933845520019531 0.012943744659423828
419662500.0 -0.00040435791015625 0.013087749481201172
424658000.0 0.0009188652038574219 0.013066291809082031
429653500.0 0.0024318695068359375 0.012951850891113281
434649000.0 0.0037889480590820312 0.012573719024658203
439644500.0 0.005027294158935547 0.012194156646728516
444640000.0 0.006444454193115234 0.011631011962890625
449635500.0 0.007583141326904297 0.011075973510742188
454631000.0 0.008794307708740234 0.010132312774658203
459626500.0 0.009798526763916016 0.009202003479003906
464622000.0 0.010809898376464844 0.008188724517822266
469617500.0 0.011558055877685547 0.0070247650146484375
474613000.0 0.012351512908935547 0.005757808685302734
479608500.0 0.012911319732666016 0.004334926605224609
484604000.0 0.013309955596923828 0.002982616424560547
489599500.0 0.013643741607666016 0.0016198158264160156
494595000.0 0.013806343078613281 0.00022459030151367188
499590500.0 0.013737201690673828 -0.0012583732604980469
504586000.0 0.013544559478759766 -0.0027132034301757812
509581500.0 0.013265609741210938 -0.004158496856689453
514577000.0 0.012822151184082031 -0.005526065826416016
519572500.0 0.012220382690429688 -0.006688594818115234
524568000.0 0.011452674865722656 -0.008023262023925781
529563500.0 0.010607719421386719 -0.009197235107421875
534559000.0 0.009608268737792969 -0.010165214538574219
539554500.0 0.00850057601928711 -0.011127948760986328
544550000.0 0.007348060607910156 -0.011937141418457031
549545500.0 0.006187915802001953 -0.012637615203857422
554541000.0 0.004948139190673828 -0.013182640075683594
559536500.0 0.0036258697509765625 -0.013650894165039062
564532000.0 0.0021791458129882812 -0.014050483703613281
569527500.0 0.0007715225219726562 -0.01436758041381836
574523000.0 -0.0007214546203613281 -0.014332771301269531
579518500.0 -0.002167224884033203 -0.014342308044433594
584514000.0 -0.0036482810974121094 -0.01409149169921875
589509500.0 -0.0050754547119140625 -0.013654232025146484
594505000.0 -0.0064334869384765625 -0.013226032257080078
599500500.0 -0.007865428924560547 -0.012420177459716797
604496000.0 -0.00897836685180664 -0.01163482666015625
609491500.0 -0.010274887084960938 -0.010676860809326172
614487000.0 -0.011362552642822266 -0.009579181671142578
619482500.0 -0.012310028076171875 -0.008408546447753906
624478000.0 -0.01313924789428711 -0.007159233093261719
629473500.0 -0.013920307159423828 -0.005780220031738281
634469000.0 -0.01449728012084961 -0.004423618316650391
639464500.0 -0.01483774185180664 -0.003010272979736328
644460000.0 -0.015149116516113281 -0.00133514404296875
649455500.0 -0.015179634094238281 0.000164031982421875
654451000.0 -0.015080451965332031 0.0017113685607910156
659446500.0 -0.014914512634277344 0.0032138824462890625
664442000.0 -0.014583110809326172 0.004644870758056641
669437500.0 -0.014040470123291016 0.006206512451171875
674433000.0 -0.013493537902832031 0.007529258728027344
679428500.0 -0.01257944107055664 0.00891733169555664
684424000.0 -0.011677742004394531 0.010175704956054688
689419500.0 -0.010653018951416016 0.011309146881103516
694415000.0 -0.009489059448242188 0.01236581802368164
699410500.0 -0.008220672607421875 0.01318502426147461
704406000.0 -0.006793498992919922 0.014023780822753906
709401500.0 -0.00543212890625 0.014681816101074219
714397000.0 -0.003915309906005859 0.015157222747802734
719392500.0 -0.0023174285888671875 0.015521049499511719
724388000.0 -0.0008497238159179688 0.015801429748535156
729383500.0 0.000728607177734375 0.015748023986816406
734379000.0 0.0022611618041992188 0.015636444091796875
739374500.0 0.0038819313049316406 0.015450477600097656
744370000.0 0.005331516265869141 0.0149993896484375
749365500.0 0.0068302154541015625 0.014392852783203125
754361000.0 0.008251667022705078 0.013720035552978516
759356500.0 0.009539604187011719 0.012877464294433594
764352000.0 0.010904312133789062 0.011855602264404297
769347500.0 0.012050628662109375 0.010764122009277344
774343000.0 0.0130157470703125 0.009618759155273438
779338500.0 0.013884544372558594 0.008208274841308594
784334000.0 0.01473855972290039 0.006796360015869141
789329500.0 0.015260696411132812 0.005371570587158203
794325000.0 0.01582813262939453 0.0038175582885742188
799320500.0 0.016229629516601562 0.00238800048828125
804316000.0 0.01631450653076172 0.0006666183471679688
809311500.0 0.016358375549316406 -0.000926971435546875
814307000.0 0.016313552856445312 -0.0025377273559570312
819302500.0 0.01591014862060547 -0.004137992858886719
824298000.0 0.01548910140991211 -0.005619525909423828
829293500.0 0.01487874984741211 -0.007130146026611328
834289000.0 0.01416158676147461 -0.008554458618164062
839284500.0 0.013326168060302734 -0.009856224060058594
844280000.0 0.012969493865966797 -0.010741233825683594
849275500.0 0.011970996856689453 -0.011915206909179688
854271000.0 0.01072549819946289 -0.013116836547851562
859266500.0 0.0093994140625 -0.014071941375732422
864262000.0 0.008159637451171875 -0.014982223510742188
869257500.0 0.00664520263671875 -0.015702247619628906
874253000.0 0.0050983428955078125 -0.016330718994140625
879248500.0 0.0036096572875976562 -0.01680755615234375
884244000.0 0.00200653076171875 -0.01707172393798828
889239500.0 0.0003910064697265625 -0.01726818084716797
894235000.0 -0.0012969970703125 -0.017273902893066406
899230500.0 -0.002887725830078125 -0.017192840576171875
904226000.0 -0.004527091979980469 -0.017011642456054688
909221500.0 -0.006176948547363281 -0.016576766967773438
914217000.0 -0.007803916931152344 -0.015926361083984375
919212500.0 -0.009383201599121094 -0.015199661254882812
924208000.0 -0.010905742645263672 -0.014395713806152344
929203500.0 -0.012291431427001953 -0.013278007507324219
934199000.0 -0.013593673706054688 -0.012042999267578125
939194500.0 -0.014686107635498047 -0.01084280014038086
944190000.0 -0.01566600799560547 -0.009440422058105469
949185500.0 -0.01675701141357422 -0.007763862609863281
954181000.0 -0.01750946044921875 -0.006243705749511719
959176500.0 -0.018134117126464844 -0.004523277282714844
964172000.0 -0.018466949462890625 -0.0027647018432617188
969167500.0 -0.018754959106445312 -0.0011091232299804688
974163000.0 -0.018941879272460938 0.0008878707885742188
979158500.0 -0.018731117248535156 0.0026388168334960938
984154000.0 -0.0184326171875 0.0044612884521484375
989149500.0 -0.01807117462158203 0.006262779235839844
994145000.0 -0.017439842224121094 0.008028984069824219
999140500.0 -0.016783714294433594 0.009702682495117188
1004136000.0 -0.0156707763671875 0.011310577392578125
1009131500.0 -0.014678001403808594 0.012622833251953125
1014127000.0 -0.013339996337890625 0.014303207397460938
1019122500.0 -0.012006759643554688 0.01562976837158203
1024118000.0 -0.010488510131835938 0.016798019409179688
1029113500.0 -0.008977890014648438 0.017766952514648438
1034109000.0 -0.007067680358886719 0.018578529357910156
1039104500.0 -0.0053615570068359375 0.01941394805908203
1044100000.0 -0.0034265518188476562 0.0198974609375
1049095500.0 -0.0015201568603515625 0.020227432250976562
1054091000.0 0.00048828125 0.02030467987060547
1059086500.0 0.0024766921997070312 0.02031707763671875
1064082000.0 0.00439453125 0.020127296447753906
1069077500.0 0.006361961364746094 0.019705772399902344
1074073000.0 0.008222579956054688 0.01897144317626953
1079068500.0 0.010302543640136719 0.018194198608398438
1084064000.0 0.011991500854492188 0.01720905303955078
1089059500.0 0.013714790344238281 0.016103744506835938
1094055000.0 0.015216827392578125 0.01474142074584961
1099050500.0 0.016767501831054688 0.013181686401367188
1104046000.0 0.01792621612548828 0.011755943298339844
1109041500.0 0.019120216369628906 0.009903907775878906
1114037000.0 0.020059585571289062 0.008120536804199219
1119032500.0 0.020868301391601562 0.006054878234863281
1124028000.0 0.021439552307128906 0.0039730072021484375
1129023500.0 0.021818161010742188 0.0018663406372070312
1134019000.0 0.02199840545654297 -0.00031948089599609375
1139014500.0 0.022016525268554688 -0.0023899078369140625
1144010000.0 0.02177715301513672 -0.0046329498291015625
1149005500.0 0.02130413055419922 -0.0067882537841796875
1154001000.0 0.020674705505371094 -0.008978843688964844
1158996500.0 0.019700050354003906 -0.010832786560058594
1163992000.0 0.018738746643066406 -0.012770652770996094
1168987500.0 0.01751708984375 -0.014597892761230469
1173983000.0 0.015936851501464844 -0.01639556884765625
1178978500.0 0.014398574829101562 -0.017972946166992188
1183974000.0 0.012631416320800781 -0.019377708435058594
1188969500.0 0.010706901550292969 -0.020544052124023438
1193965000.0 0.008640289306640625 -0.021712303161621094
1198960500.0 0.006571769714355469 -0.022339820861816406
1203956000.0 0.004384040832519531 -0.023038864135742188
1208951500.0 0.0020360946655273438 -0.02343463897705078
1213947000.0 -0.000255584716796875 -0.02358722686767578
1218942500.0 -0.0025615692138671875 -0.023462295532226562
1223938000.0 -0.004839897155761719 -0.023224830627441406
1228933500.0 -0.0070858001708984375 -0.02270221710205078
1233929000.0 -0.009252548217773438 -0.02205181121826172
1238924500.0 -0.011445999145507812 -0.021097183227539062
1243920000.0 -0.013486862182617188 -0.01998615264892578
1248915500.0 -0.015520095825195312 -0.01862049102783203
1253911000.0 -0.017377853393554688 -0.0171356201171875
1258906500.0 -0.0190582275390625 -0.015422821044921875
1263902000.0 -0.020477294921875 -0.013566017150878906
1268897500.0 -0.02176952362060547 -0.011698722839355469
1273893000.0 -0.02294635772705078 -0.009537696838378906
1278888500.0 -0.0238800048828125 -0.007237434387207031
1283884000.0 -0.02464008331298828 -0.005045890808105469
1288879500.0 -0.025051116943359375 -0.0024671554565429688
1293875000.0 -0.025394439697265625 -7.2479248046875e-05
1298870500.0 -0.025394439697265625 0.0023984909057617188
1303866000.0 -0.0251922607421875 0.004813194274902344
1308861500.0 -0.024669647216796875 0.007496833801269531
1313857000.0 -0.023937225341796875 0.009900093078613281
1318852500.0 -0.02295207977294922 0.012226104736328125
1323848000.0 -0.021790504455566406 0.014588356018066406
1328843500.0 -0.020300865173339844 0.01668834686279297
1333839000.0 -0.01862049102783203 0.018779754638671875
1338834500.0 -0.01674652099609375 0.020612716674804688
1343830000.0 -0.014801025390625 0.022211074829101562
1348825500.0 -0.012514114379882812 0.02376079559326172
1353821000.0 -0.010073661804199219 0.024939537048339844
1358816500.0 -0.0076446533203125 0.02593231201171875
1363812000.0 -0.005161285400390625 0.026688575744628906
1368807500.0 -0.002399444580078125 0.027036666870117188
1373803000.0 0.00021648406982421875 0.02739715576171875
1378798500.0 0.0030193328857421875 0.027345657348632812
1383794000.0 0.005694389343261719 0.027062416076660156
1388789500.0 0.008382797241210938 0.02651214599609375
1393785000.0 0.0110626220703125 0.025472640991210938
1398780500.0 0.013649940490722656 0.024440765380859375
1403776000.0 0.016016006469726562 0.023067474365234375
1408771500.0 0.018335342407226562 0.021483421325683594
1413767000.0 0.02045917510986328 0.01960468292236328
1418762500.0 0.022356033325195312 0.017518997192382812
1423758000.0 0.024222373962402344 0.0151824951171875
1428753500.0 0.02566814422607422 0.012793540954589844
1433749000.0 0.026971817016601562 0.010127067565917969
1438744500.0 0.027751922607421875 0.007533073425292969
1443740000.0 0.028520584106445312 0.004769325256347656
1448735500.0 0.029006004333496094 0.0019178390502929688
1453731000.0 0.029006004333496094 -0.00109100341796875
1458726500.0 0.028959274291992188 -0.003981590270996094
1463722000.0 0.02846813201904297 -0.006960868835449219
1468717500.0 0.02776622772216797 -0.009633064270019531
1473713000.0 0.02669811248779297 -0.012434959411621094
1478708500.0 0.02542591094970703 -0.015027999877929688
1483704000.0 0.023855209350585938 -0.01762104034423828
1488699500.0 0.02196502685546875 -0.019863128662109375
1493695000.0 0.019899368286132812 -0.02209186553955078
1498690500.0 0.01771259307861328 -0.023901939392089844
1503686000.0 0.015278816223144531 -0.02576923370361328
1508681500.0 0.01258087158203125 -0.027115821838378906
1513677000.0 0.009759902954101562 -0.028352737426757812
1518672500.0 0.0069141387939453125 -0.029186248779296875
1523668000.0 0.004055976867675781 -0.02984142303466797
1528663500.0 0.001178741455078125 -0.030106544494628906
1533659000.0 -0.0018873214721679688 -0.0301055908203125
1538654500.0 -0.00492095947265625 -0.029903411865234375
1543650000.0 -0.007914543151855469 -0.029132843017578125
1548645500.0 -0.010691642761230469 -0.028426170349121094
1553641000.0 -0.013498306274414062 -0.02711772918701172
1558636500.0 -0.01623249053955078 -0.02571582794189453
1563632000.0 -0.018785476684570312 -0.02396392822265625
1568627500.0 -0.021024703979492188 -0.022017478942871094
1573623000.0 -0.023004531860351562 -0.019927024841308594
1578618500.0 -0.025054931640625 -0.017549514770507812
1583614000.0 -0.02661609649658203 -0.01496124267578125
1588609500.0 -0.02806568145751953 -0.012233734130859375
1593605000.0 -0.02905559539794922 -0.009485244750976562
1598600500.0 -0.029958724975585938 -0.006468772888183594
1603596000.0 -0.030426025390625 -0.0035762786865234375
1608591500.0 -0.0305633544921875 -0.000553131103515625
1613587000.0 -0.030544281005859375 0.002460479736328125
1618582500.0 -0.03012561798095703 0.005417823791503906
1623578000.0 -0.029550552368164062 0.008219718933105469
1628573500.0 -0.028548240661621094 0.011228561401367188
1633569000.0 -0.02735424041748047 0.013915061950683594
1638564500.0 -0.02596569061279297 0.016576766967773438
1643560000.0 -0.02419757843017578 0.019011497497558594
1648555500.0 -0.022316932678222656 0.021268844604492188
1653551000.0 -0.020055770874023438 0.023360252380371094
1658546500.0 -0.017742156982421875 0.025254249572753906
1663542000.0 -0.015267372131347656 0.026900291442871094
1668537500.0 -0.012628555297851562 0.028306961059570312
1673533000.0 -0.009707450866699219 0.029432296752929688
1678528500.0 -0.0068511962890625 0.030350685119628906
1683524000.0 -0.00388336181640625 0.03094959259033203
1688519500.0 -0.0008630752563476562 0.0311737060546875
1693515000.0 0.0023012161254882812 0.03117084503173828
1698510500.0 0.00537109375 0.030890464782714844
1703506000.0 0.008389472961425781 0.030211448669433594
1708501500.0 0.011334419250488281 0.02925586700439453
1713497000.0 0.014093399047851562 0.02813243865966797
1718492500.0 0.01685047149658203 0.026515960693359375
1723488000.0 0.019483566284179688 0.02479839324951172
1728483500.0 0.021811485290527344 0.02288055419921875
1733479000.0 0.023984909057617188 0.02062702178955078
1738474500.0 0.025987625122070312 0.01814556121826172
1743470000.0 0.02758026123046875 0.015568733215332031
1748465500.0 0.02904510498046875 0.012749671936035156
1753461000.0 0.030168533325195312 0.009878158569335938
1758456500.0 0.031105995178222656 0.0068187713623046875
1763452000.0 0.031513214111328125 0.0037136077880859375
1768447500.0 0.03187370300292969 0.0005970001220703125
1773443000.0 0.03174781799316406 -0.0025577545166015625
1778438500.0 0.031402587890625 -0.0057506561279296875
1783434000.0 0.03073406219482422 -0.008803367614746094
1788429500.0 0.029534339904785156 -0.011684417724609375
1793425000.0 0.02834796905517578 -0.014641761779785156
1798420500.0 0.02675151824951172 -0.017385482788085938
1803416000.0 0.024939537048339844 -0.019989013671875
1808411500.0 0.022907257080078125 -0.022324562072753906
1813407000.0 0.020519256591796875 -0.024364471435546875
1818402500.0 0.018181800842285156 -0.026291847229003906
1823398000.0 0.015390396118164062 -0.027975082397460938
1828393500.0 0.012598991394042969 -0.029287338256835938
1833389000.0 0.009650230407714844 -0.030431747436523438
1838384500.0 0.006682395935058594 -0.03115081787109375
1843380000.0 0.0034046173095703125 -0.03175926208496094
