!Created with skrf (http://scikit-rf.org).
# Hz S RI R 50.0 
!freq ReS11 ImS11
45000000.0 -0.0813751220703125 -0.09290695190429688
49995500.0 -0.102142333984375 -0.089019775390625
54991000.0 -0.12242507934570312 -0.0806427001953125
59986500.0 -0.1405487060546875 -0.0784454345703125
64982000.0 -0.159393310546875 -0.06949615478515625
69977500.0 -0.17777252197265625 -0.05489349365234375
74973000.0 -0.19518280029296875 -0.03749847412109375
79968500.0 -0.21050262451171875 -0.01671600341796875
84964000.0 -0.22394561767578125 0.00719451904296875
89959500.0 -0.23465728759765625 0.03398895263671875
94955000.0 -0.2415313720703125 0.06349945068359375
99950500.0 -0.24459075927734375 0.095458984375
104946000.0 -0.24341583251953125 0.1290435791015625
109941500.0 -0.23699951171875 0.163604736328125
114937000.0 -0.2259368896484375 0.1983795166015625
119932500.0 -0.20909881591796875 0.23320770263671875
124928000.0 -0.187591552734375 0.2669677734375
129923500.0 -0.160614013671875 0.298126220703125
134919000.0 -0.128387451171875 0.326812744140625
139914500.0 -0.09161376953125 0.352020263671875
144910000.0 -0.0504913330078125 0.37225341796875
149905500.0 -0.0059051513671875 0.3878936767578125
154901000.0 0.0413360595703125 0.3975982666015625
159896500.0 0.0908050537109375 0.4015045166015625
164892000.0 0.141265869140625 0.3988494873046875
169887500.0 0.1922760009765625 0.390045166015625
174883000.0 0.2426605224609375 0.374298095703125
179878500.0 0.2919769287109375 0.3522186279296875
184874000.0 0.339019775390625 0.3236236572265625
189869500.0 0.38336181640625 0.2889251708984375
194865000.0 0.424224853515625 0.248870849609375
199860500.0 0.460601806640625 0.2033538818359375
204856000.0 0.491790771484375 0.1521759033203125
209851500.0 0.51739501953125 0.09716796875
214847000.0 0.53717041015625 0.037841796875
219842500.0 0.550140380859375 -0.024658203125
224838000.0 0.555877685546875 -0.089630126953125
229833500.0 0.553955078125 -0.156463623046875
234829000.0 0.543792724609375 -0.223907470703125
239824500.0 0.5252685546875 -0.29119873046875
244820000.0 0.498077392578125 -0.3573150634765625
249815500.0 0.462127685546875 -0.42120361328125
254811000.0 0.44195556640625 -0.4673309326171875
259806500.0 0.39312744140625 -0.525360107421875
264802000.0 0.33660888671875 -0.577850341796875
269797500.0 0.272369384765625 -0.623992919921875
274793000.0 0.202117919921875 -0.66217041015625
279788500.0 0.126708984375 -0.691986083984375
284784000.0 0.046844482421875 -0.71282958984375
289779500.0 -0.035858154296875 -0.723876953125
294775000.0 -0.120208740234375 -0.724700927734375
299770500.0 -0.204803466796875 -0.71563720703125
304766000.0 -0.288543701171875 -0.697052001953125
309761500.0 -0.369964599609375 -0.668060302734375
314757000.0 -0.4482421875 -0.62933349609375
319752500.0 -0.52178955078125 -0.58160400390625
324748000.0 -0.5908203125 -0.525726318359375
329743500.0 -0.65362548828125 -0.461761474609375
334739000.0 -0.7100830078125 -0.39068603515625
339734500.0 -0.758758544921875 -0.312744140625
344730000.0 -0.799163818359375 -0.22900390625
349725500.0 -0.830810546875 -0.140106201171875
354721000.0 -0.852813720703125 -0.0469970703125
359716500.0 -0.86468505859375 0.04949951171875
364712000.0 -0.86566162109375 0.148834228515625
369707500.0 -0.855010986328125 0.250091552734375
374703000.0 -0.83270263671875 0.351318359375
379698500.0 -0.797607421875 0.4512939453125
384694000.0 -0.75 0.5482177734375
389689500.0 -0.689971923828125 0.640594482421875
394685000.0 -0.617645263671875 0.7261962890625
399680500.0 -0.5340576171875 0.803192138671875
404676000.0 -0.440338134765625 0.870574951171875
409671500.0 -0.337249755859375 0.927764892578125
414667000.0 -0.227813720703125 0.968994140625
419662500.0 -0.112701416015625 0.99700927734375
424658000.0 0.006103515625 1.01080322265625
429653500.0 0.1268310546875 1.00897216796875
434649000.0 0.246246337890625 0.990814208984375
439644500.0 0.3607177734375 0.958404541015625
444640000.0 0.469329833984375 0.91412353515625
449635500.0 0.572113037109375 0.858734130859375
454631000.0 0.668792724609375 0.7933349609375
459626500.0 0.758087158203125 0.716278076171875
464622000.0 0.83746337890625 0.629669189453125
469617500.0 0.906707763671875 0.535614013671875
474613000.0 0.96612548828125 0.4349365234375
479608500.0 1.01470947265625 0.328125
484604000.0 1.052490234375 0.21673583984375
489599500.0 1.07904052734375 0.10113525390625
494595000.0 1.09393310546875 -0.01806640625
499590500.0 1.0968017578125 -0.1395263671875
504586000.0 1.08697509765625 -0.2628173828125
509581500.0 1.06353759765625 -0.3868408203125
514577000.0 1.02618408203125 -0.510009765625
519572500.0 0.973907470703125 -0.631256103515625
524568000.0 0.90594482421875 -0.748260498046875
529563500.0 0.822662353515625 -0.858734130859375
534559000.0 0.72418212890625 -0.9605712890625
539554500.0 0.61212158203125 -1.04974365234375
544550000.0 0.48797607421875 -1.1246337890625
549545500.0 0.3533935546875 -1.1839599609375
554541000.0 0.21124267578125 -1.22552490234375
559536500.0 0.06561279296875 -1.2496337890625
564532000.0 -0.08282470703125 -1.2547607421875
569527500.0 -0.231201171875 -1.24127197265625
574523000.0 -0.376953125 -1.20928955078125
579518500.0 -0.51715087890625 -1.1597900390625
584514000.0 -0.64935302734375 -1.09375
589509500.0 -0.77215576171875 -1.0130615234375
594505000.0 -0.88323974609375 -0.91839599609375
599500500.0 -0.982208251953125 -0.812957763671875
604496000.0 -1.06768798828125 -0.69793701171875
609491500.0 -1.1397705078125 -0.5755615234375
614487000.0 -1.197998046875 -0.44775390625
619482500.0 -1.2423095703125 -0.3150634765625
624478000.0 -1.2734375 -0.1795654296875
629473500.0 -1.2908935546875 -0.04168701171875
634469000.0 -1.29473876953125 0.09722900390625
639464500.0 -1.2852783203125 0.237060546875
644460000.0 -1.2620849609375 0.376708984375
649455500.0 -1.224853515625 0.5155029296875
654451000.0 -1.1729736328125 0.652099609375
659446500.0 -1.10687255859375 0.7855224609375
664442000.0 -1.02508544921875 0.91448974609375
669437500.0 -0.92730712890625 1.03704833984375
674433000.0 -0.8133544921875 1.15087890625
679428500.0 -0.68353271484375 1.252685546875
684424000.0 -0.538818359375 1.3404541015625
689419500.0 -0.3800048828125 1.41131591796875
694415000.0 -0.20989990234375 1.46148681640625
699410500.0 -0.0318603515625 1.489990234375
704406000.0 0.151123046875 1.493896484375
709401500.0 0.33465576171875 1.47235107421875
714397000.0 0.51446533203125 1.42578125
719392500.0 0.686279296875 1.35504150390625
724388000.0 0.84649658203125 1.26226806640625
729383500.0 0.9915771484375 1.14984130859375
734379000.0 1.118408203125 1.01947021484375
739374500.0 1.2264404296875 0.87713623046875
744370000.0 1.31463623046875 0.72528076171875
749365500.0 1.38177490234375 0.56591796875
754361000.0 1.4307861328125 0.404541015625
759356500.0 1.46014404296875 0.24102783203125
764352000.0 1.47198486328125 0.078369140625
769347500.0 1.466796875 -0.0823974609375
774343000.0 1.44610595703125 -0.2396240234375
779338500.0 1.4102783203125 -0.392822265625
784334000.0 1.3607177734375 -0.5408935546875
789329500.0 1.2982177734375 -0.68328857421875
794325000.0 1.22216796875 -0.81976318359375
799320500.0 1.13299560546875 -0.94921875
804316000.0 1.03082275390625 -1.07037353515625
809311500.0 0.91619873046875 -1.1826171875
814307000.0 0.788818359375 -1.28515625
819302500.0 0.64923095703125 -1.3746337890625
824298000.0 0.49755859375 -1.45068359375
829293500.0 0.33587646484375 -1.51116943359375
834289000.0 0.1634521484375 -1.5528564453125
839284500.0 -0.01495361328125 -1.57440185546875
844280000.0 -0.1309814453125 -1.6016845703125
849275500.0 -0.31903076171875 -1.58758544921875
854271000.0 -0.50579833984375 -1.5487060546875
859266500.0 -0.6873779296875 -1.48492431640625
864262000.0 -0.86041259765625 -1.3983154296875
869257500.0 -1.021240234375 -1.289306640625
874253000.0 -1.16644287109375 -1.1611328125
879248500.0 -1.29388427734375 -1.0167236328125
884244000.0 -1.4005126953125 -0.8587646484375
889239500.0 -1.4869384765625 -0.69049072265625
894235000.0 -1.55206298828125 -0.515869140625
899230500.0 -1.5963134765625 -0.33648681640625
904226000.0 -1.61993408203125 -0.15521240234375
909221500.0 -1.6234130859375 0.026611328125
914217000.0 -1.60601806640625 0.205322265625
919212500.0 -1.57000732421875 0.3790283203125
924208000.0 -1.51654052734375 0.54656982421875
929203500.0 -1.44732666015625 0.705810546875
934199000.0 -1.3636474609375 0.8555908203125
939194500.0 -1.26702880859375 0.9967041015625
944190000.0 -1.15692138671875 1.12774658203125
949185500.0 -1.0347900390625 1.2486572265625
954181000.0 -0.900634765625 1.35882568359375
959176500.0 -0.75396728515625 1.45709228515625
964172000.0 -0.596435546875 1.54052734375
969167500.0 -0.427978515625 1.60888671875
974163000.0 -0.24884033203125 1.65972900390625
979158500.0 -0.0621337890625 1.69158935546875
984154000.0 0.13104248046875 1.7021484375
989149500.0 0.32867431640625 1.6888427734375
994145000.0 0.526123046875 1.65081787109375
999140500.0 0.72064208984375 1.5877685546875
1004136000.0 0.90802001953125 1.49932861328125
1009131500.0 1.0831298828125 1.385986328125
1014127000.0 1.24407958984375 1.2506103515625
1019122500.0 1.38580322265625 1.09454345703125
1024118000.0 1.50567626953125 0.9217529296875
1029113500.0 1.6014404296875 0.736083984375
1034109000.0 1.6717529296875 0.54168701171875
1039104500.0 1.71722412109375 0.3411865234375
1044100000.0 1.7376708984375 0.14031982421875
1049095500.0 1.73406982421875 -0.0594482421875
1054091000.0 1.7078857421875 -0.2540283203125
1059086500.0 1.66058349609375 -0.4405517578125
1064082000.0 1.5948486328125 -0.619873046875
1069077500.0 1.5113525390625 -0.78790283203125
1074073000.0 1.41259765625 -0.945068359375
1079068500.0 1.29949951171875 -1.09014892578125
1084064000.0 1.17303466796875 -1.22271728515625
1089059500.0 1.03515625 -1.3414306640625
1094055000.0 0.885498046875 -1.4471435546875
1099050500.0 0.7259521484375 -1.5374755859375
1104046000.0 0.55712890625 -1.61181640625
1109041500.0 0.379638671875 -1.6690673828125
1114037000.0 0.195068359375 -1.70843505859375
1119032500.0 0.004638671875 -1.72802734375
1124028000.0 -0.189697265625 -1.7266845703125
1129023500.0 -0.38470458984375 -1.70281982421875
1134019000.0 -0.5794677734375 -1.65704345703125
1139014500.0 -0.77056884765625 -1.58721923828125
1144010000.0 -0.952880859375 -1.4932861328125
1149005500.0 -1.12451171875 -1.37615966796875
1154001000.0 -1.28143310546875 -1.23797607421875
1158996500.0 -1.42059326171875 -1.07977294921875
1163992000.0 -1.53851318359375 -0.90423583984375
1168987500.0 -1.63360595703125 -0.7152099609375
1173983000.0 -1.7025146484375 -0.516357421875
1178978500.0 -1.74627685546875 -0.3111572265625
1183974000.0 -1.7630615234375 -0.1043701171875
1188969500.0 -1.7542724609375 0.10150146484375
1193965000.0 -1.7210693359375 0.30169677734375
1198960500.0 -1.66522216796875 0.49383544921875
1203956000.0 -1.58819580078125 0.67535400390625
1208951500.0 -1.49224853515625 0.8431396484375
1213947000.0 -1.3798828125 0.99847412109375
1218942500.0 -1.25335693359375 1.1370849609375
1223938000.0 -1.1146240234375 1.2603759765625
1228933500.0 -0.96600341796875 1.366455078125
1233929000.0 -0.80865478515625 1.4561767578125
1238924500.0 -0.64520263671875 1.52880859375
1243920000.0 -0.47589111328125 1.58416748046875
1248915500.0 -0.3031005859375 1.6220703125
1253911000.0 -0.12811279296875 1.643310546875
1258906500.0 0.04815673828125 1.64630126953125
1263902000.0 0.2239990234375 1.63232421875
1268897500.0 0.3992919921875 1.6002197265625
1273893000.0 0.56817626953125 1.5496826171875
1278888500.0 0.73370361328125 1.48199462890625
1283884000.0 0.8922119140625 1.39642333984375
1288879500.0 1.04119873046875 1.2935791015625
1293875000.0 1.17950439453125 1.17449951171875
1298870500.0 1.304443359375 1.039794921875
1303866000.0 1.41473388671875 0.891357421875
1308861500.0 1.50836181640625 0.73052978515625
1313857000.0 1.5836181640625 0.55859375
1318852500.0 1.63909912109375 0.37872314453125
1323848000.0 1.67315673828125 0.19287109375
1328843500.0 1.68743896484375 0.00396728515625
1333839000.0 1.67938232421875 -0.1864013671875
1338834500.0 1.64935302734375 -0.37548828125
1343830000.0 1.5982666015625 -0.55877685546875
1348825500.0 1.52593994140625 -0.73712158203125
1353821000.0 1.43365478515625 -0.9058837890625
1358816500.0 1.32208251953125 -1.06341552734375
1363812000.0 1.19268798828125 -1.2071533203125
1368807500.0 1.0474853515625 -1.3348388671875
1373803000.0 0.88885498046875 -1.4443359375
1378798500.0 0.71795654296875 -1.53509521484375
1383794000.0 0.53741455078125 -1.6051025390625
1388789500.0 0.3504638671875 -1.6522216796875
1393785000.0 0.15997314453125 -1.677734375
1398780500.0 -0.03131103515625 -1.6805419921875
1403776000.0 -0.22119140625 -1.66064453125
1408771500.0 -0.40533447265625 -1.6195068359375
1413767000.0 -0.5831298828125 -1.55780029296875
1418762500.0 -0.74945068359375 -1.4765625
1423758000.0 -0.9049072265625 -1.3780517578125
1428753500.0 -1.04693603515625 -1.264404296875
1433749000.0 -1.1744384765625 -1.13714599609375
1438744500.0 -1.28619384765625 -0.99798583984375
1443740000.0 -1.38153076171875 -0.84979248046875
1448735500.0 -1.46124267578125 -0.6934814453125
1453731000.0 -1.52349853515625 -0.5313720703125
1458726500.0 -1.569091796875 -0.36431884765625
1463722000.0 -1.59765625 -0.19427490234375
1468717500.0 -1.609130859375 -0.0223388671875
1473713000.0 -1.60345458984375 0.15081787109375
1478708500.0 -1.58050537109375 0.32257080078125
1483704000.0 -1.5400390625 0.49200439453125
1488699500.0 -1.4818115234375 0.6583251953125
1493695000.0 -1.40643310546875 0.8199462890625
1498690500.0 -1.31304931640625 0.9736328125
1503686000.0 -1.2015380859375 1.118408203125
1508681500.0 -1.0731201171875 1.25201416015625
1513677000.0 -0.9278564453125 1.37060546875
1518672500.0 -0.76788330078125 1.47381591796875
1523668000.0 -0.59423828125 1.5577392578125
1528663500.0 -0.40997314453125 1.6190185546875
1533659000.0 -0.21771240234375 1.6573486328125
1538654500.0 -0.02117919921875 1.6715087890625
1543650000.0 0.1759033203125 1.65997314453125
1548645500.0 0.3682861328125 1.62335205078125
1553641000.0 0.55352783203125 1.56201171875
1558636500.0 0.727783203125 1.47845458984375
1563632000.0 0.88812255859375 1.37518310546875
1568627500.0 1.03216552734375 1.254638671875
1573623000.0 1.1583251953125 1.12005615234375
1578618500.0 1.2647705078125 0.974365234375
1583614000.0 1.353271484375 0.8209228515625
1588609500.0 1.4224853515625 0.6617431640625
1593605000.0 1.47296142578125 0.49957275390625
1598600500.0 1.50640869140625 0.33599853515625
1603596000.0 1.52239990234375 0.17303466796875
1608591500.0 1.52294921875 0.0111083984375
1613587000.0 1.50787353515625 -0.14703369140625
1618582500.0 1.47821044921875 -0.30230712890625
1623578000.0 1.43463134765625 -0.452880859375
1628573500.0 1.37725830078125 -0.5985107421875
1633569000.0 1.3070068359375 -0.73809814453125
1638564500.0 1.22314453125 -0.87139892578125
1643560000.0 1.12603759765625 -0.99609375
1648555500.0 1.0166015625 -1.11224365234375
1653551000.0 0.89459228515625 -1.21795654296875
1658546500.0 0.7601318359375 -1.311279296875
1663542000.0 0.61505126953125 -1.39117431640625
1668537500.0 0.45892333984375 -1.4556884765625
1673533000.0 0.2950439453125 -1.50201416015625
1678528500.0 0.12493896484375 -1.52874755859375
1683524000.0 -0.04931640625 -1.53515625
1688519500.0 -0.223876953125 -1.52008056640625
1693515000.0 -0.3955078125 -1.4833984375
1698510500.0 -0.5616455078125 -1.4246826171875
1703506000.0 -0.71771240234375 -1.34686279296875
1708501500.0 -0.86114501953125 -1.25201416015625
1713497000.0 -0.99053955078125 -1.14044189453125
1718492500.0 -1.10467529296875 -1.016357421875
1723488000.0 -1.20086669921875 -0.88275146484375
1728483500.0 -1.2806396484375 -0.74163818359375
1733479000.0 -1.34344482421875 -0.59552001953125
1738474500.0 -1.38922119140625 -0.44671630859375
1743470000.0 -1.41973876953125 -0.29656982421875
1748465500.0 -1.43597412109375 -0.14715576171875
1753461000.0 -1.43719482421875 0.0015869140625
1758456500.0 -1.42547607421875 0.1480712890625
1763452000.0 -1.4010009765625 0.2921142578125
1768447500.0 -1.36376953125 0.43328857421875
1773443000.0 -1.314208984375 0.571044921875
1778438500.0 -1.25244140625 0.70458984375
1783434000.0 -1.17791748046875 0.8330078125
1788429500.0 -1.09033203125 0.9561767578125
1793425000.0 -0.9896240234375 1.07220458984375
1798420500.0 -0.87542724609375 1.1793212890625
1803416000.0 -0.7479248046875 1.27557373046875
1808411500.0 -0.60736083984375 1.360595703125
1813407000.0 -0.454833984375 1.42938232421875
1818402500.0 -0.29241943359375 1.4803466796875
1823398000.0 -0.12188720703125 1.51165771484375
1828393500.0 0.0533447265625 1.52099609375
1833389000.0 0.23040771484375 1.5078125
1838384500.0 0.40447998046875 1.47137451171875
1843380000.0 0.57293701171875 1.4124755859375
1848375500.0 0.7310791015625 1.3323974609375
1853371000.0 0.87567138671875 1.23345947265625
1858366500.0 1.005615234375 1.11859130859375
1863362000.0 1.11767578125 0.99139404296875
1868357500.0 1.2125244140625 0.85394287109375
1873353000.0 1.28857421875 0.70977783203125
1878348500.0 1.34710693359375 0.56170654296875
1883344000.0 1.389404296875 0.4114990234375
1888339500.0 1.41485595703125 0.26116943359375
1893335000.0 1.42584228515625 0.112060546875
1898330500.0 1.423095703125 -0.03521728515625
1903326000.0 1.4068603515625 -0.1796875
1908321500.0 1.3785400390625 -0.32061767578125
1913317000.0 1.33831787109375 -0.45880126953125
1918312500.0 1.2862548828125 -0.59234619140625
1923308000.0 1.2220458984375 -0.7215576171875
1928303500.0 1.1461181640625 -0.846435546875
1933299000.0 1.05755615234375 -0.96453857421875
1938294500.0 0.95660400390625 -1.07586669921875
1943290000.0 0.8431396484375 -1.17822265625
1948285500.0 0.71728515625 -1.27069091796875
1953281000.0 0.57952880859375 -1.35028076171875
1958276500.0 0.4305419921875 -1.416259765625
1963272000.0 0.27215576171875 -1.4642333984375
1968267500.0 0.10614013671875 -1.49407958984375
1973263000.0 -0.06488037109375 -1.50390625
1978258500.0 -0.23712158203125 -1.4915771484375
1983254000.0 -0.408203125 -1.45751953125
1988249500.0 -0.57421875 -1.40167236328125
1993245000.0 -0.73095703125 -1.32537841796875
1998240500.0 -0.87646484375 -1.23004150390625
2003236000.0 -1.00701904296875 -1.11859130859375
2008231500.0 -1.1226806640625 -0.9937744140625
2013227000.0 -1.2205810546875 -0.85760498046875
2018222500.0 -1.3006591796875 -0.7135009765625
2023218000.0 -1.36419677734375 -0.56365966796875
2028213500.0 -1.40966796875 -0.41033935546875
2033209000.0 -1.438232421875 -0.255615234375
2038204500.0 -1.45123291015625 -0.10113525390625
2043200000.0 -1.4488525390625 0.05224609375
2048195500.0 -1.4315185546875 0.2037353515625
2053191000.0 -1.39984130859375 0.3519287109375
2058186500.0 -1.3544921875 0.4957275390625
2063182000.0 -1.2957763671875 0.634521484375
2068177500.0 -1.22357177734375 0.76715087890625
2073173000.0 -1.13824462890625 0.89361572265625
2078168500.0 -1.03997802734375 1.01141357421875
2083164000.0 -0.928955078125 1.11968994140625
2088159500.0 -0.806396484375 1.216796875
2093155000.0 -0.6727294921875 1.30078125
2098150500.0 -0.528076171875 1.37188720703125
2103146000.0 -0.3753662109375 1.425537109375
2108141500.0 -0.2161865234375 1.46185302734375
2113137000.0 -0.052734375 1.47955322265625
2118132500.0 0.1124267578125 1.4776611328125
2123128000.0 0.27618408203125 1.45587158203125
2128123500.0 0.43603515625 1.415283203125
2133119000.0 0.5894775390625 1.35589599609375
2138114500.0 0.73370361328125 1.27935791015625
2143110000.0 0.86761474609375 1.18792724609375
2148105500.0 0.9886474609375 1.08282470703125
2153101000.0 1.0958251953125 0.96600341796875
2158096500.0 1.1885986328125 0.8402099609375
2163092000.0 1.26739501953125 0.7066650390625
2168087500.0 1.33099365234375 0.5677490234375
2173083000.0 1.380126953125 0.42449951171875
2178078500.0 1.41412353515625 0.2783203125
2183074000.0 1.43487548828125 0.130615234375
2188069500.0 1.44110107421875 -0.01806640625
