!Created with skrf (http://scikit-rf.org).
# Hz S RI R 50.0 
!freq ReS11 ImS11
300000.0 -0.0028595134 -0.0326165927
5299970.0 0.0008468187 -0.0002200064
10299940.0 0.0012327919 -0.000471326
15299910.0 0.0014544868 0.0006063643
20299880.0 0.0013603682 9.94168e-05
25299850.0 0.0014763494 0.0003982446
30299820.0 0.0014752865 0.0007294253
35299790.0 0.0017573278 0.0003368408
40299760.0 0.0015039411 0.0003688749
45299730.0 0.0015779887 0.0004128809
50299700.0 0.0016265018 0.0006725678
55299670.0 0.0016534023 0.0007187586
60299640.0 0.0017449521 0.0004989527
65299610.0 0.0017862835 0.0005553693
70299580.0 0.0016818241 0.0005499006
75299550.0 0.0018463348 0.0006121545
80299520.0 0.0018680065 0.0006057707
85299490.0 0.0020223576 0.000755359
90299460.0 0.0020093802 0.0008188518
95299430.0 0.001924743 0.0008406761
100299400.0 0.0020944374 0.0007302933
105299370.0 0.0019190477 0.0008948537
110299340.0 0.0021877947 0.0007433901
115299310.0 0.0020733479 0.0007796164
120299280.0 0.0019741569 0.000807973
125299250.0 0.0020885031 0.0006906835
130299220.0 0.0020582906 0.0008481875
135299190.0 0.0022264447 0.0008521963
140299160.0 0.002155967 0.0008402972
145299130.0 0.002277931 0.000915514
150299100.0 0.0023941562 0.0009266953
155299070.0 0.0021580218 0.0008102313
160299040.0 0.0024468892 0.0010339783
165299010.0 0.0022460088 0.000911065
170298980.0 0.0024915224 0.0008219373
175298950.0 0.0022469131 0.0010402804
180298920.0 0.0023029528 0.0010025715
185298890.0 0.0023162981 0.0009350338
190298860.0 0.0023877608 0.001052355
195298830.0 0.0026126498 0.0012386964
200298800.0 0.0024102255 0.0011345735
205298770.0 0.0025076677 0.0010952651
210298740.0 0.0027206767 0.0012159027
215298710.0 0.0026440508 0.0010906778
220298680.0 0.0024972566 0.001111538
225298650.0 0.0025700581 0.001042474
230298620.0 0.0026748206 0.0010006822
235298590.0 0.0028117284 0.0008289964
240298560.0 0.0027275248 0.0012137208
245298530.0 0.0027486602 0.001061125
250298500.0 0.0027652177 0.0009468956
255298470.0 0.0028768622 0.0010160823
260298440.0 0.0029499604 0.0011769031
265298410.0 0.0028076163 0.0009030985
270298380.0 0.0027862083 0.001074012
275298350.0 0.002910831 0.0010328647
280298320.0 0.0028122726 0.0010957938
285298290.0 0.0026584494 0.0011182017
290298260.0 0.0029889671 0.0009644419
295298230.0 0.003081355 0.0010553196
300298200.0 0.0029709573 0.0009793422
305298170.0 0.0030241151 0.0009598601
310298140.0 0.0030358702 0.0010558741
315298110.0 0.0029815618 0.0011167658
320298080.0 0.0029478317 0.0010257509
325298050.0 0.0031816685 0.0011902914
330298020.0 0.0031741816 0.0012247901
335297990.0 0.0031059396 0.0009310898
340297960.0 0.003023134 0.0011059113
345297930.0 0.0031557742 0.0009296993
350297900.0 0.0033318723 0.0011225927
355297870.0 0.0034874229 0.0007473605
360297840.0 0.0032341755 0.0007530385
365297810.0 0.0030975961 0.0006225604
370297780.0 0.0032869566 0.0010289614
375297750.0 0.003320644 0.0008939586
380297720.0 0.0031218743 0.0011043839
385297690.0 0.0033730641 0.0009642676
390297660.0 0.0031632385 0.0008728717
395297630.0 0.0032057165 0.0010397148
400297600.0 0.0036144113 0.0010135652
405297570.0 0.0035175894 0.0008912221
410297540.0 0.0034156702 0.0009999985
415297510.0 0.0034042186 0.0007822338
420297480.0 0.0036202386 0.0010289696
425297450.0 0.0033828491 0.0008879005
430297420.0 0.0036592388 0.0007538295
435297390.0 0.0036243257 0.0007353272
440297360.0 0.0033262834 0.0007628159
445297330.0 0.0037453076 0.0006474157
450297300.0 0.0035147106 0.0009061913
455297270.0 0.0036620432 0.0009141637
460297240.0 0.0034930465 0.0007722604
465297210.0 0.0036859395 0.0007858208
470297180.0 0.0035721024 0.0009266566
475297150.0 0.0035200771 0.0007236737
480297120.0 0.0034592851 0.0008836886
485297090.0 0.0039039097 0.0009591107
490297060.0 0.003874837 0.0008324833
495297030.0 0.0036547327 0.0007698904
500297000.0 0.0037619068 0.0009033585
505296970.0 0.0037130369 0.0006801117
510296940.0 0.0037234355 0.000601743
515296910.0 0.0034187934 0.0010169858
520296880.0 0.0037407829 0.0007489613
525296850.0 0.0036272524 0.0007532331
530296820.0 0.003430774 0.0006368433
535296790.0 0.0035505175 0.0005715745
540296760.0 0.0037198837 0.0006865828
545296730.0 0.0035511944 0.0006147594
550296700.0 0.0039834391 0.0009709853
555296670.0 0.0039618483 0.0005435768
560296640.0 0.0038628851 0.0005297664
565296610.0 0.0040865748 0.0004324479
570296580.0 0.0040686036 0.0004511768
575296550.0 0.0041272696 0.0005223888
580296520.0 0.0039501668 0.0004086062
585296490.0 0.0040636251 0.0004010343
590296460.0 0.0039920405 0.0003910933
595296430.0 0.0040263156 0.0004401684
600296400.0 0.0041043699 0.0002984602
605296370.0 0.0039309572 0.0001287838
610296340.0 0.0042702608 0.0003827656
615296310.0 0.0039502039 0.0003527492
620296280.0 0.0041811006 0.0002097111
625296250.0 0.0040674107 0.0004174357
630296220.0 0.0039393105 8.05638e-05
635296190.0 0.0040228089 0.0003271961
640296160.0 0.0042310257 0.0002930227
645296130.0 0.0041833453 0.0001144581
650296100.0 0.0041062954 0.0002750808
655296070.0 0.0041192064 0.0001551523
660296040.0 0.0042656021 -1.06102e-05
665296010.0 0.0043601334 0.0001700643
670295980.0 0.0043907569 3.90409e-05
675295950.0 0.0041722951 0.0002491796
680295920.0 0.0044569847 3.8002e-06
685295890.0 0.0044257317 0.0002092622
690295860.0 0.0044347272 1.28031e-05
695295830.0 0.0044802923 6.34596e-05
700295800.0 0.0043741991 -8.94924e-05
705295770.0 0.0044423428 -9.90827e-05
710295740.0 0.0042208248 2.11169e-05
715295710.0 0.0044653539 -4.27085e-05
720295680.0 0.0045441827 -0.0001102682
725295650.0 0.0043412276 -0.0001365395
730295620.0 0.0042796674 -0.0001590369
735295590.0 0.0043783247 -3.9448e-05
740295560.0 0.0043974733 -0.0003082679
745295530.0 0.0044301548 -4.42257e-05
750295500.0 0.0042740171 -0.0001832948
755295470.0 0.0043268154 -0.000249685
760295440.0 0.0043402614 -0.0003532579
765295410.0 0.004464127 -0.0003218897
770295380.0 0.0044032794 -0.0004602367
775295350.0 0.0045424367 -0.0006268832
780295320.0 0.0045587793 -0.0005751299
785295290.0 0.0045367008 -0.0004369907
790295260.0 0.004432145 -0.0007033815
795295230.0 0.0042231622 -0.0006875463
800295200.0 0.0043855441 -0.0007874971
805295170.0 0.0043632726 -0.000766659
810295140.0 0.0043206092 -0.0007751788
815295110.0 0.0043791415 -0.0008494119
820295080.0 0.0047916465 -0.000753255
825295050.0 0.0045303286 -0.0007526331
830295020.0 0.0045763934 -0.0008559792
835294990.0 0.0044460384 -0.0007470398
840294960.0 0.0045917289 -0.0009385008
845294930.0 0.004601188 -0.0007807398
850294900.0 0.0048324774 -0.0010579884
855294870.0 0.0046951906 -0.0010380262
860294840.0 0.0045353926 -0.0010829571
865294810.0 0.0045946013 -0.0009017652
870294780.0 0.0048200852 -0.0009872181
875294750.0 0.0046876147 -0.0010434202
880294720.0 0.0047714527 -0.0013269297
885294690.0 0.0047229182 -0.001161386
890294660.0 0.0048494388 -0.0012051915
895294630.0 0.0046664748 -0.0013226857
900294600.0 0.0046186723 -0.0011532388
905294570.0 0.0047493341 -0.0013768046
910294540.0 0.0049082647 -0.0014546249
915294510.0 0.0047127708 -0.0013090702
920294480.0 0.0047556162 -0.0014811673
925294450.0 0.0047450519 -0.0015458679
930294420.0 0.0047052541 -0.0013767794
935294390.0 0.0046391473 -0.0016154905
940294360.0 0.0047803906 -0.0016517812
945294330.0 0.0048309686 -0.0015739536
950294300.0 0.0048382414 -0.0016622012
955294270.0 0.0048380608 -0.0017916324
960294240.0 0.004790887 -0.0016247366
965294210.0 0.0049194121 -0.0018366086
970294180.0 0.00492211 -0.0016549095
975294150.0 0.0048349726 -0.0017674595
980294120.0 0.0049296081 -0.0018610667
985294090.0 0.0050146298 -0.001718603
990294060.0 0.0049665088 -0.0019219485
995294030.0 0.0048639114 -0.001848724
1000294000.0 0.0048278015 -0.0019274817
1005293970.0 0.0049010078 -0.0020108101
1010293940.0 0.0047888541 -0.0019061119
1015293910.0 0.0049974232 -0.0018815304
1020293880.0 0.0048859067 -0.002166216
1025293850.0 0.0047594953 -0.0021773
1030293820.0 0.0049510224 -0.0022539404
1035293790.0 0.0050979409 -0.0022355335
1040293760.0 0.0049062179 -0.0023870559
1045293730.0 0.0051240242 -0.0023270728
1050293700.0 0.0049776449 -0.0024236977
1055293670.0 0.0049991052 -0.0024854145
1060293640.0 0.0050811944 -0.0025531237
1065293610.0 0.0051315284 -0.0026479033
1070293580.0 0.0048196169 -0.0026920322
1075293550.0 0.0051075799 -0.0025644093
1080293520.0 0.0049933441 -0.0025441909
1085293490.0 0.0049965033 -0.0026795072
1090293460.0 0.0048214263 -0.0027007311
1095293430.0 0.005194774 -0.0028128493
1100293400.0 0.0049270673 -0.0025580117
1105293370.0 0.0048419919 -0.0028267308
1110293340.0 0.005108326 -0.0027859129
1115293310.0 0.0049269921 -0.0028880764
1120293280.0 0.0051564621 -0.0030159295
1125293250.0 0.0050052686 -0.0029982575
1130293220.0 0.0049586159 -0.0027579532
1135293190.0 0.0050020569 -0.0026163921
1140293160.0 0.0047986062 -0.002791876
1145293130.0 0.0049343867 -0.0028551849
1150293100.0 0.0047617961 -0.0027175003
1155293070.0 0.0046308125 -0.0029004646
1160293040.0 0.0048752946 -0.0029808268
1165293010.0 0.0048209077 -0.0029220833
1170292980.0 0.0046304193 -0.0033490978
1175292950.0 0.0047564083 -0.0033296118
1180292920.0 0.004915423 -0.0032139364
1185292890.0 0.0048934648 -0.0033982635
1190292860.0 0.0051367546 -0.0035978158
1195292830.0 0.0051706261 -0.0034482613
1200292800.0 0.005180535 -0.003445744
1205292770.0 0.0051499895 -0.003608211
1210292740.0 0.0052160189 -0.0034861603
1215292710.0 0.0051277692 -0.0036167612
1220292680.0 0.0053400137 -0.0036067924
1225292650.0 0.0050597107 -0.0036545813
1230292620.0 0.005113594 -0.0038112997
1235292590.0 0.0051347529 -0.0038362924
1240292560.0 0.0051813654 -0.0037139253
1245292530.0 0.0049070735 -0.0040264021
1250292500.0 0.0052453086 -0.0039721063
1255292470.0 0.0052955053 -0.0039511405
1260292440.0 0.0050873116 -0.0039755436
1265292410.0 0.0051968884 -0.0041896557
1270292380.0 0.0050194153 -0.0041428898
1275292350.0 0.0051099931 -0.0040454483
1280292320.0 0.0053537808 -0.0042355578
1285292290.0 0.0052675794 -0.0041257505
1290292260.0 0.005262881 -0.0041260746
1295292230.0 0.0053797347 -0.0043322183
1300292200.0 0.0051054854 -0.0043616625
1305292170.0 0.0052274908 -0.0044656416
1310292140.0 0.0053070054 -0.0044261306
1315292110.0 0.0051981665 -0.004642441
1320292080.0 0.0052085719 -0.0046969751
1325292050.0 0.0052479281 -0.0046262078
1330292020.0 0.0053818798 -0.0045598163
1335291990.0 0.0052336075 -0.0044052177
1340291960.0 0.0054309414 -0.0047191423
1345291930.0 0.0053387069 -0.0046652099
1350291900.0 0.0052368817 -0.0048030445
1355291870.0 0.0052150548 -0.0046003493
1360291840.0 0.0051719331 -0.0048823051
1365291810.0 0.0052844793 -0.004964396
1370291780.0 0.0054479812 -0.0046760331
1375291750.0 0.0051956508 -0.0047418887
1380291720.0 0.0052888964 -0.0049243168
1385291690.0 0.0050896406 -0.0051669706
1390291660.0 0.0051707034 -0.0051469227
1395291630.0 0.0053029653 -0.0049118722
1400291600.0 0.0052972859 -0.0047876789
1405291570.0 0.0051851572 -0.0052295641
1410291540.0 0.0053054479 -0.005135407
1415291510.0 0.0052596892 -0.0051189065
1420291480.0 0.0052208044 -0.0052405286
1425291450.0 0.0052292065 -0.0052473164
1430291420.0 0.0051550961 -0.0052926411
1435291390.0 0.0051878783 -0.0053464902
1440291360.0 0.0052476943 -0.0053790822
1445291330.0 0.0050939194 -0.0053672143
1450291300.0 0.0052342889 -0.0055565859
1455291270.0 0.0053223241 -0.005532492
1460291240.0 0.0051666659 -0.0054601407
1465291210.0 0.0050507633 -0.0054517104
1470291180.0 0.0050396743 -0.0055994175
1475291150.0 0.0050120828 -0.0055665724
1480291120.0 0.0050839528 -0.0056740617
1485291090.0 0.0050771946 -0.0058165647
1490291060.0 0.0051835716 -0.0057854379
1495291030.0 0.0050397365 -0.0058678947
1500291000.0 0.0051191709 -0.005804027
1505290970.0 0.0051545001 -0.0057844703
1510290940.0 0.0050724777 -0.0060086877
1515290910.0 0.00507467 -0.0058288052
1520290880.0 0.0050865131 -0.0059699171
1525290850.0 0.0052617086 -0.0058547226
1530290820.0 0.0052089787 -0.0059650181
1535290790.0 0.0051192383 -0.0062606444
1540290760.0 0.0051518127 -0.0060959882
1545290730.0 0.0051042754 -0.0060150439
1550290700.0 0.0052228919 -0.0062166346
1555290670.0 0.0050004517 -0.0060744946
1560290640.0 0.0052870227 -0.0061963751
1565290610.0 0.004991725 -0.0064173386
1570290580.0 0.0049632732 -0.0061906272
1575290550.0 0.0050569288 -0.0061392901
1580290520.0 0.0051256618 -0.0064510006
1585290490.0 0.0051036597 -0.00636159
1590290460.0 0.0050496064 -0.0063815419
1595290430.0 0.0049926914 -0.0063808624
1600290400.0 0.0049040866 -0.0064832032
1605290370.0 0.005203201 -0.0062555174
1610290340.0 0.0050612985 -0.0064280517
1615290310.0 0.0051897294 -0.0065839957
1620290280.0 0.0050048644 -0.0065357771
1625290250.0 0.0051764971 -0.0066731517
1630290220.0 0.0050323569 -0.0065425034
1635290190.0 0.0050818857 -0.0067008532
1640290160.0 0.0049953634 -0.0067910138
1645290130.0 0.0049352147 -0.0068777428
1650290100.0 0.0049360376 -0.0068775365
1655290070.0 0.0050359281 -0.0066926717
1660290040.0 0.0048055424 -0.006950931
1665290010.0 0.0048717086 -0.0069097213
1670289980.0 0.0049331316 -0.0067568296
1675289950.0 0.0050448592 -0.0068502735
1680289920.0 0.0049483934 -0.0071574531
1685289890.0 0.0046627721 -0.0071248821
1690289860.0 0.0046980196 -0.0069301342
1695289830.0 0.0049159665 -0.0070939621
1700289800.0 0.0050442942 -0.0070297292
1705289770.0 0.0049815031 -0.0074331379
1710289740.0 0.004848438 -0.007344086
1715289710.0 0.0049773615 -0.0073543267
1720289680.0 0.0049503704 -0.0073986796
1725289650.0 0.0048749749 -0.0073803637
1730289620.0 0.0047493919 -0.0073962782
1735289590.0 0.0048417614 -0.0074527923
1740289560.0 0.0048587444 -0.0072895844
1745289530.0 0.0048939132 -0.0072043421
1750289500.0 0.0047151907 -0.0072460592
1755289470.0 0.0047636292 -0.0072588876
1760289440.0 0.0047788824 -0.0075593161
1765289410.0 0.0047053226 -0.0074195242
1770289380.0 0.0049218261 -0.0073285825
1775289350.0 0.004702157 -0.0074721712
1780289320.0 0.0047195406 -0.0075441849
1785289290.0 0.0046741373 -0.0073840344
1790289260.0 0.0047634388 -0.007588743
1795289230.0 0.0045814399 -0.0076469968
1800289200.0 0.0046937119 -0.007590891
1805289170.0 0.0047465138 -0.0077645758
1810289140.0 0.0045604856 -0.0077346856
1815289110.0 0.0046206523 -0.0077722173
1820289080.0 0.0045227554 -0.0076574477
1825289050.0 0.0044724598 -0.0078823457
1830289020.0 0.0045034953 -0.0078006692
1835288990.0 0.0044861807 -0.0079926448
1840288960.0 0.0044893459 -0.0078325092
1845288930.0 0.0044693335 -0.0077919386
1850288900.0 0.00453595 -0.0080025574
1855288870.0 0.0043240349 -0.0077069016
1860288840.0 0.0045905098 -0.0079078081
1865288810.0 0.0044707425 -0.0080275264
1870288780.0 0.0043829602 -0.0078513509
1875288750.0 0.0043404051 -0.0081667804
1880288720.0 0.0044985684 -0.0081238517
1885288690.0 0.0043162687 -0.0080696125
1890288660.0 0.0043942062 -0.0081054735
1895288630.0 0.004387291 -0.0079384013
1900288600.0 0.0044585921 -0.0080736295
1905288570.0 0.0041180724 -0.0079708709
1910288540.0 0.004359185 -0.0081473083
1915288510.0 0.0043828769 -0.007937159
1920288480.0 0.0043114379 -0.0081310424
1925288450.0 0.0043154954 -0.0080884156
1930288420.0 0.0042192953 -0.0080808078
1935288390.0 0.004251165 -0.0081325766
1940288360.0 0.0043541847 -0.008148488
1945288330.0 0.0041388591 -0.0081401769
1950288300.0 0.0042105619 -0.0081753404
1955288270.0 0.0042418606 -0.0081148921
1960288240.0 0.0040581747 -0.0081833924
1965288210.0 0.0041296757 -0.008249589
1970288180.0 0.0042434148 -0.0083071103
1975288150.0 0.0040394946 -0.0083451391
1980288120.0 0.004316111 -0.0083595529
1985288090.0 0.0040187848 -0.0084383641
1990288060.0 0.0041086051 -0.0081848687
1995288030.0 0.0038921255 -0.0084773039
2000288000.0 0.0039746251 -0.008171261
2005287970.0 0.0038799286 -0.0084829378
2010287940.0 0.0041592951 -0.008430059
2015287910.0 0.003768067 -0.0083251225
2020287880.0 0.0036815542 -0.008544186
2025287850.0 0.0037736171 -0.0085203989
2030287820.0 0.0038336309 -0.0086691907
2035287790.0 0.0039492596 -0.0084016234
2040287760.0 0.0037970077 -0.0083732863
2045287730.0 0.0036598913 -0.0085949528
2050287700.0 0.0037074664 -0.0085819204
2055287670.0 0.0038607502 -0.0084772564
2060287640.0 0.0039029759 -0.008496579
2065287610.0 0.0036719616 -0.0085508145
2070287580.0 0.0037535132 -0.0084099904
2075287550.0 0.0034858945 -0.0084928714
2080287520.0 0.003735058 -0.0086118952
2085287490.0 0.0035328878 -0.0086522222
2090287460.0 0.0036513705 -0.0089053079
2095287430.0 0.0036672471 -0.008630113
2100287400.0 0.0035465504 -0.0084754918
2105287370.0 0.0035392579 -0.0085151944
2110287340.0 0.00347951 -0.0084128395
2115287310.0 0.003414802 -0.0085145867
2120287280.0 0.0037414494 -0.0085603144
2125287250.0 0.0032908434 -0.0087250512
2130287220.0 0.003429345 -0.0085004339
2135287190.0 0.0033030874 -0.0086999604
2140287160.0 0.0033887514 -0.0084972612
2145287130.0 0.0030641084 -0.0084758062
2150287100.0 0.0032960001 -0.0088159272
2155287070.0 0.0030206841 -0.0084116986
2160287040.0 0.0035167069 -0.0086240011
2165287010.0 0.003238727 -0.0086147449
2170286980.0 0.0031546116 -0.0084326727
2175286950.0 0.0030907036 -0.0086368609
2180286920.0 0.0033122324 -0.0085187332
2185286890.0 0.0032449558 -0.0087807373
2190286860.0 0.0031796548 -0.0086210106
2195286830.0 0.0029821065 -0.0087122339
2200286800.0 0.0031336382 -0.0085695121
2205286770.0 0.0030567622 -0.0085801662
2210286740.0 0.0029924554 -0.0087912564
2215286710.0 0.0028463059 -0.008682509
2220286680.0 0.0029593646 -0.0087312757
2225286650.0 0.0028834192 -0.0087699324
2230286620.0 0.0029141306 -0.0085367037
2235286590.0 0.0026854782 -0.0087510054
2240286560.0 0.0027267281 -0.0086584843
2245286530.0 0.0026085485 -0.0088259446
2250286500.0 0.0027984872 -0.0087902816
2255286470.0 0.0023748283 -0.0087913694
2260286440.0 0.002614936 -0.0088400321
2265286410.0 0.0026510577 -0.0086375954
2270286380.0 0.0024633963 -0.0087068899
2275286350.0 0.002564371 -0.0085712252
2280286320.0 0.0026390889 -0.0085726832
2285286290.0 0.0024585999 -0.0086680332
2290286260.0 0.0023023044 -0.0086836978
2295286230.0 0.0024751196 -0.0087185088
2300286200.0 0.0023810759 -0.0085586971
2305286170.0 0.0023149253 -0.0086007136
2310286140.0 0.0023341369 -0.0088406323
2315286110.0 0.0023829037 -0.0087683529
2320286080.0 0.0021713514 -0.0087536515
2325286050.0 0.0021783798 -0.0085711759
2330286020.0 0.0021305394 -0.0087223619
2335285990.0 0.0019933369 -0.0086262805
2340285960.0 0.002054287 -0.008591757
2345285930.0 0.0020009135 -0.0087326616
2350285900.0 0.002054864 -0.0086814656
2355285870.0 0.0018914169 -0.0083257516
2360285840.0 0.0018836178 -0.0085407986
2365285810.0 0.0021519256 -0.008640204
2370285780.0 0.0020787483 -0.0086397983
2375285750.0 0.0017280216 -0.0085287777
2380285720.0 0.0019390318 -0.0084494637
2385285690.0 0.0017071389 -0.0085811782
2390285660.0 0.0018279621 -0.0086618797
2395285630.0 0.0017954793 -0.008675893
2400285600.0 0.0018970139 -0.0084356913
2405285570.0 0.0014671781 -0.0087831058
2410285540.0 0.0015162572 -0.0084160236
2415285510.0 0.0015882693 -0.0085698995
2420285480.0 0.0015869568 -0.0086579197
2425285450.0 0.0014557557 -0.008472274
2430285420.0 0.0014617417 -0.0086411415
2435285390.0 0.0015218254 -0.0083484684
2440285360.0 0.0015036431 -0.0086866003
2445285330.0 0.0014981483 -0.0084655799
2450285300.0 0.0015108323 -0.0086743591
2455285270.0 0.0014714319 -0.00862962
2460285240.0 0.0013224063 -0.0086818089
2465285210.0 0.0012548229 -0.008523517
2470285180.0 0.0012341732 -0.008314031
2475285150.0 0.0010073339 -0.0083692146
2480285120.0 0.0008883205 -0.0085751988
2485285090.0 0.0010546373 -0.0085022271
2490285060.0 0.0010644511 -0.0085630127
2495285030.0 0.0008661112 -0.008410797
2500285000.0 0.0009817343 -0.0083099537
2505284970.0 0.000818413 -0.0086574109
2510284940.0 0.0011397337 -0.0084888656
2515284910.0 0.0008140963 -0.0084782574
2520284880.0 0.0010911945 -0.0083251916
2525284850.0 0.0008312057 -0.008470604
2530284820.0 0.0008307319 -0.008448684
2535284790.0 0.0006785953 -0.008389611
2540284760.0 0.0005703314 -0.0085832845
