!Created with skrf (http://scikit-rf.org).
# Hz S RI R 50.0 
!freq ReS11 ImS11
45000000.0 0.06941604614257812 0.08640289306640625
49995500.0 0.08823776245117188 0.0861053466796875
54991000.0 0.10869979858398438 0.08220672607421875
59986500.0 0.12725830078125 0.08342742919921875
64982000.0 0.14788055419921875 0.07686614990234375
69977500.0 0.169097900390625 0.06450653076171875
74973000.0 0.18927764892578125 0.04772186279296875
79968500.0 0.207763671875 0.02696990966796875
84964000.0 0.22359466552734375 0.0023345947265625
89959500.0 0.23626708984375 -0.02606201171875
94955000.0 0.24408721923828125 -0.0577392578125
99950500.0 0.247344970703125 -0.09175872802734375
104946000.0 0.2453765869140625 -0.1269989013671875
109941500.0 0.23786163330078125 -0.162841796875
114937000.0 0.2248687744140625 -0.1988525390625
119932500.0 0.20660400390625 -0.233245849609375
124928000.0 0.183685302734375 -0.2660064697265625
129923500.0 0.155792236328125 -0.2957000732421875
134919000.0 0.1233673095703125 -0.3228607177734375
139914500.0 0.086761474609375 -0.3461761474609375
144910000.0 0.0465545654296875 -0.3654327392578125
149905500.0 0.0030059814453125 -0.3798828125
154901000.0 -0.042816162109375 -0.3892364501953125
159896500.0 -0.0906524658203125 -0.3930511474609375
164892000.0 -0.1399993896484375 -0.3908538818359375
169887500.0 -0.1899261474609375 -0.3824615478515625
174883000.0 -0.2399749755859375 -0.367828369140625
179878500.0 -0.289093017578125 -0.346221923828125
184874000.0 -0.3364410400390625 -0.3178863525390625
189869500.0 -0.381011962890625 -0.2830657958984375
194865000.0 -0.422027587890625 -0.2425994873046875
199860500.0 -0.45849609375 -0.1953887939453125
204856000.0 -0.4889678955078125 -0.1430816650390625
209851500.0 -0.51336669921875 -0.08660888671875
214847000.0 -0.530853271484375 -0.02618408203125
219842500.0 -0.541168212890625 0.037139892578125
224838000.0 -0.543426513671875 0.1021728515625
229833500.0 -0.5380859375 0.167755126953125
234829000.0 -0.524322509765625 0.232757568359375
239824500.0 -0.502960205078125 0.29681396484375
244820000.0 -0.4739837646484375 0.358551025390625
249815500.0 -0.4376373291015625 0.41729736328125
254811000.0 -0.4176788330078125 0.459381103515625
259806500.0 -0.370819091796875 0.51220703125
264802000.0 -0.3175048828125 0.560638427734375
269797500.0 -0.25799560546875 0.603546142578125
274793000.0 -0.19281005859375 0.640228271484375
279788500.0 -0.12249755859375 0.669952392578125
284784000.0 -0.04779052734375 0.69268798828125
289779500.0 0.0306396484375 0.70703125
294775000.0 0.112579345703125 0.712646484375
299770500.0 0.19659423828125 0.708648681640625
304766000.0 0.281280517578125 0.69464111328125
309761500.0 0.365875244140625 0.669830322265625
314757000.0 0.448577880859375 0.633880615234375
319752500.0 0.52850341796875 0.586578369140625
324748000.0 0.603118896484375 0.529296875
329743500.0 0.671722412109375 0.461761474609375
334739000.0 0.732421875 0.384429931640625
339734500.0 0.78350830078125 0.298187255859375
344730000.0 0.823455810546875 0.205535888671875
349725500.0 0.851715087890625 0.1080322265625
354721000.0 0.8677978515625 0.00640869140625
359716500.0 0.87066650390625 -0.09649658203125
364712000.0 0.861083984375 -0.199981689453125
369707500.0 0.83856201171875 -0.30169677734375
374703000.0 0.8040771484375 -0.400634765625
379698500.0 0.758148193359375 -0.49468994140625
384694000.0 0.701629638671875 -0.5831298828125
389689500.0 0.635162353515625 -0.66455078125
394685000.0 0.5596923828125 -0.738555908203125
399680500.0 0.47650146484375 -0.803802490234375
404676000.0 0.3865966796875 -0.8603515625
409671500.0 0.29010009765625 -0.90789794921875
414667000.0 0.1885986328125 -0.9442138671875
419662500.0 0.08221435546875 -0.970062255859375
424658000.0 -0.02862548828125 -0.984466552734375
429653500.0 -0.142730712890625 -0.986480712890625
434649000.0 -0.258697509765625 -0.97393798828125
439644500.0 -0.372802734375 -0.9483642578125
444640000.0 -0.485198974609375 -0.909912109375
449635500.0 -0.594696044921875 -0.858978271484375
454631000.0 -0.70086669921875 -0.79376220703125
459626500.0 -0.800445556640625 -0.7138671875
464622000.0 -0.890869140625 -0.61895751953125
469617500.0 -0.969024658203125 -0.51171875
474613000.0 -1.0333251953125 -0.39349365234375
479608500.0 -1.08148193359375 -0.26666259765625
484604000.0 -1.1126708984375 -0.133056640625
489599500.0 -1.1256103515625 0.003662109375
494595000.0 -1.11968994140625 0.140380859375
499590500.0 -1.0963134765625 0.27471923828125
504586000.0 -1.05560302734375 0.4031982421875
509581500.0 -0.999359130859375 0.52362060546875
514577000.0 -0.929656982421875 0.63409423828125
519572500.0 -0.84912109375 0.73345947265625
524568000.0 -0.76007080078125 0.821044921875
529563500.0 -0.66473388671875 0.8970947265625
534559000.0 -0.56463623046875 0.962432861328125
539554500.0 -0.46112060546875 1.0179443359375
544550000.0 -0.35382080078125 1.06451416015625
549545500.0 -0.242431640625 1.102783203125
554541000.0 -0.1260986328125 1.13214111328125
559536500.0 -0.00482177734375 1.1510009765625
564532000.0 0.12078857421875 1.15771484375
569527500.0 0.2491455078125 1.15167236328125
574523000.0 0.37939453125 1.131103515625
579518500.0 0.5093994140625 1.09521484375
584514000.0 0.63763427734375 1.04437255859375
589509500.0 0.76190185546875 0.97760009765625
594505000.0 0.88043212890625 0.895050048828125
599500500.0 0.990386962890625 0.796600341796875
604496000.0 1.0906982421875 0.6832275390625
609491500.0 1.17767333984375 0.555419921875
614487000.0 1.2490234375 0.41522216796875
619482500.0 1.3026123046875 0.26416015625
624478000.0 1.33624267578125 0.10516357421875
629473500.0 1.3485107421875 -0.0579833984375
634469000.0 1.33831787109375 -0.22235107421875
639464500.0 1.3060302734375 -0.3848876953125
644460000.0 1.252197265625 -0.54119873046875
649455500.0 1.1785888671875 -0.6883544921875
654451000.0 1.087158203125 -0.82366943359375
659446500.0 0.980560302734375 -0.944915771484375
664442000.0 0.8614501953125 -1.0506591796875
669437500.0 0.732177734375 -1.1400146484375
674433000.0 0.59588623046875 -1.21258544921875
679428500.0 0.45458984375 -1.2681884765625
684424000.0 0.310302734375 -1.30780029296875
689419500.0 0.16424560546875 -1.33184814453125
694415000.0 0.0185546875 -1.3404541015625
699410500.0 -0.125732421875 -1.335205078125
704406000.0 -0.2681884765625 -1.31646728515625
709401500.0 -0.40802001953125 -1.28424072265625
714397000.0 -0.54473876953125 -1.239013671875
719392500.0 -0.67767333984375 -1.18115234375
724388000.0 -0.80615234375 -1.1107177734375
729383500.0 -0.92913818359375 -1.02642822265625
734379000.0 -1.04510498046875 -0.9278564453125
739374500.0 -1.1524658203125 -0.81573486328125
744370000.0 -1.2508544921875 -0.6915283203125
749365500.0 -1.336181640625 -0.55157470703125
754361000.0 -1.40765380859375 -0.40008544921875
759356500.0 -1.46142578125 -0.2366943359375
764352000.0 -1.49530029296875 -0.0640869140625
769347500.0 -1.50726318359375 0.115478515625
774343000.0 -1.49517822265625 0.298095703125
779338500.0 -1.46014404296875 0.48052978515625
784334000.0 -1.3970947265625 0.65850830078125
789329500.0 -1.31085205078125 0.82733154296875
794325000.0 -1.2025146484375 0.9820556640625
799320500.0 -1.0745849609375 1.120849609375
804316000.0 -0.930419921875 1.2401123046875
809311500.0 -0.77386474609375 1.33819580078125
814307000.0 -0.6087646484375 1.41448974609375
819302500.0 -0.43841552734375 1.4688720703125
824298000.0 -0.26513671875 1.5010986328125
829293500.0 -0.09417724609375 1.51416015625
834289000.0 0.07489013671875 1.5076904296875
839284500.0 0.2388916015625 1.4833984375
844280000.0 0.33746337890625 1.4771728515625
849275500.0 0.49224853515625 1.42913818359375
854271000.0 0.6407470703125 1.3670654296875
859266500.0 0.7816162109375 1.29229736328125
864262000.0 0.91448974609375 1.203857421875
869257500.0 1.03863525390625 1.103759765625
874253000.0 1.1534423828125 0.9921875
879248500.0 1.25836181640625 0.86895751953125
884244000.0 1.35186767578125 0.7354736328125
889239500.0 1.4332275390625 0.59161376953125
894235000.0 1.50128173828125 0.43853759765625
899230500.0 1.5562744140625 0.2755126953125
904226000.0 1.59344482421875 0.10333251953125
909221500.0 1.61309814453125 -0.078125
914217000.0 1.61053466796875 -0.26531982421875
919212500.0 1.58416748046875 -0.45489501953125
924208000.0 1.5325927734375 -0.64337158203125
929203500.0 1.45672607421875 -0.82672119140625
934199000.0 1.3555908203125 -1.0006103515625
939194500.0 1.231201171875 -1.16015625
944190000.0 1.0865478515625 -1.30242919921875
949185500.0 0.92425537109375 -1.4246826171875
954181000.0 0.747314453125 -1.52398681640625
959176500.0 0.561279296875 -1.59857177734375
964172000.0 0.3692626953125 -1.6483154296875
969167500.0 0.1746826171875 -1.67364501953125
974163000.0 -0.0179443359375 -1.67529296875
979158500.0 -0.20660400390625 -1.65521240234375
984154000.0 -0.38836669921875 -1.6148681640625
989149500.0 -0.56243896484375 -1.55560302734375
994145000.0 -0.7265625 -1.48040771484375
999140500.0 -0.8807373046875 -1.38909912109375
1004136000.0 -1.0233154296875 -1.28485107421875
1009131500.0 -1.15545654296875 -1.1673583984375
1014127000.0 -1.27520751953125 -1.0382080078125
1019122500.0 -1.382080078125 -0.89752197265625
1024118000.0 -1.47625732421875 -0.74664306640625
1029113500.0 -1.55474853515625 -0.58599853515625
1034109000.0 -1.6181640625 -0.4151611328125
1039104500.0 -1.66455078125 -0.23675537109375
1044100000.0 -1.69158935546875 -0.05169677734375
1049095500.0 -1.69921875 0.1395263671875
1054091000.0 -1.6842041015625 0.33319091796875
1059086500.0 -1.6463623046875 0.5274658203125
1064082000.0 -1.5841064453125 0.71807861328125
1069077500.0 -1.498291015625 0.9033203125
1074073000.0 -1.38818359375 1.07757568359375
1079068500.0 -1.25567626953125 1.23895263671875
1084064000.0 -1.10272216796875 1.38214111328125
1089059500.0 -0.93243408203125 1.50390625
1094055000.0 -0.7476806640625 1.6033935546875
1099050500.0 -0.5521240234375 1.6776123046875
1104046000.0 -0.3507080078125 1.72589111328125
1109041500.0 -0.14630126953125 1.749267578125
1114037000.0 0.0565185546875 1.746826171875
1119032500.0 0.254638671875 1.72064208984375
1124028000.0 0.44561767578125 1.67193603515625
1129023500.0 0.62786865234375 1.60296630859375
1134019000.0 0.79815673828125 1.51605224609375
1139014500.0 0.95574951171875 1.41278076171875
1144010000.0 1.10003662109375 1.29461669921875
1149005500.0 1.23065185546875 1.16351318359375
1154001000.0 1.3460693359375 1.0213623046875
1158996500.0 1.4459228515625 0.868896484375
1163992000.0 1.5299072265625 0.70831298828125
1168987500.0 1.59820556640625 0.53912353515625
1173983000.0 1.64886474609375 0.36505126953125
1178978500.0 1.68170166015625 0.1851806640625
1183974000.0 1.696044921875 0.0023193359375
1188969500.0 1.691650390625 -0.18280029296875
1193965000.0 1.66778564453125 -0.36785888671875
1198960500.0 1.6231689453125 -0.551025390625
1203956000.0 1.5589599609375 -0.73114013671875
1208951500.0 1.47393798828125 -0.904296875
1213947000.0 1.36895751953125 -1.068603515625
1218942500.0 1.24420166015625 -1.2210693359375
1223938000.0 1.10174560546875 -1.35968017578125
1228933500.0 0.94268798828125 -1.48114013671875
1233929000.0 0.76953125 -1.58355712890625
1238924500.0 0.58367919921875 -1.66546630859375
1243920000.0 0.3892822265625 -1.72442626953125
1248915500.0 0.18798828125 -1.75927734375
1253911000.0 -0.01580810546875 -1.76983642578125
1258906500.0 -0.21929931640625 -1.75604248046875
1263902000.0 -0.42132568359375 -1.71966552734375
1268897500.0 -0.61248779296875 -1.65789794921875
1273893000.0 -0.7957763671875 -1.57489013671875
1278888500.0 -0.9677734375 -1.4720458984375
1283884000.0 -1.12554931640625 -1.35089111328125
1288879500.0 -1.2681884765625 -1.212890625
1293875000.0 -1.39349365234375 -1.06072998046875
1298870500.0 -1.5008544921875 -0.896240234375
1303866000.0 -1.58837890625 -0.72149658203125
1308861500.0 -1.65618896484375 -0.538818359375
1313857000.0 -1.70330810546875 -0.3502197265625
1318852500.0 -1.72821044921875 -0.15850830078125
1323848000.0 -1.732666015625 0.0343017578125
1328843500.0 -1.71539306640625 0.2259521484375
1333839000.0 -1.67803955078125 0.4146728515625
1338834500.0 -1.61944580078125 0.5966796875
1343830000.0 -1.5416259765625 0.77130126953125
1348825500.0 -1.4451904296875 0.93646240234375
1353821000.0 -1.33233642578125 1.08892822265625
1358816500.0 -1.2032470703125 1.22833251953125
1363812000.0 -1.05999755859375 1.35260009765625
1368807500.0 -0.90472412109375 1.46044921875
1373803000.0 -0.73876953125 1.551025390625
1378798500.0 -0.563720703125 1.6234130859375
1383794000.0 -0.38189697265625 1.67633056640625
1388789500.0 -0.19573974609375 1.70941162109375
1393785000.0 -0.006103515625 1.72296142578125
1398780500.0 0.18548583984375 1.71612548828125
1403776000.0 0.37493896484375 1.6878662109375
1408771500.0 0.56146240234375 1.6392822265625
1413767000.0 0.742431640625 1.56976318359375
1418762500.0 0.91656494140625 1.4803466796875
1423758000.0 1.080322265625 1.3707275390625
1428753500.0 1.23101806640625 1.2425537109375
1433749000.0 1.36761474609375 1.09649658203125
1438744500.0 1.4874267578125 0.933837890625
1443740000.0 1.586669921875 0.75677490234375
1448735500.0 1.66455078125 0.5677490234375
1453731000.0 1.71875 0.37042236328125
1458726500.0 1.74749755859375 0.1676025390625
1463722000.0 1.75103759765625 -0.03631591796875
1468717500.0 1.72943115234375 -0.23883056640625
1473713000.0 1.6826171875 -0.43548583984375
1478708500.0 1.61285400390625 -0.6231689453125
1483704000.0 1.5216064453125 -0.79937744140625
1488699500.0 1.4112548828125 -0.96038818359375
1493695000.0 1.284912109375 -1.1051025390625
1498690500.0 1.1448974609375 -1.23193359375
1503686000.0 0.99462890625 -1.3406982421875
1508681500.0 0.835693359375 -1.43072509765625
1513677000.0 0.6712646484375 -1.5018310546875
1518672500.0 0.503173828125 -1.5550537109375
1523668000.0 0.3330078125 -1.590087890625
1528663500.0 0.1627197265625 -1.608154296875
1533659000.0 -0.00689697265625 -1.60968017578125
1538654500.0 -0.17486572265625 -1.59539794921875
1543650000.0 -0.33966064453125 -1.5653076171875
1548645500.0 -0.50067138671875 -1.5206298828125
1553641000.0 -0.6571044921875 -1.45928955078125
1558636500.0 -0.807373046875 -1.38409423828125
1563632000.0 -0.95062255859375 -1.293212890625
1568627500.0 -1.08612060546875 -1.18798828125
1573623000.0 -1.211181640625 -1.06817626953125
1578618500.0 -1.32379150390625 -0.93353271484375
1583614000.0 -1.4227294921875 -0.7864990234375
1588609500.0 -1.50616455078125 -0.6270751953125
1593605000.0 -1.5718994140625 -0.456787109375
1598600500.0 -1.61761474609375 -0.27838134765625
1603596000.0 -1.641845703125 -0.0941162109375
1608591500.0 -1.6436767578125 0.0926513671875
1613587000.0 -1.6221923828125 0.27862548828125
1618582500.0 -1.57904052734375 0.4609375
1623578000.0 -1.51275634765625 0.63623046875
1628573500.0 -1.42669677734375 0.8006591796875
1633569000.0 -1.32232666015625 0.9525146484375
1638564500.0 -1.2017822265625 1.08953857421875
1643560000.0 -1.068115234375 1.21002197265625
1648555500.0 -0.92340087890625 1.312744140625
1653551000.0 -0.770751953125 1.39788818359375
1658546500.0 -0.61212158203125 1.46441650390625
1663542000.0 -0.44964599609375 1.51397705078125
1668537500.0 -0.28582763671875 1.54656982421875
1673533000.0 -0.12127685546875 1.5621337890625
1678528500.0 0.04278564453125 1.56219482421875
1683524000.0 0.2041015625 1.54632568359375
1688519500.0 0.36346435546875 1.51641845703125
1693515000.0 0.5196533203125 1.47125244140625
1698510500.0 0.671875 1.4117431640625
1703506000.0 0.81707763671875 1.33929443359375
1708501500.0 0.95770263671875 1.251220703125
1713497000.0 1.0914306640625 1.1480712890625
1718492500.0 1.21575927734375 1.03070068359375
1723488000.0 1.32867431640625 0.89813232421875
1728483500.0 1.4295654296875 0.7508544921875
1733479000.0 1.5142822265625 0.5899658203125
1738474500.0 1.58154296875 0.41656494140625
1743470000.0 1.62677001953125 0.23370361328125
1748465500.0 1.64959716796875 0.0435791015625
1753461000.0 1.6473388671875 -0.150146484375
1758456500.0 1.6192626953125 -0.34332275390625
1763452000.0 1.5665283203125 -0.53143310546875
1768447500.0 1.48931884765625 -0.71014404296875
1773443000.0 1.3897705078125 -0.8753662109375
1778438500.0 1.27105712890625 -1.02520751953125
1783434000.0 1.13616943359375 -1.1561279296875
1788429500.0 0.98974609375 -1.2667236328125
1793425000.0 0.83428955078125 -1.35791015625
1798420500.0 0.6729736328125 -1.42816162109375
1803416000.0 0.509521484375 -1.4798583984375
1808411500.0 0.3450927734375 -1.51251220703125
1813407000.0 0.18212890625 -1.52874755859375
1818402500.0 0.02154541015625 -1.5289306640625
1823398000.0 -0.13623046875 -1.514404296875
1828393500.0 -0.28948974609375 -1.4862060546875
1833389000.0 -0.4383544921875 -1.4453125
1838384500.0 -0.58282470703125 -1.39129638671875
1843380000.0 -0.72265625 -1.324951171875
1848375500.0 -0.85662841796875 -1.24609375
1853371000.0 -0.984130859375 -1.15435791015625
1858366500.0 -1.10400390625 -1.05029296875
1863362000.0 -1.2156982421875 -0.9315185546875
1868357500.0 -1.3162841796875 -0.8006591796875
1873353000.0 -1.40435791015625 -0.65679931640625
1878348500.0 -1.4775390625 -0.5003662109375
1883344000.0 -1.5330810546875 -0.33343505859375
1888339500.0 -1.56878662109375 -0.15826416015625
1893335000.0 -1.5831298828125 0.0228271484375
1898330500.0 -1.5736083984375 0.206787109375
1903326000.0 -1.540283203125 0.38897705078125
1908321500.0 -1.48333740234375 0.56561279296875
1913317000.0 -1.403564453125 0.7330322265625
1918312500.0 -1.30322265625 0.8873291015625
1923308000.0 -1.1849365234375 1.02569580078125
1928303500.0 -1.052490234375 1.146484375
1933299000.0 -0.90863037109375 1.2479248046875
1938294500.0 -0.7569580078125 1.32977294921875
1943290000.0 -0.60064697265625 1.3922119140625
1948285500.0 -0.4420166015625 1.4359130859375
1953281000.0 -0.283203125 1.461669921875
1958276500.0 -0.12628173828125 1.4715576171875
1963272000.0 0.02777099609375 1.46630859375
1968267500.0 0.178466796875 1.44580078125
1973263000.0 0.323974609375 1.41241455078125
1978258500.0 0.46441650390625 1.3663330078125
1983254000.0 0.60015869140625 1.30816650390625
1988249500.0 0.72906494140625 1.23773193359375
1993245000.0 0.850830078125 1.1563720703125
1998240500.0 0.96673583984375 1.06317138671875
2003236000.0 1.072265625 0.95849609375
2008231500.0 1.16925048828125 0.84381103515625
2013227000.0 1.25421142578125 0.71795654296875
2018222500.0 1.327880859375 0.58245849609375
2023218000.0 1.3863525390625 0.4384765625
2028213500.0 1.4295654296875 0.2867431640625
2033209000.0 1.455322265625 0.13067626953125
2038204500.0 1.4639892578125 -0.02935791015625
2043200000.0 1.45367431640625 -0.190185546875
2048195500.0 1.424560546875 -0.34930419921875
2053191000.0 1.37689208984375 -0.5035400390625
2058186500.0 1.31243896484375 -0.65155029296875
2063182000.0 1.23046875 -0.7900390625
2068177500.0 1.13446044921875 -0.9169921875
2073173000.0 1.0257568359375 -1.03167724609375
2078168500.0 0.9058837890625 -1.1331787109375
2083164000.0 0.77691650390625 -1.21942138671875
2088159500.0 0.64129638671875 -1.2919921875
2093155000.0 0.500244140625 -1.348876953125
2098150500.0 0.355224609375 -1.39111328125
2103146000.0 0.20806884765625 -1.4188232421875
2108141500.0 0.0596923828125 -1.43267822265625
2113137000.0 -0.089111328125 -1.43109130859375
2118132500.0 -0.23681640625 -1.4156494140625
2123128000.0 -0.3837890625 -1.38671875
2128123500.0 -0.52813720703125 -1.3441162109375
2133119000.0 -0.66802978515625 -1.2862548828125
2138114500.0 -0.80450439453125 -1.2139892578125
2143110000.0 -0.9332275390625 -1.1280517578125
2148105500.0 -1.0546875 -1.02703857421875
2153101000.0 -1.166748046875 -0.91204833984375
2158096500.0 -1.266357421875 -0.78375244140625
2163092000.0 -1.3526611328125 -0.6422119140625
2168087500.0 -1.42242431640625 -0.489990234375
2173083000.0 -1.4747314453125 -0.32830810546875
2178078500.0 -1.5076904296875 -0.15997314453125
2183074000.0 -1.51910400390625 0.0120849609375
2188069500.0 -1.509521484375 0.1845703125
2193065000.0 -1.4786376953125 0.355224609375
