!Created with skrf (http://scikit-rf.org).
# Hz S RI R 50.0 
!freq ReS11 ImS11
300000.0 -0.0040672864 -0.0409542294
5299970.0 -0.0001045541 -0.0003415634
10299940.0 0.0003762033 -0.0007539535
15299910.0 0.0005406189 0.0005300041
20299880.0 0.0003828112 -2.46951e-05
25299850.0 0.0006838618 0.0003719452
30299820.0 0.0006061065 0.000797158
35299790.0 0.0004610299 0.000132445
40299760.0 0.0008579682 0.0002238135
45299730.0 0.0006807765 0.0004152722
50299700.0 0.0009902063 0.0007802721
55299670.0 0.0009468002 0.0007693615
60299640.0 0.0008881579 0.0008348089
65299610.0 0.0008727272 0.000607157
70299580.0 0.0009543102 0.0007796395
75299550.0 0.0008252747 0.0006734418
80299520.0 0.0010158181 0.0006431945
85299490.0 0.000846886 0.0006107426
90299460.0 0.0012134882 0.0006491893
95299430.0 0.0012656063 0.0005943806
100299400.0 0.0009401753 0.0007308697
105299370.0 0.0013083887 0.0008074224
110299340.0 0.0012755047 0.0008782603
115299310.0 0.0011968182 0.0008420163
120299280.0 0.0013317768 0.0010396093
125299250.0 0.0011827012 0.0008997102
130299220.0 0.0013703515 0.0009025667
135299190.0 0.0010550044 0.0008102396
140299160.0 0.0012469219 0.0008984085
145299130.0 0.0011286414 0.0007274234
150299100.0 0.0014527139 0.0007885331
155299070.0 0.0014751357 0.0008718996
160299040.0 0.0016471669 0.0009328161
165299010.0 0.0017261748 0.0009636058
170298980.0 0.0014610182 0.0009386763
175298950.0 0.0015485249 0.0008679216
180298920.0 0.0015238374 0.0011190773
185298890.0 0.0015246059 0.0009330101
190298860.0 0.0016847918 0.0011554001
195298830.0 0.0017576767 0.0010761258
200298800.0 0.0015647836 0.0011011696
205298770.0 0.0018429326 0.0010850705
210298740.0 0.0019421606 0.0009438429
215298710.0 0.0018669755 0.0010692009
220298680.0 0.0019776673 0.0009846425
225298650.0 0.0019856482 0.0009776525
230298620.0 0.0018490186 0.0009663703
235298590.0 0.0016645706 0.0010487919
240298560.0 0.0018397385 0.000954755
245298530.0 0.002045172 0.0010047251
250298500.0 0.0019629352 0.0007517416
255298470.0 0.0018663317 0.0009374404
260298440.0 0.0017905685 0.0008518537
265298410.0 0.0018553173 0.0009679109
270298380.0 0.0018318404 0.0008787921
275298350.0 0.0020339233 0.0010104857
280298320.0 0.0019468411 0.0009716598
285298290.0 0.0019879473 0.0012152241
290298260.0 0.0021852879 0.0010485432
295298230.0 0.0021756106 0.000901174
300298200.0 0.0019989504 0.0009596891
305298170.0 0.0021219039 0.000906673
310298140.0 0.0020478072 0.0009478956
315298110.0 0.0021033378 0.0008007621
320298080.0 0.0021724569 0.0009411875
325298050.0 0.0022254254 0.000959468
330298020.0 0.0023687114 0.0008206966
335297990.0 0.0020684394 0.0009753763
340297960.0 0.0023041252 0.0006286234
345297930.0 0.0022348286 0.0008129995
350297900.0 0.0024153233 0.0006829831
355297870.0 0.0021970033 0.000724605
360297840.0 0.0022970773 0.0005999475
365297810.0 0.0023195513 0.000654917
370297780.0 0.0024744006 0.0007985976
375297750.0 0.0024079322 0.0009083207
380297720.0 0.0021726158 0.0009683221
385297690.0 0.00226964 0.0009956088
390297660.0 0.0024274275 0.0006087621
395297630.0 0.0023229026 0.0007666984
400297600.0 0.0024890663 0.0009532591
405297570.0 0.0025406035 0.000587605
410297540.0 0.0024153169 0.0007375996
415297510.0 0.002532865 0.0009130287
420297480.0 0.0025691596 0.000553977
425297450.0 0.0027382355 0.0006193492
430297420.0 0.0025606714 0.0006083298
435297390.0 0.0025442363 0.00067321
440297360.0 0.0025294283 0.0008796904
445297330.0 0.0024440843 0.0005429547
450297300.0 0.0025869512 0.0006106681
455297270.0 0.0025683245 0.0005644481
460297240.0 0.0026099432 0.0005133335
465297210.0 0.0025600652 0.0006729348
470297180.0 0.0027794644 0.0007136651
475297150.0 0.0025062931 0.0006162895
480297120.0 0.0025870953 0.0005802815
485297090.0 0.0025821392 0.0006828109
490297060.0 0.0025769211 0.0005749647
495297030.0 0.0025948524 0.0003622435
500297000.0 0.0026648255 0.0005708807
505296970.0 0.0027479283 0.0005595872
510296940.0 0.002731074 0.0006645181
515296910.0 0.0024601762 0.0005344946
520296880.0 0.0025555172 0.0006725861
525296850.0 0.0024301755 0.0006464011
530296820.0 0.0024721525 0.0005501134
535296790.0 0.0024641967 0.0005189915
540296760.0 0.0025371877 0.0006286109
545296730.0 0.0026074631 0.0005394725
550296700.0 0.0026869573 0.0002735082
555296670.0 0.0027571578 0.0001474194
560296640.0 0.0026862349 0.0004284308
565296610.0 0.0028208993 0.0003212118
570296580.0 0.0026522784 0.000195792
575296550.0 0.0027308506 0.0002787312
580296520.0 0.0028980483 0.0002123981
585296490.0 0.0029309449 0.0003104774
590296460.0 0.0027883206 0.000309182
595296430.0 0.0028928913 0.0003299247
600296400.0 0.0029345907 0.0003108001
605296370.0 0.0029858969 4.88466e-05
610296340.0 0.0029717841 0.0003386447
615296310.0 0.0030438678 -1.11346e-05
620296280.0 0.0030113641 0.0001567164
625296250.0 0.0028903606 -2.3196e-06
630296220.0 0.0028443537 0.0001214643
635296190.0 0.0028237079 9.99742e-05
640296160.0 0.002834989 -5.55978e-05
645296130.0 0.0028118943 -9.40445e-05
650296100.0 0.0029994081 6.83127e-05
655296070.0 0.0027436797 2.7081e-05
660296040.0 0.0030809246 -0.0002757004
665296010.0 0.003261086 -0.0002599918
670295980.0 0.0027449094 -0.0001524498
675295950.0 0.0027762088 -0.0001418518
680295920.0 0.0030180921 -0.000143442
685295890.0 0.0029839513 -0.0002619469
690295860.0 0.0029311709 -0.000350284
695295830.0 0.002893443 -0.0002331361
700295800.0 0.0029748625 -0.0001799084
705295770.0 0.0031926728 -2.35422e-05
710295740.0 0.0029193759 -0.0001484459
715295710.0 0.0029751973 -6.45531e-05
720295680.0 0.0028211624 -0.0003465998
725295650.0 0.0030157072 -2.45892e-05
730295620.0 0.0030184614 -0.000271124
735295590.0 0.0028920245 -0.0005126859
740295560.0 0.0030580704 -0.0002476092
745295530.0 0.0029912285 -0.0005439767
750295500.0 0.0029188676 -0.0003774509
755295470.0 0.0030129914 -0.0003121374
760295440.0 0.0028776117 -0.0004325713
765295410.0 0.0028277611 -0.0005250899
770295380.0 0.0029599193 -0.0003753261
775295350.0 0.0029542285 -0.0005390688
780295320.0 0.0030610664 -0.0005766074
785295290.0 0.0029586896 -0.0008538325
790295260.0 0.002886459 -0.0005467407
795295230.0 0.0030901581 -0.0005694766
800295200.0 0.0031443369 -0.0006861891
805295170.0 0.002966159 -0.000577149
810295140.0 0.0027748292 -0.0008574811
815295110.0 0.0028676377 -0.0005884783
820295080.0 0.0028265185 -0.000729089
825295050.0 0.0032037663 -0.0007515482
830295020.0 0.0028720865 -0.0009831317
835294990.0 0.0030860265 -0.0006227744
840294960.0 0.0030249985 -0.0008091651
845294930.0 0.0029311792 -0.0009287679
850294900.0 0.0030663928 -0.0010604941
855294870.0 0.0030254044 -0.0011763112
860294840.0 0.0029351033 -0.0009679896
865294810.0 0.0029134174 -0.0010624253
870294780.0 0.0032260647 -0.0009656258
875294750.0 0.003295977 -0.0010423788
880294720.0 0.0029512969 -0.0010562109
885294690.0 0.003097089 -0.0011159054
890294660.0 0.0027182453 -0.0011674583
895294630.0 0.0030611933 -0.0009462019
900294600.0 0.0030990698 -0.0010835544
905294570.0 0.0031084779 -0.0012200682
910294540.0 0.0030451941 -0.001364253
915294510.0 0.0031688169 -0.0013819183
920294480.0 0.0032241558 -0.0014402433
925294450.0 0.0030686151 -0.0014219839
930294420.0 0.0029447868 -0.0012607783
935294390.0 0.0030553248 -0.0015393393
940294360.0 0.0029838797 -0.0014409515
945294330.0 0.0030992125 -0.00153651
950294300.0 0.0029977653 -0.0016476025
955294270.0 0.0029252993 -0.0013718793
960294240.0 0.0029950788 -0.0013424078
965294210.0 0.0030709499 -0.0016672745
970294180.0 0.0028936905 -0.0017544971
975294150.0 0.0030869222 -0.0015795909
980294120.0 0.0029013446 -0.0017912357
985294090.0 0.0031223723 -0.0017605316
990294060.0 0.0030066911 -0.0019300794
995294030.0 0.0028743558 -0.0018255309
1000294000.0 0.0028910283 -0.0019083709
1005293970.0 0.002968875 -0.0019403879
1010293940.0 0.0031545089 -0.001850622
1015293910.0 0.0031308324 -0.0018376589
1020293880.0 0.0031879316 -0.0018784767
1025293850.0 0.0026456177 -0.0019478144
1030293820.0 0.0028473075 -0.0022493117
1035293790.0 0.0029839771 -0.0019544575
1040293760.0 0.0030973986 -0.0018088672
1045293730.0 0.0030953638 -0.0021163316
1050293700.0 0.0030124903 -0.0021427845
1055293670.0 0.0029019222 -0.0022547079
1060293640.0 0.0027811018 -0.0021286773
1065293610.0 0.002915316 -0.0020655261
1070293580.0 0.0029805624 -0.0020889845
1075293550.0 0.0030275022 -0.0022330108
1080293520.0 0.0031037199 -0.0022474638
1085293490.0 0.0029068726 -0.0022832925
1090293460.0 0.003197147 -0.0022986854
1095293430.0 0.0031025783 -0.0022350313
1100293400.0 0.003056541 -0.0023861714
1105293370.0 0.0030152156 -0.0022779147
1110293340.0 0.0032038232 -0.0024654266
1115293310.0 0.0030249539 -0.0024490427
1120293280.0 0.0029691439 -0.0024335266
1125293250.0 0.0027960339 -0.0023951565
1130293220.0 0.0029216326 -0.0023319496
1135293190.0 0.0028200563 -0.0023157435
1140293160.0 0.0026907472 -0.0022993039
1145293130.0 0.0027694265 -0.0022827095
1150293100.0 0.0027420942 -0.0024816461
1155293070.0 0.0026029926 -0.0023928968
1160293040.0 0.0027077707 -0.002407132
1165293010.0 0.0024895093 -0.0024498212
1170292980.0 0.0027676891 -0.0026511002
1175292950.0 0.0025435116 -0.0027375223
1180292920.0 0.0027156713 -0.002532847
1185292890.0 0.0028486529 -0.0028675337
1190292860.0 0.0029202889 -0.0027799817
1195292830.0 0.0032294492 -0.0026605405
1200292800.0 0.0032556949 -0.0030073444
1205292770.0 0.0029742987 -0.0029608099
1210292740.0 0.0029479251 -0.0030106536
1215292710.0 0.0030719065 -0.0029253104
1220292680.0 0.0031080073 -0.0029852593
1225292650.0 0.0031036555 -0.0029016629
1230292620.0 0.0029007058 -0.0031172222
1235292590.0 0.0030087464 -0.0029339275
1240292560.0 0.0030026659 -0.0030124564
1245292530.0 0.00303426 -0.0031842177
1250292500.0 0.0033051948 -0.0032583842
1255292470.0 0.0032884365 -0.0033521525
1260292440.0 0.0030821855 -0.0032540143
1265292410.0 0.0029305406 -0.0032324752
1270292380.0 0.0031509297 -0.0029407297
1275292350.0 0.0031966235 -0.0031970262
1280292320.0 0.0028556644 -0.0032345361
1285292290.0 0.0029850408 -0.0032050745
1290292260.0 0.0028928117 -0.0034150256
1295292230.0 0.003097855 -0.0035082799
1300292200.0 0.0029894386 -0.0032625983
1305292170.0 0.0029812927 -0.0034668178
1310292140.0 0.0029912895 -0.0035469387
1315292110.0 0.0029447051 -0.0035191609
1320292080.0 0.0032393876 -0.0032854059
1325292050.0 0.0029450427 -0.0035671564
1330292020.0 0.0029664449 -0.0037224378
1335291990.0 0.0029734442 -0.0035455355
1340291960.0 0.003207769 -0.003393029
1345291930.0 0.0030874552 -0.0036557359
1350291900.0 0.0030387148 -0.0036381028
1355291870.0 0.0029600879 -0.0037469694
1360291840.0 0.0031362548 -0.0034870056
1365291810.0 0.0030289844 -0.003529078
1370291780.0 0.0029667606 -0.0036775397
1375291750.0 0.0027463811 -0.0037176296
1380291720.0 0.0029580445 -0.003912146
1385291690.0 0.0030726769 -0.003691699
1390291660.0 0.0027782587 -0.0038364934
1395291630.0 0.0028707615 -0.0037140833
1400291600.0 0.0030471215 -0.0039363065
1405291570.0 0.0031073198 -0.004045678
1410291540.0 0.0030203999 -0.0035860275
1415291510.0 0.003057299 -0.0041301279
1420291480.0 0.0030362074 -0.0041018883
1425291450.0 0.002961634 -0.0039255618
1430291420.0 0.002860039 -0.0041311267
1435291390.0 0.0031008962 -0.0041003564
1440291360.0 0.0029563589 -0.0040354146
1445291330.0 0.0031158095 -0.0040409289
1450291300.0 0.0029453061 -0.0040213636
1455291270.0 0.0030139231 -0.0041277415
1460291240.0 0.0029880723 -0.0042492221
1465291210.0 0.0028918006 -0.00421909
1470291180.0 0.0030013676 -0.0043313197
1475291150.0 0.0029986429 -0.0041756838
1480291120.0 0.0030144556 -0.0042291509
1485291090.0 0.0029412046 -0.0041159811
1490291060.0 0.0028738613 -0.0043443633
1495291030.0 0.0030244029 -0.0045227512
1500291000.0 0.0028840762 -0.0043307847
1505290970.0 0.0030619219 -0.0042876258
1510290940.0 0.0027754014 -0.0041242162
1515290910.0 0.0030491933 -0.004266342
1520290880.0 0.0029293889 -0.0044057319
1525290850.0 0.002859669 -0.0045046581
1530290820.0 0.003179763 -0.0043528235
1535290790.0 0.0030270303 -0.0044643595
1540290760.0 0.002909596 -0.00448704
1545290730.0 0.0027398412 -0.0043317114
1550290700.0 0.0029066228 -0.0045539363
1555290670.0 0.0028806807 -0.0043878758
1560290640.0 0.0028855077 -0.0045790333
1565290610.0 0.0029088808 -0.0046222186
1570290580.0 0.0030509389 -0.0046132724
1575290550.0 0.0027737678 -0.0045390391
1580290520.0 0.0029594848 -0.0043926245
1585290490.0 0.0027739042 -0.004444252
1590290460.0 0.002828652 -0.0047528597
1595290430.0 0.0029952218 -0.004494953
1600290400.0 0.0029049486 -0.0046480367
1605290370.0 0.0030098207 -0.0045636627
1610290340.0 0.0029522671 -0.004624632
1615290310.0 0.0029667541 -0.0045638707
1620290280.0 0.0030235133 -0.0047579703
1625290250.0 0.0031266475 -0.004678098
1630290220.0 0.0029118464 -0.004766264
1635290190.0 0.0030581097 -0.0048083129
1640290160.0 0.0029318265 -0.0046599325
1645290130.0 0.0028609936 -0.0048455977
1650290100.0 0.0029303625 -0.0046743091
1655290070.0 0.0030440478 -0.0047575586
1660290040.0 0.0030182855 -0.0047827459
1665290010.0 0.0029973152 -0.004875309
1670289980.0 0.0030351783 -0.0048181602
1675289950.0 0.0029508216 -0.0049351789
1680289920.0 0.0029052076 -0.0047046521
1685289890.0 0.0028880254 -0.0048505602
1690289860.0 0.0028931082 -0.0049586333
1695289830.0 0.0028683181 -0.0050301682
1700289800.0 0.0027903755 -0.0049324973
1705289770.0 0.00285989 -0.0049983148
1710289740.0 0.0029616243 -0.0050276488
1715289710.0 0.002992689 -0.0050168709
1720289680.0 0.0029790414 -0.0051007056
1725289650.0 0.0028152523 -0.0051949718
1730289620.0 0.0030253399 -0.0049295504
1735289590.0 0.0027898581 -0.0048408443
1740289560.0 0.0029640251 -0.0049709887
1745289530.0 0.0029529816 -0.005102793
1750289500.0 0.0027660161 -0.0050773616
1755289470.0 0.0028371575 -0.0050664852
1760289440.0 0.003044322 -0.0048877801
1765289410.0 0.0029897824 -0.0050269502
1770289380.0 0.0029518634 -0.0049620526
1775289350.0 0.0028780442 -0.0051860116
1780289320.0 0.0029276804 -0.0050451597
1785289290.0 0.0028022015 -0.0051793287
1790289260.0 0.0029514645 -0.0051589528
1795289230.0 0.0027217386 -0.0050025805
1800289200.0 0.0027343505 -0.0052648771
1805289170.0 0.0030752406 -0.0051312525
1810289140.0 0.0027107874 -0.0049931267
1815289110.0 0.0028531382 -0.0050854726
1820289080.0 0.0027774304 -0.0051346165
1825289050.0 0.002726408 -0.0051047982
1830289020.0 0.0027824688 -0.0051726072
1835288990.0 0.0027898503 -0.0050148752
1840288960.0 0.002883263 -0.005111969
1845288930.0 0.0026896266 -0.005132755
1850288900.0 0.0027009288 -0.0052191899
1855288870.0 0.0029659427 -0.0051237831
1860288840.0 0.0027394229 -0.0052067443
1865288810.0 0.0027600266 -0.0051806662
1870288780.0 0.0027051915 -0.0051927295
1875288750.0 0.0028891655 -0.0051357812
1880288720.0 0.0028673452 -0.0051772249
1885288690.0 0.00281057 -0.0051762643
1890288660.0 0.0028469044 -0.005143944
1895288630.0 0.0028705337 -0.0054446542
1900288600.0 0.0027188973 -0.0053745856
1905288570.0 0.0029533395 -0.0052309721
1910288540.0 0.0028655883 -0.0051855579
1915288510.0 0.0028069136 -0.0052024245
1920288480.0 0.0029580094 -0.0052046374
1925288450.0 0.0028707295 -0.0053469985
1930288420.0 0.0031322645 -0.0051587072
1935288390.0 0.0027826446 -0.0051853849
1940288360.0 0.0028560705 -0.00527402
1945288330.0 0.0028762139 -0.0050779033
1950288300.0 0.0027161188 -0.0054514165
1955288270.0 0.0029111199 -0.0051925005
1960288240.0 0.0029591656 -0.0053157236
1965288210.0 0.0026936954 -0.0051811421
1970288180.0 0.0026907955 -0.0052955354
1975288150.0 0.0028788404 -0.0052673331
1980288120.0 0.002895673 -0.005339171
1985288090.0 0.0030874085 -0.0051780818
1990288060.0 0.0028118269 -0.0051815295
1995288030.0 0.0027000139 -0.0052064667
2000288000.0 0.0027640855 -0.0052085916
2005287970.0 0.0028255717 -0.005398686
2010287940.0 0.0028287978 -0.0053263472
2015287910.0 0.0027204542 -0.0051907563
2020287880.0 0.0027632651 -0.005140431
2025287850.0 0.0028588983 -0.0052638613
2030287820.0 0.0029138917 -0.0052256255
2035287790.0 0.0028110417 -0.0052409172
2040287760.0 0.00278377 -0.0054030469
2045287730.0 0.0028065998 -0.0052372333
2050287700.0 0.0026473135 -0.0053278097
2055287670.0 0.0026866277 -0.0054052655
2060287640.0 0.0026594336 -0.0051420853
2065287610.0 0.0025494417 -0.0053270708
2070287580.0 0.0028762598 -0.0052742406
2075287550.0 0.0027192181 -0.0050370958
2080287520.0 0.0026986671 -0.005183863
2085287490.0 0.0026713704 -0.005206179
2090287460.0 0.0024477696 -0.0050036326
2095287430.0 0.0025375387 -0.0053046186
2100287400.0 0.0028112932 -0.005120565
2105287370.0 0.0026960239 -0.0048583533
2110287340.0 0.0027077893 -0.0052192578
2115287310.0 0.002720774 -0.0052793259
2120287280.0 0.0027378712 -0.0051912218
2125287250.0 0.0026989417 -0.0051345907
2130287220.0 0.0024780926 -0.0051900977
2135287190.0 0.0027612884 -0.0050173889
2140287160.0 0.0025064293 -0.0052021296
2145287130.0 0.0027025369 -0.0050974428
2150287100.0 0.0027001334 -0.0051004825
2155287070.0 0.0026264218 -0.0052066004
2160287040.0 0.0028320428 -0.0050787273
2165287010.0 0.0026470268 -0.0049915342
2170286980.0 0.002793461 -0.0050608176
2175286950.0 0.0025477835 -0.0050753334
2180286920.0 0.0026443485 -0.0050327546
2185286890.0 0.0025427675 -0.0052422521
2190286860.0 0.0026550835 -0.0050607628
2195286830.0 0.0026451768 -0.0051571614
2200286800.0 0.0027885528 -0.0050514513
2205286770.0 0.0028146069 -0.0050590728
2210286740.0 0.0025668829 -0.0050734831
2215286710.0 0.0027316149 -0.0049870244
2220286680.0 0.0026890283 -0.0052405589
2225286650.0 0.0025543438 -0.0050386789
2230286620.0 0.0024202323 -0.0050081388
2235286590.0 0.0026372418 -0.0051597333
2240286560.0 0.0026454698 -0.0050057562
2245286530.0 0.002587934 -0.0050971818
2250286500.0 0.0024105479 -0.0050795681
2255286470.0 0.0024120494 -0.0050171154
2260286440.0 0.0024614426 -0.0048969599
2265286410.0 0.0025105676 -0.0049632411
2270286380.0 0.0024722013 -0.0051077028
2275286350.0 0.0022526155 -0.0048664027
2280286320.0 0.0023747345 -0.0048790038
2285286290.0 0.0023880349 -0.0050062945
2290286260.0 0.0026061961 -0.0048277889
2295286230.0 0.002453792 -0.0048641291
2300286200.0 0.0026017565 -0.0049667315
2305286170.0 0.0023858145 -0.0048228639
2310286140.0 0.0023418992 -0.0049817022
2315286110.0 0.0023829742 -0.0049844795
2320286080.0 0.0022179953 -0.0046408807
2325286050.0 0.0023490478 -0.004841792
2330286020.0 0.0023903901 -0.0048972852
2335285990.0 0.0024099935 -0.0049430283
2340285960.0 0.0023973801 -0.0050134881
2345285930.0 0.0023030023 -0.0046416548
2350285900.0 0.0024861164 -0.0048391747
2355285870.0 0.0023031489 -0.0047221364
2360285840.0 0.0023414056 -0.0046870376
2365285810.0 0.0025886655 -0.0049202025
2370285780.0 0.0023360599 -0.0048837839
2375285750.0 0.0024348031 -0.0047430928
2380285720.0 0.0022586554 -0.0048400828
2385285690.0 0.0020631638 -0.0047931874
2390285660.0 0.0022780018 -0.0047030566
2395285630.0 0.0020633094 -0.004770626
2400285600.0 0.0021095356 -0.0046843852
2405285570.0 0.0020321486 -0.0049108001
2410285540.0 0.0020202314 -0.0047524515
2415285510.0 0.0021060866 -0.0045949884
2420285480.0 0.0020040867 -0.0048063464
2425285450.0 0.0021101259 -0.0048573611
2430285420.0 0.0022614971 -0.0045618124
2435285390.0 0.002243751 -0.0045980349
2440285360.0 0.0020805624 -0.0045354574
2445285330.0 0.0021630821 -0.0046316642
2450285300.0 0.002135613 -0.0047884048
2455285270.0 0.0020391794 -0.0046115733
2460285240.0 0.0020888675 -0.0046461442
2465285210.0 0.0019348488 -0.0046694804
2470285180.0 0.0019107456 -0.0045188445
2475285150.0 0.0018435298 -0.0046493625
2480285120.0 0.0020180936 -0.0046426294
2485285090.0 0.0022287027 -0.004630106
2490285060.0 0.0020563861 -0.0045692672
2495285030.0 0.0019554491 -0.0046950147
2500285000.0 0.0021253857 -0.0045359224
2505284970.0 0.0019157104 -0.0046549709
2510284940.0 0.0018835219 -0.0046318204
2515284910.0 0.0019744686 -0.0045563897
2520284880.0 0.0020456918 -0.0045327189
2525284850.0 0.0018988475 -0.0047440244
2530284820.0 0.0018558463 -0.0044268924
2535284790.0 0.0018994078 -0.0045744132
2540284760.0 0.0018386979 -0.004766428
