!Created with skrf (http://scikit-rf.org).
# Hz S RI R 50.0 
!freq ReS11 ImS11
300000.0 -1.023450144 -0.1471621462
5299970.0 -1.002625159 0.0083110155
10299940.0 -1.000927344 0.0127331167
15299910.0 -1.000308798 0.0242729937
20299880.0 -0.9999833262 0.028386901
25299850.0 -0.9993721996 0.0369749355
30299820.0 -0.9992776542 0.0443034079
35299790.0 -0.9980806948 0.0496196518
40299760.0 -0.9979364963 0.0558587903
45299730.0 -0.9975906617 0.0623819488
50299700.0 -0.9964403707 0.0698299409
55299670.0 -0.9956556125 0.0765685941
60299640.0 -0.9952544217 0.0831492454
65299610.0 -0.994323267 0.0895571793
70299580.0 -0.9936269982 0.0963302259
75299550.0 -0.9929322279 0.1025588301
80299520.0 -0.9922220481 0.1098736253
85299490.0 -0.9911829035 0.1159924402
90299460.0 -0.989781821 0.1227552303
95299430.0 -0.9889173672 0.1291459059
100299400.0 -0.9881295928 0.1362428843
105299370.0 -0.9872502761 0.1430179405
110299340.0 -0.9862802594 0.1495754568
115299310.0 -0.9847843486 0.1558873064
120299280.0 -0.9839945221 0.1632292944
125299250.0 -0.9826635285 0.1688950004
130299220.0 -0.9816997858 0.1754711395
135299190.0 -0.9799511186 0.1825335579
140299160.0 -0.9787541524 0.1886990223
145299130.0 -0.9776374047 0.1945019916
150299100.0 -0.9765195145 0.201756971
155299070.0 -0.9746230716 0.2083462129
160299040.0 -0.9734377978 0.2147203236
165299010.0 -0.9717924536 0.2210988021
170298980.0 -0.9699349486 0.2270865506
175298950.0 -0.9666854723 0.2333245074
180298920.0 -0.9643326262 0.2391134
185298890.0 -0.9643569099 0.2458256051
190298860.0 -0.9640798782 0.2530485585
195298830.0 -0.9619292433 0.2596224076
200298800.0 -0.9604540419 0.2659289223
205298770.0 -0.9579043347 0.2726217019
210298740.0 -0.956234388 0.2787643321
215298710.0 -0.9542174292 0.2854624858
220298680.0 -0.9524348957 0.2917890691
225298650.0 -0.9505837501 0.2974023218
230298620.0 -0.9488911662 0.3038424109
235298590.0 -0.9467652615 0.3102277474
240298560.0 -0.9441479718 0.3164855841
245298530.0 -0.9421017531 0.323068626
250298500.0 -0.939981738 0.3290942772
255298470.0 -0.9376864798 0.3354679585
260298440.0 -0.9358416796 0.3416323965
265298410.0 -0.9333036263 0.3477117991
270298380.0 -0.930881633 0.3540708646
275298350.0 -0.9285486845 0.3600856849
280298320.0 -0.9261440896 0.3664446046
285298290.0 -0.9233484687 0.3727899575
290298260.0 -0.920954385 0.3790248764
295298230.0 -0.9185278208 0.3847898927
300298200.0 -0.9156574247 0.3911082967
305298170.0 -0.9126852424 0.3968038832
310298140.0 -0.9105771934 0.4029596302
315298110.0 -0.9076831323 0.4097235189
320298080.0 -0.9049788484 0.4151076182
325298050.0 -0.9018876051 0.4206896362
330298020.0 -0.8989578771 0.4274202976
335297990.0 -0.8962048189 0.4332969423
340297960.0 -0.8935695975 0.439051137
345297930.0 -0.890906542 0.4452124724
350297900.0 -0.8879565914 0.45141475
355297870.0 -0.8854769647 0.4567386398
360297840.0 -0.882383245 0.4632088575
365297810.0 -0.8790642282 0.4686399015
370297780.0 -0.875911747 0.4739892287
375297750.0 -0.871700765 0.4797194898
380297720.0 -0.8686499496 0.4857179068
385297690.0 -0.865456872 0.4912740397
390297660.0 -0.8622693067 0.4973414817
395297630.0 -0.8588089203 0.5037475919
400297600.0 -0.8555767138 0.5092879493
405297570.0 -0.8513773477 0.515092026
410297540.0 -0.8484359092 0.5198942367
415297510.0 -0.8446425797 0.5258944453
420297480.0 -0.8415145561 0.5318919733
425297450.0 -0.8379646661 0.53722017
430297420.0 -0.834054387 0.5429295776
435297390.0 -0.8308495459 0.5480175503
440297360.0 -0.8262345398 0.5534554169
445297330.0 -0.8223529937 0.5594482876
450297300.0 -0.8190379575 0.5647535227
455297270.0 -0.8157267174 0.5696025953
460297240.0 -0.8117983712 0.5753234136
465297210.0 -0.8083962503 0.5805928054
470297180.0 -0.8039966876 0.5864648608
475297150.0 -0.7999571095 0.5914306014
480297120.0 -0.796293754 0.5973333892
485297090.0 -0.7916785305 0.602556674
490297060.0 -0.7885616305 0.6069442638
495297030.0 -0.783886478 0.6121520345
500297000.0 -0.7797667525 0.6173846928
505296970.0 -0.7759216152 0.6229556304
510296940.0 -0.7719903448 0.6285721303
515296910.0 -0.7680840607 0.6333786611
520296880.0 -0.7635234686 0.63872056
525296850.0 -0.7593687824 0.6432941934
530296820.0 -0.7552489096 0.6487687634
535296790.0 -0.7506470992 0.6536876345
540296760.0 -0.7470376886 0.6587064198
545296730.0 -0.7420413386 0.6638084373
550296700.0 -0.7367162104 0.668463683
555296670.0 -0.7327135395 0.6735783465
560296640.0 -0.7283560265 0.6777839108
565296610.0 -0.7231651174 0.682706388
570296580.0 -0.7183125608 0.6878073902
575296550.0 -0.713406578 0.692210769
580296520.0 -0.7089272657 0.6974243252
585296490.0 -0.7043782863 0.7014346128
590296460.0 -0.699669009 0.7057180673
595296430.0 -0.6951448003 0.7107791769
600296400.0 -0.6908158208 0.7150488326
605296370.0 -0.6856432046 0.7196919873
610296340.0 -0.6807689793 0.7236168261
615296310.0 -0.6762484035 0.7285058458
620296280.0 -0.6708624801 0.7331056999
625296250.0 -0.6662730109 0.7372618566
630296220.0 -0.6608213486 0.7420726689
635296190.0 -0.6565092649 0.7455771634
640296160.0 -0.6514547703 0.7503956371
645296130.0 -0.6464262516 0.7544065304
650296100.0 -0.6411962293 0.7591935269
655296070.0 -0.6362759474 0.7635155867
660296040.0 -0.6308078982 0.7675459746
665296010.0 -0.6262725403 0.7716907628
670295980.0 -0.6209965722 0.7759813573
675295950.0 -0.6154987058 0.7799242659
680295920.0 -0.6098322216 0.7848862787
685295890.0 -0.6053816272 0.7884835433
690295860.0 -0.5999309532 0.7917748278
695295830.0 -0.5951636577 0.7957400563
700295800.0 -0.5894333431 0.7998843536
705295770.0 -0.5839760197 0.8036936729
710295740.0 -0.5791227177 0.807862941
715295710.0 -0.5736032304 0.8118944631
720295680.0 -0.5680099362 0.8152292633
725295650.0 -0.5623439802 0.8192186172
730295620.0 -0.5567084768 0.8227010472
735295590.0 -0.551764202 0.8259502395
740295560.0 -0.5467828876 0.8296064176
745295530.0 -0.5405209834 0.833402584
750295500.0 -0.5352381048 0.8369238457
755295470.0 -0.5291913517 0.841021736
760295440.0 -0.5240070627 0.8437117397
765295410.0 -0.5181480615 0.8474779003
770295380.0 -0.5123467462 0.850793213
775295350.0 -0.5068101401 0.8542770577
780295320.0 -0.5006441903 0.8575425711
785295290.0 -0.4954341718 0.8609599414
790295260.0 -0.4895812315 0.8638279759
795295230.0 -0.483941045 0.8674450535
800295200.0 -0.4778443227 0.8704430577
805295170.0 -0.472060343 0.8735783325
810295140.0 -0.4663330297 0.8762562374
815295110.0 -0.4603478113 0.880054157
820295080.0 -0.4544386212 0.8828514566
825295050.0 -0.4483946503 0.8857394925
830295020.0 -0.4422588676 0.8882566665
835294990.0 -0.4369829925 0.8913954347
840294960.0 -0.4310720457 0.8946072937
845294930.0 -0.4246854879 0.8972230144
850294900.0 -0.4185343445 0.9000446176
855294870.0 -0.4129189316 0.902227519
860294840.0 -0.4065744491 0.9056240164
865294810.0 -0.4006229217 0.908345982
870294780.0 -0.3947042389 0.9106906896
875294750.0 -0.3888526158 0.9129402637
880294720.0 -0.3824869693 0.9155989606
885294690.0 -0.3769443265 0.9182645179
890294660.0 -0.3703551773 0.9205527377
895294630.0 -0.3640165426 0.9230938476
900294600.0 -0.3580112282 0.9251093959
905294570.0 -0.3519162955 0.9274266402
910294540.0 -0.3457353214 0.9293243804
915294510.0 -0.3390496632 0.9316649541
920294480.0 -0.3334696207 0.9339634413
925294450.0 -0.3268334487 0.9360526691
930294420.0 -0.3212026017 0.9379958514
935294390.0 -0.3146337671 0.9406588187
940294360.0 -0.308943677 0.9422537445
945294330.0 -0.3023466379 0.9442641026
950294300.0 -0.2962084544 0.945952555
955294270.0 -0.2895917968 0.9479019585
960294240.0 -0.2837253948 0.9499711007
965294210.0 -0.2769181193 0.9519258194
970294180.0 -0.2704089199 0.9538888721
975294150.0 -0.2641343699 0.9554821095
980294120.0 -0.2577532993 0.9568806767
985294090.0 -0.2517408054 0.958836471
990294060.0 -0.2455632149 0.9607671147
995294030.0 -0.2388668006 0.962044874
1000294000.0 -0.2325445513 0.9634628697
1005293970.0 -0.2262672789 0.9646842929
1010293940.0 -0.219806926 0.9667846047
1015293910.0 -0.21333329 0.9677105396
1020293880.0 -0.2074691771 0.9693882675
1025293850.0 -0.2005467849 0.9708703833
1030293820.0 -0.1944204088 0.9719909812
1035293790.0 -0.187831644 0.9729481649
1040293760.0 -0.181164008 0.9743319733
1045293730.0 -0.1746656353 0.974948721
1050293700.0 -0.1677351443 0.976795017
1055293670.0 -0.1616451865 0.9772766436
1060293640.0 -0.155652291 0.9783290208
1065293610.0 -0.1488493578 0.9795666996
1070293580.0 -0.1427114804 0.9803008905
1075293550.0 -0.1361609304 0.9811816275
1080293520.0 -0.1294216145 0.9822709908
1085293490.0 -0.1226455122 0.9828978803
1090293460.0 -0.1160874402 0.9836633228
1095293430.0 -0.1092144037 0.9843891806
1100293400.0 -0.1017274626 0.9854255915
1105293370.0 -0.0961956275 0.9859015462
1110293340.0 -0.0895975175 0.986449118
1115293310.0 -0.0834572605 0.9867276636
1120293280.0 -0.0771010313 0.9872828962
1125293250.0 -0.0704030995 0.9879171166
1130293220.0 -0.0641803313 0.9882461537
1135293190.0 -0.057291881 0.9888110003
1140293160.0 -0.050876599 0.9891953202
1145293130.0 -0.044048999 0.9895819045
1150293100.0 -0.0375480357 0.9898602089
1155293070.0 -0.0304890595 0.9897144138
1160293040.0 -0.0239975871 0.990107798
1165293010.0 -0.018100531 0.9902947107
1170292980.0 -0.011734914 0.9901748025
1175292950.0 -0.0039207604 0.9899228637
1180292920.0 0.0020646042 0.9904184954
1185292890.0 0.0083184301 0.9899789321
1190292860.0 0.0151044386 0.9900136179
1195292830.0 0.0213486349 0.9900110522
1200292800.0 0.0279878446 0.9900864319
1205292770.0 0.0346927976 0.9894310013
1210292740.0 0.0404162991 0.9893952604
1215292710.0 0.0469761957 0.9889294671
1220292680.0 0.0543374766 0.988648359
1225292650.0 0.06040935 0.9880307102
1230292620.0 0.0673800502 0.9874365968
1235292590.0 0.0739327292 0.9868769711
1240292560.0 0.0808607506 0.9867819364
1245292530.0 0.0870529425 0.9864131466
1250292500.0 0.0935991267 0.9854860078
1255292470.0 0.100698621 0.9853641852
1260292440.0 0.1067819369 0.9845694369
1265292410.0 0.1132488964 0.9833805586
1270292380.0 0.1193268159 0.9829881702
1275292350.0 0.1265480737 0.9818717641
1280292320.0 0.1328389894 0.9811024424
1285292290.0 0.1396501715 0.9801700214
1290292260.0 0.1457144889 0.9793904891
1295292230.0 0.1520248916 0.977578009
1300292200.0 0.1589486062 0.9768262272
1305292170.0 0.165163642 0.9758024912
1310292140.0 0.1715159813 0.974912127
1315292110.0 0.17783217 0.9736655928
1320292080.0 0.1841978383 0.9725670719
1325292050.0 0.1910856956 0.971278914
1330292020.0 0.1980143305 0.9702199812
1335291990.0 0.2047683232 0.9682488843
1340291960.0 0.2109786183 0.9675480693
1345291930.0 0.2174644611 0.9657433642
1350291900.0 0.2237356919 0.9649312093
1355291870.0 0.2294969516 0.9635168094
1360291840.0 0.2354800884 0.9611247007
1365291810.0 0.2427468842 0.9603645118
1370291780.0 0.2487135129 0.9579767032
1375291750.0 0.2554979675 0.9566131261
1380291720.0 0.2616084309 0.9546125383
1385291690.0 0.2678601692 0.9533128239
1390291660.0 0.2740444294 0.9514745305
1395291630.0 0.2809998329 0.9496842242
1400291600.0 0.287261345 0.9475774703
1405291570.0 0.2931961367 0.945158951
1410291540.0 0.2991884176 0.9432679789
1415291510.0 0.3057363158 0.9416075076
1420291480.0 0.3115924825 0.9389854723
1425291450.0 0.3182498905 0.9378097493
1430291420.0 0.3248327644 0.9352670509
1435291390.0 0.3303755075 0.9330162079
1440291360.0 0.3364212176 0.9308824763
1445291330.0 0.3423261401 0.9282579889
1450291300.0 0.3481871998 0.9270278965
1455291270.0 0.3540774291 0.9239663673
1460291240.0 0.3606232346 0.9211220714
1465291210.0 0.3671626885 0.9191135311
1470291180.0 0.3734959758 0.9168799713
1475291150.0 0.3788355572 0.9146137592
1480291120.0 0.3853701909 0.911630269
1485291090.0 0.3920103708 0.9089919189
1490291060.0 0.3971714098 0.9064914635
1495291030.0 0.4039176884 0.9036356316
1500291000.0 0.4091304194 0.9016702989
1505290970.0 0.4150559666 0.8985005057
1510290940.0 0.4207194748 0.8960469637
1515290910.0 0.4270734558 0.893031613
1520290880.0 0.4330763183 0.8905527371
1525290850.0 0.4387705279 0.8870984854
1530290820.0 0.4450733812 0.8841029106
1535290790.0 0.4509841607 0.8814801423
1540290760.0 0.4566024385 0.8781645665
1545290730.0 0.4624868271 0.8746930565
1550290700.0 0.4687160939 0.8720429011
1555290670.0 0.4741051967 0.8687725494
1560290640.0 0.4794353987 0.8657745047
1565290610.0 0.4851657111 0.8624538175
1570290580.0 0.4912522109 0.8594762315
1575290550.0 0.4967651139 0.85597583
1580290520.0 0.5026364351 0.8527489328
1585290490.0 0.5086843476 0.8495167355
1590290460.0 0.5142376754 0.8458379931
1595290430.0 0.5204818 0.8424976397
1600290400.0 0.5252621826 0.8395746908
1605290370.0 0.5312032676 0.8360209528
1610290340.0 0.5362788446 0.8322376555
1615290310.0 0.5418719466 0.8287469848
1620290280.0 0.5477768127 0.8252757475
1625290250.0 0.5529359002 0.821381041
1630290220.0 0.5581872464 0.8175713913
1635290190.0 0.5634482316 0.8139060025
1640290160.0 0.5687494005 0.8102961372
1645290130.0 0.5745025173 0.8069202782
1650290100.0 0.579638323 0.802459604
1655290070.0 0.5853310508 0.7988210354
1660290040.0 0.5899770948 0.7949012652
1665290010.0 0.5951865871 0.7909459341
1670289980.0 0.60076936 0.7872091182
1675289950.0 0.605606138 0.783072559
1680289920.0 0.6111721373 0.7791684603
1685289890.0 0.6169088436 0.7751846766
1690289860.0 0.621665905 0.7704676874
1695289830.0 0.6270767052 0.7654514546
1700289800.0 0.6321525458 0.7621807268
1705289770.0 0.6375730329 0.7584236917
1710289740.0 0.6419701863 0.7534632511
1715289710.0 0.6473845319 0.749410816
1720289680.0 0.6523380921 0.7449977918
1725289650.0 0.6570928625 0.7406229266
1730289620.0 0.6619966095 0.7365319693
1735289590.0 0.6669217445 0.7323217707
1740289560.0 0.6709396358 0.7283594861
1745289530.0 0.6761367173 0.723461737
1750289500.0 0.6815089655 0.7187546649
1755289470.0 0.6857908158 0.7146411718
1760289440.0 0.691087863 0.7100446684
1765289410.0 0.6953849647 0.7051476719
1770289380.0 0.7000133994 0.700826107
1775289350.0 0.7047723108 0.6965512193
1780289320.0 0.7095124868 0.6915928365
1785289290.0 0.7138771387 0.6868060013
1790289260.0 0.7188387777 0.6819068652
1795289230.0 0.7230980291 0.6771952229
1800289200.0 0.7277542429 0.6723080974
1805289170.0 0.7329124732 0.6668606246
1810289140.0 0.7363097549 0.6630492833
1815289110.0 0.7408797476 0.6578643955
1820289080.0 0.7450415022 0.6535844715
1825289050.0 0.7492195764 0.6481107934
1830289020.0 0.7533028319 0.6434639408
1835288990.0 0.7575719784 0.6385593943
1840288960.0 0.7612847392 0.6336407279
1845288930.0 0.766294175 0.6288576594
1850288900.0 0.7697071769 0.6232900859
1855288870.0 0.7745317552 0.6177204002
1860288840.0 0.7782840748 0.6129672622
1865288810.0 0.7822358133 0.6071624334
1870288780.0 0.7869967871 0.602155648
1875288750.0 0.7903111344 0.5972024863
1880288720.0 0.7947178626 0.5916479339
1885288690.0 0.7989262419 0.5867347921
1890288660.0 0.8025657506 0.5807040882
1895288630.0 0.8067230634 0.5763055112
1900288600.0 0.8103660511 0.5700817151
1905288570.0 0.8145918457 0.564741154
1910288540.0 0.8184073727 0.5591921009
1915288510.0 0.8220975059 0.5538903677
1920288480.0 0.8258823712 0.5481161177
1925288450.0 0.8293222308 0.5430931365
1930288420.0 0.8327920736 0.5373136858
1935288390.0 0.8367132316 0.53199244
1940288360.0 0.8396591332 0.5269996782
1945288330.0 0.8434706563 0.5212878224
1950288300.0 0.84714894 0.5152109606
1955288270.0 0.8501676391 0.5088094424
1960288240.0 0.8541035713 0.5032573762
1965288210.0 0.8578442305 0.4974929208
1970288180.0 0.860802759 0.4916112995
1975288150.0 0.8641547973 0.4864859694
1980288120.0 0.8666882917 0.4811910858
1985288090.0 0.8702954111 0.4751542405
1990288060.0 0.8728623922 0.469532245
1995288030.0 0.8758512534 0.4642987807
2000288000.0 0.8792969207 0.458715372
2005287970.0 0.8818331681 0.4529939584
2010287940.0 0.885138744 0.4475640106
2015287910.0 0.8878035554 0.4414681
2020287880.0 0.8907797162 0.4354516154
2025287850.0 0.8934158005 0.4295041994
2030287820.0 0.8965468293 0.4236368296
2035287790.0 0.899591377 0.417262452
2040287760.0 0.9020797407 0.4111933784
2045287730.0 0.9053148071 0.4055764129
2050287700.0 0.9073283852 0.3992346961
2055287670.0 0.9095420417 0.3932853434
2060287640.0 0.9126615254 0.38774148
2065287610.0 0.915468894 0.381661368
2070287580.0 0.9178366193 0.3753667946
2075287550.0 0.9201297658 0.3691147596
2080287520.0 0.9226443273 0.3635245573
2085287490.0 0.9255688472 0.3570739369
2090287460.0 0.927457914 0.3509752554
2095287430.0 0.9297234605 0.3443263121
2100287400.0 0.9322272359 0.3385017497
2105287370.0 0.9347573316 0.3319460278
2110287340.0 0.936431662 0.3257399759
2115287310.0 0.9390848954 0.3200269394
2120287280.0 0.9412626669 0.3131857013
2125287250.0 0.9431997016 0.3074035785
2130287220.0 0.9450861694 0.3011885214
2135287190.0 0.9468342418 0.2941506805
2140287160.0 0.9492961492 0.2882836209
2145287130.0 0.9504820973 0.2819685345
2150287100.0 0.9528117599 0.2752839032
2155287070.0 0.9546433892 0.2693696471
2160287040.0 0.9567393231 0.2635468217
2165287010.0 0.958218843 0.2570029918
2170286980.0 0.9596847294 0.2500686366
2175286950.0 0.9612685222 0.2445734922
2180286920.0 0.9629623612 0.2380951663
2185286890.0 0.9643786824 0.2322021949
2190286860.0 0.9659436312 0.2265646065
2195286830.0 0.9675416823 0.2196570747
2200286800.0 0.9687467088 0.2138209281
2205286770.0 0.970529718 0.2075814738
2210286740.0 0.9716309031 0.2015520841
2215286710.0 0.9729692244 0.1949255505
2220286680.0 0.9741985104 0.1884497947
2225286650.0 0.9754411473 0.1814686429
2230286620.0 0.9770321599 0.1747343652
2235286590.0 0.9777133603 0.1685027159
2240286560.0 0.9785113192 0.161728192
2245286530.0 0.9796256998 0.1548446737
2250286500.0 0.9812605366 0.1487921268
2255286470.0 0.9822773773 0.142464184
2260286440.0 0.9832508264 0.135388057
2265286410.0 0.983797884 0.1288192004
2270286380.0 0.9847344754 0.1223794301
2275286350.0 0.9856727422 0.1162908719
2280286320.0 0.986029125 0.1089343938
2285286290.0 0.9868019471 0.1029565979
2290286260.0 0.9872228031 0.0957323127
2295286230.0 0.9879925342 0.0897578822
2300286200.0 0.9884201398 0.0831307321
2305286170.0 0.9893602354 0.076523918
2310286140.0 0.9900019559 0.0701218467
2315286110.0 0.9903120664 0.0633215223
2320286080.0 0.9909582907 0.0567424295
2325286050.0 0.9912476153 0.050410108
2330286020.0 0.9914897907 0.043816927
2335285990.0 0.9921840349 0.0373144731
2340285960.0 0.9922497866 0.0308787058
2345285930.0 0.9922904753 0.0241035119
2350285900.0 0.9925803012 0.0173950383
2355285870.0 0.9919934523 0.0113897601
2360285840.0 0.9920721376 0.0044156961
2365285810.0 0.9925037613 -0.0023423997
2370285780.0 0.9923046419 -0.0090323173
2375285750.0 0.9918949095 -0.0153326158
2380285720.0 0.9916895088 -0.021459709
2385285690.0 0.9919368126 -0.0279679091
2390285660.0 0.9917681985 -0.0347584679
2395285630.0 0.9914967566 -0.040697607
2400285600.0 0.9911631409 -0.0474791484
2405285570.0 0.9907654223 -0.0547806915
2410285540.0 0.9902513821 -0.0604516558
2415285510.0 0.9898085347 -0.066643966
2420285480.0 0.9898538718 -0.0729815805
2425285450.0 0.989023511 -0.0799116993
2430285420.0 0.9885551807 -0.0863299357
2435285390.0 0.9883179782 -0.0930966853
2440285360.0 0.9873055394 -0.0992548083
2445285330.0 0.9864471489 -0.1054299519
2450285300.0 0.9856928283 -0.1125471124
2455285270.0 0.9849839657 -0.119001715
2460285240.0 0.9836928777 -0.1258882074
2465285210.0 0.98345732 -0.1321513198
2470285180.0 0.982216169 -0.1386381631
2475285150.0 0.9815269323 -0.1451075779
2480285120.0 0.9802565055 -0.1516196006
2485285090.0 0.9790446517 -0.1583001117
2490285060.0 0.978064073 -0.1647480681
2495285030.0 0.9775287644 -0.1708871299
2500285000.0 0.9763871292 -0.1782774938
2505284970.0 0.9745701972 -0.1848120512
2510284940.0 0.9734455324 -0.1913518199
2515284910.0 0.9721810875 -0.1973614528
2520284880.0 0.9709242427 -0.2039216511
2525284850.0 0.9692459348 -0.2101930091
2530284820.0 0.9681024252 -0.2164160513
2535284790.0 0.9666130691 -0.2228847468
2540284760.0 0.9656216894 -0.2291595992
2545284730.0 0.9638049083 -0.235026439
2550284700.0 0.9616796648 -0.2418320655
2555284670.0 0.9599669797 -0.2478381155
2560284640.0 0.9587727557 -0.254714441
