!Created with skrf (http://scikit-rf.org).
# Hz S RI R 50.0 
!freq ReS11 ImS11
45000000.0 -0.003915309906005859 -0.000743865966796875
49995500.0 -0.004171133041381836 -0.0002562999725341797
54991000.0 -0.004427909851074219 0.00021958351135253906
59986500.0 -0.004666805267333984 0.0005872249603271484
64982000.0 -0.004831075668334961 0.001154184341430664
69977500.0 -0.0049021244049072266 0.001760721206665039
74973000.0 -0.00487828254699707 0.002471446990966797
79968500.0 -0.004652500152587891 0.0029592514038085938
84964000.0 -0.004421710968017578 0.0036661624908447266
89959500.0 -0.004046440124511719 0.0043125152587890625
94955000.0 -0.0036096572875976562 0.004960298538208008
99950500.0 -0.002962827682495117 0.00551605224609375
104946000.0 -0.0023849010467529297 0.005883216857910156
109941500.0 -0.0016162395477294922 0.006255388259887695
114937000.0 -0.0008423328399658203 0.006500720977783203
119932500.0 -0.00011086463928222656 0.006742238998413086
124928000.0 0.0006008148193359375 0.006813764572143555
129923500.0 0.0015091896057128906 0.00669407844543457
134919000.0 0.0023736953735351562 0.006542205810546875
139914500.0 0.0032150745391845703 0.006314516067504883
144910000.0 0.003857135772705078 0.005871295928955078
149905500.0 0.0046083927154541016 0.005380392074584961
154901000.0 0.005217790603637695 0.004857063293457031
159896500.0 0.005822658538818359 0.004310131072998047
164892000.0 0.006318807601928711 0.0035440921783447266
169887500.0 0.006728649139404297 0.002862215042114258
174883000.0 0.006942272186279297 0.0019812583923339844
179878500.0 0.007134914398193359 0.0012352466583251953
184874000.0 0.007224559783935547 0.00041747093200683594
189869500.0 0.007302522659301758 -0.00042128562927246094
194865000.0 0.00714874267578125 -0.0012965202331542969
199860500.0 0.00699925422668457 -0.002019166946411133
204856000.0 0.0066492557525634766 -0.002731800079345703
209851500.0 0.006360292434692383 -0.003503561019897461
214847000.0 0.005897045135498047 -0.004113912582397461
219842500.0 0.005480289459228516 -0.004724025726318359
224838000.0 0.004854679107666016 -0.005206584930419922
229833500.0 0.004253387451171875 -0.00571894645690918
234829000.0 0.0036058425903320312 -0.006124734878540039
239824500.0 0.0029931068420410156 -0.00640416145324707
244820000.0 0.0023937225341796875 -0.006666660308837891
249815500.0 0.0017273426055908203 -0.0068590641021728516
254811000.0 0.0012404918670654297 -0.0069048404693603516
259806500.0 0.0006051063537597656 -0.007017374038696289
264802000.0 -4.696846008300781e-05 -0.0070688724517822266
269797500.0 -0.0007011890411376953 -0.007006406784057617
274793000.0 -0.001341104507446289 -0.006926536560058594
279788500.0 -0.002033233642578125 -0.006743192672729492
284784000.0 -0.0027022361755371094 -0.006503105163574219
289779500.0 -0.0032007694244384766 -0.00620722770690918
294775000.0 -0.003631114959716797 -0.00594329833984375
299770500.0 -0.004392862319946289 -0.0055043697357177734
304766000.0 -0.004845142364501953 -0.005101919174194336
309761500.0 -0.005312681198120117 -0.004662275314331055
314757000.0 -0.005758047103881836 -0.004090070724487305
319752500.0 -0.006175518035888672 -0.0037021636962890625
324748000.0 -0.006434202194213867 -0.003151416778564453
329743500.0 -0.0068721771240234375 -0.0025129318237304688
334739000.0 -0.007083892822265625 -0.001873016357421875
339734500.0 -0.007075786590576172 -0.0012173652648925781
344730000.0 -0.007411479949951172 -0.0006830692291259766
349725500.0 -0.007375001907348633 8.463859558105469e-05
354721000.0 -0.007340908050537109 0.0008597373962402344
359716500.0 -0.007413625717163086 0.0014002323150634766
364712000.0 -0.007300853729248047 0.0021359920501708984
369707500.0 -0.0071375370025634766 0.0027513504028320312
374703000.0 -0.0068738460540771484 0.0034363269805908203
379698500.0 -0.006709575653076172 0.0041239261627197266
384694000.0 -0.006300926208496094 0.004834651947021484
389689500.0 -0.0058782100677490234 0.005461692810058594
394685000.0 -0.005370378494262695 0.005977630615234375
399680500.0 -0.004786014556884766 0.006590366363525391
404676000.0 -0.004221439361572266 0.007107973098754883
409671500.0 -0.0036764144897460938 0.00749516487121582
414667000.0 -0.002841472625732422 0.008044242858886719
419662500.0 -0.0021114349365234375 0.008347511291503906
424658000.0 -0.0013184547424316406 0.008486747741699219
429653500.0 -0.0005946159362792969 0.008814334869384766
434649000.0 0.0002465248107910156 0.008831977844238281
439644500.0 0.0012369155883789062 0.008963584899902344
444640000.0 0.0020918846130371094 0.008804798126220703
449635500.0 0.003014087677001953 0.00868988037109375
454631000.0 0.0038928985595703125 0.008523941040039062
459626500.0 0.004747867584228516 0.008183956146240234
464622000.0 0.005667924880981445 0.007766246795654297
469617500.0 0.006408214569091797 0.007283926010131836
474613000.0 0.007188558578491211 0.006741762161254883
479608500.0 0.007898330688476562 0.006042003631591797
484604000.0 0.008639335632324219 0.005231380462646484
489599500.0 0.009249687194824219 0.00440216064453125
494595000.0 0.009752273559570312 0.003474712371826172
499590500.0 0.01009368896484375 0.002490520477294922
504586000.0 0.010471820831298828 0.0014753341674804688
509581500.0 0.01068878173828125 0.0004749298095703125
514577000.0 0.01082611083984375 -0.0006580352783203125
519572500.0 0.010822772979736328 -0.0016283988952636719
524568000.0 0.010678768157958984 -0.0027594566345214844
529563500.0 0.01043701171875 -0.003954887390136719
534559000.0 0.010060787200927734 -0.004908561706542969
539554500.0 0.009729385375976562 -0.005988121032714844
544550000.0 0.009178638458251953 -0.006892204284667969
549545500.0 0.008596420288085938 -0.007877349853515625
554541000.0 0.0077991485595703125 -0.008792877197265625
559536500.0 0.007010936737060547 -0.00967550277709961
564532000.0 0.006083011627197266 -0.010480880737304688
569527500.0 0.005099296569824219 -0.011171817779541016
574523000.0 0.004037380218505859 -0.011757373809814453
579518500.0 0.002879619598388672 -0.01227569580078125
584514000.0 0.0016570091247558594 -0.012648582458496094
589509500.0 0.0003247261047363281 -0.012927532196044922
594505000.0 -0.0010766983032226562 -0.01307058334350586
599500500.0 -0.0024771690368652344 -0.012994766235351562
604496000.0 -0.003922939300537109 -0.012782573699951172
609491500.0 -0.005179882049560547 -0.01254415512084961
614487000.0 -0.006520271301269531 -0.012020587921142578
619482500.0 -0.007794857025146484 -0.011455535888671875
624478000.0 -0.009078502655029297 -0.010703086853027344
629473500.0 -0.010150432586669922 -0.00978708267211914
634469000.0 -0.011302947998046875 -0.008838653564453125
639464500.0 -0.012246131896972656 -0.007677555084228516
644460000.0 -0.013124942779541016 -0.006483554840087891
649455500.0 -0.01381063461303711 -0.005207538604736328
654451000.0 -0.014548778533935547 -0.0037794113159179688
659446500.0 -0.01494741439819336 -0.0021944046020507812
664442000.0 -0.015203475952148438 -0.0007815361022949219
669437500.0 -0.01540994644165039 0.0008435249328613281
674433000.0 -0.01536703109741211 0.002502918243408203
679428500.0 -0.015114784240722656 0.0039653778076171875
684424000.0 -0.014811992645263672 0.005688190460205078
689419500.0 -0.014240741729736328 0.007153034210205078
694415000.0 -0.013616561889648438 0.00868368148803711
699410500.0 -0.012673377990722656 0.01009511947631836
704406000.0 -0.011705398559570312 0.011412620544433594
709401500.0 -0.010512828826904297 0.012712478637695312
714397000.0 -0.00925445556640625 0.01383352279663086
719392500.0 -0.007853984832763672 0.014700889587402344
724388000.0 -0.0062351226806640625 0.015687942504882812
729383500.0 -0.004704475402832031 0.016290664672851562
734379000.0 -0.003116607666015625 0.016930580139160156
739374500.0 -0.0013179779052734375 0.017249107360839844
744370000.0 0.0005140304565429688 0.017461776733398438
749365500.0 0.0022726058959960938 0.01754283905029297
754361000.0 0.0040607452392578125 0.017312049865722656
759356500.0 0.005916595458984375 0.01691436767578125
764352000.0 0.007714271545410156 0.016386032104492188
769347500.0 0.009352684020996094 0.015606403350830078
774343000.0 0.010997295379638672 0.0146484375
779338500.0 0.012553691864013672 0.01356363296508789
784334000.0 0.013878822326660156 0.012325763702392578
789329500.0 0.015228271484375 0.010917186737060547
794325000.0 0.016335487365722656 0.009289741516113281
799320500.0 0.01733684539794922 0.007616996765136719
804316000.0 0.018169403076171875 0.00585174560546875
809311500.0 0.018764495849609375 0.004050254821777344
814307000.0 0.019239425659179688 0.0020132064819335938
819302500.0 0.019441604614257812 0.00010013580322265625
824298000.0 0.019414901733398438 -0.00189971923828125
829293500.0 0.019224166870117188 -0.0038623809814453125
834289000.0 0.01884937286376953 -0.005786895751953125
839284500.0 0.018296241760253906 -0.007719993591308594
844280000.0 0.018131256103515625 -0.008952140808105469
849275500.0 0.01721954345703125 -0.010814666748046875
854271000.0 0.016193389892578125 -0.012537002563476562
859266500.0 0.014867782592773438 -0.01423025131225586
864262000.0 0.01351165771484375 -0.01569080352783203
869257500.0 0.011984825134277344 -0.01706218719482422
874253000.0 0.010272979736328125 -0.018271446228027344
879248500.0 0.008355140686035156 -0.019395828247070312
884244000.0 0.00655364990234375 -0.020173072814941406
889239500.0 0.004450798034667969 -0.020857810974121094
894235000.0 0.0024652481079101562 -0.0214080810546875
899230500.0 0.000347137451171875 -0.021697044372558594
904226000.0 -0.0018815994262695312 -0.021660804748535156
909221500.0 -0.0040416717529296875 -0.02161121368408203
914217000.0 -0.0063018798828125 -0.021208763122558594
919212500.0 -0.00856781005859375 -0.020605087280273438
924208000.0 -0.010508537292480469 -0.01979351043701172
929203500.0 -0.012575149536132812 -0.01876068115234375
934199000.0 -0.014519691467285156 -0.01746082305908203
939194500.0 -0.016345977783203125 -0.01598358154296875
944190000.0 -0.017876625061035156 -0.014327049255371094
949185500.0 -0.01952075958251953 -0.012472152709960938
954181000.0 -0.02080535888671875 -0.010504722595214844
959176500.0 -0.021843910217285156 -0.0085296630859375
964172000.0 -0.022759437561035156 -0.006256103515625
969167500.0 -0.023451805114746094 -0.003941535949707031
974163000.0 -0.023820877075195312 -0.001476287841796875
979158500.0 -0.024066925048828125 0.0008592605590820312
984154000.0 -0.023842811584472656 0.0032978057861328125
989149500.0 -0.02357196807861328 0.0058746337890625
994145000.0 -0.02297687530517578 0.008213043212890625
999140500.0 -0.02216339111328125 0.010544776916503906
1004136000.0 -0.0211334228515625 0.012712478637695312
1009131500.0 -0.019797325134277344 0.014903068542480469
1014127000.0 -0.01826190948486328 0.016866683959960938
1019122500.0 -0.016432762145996094 0.018670082092285156
1024118000.0 -0.014538764953613281 0.02042865753173828
1029113500.0 -0.012456893920898438 0.02185821533203125
1034109000.0 -0.010145187377929688 0.023110389709472656
1039104500.0 -0.008008003234863281 0.024100303649902344
1044100000.0 -0.005421638488769531 0.02496814727783203
1049095500.0 -0.0028858184814453125 0.025438308715820312
1054091000.0 -0.00039958953857421875 0.025783538818359375
1059086500.0 0.0022735595703125 0.025728225708007812
1064082000.0 0.004956245422363281 0.025527000427246094
1069077500.0 0.00748443603515625 0.02497386932373047
1074073000.0 0.01009368896484375 0.024260520935058594
1079068500.0 0.012562751770019531 0.023148536682128906
1084064000.0 0.01486968994140625 0.021732330322265625
1089059500.0 0.01702594757080078 0.020348548889160156
1094055000.0 0.019159317016601562 0.018469810485839844
1099050500.0 0.020981788635253906 0.016610145568847656
1104046000.0 0.0225677490234375 0.014397621154785156
1109041500.0 0.02395153045654297 0.012064933776855469
1114037000.0 0.025300025939941406 0.009577751159667969
1119032500.0 0.02616119384765625 0.007056236267089844
1124028000.0 0.02676677703857422 0.0044116973876953125
1129023500.0 0.027146339416503906 0.0016536712646484375
1134019000.0 0.027215003967285156 -0.0010366439819335938
1139014500.0 0.027025222778320312 -0.0038042068481445312
1144010000.0 0.026617050170898438 -0.006564140319824219
1149005500.0 0.02586650848388672 -0.009417533874511719
1154001000.0 0.024919509887695312 -0.0118255615234375
1158996500.0 0.023545265197753906 -0.014410018920898438
1163992000.0 0.022149085998535156 -0.016679763793945312
1168987500.0 0.02027130126953125 -0.018950462341308594
1173983000.0 0.018454551696777344 -0.02096843719482422
1178978500.0 0.016157150268554688 -0.022787094116210938
1183974000.0 0.013927459716796875 -0.024288177490234375
1188969500.0 0.011406898498535156 -0.025681495666503906
1193965000.0 0.008700370788574219 -0.026666641235351562
1198960500.0 0.006125450134277344 -0.027591705322265625
1203956000.0 0.0033102035522460938 -0.028016090393066406
1208951500.0 0.0004444122314453125 -0.028165817260742188
1213947000.0 -0.0023126602172851562 -0.02821826934814453
1218942500.0 -0.005194664001464844 -0.027853965759277344
1223938000.0 -0.007989883422851562 -0.027243614196777344
1228933500.0 -0.010649681091308594 -0.02628326416015625
1233929000.0 -0.013323783874511719 -0.02523040771484375
1238924500.0 -0.01566028594970703 -0.023822784423828125
1243920000.0 -0.017992019653320312 -0.02219390869140625
1248915500.0 -0.020168304443359375 -0.020333290100097656
1253911000.0 -0.022161483764648438 -0.01832294464111328
1258906500.0 -0.023897171020507812 -0.01598644256591797
1263902000.0 -0.025498390197753906 -0.013576507568359375
1268897500.0 -0.02680492401123047 -0.011102676391601562
1273893000.0 -0.027704238891601562 -0.008270263671875
1278888500.0 -0.02850341796875 -0.005576133728027344
1283884000.0 -0.02901935577392578 -0.0028467178344726562
1288879500.0 -0.029206275939941406 0.000141143798828125
1293875000.0 -0.029169082641601562 0.0029382705688476562
1298870500.0 -0.028756141662597656 0.005969047546386719
1303866000.0 -0.028067588806152344 0.008846282958984375
1308861500.0 -0.02713489532470703 0.011688232421875
1313857000.0 -0.02599334716796875 0.01428985595703125
1318852500.0 -0.024507522583007812 0.016946792602539062
1323848000.0 -0.022749900817871094 0.019208908081054688
1328843500.0 -0.02084636688232422 0.021541595458984375
1333839000.0 -0.01851654052734375 0.023634910583496094
1338834500.0 -0.0160980224609375 0.0253143310546875
1343830000.0 -0.013470649719238281 0.027001380920410156
1348825500.0 -0.010671615600585938 0.028215408325195312
1353821000.0 -0.007843017578125 0.02917766571044922
1358816500.0 -0.004988670349121094 0.02988910675048828
1363812000.0 -0.0018711090087890625 0.03033924102783203
1368807500.0 0.0012264251708984375 0.030343055725097656
1373803000.0 0.0041179656982421875 0.030176162719726562
1378798500.0 0.007262229919433594 0.02969074249267578
1383794000.0 0.010166168212890625 0.02891826629638672
1388789500.0 0.013063430786132812 0.02781200408935547
1393785000.0 0.015886306762695312 0.026444435119628906
1398780500.0 0.018375396728515625 0.02464008331298828
1403776000.0 0.020849227905273438 0.02275848388671875
1408771500.0 0.023004531860351562 0.020562171936035156
1413767000.0 0.024984359741210938 0.018228530883789062
1418762500.0 0.026747703552246094 0.015672683715820312
1423758000.0 0.02813243865966797 0.012876510620117188
1428753500.0 0.02927875518798828 0.00994110107421875
1433749000.0 0.03026103973388672 0.007031440734863281
1438744500.0 0.03082752227783203 0.0039653778076171875
1443740000.0 0.031034469604492188 0.0008335113525390625
1448735500.0 0.031019210815429688 -0.0022726058959960938
1453731000.0 0.030691146850585938 -0.005400657653808594
1458726500.0 0.03004932403564453 -0.008459091186523438
1463722000.0 0.028992652893066406 -0.011419296264648438
1468717500.0 0.027780532836914062 -0.014287948608398438
1473713000.0 0.026185035705566406 -0.01701641082763672
1478708500.0 0.02432727813720703 -0.01957416534423828
1483704000.0 0.02230548858642578 -0.021944046020507812
1488699500.0 0.020094871520996094 -0.023931503295898438
1493695000.0 0.017522811889648438 -0.025835037231445312
1498690500.0 0.0148773193359375 -0.027496337890625
1503686000.0 0.012003898620605469 -0.028845787048339844
1508681500.0 0.009000778198242188 -0.029923439025878906
1513677000.0 0.006030082702636719 -0.030676841735839844
1518672500.0 0.002986907958984375 -0.031215667724609375
1523668000.0 -0.000141143798828125 -0.03129005432128906
1528663500.0 -0.0032625198364257812 -0.031005859375
1533659000.0 -0.006378173828125 -0.03055858612060547
1538654500.0 -0.009317398071289062 -0.029753684997558594
1543650000.0 -0.01220703125 -0.028814315795898438
1548645500.0 -0.015032768249511719 -0.0272979736328125
1553641000.0 -0.01779651641845703 -0.02561664581298828
1558636500.0 -0.020003318786621094 -0.023723602294921875
1563632000.0 -0.02231597900390625 -0.02161884307861328
1568627500.0 -0.024298667907714844 -0.019364356994628906
1573623000.0 -0.02612781524658203 -0.016768455505371094
1578618500.0 -0.027632713317871094 -0.014031410217285156
1583614000.0 -0.028873443603515625 -0.011402130126953125
1588609500.0 -0.02972412109375 -0.008442878723144531
1593605000.0 -0.030282974243164062 -0.005421638488769531
1598600500.0 -0.030717849731445312 -0.0024251937866210938
1603596000.0 -0.03070545196533203 0.000675201416015625
1608591500.0 -0.030582427978515625 0.0036058425903320312
1613587000.0 -0.029993057250976562 0.006610870361328125
1618582500.0 -0.0291290283203125 0.009419441223144531
1623578000.0 -0.028051376342773438 0.012108802795410156
1628573500.0 -0.026673316955566406 0.014822959899902344
1633569000.0 -0.025116920471191406 0.017335891723632812
1638564500.0 -0.023241043090820312 0.019743919372558594
1643560000.0 -0.02123546600341797 0.021971702575683594
1648555500.0 -0.019023895263671875 0.02381610870361328
1653551000.0 -0.016715049743652344 0.02541351318359375
1658546500.0 -0.014101028442382812 0.0269927978515625
1663542000.0 -0.011412620544433594 0.02814769744873047
1668537500.0 -0.008627891540527344 0.029130935668945312
1673533000.0 -0.00579071044921875 0.029854774475097656
1678528500.0 -0.0028734207153320312 0.03021526336669922
1683524000.0 0.00019550323486328125 0.030344009399414062
1688519500.0 0.0030164718627929688 0.03025341033935547
1693515000.0 0.005954742431640625 0.029870986938476562
1698510500.0 0.008938789367675781 0.02907562255859375
1703506000.0 0.011693954467773438 0.02805042266845703
1708501500.0 0.014307975769042969 0.026861190795898438
1713497000.0 0.016861915588378906 0.025295257568359375
1718492500.0 0.01926898956298828 0.02349567413330078
1723488000.0 0.021524429321289062 0.0214691162109375
1728483500.0 0.023507118225097656 0.019269943237304688
1733479000.0 0.025278091430664062 0.01689910888671875
1738474500.0 0.02677440643310547 0.014245033264160156
1743470000.0 0.02806377410888672 0.011583328247070312
1748465500.0 0.02904987335205078 0.008775711059570312
1753461000.0 0.02971649169921875 0.005936622619628906
1758456500.0 0.030205726623535156 0.00296783447265625
1763452000.0 0.030325889587402344 -1.811981201171875e-05
1768447500.0 0.03015613555908203 -0.0029630661010742188
1773443000.0 0.029697418212890625 -0.005820274353027344
1778438500.0 0.0288848876953125 -0.008648872375488281
1783434000.0 0.027991294860839844 -0.011458396911621094
1788429500.0 0.026632308959960938 -0.014034271240234375
1793425000.0 0.025028228759765625 -0.016643524169921875
1798420500.0 0.023334503173828125 -0.018945693969726562
1803416000.0 0.021390914916992188 -0.021198272705078125
1808411500.0 0.019171714782714844 -0.023084640502929688
1813407000.0 0.016801834106445312 -0.024812698364257812
1818402500.0 0.014191627502441406 -0.026239395141601562
1823398000.0 0.011583328247070312 -0.02742290496826172
1828393500.0 0.008898735046386719 -0.028550148010253906
1833389000.0 0.006033897399902344 -0.029138565063476562
1838384500.0 0.0031604766845703125 -0.029615402221679688
1843380000.0 0.000278472900390625 -0.029639244079589844
