!Created with skrf (http://scikit-rf.org).
# Hz S RI R 50.0 
!freq ReS11 ImS11
300000.0 -1.030840648 -0.1602050573
5299970.0 -1.00266619 0.0080123577
10299940.0 -1.000614125 0.0139453824
15299910.0 -0.999920589 0.0250754632
20299880.0 -0.9999794159 0.0295943136
25299850.0 -0.9993003206 0.0388991144
30299820.0 -0.9987585303 0.0465471038
35299790.0 -0.9981051826 0.0518935138
40299760.0 -0.9972075613 0.0589487403
45299730.0 -0.9973103614 0.0660746387
50299700.0 -0.9957605402 0.0737454561
55299670.0 -0.9951578994 0.0808802153
60299640.0 -0.9944306621 0.087796748
65299610.0 -0.993519261 0.0944083994
70299580.0 -0.9930931934 0.1014555724
75299550.0 -0.9923328644 0.1080350945
80299520.0 -0.991411042 0.1154198747
85299490.0 -0.9901020336 0.122511831
90299460.0 -0.9897560998 0.1293287686
95299430.0 -0.9881762412 0.136731009
100299400.0 -0.9866766651 0.1437660907
105299370.0 -0.9857067983 0.1503552984
110299340.0 -0.9846789743 0.1574761522
115299310.0 -0.9832293804 0.1642846473
120299280.0 -0.9818977874 0.1711708117
125299250.0 -0.9802951689 0.1782228682
130299220.0 -0.9791049049 0.1848482035
135299190.0 -0.9779956547 0.1920858509
140299160.0 -0.9771186518 0.1989964789
145299130.0 -0.9756081344 0.2054076537
150299100.0 -0.9736187244 0.2119527692
155299070.0 -0.9720362676 0.2191111595
160299040.0 -0.9706165646 0.2256998845
165299010.0 -0.9688997333 0.2325353143
170298980.0 -0.9672608699 0.2401576911
175298950.0 -0.963420482 0.2453217944
180298920.0 -0.9606646444 0.2515034661
185298890.0 -0.960543288 0.2588217574
190298860.0 -0.9594483513 0.2667827632
195298830.0 -0.9582462761 0.2738550756
200298800.0 -0.9562575474 0.2807142705
205298770.0 -0.9535919452 0.287044282
210298740.0 -0.951878226 0.2933140878
215298710.0 -0.9498712914 0.3002574203
220298680.0 -0.9474726555 0.307034793
225298650.0 -0.9450928294 0.3138102124
230298620.0 -0.9434822213 0.3199052185
235298590.0 -0.9406712631 0.3265278058
240298560.0 -0.9390114524 0.3329130856
245298530.0 -0.9366997271 0.339860182
250298500.0 -0.9336826153 0.3464250126
255298470.0 -0.931091465 0.3533745442
260298440.0 -0.9291764034 0.3599058444
265298410.0 -0.9260704432 0.3654499981
270298380.0 -0.9233994145 0.3722394842
275298350.0 -0.920344404 0.3791676668
280298320.0 -0.9177886601 0.3849923324
285298290.0 -0.9149478842 0.391230386
290298260.0 -0.9125367375 0.3987461433
295298230.0 -0.9098764278 0.404847161
300298200.0 -0.906542896 0.4106954994
305298170.0 -0.9037833493 0.4172916918
310298140.0 -0.9007680267 0.4238334367
315298110.0 -0.8975003357 0.4300156005
320298080.0 -0.8950750428 0.4362725111
325298050.0 -0.8913015938 0.4424328777
330298020.0 -0.8881500321 0.4490224514
335297990.0 -0.8846819549 0.4549094657
340297960.0 -0.8818789492 0.461150322
345297930.0 -0.8791786592 0.4673265685
350297900.0 -0.8764119936 0.4740969396
355297870.0 -0.8724361974 0.4793829443
360297840.0 -0.8697020727 0.4860428748
365297810.0 -0.8661579238 0.4920486458
370297780.0 -0.8629990488 0.4977427565
375297750.0 -0.8580020101 0.5038837528
380297720.0 -0.8552130638 0.5095475551
385297690.0 -0.8509578508 0.5155062883
390297660.0 -0.8466525299 0.5215716499
395297630.0 -0.8432410177 0.5280069464
400297600.0 -0.8396644498 0.5336192849
405297570.0 -0.8357868002 0.5397344948
410297540.0 -0.8320445524 0.5454613476
415297510.0 -0.8283037223 0.5508013107
420297480.0 -0.8243507059 0.5567579779
425297450.0 -0.8199591451 0.5626824464
430297420.0 -0.816114598 0.5683710339
435297390.0 -0.812831016 0.5736090739
440297360.0 -0.8084235104 0.5792719921
445297330.0 -0.8041736886 0.5855234049
450297300.0 -0.800009181 0.5910592554
455297270.0 -0.7958922706 0.5968562916
460297240.0 -0.7912413869 0.6024346882
465297210.0 -0.7877109 0.6079283154
470297180.0 -0.7828311515 0.6130940575
475297150.0 -0.7782948087 0.6186931585
480297120.0 -0.7741042136 0.6240834094
485297090.0 -0.7700662046 0.629300693
490297060.0 -0.7655391434 0.6347710078
495297030.0 -0.7607448878 0.6402288669
500297000.0 -0.7565861383 0.6456558538
505296970.0 -0.7521176916 0.6507024868
510296940.0 -0.7480678991 0.6562115035
515296910.0 -0.7435779062 0.6615402778
520296880.0 -0.7392545689 0.66697559
525296850.0 -0.734457017 0.6721029021
530296820.0 -0.7295837176 0.6772981645
535296790.0 -0.725039675 0.6823919758
540296760.0 -0.7202765672 0.6878994579
545296730.0 -0.7149180308 0.6920288331
550296700.0 -0.7098240769 0.6971677355
555296670.0 -0.7048592698 0.701925445
560296640.0 -0.69979164 0.7063956053
565296610.0 -0.6940495559 0.7112946278
570296580.0 -0.6886401859 0.716634388
575296550.0 -0.6841206142 0.7213788177
580296520.0 -0.6789946387 0.7262606954
585296490.0 -0.6740380622 0.7313057565
590296460.0 -0.6689520015 0.7355761972
595296430.0 -0.6636800784 0.7399268882
600296400.0 -0.6583663574 0.7446337169
605296370.0 -0.652522407 0.7490595113
610296340.0 -0.6481475516 0.7535802211
615296310.0 -0.6424018856 0.7581350672
620296280.0 -0.6370235553 0.762678983
625296250.0 -0.6312179879 0.766886682
630296220.0 -0.6266109432 0.770953005
635296190.0 -0.6203717591 0.7753226069
640296160.0 -0.6154504054 0.7799299294
645296130.0 -0.6105600289 0.7838682008
650296100.0 -0.6043530703 0.7876421525
655296070.0 -0.5985781097 0.7926192657
660296040.0 -0.5933281944 0.7966853179
665296010.0 -0.5883658226 0.7999137374
670295980.0 -0.5825834068 0.8048538252
675295950.0 -0.5767051395 0.8085806078
680295920.0 -0.5705385301 0.8130043635
685295890.0 -0.5650647579 0.8170957124
690295860.0 -0.5593647546 0.8210153581
695295830.0 -0.5536916966 0.8249932636
700295800.0 -0.5473689565 0.8285333046
705295770.0 -0.5424643256 0.8328464567
710295740.0 -0.5357128426 0.8362157451
715295710.0 -0.5301461002 0.8400227299
720295680.0 -0.5244181861 0.8436312324
725295650.0 -0.5183210212 0.8471933793
730295620.0 -0.5127119335 0.8506453284
735295590.0 -0.5067495599 0.8541547965
740295560.0 -0.5009079559 0.8581850627
745295530.0 -0.4950255695 0.8609309627
750295500.0 -0.4888420303 0.8647164941
755295470.0 -0.4825937247 0.8685175789
760295440.0 -0.4762255763 0.8708243023
765295410.0 -0.4704758656 0.8750112893
770295380.0 -0.4637252017 0.8778752126
775295350.0 -0.4575514122 0.880814975
780295320.0 -0.4513611727 0.8840574855
785295290.0 -0.4455030032 0.8871978577
790295260.0 -0.4390737105 0.8904475958
795295230.0 -0.4327333074 0.8933871738
800295200.0 -0.4265331997 0.8958528325
805295170.0 -0.4198239034 0.8989267328
810295140.0 -0.4138896516 0.9020402567
815295110.0 -0.4075759688 0.9050077517
820295080.0 -0.4008276418 0.9078494805
825295050.0 -0.3947564446 0.9102105049
830295020.0 -0.3880433177 0.9133396701
835294990.0 -0.3818264493 0.9160106236
840294960.0 -0.3755166571 0.9187375543
845294930.0 -0.3686164666 0.9210290572
850294900.0 -0.3627185169 0.9238983007
855294870.0 -0.3557876665 0.9262315366
860294840.0 -0.3497150516 0.9285071618
865294810.0 -0.3432374761 0.9310264865
870294780.0 -0.3365406187 0.9332359378
875294750.0 -0.3303025719 0.935744271
880294720.0 -0.3232623754 0.9379014231
885294690.0 -0.3169167739 0.9397588314
890294660.0 -0.3104615376 0.9420286697
895294630.0 -0.3036346615 0.9441648889
900294600.0 -0.2971776142 0.9460485269
905294570.0 -0.2900909896 0.9482600733
910294540.0 -0.2836187799 0.9501224835
915294510.0 -0.2770917928 0.9519817324
920294480.0 -0.270392541 0.9532900642
925294450.0 -0.2635701771 0.955619666
930294420.0 -0.2571037319 0.9570104376
935294390.0 -0.2502074915 0.9592362815
940294360.0 -0.2436992588 0.9605713729
945294330.0 -0.2374176718 0.9624840755
950294300.0 -0.2301878296 0.9641723738
955294270.0 -0.2236574413 0.9658950438
960294240.0 -0.2160833563 0.9668264345
965294210.0 -0.2091957948 0.9688154577
970294180.0 -0.2024631991 0.9695349624
975294150.0 -0.1956820832 0.971391077
980294120.0 -0.1896836892 0.9725775801
985294090.0 -0.1830665201 0.9737554485
990294060.0 -0.1759679498 0.9751435005
995294030.0 -0.1692322092 0.9763430608
1000294000.0 -0.1620978406 0.9780646723
1005293970.0 -0.1551253207 0.9784925879
1010293940.0 -0.1478003205 0.97985461
1015293910.0 -0.1416258729 0.9805193476
1020293880.0 -0.1348453767 0.981728322
1025293850.0 -0.1280997073 0.9820958541
1030293820.0 -0.1214030366 0.9832686755
1035293790.0 -0.1141928198 0.9840824066
1040293760.0 -0.1075549296 0.9849752301
1045293730.0 -0.1004450124 0.9858123418
1050293700.0 -0.0933513403 0.9857776407
1055293670.0 -0.0863163086 0.9868224538
1060293640.0 -0.0798163219 0.9870917943
1065293610.0 -0.0729317735 0.9878429506
1070293580.0 -0.0662903093 0.9882929779
1075293550.0 -0.0593512568 0.9888188061
1080293520.0 -0.0523118464 0.9893797815
1085293490.0 -0.0449759091 0.9890273459
1090293460.0 -0.0380209998 0.9894578626
1095293430.0 -0.0308356434 0.9902569819
1100293400.0 -0.0238219331 0.9901803097
1105293370.0 -0.0170574159 0.990189979
1110293340.0 -0.0098548517 0.9907717464
1115293310.0 -0.0031317116 0.9901073368
1120293280.0 0.0031518065 0.9902982775
1125293250.0 0.0100889586 0.9902945599
1130293220.0 0.0165681823 0.9899201189
1135293190.0 0.0235763501 0.9895197707
1140293160.0 0.0307671739 0.9893718008
1145293130.0 0.0381575547 0.9899510378
1150293100.0 0.0447881522 0.9896482162
1155293070.0 0.0519206039 0.98886785
1160293040.0 0.0590793866 0.9884189989
1165293010.0 0.0658974681 0.987481814
1170292980.0 0.0720493371 0.9876219771
1175292950.0 0.0794657932 0.9872129206
1180292920.0 0.0861826369 0.986416977
1185292890.0 0.0929741442 0.9858048865
1190292860.0 0.0999808393 0.9849741723
1195292830.0 0.1066480697 0.9840348342
1200292800.0 0.1137471797 0.9836181333
1205292770.0 0.1202924572 0.9823332703
1210292740.0 0.1269982026 0.9813379029
1215292710.0 0.1344804642 0.9805274401
1220292680.0 0.1414110628 0.9792272254
1225292650.0 0.1480871745 0.9787267017
1230292620.0 0.1548702353 0.977678773
1235292590.0 0.1619488754 0.975990751
1240292560.0 0.1685548692 0.9749903434
1245292530.0 0.1753506397 0.9740183647
1250292500.0 0.1823790277 0.9725193006
1255292470.0 0.189037157 0.9716478983
1260292440.0 0.195859057 0.9703162689
1265292410.0 0.2029307346 0.9691107672
1270292380.0 0.2093905894 0.9674886257
1275292350.0 0.2164498475 0.9655162361
1280292320.0 0.2232971414 0.9644067566
1285292290.0 0.2302881216 0.9627877505
1290292260.0 0.2365976819 0.9610551727
1295292230.0 0.2435007308 0.959169466
1300292200.0 0.2493621051 0.9576869799
1305292170.0 0.2558695255 0.9557017567
1310292140.0 0.262820554 0.9545353854
1315292110.0 0.269877661 0.9525270483
1320292080.0 0.2768119963 0.9506829142
1325292050.0 0.2829189909 0.9478732081
1330292020.0 0.2898963011 0.9462333636
1335291990.0 0.2967313413 0.9444805911
1340291960.0 0.3032549507 0.9421188473
1345291930.0 0.3103874463 0.9395964504
1350291900.0 0.3165860827 0.9378672713
1355291870.0 0.3228319107 0.9357129222
1360291840.0 0.3287121048 0.9334552451
1365291810.0 0.3357954089 0.9313800945
1370291780.0 0.3424269186 0.928659665
1375291750.0 0.3488773597 0.9261060591
1380291720.0 0.3547208622 0.9238041614
1385291690.0 0.3616734251 0.9213944478
1390291660.0 0.3687484372 0.9187807124
1395291630.0 0.3746762553 0.9160917381
1400291600.0 0.3816296491 0.913021166
1405291570.0 0.3875198382 0.9102858012
1410291540.0 0.3939029294 0.908014243
1415291510.0 0.3998764121 0.9050904478
1420291480.0 0.4063144654 0.9019588811
1425291450.0 0.4131723433 0.8995302171
1430291420.0 0.418751496 0.8966963994
1435291390.0 0.4251582727 0.8942809788
1440291360.0 0.4304930994 0.890835991
1445291330.0 0.4373649324 0.8882049656
1450291300.0 0.4433429502 0.8845168938
1455291270.0 0.4494980972 0.8816082158
1460291240.0 0.4556147741 0.8780543473
1465291210.0 0.4619842995 0.8752226861
1470291180.0 0.4679384441 0.8719182576
1475291150.0 0.4746329159 0.8690451927
1480291120.0 0.4808558563 0.8653484393
1485291090.0 0.4863391333 0.8618726386
1490291060.0 0.4927412757 0.8589101097
1495291030.0 0.4981600891 0.8548115403
1500291000.0 0.5047051692 0.8517973384
1505290970.0 0.5104219024 0.8476919913
1510290940.0 0.5165021604 0.8449319635
1515290910.0 0.5222104355 0.8407880283
1520290880.0 0.5280681654 0.8376660389
1525290850.0 0.5339697766 0.8336791555
1530290820.0 0.540435582 0.8299481416
1535290790.0 0.5459829994 0.8255584572
1540290760.0 0.5514507191 0.8220727735
1545290730.0 0.5575155623 0.8178218114
1550290700.0 0.5637999602 0.8145039934
1555290670.0 0.5688300009 0.809732713
1560290640.0 0.5745366342 0.8064230934
1565290610.0 0.579833484 0.8028068237
1570290580.0 0.5855825757 0.7978334778
1575290550.0 0.5907040326 0.7941767274
1580290520.0 0.5972295671 0.7903241972
1585290490.0 0.6023877414 0.7863206694
1590290460.0 0.6081702841 0.7812900672
1595290430.0 0.6139588226 0.7768519257
1600290400.0 0.6190725494 0.7731199896
1605290370.0 0.6240680908 0.7685168927
1610290340.0 0.6296942212 0.7645813119
1615290310.0 0.6347348477 0.760378267
1620290280.0 0.6396632843 0.7558775981
1625290250.0 0.6450388332 0.7507025466
1630290220.0 0.6505812952 0.7468396058
1635290190.0 0.6557200634 0.7421065621
1640290160.0 0.6603134527 0.7373137842
1645290130.0 0.6661235779 0.7331325269
1650290100.0 0.6706598686 0.7284153561
1655290070.0 0.6760601046 0.7234688429
1660290040.0 0.6814031968 0.7185413542
1665290010.0 0.6861515202 0.714180769
1670289980.0 0.6911214952 0.709516077
1675289950.0 0.6960720466 0.7044279332
1680289920.0 0.701054092 0.6989665942
1685289890.0 0.7064139175 0.6937456967
1690289860.0 0.7108937571 0.6889683864
1695289830.0 0.7161555824 0.6839710181
1700289800.0 0.7208193842 0.6789116682
1705289770.0 0.7255279647 0.6738734979
1710289740.0 0.7306273543 0.6684901508
1715289710.0 0.7349568373 0.6639714268
1720289680.0 0.7399580044 0.6585636917
1725289650.0 0.7445602363 0.6533098184
1730289620.0 0.7490268781 0.6485361376
1735289590.0 0.7534033649 0.6432643841
1740289560.0 0.7576145902 0.6380918371
1745289530.0 0.7621525077 0.6323642925
1750289500.0 0.7664139011 0.6273720037
1755289470.0 0.771525758 0.6221478054
1760289440.0 0.7755797919 0.6170412257
1765289410.0 0.77953506 0.6115038449
1770289380.0 0.7832957965 0.6061100802
1775289350.0 0.7881394753 0.6008048947
1780289320.0 0.7925323658 0.595000743
1785289290.0 0.7965394737 0.5896441939
1790289260.0 0.8008439995 0.5839491236
1795289230.0 0.8052682606 0.5782200633
1800289200.0 0.8089193171 0.5723077187
1805289170.0 0.8132168179 0.56682833
1810289140.0 0.8167791152 0.5614342939
1815289110.0 0.8205762917 0.555882032
1820289080.0 0.8240529558 0.5499590881
1825289050.0 0.8280854632 0.5448145552
1830289020.0 0.8319948052 0.5391736596
1835288990.0 0.8352159498 0.5336693238
1840288960.0 0.838985659 0.5278105601
1845288930.0 0.8427318011 0.5220972305
1850288900.0 0.8468906228 0.5155062925
1855288870.0 0.8505477486 0.5096611726
1860288840.0 0.8541540446 0.5037162506
1865288810.0 0.8577133119 0.4974062258
1870288780.0 0.8610531296 0.4914243418
1875288750.0 0.8644704613 0.4855770238
1880288720.0 0.8678547982 0.4790346234
1885288690.0 0.8710570535 0.4730597101
1890288660.0 0.8748544969 0.46701766
1895288630.0 0.8778743247 0.461191156
1900288600.0 0.8810039198 0.4549002571
1905288570.0 0.8840923012 0.4485211904
1910288540.0 0.8876007714 0.4424334205
1915288510.0 0.8903806134 0.4360568701
1920288480.0 0.8937012345 0.4289303715
1925288450.0 0.8967449175 0.4231933886
1930288420.0 0.900161492 0.4171254836
1935288390.0 0.9025326916 0.4109064772
1940288360.0 0.9056419162 0.4038797747
1945288330.0 0.9080331968 0.3974096723
1950288300.0 0.9108249763 0.3910683727
1955288270.0 0.9138502915 0.3845409763
1960288240.0 0.9168177685 0.3778116281
1965288210.0 0.9195483989 0.3716773264
1970288180.0 0.9216648242 0.3656054295
1975288150.0 0.9247931157 0.3588010922
1980288120.0 0.9270826172 0.3535284626
1985288090.0 0.9294229988 0.3463457238
1990288060.0 0.9318847644 0.340170638
1995288030.0 0.9334804525 0.3343717187
2000288000.0 0.9362862057 0.3278022486
2005287970.0 0.9386207174 0.3211089408
2010287940.0 0.9406781121 0.3147189137
2015287910.0 0.942917788 0.3082249528
2020287880.0 0.9450521872 0.3017592998
2025287850.0 0.9471756896 0.2950412893
2030287820.0 0.9484264287 0.2876193915
2035287790.0 0.951333453 0.2819992047
2040287760.0 0.9528021085 0.2747028734
2045287730.0 0.9548203697 0.2678204524
2050287700.0 0.956675477 0.2618416267
2055287670.0 0.9587668141 0.2549421054
2060287640.0 0.9607047438 0.2485869171
2065287610.0 0.9626210429 0.2414876556
2070287580.0 0.9633879025 0.234672003
2075287550.0 0.9654085841 0.2285393064
2080287520.0 0.9672108146 0.2215527945
2085287490.0 0.969050406 0.2148840801
2090287460.0 0.9700159498 0.2084007105
2095287430.0 0.9714928873 0.2010315252
2100287400.0 0.9731734288 0.1938323312
2105287370.0 0.9745591822 0.1875375028
2110287340.0 0.9754668691 0.1807483359
2115287310.0 0.9770171785 0.1727276743
2120287280.0 0.9783592606 0.1670871859
2125287250.0 0.9794239273 0.1599349872
2130287220.0 0.9806163136 0.1532695275
2135287190.0 0.9811903893 0.1462248968
2140287160.0 0.982321427 0.1389133929
2145287130.0 0.9830531719 0.1326391979
2150287100.0 0.9844591362 0.1252688794
2155287070.0 0.9851545391 0.1189994024
2160287040.0 0.9860097791 0.1117886248
2165287010.0 0.9867132389 0.1054411725
2170286980.0 0.9875014454 0.0985808572
2175286950.0 0.9884098832 0.0918620835
2180286920.0 0.9891248653 0.0849234442
2185286890.0 0.9888973563 0.0786694631
2190286860.0 0.9900193846 0.0715000352
2195286830.0 0.9901610063 0.0654296141
2200286800.0 0.990879108 0.0575803289
2205286770.0 0.9916135435 0.0513187624
2210286740.0 0.991879514 0.0446291833
2215286710.0 0.9923946439 0.0380106429
2220286680.0 0.99200348 0.0309526502
2225286650.0 0.9924449264 0.0242128114
2230286620.0 0.9924128878 0.0162947558
2235286590.0 0.9925378546 0.009693252
2240286560.0 0.9925053378 0.0025926479
2245286530.0 0.9927635809 -0.0042669049
2250286500.0 0.9929820587 -0.0110630085
2255286470.0 0.9928174974 -0.0183392179
2260286440.0 0.9923271066 -0.0253415219
2265286410.0 0.9920878293 -0.0325067581
2270286380.0 0.9921432176 -0.0394375466
2275286350.0 0.9917940659 -0.0461856489
2280286320.0 0.9907935972 -0.0530561455
2285286290.0 0.9908759311 -0.0597581018
2290286260.0 0.9902194852 -0.0672472686
2295286230.0 0.9900261712 -0.0742930408
2300286200.0 0.989479756 -0.0810434181
2305286170.0 0.9886207886 -0.087287399
2310286140.0 0.9884726573 -0.0944852175
2315286110.0 0.9877702941 -0.1018414142
2320286080.0 0.9867364193 -0.1079210241
2325286050.0 0.9856499358 -0.1154739252
2330286020.0 0.9847122924 -0.1221027628
2335285990.0 0.98434763 -0.1284399548
2340285960.0 0.9839752684 -0.1351587629
2345285930.0 0.9826352653 -0.142453434
2350285900.0 0.9814236466 -0.1495108819
2355285870.0 0.9806050961 -0.1564900884
2360285840.0 0.9793576379 -0.1633803807
2365285810.0 0.9784457349 -0.1698350758
2370285780.0 0.9766474446 -0.1771761106
2375285750.0 0.9757169619 -0.1837203046
2380285720.0 0.9743227597 -0.189940649
2385285690.0 0.9729668405 -0.1971628588
2390285660.0 0.9715783178 -0.2036554894
2395285630.0 0.970365509 -0.2101865727
2400285600.0 0.9686152361 -0.2167569305
2405285570.0 0.967159977 -0.223441347
2410285540.0 0.9655056274 -0.2297429748
2415285510.0 0.9636273816 -0.2357499566
2420285480.0 0.9616839669 -0.2428988063
2425285450.0 0.9605743078 -0.2498532918
2430285420.0 0.9583744529 -0.2566808124
2435285390.0 0.9567898885 -0.2635701353
2440285360.0 0.9556062433 -0.2696920299
2445285330.0 0.9536843996 -0.2762940698
2450285300.0 0.9513086179 -0.2831974357
2455285270.0 0.9492879993 -0.2902236755
2460285240.0 0.9472557463 -0.2964969289
2465285210.0 0.9448470099 -0.303164755
2470285180.0 0.9427370524 -0.3096674614
2475285150.0 0.9408664349 -0.3160049855
2480285120.0 0.9381399826 -0.32294685
2485285090.0 0.9362721822 -0.3293840944
2490285060.0 0.9333469935 -0.3361119164
2495285030.0 0.9314595367 -0.3426518005
2500285000.0 0.9286440736 -0.349580609
2505284970.0 0.9258469645 -0.3560586661
2510284940.0 0.9236183872 -0.362386664
2515284910.0 0.9210763525 -0.3686094589
2520284880.0 0.9186479139 -0.3750193155
2525284850.0 0.9156976181 -0.3814674833
2530284820.0 0.9133221806 -0.3876016292
2535284790.0 0.910451975 -0.39398561
2540284760.0 0.9077664716 -0.399907358
2545284730.0 0.9050554949 -0.4062968647
2550284700.0 0.9020613534 -0.4127315566
2555284670.0 0.8991048263 -0.4190821452
