!Created with skrf (http://scikit-rf.org).
# Hz S RI R 50.0 
!freq ReS11 ImS11
300000.0 -0.0068948389 -0.0409248737
5299970.0 0.000330207 -0.0005657347
10299940.0 0.000412495 -0.0006555344
15299910.0 0.0005430163 0.0005211827
20299880.0 0.0004590566 -9.84302e-05
25299850.0 0.0006054904 0.0004207181
30299820.0 0.0009176405 0.0004878261
35299790.0 0.0008497209 0.0002309637
40299760.0 0.000925176 0.0005238944
45299730.0 0.0008724398 0.0003673946
50299700.0 0.0008315069 0.0006060293
55299670.0 0.0010572419 0.0008835721
60299640.0 0.0012209856 0.0005937097
65299610.0 0.0009669121 0.000402059
70299580.0 0.0010619742 0.0007160191
75299550.0 0.0009873056 0.0005269994
80299520.0 0.0012385121 0.0008902602
85299490.0 0.0013116617 0.0007062843
90299460.0 0.001228919 0.0005700689
95299430.0 0.001378193 0.000606901
100299400.0 0.001412514 0.0008231974
105299370.0 0.0012914629 0.0007125722
110299340.0 0.0012779779 0.0006097471
115299310.0 0.001418333 0.0007624422
120299280.0 0.001631448 0.0009858323
125299250.0 0.0013048345 0.0008200338
130299220.0 0.001533294 0.0006848281
135299190.0 0.0014759107 0.0008786243
140299160.0 0.0015157467 0.0008678163
145299130.0 0.0014907014 0.000915882
150299100.0 0.0015346877 0.0008272735
155299070.0 0.0014995975 0.0008911179
160299040.0 0.0016368592 0.000877982
165299010.0 0.0015259209 0.000898721
170298980.0 0.0018263415 0.0009244807
175298950.0 0.0016728746 0.001073004
180298920.0 0.0016516878 0.0007994905
185298890.0 0.001684469 0.0009628373
190298860.0 0.0017223801 0.0008895757
195298830.0 0.0016313542 0.0011910116
200298800.0 0.0018425307 0.0011043747
205298770.0 0.0018156199 0.0008867023
210298740.0 0.0018235019 0.0009569803
215298710.0 0.0019893133 0.0011129953
220298680.0 0.0019107411 0.0009946546
225298650.0 0.0020812776 0.0010400627
230298620.0 0.0017927028 0.0009337909
235298590.0 0.0019996655 0.0009913532
240298560.0 0.0021756459 0.00084066
245298530.0 0.0020526821 0.0008462031
250298500.0 0.0019995984 0.0009357552
255298470.0 0.0020078028 0.0007857611
260298440.0 0.0021096604 0.0008844877
265298410.0 0.0020554751 0.0009359915
270298380.0 0.0021207717 0.0009380712
275298350.0 0.0020220144 0.0008344477
280298320.0 0.0020946147 0.0010349932
285298290.0 0.0021185402 0.001110377
290298260.0 0.0021177428 0.0009528124
295298230.0 0.0022689874 0.0008890272
300298200.0 0.0020172235 0.0010208546
305298170.0 0.0022587818 0.0009517795
310298140.0 0.0022199238 0.0010233082
315298110.0 0.0022912068 0.0008878746
320298080.0 0.0020905332 0.0008751903
325298050.0 0.0024128902 0.0009120953
330298020.0 0.0021193011 0.0008890841
335297990.0 0.0022835188 0.0009370652
340297960.0 0.0022064113 0.0007620692
345297930.0 0.0025429427 0.000698049
350297900.0 0.0024390316 0.000827733
355297870.0 0.00254254 0.0005471908
360297840.0 0.002664634 0.0005585812
365297810.0 0.0025418859 0.0006465519
370297780.0 0.0024575552 0.0009214207
375297750.0 0.0022680518 0.0008381299
380297720.0 0.0023332309 0.0009482554
385297690.0 0.002529635 0.0008941869
390297660.0 0.002523839 0.0006736348
395297630.0 0.0024383777 0.0007201471
400297600.0 0.0026987866 0.0008111951
405297570.0 0.002343557 0.0008029101
410297540.0 0.0025265877 0.0006131927
415297510.0 0.0024587807 0.0007016916
420297480.0 0.0027605679 0.0007408544
425297450.0 0.002680881 0.0004280321
430297420.0 0.002553862 0.0006081431
435297390.0 0.0025632092 0.0005383981
440297360.0 0.0025332291 0.0005975093
445297330.0 0.0026972523 0.000564842
450297300.0 0.0026586424 0.0006110808
455297270.0 0.0026389325 0.0004868425
460297240.0 0.00245258 0.0007374384
465297210.0 0.0025126905 0.0005433165
470297180.0 0.0025494472 0.0006771084
475297150.0 0.0027356628 0.0004221767
480297120.0 0.0026723436 0.0006519971
485297090.0 0.0027362692 0.0006757818
490297060.0 0.0025897432 0.0004200274
495297030.0 0.0026738649 0.0004344703
500297000.0 0.0027790042 0.0005826463
505296970.0 0.0026919699 0.0005798849
510296940.0 0.0026129804 0.0006193856
515296910.0 0.0026328815 0.0006258869
520296880.0 0.0026711986 0.0005596009
525296850.0 0.0026925306 0.0005178235
530296820.0 0.0026590095 0.0005968966
535296790.0 0.002637964 0.0006104125
540296760.0 0.0026951678 0.0003909182
545296730.0 0.0025315204 0.0002421288
550296700.0 0.0027284814 0.0002174149
555296670.0 0.0027606164 0.0003706468
560296640.0 0.0026778963 0.0001879519
565296610.0 0.0029648896 0.0002341688
570296580.0 0.0028766386 9.55005e-05
575296550.0 0.002857926 0.0002892102
580296520.0 0.0027038482 0.0002595748
585296490.0 0.0029357078 0.0002381734
590296460.0 0.0029111707 0.0001793556
595296430.0 0.0028603387 0.0001746451
600296400.0 0.0029382125 0.0002396257
605296370.0 0.0029137636 0.0005156331
610296340.0 0.0029623582 2.66341e-05
615296310.0 0.0028676109 0.0002226362
620296280.0 0.0027183792 -5.496e-07
625296250.0 0.0029501215 2.0647e-06
630296220.0 0.0029535052 -3.02109e-05
635296190.0 0.0027908541 2.28921e-05
640296160.0 0.0029488869 -8.11054e-05
645296130.0 0.0029665305 9.98676e-05
650296100.0 0.0029122043 -0.0002522032
655296070.0 0.0029310601 -0.0001241062
660296040.0 0.002945666 -0.0002300304
665296010.0 0.0031329863 -0.0002304633
670295980.0 0.0030280483 -0.0002400963
675295950.0 0.0030097648 -0.0001304488
680295920.0 0.0030641132 -0.0001529167
685295890.0 0.0030404445 -0.0002161344
690295860.0 0.0029194532 -0.0002053123
695295830.0 0.0031642894 -0.000294641
700295800.0 0.003137675 -0.0003504561
705295770.0 0.0031393843 -0.0004534068
710295740.0 0.0028664734 -0.0003079737
715295710.0 0.0030931474 -0.0003092764
720295680.0 0.0030546165 -0.0004600751
725295650.0 0.0029109473 -0.0003605613
730295620.0 0.002756694 -0.0002300539
735295590.0 0.0029241279 -0.000487451
740295560.0 0.0030512241 -0.0005389623
745295530.0 0.0029651528 -0.0004000995
750295500.0 0.0029848013 -0.0005315085
755295470.0 0.0031225405 -0.0005787948
760295440.0 0.0030259191 -0.0005107685
765295410.0 0.0030503085 -0.0005042422
770295380.0 0.0029880706 -0.0005675387
775295350.0 0.0031217824 -0.0006351734
780295320.0 0.0029961538 -0.0008085276
785295290.0 0.0030959732 -0.000897228
790295260.0 0.0030139689 -0.0005852695
795295230.0 0.0030451026 -0.000751165
800295200.0 0.0028996903 -0.000760655
805295170.0 0.0029911679 -0.0007725291
810295140.0 0.0029298092 -0.000884784
815295110.0 0.0028213372 -0.0009502917
820295080.0 0.0030510913 -0.0010319115
825295050.0 0.0029743157 -0.0011438031
830295020.0 0.0030635732 -0.0008834295
835294990.0 0.0031632193 -0.000927787
840294960.0 0.0029912096 -0.0011806803
845294930.0 0.0030253435 -0.0008700354
850294900.0 0.0032546807 -0.0010064169
855294870.0 0.0030445191 -0.0010897358
860294840.0 0.0028826991 -0.0011161467
865294810.0 0.0029155133 -0.0011636918
870294780.0 0.0030893558 -0.0011558719
875294750.0 0.0029736545 -0.0011015206
880294720.0 0.0029359297 -0.0011150901
885294690.0 0.0030072265 -0.0012136656
890294660.0 0.0030988788 -0.0013202661
895294630.0 0.0030294002 -0.0014196879
900294600.0 0.0031244954 -0.0012848293
905294570.0 0.003322952 -0.0011724648
910294540.0 0.0031208574 -0.0014676394
915294510.0 0.0030953155 -0.0014409293
920294480.0 0.0028763605 -0.0014298539
925294450.0 0.0028613069 -0.0014202734
930294420.0 0.0028714592 -0.0013557378
935294390.0 0.003104128 -0.0016456678
940294360.0 0.0030518311 -0.0014069561
945294330.0 0.0031397555 -0.0016042489
950294300.0 0.0031931423 -0.001715284
955294270.0 0.0028611007 -0.0014388926
960294240.0 0.0031171173 -0.0016267399
965294210.0 0.0031463585 -0.001822763
970294180.0 0.0030609931 -0.0016892882
975294150.0 0.0028721655 -0.0020048186
980294120.0 0.0028412277 -0.0018932259
985294090.0 0.003075136 -0.0019478682
990294060.0 0.0029904833 -0.0018994214
995294030.0 0.0028781695 -0.0019080707
1000294000.0 0.003085463 -0.0018935138
1005293970.0 0.003060956 -0.0020599609
1010293940.0 0.0027868182 -0.0019014202
1015293910.0 0.0029888115 -0.0020769921
1020293880.0 0.003025036 -0.0019841208
1025293850.0 0.0028480809 -0.0021594549
1030293820.0 0.0029290465 -0.0019588785
1035293790.0 0.0029399688 -0.0021951592
1040293760.0 0.0030382564 -0.001977511
1045293730.0 0.0029700547 -0.0020980723
1050293700.0 0.0030131875 -0.0022267185
1055293670.0 0.0029770997 -0.0024001466
1060293640.0 0.0030304003 -0.0022380115
1065293610.0 0.0031399294 -0.0023089854
1070293580.0 0.0030084457 -0.0021858722
1075293550.0 0.0028747121 -0.0022807335
1080293520.0 0.0030300796 -0.0023356263
1085293490.0 0.00299401 -0.0024514741
1090293460.0 0.0028383112 -0.0023043828
1095293430.0 0.0029774623 -0.0024286399
1100293400.0 0.0030621337 -0.0025280037
1105293370.0 0.0031180947 -0.002643318
1110293340.0 0.0031334927 -0.002711222
1115293310.0 0.0031145033 -0.0023816657
1120293280.0 0.0028218954 -0.0024144864
1125293250.0 0.0029614116 -0.0023753941
1130293220.0 0.0028351647 -0.0026191909
1135293190.0 0.002943491 -0.0024219074
1140293160.0 0.002733993 -0.0023303786
1145293130.0 0.0027033451 -0.0021700321
1150293100.0 0.0025305531 -0.0024363666
1155293070.0 0.0025002011 -0.0025079165
1160293040.0 0.0025152323 -0.0024796962
1165293010.0 0.0023233149 -0.0025987268
1170292980.0 0.0024649468 -0.0027716995
1175292950.0 0.0028944216 -0.0026498797
1180292920.0 0.0025710378 -0.0028807745
1185292890.0 0.0030117629 -0.002820064
1190292860.0 0.0029907821 -0.0029100304
1195292830.0 0.0029883171 -0.0026999362
1200292800.0 0.0029541175 -0.0030085915
1205292770.0 0.0027630845 -0.0029683491
1210292740.0 0.0029387556 -0.0029921328
1215292710.0 0.0030140834 -0.0030393208
1220292680.0 0.0028260316 -0.0033285716
1225292650.0 0.002850272 -0.0030211282
1230292620.0 0.002972726 -0.0030051318
1235292590.0 0.0029467369 -0.0032940158
1240292560.0 0.0029858361 -0.0029476677
1245292530.0 0.0029190545 -0.0032420012
1250292500.0 0.0032516119 -0.0032624796
1255292470.0 0.0030888873 -0.0033124801
1260292440.0 0.0031614483 -0.0031553574
1265292410.0 0.0029032859 -0.0033078134
1270292380.0 0.0029841186 -0.0033372874
1275292350.0 0.0029495835 -0.0031423455
1280292320.0 0.0029000486 -0.0033362486
1285292290.0 0.0029612758 -0.0033604857
1290292260.0 0.003132538 -0.0032685114
1295292230.0 0.0029617586 -0.0033817976
1300292200.0 0.0029835037 -0.0034366812
1305292170.0 0.0029435326 -0.0035829616
1310292140.0 0.0030653136 -0.0037786879
1315292110.0 0.002909366 -0.003735734
1320292080.0 0.0029417485 -0.0037043269
1325292050.0 0.00300118 -0.0036950278
1330292020.0 0.0030616199 -0.0036451024
1335291990.0 0.0032192313 -0.0035626072
1340291960.0 0.0028073701 -0.0036804505
1345291930.0 0.0027556221 -0.0038368707
1350291900.0 0.0028009632 -0.0038544151
1355291870.0 0.0030425802 -0.0037912523
1360291840.0 0.003170019 -0.0036823381
1365291810.0 0.0029999326 -0.0037557583
1370291780.0 0.0028109394 -0.0037798968
1375291750.0 0.0029871436 -0.0037884326
1380291720.0 0.002989916 -0.0038849535
1385291690.0 0.0028621531 -0.003785089
1390291660.0 0.0031564177 -0.0038750381
1395291630.0 0.0029849239 -0.0038498102
1400291600.0 0.0028462144 -0.004034632
1405291570.0 0.0029098903 -0.0039108261
1410291540.0 0.0028799043 -0.0041369318
1415291510.0 0.0028619114 -0.0041314049
1420291480.0 0.0028956401 -0.0040855144
1425291450.0 0.0030300673 -0.0041620541
1430291420.0 0.0027248662 -0.0041245154
1435291390.0 0.0029079651 -0.0040482416
1440291360.0 0.0028756789 -0.0040429152
1445291330.0 0.0027939393 -0.004148982
1450291300.0 0.002951662 -0.004097836
1455291270.0 0.0028196261 -0.0041987853
1460291240.0 0.0028953033 -0.0043440491
1465291210.0 0.002558198 -0.0041645843
1470291180.0 0.0028042201 -0.0042795352
1475291150.0 0.0027283785 -0.0043874934
1480291120.0 0.0026832592 -0.0043578716
1485291090.0 0.0026719741 -0.0041985369
1490291060.0 0.0028347192 -0.0042639153
1495291030.0 0.0028254561 -0.0045079388
1500291000.0 0.0030224333 -0.0043953955
1505290970.0 0.0027614096 -0.0044596063
1510290940.0 0.0027872388 -0.0043589749
1515290910.0 0.0028144746 -0.0043996761
1520290880.0 0.0028587605 -0.004238923
1525290850.0 0.0027654205 -0.0043687687
1530290820.0 0.0027191021 -0.0044693135
1535290790.0 0.0029626446 -0.0045226633
1540290760.0 0.0029103305 -0.0045558183
1545290730.0 0.0026362041 -0.004640367
1550290700.0 0.0029074416 -0.0046599759
1555290670.0 0.0029606698 -0.0043356125
1560290640.0 0.0028438351 -0.0046567709
1565290610.0 0.0025930223 -0.0046306115
1570290580.0 0.0028825931 -0.0045215766
1575290550.0 0.0027702986 -0.0045827993
1580290520.0 0.0029161613 -0.0044820921
1585290490.0 0.0030195655 -0.004637532
1590290460.0 0.0029001825 -0.0046951854
1595290430.0 0.0028520689 -0.0047006583
1600290400.0 0.0028124329 -0.0046994149
1605290370.0 0.0030063457 -0.0047010523
1610290340.0 0.0029526942 -0.0047471388
1615290310.0 0.0028602661 -0.0048796517
1620290280.0 0.0028691998 -0.0046098819
1625290250.0 0.0026090708 -0.0047558027
1630290220.0 0.0027775231 -0.0048951276
1635290190.0 0.002609632 -0.0047892161
1640290160.0 0.0029426783 -0.0048182779
1645290130.0 0.0026850421 -0.0049264981
1650290100.0 0.0026759118 -0.0047277981
1655290070.0 0.0028113555 -0.0050251267
1660290040.0 0.0028244 -0.0049210822
1665290010.0 0.0028372778 -0.0049490247
1670289980.0 0.002870018 -0.0049799461
1675289950.0 0.0029088656 -0.0051869628
1680289920.0 0.0028210598 -0.0048969734
1685289890.0 0.0027188537 -0.0051073692
1690289860.0 0.0027018884 -0.0049931109
1695289830.0 0.0027937575 -0.0050534636
1700289800.0 0.0028009786 -0.0051090041
1705289770.0 0.0028586436 -0.0050371794
1710289740.0 0.0027263062 -0.0050512751
1715289710.0 0.0029898546 -0.0050304103
1720289680.0 0.0028087185 -0.005253583
1725289650.0 0.0028133514 -0.005041443
1730289620.0 0.0027845127 -0.0051280856
1735289590.0 0.0026951536 -0.0049001693
1740289560.0 0.0028475233 -0.0051339768
1745289530.0 0.0026939745 -0.0051114202
1750289500.0 0.0028001435 -0.0050966718
1755289470.0 0.0027901731 -0.0049716333
1760289440.0 0.0027845823 -0.0050907237
1765289410.0 0.0028592327 -0.0049993099
1770289380.0 0.0026922057 -0.0050339509
1775289350.0 0.0025863431 -0.0050745756
1780289320.0 0.0026136922 -0.0050648493
1785289290.0 0.0026442741 -0.0051089706
1790289260.0 0.0028964699 -0.0050646403
1795289230.0 0.0027889719 -0.0050321223
1800289200.0 0.0026988269 -0.0049081535
1805289170.0 0.0028566414 -0.0054147069
1810289140.0 0.0028087935 -0.0051430726
1815289110.0 0.0025981254 -0.0052732794
1820289080.0 0.0027408594 -0.0051894626
1825289050.0 0.0027192922 -0.0051777088
1830289020.0 0.002779927 -0.0051658802
1835288990.0 0.002773893 -0.0050905163
1840288960.0 0.0026813612 -0.0052474627
1845288930.0 0.0027204116 -0.0051387513
1850288900.0 0.0025288277 -0.0051274793
1855288870.0 0.0025866974 -0.0052643044
1860288840.0 0.0028429622 -0.0051497491
1865288810.0 0.0025622958 -0.0053472077
1870288780.0 0.0025014857 -0.0050505841
1875288750.0 0.0027742896 -0.005320735
1880288720.0 0.0027171035 -0.0053429416
1885288690.0 0.0025691718 -0.0052308571
1890288660.0 0.0028380913 -0.0053417662
1895288630.0 0.0027313958 -0.0054161235
1900288600.0 0.0028171627 -0.0052598154
1905288570.0 0.002619513 -0.0051187478
1910288540.0 0.0026636691 -0.0053813682
1915288510.0 0.0028409874 -0.0054067717
1920288480.0 0.0029249918 -0.0053565358
1925288450.0 0.0026626867 -0.0049415581
1930288420.0 0.0026084731 -0.0049894175
1935288390.0 0.0027756497 -0.0051773084
1940288360.0 0.0027935609 -0.0051514892
1945288330.0 0.0028921387 -0.0052921917
1950288300.0 0.0028152447 -0.0052438848
1955288270.0 0.0026387389 -0.0052820179
1960288240.0 0.0025145664 -0.0051260664
1965288210.0 0.0027735054 -0.0051424637
1970288180.0 0.0026103863 -0.0051401532
1975288150.0 0.0027775171 -0.0053848779
1980288120.0 0.0026859511 -0.0054300493
1985288090.0 0.0027992367 -0.0050665687
1990288060.0 0.0027601716 -0.0051495562
1995288030.0 0.0028827801 -0.0053446921
2000288000.0 0.0028706648 -0.0054064776
2005287970.0 0.0026736 -0.0051565637
2010287940.0 0.0026823307 -0.0051303488
2015287910.0 0.0027567033 -0.0052417692
2020287880.0 0.0025860736 -0.0049752507
2025287850.0 0.002693762 -0.0051831678
2030287820.0 0.0027814201 -0.0052978484
2035287790.0 0.0025372387 -0.0049518805
2040287760.0 0.0025576627 -0.0051453397
2045287730.0 0.0024487206 -0.0050461477
2050287700.0 0.0025668132 -0.0050482969
2055287670.0 0.0026399022 -0.0053336528
2060287640.0 0.0024779171 -0.0051425109
2065287610.0 0.0025730671 -0.0051945075
2070287580.0 0.0027849772 -0.0055266717
2075287550.0 0.0025326289 -0.0052154961
2080287520.0 0.0025859297 -0.0052471955
2085287490.0 0.0026271551 -0.0051998228
2090287460.0 0.0025924206 -0.0049377718
2095287430.0 0.0027403602 -0.0051567086
2100287400.0 0.0024820823 -0.0052005456
2105287370.0 0.0025664167 -0.0050686993
2110287340.0 0.002456553 -0.0052846093
2115287310.0 0.0022793046 -0.0052196826
2120287280.0 0.0025791643 -0.004946216
2125287250.0 0.0025830554 -0.005105835
2130287220.0 0.0025977831 -0.0049497127
2135287190.0 0.0024554055 -0.0051381004
2140287160.0 0.0025261437 -0.0050715223
2145287130.0 0.0025021384 -0.0048543794
2150287100.0 0.0026294581 -0.005282318
2155287070.0 0.0026603096 -0.0048803742
2160287040.0 0.0026291422 -0.0051066352
2165287010.0 0.0027257569 -0.0050408877
2170286980.0 0.0024249363 -0.0048823117
2175286950.0 0.0023647685 -0.0051728781
2180286920.0 0.0025143483 -0.0052363775
2185286890.0 0.002496616 -0.0048693415
2190286860.0 0.0024969762 -0.0048892938
2195286830.0 0.002676601 -0.0048519411
2200286800.0 0.0023714818 -0.0050248883
2205286770.0 0.0023674817 -0.0049668061
2210286740.0 0.0026126431 -0.0051704392
2215286710.0 0.0025890353 -0.0049708578
2220286680.0 0.0025389779 -0.0050789489
2225286650.0 0.0023687885 -0.0049768972
2230286620.0 0.0023524736 -0.0050030574
2235286590.0 0.0024348004 -0.0050664415
2240286560.0 0.0020994384 -0.0049555829
2245286530.0 0.0024034391 -0.0050380532
2250286500.0 0.0024356411 -0.0048116028
2255286470.0 0.0025272338 -0.0048939663
2260286440.0 0.0022657645 -0.0051085793
2265286410.0 0.0023607045 -0.0050337151
2270286380.0 0.0026145155 -0.0051217029
2275286350.0 0.0022302041 -0.0051323715
2280286320.0 0.0025407037 -0.0049214038
2285286290.0 0.0023086221 -0.0050197332
2290286260.0 0.0024130214 -0.004904421
2295286230.0 0.0022184979 -0.0047083819
2300286200.0 0.0022478812 -0.0049268087
2305286170.0 0.0023998117 -0.0050637813
2310286140.0 0.002201117 -0.0047772289
2315286110.0 0.0022306018 -0.0046559311
2320286080.0 0.0021817782 -0.0048965231
2325286050.0 0.0022231435 -0.0046243641
2330286020.0 0.0022203955 -0.0048302492
2335285990.0 0.0022728345 -0.0047842366
2340285960.0 0.002090294 -0.0047126766
2345285930.0 0.0022697007 -0.0043727577
2350285900.0 0.0023476153 -0.0047013899
2355285870.0 0.0022863422 -0.0046848366
2360285840.0 0.0022206469 -0.0048114781
2365285810.0 0.0021550387 -0.0047132613
2370285780.0 0.0021815269 -0.0046598716
2375285750.0 0.0023229691 -0.0048141764
2380285720.0 0.002075917 -0.0045716192
2385285690.0 0.0020985489 -0.0045958765
2390285660.0 0.0019797809 -0.0045435828
2395285630.0 0.0020251743 -0.0046635469
2400285600.0 0.0021105083 -0.0047561945
2405285570.0 0.0019747152 -0.0045955964
2410285540.0 0.0019666579 -0.0046855872
2415285510.0 0.0018594132 -0.004610978
2420285480.0 0.0022051567 -0.0045746131
2425285450.0 0.0020395955 -0.0045659266
2430285420.0 0.0019425471 -0.0044836149
2435285390.0 0.001982723 -0.004752569
2440285360.0 0.0020288281 -0.0044341584
2445285330.0 0.0019658345 -0.0045504386
2450285300.0 0.0019131262 -0.0045757648
2455285270.0 0.002112832 -0.004627214
2460285240.0 0.0017903012 -0.0046092429
2465285210.0 0.0020230273 -0.0043704222
2470285180.0 0.0018920767 -0.0047318227
2475285150.0 0.0020318838 -0.0046807718
2480285120.0 0.0019259984 -0.0043376958
2485285090.0 0.0018245096 -0.0044914087
2490285060.0 0.0018871967 -0.0044124465
2495285030.0 0.0019167379 -0.0047269579
2500285000.0 0.0019562671 -0.0044239862
2505284970.0 0.0020172085 -0.0043944932
2510284940.0 0.0019495276 -0.0044896065
2515284910.0 0.0018929835 -0.0045971354
2520284880.0 0.0020429102 -0.0044651236
2525284850.0 0.00191883 -0.004504727
2530284820.0 0.0017645222 -0.004426953
2535284790.0 0.0018273127 -0.0044400984
2540284760.0 0.001815737 -0.0042877567
