!Created with skrf (http://scikit-rf.org).
# Hz S RI R 50.0 
!freq ReS11 ImS11
300000.0 1.002037894 0.0014479692
5299970.0 1.004948438 -0.0083035091
10299940.0 1.004953402 -0.0148955972
15299910.0 1.004984655 -0.0214283288
20299880.0 1.004108811 -0.0282849028
25299850.0 1.004015586 -0.0339988794
30299820.0 1.004065337 -0.041161904
35299790.0 1.003557131 -0.047513185
40299760.0 1.002833676 -0.0537545875
45299730.0 1.003357193 -0.0609864259
50299700.0 1.002525682 -0.0668223394
55299670.0 1.002437712 -0.0738019712
60299640.0 1.00158214 -0.0799859482
65299610.0 1.00129392 -0.0863258363
70299580.0 1.000261281 -0.0934582077
75299550.0 0.9997955945 -0.0998007409
80299520.0 0.9993125778 -0.1059405559
85299490.0 0.9981837881 -0.1130834908
90299460.0 0.9973143553 -0.1191747283
95299430.0 0.9969060176 -0.1256377065
100299400.0 0.9960180381 -0.1320202446
105299370.0 0.9953851305 -0.138419971
110299340.0 0.9944028219 -0.1452301144
115299310.0 0.9932026876 -0.1517729086
120299280.0 0.9921619186 -0.157974217
125299250.0 0.9910424416 -0.1646358671
130299220.0 0.9904249938 -0.170924609
135299190.0 0.9887926235 -0.1778602095
140299160.0 0.9872029326 -0.1837715989
145299130.0 0.9860300791 -0.190031759
150299100.0 0.9851222531 -0.1961565315
155299070.0 0.9839602793 -0.2028679678
160299040.0 0.9824669973 -0.2091709032
165299010.0 0.980983354 -0.215384414
170298980.0 0.9795420388 -0.2217678896
175298950.0 0.9769936665 -0.2284406076
180298920.0 0.9745817377 -0.2345881016
185298890.0 0.9739668098 -0.2413316602
190298860.0 0.97370873 -0.2469828765
195298830.0 0.9718842265 -0.253796943
200298800.0 0.9695329895 -0.2594838028
205298770.0 0.9682787482 -0.2660007136
210298740.0 0.9665797393 -0.272586161
215298710.0 0.9651494831 -0.2785497378
220298680.0 0.9628598259 -0.285480715
225298650.0 0.9612079998 -0.2915429446
230298620.0 0.9592016031 -0.2970670475
235298590.0 0.9570640249 -0.3037023635
240298560.0 0.9548582121 -0.3095978382
245298530.0 0.9527370199 -0.3159348403
250298500.0 0.9501664245 -0.3221776383
255298470.0 0.9489504085 -0.3280821276
260298440.0 0.9460607697 -0.3339780701
265298410.0 0.9442195527 -0.3406047093
270298380.0 0.9421634209 -0.3464406552
275298350.0 0.9400734472 -0.3522239156
280298320.0 0.9374759218 -0.3584692786
285298290.0 0.9351643334 -0.3649137894
290298260.0 0.9328239881 -0.3705372992
295298230.0 0.9307752689 -0.3765756286
300298200.0 0.9277345531 -0.3822983661
305298170.0 0.9251317193 -0.3882272684
310298140.0 0.9224649931 -0.3948495318
315298110.0 0.9201305465 -0.4010776049
320298080.0 0.9172346317 -0.4059123359
325298050.0 0.9145306024 -0.4127451813
330298020.0 0.9118636484 -0.4184435971
335297990.0 0.9089647029 -0.4241831323
340297960.0 0.9066816907 -0.4303030353
345297930.0 0.9038611882 -0.4360161462
350297900.0 0.9012345167 -0.4427511274
355297870.0 0.8991545354 -0.4484574161
360297840.0 0.8961172517 -0.4547133166
365297810.0 0.8926121964 -0.4600909551
370297780.0 0.8896077902 -0.4657465016
375297750.0 0.8855694948 -0.4705537193
380297720.0 0.8827924374 -0.4763796142
385297690.0 0.8794783432 -0.4821667608
390297660.0 0.8763637181 -0.4876633566
395297630.0 0.8732827245 -0.4936231774
400297600.0 0.8700615079 -0.4988617867
405297570.0 0.8667911371 -0.5050618794
410297540.0 0.8639562074 -0.5101662796
415297510.0 0.8598745767 -0.5157935837
420297480.0 0.8567881252 -0.5211643525
425297450.0 0.8526392021 -0.5266617919
430297420.0 0.8498332583 -0.5322589004
435297390.0 0.8464432053 -0.5380622651
440297360.0 0.8431145256 -0.5434808263
445297330.0 0.8392026154 -0.5484835206
450297300.0 0.8358501968 -0.5542792501
455297270.0 0.8324513153 -0.5596474427
460297240.0 0.8288364723 -0.5650642496
465297210.0 0.8245832965 -0.5703046186
470297180.0 0.8212694987 -0.5758187997
475297150.0 0.8175476397 -0.5811062245
480297120.0 0.8135767275 -0.5863968227
485297090.0 0.8101708263 -0.5917061546
490297060.0 0.8058168594 -0.5968635562
495297030.0 0.8022453212 -0.6016809379
500297000.0 0.7977694389 -0.6074279676
505296970.0 0.793827862 -0.6124213255
510296940.0 0.7899197241 -0.6171930041
515296910.0 0.7860632781 -0.6224168349
520296880.0 0.7812470127 -0.6275982875
525296850.0 0.7776003177 -0.6322879657
530296820.0 0.7733150384 -0.6377283901
535296790.0 0.7691401778 -0.6423878683
540296760.0 0.7652279476 -0.647096419
545296730.0 0.760990282 -0.6524636017
550296700.0 0.7568911421 -0.6573201052
555296670.0 0.7527419545 -0.6620254977
560296640.0 0.74840857 -0.667040119
565296610.0 0.7439606053 -0.6717104289
570296580.0 0.7398061497 -0.6766158848
575296550.0 0.7352487916 -0.6816850071
580296520.0 0.7308128769 -0.6862952861
585296490.0 0.7263142277 -0.6907109235
590296460.0 0.7218184586 -0.6954449168
595296430.0 0.7176564577 -0.7002883218
600296400.0 0.7129494377 -0.7045337232
605296370.0 0.7082950052 -0.708819101
610296340.0 0.7040108448 -0.713239487
615296310.0 0.6995273172 -0.7184882457
620296280.0 0.6946695544 -0.7231889002
625296250.0 0.6897801523 -0.7274555294
630296220.0 0.6849413248 -0.7318431634
635296190.0 0.6804338896 -0.7358090334
640296160.0 0.6750856699 -0.740760433
645296130.0 0.6708004767 -0.7450758321
650296100.0 0.6656226254 -0.7494797652
655296070.0 0.6611805458 -0.7538798432
660296040.0 0.6557638181 -0.7574967763
665296010.0 0.6509828668 -0.7618710865
670295980.0 0.6458818661 -0.7660665751
675295950.0 0.6410473281 -0.7699895123
680295920.0 0.6360919396 -0.7747828279
685295890.0 0.6311236653 -0.7784143297
690295860.0 0.6257478419 -0.7825698055
695295830.0 0.6212695906 -0.7866719211
700295800.0 0.6162994618 -0.7909316722
705295770.0 0.6108738603 -0.7948574158
710295740.0 0.605497253 -0.7985818525
715295710.0 0.6001154576 -0.8021205578
720295680.0 0.595146671 -0.8068567833
725295650.0 0.5893998644 -0.8105506537
730295620.0 0.5844561213 -0.8140102003
735295590.0 0.5789180041 -0.8180539356
740295560.0 0.5738169025 -0.821910064
745295530.0 0.5684470199 -0.8252634898
750295500.0 0.5632844693 -0.8289851533
755295470.0 0.558165907 -0.8331031137
760295440.0 0.5520905408 -0.8362707656
765295410.0 0.5472320995 -0.8402368446
770295380.0 0.54178657 -0.8428640862
775295350.0 0.5359122385 -0.8470652106
780295320.0 0.530457098 -0.8502928305
785295290.0 0.5250595811 -0.8534697015
790295260.0 0.5194883185 -0.8571881827
795295230.0 0.5137468313 -0.8607269266
800295200.0 0.5081953385 -0.8639349496
805295170.0 0.5030999995 -0.8672668413
810295140.0 0.4968652102 -0.8703351299
815295110.0 0.4913531288 -0.874121469
820295080.0 0.4859518413 -0.8770371758
825295050.0 0.4802424241 -0.8801302317
830295020.0 0.4742848898 -0.8836046008
835294990.0 0.4686354949 -0.8860520447
840294960.0 0.4630387156 -0.8895999276
845294930.0 0.4571229919 -0.8919784537
850294900.0 0.4513461209 -0.8950427968
855294870.0 0.4455810283 -0.8978047654
860294840.0 0.4395350172 -0.900603567
865294810.0 0.434059793 -0.9031941934
870294780.0 0.4287813267 -0.9066449609
875294750.0 0.4223217156 -0.9093244281
880294720.0 0.4160540219 -0.9113430072
885294690.0 0.410908573 -0.9149247262
890294660.0 0.4047544642 -0.9172274278
895294630.0 0.3986130888 -0.9194796948
900294600.0 0.3926817298 -0.9221172865
905294570.0 0.386272198 -0.9246687747
910294540.0 0.3812429756 -0.9271064376
915294510.0 0.3744729442 -0.9296458644
920294480.0 0.3684261003 -0.9320769439
925294450.0 0.3619515659 -0.9343238447
930294420.0 0.3568008271 -0.9374008937
935294390.0 0.3506070664 -0.9392441117
940294360.0 0.3439910449 -0.9416927981
945294330.0 0.3384397701 -0.9436611853
950294300.0 0.3318079765 -0.9456298623
955294270.0 0.3256659639 -0.9481751486
960294240.0 0.3191674024 -0.9499896506
965294210.0 0.3131007153 -0.9530248907
970294180.0 0.3068201211 -0.9547131948
975294150.0 0.3011190092 -0.9565717565
980294120.0 0.2946435462 -0.9578814288
985294090.0 0.2885940951 -0.960008647
990294060.0 0.2822308162 -0.9620256577
995294030.0 0.2763058162 -0.964257821
1000294000.0 0.2699382075 -0.9658807641
1005293970.0 0.2632554713 -0.9673648693
1010293940.0 0.2571443067 -0.9689735597
1015293910.0 0.2510160794 -0.9708364831
1020293880.0 0.2449119899 -0.9722994966
1025293850.0 0.2383919352 -0.9735860432
1030293820.0 0.2322203569 -0.9751431428
1035293790.0 0.2263634867 -0.9763130375
1040293760.0 0.219007418 -0.978274242
1045293730.0 0.2128399999 -0.9793252286
1050293700.0 0.2067626865 -0.9808086262
1055293670.0 0.2003639605 -0.9821390484
1060293640.0 0.1939298391 -0.9838495191
1065293610.0 0.187922893 -0.9846357209
1070293580.0 0.181622418 -0.9860321144
1075293550.0 0.1747664773 -0.9868290433
1080293520.0 0.1684034575 -0.9880791056
1085293490.0 0.1619664233 -0.9890000254
1090293460.0 0.155462737 -0.9901347869
1095293430.0 0.1492880319 -0.9910785782
1100293400.0 0.1420511341 -0.9920483612
1105293370.0 0.1358888402 -0.9929433596
1110293340.0 0.1290532511 -0.9941382813
1115293310.0 0.1231123968 -0.99482431
1120293280.0 0.116126959 -0.9957680381
1125293250.0 0.1102867719 -0.9965561438
1130293220.0 0.1039527127 -0.9964492697
1135293190.0 0.0975494746 -0.9976578793
1140293160.0 0.0908666583 -0.9980125691
1145293130.0 0.0840901908 -0.9986245953
1150293100.0 0.0773056407 -0.9993546745
1155293070.0 0.069916226 -0.999723741
1160293040.0 0.0635365069 -0.9997422195
1165293010.0 0.057795498 -1.000967316
1170292980.0 0.0512634714 -1.001261732
1175292950.0 0.0448157902 -1.001477432
1180292920.0 0.0387524563 -1.00195713
1185292890.0 0.0325430248 -1.002178983
1190292860.0 0.0257086513 -1.002092654
1195292830.0 0.0202490772 -1.001975824
1200292800.0 0.0135074873 -1.002081834
1205292770.0 0.0073227829 -1.002232833
1210292740.0 0.0004698747 -1.002217442
1215292710.0 -0.0062434246 -1.002204708
1220292680.0 -0.0120705495 -1.002158001
1225292650.0 -0.0190051577 -1.001924123
1230292620.0 -0.0257869504 -1.001944458
1235292590.0 -0.0320929645 -1.001845762
1240292560.0 -0.0388122782 -1.001180912
1245292530.0 -0.0453558314 -1.000865444
1250292500.0 -0.0521031928 -1.000172564
1255292470.0 -0.0578506237 -1.000154102
1260292440.0 -0.0646279926 -0.9996889264
1265292410.0 -0.070750586 -0.9998052541
1270292380.0 -0.0768032336 -0.99850663
1275292350.0 -0.0840369648 -0.9984039578
1280292320.0 -0.0903403583 -0.9970365227
1285292290.0 -0.0973079912 -0.9971781924
1290292260.0 -0.1036124016 -0.9961448803
1295292230.0 -0.1097136092 -0.9956024556
1300292200.0 -0.1164877577 -0.9942573894
1305292170.0 -0.1223900427 -0.9942223188
1310292140.0 -0.1288853657 -0.9936499218
1315292110.0 -0.1356495735 -0.9921360833
1320292080.0 -0.1417361175 -0.9912069716
1325292050.0 -0.1486315505 -0.9902889626
1330292020.0 -0.1550688821 -0.989219153
1335291990.0 -0.1614949328 -0.9875176166
1340291960.0 -0.1673954918 -0.987176928
1345291930.0 -0.1747439934 -0.9857800897
1350291900.0 -0.1809814581 -0.9844988088
1355291870.0 -0.1876700589 -0.983710963
1360291840.0 -0.1932059392 -0.9821458295
1365291810.0 -0.1995454351 -0.981216322
1370291780.0 -0.2059153616 -0.9796863277
1375291750.0 -0.2118984149 -0.9786425397
1380291720.0 -0.2184043375 -0.9770672278
1385291690.0 -0.2248504967 -0.9754538538
1390291660.0 -0.231583804 -0.9735807187
1395291630.0 -0.23763678 -0.9723241183
1400291600.0 -0.2447256853 -0.9707588538
1405291570.0 -0.2500575394 -0.9689286239
1410291540.0 -0.2564975344 -0.9675147576
1415291510.0 -0.2622502974 -0.9661128098
1420291480.0 -0.2689996434 -0.9647290831
1425291450.0 -0.2750823315 -0.9622161569
1430291420.0 -0.2808751916 -0.9606604118
1435291390.0 -0.2870363748 -0.9590693617
1440291360.0 -0.2932417482 -0.9568493037
1445291330.0 -0.2989001512 -0.9547664473
1450291300.0 -0.3052384134 -0.9530098531
1455291270.0 -0.311312633 -0.9507623029
1460291240.0 -0.317719419 -0.9487300803
1465291210.0 -0.323744541 -0.9469997394
1470291180.0 -0.3296073581 -0.9447222423
1475291150.0 -0.3363043828 -0.9415181261
1480291120.0 -0.3421842771 -0.9399988438
1485291090.0 -0.3480265933 -0.9376870271
1490291060.0 -0.3538607419 -0.9351507109
1495291030.0 -0.3606805574 -0.9333138113
1500291000.0 -0.3663989196 -0.9309290657
1505290970.0 -0.372406366 -0.9282603006
1510290940.0 -0.3781274343 -0.9261214383
1515290910.0 -0.3839405715 -0.9235516966
1520290880.0 -0.3902587941 -0.9210702996
1525290850.0 -0.3950250795 -0.9182431866
1530290820.0 -0.4023885505 -0.9158873265
1535290790.0 -0.4075560206 -0.9131775027
1540290760.0 -0.4143342521 -0.9097050701
1545290730.0 -0.4197430978 -0.908011048
1550290700.0 -0.4254145174 -0.9043187796
1555290670.0 -0.4312257982 -0.9023401597
1560290640.0 -0.4363346519 -0.8996032309
1565290610.0 -0.4429874491 -0.896563955
1570290580.0 -0.4484053092 -0.8935291016
1575290550.0 -0.4542057549 -0.8904497442
1580290520.0 -0.4603422778 -0.8876221095
1585290490.0 -0.4662634046 -0.8839608901
1590290460.0 -0.4716593018 -0.8822343756
1595290430.0 -0.477407334 -0.8779500339
1600290400.0 -0.482628351 -0.875376655
1605290370.0 -0.4883413 -0.8721422389
1610290340.0 -0.4942108039 -0.8684075811
1615290310.0 -0.499750984 -0.8655363775
1620290280.0 -0.505312466 -0.8618525632
1625290250.0 -0.5109916152 -0.8591623823
1630290220.0 -0.5162094294 -0.8556647499
1635290190.0 -0.5215329274 -0.8517994789
1640290160.0 -0.5268747331 -0.8490570184
1645290130.0 -0.5317969404 -0.8457383233
1650290100.0 -0.5376057846 -0.8419830813
1655290070.0 -0.5433859858 -0.8381065459
1660290040.0 -0.5486277329 -0.8348272908
1665290010.0 -0.5538562298 -0.83153729
1670289980.0 -0.5589053635 -0.82791577
1675289950.0 -0.5640684993 -0.8238164059
1680289920.0 -0.5701462437 -0.8205887777
1685289890.0 -0.5750368521 -0.8164086014
1690289860.0 -0.5802634817 -0.8128771344
1695289830.0 -0.585729522 -0.8082928516
1700289800.0 -0.5913309688 -0.8050106876
1705289770.0 -0.5962225885 -0.8008196609
1710289740.0 -0.6013646849 -0.7970954832
1715289710.0 -0.6064133158 -0.7929299394
1720289680.0 -0.6109792592 -0.7890166114
1725289650.0 -0.6168963738 -0.7853233906
1730289620.0 -0.621605596 -0.7813585399
1735289590.0 -0.6266065496 -0.7768946454
1740289560.0 -0.6315118471 -0.7728969759
1745289530.0 -0.6365942805 -0.7688431937
1750289500.0 -0.6418062403 -0.7649761233
1755289470.0 -0.6461129651 -0.7604299476
1760289440.0 -0.6507289977 -0.7563099635
1765289410.0 -0.6555545579 -0.7518786095
1770289380.0 -0.6605922878 -0.7481862742
1775289350.0 -0.6652003704 -0.7439342468
1780289320.0 -0.6700457293 -0.739026507
1785289290.0 -0.6751430802 -0.7348270292
1790289260.0 -0.6796778115 -0.7303181182
1795289230.0 -0.684479917 -0.7256192879
1800289200.0 -0.6893988101 -0.7208294998
1805289170.0 -0.6932707124 -0.7164140833
1810289140.0 -0.6982186778 -0.7122577695
1815289110.0 -0.7022489349 -0.707496423
1820289080.0 -0.7070171813 -0.7035059937
1825289050.0 -0.7108790145 -0.6989931217
1830289020.0 -0.7154066661 -0.6947477288
1835288990.0 -0.7200128116 -0.6898601746
1840288960.0 -0.7240836434 -0.6853368974
1845288930.0 -0.7285116113 -0.6806768995
1850288900.0 -0.7327517223 -0.6754852562
1855288870.0 -0.7371181998 -0.6706708923
1860288840.0 -0.7419080814 -0.6654910883
1865288810.0 -0.7457041721 -0.6609416779
1870288780.0 -0.7508167307 -0.6558465641
1875288750.0 -0.7546119829 -0.6506630868
1880288720.0 -0.7593327696 -0.646211118
1885288690.0 -0.7629354367 -0.640649241
1890288660.0 -0.7670748414 -0.6358060602
1895288630.0 -0.7711642989 -0.6306447727
1900288600.0 -0.775172444 -0.6258878859
1905288570.0 -0.7792459922 -0.6209372936
1910288540.0 -0.782948286 -0.6153506711
1915288510.0 -0.7871959295 -0.610899888
1920288480.0 -0.7908556962 -0.6052409455
1925288450.0 -0.7950932054 -0.5999708165
1930288420.0 -0.79869015 -0.5945593031
1935288390.0 -0.8028619429 -0.5892116513
1940288360.0 -0.8064805188 -0.5846071705
1945288330.0 -0.8100259967 -0.5788787609
1950288300.0 -0.8142496244 -0.5737104551
1955288270.0 -0.8176914358 -0.5684383594
1960288240.0 -0.8212853812 -0.5625124803
1965288210.0 -0.8251509222 -0.5566797028
1970288180.0 -0.8282268876 -0.5518606701
1975288150.0 -0.8316819338 -0.5460847057
1980288120.0 -0.835648993 -0.5410519205
1985288090.0 -0.8384435674 -0.5363014073
1990288060.0 -0.8419540512 -0.5307300777
1995288030.0 -0.8447389325 -0.5255230713
2000288000.0 -0.8480316858 -0.5198771687
2005287970.0 -0.8515182146 -0.5145455814
2010287940.0 -0.854488311 -0.5086917832
2015287910.0 -0.8576938544 -0.5031084273
2020287880.0 -0.8610481096 -0.4972382357
2025287850.0 -0.8644387707 -0.4919673274
2030287820.0 -0.8671196464 -0.4860683991
2035287790.0 -0.8707833341 -0.4806823505
2040287760.0 -0.8737676905 -0.4748759814
2045287730.0 -0.8769297449 -0.4690606469
2050287700.0 -0.8800459184 -0.4632401045
2055287670.0 -0.8826457032 -0.4580964002
2060287640.0 -0.8852849677 -0.4519331016
2065287610.0 -0.8886028325 -0.4462670007
2070287580.0 -0.8920034052 -0.4403024102
2075287550.0 -0.8939019923 -0.4345648391
2080287520.0 -0.8968757292 -0.4291217343
2085287490.0 -0.8996918218 -0.4234852368
2090287460.0 -0.9029878753 -0.4175050772
2095287430.0 -0.9049834086 -0.4112416839
2100287400.0 -0.9075383655 -0.4051875824
2105287370.0 -0.910008037 -0.3990408772
2110287340.0 -0.9124915846 -0.3940682094
2115287310.0 -0.9150398701 -0.3872909785
2120287280.0 -0.9176837243 -0.3815481165
2125287250.0 -0.9202317185 -0.3757558441
2130287220.0 -0.9224262456 -0.369306926
2135287190.0 -0.9249355882 -0.3631755945
2140287160.0 -0.9271236214 -0.3565154284
2145287130.0 -0.9294142611 -0.3512464547
2150287100.0 -0.9314356913 -0.3447923473
2155287070.0 -0.9333004809 -0.3385208447
2160287040.0 -0.9358224307 -0.3328250556
2165287010.0 -0.9378248812 -0.3271718162
2170286980.0 -0.9395703966 -0.3207758216
2175286950.0 -0.9418510947 -0.3153567288
2180286920.0 -0.9433039159 -0.3087095457
2185286890.0 -0.9453872511 -0.3029517572
2190286860.0 -0.9473302988 -0.2975274966
2195286830.0 -0.9486872109 -0.2913615409
2200286800.0 -0.9510744993 -0.2850732978
2205286770.0 -0.9523533328 -0.2793783215
2210286740.0 -0.9542341815 -0.2725567354
2215286710.0 -0.9557084164 -0.2671000538
2220286680.0 -0.9576432073 -0.2603647023
2225286650.0 -0.9592343962 -0.253769888
2230286620.0 -0.9609804676 -0.2472906258
2235286590.0 -0.9625239315 -0.241429746
2240286560.0 -0.9646402323 -0.2353188733
2245286530.0 -0.9655379692 -0.2284256522
2250286500.0 -0.9672350976 -0.2220934582
2255286470.0 -0.9686350995 -0.2159188982
2260286440.0 -0.9701643095 -0.2092410914
2265286410.0 -0.9713888151 -0.202688076
2270286380.0 -0.9724603772 -0.1966251482
2275286350.0 -0.9740245967 -0.1903459164
2280286320.0 -0.9747696422 -0.1836226345
2285286290.0 -0.9762422246 -0.1773931747
2290286260.0 -0.9772942531 -0.1711552302
2295286230.0 -0.9779810629 -0.1642569716
2300286200.0 -0.9793337186 -0.1584716074
2305286170.0 -0.9801168095 -0.151630027
2310286140.0 -0.9811552903 -0.1457989047
2315286110.0 -0.981911627 -0.1392603193
2320286080.0 -0.9832178982 -0.1326869547
2325286050.0 -0.9835628288 -0.12681603
2330286020.0 -0.9843884972 -0.1200881635
2335285990.0 -0.9851375769 -0.11345382
2340285960.0 -0.9857942761 -0.1079329295
2345285930.0 -0.9864789939 -0.1005636801
2350285900.0 -0.9869789171 -0.0944472622
2355285870.0 -0.9874699964 -0.086957196
2360285840.0 -0.9883349356 -0.0820039692
2365285810.0 -0.9878948364 -0.0749004151
2370285780.0 -0.9890660092 -0.0684262222
2375285750.0 -0.9900156121 -0.0625794697
2380285720.0 -0.9900663153 -0.0565860328
2385285690.0 -0.989793092 -0.0499643469
2390285660.0 -0.9899557604 -0.0439217056
2395285630.0 -0.9905974453 -0.0376392952
2400285600.0 -0.9905772144 -0.0308523263
2405285570.0 -0.9903533877 -0.02445093
2410285540.0 -0.9907687729 -0.0183276696
2415285510.0 -0.9908057806 -0.012187207
2420285480.0 -0.9907911079 -0.0061082851
2425285450.0 -0.9909175072 0.0006119837
2430285420.0 -0.9909002303 0.007066118
2435285390.0 -0.9906308208 0.0138137619
2440285360.0 -0.9905130833 0.0198019462
2445285330.0 -0.9900986318 0.0265011865
2450285300.0 -0.9898195806 0.0328698791
2455285270.0 -0.9897430226 0.0398023308
2460285240.0 -0.9894114136 0.046300593
2465285210.0 -0.9891513688 0.0526733138
2470285180.0 -0.9887095671 0.0594978542
2475285150.0 -0.9882839948 0.0653633024
2480285120.0 -0.9878309459 0.0718961245
2485285090.0 -0.9872175898 0.0784416794
2490285060.0 -0.98589877 0.0856401363
2495285030.0 -0.9862885685 0.090981949
2500285000.0 -0.9853259967 0.0982177371
