!Created with skrf (http://scikit-rf.org).
# Hz S RI R 50.0 
!freq ReS11 ImS11
300000.0 -1.018585486 -0.0820374466
5299970.0 -1.001801763 0.0108843752
10299940.0 -0.999976458 0.0139711702
15299910.0 -0.9996201929 0.0246488877
20299880.0 -0.9993353152 0.028206017
25299850.0 -0.9988714364 0.0365295263
30299820.0 -0.9982965158 0.0440788225
35299790.0 -0.9972322042 0.0489139407
40299760.0 -0.9968602573 0.0554490108
45299730.0 -0.9966049935 0.0618991919
50299700.0 -0.9958867732 0.0697458461
55299670.0 -0.9951448059 0.0757207005
60299640.0 -0.9943450627 0.0821554392
65299610.0 -0.9941317589 0.0887999644
70299580.0 -0.9931267369 0.0958282975
75299550.0 -0.9919977835 0.1019910915
80299520.0 -0.990964818 0.1090606635
85299490.0 -0.9903655748 0.1154956805
90299460.0 -0.9894015889 0.1224485981
95299430.0 -0.9885171466 0.1286481633
100299400.0 -0.9877082425 0.1349366455
105299370.0 -0.9866549722 0.1418924375
110299340.0 -0.985184365 0.1489059105
115299310.0 -0.9839605356 0.1553511696
120299280.0 -0.9832384924 0.1619877699
125299250.0 -0.9820914847 0.1679758951
130299220.0 -0.9806730242 0.1747708922
135299190.0 -0.9795724184 0.181114357
140299160.0 -0.9779786467 0.1879019543
145299130.0 -0.9766506106 0.1941506008
150299100.0 -0.9754933491 0.2009261956
155299070.0 -0.9735596791 0.2071238635
160299040.0 -0.9723379572 0.2135940532
165299010.0 -0.9712042796 0.2201665141
170298980.0 -0.9696414345 0.2269398045
175298950.0 -0.9659633879 0.2318704211
180298920.0 -0.9638431001 0.2378176957
185298890.0 -0.9636598535 0.2450897193
190298860.0 -0.9630905499 0.2522784221
195298830.0 -0.9613378288 0.2587361262
200298800.0 -0.9601222755 0.2654304096
205298770.0 -0.9575775307 0.2715860143
210298740.0 -0.9554298134 0.2776657544
215298710.0 -0.9537836729 0.2842350006
220298680.0 -0.9525527157 0.290831513
225298650.0 -0.9499792931 0.2968606393
230298620.0 -0.9480244441 0.3031154625
235298590.0 -0.9457348027 0.3095603273
240298560.0 -0.9444627819 0.3154293408
245298530.0 -0.9414254181 0.322022708
250298500.0 -0.9389821699 0.3283459091
255298470.0 -0.9369599296 0.3344085574
260298440.0 -0.9353354879 0.3404642223
265298410.0 -0.9325653406 0.3462709788
270298380.0 -0.9304555203 0.3536444553
275298350.0 -0.9279963899 0.3592533941
280298320.0 -0.9250208348 0.3653509522
285298290.0 -0.922837572 0.3711115498
290298260.0 -0.9207815906 0.3773613946
295298230.0 -0.9178352496 0.3837853392
300298200.0 -0.9150819088 0.3897784726
305298170.0 -0.9129757495 0.3955882253
310298140.0 -0.9102631044 0.4019324969
315298110.0 -0.9073466051 0.4076010844
320298080.0 -0.9043803299 0.4134066205
325298050.0 -0.9016879266 0.4200554327
330298020.0 -0.8990086629 0.4255060778
335297990.0 -0.8955848214 0.4313676939
340297960.0 -0.8930812458 0.4379099394
345297930.0 -0.8900689552 0.4437084578
350297900.0 -0.8874623937 0.4495804973
355297870.0 -0.884765336 0.4554846644
360297840.0 -0.881556121 0.461232488
365297810.0 -0.8789083493 0.4673578881
370297780.0 -0.8753125467 0.4729165469
375297750.0 -0.8718541674 0.478449983
380297720.0 -0.8680497486 0.4839796825
385297690.0 -0.864752321 0.4906844118
390297660.0 -0.8618760592 0.4954259289
395297630.0 -0.8579935636 0.5020708869
400297600.0 -0.8547894952 0.50713868
405297570.0 -0.851525451 0.5126285784
410297540.0 -0.8483474305 0.5182884081
415297510.0 -0.8439656521 0.523879869
420297480.0 -0.8410951961 0.5303340187
425297450.0 -0.8368678406 0.5355221073
430297420.0 -0.8337736284 0.5414720416
435297390.0 -0.829950213 0.5462156706
440297360.0 -0.8261499057 0.552601129
445297330.0 -0.822867095 0.5575776077
450297300.0 -0.8191350038 0.5628047354
455297270.0 -0.8151550128 0.5682262619
460297240.0 -0.8115410418 0.5736345296
465297210.0 -0.8071277118 0.5792071862
470297180.0 -0.8039174421 0.5847718705
475297150.0 -0.7996721079 0.5892429421
480297120.0 -0.7952164706 0.5942704486
485297090.0 -0.7915112747 0.5998656099
490297060.0 -0.7873974612 0.6052672282
495297030.0 -0.7836179346 0.6106073183
500297000.0 -0.7798985245 0.6160181732
505296970.0 -0.7763459702 0.62096929
510296940.0 -0.772063725 0.6263812514
515296910.0 -0.7686221424 0.6315915971
520296880.0 -0.7639760933 0.6362867519
525296850.0 -0.759636437 0.6417475377
530296820.0 -0.7551821832 0.6468373013
535296790.0 -0.7509004353 0.6516935557
540296760.0 -0.7464328288 0.656857884
545296730.0 -0.7420536256 0.6623350077
550296700.0 -0.7374027236 0.6666612011
555296670.0 -0.7325310517 0.6713453111
560296640.0 -0.728150144 0.676180238
565296610.0 -0.7232863636 0.680578787
570296580.0 -0.718338404 0.6861497719
575296550.0 -0.7137533449 0.6902437786
580296520.0 -0.7087996672 0.6954261
585296490.0 -0.7046717054 0.6999130932
590296460.0 -0.7002810284 0.7045240405
595296430.0 -0.6955519976 0.708613542
600296400.0 -0.6900821557 0.7138259583
605296370.0 -0.6860342379 0.7183220805
610296340.0 -0.6811179007 0.7221392775
615296310.0 -0.676400115 0.7270510074
620296280.0 -0.6719387641 0.7314131415
625296250.0 -0.666661513 0.7356590531
630296220.0 -0.6622331141 0.7399276072
635296190.0 -0.6572065876 0.7441336136
640296160.0 -0.6517669826 0.7486554843
645296130.0 -0.647195953 0.752302376
650296100.0 -0.6422734508 0.7570073879
655296070.0 -0.6361319318 0.7617778629
660296040.0 -0.6312485086 0.7653786265
665296010.0 -0.6263318652 0.769833783
670295980.0 -0.6212531535 0.7732573148
675295950.0 -0.6160628532 0.7781065424
680295920.0 -0.6110631601 0.7822168053
685295890.0 -0.6061304054 0.7867483546
690295860.0 -0.6010349623 0.7908350149
695295830.0 -0.5957077828 0.7946716203
700295800.0 -0.5903097472 0.7987357681
705295770.0 -0.5850691543 0.801839347
710295740.0 -0.5793873361 0.8062788213
715295710.0 -0.5735232652 0.8102303031
720295680.0 -0.5688853749 0.8142819732
725295650.0 -0.5630207393 0.8171229415
730295620.0 -0.5575239498 0.8206477902
735295590.0 -0.5522823826 0.8248064001
740295560.0 -0.5470368924 0.8284173114
745295530.0 -0.54121217 0.831866541
750295500.0 -0.5353693451 0.8353380436
755295470.0 -0.5301986242 0.8391185116
760295440.0 -0.5251621452 0.8424293676
765295410.0 -0.5188045306 0.8460984039
770295380.0 -0.5130637327 0.8496031966
775295350.0 -0.5071233654 0.8526237621
780295320.0 -0.501955471 0.8561282937
785295290.0 -0.4958411272 0.8592044357
790295260.0 -0.489913079 0.8622585473
795295230.0 -0.4839380775 0.8657780934
800295200.0 -0.4785254299 0.8691148399
805295170.0 -0.4727259919 0.8720639769
810295140.0 -0.4669436212 0.8752716314
815295110.0 -0.4611649425 0.8780953554
820295080.0 -0.4554410019 0.8808851147
825295050.0 -0.4491365475 0.8839664342
830295020.0 -0.443391497 0.886648828
835294990.0 -0.4372779034 0.8892347268
840294960.0 -0.4313450863 0.8935357087
845294930.0 -0.4256633899 0.8956354032
850294900.0 -0.4192276802 0.8985225819
855294870.0 -0.4136165312 0.9011137602
860294840.0 -0.4075125806 0.9044413523
865294810.0 -0.4019298244 0.9065388142
870294780.0 -0.3960011613 0.9090119196
875294750.0 -0.3897101445 0.9117401399
880294720.0 -0.3834347891 0.9143621317
885294690.0 -0.3778242174 0.9174114935
890294660.0 -0.3716948244 0.9195531409
895294630.0 -0.3654941112 0.921867747
900294600.0 -0.3589075785 0.9238801367
905294570.0 -0.3528397928 0.92606143
910294540.0 -0.3468329508 0.9280431729
915294510.0 -0.3407259645 0.9308794673
920294480.0 -0.3348391769 0.9326905578
925294450.0 -0.3279136587 0.9350508415
930294420.0 -0.3220142451 0.936639861
935294390.0 -0.3161480922 0.9389261528
940294360.0 -0.3096270613 0.9411372593
945294330.0 -0.3041676794 0.9431458621
950294300.0 -0.2972381128 0.9452169981
955294270.0 -0.2904350323 0.9468266116
960294240.0 -0.2845798329 0.9488167069
965294210.0 -0.2777315517 0.9510209613
970294180.0 -0.2712431199 0.9528285905
975294150.0 -0.2652716798 0.9542919803
980294120.0 -0.2588890005 0.9558974312
985294090.0 -0.2526471742 0.9581395221
990294060.0 -0.24635908 0.9593710041
995294030.0 -0.2403190186 0.9611331471
1000294000.0 -0.2333934675 0.9626121316
1005293970.0 -0.2272812425 0.9635718759
1010293940.0 -0.2205820722 0.9651709881
1015293910.0 -0.2138924067 0.9669863532
1020293880.0 -0.2081409621 0.9679358244
1025293850.0 -0.2015572206 0.9694497588
1030293820.0 -0.1953437341 0.9706452234
1035293790.0 -0.1888859913 0.972337935
1040293760.0 -0.1819528472 0.9733864273
1045293730.0 -0.1758912846 0.9745676344
1050293700.0 -0.1689947516 0.9759619285
1055293670.0 -0.1625939178 0.9763062559
1060293640.0 -0.1559393984 0.9776077537
1065293610.0 -0.1499094483 0.9783442383
1070293580.0 -0.1435391677 0.9799756021
1075293550.0 -0.1364184205 0.980622531
1080293520.0 -0.1299857339 0.9815533838
1085293490.0 -0.1236952561 0.9823020524
1090293460.0 -0.1164631817 0.982748114
1095293430.0 -0.1098174262 0.9837577814
1100293400.0 -0.1033918948 0.9847068629
1105293370.0 -0.0971118337 0.9850098178
1110293340.0 -0.0901519546 0.9858003779
1115293310.0 -0.0840599732 0.9860309895
1120293280.0 -0.0774264048 0.9862776101
1125293250.0 -0.0711649435 0.9865256399
1130293220.0 -0.0650591051 0.988057726
1135293190.0 -0.0581804052 0.988256735
1140293160.0 -0.0517636078 0.9889510242
1145293130.0 -0.0447868029 0.9885478447
1150293100.0 -0.0384309509 0.9892309535
1155293070.0 -0.0315452339 0.9893346511
1160293040.0 -0.0246892348 0.9895807674
1165293010.0 -0.0186174512 0.9896186887
1170292980.0 -0.0119923923 0.9892049558
1175292950.0 -0.0057783189 0.9899527386
1180292920.0 0.0010255942 0.9892087227
1185292890.0 0.0073987766 0.9892659619
1190292860.0 0.013876079 0.9892769245
1195292830.0 0.0205811951 0.9897547443
1200292800.0 0.0273973308 0.9888375482
1205292770.0 0.033602924 0.9885934675
1210292740.0 0.0400362345 0.9889170126
1215292710.0 0.0470984692 0.9884055778
1220292680.0 0.0537347372 0.9879499026
1225292650.0 0.0602019966 0.9870501927
1230292620.0 0.0671819723 0.9870096914
1235292590.0 0.0734460766 0.9868196633
1240292560.0 0.0798164701 0.9856034841
1245292530.0 0.086654363 0.9858329966
1250292500.0 0.0930091558 0.9847326242
1255292470.0 0.0994769319 0.9843422171
1260292440.0 0.1056743155 0.9844215096
1265292410.0 0.1121438719 0.9831115853
1270292380.0 0.1190397447 0.9827908149
1275292350.0 0.1257128601 0.9812946089
1280292320.0 0.1322332853 0.9803094582
1285292290.0 0.1384655567 0.9795323571
1290292260.0 0.1449732064 0.978761237
1295292230.0 0.1518502698 0.9774994837
1300292200.0 0.157645046 0.9766710383
1305292170.0 0.1641486061 0.9754712044
1310292140.0 0.1711521958 0.9742734283
1315292110.0 0.1775772646 0.9734038453
1320292080.0 0.1837661177 0.9718439806
1325292050.0 0.1904215515 0.9705457384
1330292020.0 0.1974709268 0.9696698995
1335291990.0 0.204052232 0.9682594275
1340291960.0 0.2105684753 0.9661412799
1345291930.0 0.2170251176 0.9652466413
1350291900.0 0.2229455218 0.9639479951
1355291870.0 0.2287128302 0.9623645352
1360291840.0 0.2351230439 0.9604751242
1365291810.0 0.2414423507 0.9589515642
1370291780.0 0.248111038 0.9576015616
1375291750.0 0.2544769051 0.9557073799
1380291720.0 0.2607783765 0.9538848472
1385291690.0 0.2674001296 0.9527420234
1390291660.0 0.2743465848 0.9510687543
1395291630.0 0.2804543076 0.9488352551
1400291600.0 0.2867179033 0.9471906242
1405291570.0 0.2926568447 0.9452401586
1410291540.0 0.2989319114 0.9433324916
1415291510.0 0.3054633282 0.9408658953
1420291480.0 0.3113601951 0.9386939541
1425291450.0 0.317094756 0.937089997
1430291420.0 0.3233485721 0.9347049855
1435291390.0 0.3296932512 0.9330100467
1440291360.0 0.3363886419 0.930436286
1445291330.0 0.3419501535 0.9286832853
1450291300.0 0.3475624794 0.9258540139
1455291270.0 0.3539233268 0.9238882082
1460291240.0 0.3597546857 0.921630615
1465291210.0 0.3670368345 0.9191333777
1470291180.0 0.3727036788 0.9162930132
1475291150.0 0.3788373204 0.9141034266
1480291120.0 0.385270095 0.9116100912
1485291090.0 0.391044903 0.9086947937
1490291060.0 0.3975155813 0.9060653097
1495291030.0 0.4033170091 0.9038119689
1500291000.0 0.409403286 0.9009297269
1505290970.0 0.4147689849 0.8985097895
1510290940.0 0.4208153197 0.895379447
1515290910.0 0.4270047912 0.8929622705
1520290880.0 0.4327470481 0.8897044194
1525290850.0 0.4390906211 0.8873375815
1530290820.0 0.4446328057 0.8845934439
1535290790.0 0.4510133609 0.8807075738
1540290760.0 0.4563898078 0.878453378
1545290730.0 0.4617617515 0.8744680951
1550290700.0 0.4684556062 0.8723329001
1555290670.0 0.4736674344 0.8689717638
1560290640.0 0.4795345129 0.8655530339
1565290610.0 0.4855837378 0.862562643
1570290580.0 0.4911796222 0.8591245161
1575290550.0 0.496858868 0.8558324871
1580290520.0 0.5023273019 0.8518615975
1585290490.0 0.508489789 0.8491918151
1590290460.0 0.5141059327 0.8457574898
1595290430.0 0.5199375807 0.8423731348
1600290400.0 0.5249572122 0.8388462668
1605290370.0 0.5308735526 0.8350662947
1610290340.0 0.5362805477 0.8314438908
1615290310.0 0.5421284845 0.8278743158
1620290280.0 0.5473693283 0.8244606758
1625290250.0 0.5524108357 0.8206940506
1630290220.0 0.558035875 0.8177531643
1635290190.0 0.5636107584 0.8137543742
1640290160.0 0.5687031491 0.8098722686
1645290130.0 0.5736306562 0.8068136713
1650290100.0 0.5789525213 0.802582983
1655290070.0 0.5850671649 0.7975420381
1660290040.0 0.5902083891 0.7942137691
1665290010.0 0.5951161199 0.7907249929
1670289980.0 0.5996297791 0.7866740936
1675289950.0 0.6053257899 0.7825367456
1680289920.0 0.6106450474 0.7789418599
1685289890.0 0.6167348333 0.7744666933
1690289860.0 0.6220285009 0.7701636331
1695289830.0 0.6267011177 0.7658335456
1700289800.0 0.6323386393 0.7615240372
1705289770.0 0.6369962952 0.7573562495
1710289740.0 0.6420950857 0.7528813738
1715289710.0 0.6466033212 0.7489363266
1720289680.0 0.6520163217 0.7443149783
1725289650.0 0.6573203222 0.740040407
1730289620.0 0.6620941902 0.7355860242
1735289590.0 0.6669776723 0.732121892
1740289560.0 0.6712254419 0.7274608966
1745289530.0 0.6768738525 0.7228922504
1750289500.0 0.6810544263 0.7182174347
1755289470.0 0.6856270829 0.7132757597
1760289440.0 0.6903892121 0.7093805873
1765289410.0 0.6947297853 0.7049205691
1770289380.0 0.7001046276 0.7002634496
1775289350.0 0.7044538673 0.6959442387
1780289320.0 0.7093371564 0.6908889125
1785289290.0 0.713825798 0.6863780623
1790289260.0 0.7192510731 0.6813243411
1795289230.0 0.723615324 0.6759745991
1800289200.0 0.7275557997 0.6718229513
1805289170.0 0.7320490827 0.6671111638
1810289140.0 0.7362035575 0.6614752853
1815289110.0 0.7410206216 0.6573353473
1820289080.0 0.7446636269 0.6530319534
1825289050.0 0.7495040517 0.6478747795
1830289020.0 0.7533410593 0.6429153057
1835288990.0 0.7574746946 0.6377202634
1840288960.0 0.7618839265 0.6332478144
1845288930.0 0.7654653113 0.6283419644
1850288900.0 0.7701379335 0.6230750104
1855288870.0 0.7741009676 0.6179330778
1860288840.0 0.7783005405 0.6123238884
1865288810.0 0.7825749662 0.6070666124
1870288780.0 0.7871270807 0.6018749287
1875288750.0 0.7907706605 0.5962436817
1880288720.0 0.7948722743 0.5910698334
1885288690.0 0.7987059393 0.5859623224
1890288660.0 0.8023807523 0.5804121972
1895288630.0 0.8063681613 0.5754235127
1900288600.0 0.8099699679 0.5698512502
1905288570.0 0.8137437397 0.564227163
1910288540.0 0.8180610141 0.5587570451
1915288510.0 0.8214931586 0.5531217128
1920288480.0 0.8252569524 0.5485465725
1925288450.0 0.829334057 0.5423251043
1930288420.0 0.8327654072 0.5368035216
1935288390.0 0.8362265122 0.5310833941
1940288360.0 0.8397011992 0.5250077063
1945288330.0 0.8433918722 0.5199221154
1950288300.0 0.8473268039 0.5135369659
1955288270.0 0.8509856544 0.5082881844
1960288240.0 0.8542024829 0.5019504111
1965288210.0 0.857580038 0.4962130872
1970288180.0 0.8604044785 0.4909954622
1975288150.0 0.8635054909 0.4851168103
1980288120.0 0.8668835591 0.4800806524
1985288090.0 0.870131546 0.4740164475
1990288060.0 0.8731120293 0.4686134858
1995288030.0 0.8762812588 0.4630521236
2000288000.0 0.8787788813 0.4575935195
2005287970.0 0.8820719791 0.451659294
2010287940.0 0.8850418907 0.445939188
2015287910.0 0.8876437712 0.4401906826
2020287880.0 0.8908065881 0.4341758054
2025287850.0 0.893464663 0.4277966341
2030287820.0 0.8968805553 0.4224200314
2035287790.0 0.8994540113 0.4159735731
2040287760.0 0.9023372473 0.4100214454
2045287730.0 0.9046550248 0.404415658
2050287700.0 0.9075935596 0.3977698971
2055287670.0 0.9104137135 0.3922706872
2060287640.0 0.9127477977 0.3864120746
2065287610.0 0.9152279051 0.380224715
2070287580.0 0.9178554813 0.3744406751
2075287550.0 0.919930993 0.3679561593
2080287520.0 0.9222872931 0.3621750262
2085287490.0 0.9249709064 0.3559010795
2090287460.0 0.9278333248 0.3500214581
2095287430.0 0.9293969964 0.3433298673
2100287400.0 0.9319883565 0.3372562082
2105287370.0 0.9343814293 0.3310627448
2110287340.0 0.936856431 0.3246401147
2115287310.0 0.9386726543 0.3178934565
2120287280.0 0.9406490698 0.3125968452
2125287250.0 0.9426473094 0.3059024893
2130287220.0 0.944624355 0.2990822663
2135287190.0 0.9471428892 0.2931786796
2140287160.0 0.9488732477 0.2868680534
2145287130.0 0.9507741094 0.2797941684
2150287100.0 0.9528457738 0.2740164431
2155287070.0 0.9546045788 0.2680539522
2160287040.0 0.956280397 0.2614917358
2165287010.0 0.9580838944 0.2556674219
2170286980.0 0.9595875543 0.2489774231
2175286950.0 0.9619214947 0.2427420936
2180286920.0 0.9626336454 0.2366589073
2185286890.0 0.9641111476 0.2302802864
2190286860.0 0.9664370076 0.2246191397
2195286830.0 0.9673104328 0.2183040992
2200286800.0 0.9692007546 0.2113904416
2205286770.0 0.9696123086 0.2052749186
2210286740.0 0.9718601179 0.1987839735
2215286710.0 0.9724683441 0.1922643372
2220286680.0 0.9738038685 0.1858709654
2225286650.0 0.975208332 0.1792108237
2230286620.0 0.9765668483 0.1726928181
2235286590.0 0.9773848541 0.166462126
2240286560.0 0.9792788788 0.1595915385
2245286530.0 0.9801492218 0.1530029902
2250286500.0 0.9804689495 0.1463983978
2255286470.0 0.9819454372 0.1402397835
2260286440.0 0.9823040111 0.1334541793
2265286410.0 0.9835237775 0.1268374944
2270286380.0 0.9847801825 0.1202362745
2275286350.0 0.9855557302 0.1138299673
2280286320.0 0.9860944836 0.1070354471
2285286290.0 0.986210299 0.1004762512
2290286260.0 0.9876022926 0.0941492787
2295286230.0 0.9880774553 0.0873906488
2300286200.0 0.988712405 0.0809786103
2305286170.0 0.9890370586 0.0747606457
2310286140.0 0.9896596503 0.0684614476
2315286110.0 0.9893484417 0.0613429008
2320286080.0 0.9902060188 0.0549812169
2325286050.0 0.990991606 0.0479573863
2330286020.0 0.9910728104 0.0411424053
2335285990.0 0.9915181656 0.0348985629
2340285960.0 0.9913775421 0.0284638248
2345285930.0 0.9912778226 0.0222020508
2350285900.0 0.9914757138 0.0150266693
2355285870.0 0.9919564776 0.0085995148
2360285840.0 0.9917387785 0.0017656964
2365285810.0 0.9916722348 -0.0047039886
2370285780.0 0.9916723728 -0.0110812201
2375285750.0 0.9911409056 -0.0179304933
2380285720.0 0.9911158759 -0.0236830001
2385285690.0 0.9907308509 -0.0305820882
2390285660.0 0.9911265162 -0.0371656915
2395285630.0 0.9907782484 -0.0438605152
2400285600.0 0.9904480062 -0.0506030794
2405285570.0 0.9894337724 -0.0565592307
2410285540.0 0.9897411941 -0.0629528058
2415285510.0 0.9888572898 -0.0692754937
2420285480.0 0.9891165947 -0.076005189
2425285450.0 0.98797432 -0.0827145146
2430285420.0 0.9876311722 -0.0892804618
2435285390.0 0.9870593827 -0.0957646224
2440285360.0 0.9863958125 -0.102084023
2445285330.0 0.9855492336 -0.1085564208
2450285300.0 0.9850486812 -0.115687293
2455285270.0 0.9839444436 -0.122127457
2460285240.0 0.9825232777 -0.1284182414
2465285210.0 0.9830424757 -0.1351564219
2470285180.0 0.9813484155 -0.1417993443
2475285150.0 0.9801612548 -0.1483183238
2480285120.0 0.9795463723 -0.1546580677
2485285090.0 0.978969686 -0.1617044104
2490285060.0 0.976619898 -0.1678536974
2495285030.0 0.9763008974 -0.1736489893
2500285000.0 0.9748319911 -0.1812235463
2505284970.0 0.9735401712 -0.1873658765
2510284940.0 0.9722437847 -0.1935493474
2515284910.0 0.9714846655 -0.1998982044
2520284880.0 0.9694742022 -0.2068624019
2525284850.0 0.9681649589 -0.2127789125
2530284820.0 0.9668456239 -0.2193252956
2535284790.0 0.9652743387 -0.2254717198
2540284760.0 0.9637133298 -0.2322585044
2545284730.0 0.9624785873 -0.2382276358
2550284700.0 0.9605871667 -0.2444417779
2555284670.0 0.9589205435 -0.2512324772
