!Created with skrf (http://scikit-rf.org).
# Hz S RI R 50.0 
!freq ReS11 ImS11
300000.0 -1.023377196 -0.1578924359
5299970.0 -1.002793307 0.0082847239
10299940.0 -1.000550631 0.0132400715
15299910.0 -1.000247974 0.0253551243
20299880.0 -0.9997489459 0.0299404143
25299850.0 -0.9994190087 0.0386550375
30299820.0 -0.9989806072 0.0463773572
35299790.0 -0.9979551937 0.0516659119
40299760.0 -0.997616309 0.0588160445
45299730.0 -0.9972644407 0.0660494384
50299700.0 -0.9960351347 0.0735106227
55299670.0 -0.995507925 0.0806862382
60299640.0 -0.9952266578 0.0881918139
65299610.0 -0.9942606619 0.0941871874
70299580.0 -0.9927216854 0.1013597962
75299550.0 -0.9919838364 0.1083661126
80299520.0 -0.991142084 0.1156141761
85299490.0 -0.9896142157 0.122521788
90299460.0 -0.9894983948 0.1298973853
95299430.0 -0.9878717423 0.1359144443
100299400.0 -0.9867717134 0.1435706573
105299370.0 -0.9858813644 0.1505678867
110299340.0 -0.9843492822 0.1576429058
115299310.0 -0.9831454328 0.1644946272
120299280.0 -0.9812420245 0.171457056
125299250.0 -0.9803519924 0.1777785249
130299220.0 -0.9797552898 0.1844000872
135299190.0 -0.9782393032 0.1913342584
140299160.0 -0.9765829616 0.1984152022
145299130.0 -0.9749004117 0.2052917125
150299100.0 -0.973550843 0.2121042026
155299070.0 -0.9717617855 0.219427435
160299040.0 -0.9708775532 0.2261907678
165299010.0 -0.9688311182 0.2322979956
170298980.0 -0.9672397578 0.2394190012
175298950.0 -0.9634177796 0.2449842484
180298920.0 -0.9610984949 0.2515618574
185298890.0 -0.9604594088 0.2588037429
190298860.0 -0.9600750634 0.2666006853
195298830.0 -0.958089749 0.2730126736
200298800.0 -0.9564253068 0.2803976461
205298770.0 -0.9544805238 0.2868721691
210298740.0 -0.9514637814 0.2941011952
215298710.0 -0.9493336616 0.3003354822
220298680.0 -0.9473136207 0.3068641313
225298650.0 -0.9452795537 0.3137621134
230298620.0 -0.9433290367 0.3200097163
235298590.0 -0.9407784652 0.326727058
240298560.0 -0.9389107108 0.3334428845
245298530.0 -0.9360291431 0.3400261678
250298500.0 -0.9335664896 0.346148656
255298470.0 -0.931321742 0.352622303
260298440.0 -0.9290377276 0.3588932753
265298410.0 -0.9258124419 0.3652926342
270298380.0 -0.9234751611 0.3722578077
275298350.0 -0.9207536917 0.378399807
280298320.0 -0.9180789587 0.3850173579
285298290.0 -0.9153905186 0.3922785028
290298260.0 -0.9130470302 0.3978354523
295298230.0 -0.9098152413 0.4044642886
300298200.0 -0.907144888 0.4109827239
305298170.0 -0.9033488232 0.417200027
310298140.0 -0.9010845215 0.4234870285
315298110.0 -0.8977652187 0.4295148573
320298080.0 -0.8944909682 0.435941787
325298050.0 -0.8915104646 0.4424522045
330298020.0 -0.888516004 0.4481097081
335297990.0 -0.8852998193 0.4549674484
340297960.0 -0.8819702414 0.4608849365
345297930.0 -0.8788654674 0.4672017451
350297900.0 -0.8759624523 0.4739444467
355297870.0 -0.8726524975 0.4798924357
360297840.0 -0.8693279838 0.4854118981
365297810.0 -0.8660430353 0.4918121946
370297780.0 -0.8625422312 0.497619896
375297750.0 -0.8583191562 0.5038485069
380297720.0 -0.8544491048 0.5099062061
385297690.0 -0.8511966191 0.5154974648
390297660.0 -0.8470382313 0.5213830066
395297630.0 -0.8433050625 0.527692078
400297600.0 -0.8391259475 0.533366584
405297570.0 -0.8359913934 0.5392908797
410297540.0 -0.8322582099 0.5448570662
415297510.0 -0.8285184629 0.5511015485
420297480.0 -0.8241687224 0.5564846515
425297450.0 -0.8200411161 0.5625818568
430297420.0 -0.8164432245 0.5681554215
435297390.0 -0.8122535678 0.5744071566
440297360.0 -0.8083490001 0.5795486671
445297330.0 -0.8039752349 0.5853922246
450297300.0 -0.8000970298 0.5907813309
455297270.0 -0.7962027088 0.5964556163
460297240.0 -0.7911151875 0.6024004257
465297210.0 -0.7871227604 0.6079354686
470297180.0 -0.7836970532 0.613039545
475297150.0 -0.7789658448 0.618524167
480297120.0 -0.7740584362 0.6241627937
485297090.0 -0.7704645801 0.6296127903
490297060.0 -0.7657093394 0.6347201171
495297030.0 -0.7614207024 0.6399659443
500297000.0 -0.756721512 0.6451606836
505296970.0 -0.7522281912 0.6507852823
510296940.0 -0.7480344933 0.6559133636
515296910.0 -0.7432061667 0.660981236
520296880.0 -0.7385787783 0.6667166795
525296850.0 -0.7344651186 0.6715577735
530296820.0 -0.7296769822 0.6768011878
535296790.0 -0.724499139 0.6820843586
540296760.0 -0.7196712012 0.6868499896
545296730.0 -0.7149969186 0.6921004865
550296700.0 -0.7094886907 0.6974648482
555296670.0 -0.7051621967 0.7020075841
560296640.0 -0.6994327979 0.7062262603
565296610.0 -0.6946119628 0.7109221035
570296580.0 -0.6894534655 0.7167915238
575296550.0 -0.6840608105 0.7217138688
580296520.0 -0.6789996812 0.7264165629
585296490.0 -0.6736809971 0.730785707
590296460.0 -0.6686884909 0.7350202909
595296430.0 -0.6637127419 0.7395747504
600296400.0 -0.6582664855 0.7444548371
605296370.0 -0.6527576399 0.7490638189
610296340.0 -0.6482218805 0.7538405139
615296310.0 -0.6427320703 0.7582935327
620296280.0 -0.6372035858 0.7620611477
625296250.0 -0.6316296003 0.7669738822
630296220.0 -0.6268760086 0.7711973927
635296190.0 -0.6212874038 0.7751829874
640296160.0 -0.616004567 0.779593429
645296130.0 -0.6104684174 0.7836926466
650296100.0 -0.604839675 0.7884736011
655296070.0 -0.599011896 0.7925082488
660296040.0 -0.5932055187 0.7966480408
665296010.0 -0.5885881056 0.8006697553
670295980.0 -0.581973751 0.8043215572
675295950.0 -0.5767810937 0.8089345867
680295920.0 -0.5709668718 0.8129312908
685295890.0 -0.5649658853 0.8164590951
690295860.0 -0.5595461752 0.8210188991
695295830.0 -0.5540087395 0.8246886866
700295800.0 -0.5472754688 0.8286107005
705295770.0 -0.5420459315 0.8328770334
710295740.0 -0.5361000595 0.8359069813
715295710.0 -0.53069339 0.8395312624
720295680.0 -0.5244031777 0.8432762635
725295650.0 -0.5184402281 0.8470566622
730295620.0 -0.5124009338 0.8507422852
735295590.0 -0.5067649511 0.8542685668
740295560.0 -0.5011058053 0.8573457098
745295530.0 -0.4946288461 0.8611591284
750295500.0 -0.4892144588 0.8648802908
755295470.0 -0.4826629257 0.8680998377
760295440.0 -0.4764517819 0.8709454018
765295410.0 -0.47032073 0.8744535874
770295380.0 -0.4643419977 0.8776478686
775295350.0 -0.458188279 0.8809426131
780295320.0 -0.4516485548 0.8840583946
785295290.0 -0.4453906755 0.8872329692
790295260.0 -0.4393678608 0.8903002988
795295230.0 -0.4327420124 0.893318041
800295200.0 -0.4262018485 0.8961470648
805295170.0 -0.4199089374 0.8994557597
810295140.0 -0.4135653177 0.901834415
815295110.0 -0.4079827524 0.9050640623
820295080.0 -0.4010338867 0.9075305778
825295050.0 -0.3944453029 0.9106772704
830295020.0 -0.3882161889 0.9129845607
835294990.0 -0.382237266 0.9155442102
840294960.0 -0.3760178559 0.918618533
845294930.0 -0.3689970753 0.9207562981
850294900.0 -0.3624399082 0.9239329433
855294870.0 -0.3560627869 0.9265002986
860294840.0 -0.3494482714 0.9287929249
865294810.0 -0.3428730497 0.93077731
870294780.0 -0.3364677848 0.9334612448
875294750.0 -0.3300451591 0.9356465464
880294720.0 -0.3235816126 0.9382634805
885294690.0 -0.3171548473 0.9398497954
890294660.0 -0.3103170019 0.9424121736
895294630.0 -0.3033931234 0.944146509
900294600.0 -0.2973988723 0.9461114633
905294570.0 -0.2909866633 0.9480343861
910294540.0 -0.2840485598 0.9502687478
915294510.0 -0.2777334007 0.9517980599
920294480.0 -0.2702652828 0.9534368607
925294450.0 -0.263604606 0.9558818527
930294420.0 -0.2566794956 0.9572070704
935294390.0 -0.2504906961 0.9583213874
940294360.0 -0.2436989218 0.9609763429
945294330.0 -0.2376352215 0.9626246353
950294300.0 -0.2302206978 0.9639214821
955294270.0 -0.2233730048 0.9659057442
960294240.0 -0.2166401103 0.9671968276
965294210.0 -0.2097440359 0.9685679392
970294180.0 -0.2034628133 0.9701618025
975294150.0 -0.1963838861 0.9713856729
980294120.0 -0.1900301324 0.9727450168
985294090.0 -0.1828137002 0.9742505711
990294060.0 -0.1757974045 0.9751193126
995294030.0 -0.1690912041 0.9768969394
1000294000.0 -0.1618774261 0.9775826486
1005293970.0 -0.1552332436 0.9781747648
1010293940.0 -0.1484100857 0.9799351545
1015293910.0 -0.1419787729 0.9805368398
1020293880.0 -0.135234607 0.9821150242
1025293850.0 -0.1285217058 0.9823576915
1030293820.0 -0.1211562715 0.9834146489
1035293790.0 -0.1143136289 0.9837897246
1040293760.0 -0.1076491654 0.9846104559
1045293730.0 -0.1007890127 0.9854524447
1050293700.0 -0.0931624948 0.9858547642
1055293670.0 -0.0863669593 0.9865189125
1060293640.0 -0.0796794744 0.9868103315
1065293610.0 -0.0732699929 0.9874652504
1070293580.0 -0.0659985912 0.988364681
1075293550.0 -0.0596773664 0.9886966668
1080293520.0 -0.0522897279 0.9887746233
1085293490.0 -0.0451230059 0.9891104991
1090293460.0 -0.0385348731 0.9898185855
1095293430.0 -0.0310717391 0.9902680975
1100293400.0 -0.0235137918 0.9900546374
1105293370.0 -0.017166811 0.9901922674
1110293340.0 -0.0100270934 0.9904489665
1115293310.0 -0.0034684167 0.9898933421
1120293280.0 0.0032004259 0.9901904855
1125293250.0 0.0096708219 0.990097805
1130293220.0 0.0169070134 0.9899717013
1135293190.0 0.0234399853 0.9896763261
1140293160.0 0.0309461539 0.9890202621
1145293130.0 0.0376065423 0.9897366027
1150293100.0 0.0446691022 0.9892155019
1155293070.0 0.0518160117 0.9886438831
1160293040.0 0.058108911 0.9885894759
1165293010.0 0.0655367837 0.9879654983
1170292980.0 0.0721765765 0.9878597833
1175292950.0 0.0787318693 0.9870368138
1180292920.0 0.0857445995 0.985830432
1185292890.0 0.0926527056 0.986032648
1190292860.0 0.0998512423 0.9853272063
1195292830.0 0.1068180151 0.9844566381
1200292800.0 0.1133971554 0.983520519
1205292770.0 0.1198811295 0.9823679453
1210292740.0 0.1269249701 0.9813186569
1215292710.0 0.134273248 0.9808434579
1220292680.0 0.1411031899 0.9794832253
1225292650.0 0.1477726653 0.9790069509
1230292620.0 0.1547556876 0.9771953623
1235292590.0 0.161685659 0.9762651343
1240292560.0 0.1686466249 0.9754775717
1245292530.0 0.1750091236 0.9744097869
1250292500.0 0.1821458888 0.9724296552
1255292470.0 0.1888569504 0.971797955
1260292440.0 0.1956934563 0.9701781331
1265292410.0 0.2024375834 0.9687730832
1270292380.0 0.2095466227 0.9671158547
1275292350.0 0.2156140987 0.9655635209
1280292320.0 0.2230211014 0.9646572899
1285292290.0 0.2297450377 0.9625369388
1290292260.0 0.2365169062 0.9613985269
1295292230.0 0.2427612224 0.9593009199
1300292200.0 0.2495291753 0.9577328636
1305292170.0 0.2558865006 0.9565511238
1310292140.0 0.2628889671 0.9540760985
1315292110.0 0.2693444052 0.9523463112
1320292080.0 0.2762644836 0.9505206232
1325292050.0 0.2833469213 0.9487632032
1330292020.0 0.2900096819 0.9458990656
1335291990.0 0.2965416339 0.9438323786
1340291960.0 0.3030260002 0.942381107
1345291930.0 0.3100417478 0.9394765517
1350291900.0 0.3165720735 0.9374869903
1355291870.0 0.3226687462 0.935336559
1360291840.0 0.3287728018 0.9333256686
1365291810.0 0.3355461976 0.9309165687
1370291780.0 0.3420440737 0.9286400422
1375291750.0 0.3484766578 0.9259232926
1380291720.0 0.3547454698 0.9237086881
1385291690.0 0.3614358368 0.9211435411
1390291660.0 0.3680408917 0.91812295
1395291630.0 0.3744503132 0.9159460199
1400291600.0 0.3804517169 0.9133861084
1405291570.0 0.3873561897 0.9103183118
1410291540.0 0.3937350446 0.9080833863
1415291510.0 0.4007497606 0.9055066282
1420291480.0 0.4064726225 0.9021206033
1425291450.0 0.4128012021 0.8995065342
1430291420.0 0.4190298864 0.8970866843
1435291390.0 0.4247150473 0.893947377
1440291360.0 0.4313999547 0.8907815528
1445291330.0 0.4366951792 0.8881135411
1450291300.0 0.4435666525 0.8847881496
1455291270.0 0.4497033054 0.8815364082
1460291240.0 0.4557553818 0.8788506037
1465291210.0 0.4615983088 0.8752843229
1470291180.0 0.4680406504 0.8723788297
1475291150.0 0.4743247287 0.8696462337
1480291120.0 0.4799432698 0.8649206725
1485291090.0 0.4858851548 0.8615888141
1490291060.0 0.4922171798 0.8587521739
1495291030.0 0.4982788076 0.8546541582
1500291000.0 0.5044481606 0.8517932431
1505290970.0 0.5100744574 0.8477625238
1510290940.0 0.5162423358 0.8445297433
1515290910.0 0.5217627247 0.8408563248
1520290880.0 0.5276810938 0.8377461303
1525290850.0 0.5339592511 0.8339799802
1530290820.0 0.5393928976 0.8297293582
1535290790.0 0.5456333102 0.8266754372
1540290760.0 0.5518082077 0.8223236128
1545290730.0 0.5573094354 0.8181348218
1550290700.0 0.5632937774 0.8140242642
1555290670.0 0.5685260869 0.8105203373
1560290640.0 0.5742929683 0.8058161485
1565290610.0 0.5798256469 0.8027828258
1570290580.0 0.5850916763 0.7984916336
1575290550.0 0.5910783844 0.7944657289
1580290520.0 0.5971773162 0.7901618
1585290490.0 0.602490591 0.7860248242
1590290460.0 0.6078082918 0.781440158
1595290430.0 0.6133875501 0.7775941412
1600290400.0 0.618930011 0.7731370295
1605290370.0 0.6237185453 0.7687564471
1610290340.0 0.6296783945 0.7641559208
1615290310.0 0.6344247887 0.7599854934
1620290280.0 0.6401416523 0.7554459957
1625290250.0 0.6450769998 0.7508087639
1630290220.0 0.6504216424 0.7461255461
1635290190.0 0.6555849323 0.7421638148
1640290160.0 0.6604158115 0.7374661009
1645290130.0 0.666192713 0.7335085795
1650290100.0 0.6704713488 0.7282774735
1655290070.0 0.6761081569 0.7234367291
1660290040.0 0.6815517354 0.7185895582
1665290010.0 0.68570086 0.7139157242
1670289980.0 0.6899446523 0.7093836281
1675289950.0 0.6955795566 0.7046001445
1680289920.0 0.7009360667 0.6993233945
1685289890.0 0.7063987439 0.6936574837
1690289860.0 0.7113506797 0.688892443
1695289830.0 0.7158969257 0.6838561224
1700289800.0 0.7209389289 0.6789667097
1705289770.0 0.7255979094 0.6740742123
1710289740.0 0.7298390533 0.6684504036
1715289710.0 0.7348993995 0.6639114393
1720289680.0 0.7392640894 0.6587645921
1725289650.0 0.7443667888 0.6537754762
1730289620.0 0.7485161877 0.648604384
1735289590.0 0.752958917 0.6436410761
1740289560.0 0.7570247433 0.6379189969
1745289530.0 0.7622496172 0.6331115341
1750289500.0 0.766225642 0.6274133378
1755289470.0 0.7702607201 0.622149277
1760289440.0 0.7755215758 0.6172513326
1765289410.0 0.7793497213 0.6115863501
1770289380.0 0.7832102786 0.6066369009
1775289350.0 0.7875875953 0.6011629641
1780289320.0 0.7922074991 0.5952270347
1785289290.0 0.7964996364 0.5899697479
1790289260.0 0.800325771 0.5839197053
1795289230.0 0.8047078093 0.5782995959
1800289200.0 0.8087459893 0.5724442497
1805289170.0 0.8128348362 0.5665389854
1810289140.0 0.8168490631 0.5616561181
1815289110.0 0.8204741974 0.5563652659
1820289080.0 0.8241446547 0.5505448896
1825289050.0 0.8275060715 0.5451636667
1830289020.0 0.8313611205 0.5389221947
1835288990.0 0.834881258 0.5334419392
1840288960.0 0.838927282 0.5276581929
1845288930.0 0.8427916705 0.5218004594
1850288900.0 0.8462402469 0.5159318445
1855288870.0 0.8502481063 0.5095763441
1860288840.0 0.8536976467 0.5036025675
1865288810.0 0.8571956429 0.4977088576
1870288780.0 0.8609390718 0.4914571332
1875288750.0 0.8644872942 0.4857865815
1880288720.0 0.8678483919 0.4795011782
1885288690.0 0.8710332606 0.4733957091
1890288660.0 0.8744693889 0.4671298646
1895288630.0 0.8774942389 0.4613332614
1900288600.0 0.8812032286 0.4549310733
1905288570.0 0.8837445333 0.4484432284
1910288540.0 0.8871529682 0.4424160299
1915288510.0 0.890680076 0.4360243856
1920288480.0 0.8936932712 0.4296630888
1925288450.0 0.8963035344 0.4230607144
1930288420.0 0.8998158567 0.4168897252
1935288390.0 0.9024732866 0.4113355156
1940288360.0 0.9053423826 0.4045862707
1945288330.0 0.9089911364 0.3980314821
1950288300.0 0.9111780157 0.3917470716
1955288270.0 0.9134965356 0.3851864224
1960288240.0 0.9166176741 0.3783484059
1965288210.0 0.9190429056 0.3718781438
1970288180.0 0.9219247515 0.3654040319
1975288150.0 0.9243665811 0.3594070437
1980288120.0 0.9271371687 0.3534736965
1985288090.0 0.9289712141 0.3467606678
1990288060.0 0.9318327247 0.3404372724
1995288030.0 0.9336624284 0.3341226932
2000288000.0 0.9360962434 0.3284538904
2005287970.0 0.9383249394 0.3215653166
2010287940.0 0.9407983659 0.3149668237
2015287910.0 0.9428154594 0.3085360746
2020287880.0 0.9448505053 0.3014225096
2025287850.0 0.9463129585 0.2951977301
2030287820.0 0.9491982199 0.2881155551
2035287790.0 0.9509949291 0.2818559373
2040287760.0 0.952445055 0.2750828566
2045287730.0 0.9545688352 0.2686388578
2050287700.0 0.9566146389 0.2616817375
2055287670.0 0.9588891066 0.2555509625
2060287640.0 0.9602180794 0.248686535
2065287610.0 0.9620764337 0.2423297809
2070287580.0 0.9636635939 0.2353394966
2075287550.0 0.9653640023 0.2283866448
2080287520.0 0.9670175695 0.2216609473
2085287490.0 0.9684561238 0.2150915135
2090287460.0 0.9699747856 0.208351852
2095287430.0 0.9719595349 0.2018924394
2100287400.0 0.9725928524 0.1945055183
2105287370.0 0.9747713021 0.1883130426
2110287340.0 0.9759535654 0.1807696906
2115287310.0 0.9769270565 0.1738162692
2120287280.0 0.9776735832 0.1670488074
2125287250.0 0.9789976305 0.1610998948
2130287220.0 0.9800879849 0.1536660423
2135287190.0 0.9815015225 0.1461435944
2140287160.0 0.9827785639 0.1395524279
2145287130.0 0.9835260932 0.132433567
2150287100.0 0.9841957558 0.1258436946
2155287070.0 0.9851176759 0.1194646737
2160287040.0 0.9860062054 0.1125360748
2165287010.0 0.9865336828 0.1057609258
2170286980.0 0.9874912695 0.0990240591
2175286950.0 0.9887687259 0.0920600443
2180286920.0 0.9886383387 0.0857802341
2185286890.0 0.9891115372 0.0790212405
2190286860.0 0.9898457246 0.0721391793
2195286830.0 0.9900176145 0.0657179887
2200286800.0 0.9909927633 0.0585335323
2205286770.0 0.9914182833 0.0517009079
2210286740.0 0.9915634291 0.0448826174
2215286710.0 0.9915193702 0.0379880997
2220286680.0 0.9919938494 0.0307731799
2225286650.0 0.9926139098 0.0240880667
2230286620.0 0.9923860023 0.0167879318
2235286590.0 0.9925635196 0.0100249331
2240286560.0 0.9928259011 0.0027582493
2245286530.0 0.9928381297 -0.0042573707
2250286500.0 0.992617827 -0.0108555275
2255286470.0 0.9923505203 -0.0182768158
2260286440.0 0.9921954963 -0.0247443367
2265286410.0 0.992424039 -0.031947166
2270286380.0 0.9919495864 -0.0393611644
2275286350.0 0.9914632098 -0.0458652225
2280286320.0 0.9910518661 -0.0529486373
2285286290.0 0.9910976062 -0.0600434559
2290286260.0 0.9906859373 -0.0667878454
2295286230.0 0.9899511519 -0.0733553424
2300286200.0 0.989801767 -0.0802160509
2305286170.0 0.988970832 -0.0872912157
2310286140.0 0.9886673956 -0.0940411463
2315286110.0 0.9878341528 -0.1012456444
2320286080.0 0.9871032437 -0.1082790067
2325286050.0 0.9860960748 -0.1151982602
2330286020.0 0.9847282149 -0.1216899912
2335285990.0 0.9843716611 -0.1280889195
2340285960.0 0.9833968548 -0.1352211538
2345285930.0 0.982738473 -0.1420648252
2350285900.0 0.9815137382 -0.1493553544
2355285870.0 0.9803757787 -0.1565976483
2360285840.0 0.9790317331 -0.1629422392
2365285810.0 0.9777046496 -0.1697936277
2370285780.0 0.9768654517 -0.1766145692
2375285750.0 0.9752893021 -0.1827390898
2380285720.0 0.9743831479 -0.1896339614
2385285690.0 0.9726863328 -0.1962118287
2390285660.0 0.9714580683 -0.2029138838
2395285630.0 0.9698912807 -0.209789833
2400285600.0 0.9683284471 -0.2165569106
2405285570.0 0.9671491879 -0.2230624371
2410285540.0 0.9653988241 -0.2294450479
2415285510.0 0.9640278973 -0.2365165772
2420285480.0 0.9625888904 -0.2424037501
2425285450.0 0.960727989 -0.2496876803
2430285420.0 0.958860684 -0.2558853656
2435285390.0 0.9565984169 -0.2630424257
2440285360.0 0.9549348302 -0.2696988172
2445285330.0 0.953471758 -0.2765201978
2450285300.0 0.9519090915 -0.2834412385
2455285270.0 0.9495337993 -0.2892539073
2460285240.0 0.9469270805 -0.2964653118
2465285210.0 0.9453825266 -0.3031430384
2470285180.0 0.9430733962 -0.3099974687
2475285150.0 0.9405731445 -0.3160105014
2480285120.0 0.9381242025 -0.3229263899
2485285090.0 0.9357063544 -0.3294951698
2490285060.0 0.9334856036 -0.3362744576
2495285030.0 0.93119068 -0.3419052957
2500285000.0 0.9284222795 -0.3495294639
2505284970.0 0.926851662 -0.3551011604
2510284940.0 0.923867459 -0.3620164484
2515284910.0 0.9209550197 -0.3686982901
2520284880.0 0.9189650158 -0.3747873968
2525284850.0 0.916027987 -0.3808084702
2530284820.0 0.9132154249 -0.3873864171
2535284790.0 0.911011441 -0.3932802071
2540284760.0 0.9078818033 -0.3996015298
2545284730.0 0.9048816583 -0.4066133973
2550284700.0 0.9021492421 -0.412265641
