!Created with skrf (http://scikit-rf.org).
# Hz S RI R 50.0 
!freq ReS11 ImS11
45000000.0 -0.08174896240234375 -0.09293365478515625
49995500.0 -0.1024932861328125 -0.08862686157226562
54991000.0 -0.12301254272460938 -0.08056259155273438
59986500.0 -0.1412353515625 -0.07866668701171875
64982000.0 -0.16014862060546875 -0.0691986083984375
69977500.0 -0.178802490234375 -0.05440521240234375
74973000.0 -0.19614410400390625 -0.03656768798828125
79968500.0 -0.21167755126953125 -0.01563262939453125
84964000.0 -0.22503662109375 0.00852203369140625
89959500.0 -0.2355804443359375 0.0355377197265625
94955000.0 -0.2424468994140625 0.06536102294921875
99950500.0 -0.245269775390625 0.09755706787109375
104946000.0 -0.24353790283203125 0.13152313232421875
109941500.0 -0.23699188232421875 0.16603851318359375
114937000.0 -0.2253875732421875 0.20159149169921875
119932500.0 -0.20830535888671875 0.23607635498046875
124928000.0 -0.1862030029296875 0.269927978515625
129923500.0 -0.1587982177734375 0.3011016845703125
134919000.0 -0.126220703125 0.329437255859375
139914500.0 -0.08856201171875 0.3544158935546875
144910000.0 -0.04693603515625 0.3747711181640625
149905500.0 -0.0018310546875 0.38970947265625
154901000.0 0.0459442138671875 0.3992462158203125
159896500.0 0.0956878662109375 0.4020538330078125
164892000.0 0.1465301513671875 0.399017333984375
169887500.0 0.1976318359375 0.38934326171875
174883000.0 0.24853515625 0.372894287109375
179878500.0 0.2978363037109375 0.349853515625
184874000.0 0.3446197509765625 0.3206939697265625
189869500.0 0.38885498046875 0.2849578857421875
194865000.0 0.42950439453125 0.243927001953125
199860500.0 0.4654541015625 0.1973114013671875
204856000.0 0.49603271484375 0.1456756591796875
209851500.0 0.521087646484375 0.089691162109375
214847000.0 0.54010009765625 0.029754638671875
219842500.0 0.55218505859375 -0.0335693359375
224838000.0 0.5567626953125 -0.099273681640625
229833500.0 0.553619384765625 -0.166534423828125
234829000.0 0.54205322265625 -0.234039306640625
239824500.0 0.52215576171875 -0.301849365234375
244820000.0 0.49359130859375 -0.367950439453125
249815500.0 0.45599365234375 -0.4313507080078125
254811000.0 0.4346923828125 -0.478363037109375
259806500.0 0.384368896484375 -0.535552978515625
264802000.0 0.326385498046875 -0.587432861328125
269797500.0 0.26068115234375 -0.63226318359375
274793000.0 0.1888427734375 -0.6693115234375
279788500.0 0.11199951171875 -0.697784423828125
284784000.0 0.03131103515625 -0.716827392578125
289779500.0 -0.052215576171875 -0.725982666015625
294775000.0 -0.1373291015625 -0.725189208984375
299770500.0 -0.222076416015625 -0.714324951171875
304766000.0 -0.305999755859375 -0.693511962890625
309761500.0 -0.387451171875 -0.662353515625
314757000.0 -0.46551513671875 -0.621429443359375
319752500.0 -0.538665771484375 -0.571502685546875
324748000.0 -0.606597900390625 -0.51361083984375
329743500.0 -0.66851806640625 -0.447784423828125
334739000.0 -0.7235107421875 -0.374481201171875
339734500.0 -0.77069091796875 -0.294830322265625
344730000.0 -0.8092041015625 -0.209136962890625
349725500.0 -0.838775634765625 -0.1185302734375
354721000.0 -0.85858154296875 -0.024078369140625
359716500.0 -0.86785888671875 0.073760986328125
364712000.0 -0.86590576171875 0.174163818359375
369707500.0 -0.852325439453125 0.2757568359375
374703000.0 -0.82672119140625 0.37744140625
379698500.0 -0.788238525390625 0.477325439453125
384694000.0 -0.737274169921875 0.57366943359375
389689500.0 -0.67388916015625 0.664794921875
394685000.0 -0.597991943359375 0.74920654296875
399680500.0 -0.51080322265625 0.823883056640625
404676000.0 -0.414398193359375 0.888824462890625
409671500.0 -0.309112548828125 0.94219970703125
414667000.0 -0.196929931640625 0.980499267578125
419662500.0 -0.07989501953125 1.0052490234375
424658000.0 0.04010009765625 1.0146484375
429653500.0 0.16143798828125 1.00885009765625
434649000.0 0.280853271484375 0.986480712890625
439644500.0 0.394927978515625 0.949981689453125
444640000.0 0.50311279296875 0.901580810546875
449635500.0 0.604278564453125 0.8424072265625
454631000.0 0.699127197265625 0.7728271484375
459626500.0 0.786163330078125 0.69256591796875
464622000.0 0.86309814453125 0.60247802734375
469617500.0 0.929779052734375 0.50531005859375
474613000.0 0.9859619140625 0.401702880859375
479608500.0 1.03125 0.29248046875
484604000.0 1.06549072265625 0.178466796875
489599500.0 1.08819580078125 0.06085205078125
494595000.0 1.09893798828125 -0.05987548828125
499590500.0 1.097412109375 -0.18292236328125
504586000.0 1.08251953125 -0.30706787109375
509581500.0 1.05413818359375 -0.43157958984375
514577000.0 1.01104736328125 -0.5546875
519572500.0 0.953033447265625 -0.67510986328125
524568000.0 0.87921142578125 -0.790618896484375
529563500.0 0.790252685546875 -0.89874267578125
534559000.0 0.6859130859375 -0.99658203125
539554500.0 0.5677490234375 -1.0816650390625
544550000.0 0.43914794921875 -1.1514892578125
549545500.0 0.30072021484375 -1.2044677734375
554541000.0 0.15625 -1.2392578125
559536500.0 0.008056640625 -1.25592041015625
564532000.0 -0.14154052734375 -1.254150390625
569527500.0 -0.2899169921875 -1.23321533203125
574523000.0 -0.4345703125 -1.19415283203125
579518500.0 -0.57257080078125 -1.13787841796875
584514000.0 -0.7021484375 -1.0653076171875
589509500.0 -0.82098388671875 -0.97833251953125
594505000.0 -0.9283447265625 -0.878143310546875
599500500.0 -1.02252197265625 -0.7679443359375
604496000.0 -1.1029052734375 -0.6488037109375
609491500.0 -1.16961669921875 -0.52264404296875
614487000.0 -1.22198486328125 -0.39129638671875
619482500.0 -1.26080322265625 -0.25628662109375
624478000.0 -1.28564453125 -0.11846923828125
629473500.0 -1.2969970703125 0.02105712890625
634469000.0 -1.29443359375 0.161376953125
639464500.0 -1.2784423828125 0.30169677734375
644460000.0 -1.24847412109375 0.4415283203125
649455500.0 -1.2041015625 0.5797119140625
654451000.0 -1.1448974609375 0.7154541015625
659446500.0 -1.07098388671875 0.84710693359375
664442000.0 -0.981475830078125 0.972991943359375
669437500.0 -0.8760986328125 1.09185791015625
674433000.0 -0.75457763671875 1.20086669921875
679428500.0 -0.61737060546875 1.29669189453125
684424000.0 -0.4656982421875 1.377197265625
689419500.0 -0.3011474609375 1.43939208984375
694415000.0 -0.12628173828125 1.4796142578125
699410500.0 0.0556640625 1.49713134765625
704406000.0 0.239990234375 1.4892578125
709401500.0 0.42340087890625 1.45574951171875
714397000.0 0.6014404296875 1.39739990234375
719392500.0 0.76934814453125 1.3154296875
724388000.0 0.923828125 1.2122802734375
729383500.0 1.06170654296875 1.08984375
734379000.0 1.18023681640625 0.9522705078125
739374500.0 1.27960205078125 0.8033447265625
744370000.0 1.35723876953125 0.64495849609375
749365500.0 1.4158935546875 0.48272705078125
754361000.0 1.45501708984375 0.31787109375
759356500.0 1.47467041015625 0.15289306640625
764352000.0 1.47711181640625 -0.0107421875
769347500.0 1.46270751953125 -0.17083740234375
774343000.0 1.43310546875 -0.32745361328125
779338500.0 1.3878173828125 -0.47900390625
784334000.0 1.33056640625 -0.625
789329500.0 1.2587890625 -0.7647705078125
794325000.0 1.1744384765625 -0.89776611328125
799320500.0 1.07708740234375 -1.0220947265625
804316000.0 0.96661376953125 -1.1390380859375
809311500.0 0.8433837890625 -1.245361328125
814307000.0 0.70831298828125 -1.34075927734375
819302500.0 0.56134033203125 -1.423095703125
824298000.0 0.40240478515625 -1.48980712890625
829293500.0 0.23516845703125 -1.53973388671875
834289000.0 0.05743408203125 -1.5699462890625
839284500.0 -0.12518310546875 -1.579833984375
844280000.0 -0.24468994140625 -1.598388671875
849275500.0 -0.43353271484375 -1.57025146484375
854271000.0 -0.6195068359375 -1.51690673828125
859266500.0 -0.7979736328125 -1.43890380859375
864262000.0 -0.965576171875 -1.3380126953125
869257500.0 -1.11846923828125 -1.215576171875
874253000.0 -1.25384521484375 -1.07611083984375
879248500.0 -1.36944580078125 -0.921142578125
884244000.0 -1.464599609375 -0.75439453125
889239500.0 -1.53741455078125 -0.57965087890625
894235000.0 -1.589111328125 -0.40032958984375
899230500.0 -1.62005615234375 -0.21807861328125
904226000.0 -1.63037109375 -0.03485107421875
909221500.0 -1.6204833984375 0.14630126953125
914217000.0 -1.59014892578125 0.32415771484375
919212500.0 -1.54205322265625 0.49530029296875
924208000.0 -1.47637939453125 0.658447265625
929203500.0 -1.39581298828125 0.8126220703125
934199000.0 -1.3016357421875 0.9578857421875
939194500.0 -1.19384765625 1.0928955078125
944190000.0 -1.07440185546875 1.217041015625
949185500.0 -0.94281005859375 1.33026123046875
954181000.0 -0.79876708984375 1.4315185546875
959176500.0 -0.6436767578125 1.5191650390625
964172000.0 -0.47784423828125 1.5916748046875
969167500.0 -0.302001953125 1.64813232421875
974163000.0 -0.1170654296875 1.68560791015625
979158500.0 0.0748291015625 1.7022705078125
984154000.0 0.27142333984375 1.69708251953125
989149500.0 0.46990966796875 1.66680908203125
994145000.0 0.66552734375 1.61114501953125
999140500.0 0.8564453125 1.5311279296875
1004136000.0 1.03717041015625 1.42474365234375
1009131500.0 1.2032470703125 1.29547119140625
1014127000.0 1.3525390625 1.14404296875
1019122500.0 1.48095703125 0.97454833984375
1024118000.0 1.58453369140625 0.7908935546875
1029113500.0 1.66375732421875 0.59619140625
1034109000.0 1.71661376953125 0.3951416015625
1039104500.0 1.743896484375 0.1915283203125
1044100000.0 1.74658203125 -0.01123046875
1049095500.0 1.72552490234375 -0.2099609375
1054091000.0 1.68206787109375 -0.40106201171875
1059086500.0 1.619140625 -0.58416748046875
1064082000.0 1.5382080078125 -0.75592041015625
1069077500.0 1.44097900390625 -0.91748046875
1074073000.0 1.32928466796875 -1.06622314453125
1079068500.0 1.20361328125 -1.20166015625
1084064000.0 1.06658935546875 -1.3243408203125
1089059500.0 0.91748046875 -1.4322509765625
1094055000.0 0.75830078125 -1.525390625
1099050500.0 0.5897216796875 -1.60345458984375
1104046000.0 0.41326904296875 -1.663818359375
1109041500.0 0.22979736328125 -1.7056884765625
1114037000.0 0.039794921875 -1.72845458984375
1119032500.0 -0.1539306640625 -1.73138427734375
1124028000.0 -0.3497314453125 -1.7119140625
1129023500.0 -0.54541015625 -1.66998291015625
1134019000.0 -0.737548828125 -1.60430908203125
1139014500.0 -0.9227294921875 -1.51513671875
1144010000.0 -1.097412109375 -1.4022216796875
1149005500.0 -1.2578125 -1.26727294921875
1154001000.0 -1.4022216796875 -1.1121826171875
1158996500.0 -1.52557373046875 -0.93927001953125
1163992000.0 -1.6260986328125 -0.7509765625
1168987500.0 -1.7008056640625 -0.55206298828125
1173983000.0 -1.749755859375 -0.34588623046875
1178978500.0 -1.77191162109375 -0.13629150390625
1183974000.0 -1.7674560546875 0.0721435546875
1188969500.0 -1.73773193359375 0.27593994140625
1193965000.0 -1.6842041015625 0.471923828125
1198960500.0 -1.60906982421875 0.65740966796875
1203956000.0 -1.51373291015625 0.82977294921875
1208951500.0 -1.40179443359375 0.98846435546875
1213947000.0 -1.2745361328125 1.131103515625
1218942500.0 -1.134521484375 1.25653076171875
1223938000.0 -0.98388671875 1.3663330078125
1228933500.0 -0.82489013671875 1.45751953125
1233929000.0 -0.65966796875 1.5313720703125
1238924500.0 -0.48858642578125 1.5882568359375
1243920000.0 -0.31427001953125 1.62677001953125
1248915500.0 -0.13824462890625 1.64788818359375
1253911000.0 0.038818359375 1.6512451171875
1258906500.0 0.21612548828125 1.6378173828125
1263902000.0 0.39190673828125 1.60626220703125
1268897500.0 0.5618896484375 1.555419921875
1273893000.0 0.72650146484375 1.4879150390625
1278888500.0 0.8858642578125 1.40289306640625
1283884000.0 1.0355224609375 1.3009033203125
1288879500.0 1.174560546875 1.182373046875
1293875000.0 1.3017578125 1.04827880859375
1298870500.0 1.41290283203125 0.9002685546875
1303866000.0 1.50775146484375 0.73919677734375
1308861500.0 1.58441162109375 0.56781005859375
1313857000.0 1.6409912109375 0.38763427734375
1318852500.0 1.67779541015625 0.2005615234375
1323848000.0 1.6923828125 0.0107421875
1328843500.0 1.68536376953125 -0.18084716796875
1333839000.0 1.6561279296875 -0.370849609375
1338834500.0 1.60498046875 -0.55706787109375
1343830000.0 1.53289794921875 -0.73583984375
1348825500.0 1.440185546875 -0.90631103515625
1353821000.0 1.3284912109375 -1.06439208984375
1358816500.0 1.19854736328125 -1.20947265625
1363812000.0 1.05303955078125 -1.33905029296875
1368807500.0 0.8931884765625 -1.4495849609375
1373803000.0 0.7205810546875 -1.54144287109375
1378798500.0 0.5391845703125 -1.61199951171875
1383794000.0 0.3507080078125 -1.66015625
1388789500.0 0.1585693359375 -1.68634033203125
1393785000.0 -0.03448486328125 -1.68896484375
1398780500.0 -0.22576904296875 -1.669921875
1403776000.0 -0.41204833984375 -1.62774658203125
1408771500.0 -0.59161376953125 -1.5648193359375
1413767000.0 -0.76043701171875 -1.48260498046875
1418762500.0 -0.9171142578125 -1.38226318359375
1423758000.0 -1.06109619140625 -1.26641845703125
1428753500.0 -1.18975830078125 -1.136962890625
1433749000.0 -1.3023681640625 -0.99554443359375
1438744500.0 -1.39813232421875 -0.844482421875
1443740000.0 -1.4765625 -0.68548583984375
1448735500.0 -1.53814697265625 -0.5205078125
1453731000.0 -1.5823974609375 -0.3509521484375
1458726500.0 -1.6090087890625 -0.17852783203125
1463722000.0 -1.61798095703125 -0.0045166015625
1468717500.0 -1.60992431640625 0.169921875
1473713000.0 -1.583984375 0.34283447265625
1478708500.0 -1.5408935546875 0.5130615234375
1483704000.0 -1.480224609375 0.6796875
1488699500.0 -1.40179443359375 0.84112548828125
1493695000.0 -1.3052978515625 0.99468994140625
1498690500.0 -1.191650390625 1.1385498046875
1503686000.0 -1.06072998046875 1.27044677734375
1508681500.0 -0.91339111328125 1.388427734375
1513677000.0 -0.75103759765625 1.48980712890625
1518672500.0 -0.57574462890625 1.5726318359375
1523668000.0 -0.3892822265625 1.63226318359375
1528663500.0 -0.195556640625 1.66900634765625
1533659000.0 0.0028076171875 1.6812744140625
1538654500.0 0.201416015625 1.66748046875
1543650000.0 0.3955078125 1.6280517578125
1548645500.0 0.58245849609375 1.5635986328125
1553641000.0 0.75775146484375 1.47705078125
1558636500.0 0.91888427734375 1.3702392578125
1563632000.0 1.06317138671875 1.24542236328125
1568627500.0 1.189697265625 1.106689453125
1573623000.0 1.29595947265625 0.9571533203125
1578618500.0 1.3824462890625 0.798828125
1583614000.0 1.44903564453125 0.6357421875
1588609500.0 1.496826171875 0.469482421875
1593605000.0 1.5263671875 0.30224609375
1598600500.0 1.53863525390625 0.13616943359375
1603596000.0 1.53411865234375 -0.02789306640625
1608591500.0 1.51385498046875 -0.18829345703125
1613587000.0 1.47906494140625 -0.34429931640625
1618582500.0 1.429931640625 -0.49517822265625
1623578000.0 1.36749267578125 -0.640380859375
1628573500.0 1.2911376953125 -0.77874755859375
1633569000.0 1.202392578125 -0.9095458984375
1638564500.0 1.10076904296875 -1.0325927734375
1643560000.0 0.98675537109375 -1.14483642578125
1648555500.0 0.86083984375 -1.24700927734375
1653551000.0 0.72332763671875 -1.336669921875
1658546500.0 0.57525634765625 -1.41168212890625
1663542000.0 0.417236328125 -1.47100830078125
1668537500.0 0.25225830078125 -1.51287841796875
1673533000.0 0.0810546875 -1.53521728515625
1678528500.0 -0.09283447265625 -1.536865234375
1683524000.0 -0.2674560546875 -1.5172119140625
1688519500.0 -0.43890380859375 -1.47601318359375
1693515000.0 -0.60382080078125 -1.41339111328125
1698510500.0 -0.75921630859375 -1.33099365234375
1703506000.0 -0.9010009765625 -1.232177734375
1708501500.0 -1.02899169921875 -1.11663818359375
1713497000.0 -1.14013671875 -0.9886474609375
1718492500.0 -1.23516845703125 -0.85064697265625
1723488000.0 -1.31146240234375 -0.7054443359375
1728483500.0 -1.370849609375 -0.555419921875
1733479000.0 -1.4127197265625 -0.40350341796875
1738474500.0 -1.43865966796875 -0.2503662109375
1743470000.0 -1.4488525390625 -0.0985107421875
1748465500.0 -1.44512939453125 0.05194091796875
1753461000.0 -1.42791748046875 0.199951171875
1758456500.0 -1.39727783203125 0.34442138671875
1763452000.0 -1.35455322265625 0.4849853515625
1768447500.0 -1.2991943359375 0.62188720703125
1773443000.0 -1.23138427734375 0.75323486328125
1778438500.0 -1.15155029296875 0.88037109375
1783434000.0 -1.05889892578125 1.00042724609375
1788429500.0 -0.95294189453125 1.1129150390625
1793425000.0 -0.83477783203125 1.21673583984375
1798420500.0 -0.70294189453125 1.30902099609375
1803416000.0 -0.55914306640625 1.3878173828125
1808411500.0 -0.40374755859375 1.4520263671875
1813407000.0 -0.2388916015625 1.4979248046875
1818402500.0 -0.06634521484375 1.52398681640625
1823398000.0 0.11114501953125 1.5279541015625
1828393500.0 0.288818359375 1.50897216796875
1833389000.0 0.464111328125 1.466552734375
1838384500.0 0.6324462890625 1.401611328125
1843380000.0 0.79022216796875 1.314697265625
1848375500.0 0.93365478515625 1.20953369140625
1853371000.0 1.06158447265625 1.087890625
1858366500.0 1.1707763671875 0.9537353515625
1863362000.0 1.2613525390625 0.8099365234375
1868357500.0 1.3333740234375 0.6595458984375
1873353000.0 1.385986328125 0.5064697265625
1878348500.0 1.421630859375 0.3515625
1883344000.0 1.4407958984375 0.197265625
1888339500.0 1.44427490234375 0.04461669921875
1893335000.0 1.43365478515625 -0.10491943359375
1898330500.0 1.4097900390625 -0.25054931640625
1903326000.0 1.37396240234375 -0.392333984375
1908321500.0 1.3253173828125 -0.5296630859375
1913317000.0 1.26507568359375 -0.66180419921875
1918312500.0 1.1934814453125 -0.78887939453125
1923308000.0 1.11004638671875 -0.91082763671875
1928303500.0 1.01458740234375 -1.02484130859375
1933299000.0 0.9071044921875 -1.13201904296875
1938294500.0 0.78753662109375 -1.2291259765625
1943290000.0 0.65606689453125 -1.31561279296875
1948285500.0 0.512939453125 -1.389404296875
1953281000.0 0.3592529296875 -1.4476318359375
1958276500.0 0.19677734375 -1.48907470703125
1963272000.0 0.0277099609375 -1.51123046875
1968267500.0 -0.1455078125 -1.51153564453125
1973263000.0 -0.31903076171875 -1.490234375
1978258500.0 -0.4903564453125 -1.44744873046875
1983254000.0 -0.65582275390625 -1.382080078125
1988249500.0 -0.810791015625 -1.296142578125
1993245000.0 -0.9532470703125 -1.1912841796875
1998240500.0 -1.0806884765625 -1.070556640625
2003236000.0 -1.1905517578125 -0.93707275390625
2008231500.0 -1.28179931640625 -0.79327392578125
2013227000.0 -1.35528564453125 -0.6414794921875
2018222500.0 -1.4095458984375 -0.48516845703125
2023218000.0 -1.44610595703125 -0.32672119140625
2028213500.0 -1.46527099609375 -0.167724609375
2033209000.0 -1.46795654296875 -0.01025390625
2038204500.0 -1.4549560546875 0.14501953125
2043200000.0 -1.42742919921875 0.29656982421875
2048195500.0 -1.38507080078125 0.44378662109375
2053191000.0 -1.3294677734375 0.58587646484375
2058186500.0 -1.2603759765625 0.72174072265625
2063182000.0 -1.17828369140625 0.8504638671875
2068177500.0 -1.083740234375 0.97149658203125
2073173000.0 -0.97674560546875 1.083251953125
2078168500.0 -0.8577880859375 1.1846923828125
2083164000.0 -0.7281494140625 1.2734375
2088159500.0 -0.58770751953125 1.34967041015625
2093155000.0 -0.4384765625 1.40911865234375
2098150500.0 -0.28167724609375 1.4532470703125
2103146000.0 -0.11944580078125 1.478515625
2108141500.0 0.04547119140625 1.4862060546875
2113137000.0 0.21026611328125 1.47308349609375
2118132500.0 0.373779296875 1.4404296875
2123128000.0 0.53118896484375 1.38861083984375
2128123500.0 0.68157958984375 1.3193359375
2133119000.0 0.8218994140625 1.233154296875
2138114500.0 0.94970703125 1.13201904296875
2143110000.0 1.064453125 1.0181884765625
2148105500.0 1.1644287109375 0.893798828125
2153101000.0 1.24945068359375 0.760498046875
2158096500.0 1.318603515625 0.620849609375
2163092000.0 1.3731689453125 0.4765625
2168087500.0 1.412353515625 0.32904052734375
2173083000.0 1.43701171875 0.1800537109375
2178078500.0 1.44635009765625 0.03021240234375
2183074000.0 1.4423828125 -0.1199951171875
2188069500.0 1.4241943359375 -0.268798828125
2193065000.0 1.39178466796875 -0.41522216796875
