!Created with skrf (http://scikit-rf.org).
# Hz S RI R 50.0 
!freq ReS11 ImS11
300000.0 -0.0699411318 -0.0417910052
5299970.0 -0.0633004824 0.0005292468
10299940.0 -0.0629567778 0.000776395
15299910.0 -0.062559819 0.0027722769
20299880.0 -0.0625212544 0.0028654178
25299850.0 -0.0622404206 0.0039688966
30299820.0 -0.0619821577 0.0048767121
35299790.0 -0.0621625206 0.0049164203
40299760.0 -0.061913448 0.0055921993
45299730.0 -0.061855482 0.0061240466
50299700.0 -0.0617638379 0.0071324618
55299670.0 -0.0615241913 0.0077438158
60299640.0 -0.0613648534 0.0082173053
65299610.0 -0.0615661922 0.00886917
70299580.0 -0.0610008034 0.0092931597
75299550.0 -0.0613114436 0.0098146368
80299520.0 -0.0610967878 0.0105283036
85299490.0 -0.060899085 0.0111411398
90299460.0 -0.0609108502 0.0119348726
95299430.0 -0.060701269 0.0124305516
100299400.0 -0.060416888 0.0131934009
105299370.0 -0.0602129276 0.013809045
110299340.0 -0.0602672178 0.0145909298
115299310.0 -0.0601282684 0.014985894
120299280.0 -0.0599759383 0.0156311662
125299250.0 -0.0598300453 0.0161947555
130299220.0 -0.0598072938 0.0167694951
135299190.0 -0.0595217442 0.0174451542
140299160.0 -0.0595638666 0.0181506103
145299130.0 -0.0592226647 0.0186302293
150299100.0 -0.0589100553 0.0191715744
155299070.0 -0.0586962968 0.019752299
160299040.0 -0.05839145 0.0204002276
165299010.0 -0.0584425796 0.0208960296
170298980.0 -0.0580230386 0.0218085984
175298950.0 -0.0580861654 0.0224463349
180298920.0 -0.0578286657 0.0229603643
185298890.0 -0.0576543749 0.0234440025
190298860.0 -0.0573407828 0.0243364731
195298830.0 -0.0569804414 0.0246950633
200298800.0 -0.0571428177 0.0255091791
205298770.0 -0.0567083927 0.0260789495
210298740.0 -0.0562272506 0.026474877
215298710.0 -0.0560477594 0.0271873988
220298680.0 -0.0558694204 0.0277225725
225298650.0 -0.0553943667 0.0284013912
230298620.0 -0.0550444275 0.0291174287
235298590.0 -0.0548556649 0.0294181062
240298560.0 -0.0550461173 0.0300395109
245298530.0 -0.0545140732 0.0306190626
250298500.0 -0.0543031596 0.0312265139
255298470.0 -0.0536800419 0.0319868911
260298440.0 -0.0535596932 0.0324134706
265298410.0 -0.0531840576 0.0328568248
270298380.0 -0.0530580328 0.033696176
275298350.0 -0.0525160755 0.0342232444
280298320.0 -0.0523145627 0.0348156567
285298290.0 -0.0520000598 0.0352692673
290298260.0 -0.0515067134 0.0358270893
295298230.0 -0.0512744547 0.0364958016
300298200.0 -0.0507860075 0.0371204508
305298170.0 -0.0505515829 0.037578835
310298140.0 -0.0501095323 0.0382451204
315298110.0 -0.0495222344 0.0388003169
320298080.0 -0.0491782379 0.0392399685
325298050.0 -0.0488152516 0.0399373105
330298020.0 -0.0484635955 0.0403910332
335297990.0 -0.0478157655 0.0410093945
340297960.0 -0.0472013859 0.0413850112
345297930.0 -0.0469873223 0.0419160085
350297900.0 -0.046451806 0.0425097016
355297870.0 -0.0459801618 0.0428959067
360297840.0 -0.0455231314 0.0434124904
365297810.0 -0.0452543718 0.0439336855
370297780.0 -0.044683517 0.0444365351
375297750.0 -0.0443075137 0.0449371681
380297720.0 -0.0437863302 0.0453286836
385297690.0 -0.04325145 0.0456528478
390297660.0 -0.0427677935 0.0463394269
395297630.0 -0.042423008 0.0467296937
400297600.0 -0.0417991903 0.0471138834
405297570.0 -0.0412765357 0.0476672714
410297540.0 -0.0408418094 0.0480320823
415297510.0 -0.040385843 0.0484394411
420297480.0 -0.0397655163 0.0487352827
425297450.0 -0.0393273913 0.0494125281
430297420.0 -0.038774994 0.0496672195
435297390.0 -0.0381905809 0.0502813873
440297360.0 -0.0378159028 0.0507099032
445297330.0 -0.0372808434 0.0510414483
450297300.0 -0.0367632543 0.0512545636
455297270.0 -0.0361320481 0.0518185159
460297240.0 -0.0357257015 0.0522680482
465297210.0 -0.035068816 0.0526466533
470297180.0 -0.0344438002 0.0529673145
475297150.0 -0.0340582537 0.05321751
480297120.0 -0.0336431863 0.0538470086
485297090.0 -0.0328306537 0.0538610304
490297060.0 -0.0323800134 0.0546690404
495297030.0 -0.0317838833 0.0547255829
500297000.0 -0.0314053782 0.0552567521
505296970.0 -0.0308290231 0.0553209691
510296940.0 -0.0304950918 0.0559664478
515296910.0 -0.0297105519 0.0562324915
520296880.0 -0.0289760457 0.0567044274
525296850.0 -0.0285046482 0.0568159286
530296820.0 -0.0280410671 0.0572068489
535296790.0 -0.0271215654 0.0573753554
540296760.0 -0.0267548388 0.0576584868
545296730.0 -0.0258670771 0.0578495463
550296700.0 -0.0254761207 0.0581044442
555296670.0 -0.0248386574 0.0584725791
560296640.0 -0.0243246003 0.0588892653
565296610.0 -0.0233479261 0.0589573417
570296580.0 -0.0226876957 0.0592478361
575296550.0 -0.0222257315 0.0596640762
580296520.0 -0.0213719624 0.0598253756
585296490.0 -0.0209744083 0.0598623813
590296460.0 -0.0203786688 0.0600298023
595296430.0 -0.0197525553 0.0603779976
600296400.0 -0.0191984784 0.0605285333
605296370.0 -0.0185629466 0.0609571182
610296340.0 -0.0178896907 0.0610512841
615296310.0 -0.0172635925 0.0611704836
620296280.0 -0.0167182471 0.061397824
625296250.0 -0.0160741318 0.0617164543
630296220.0 -0.0153472402 0.0616694697
635296190.0 -0.0149549283 0.0619384762
640296160.0 -0.0139000699 0.062130424
645296130.0 -0.0134059788 0.0621056284
650296100.0 -0.0126938103 0.0622981656
655296070.0 -0.0123223624 0.0627090371
660296040.0 -0.011423093 0.0626359134
665296010.0 -0.0107273051 0.0628240168
670295980.0 -0.0101421776 0.0628591941
675295950.0 -0.009352958 0.0630181692
680295920.0 -0.0089223519 0.0630792102
685295890.0 -0.0080375177 0.0631934086
690295860.0 -0.0075210564 0.0633480733
695295830.0 -0.006774771 0.06342344
700295800.0 -0.0062091205 0.0635053288
705295770.0 -0.0055590333 0.0636584187
710295740.0 -0.0048660847 0.0638348318
715295710.0 -0.0041628068 0.063960582
720295680.0 -0.0036757788 0.0636967544
725295650.0 -0.002960709 0.0639082495
730295620.0 -0.0021369215 0.0639107398
735295590.0 -0.0015022911 0.0640421289
740295560.0 -0.0008815806 0.0640334622
745295530.0 -0.0002828746 0.0638633429
750295500.0 0.000350738 0.0640283203
755295470.0 0.0012555891 0.0640751896
760295440.0 0.0018111676 0.0640260425
765295410.0 0.0024622088 0.0638708698
770295380.0 0.0031631567 0.0639136656
775295350.0 0.0039136171 0.0638842465
780295320.0 0.0044656344 0.0640292622
785295290.0 0.0050237265 0.0638771056
790295260.0 0.0057271531 0.063782008
795295230.0 0.006267257 0.0634355233
800295200.0 0.0072292121 0.0637567927
805295170.0 0.0079550402 0.0633606384
810295140.0 0.0084479126 0.0634632966
815295110.0 0.0091892683 0.0635229387
820295080.0 0.0095824357 0.0632844167
825295050.0 0.0104385407 0.0632182555
830295020.0 0.0112349096 0.0631921581
835294990.0 0.0120531139 0.0632411334
840294960.0 0.0125274219 0.0630670786
845294930.0 0.0129305406 0.0627858062
850294900.0 0.0138590571 0.0627132903
855294870.0 0.0146629305 0.0626038611
860294840.0 0.0152911262 0.0624078931
865294810.0 0.0157009099 0.0621104075
870294780.0 0.0163863531 0.0620077695
875294750.0 0.0170319888 0.0618324982
880294720.0 0.0178914101 0.0616097955
885294690.0 0.0184511815 0.0615527688
890294660.0 0.0191939228 0.0613476675
895294630.0 0.0195882015 0.0609928723
900294600.0 0.020224333 0.0610774228
905294570.0 0.0209996651 0.0609606628
910294540.0 0.0216394141 0.0604741166
915294510.0 0.0222296173 0.0602587152
920294480.0 0.0230013336 0.0602584944
925294450.0 0.0236371957 0.0597570513
930294420.0 0.0241040779 0.0596930253
935294390.0 0.0246971816 0.0593120804
940294360.0 0.025291351 0.0592977628
945294330.0 0.0260822133 0.0588099929
950294300.0 0.0265978595 0.0587293084
955294270.0 0.0273930821 0.0582810943
960294240.0 0.0279341566 0.0578394732
965294210.0 0.0284872433 0.0578240028
970294180.0 0.0290502751 0.0574851315
975294150.0 0.0298495927 0.0571474459
980294120.0 0.0303309713 0.0567059174
985294090.0 0.0306413171 0.0563621476
990294060.0 0.0314034845 0.0562333995
995294030.0 0.03223605 0.0560437977
1000294000.0 0.0326540863 0.0556199129
1005293970.0 0.0331998474 0.0553859484
1010293940.0 0.0340034953 0.0549346651
1015293910.0 0.0344736477 0.0545132304
1020293880.0 0.034883349 0.0541133778
1025293850.0 0.0355075434 0.0537028734
1030293820.0 0.0361720138 0.0534891381
1035293790.0 0.0367794978 0.0532163302
1040293760.0 0.0375684361 0.0526585271
1045293730.0 0.037887158 0.0524437432
1050293700.0 0.0386257775 0.0520586838
1055293670.0 0.0390705043 0.0517725945
1060293640.0 0.0397194491 0.0511988848
1065293610.0 0.0400934412 0.0508786632
1070293580.0 0.0406940208 0.0504434541
1075293550.0 0.0412406164 0.0499547614
1080293520.0 0.0418608166 0.0494051809
1085293490.0 0.042547575 0.0490526491
1090293460.0 0.042954192 0.0487596287
1095293430.0 0.0433198197 0.0482061779
1100293400.0 0.0440556515 0.047973962
1105293370.0 0.0443794092 0.0473577755
1110293340.0 0.0449436992 0.0468579488
1115293310.0 0.0452557981 0.0464123443
1120293280.0 0.0460274399 0.0461373983
1125293250.0 0.0466162871 0.0456819076
1130293220.0 0.0467088534 0.0452646638
1135293190.0 0.0473065552 0.0449483627
1140293160.0 0.0476082692 0.0443608562
1145293130.0 0.0480805155 0.0440118709
1150293100.0 0.0484232964 0.0434569963
1155293070.0 0.0491046827 0.0429346644
1160293040.0 0.0494933983 0.0425953169
1165293010.0 0.0499992819 0.0418073694
1170292980.0 0.0502752395 0.0414903733
1175292950.0 0.050606162 0.0408531564
1180292920.0 0.0514091617 0.0403589677
1185292890.0 0.0518041475 0.0398137972
1190292860.0 0.0524171818 0.0391538768
1195292830.0 0.0530261392 0.0386514181
1200292800.0 0.0534240738 0.0379698904
1205292770.0 0.0538245765 0.0377283834
1210292740.0 0.054176342 0.0368516853
1215292710.0 0.0546602932 0.0364836508
1220292680.0 0.0548346939 0.0358959556
1225292650.0 0.0553892797 0.0355228555
1230292620.0 0.0559623029 0.0348655427
1235292590.0 0.0563892437 0.0342778549
1240292560.0 0.0565273603 0.0337939916
1245292530.0 0.0568303922 0.0330531214
1250292500.0 0.0573760932 0.0325040652
1255292470.0 0.0577446036 0.0321151345
1260292440.0 0.0581706211 0.0313790524
1265292410.0 0.0586210034 0.0305997921
1270292380.0 0.0588064648 0.0301530656
1275292350.0 0.0592658524 0.0294107593
1280292320.0 0.0595973346 0.0289957997
1285292290.0 0.0599936541 0.0282147159
1290292260.0 0.0601316698 0.0277980911
1295292230.0 0.0605561396 0.0271463976
1300292200.0 0.0607999766 0.0265583173
1305292170.0 0.061178653 0.0259752352
1310292140.0 0.0613165409 0.0251076998
1315292110.0 0.0619548664 0.0246693855
1320292080.0 0.0621682865 0.024019278
1325292050.0 0.0622314892 0.0234675769
1330292020.0 0.0624383417 0.0228581596
1335291990.0 0.0627326425 0.0221462259
1340291960.0 0.0630632211 0.0216534013
1345291930.0 0.0633035052 0.0208323789
1350291900.0 0.0638026605 0.0203676206
1355291870.0 0.0638295331 0.0198056889
1360291840.0 0.0639996384 0.0189098125
1365291810.0 0.0643550179 0.0184085212
1370291780.0 0.0644956113 0.0178181773
1375291750.0 0.0645434717 0.0170782265
1380291720.0 0.0649600764 0.0164767106
1385291690.0 0.0650235655 0.0158333874
1390291660.0 0.0653190245 0.0152751696
1395291630.0 0.0657060318 0.0143277205
1400291600.0 0.0659121523 0.0137706896
1405291570.0 0.0660761571 0.0133930696
1410291540.0 0.0661377799 0.0126002641
1415291510.0 0.0663943704 0.0118351416
1420291480.0 0.0665600269 0.011363071
1425291450.0 0.0665687932 0.0104855997
1430291420.0 0.06671676 0.009819966
1435291390.0 0.0669376658 0.0092212507
1440291360.0 0.0670960291 0.00860321
1445291330.0 0.0670858161 0.007908615
1450291300.0 0.0673635974 0.0072600544
1455291270.0 0.0673735384 0.0066064506
1460291240.0 0.0675742486 0.0058745339
1465291210.0 0.0677445451 0.0051513922
1470291180.0 0.0677716062 0.0045690757
1475291150.0 0.0677713445 0.0039945067
1480291120.0 0.0678719062 0.0030967991
1485291090.0 0.0681459533 0.0025075005
1490291060.0 0.0682224809 0.0019076843
1495291030.0 0.0680131274 0.0012346582
1500291000.0 0.0683631366 0.0005161
1505290970.0 0.0681481825 -0.0003644842
1510290940.0 0.0683215621 -0.0008832435
1515290910.0 0.0684937088 -0.0015732248
1520290880.0 0.0685080351 -0.0023273165
1525290850.0 0.0683468167 -0.0028562136
1530290820.0 0.0686411294 -0.0034796169
1535290790.0 0.0685206414 -0.004234246
1540290760.0 0.0685474914 -0.0051165089
1545290730.0 0.0685022499 -0.0059183755
1550290700.0 0.0686010631 -0.0065491914
1555290670.0 0.0688885066 -0.0070228066
1560290640.0 0.0684588297 -0.0076605375
1565290610.0 0.0684860464 -0.0083349016
1570290580.0 0.0684197039 -0.0091468695
1575290550.0 0.0685883047 -0.0096324457
1580290520.0 0.068211179 -0.0104418859
1585290490.0 0.0681501456 -0.0109979717
1590290460.0 0.0683276422 -0.0116799529
1595290430.0 0.0682653968 -0.0122636569
1600290400.0 0.0681764331 -0.0132436694
1605290370.0 0.0680361903 -0.0136434899
1610290340.0 0.0679082418 -0.0146604646
1615290310.0 0.0679875361 -0.0150641196
1620290280.0 0.0676843315 -0.0158419197
1625290250.0 0.0679296104 -0.0163453084
1630290220.0 0.0676808957 -0.016908224
1635290190.0 0.0673511739 -0.017710068
1640290160.0 0.0673951078 -0.0184837826
1645290130.0 0.0674112105 -0.0191140924
1650290100.0 0.0670750364 -0.0199398453
1655290070.0 0.0670011515 -0.0204437879
1660290040.0 0.0668512694 -0.0213761101
1665290010.0 0.0668093316 -0.0217958016
1670289980.0 0.0664415946 -0.0223186503
1675289950.0 0.0662392635 -0.0230376697
1680289920.0 0.0663422591 -0.0237642876
1685289890.0 0.06617158 -0.0243859385
1690289860.0 0.0657502133 -0.0251997891
1695289830.0 0.065581854 -0.0257754399
1700289800.0 0.0653533229 -0.0263093942
1705289770.0 0.065329022 -0.0271018528
1710289740.0 0.0651609766 -0.0278656876
1715289710.0 0.0649539318 -0.0283167388
1720289680.0 0.0644064922 -0.0289325196
1725289650.0 0.0646004476 -0.0294777172
1730289620.0 0.0640885945 -0.0301641133
1735289590.0 0.063977895 -0.0309808806
1740289560.0 0.06352743 -0.0315165214
1745289530.0 0.0634382583 -0.0319708578
1750289500.0 0.0631505671 -0.0326662969
1755289470.0 0.0629390906 -0.033429748
1760289440.0 0.0627126247 -0.0338788593
1765289410.0 0.0623225103 -0.034436984
1770289380.0 0.0621197432 -0.0350930274
1775289350.0 0.0618703597 -0.035763789
1780289320.0 0.0614565702 -0.0364668734
1785289290.0 0.0612368484 -0.0369500029
1790289260.0 0.0609693469 -0.0374961246
1795289230.0 0.0605592555 -0.0382289093
1800289200.0 0.0602952748 -0.0388802914
1805289170.0 0.0597619767 -0.039338963
1810289140.0 0.0597574078 -0.039928918
1815289110.0 0.0594619171 -0.0405605512
1820289080.0 0.0589642526 -0.0412094533
1825289050.0 0.0585231693 -0.0416811066
1830289020.0 0.0584144642 -0.0421786408
1835288990.0 0.0579678286 -0.043048531
1840288960.0 0.0575638544 -0.0437277457
1845288930.0 0.0574022675 -0.0439948609
1850288900.0 0.0569160098 -0.044863375
1855288870.0 0.0566038166 -0.0452667194
1860288840.0 0.056210595 -0.0458301503
1865288810.0 0.0558445979 -0.0465263842
1870288780.0 0.0552047724 -0.0470345228
1875288750.0 0.0550991273 -0.0474850785
1880288720.0 0.054563788 -0.0482030399
1885288690.0 0.0542190075 -0.0484937526
1890288660.0 0.0537185517 -0.0492929468
1895288630.0 0.053282669 -0.0497451169
1900288600.0 0.0529629948 -0.0504672404
1905288570.0 0.0524350512 -0.0508000758
1910288540.0 0.0521806536 -0.0514435156
1915288510.0 0.0515895022 -0.0520962592
1920288480.0 0.0510590609 -0.0523707396
1925288450.0 0.0506162997 -0.0529945062
1930288420.0 0.0503207116 -0.0534063542
1935288390.0 0.0496003742 -0.0540124403
1940288360.0 0.0492230862 -0.0545266383
1945288330.0 0.0485336626 -0.0551147296
1950288300.0 0.0484015568 -0.055779731
1955288270.0 0.0478355052 -0.0561009668
1960288240.0 0.0472442347 -0.0566854525
1965288210.0 0.0465735267 -0.0572035638
1970288180.0 0.0461677823 -0.0576992976
1975288150.0 0.0455788622 -0.058112185
1980288120.0 0.0449992224 -0.0585948756
1985288090.0 0.0444242649 -0.0588070352
1990288060.0 0.0439063177 -0.059574495
1995288030.0 0.0434930751 -0.0599198505
2000288000.0 0.0429160618 -0.0604022276
2005287970.0 0.0423851784 -0.0608497442
2010287940.0 0.0416443852 -0.0613390043
2015287910.0 0.0409174269 -0.0616098083
2020287880.0 0.0402327109 -0.0621053605
2025287850.0 0.0399125133 -0.0625918621
2030287820.0 0.0393118859 -0.0629079548
2035287790.0 0.0387148402 -0.0634930317
2040287760.0 0.0378822883 -0.0638463335
2045287730.0 0.037269947 -0.0641785952
2050287700.0 0.0367627544 -0.0646524715
2055287670.0 0.0361608778 -0.0647066615
2060287640.0 0.035326279 -0.0652739748
2065287610.0 0.0348709328 -0.0655377304
2070287580.0 0.0340501552 -0.0659502278
2075287550.0 0.0333400943 -0.0661279479
2080287520.0 0.0328798455 -0.066392412
2085287490.0 0.0322397094 -0.0667565238
2090287460.0 0.0317887886 -0.0670684754
2095287430.0 0.0310212007 -0.0674726558
2100287400.0 0.0303477091 -0.06790565
2105287370.0 0.0295532924 -0.0677722244
2110287340.0 0.029011068 -0.0680861391
2115287310.0 0.0284544625 -0.0685037156
2120287280.0 0.0275721093 -0.068738614
2125287250.0 0.02721501 -0.0688401442
2130287220.0 0.0263897567 -0.0690566433
2135287190.0 0.0257855963 -0.0695882726
2140287160.0 0.0250053203 -0.0697340822
2145287130.0 0.024349976 -0.0698506631
2150287100.0 0.0236494081 -0.0703520161
2155287070.0 0.0231261252 -0.0704657595
2160287040.0 0.0225520557 -0.0706524974
2165287010.0 0.0219049796 -0.0709185681
2170286980.0 0.0211276707 -0.071199447
2175286950.0 0.0204018854 -0.071329738
2180286920.0 0.0198779045 -0.0715959561
2185286890.0 0.0189473563 -0.0715781684
2190286860.0 0.0183327796 -0.0717919647
2195286830.0 0.0179068875 -0.0718444068
2200286800.0 0.0169884744 -0.0722305788
2205286770.0 0.0164172127 -0.0723009411
2210286740.0 0.0154763191 -0.0724949024
2215286710.0 0.0146827341 -0.0726798254
2220286680.0 0.0140956626 -0.0726834747
2225286650.0 0.0134282545 -0.0727853786
2230286620.0 0.0128304383 -0.0730271084
2235286590.0 0.0119061471 -0.0729577204
2240286560.0 0.0112763647 -0.0732685775
2245286530.0 0.0105136047 -0.0733019518
2250286500.0 0.0099691677 -0.0731964352
2255286470.0 0.009223781 -0.0735061085
2260286440.0 0.0084137215 -0.0732685549
2265286410.0 0.0077501346 -0.0735637135
2270286380.0 0.0068689283 -0.0734816262
2275286350.0 0.0062507096 -0.0735779685
2280286320.0 0.0055714481 -0.0735004616
2285286290.0 0.0045874881 -0.0735601165
2290286260.0 0.0041454933 -0.0735536286
2295286230.0 0.0033466248 -0.0736119101
2300286200.0 0.0026210089 -0.0734903778
2305286170.0 0.0020397017 -0.0733474644
2310286140.0 0.0010159439 -0.0735385704
2315286110.0 0.000487546 -0.0732983826
2320286080.0 -0.0001918656 -0.0733699085
2325286050.0 -0.000928256 -0.0734532064
2330286020.0 -0.0016348502 -0.0733219556
2335285990.0 -0.0022131833 -0.0734297465
2340285960.0 -0.0031309456 -0.0730301858
2345285930.0 -0.0036638706 -0.073183654
2350285900.0 -0.0041880052 -0.0730508013
2355285870.0 -0.0050196737 -0.0727782846
2360285840.0 -0.0057896738 -0.0727027882
2365285810.0 -0.0063750168 -0.0727824905
2370285780.0 -0.0069802897 -0.0724098659
2375285750.0 -0.0076262555 -0.0724681704
2380285720.0 -0.0085977268 -0.0722583257
2385285690.0 -0.00924296 -0.072062772
2390285660.0 -0.00987428 -0.0720889175
2395285630.0 -0.0106152024 -0.0719104355
2400285600.0 -0.0111981034 -0.0718598817
2405285570.0 -0.0118338313 -0.0717071532
2410285540.0 -0.0124436906 -0.0715245373
2415285510.0 -0.0131265841 -0.0713502302
2420285480.0 -0.0139282389 -0.0711339949
2425285450.0 -0.0146593611 -0.0710277807
2430285420.0 -0.0152187424 -0.0711097189
2435285390.0 -0.0160288539 -0.0708176582
2440285360.0 -0.0167670337 -0.0704131803
2445285330.0 -0.0171986679 -0.0705029172
2450285300.0 -0.0181831571 -0.0701257161
2455285270.0 -0.0185520711 -0.0697609938
2460285240.0 -0.0193983057 -0.069730205
2465285210.0 -0.0201096112 -0.06949329
2470285180.0 -0.020932425 -0.0691964923
2475285150.0 -0.0212216049 -0.0691532173
2480285120.0 -0.0219472399 -0.068681463
2485285090.0 -0.022465288 -0.0683704878
2490285060.0 -0.0232506059 -0.0682205168
2495285030.0 -0.0239862051 -0.0681194619
2500285000.0 -0.0246614347 -0.0674735564
2505284970.0 -0.0253146846 -0.0673523713
2510284940.0 -0.0259991798 -0.0672325794
2515284910.0 -0.0264628951 -0.0668091447
2520284880.0 -0.0270297763 -0.0665603092
2525284850.0 -0.0276671285 -0.066248984
2530284820.0 -0.0281251493 -0.0661442272
2535284790.0 -0.0289710076 -0.0656002459
2540284760.0 -0.0295407514 -0.0654240012
