!Created with skrf (http://scikit-rf.org).
# Hz S RI R 50.0 
!freq ReS11 ImS11
300000.0 1.002685319 0.0004827505
5299970.0 1.004609808 -0.0084348585
10299940.0 1.004499806 -0.0154389459
15299910.0 1.004800524 -0.0209667871
20299880.0 1.003590603 -0.0285386933
25299850.0 1.003561587 -0.0344510579
30299820.0 1.003535213 -0.0412824825
35299790.0 1.002752618 -0.0477887638
40299760.0 1.003180382 -0.0552361644
45299730.0 1.002579106 -0.0614791736
50299700.0 1.002638098 -0.0686035484
55299670.0 1.001811685 -0.0751891127
60299640.0 1.001191883 -0.0816750779
65299610.0 1.000963633 -0.0883405791
70299580.0 1.000211209 -0.0948418739
75299550.0 0.9998713984 -0.1015367788
80299520.0 0.9993801436 -0.1079139686
85299490.0 0.997925035 -0.1150704545
90299460.0 0.9978457368 -0.1211992512
95299430.0 0.9962795293 -0.128267382
100299400.0 0.9954179457 -0.1341741882
105299370.0 0.994854763 -0.1408218918
110299340.0 0.9937156274 -0.1479344793
115299310.0 0.9926543984 -0.1547184274
120299280.0 0.9915858611 -0.1603723016
125299250.0 0.9899967089 -0.1673179532
130299220.0 0.9896369281 -0.1740760657
135299190.0 0.9881717751 -0.1803992769
140299160.0 0.9871088398 -0.1867431042
145299130.0 0.9853418406 -0.1930987107
150299100.0 0.9844716712 -0.2000214369
155299070.0 0.9830340392 -0.2072709802
160299040.0 0.9814634087 -0.2131076173
165299010.0 0.9801244326 -0.2194208895
170298980.0 0.9782167412 -0.2262051322
175298950.0 0.9758379774 -0.2321682554
180298920.0 0.973326733 -0.2391514702
185298890.0 0.9726040748 -0.2455916478
190298860.0 0.972025386 -0.2515842132
195298830.0 0.970730807 -0.2584563782
200298800.0 0.9689918671 -0.2645046347
205298770.0 0.9668826948 -0.2710609453
210298740.0 0.9647001686 -0.2775779938
215298710.0 0.9627935109 -0.2834587584
220298680.0 0.9604087236 -0.2903817948
225298650.0 0.9592245616 -0.2963762535
230298620.0 0.9572945053 -0.3032584692
235298590.0 0.9548163685 -0.3099493345
240298560.0 0.9529330757 -0.3158200593
245298530.0 0.9506681985 -0.3218740094
250298500.0 0.9485252088 -0.3276873576
255298470.0 0.9463972553 -0.3345297757
260298440.0 0.9441477978 -0.3402174165
265298410.0 0.9418733541 -0.3468140092
270298380.0 0.9397235783 -0.3531688159
275298350.0 0.937266716 -0.3588676031
280298320.0 0.9350323139 -0.3655311008
285298290.0 0.93253867 -0.3717192813
290298260.0 0.929848007 -0.3777769297
295298230.0 0.9273346305 -0.3835945691
300298200.0 0.9251672742 -0.3894186504
305298170.0 0.9221125419 -0.3955639949
310298140.0 0.9192477109 -0.4022678398
315298110.0 0.9167049708 -0.4079974822
320298080.0 0.9143804745 -0.4140310453
325298050.0 0.9114057622 -0.419678123
330298020.0 0.9085842714 -0.4262059051
335297990.0 0.90523322 -0.432482049
340297960.0 0.9028850041 -0.4380236894
345297930.0 0.9000331878 -0.4440609387
350297900.0 0.8979099068 -0.4508934564
355297870.0 0.8951734857 -0.4563577143
360297840.0 0.8917497525 -0.4625247948
365297810.0 0.8886869416 -0.4681674486
370297780.0 0.8850578076 -0.4739120619
375297750.0 0.8815094488 -0.4790682965
380297720.0 0.8784448043 -0.4852989406
385297690.0 0.8745924699 -0.4905370312
390297660.0 0.8712469926 -0.4966805559
395297630.0 0.868105835 -0.5026767597
400297600.0 0.8650510934 -0.5080856178
405297570.0 0.8614267395 -0.5138571589
410297540.0 0.8579592851 -0.5193552639
415297510.0 0.8543894741 -0.5245972407
420297480.0 0.8513605793 -0.5304962203
425297450.0 0.8475337334 -0.5365565246
430297420.0 0.8442893501 -0.5419507766
435297390.0 0.8404878933 -0.5474482771
440297360.0 0.8368419232 -0.5528259586
445297330.0 0.8336016237 -0.5586803867
450297300.0 0.8298694634 -0.5639535371
455297270.0 0.8260214229 -0.5694456809
460297240.0 0.8219127348 -0.5750362484
465297210.0 0.8185678274 -0.5802470553
470297180.0 0.8139611584 -0.5855224696
475297150.0 0.8106409502 -0.5910877423
480297120.0 0.8065076071 -0.5967542165
485297090.0 0.8024806331 -0.6016129674
490297060.0 0.7985640543 -0.6068439698
495297030.0 0.7946254894 -0.6125857559
500297000.0 0.7906450624 -0.6176271906
505296970.0 0.7857557964 -0.6224873774
510296940.0 0.782169295 -0.6275347809
515296910.0 0.777344154 -0.6330528441
520296880.0 0.7732837427 -0.6381453464
525296850.0 0.7689258916 -0.6428615439
530296820.0 0.7651007181 -0.6480112286
535296790.0 0.7604758407 -0.6528386156
540296760.0 0.7559893372 -0.6579525378
545296730.0 0.7514879084 -0.6632101909
550296700.0 0.7475961869 -0.6681401102
555296670.0 0.743137223 -0.6728124993
560296640.0 0.7387970131 -0.6780688456
565296610.0 0.7342433709 -0.6826485597
570296580.0 0.7299075967 -0.6876597794
575296550.0 0.7251870465 -0.6929101784
580296520.0 0.7201555725 -0.6973947836
585296490.0 0.7159081141 -0.7016563315
590296460.0 0.7114545511 -0.7064685651
595296430.0 0.706735734 -0.7115999939
600296400.0 0.7018447904 -0.716654528
605296370.0 0.6975484774 -0.7209106694
610296340.0 0.6929407967 -0.7252197529
615296310.0 0.6877572407 -0.7295447198
620296280.0 0.6829759879 -0.7341375765
625296250.0 0.6776975272 -0.7384994865
630296220.0 0.672833787 -0.7432378923
635296190.0 0.668105927 -0.7473637165
640296160.0 0.6633780135 -0.7518873499
645296130.0 0.6579879169 -0.756091294
650296100.0 0.6524942836 -0.7604166553
655296070.0 0.648185156 -0.7647520046
660296040.0 0.6428877841 -0.7691073145
665296010.0 0.637737619 -0.7734988649
670295980.0 0.632974527 -0.7773648212
675295950.0 0.6279068792 -0.7819070866
680295920.0 0.6228400991 -0.7863840051
685295890.0 0.6173820335 -0.7898296727
690295860.0 0.6117367956 -0.7940970482
695295830.0 0.6071811898 -0.7982121769
700295800.0 0.601575139 -0.8024617572
705295770.0 0.5964283634 -0.8062161156
710295740.0 0.5909368406 -0.8097315988
715295710.0 0.5852084165 -0.8141241167
720295680.0 0.5798730616 -0.8181692234
725295650.0 0.5744084963 -0.8217387914
730295620.0 0.5694987199 -0.8254033173
735295590.0 0.5642766147 -0.8294384778
740295560.0 0.5580202408 -0.8328577222
745295530.0 0.5526298474 -0.8369883599
750295500.0 0.547164746 -0.8401588248
755295470.0 0.5417608309 -0.8436368877
760295440.0 0.5357912258 -0.8468718643
765295410.0 0.5303755676 -0.8509575155
770295380.0 0.5248504651 -0.8538972816
775295350.0 0.5183951168 -0.8583153074
780295320.0 0.51353932 -0.8613638737
785295290.0 0.5077588498 -0.8646731372
790295260.0 0.5021021613 -0.8677812523
795295230.0 0.4964830153 -0.8709689072
800295200.0 0.490585667 -0.8750711885
805295170.0 0.4841249664 -0.8780425334
810295140.0 0.4788707425 -0.8812289007
815295110.0 0.4730463799 -0.8844534871
820295080.0 0.4670280344 -0.8872092882
825295050.0 0.4609242168 -0.8905383922
830295020.0 0.455670347 -0.8934355959
835294990.0 0.4492998936 -0.8969662888
840294960.0 0.443511757 -0.9000263684
845294930.0 0.4377778864 -0.9025477776
850294900.0 0.4318950699 -0.9054660011
855294870.0 0.4259437995 -0.9081386391
860294840.0 0.419265826 -0.9108027413
865294810.0 0.4134315975 -0.9134453058
870294780.0 0.4072036383 -0.9157485732
875294750.0 0.4012411319 -0.9185857388
880294720.0 0.395326351 -0.9210591669
885294690.0 0.3892678434 -0.9245964874
890294660.0 0.3833405726 -0.9266037364
895294630.0 0.3769733156 -0.9292920783
900294600.0 0.3707176922 -0.9317854669
905294570.0 0.3647051709 -0.9341514096
910294540.0 0.3590321936 -0.9367674405
915294510.0 0.3524856364 -0.93901533
920294480.0 0.3457732922 -0.9407425773
925294450.0 0.3394705401 -0.9434565186
930294420.0 0.3335020735 -0.9461408524
935294390.0 0.326651133 -0.9483090338
940294360.0 0.32087616 -0.9505743641
945294330.0 0.3148139283 -0.9523609944
950294300.0 0.3083612988 -0.9548008245
955294270.0 0.3012675068 -0.9562938942
960294240.0 0.2959082492 -0.9583120611
965294210.0 0.2886575186 -0.9604633197
970294180.0 0.2822072885 -0.9617497459
975294150.0 0.2767202648 -0.9644260084
980294120.0 0.2696211474 -0.9659892538
985294090.0 0.2644488206 -0.9675868059
990294060.0 0.2578393015 -0.9691292503
995294030.0 0.2509130152 -0.9712542109
1000294000.0 0.2447803098 -0.9728386658
1005293970.0 0.2376247066 -0.9736106001
1010293940.0 0.2312563876 -0.9755016593
1015293910.0 0.225319011 -0.9776916181
1020293880.0 0.2193748065 -0.9788378188
1025293850.0 0.212087121 -0.9798473263
1030293820.0 0.2068812471 -0.9816902382
1035293790.0 0.2000025041 -0.982361252
1040293760.0 0.1928603363 -0.9840059456
1045293730.0 0.1861657972 -0.9854408964
1050293700.0 0.1795656386 -0.9864815927
1055293670.0 0.1729158492 -0.9879991789
1060293640.0 0.1665910449 -0.9891140606
1065293610.0 0.1599509609 -0.9897530549
1070293580.0 0.1539868822 -0.9907663594
1075293550.0 0.1472772529 -0.991962604
1080293520.0 0.1402989265 -0.9930936177
1085293490.0 0.1334408217 -0.9939412141
1090293460.0 0.1266268001 -0.9946179083
1095293430.0 0.1204025038 -0.9954629824
1100293400.0 0.1136476162 -0.9962056969
1105293370.0 0.1069913668 -0.9972930856
1110293340.0 0.099957517 -0.9977851946
1115293310.0 0.0948751202 -0.9981894644
1120293280.0 0.0874233767 -0.9991355661
1125293250.0 0.0807773246 -0.9997337574
1130293220.0 0.0745269591 -0.9997513167
1135293190.0 0.0686700088 -1.000593598
1140293160.0 0.060919671 -1.000597879
1145293130.0 0.0540211426 -1.001738056
1150293100.0 0.0465269199 -1.001697094
1155293070.0 0.0405380587 -1.001637681
1160293040.0 0.0338184727 -1.002247507
1165293010.0 0.0262775412 -1.002282531
1170292980.0 0.0204337268 -1.002519219
1175292950.0 0.0139864814 -1.003046366
1180292920.0 0.0071513668 -1.001857005
1185292890.0 0.0008116859 -1.002913471
1190292860.0 -0.0051994492 -1.002546644
1195292830.0 -0.0112227112 -1.002289912
1200292800.0 -0.0182039636 -1.002241517
1205292770.0 -0.0249915158 -1.002054476
1210292740.0 -0.030933672 -1.001762538
1215292710.0 -0.0381572611 -1.002286855
1220292680.0 -0.0447577424 -1.001775601
1225292650.0 -0.0513990649 -1.001230101
1230292620.0 -0.0582693603 -1.000987625
1235292590.0 -0.0648250478 -1.000465002
1240292560.0 -0.0716983968 -0.9995423493
1245292530.0 -0.0780925946 -0.9990154008
1250292500.0 -0.084456444 -0.9987293875
1255292470.0 -0.0908747677 -0.9986912931
1260292440.0 -0.097645233 -0.9977236766
1265292410.0 -0.1038773922 -0.997137344
1270292380.0 -0.1108297013 -0.9961758691
1275292350.0 -0.1173003685 -0.9952008818
1280292320.0 -0.1240126366 -0.9942886149
1285292290.0 -0.1308770969 -0.993788247
1290292260.0 -0.1374790116 -0.9924010719
1295292230.0 -0.1434193372 -0.9912188065
1300292200.0 -0.1500616449 -0.9910846364
1305292170.0 -0.1567206152 -0.9893396968
1310292140.0 -0.1631106045 -0.9886989127
1315292110.0 -0.1699302884 -0.987376988
1320292080.0 -0.1764820302 -0.9864247136
1325292050.0 -0.1827632489 -0.9849645278
1330292020.0 -0.1900410448 -0.9834323691
1335291990.0 -0.1963591658 -0.9822076125
1340291960.0 -0.2027269382 -0.9809258079
1345291930.0 -0.2094371871 -0.979580035
1350291900.0 -0.2162857662 -0.9781838348
1355291870.0 -0.2222286234 -0.9769056229
1360291840.0 -0.2285630545 -0.9751374212
1365291810.0 -0.2345787962 -0.9734456759
1370291780.0 -0.2413033953 -0.9719063997
1375291750.0 -0.2472507138 -0.9705545015
1380291720.0 -0.2535789264 -0.9686944965
1385291690.0 -0.2604649466 -0.9670897735
1390291660.0 -0.2671319975 -0.9650437937
1395291630.0 -0.2735378228 -0.963422676
1400291600.0 -0.2795037627 -0.9619486108
1405291570.0 -0.2861401012 -0.9597065444
1410291540.0 -0.2920353427 -0.9575730925
1415291510.0 -0.2985530287 -0.9558680663
1420291480.0 -0.3046814294 -0.9536741942
1425291450.0 -0.3107387559 -0.9520721035
1430291420.0 -0.3175144246 -0.9500978527
1435291390.0 -0.3232207073 -0.9478871767
1440291360.0 -0.3296615048 -0.9456780433
1445291330.0 -0.3353262325 -0.942878226
1450291300.0 -0.3418381384 -0.9414354792
1455291270.0 -0.3479166777 -0.9388749567
1460291240.0 -0.3541045071 -0.9361696204
1465291210.0 -0.3601448258 -0.9340298232
1470291180.0 -0.3662730801 -0.9314930751
1475291150.0 -0.3726466127 -0.9285406542
1480291120.0 -0.3789596073 -0.9259804954
1485291090.0 -0.3851738518 -0.9232918438
1490291060.0 -0.3911943791 -0.9207665747
1495291030.0 -0.3966814727 -0.9184739376
1500291000.0 -0.4028576808 -0.9158187227
1505290970.0 -0.408514717 -0.9128941865
1510290940.0 -0.4144708847 -0.9103125878
1515290910.0 -0.420648494 -0.9073915099
1520290880.0 -0.426506463 -0.9049484395
1525290850.0 -0.4329557142 -0.9025238599
1530290820.0 -0.4388021828 -0.8991592489
1535290790.0 -0.4447589771 -0.8962692535
1540290760.0 -0.4502894689 -0.8927274406
1545290730.0 -0.4563265657 -0.8902371485
1550290700.0 -0.4624746368 -0.8871538056
1555290670.0 -0.4678484831 -0.8835034678
1560290640.0 -0.4740722112 -0.8813527923
1565290610.0 -0.4797846659 -0.8783281851
1570290580.0 -0.4860987752 -0.874152592
1575290550.0 -0.4913860862 -0.8711262129
1580290520.0 -0.49673024 -0.8682926114
1585290490.0 -0.5031941751 -0.8644454528
1590290460.0 -0.5085264133 -0.8609550509
1595290430.0 -0.5142247317 -0.8577731146
1600290400.0 -0.5196980063 -0.8546611515
1605290370.0 -0.5249166696 -0.8512929713
1610290340.0 -0.5308488598 -0.8473089102
1615290310.0 -0.5367256272 -0.8434744787
1620290280.0 -0.5420682763 -0.8400028527
1625290250.0 -0.5472446624 -0.8362883511
1630290220.0 -0.552790767 -0.8333689577
1635290190.0 -0.5579049984 -0.8296458151
1640290160.0 -0.5638243269 -0.8256011797
1645290130.0 -0.5688563153 -0.8215902919
1650290100.0 -0.5739349064 -0.8182683258
1655290070.0 -0.5797561293 -0.8137822995
1660290040.0 -0.5850237503 -0.8105581007
1665290010.0 -0.5899350732 -0.8063707012
1670289980.0 -0.5951454909 -0.8022136225
1675289950.0 -0.6003189813 -0.7988597388
1680289920.0 -0.6055272954 -0.7945227346
1685289890.0 -0.6112438909 -0.7902332731
1690289860.0 -0.6170484117 -0.7861071902
1695289830.0 -0.6218194566 -0.7814550837
1700289800.0 -0.6269144697 -0.7776379392
1705289770.0 -0.6323109032 -0.7737698524
1710289740.0 -0.6371620907 -0.7690982207
1715289710.0 -0.6421387728 -0.765053719
1720289680.0 -0.6468043863 -0.7609772558
1725289650.0 -0.6522971418 -0.7561978645
1730289620.0 -0.6574086681 -0.7521954372
1735289590.0 -0.6624270922 -0.7475592512
1740289560.0 -0.6671496304 -0.7431498203
1745289530.0 -0.6714661345 -0.7389958061
1750289500.0 -0.6763202484 -0.7343616876
1755289470.0 -0.6816684715 -0.7294601482
1760289440.0 -0.6862086325 -0.7254494346
1765289410.0 -0.6902878021 -0.7205089849
1770289380.0 -0.6951451989 -0.7164748971
1775289350.0 -0.6994746085 -0.7118026194
1780289320.0 -0.7042960666 -0.70710898
1785289290.0 -0.7092078667 -0.7018434812
1790289260.0 -0.7138324841 -0.69724631
1795289230.0 -0.718709082 -0.6922832929
1800289200.0 -0.7230561424 -0.6874080658
1805289170.0 -0.7279232809 -0.6827481195
1810289140.0 -0.7321113158 -0.6780719512
1815289110.0 -0.7361910523 -0.6736011233
1820289080.0 -0.7403917318 -0.6688941966
1825289050.0 -0.7447882985 -0.6638029715
1830289020.0 -0.7491541213 -0.6592972611
1835288990.0 -0.7529861473 -0.6545724866
1840288960.0 -0.757603511 -0.6495124134
1845288930.0 -0.7610402953 -0.643845927
1850288900.0 -0.7661579905 -0.6388794625
1855288870.0 -0.7700661477 -0.6338997922
1860288840.0 -0.7743238271 -0.6281411126
1865288810.0 -0.7782783076 -0.6233968286
1870288780.0 -0.7825197594 -0.6184239253
1875288750.0 -0.7867300443 -0.6133710902
1880288720.0 -0.7910162825 -0.6075721527
1885288690.0 -0.7951384918 -0.6021207629
1890288660.0 -0.798103861 -0.5966946837
1895288630.0 -0.8024514324 -0.591462751
1900288600.0 -0.8063819933 -0.5865330906
1905288570.0 -0.8100782384 -0.5809651427
1910288540.0 -0.8138489083 -0.5753033487
1915288510.0 -0.8174108608 -0.5692749113
1920288480.0 -0.8214530181 -0.5644304953
1925288450.0 -0.8247214122 -0.5587681571
1930288420.0 -0.8290058582 -0.5533584297
1935288390.0 -0.8321497734 -0.548068331
1940288360.0 -0.835295321 -0.5426195484
1945288330.0 -0.8397578983 -0.5362461233
1950288300.0 -0.8428803708 -0.5309713583
1955288270.0 -0.8463517314 -0.5245866954
1960288240.0 -0.849926558 -0.5194340004
1965288210.0 -0.8535860988 -0.5133784068
1970288180.0 -0.8566710139 -0.5075868367
1975288150.0 -0.8596321235 -0.5023697698
1980288120.0 -0.8627668991 -0.4968323314
1985288090.0 -0.8659047588 -0.4914810193
1990288060.0 -0.8693241527 -0.4854390116
1995288030.0 -0.8723065459 -0.4802286652
2000288000.0 -0.8754201299 -0.4740036561
2005287970.0 -0.8778371951 -0.4687657188
2010287940.0 -0.8814201302 -0.4631503714
2015287910.0 -0.884615722 -0.4573982689
2020287880.0 -0.8872092563 -0.4510210802
2025287850.0 -0.8901777352 -0.4451102466
2030287820.0 -0.8931515122 -0.4388980254
2035287790.0 -0.8958613694 -0.4326346185
2040287760.0 -0.8993311764 -0.4270500017
2045287730.0 -0.9016196285 -0.4207143903
2050287700.0 -0.9045523934 -0.4147308661
2055287670.0 -0.9070513532 -0.4092825516
2060287640.0 -0.9099961826 -0.4033809914
2065287610.0 -0.9122757849 -0.3972999195
2070287580.0 -0.9146075516 -0.390737086
2075287550.0 -0.9175204468 -0.3847395617
2080287520.0 -0.9195446286 -0.3784425758
2085287490.0 -0.9222822741 -0.3724256091
2090287460.0 -0.924640505 -0.3664750126
2095287430.0 -0.9268732972 -0.3605657121
2100287400.0 -0.9286028273 -0.3538174633
2105287370.0 -0.9313208271 -0.3480784859
2110287340.0 -0.9338168842 -0.341177951
2115287310.0 -0.9365164992 -0.3352726339
2120287280.0 -0.9385263925 -0.329060108
2125287250.0 -0.9399306158 -0.3229547678
2130287220.0 -0.9423677262 -0.3167576357
2135287190.0 -0.9441938638 -0.3107030463
2140287160.0 -0.9465937205 -0.3041766464
2145287130.0 -0.9484647255 -0.2970677261
2150287100.0 -0.9501033185 -0.2909659662
2155287070.0 -0.9520786524 -0.2847988719
2160287040.0 -0.9536458303 -0.2787889598
2165287010.0 -0.9557633191 -0.2725285258
2170286980.0 -0.9574520121 -0.2661654529
2175286950.0 -0.9589351033 -0.2597459134
2180286920.0 -0.9602915947 -0.2538607947
2185286890.0 -0.9618731406 -0.2479060837
2190286860.0 -0.9635686532 -0.2418261038
2195286830.0 -0.9649299818 -0.2354119304
2200286800.0 -0.9668722227 -0.2291526438
2205286770.0 -0.9676485735 -0.2221985181
2210286740.0 -0.9692322672 -0.2166241772
2215286710.0 -0.9708704028 -0.2093911881
2220286680.0 -0.9722675264 -0.2028774287
2225286650.0 -0.9736661162 -0.1966468889
2230286620.0 -0.9756634085 -0.1901202391
2235286590.0 -0.9762338091 -0.1839766205
2240286560.0 -0.977251203 -0.1771629376
2245286530.0 -0.9790007019 -0.1709721085
2250286500.0 -0.9789922966 -0.1636868792
2255286470.0 -0.9805585373 -0.1567335447
2260286440.0 -0.9812257289 -0.1507314483
2265286410.0 -0.9824684359 -0.144213862
2270286380.0 -0.983295981 -0.1374291355
2275286350.0 -0.9841996109 -0.1308388733
2280286320.0 -0.98508031 -0.1241124957
2285286290.0 -0.9856172659 -0.1178073897
2290286260.0 -0.9870846548 -0.1114581472
2295286230.0 -0.9869931114 -0.1041887249
2300286200.0 -0.9877566024 -0.0980056969
2305286170.0 -0.9887815667 -0.0910753071
2310286140.0 -0.9887463868 -0.0849818262
2315286110.0 -0.9892950832 -0.0780306296
2320286080.0 -0.9897483183 -0.0714349471
2325286050.0 -0.9899172921 -0.065055828
2330286020.0 -0.9906380022 -0.0587592862
2335285990.0 -0.9911694766 -0.0520655938
2340285960.0 -0.9907825507 -0.0455073338
2345285930.0 -0.9912616658 -0.0387762276
2350285900.0 -0.9917635101 -0.031667153
2355285870.0 -0.9914191706 -0.0252542451
2360285840.0 -0.99199458 -0.019201002
2365285810.0 -0.9922018172 -0.012027991
2370285780.0 -0.9919461637 -0.0060636675
2375285750.0 -0.9919823306 0.0007340005
2380285720.0 -0.9918939702 0.0070374156
2385285690.0 -0.9921003234 0.0133043792
2390285660.0 -0.9917571488 0.0201408371
2395285630.0 -0.9909497061 0.0267884665
2400285600.0 -0.9911713396 0.0329643591
2405285570.0 -0.9906970764 0.0395796554
2410285540.0 -0.9910066551 0.0461946217
2415285510.0 -0.9905009737 0.0524372253
2420285480.0 -0.9896363999 0.0581147639
2425285450.0 -0.9892015591 0.064776909
2430285420.0 -0.9890318391 0.0722525167
2435285390.0 -0.9885872926 0.0784961613
2440285360.0 -0.9880977707 0.0847185925
2445285330.0 -0.9867203289 0.0913785791
2450285300.0 -0.9860865484 0.0979210351
2455285270.0 -0.9856957654 0.1046628131
2460285240.0 -0.9847919706 0.1115484516
2465285210.0 -0.9842338618 0.1180234345
2470285180.0 -0.9834285609 0.1241755426
2475285150.0 -0.9824574634 0.1311555367
2480285120.0 -0.981231163 0.1373770784
2485285090.0 -0.9805834111 0.1439605156
2490285060.0 -0.9794679088 0.1506546999
2495285030.0 -0.9787195673 0.1570218755
