!Created with skrf (http://scikit-rf.org).
# Hz S RI R 50.0 
!freq ReS11 ImS11
300000.0 -0.0058488996 -0.035048865
5299970.0 0.0004960294 -5.70978e-05
10299940.0 0.0007689753 -0.0001701303
15299910.0 0.0010023821 0.0012320855
20299880.0 0.0012675295 0.0007603457
25299850.0 0.0012652449 0.0012434832
30299820.0 0.0016628872 0.0017034124
35299790.0 0.0013786818 0.0014055927
40299760.0 0.0015591701 0.0013674779
45299730.0 0.001865748 0.0016172066
50299700.0 0.0021234581 0.0018031988
55299670.0 0.0023361713 0.0019792747
60299640.0 0.0023045677 0.0019949375
65299610.0 0.0024781436 0.0019892371
70299580.0 0.0024517197 0.0020163027
75299550.0 0.0029308716 0.0019817133
80299520.0 0.0030793089 0.0020357972
85299490.0 0.00326622 0.0019959896
90299460.0 0.0033146828 0.0020059203
95299430.0 0.0033980449 0.001950018
100299400.0 0.003526781 0.0018478917
105299370.0 0.0038328027 0.0019895653
110299340.0 0.0039495747 0.0020511263
115299310.0 0.0039689914 0.0018746858
120299280.0 0.0041229917 0.0019824016
125299250.0 0.0041242211 0.0017631143
130299220.0 0.0041041322 0.0016345317
135299190.0 0.0041004621 0.0014887196
140299160.0 0.0042479118 0.0015909645
145299130.0 0.0043447197 0.0015763672
150299100.0 0.004427263 0.0014647129
155299070.0 0.0047411904 0.0014632116
160299040.0 0.0046751387 0.0014538717
165299010.0 0.0048056217 0.0013572962
170298980.0 0.0049221894 0.0012857958
175298950.0 0.0049454676 0.0012270679
180298920.0 0.0049518299 0.001271459
185298890.0 0.0047590797 0.001150795
190298860.0 0.0049919702 0.0011065054
195298830.0 0.0051716347 0.0011920621
200298800.0 0.0049951389 0.0010673651
205298770.0 0.0051398056 0.0007455559
210298740.0 0.0051779682 0.0007049157
215298710.0 0.0053150636 0.0008043842
220298680.0 0.0052042028 0.0006779449
225298650.0 0.0052328881 0.000415587
230298620.0 0.0054211754 0.0005484237
235298590.0 0.0050670706 0.000405235
240298560.0 0.0053188536 0.0003936628
245298530.0 0.0053238391 0.0003131748
250298500.0 0.0054014199 0.0004179754
255298470.0 0.0053091481 0.0001350911
260298440.0 0.0051130501 0.0002208341
265298410.0 0.0054802992 -6.87166e-05
270298380.0 0.0053167506 -5.2449e-05
275298350.0 0.0051337112 -0.0001471858
280298320.0 0.0052309124 -8.48335e-05
285298290.0 0.0053680522 -0.0001744002
290298260.0 0.005536229 -0.0004080174
295298230.0 0.0051886156 -0.0002861164
300298200.0 0.0053439112 -0.0003325826
305298170.0 0.0053366357 -0.000410002
310298140.0 0.0054511717 -0.0003494232
315298110.0 0.0051523207 -0.0005743139
320298080.0 0.0054338805 -0.0004274393
325298050.0 0.0055487594 -0.0005833717
330298020.0 0.0052484803 -0.0006143962
335297990.0 0.0055396112 -0.0005855775
340297960.0 0.0051076662 -0.0008759096
345297930.0 0.0053016198 -0.0008752095
350297900.0 0.0053796222 -0.0008486838
355297870.0 0.0053467168 -0.0009787238
360297840.0 0.0052177196 -0.0010662618
365297810.0 0.005272594 -0.0012894902
370297780.0 0.0051510342 -0.001197762
375297750.0 0.0049874095 -0.0008839445
380297720.0 0.0050725371 -0.0011787325
385297690.0 0.0052943462 -0.0011570814
390297660.0 0.0050834771 -0.0011272291
395297630.0 0.0051610964 -0.0010841407
400297600.0 0.0052046251 -0.0013126982
405297570.0 0.0050747584 -0.0012795636
410297540.0 0.0050952668 -0.0013376777
415297510.0 0.0049800448 -0.001278244
420297480.0 0.0051312631 -0.0014550073
425297450.0 0.0050332237 -0.0012998253
430297420.0 0.0050872997 -0.0014220438
435297390.0 0.0050304214 -0.0013539532
440297360.0 0.0049561401 -0.0014905603
445297330.0 0.0049527831 -0.0014772613
450297300.0 0.0049381276 -0.001579087
455297270.0 0.0049566639 -0.0015348886
460297240.0 0.0048099441 -0.0015199678
465297210.0 0.0048119011 -0.0016232042
470297180.0 0.004799009 -0.0014907633
475297150.0 0.0047137615 -0.0015414967
480297120.0 0.0047000062 -0.0018337409
485297090.0 0.0046301541 -0.0016935465
490297060.0 0.0046925256 -0.0017292738
495297030.0 0.0047262766 -0.0018336489
500297000.0 0.0046114333 -0.0017367901
505296970.0 0.0046254875 -0.0017215816
510296940.0 0.0045487129 -0.001945133
515296910.0 0.0045200889 -0.0016072898
520296880.0 0.0045184967 -0.0016962435
525296850.0 0.0044136238 -0.0020119858
530296820.0 0.0044244978 -0.0018012877
535296790.0 0.0044163968 -0.0018544241
540296760.0 0.0043514051 -0.0018619922
545296730.0 0.0042970743 -0.0019162327
550296700.0 0.004433395 -0.0019415376
555296670.0 0.0043660089 -0.0020296013
560296640.0 0.0045516915 -0.0020565331
565296610.0 0.004606093 -0.0021776559
570296580.0 0.0043516818 -0.0022907786
575296550.0 0.0043234346 -0.0019782501
580296520.0 0.0045956709 -0.0024221749
585296490.0 0.0042862058 -0.0021289484
590296460.0 0.0043677386 -0.002213622
595296430.0 0.0043582482 -0.0022818823
600296400.0 0.0043339613 -0.0024353888
605296370.0 0.0043223383 -0.0023441435
610296340.0 0.0044787659 -0.0023879669
615296310.0 0.0043136541 -0.0026254091
620296280.0 0.0041825949 -0.0024897468
625296250.0 0.0041504914 -0.0024824183
630296220.0 0.0041859761 -0.0023646081
635296190.0 0.0042329204 -0.0023937757
640296160.0 0.00398988 -0.002575637
645296130.0 0.0039345971 -0.0023874856
650296100.0 0.0039498324 -0.0025525435
655296070.0 0.0041441872 -0.0025563052
660296040.0 0.0040867299 -0.0026723515
665296010.0 0.0042448878 -0.0025366164
670295980.0 0.0040606894 -0.002497611
675295950.0 0.0040430903 -0.0025438983
680295920.0 0.0040138707 -0.0026272243
685295890.0 0.0041042184 -0.002611104
690295860.0 0.0039637784 -0.0026971176
695295830.0 0.003957545 -0.0025445838
700295800.0 0.0038336487 -0.0025928402
705295770.0 0.004055929 -0.0025686183
710295740.0 0.0040092007 -0.0026511936
715295710.0 0.0040350546 -0.0027145138
720295680.0 0.0038251029 -0.0026255719
725295650.0 0.003932836 -0.0027193141
730295620.0 0.0038754656 -0.0027481134
735295590.0 0.0039011122 -0.0026288425
740295560.0 0.004047741 -0.0027621735
745295530.0 0.0038138718 -0.0027015104
750295500.0 0.0037823983 -0.0027025658
755295470.0 0.0039097817 -0.0029141015
760295440.0 0.0036986013 -0.0028954589
765295410.0 0.0036457723 -0.0026996396
770295380.0 0.0038091376 -0.0029725323
775295350.0 0.0036605544 -0.0027812121
780295320.0 0.0036570599 -0.0028391921
785295290.0 0.0036421071 -0.0030808314
790295260.0 0.0037095044 -0.0029892271
795295230.0 0.0037511037 -0.0030444282
800295200.0 0.0036507919 -0.0030520149
805295170.0 0.0036848268 -0.0030301362
810295140.0 0.0037885464 -0.0031719308
815295110.0 0.0035824012 -0.0031004867
820295080.0 0.0037539436 -0.0031266963
825295050.0 0.0036233099 -0.0029321122
830295020.0 0.0035668913 -0.0031386516
835294990.0 0.0037303751 -0.0034175081
840294960.0 0.0036946979 -0.0031309606
845294930.0 0.0036416706 -0.0031229312
850294900.0 0.0034983705 -0.0033511609
855294870.0 0.0036876221 -0.002912118
860294840.0 0.0035861932 -0.0033350488
865294810.0 0.0035177524 -0.0033632234
870294780.0 0.0035313181 -0.003288477
875294750.0 0.0034259526 -0.0033403992
880294720.0 0.0035805388 -0.00340826
885294690.0 0.0036796999 -0.0032741274
890294660.0 0.0035270154 -0.0033095492
895294630.0 0.0036011554 -0.0031660582
900294600.0 0.0036168421 -0.0034079726
905294570.0 0.0035816448 -0.003382393
910294540.0 0.00336323 -0.0036496938
915294510.0 0.0035050783 -0.0035741739
920294480.0 0.0032783759 -0.0034880174
925294450.0 0.0034786295 -0.0033886206
930294420.0 0.0035478166 -0.0036722384
935294390.0 0.0035815639 -0.003410887
940294360.0 0.0034554121 -0.0032574825
945294330.0 0.0034112619 -0.003586797
950294300.0 0.0032864995 -0.0036843782
955294270.0 0.0032177534 -0.0036150126
960294240.0 0.0034628256 -0.0035799985
965294210.0 0.0032786799 -0.0037657016
970294180.0 0.0035083909 -0.0035559473
975294150.0 0.0032759723 -0.0038150265
980294120.0 0.0035366616 -0.0035613626
985294090.0 0.0032153298 -0.0036682805
990294060.0 0.0031210586 -0.0038074781
995294030.0 0.0033203609 -0.0037210152
1000294000.0 0.0031529009 -0.0037210688
1005293970.0 0.0031898488 -0.0037829985
1010293940.0 0.0033575742 -0.0037379261
1015293910.0 0.0032052299 -0.0039122634
1020293880.0 0.0032889707 -0.0037936788
1025293850.0 0.0032959162 -0.0040006589
1030293820.0 0.0032806685 -0.003870827
1035293790.0 0.0034392595 -0.0039558762
1040293760.0 0.0034053966 -0.0040137291
1045293730.0 0.0034822914 -0.0040982466
1050293700.0 0.0031672394 -0.0040740238
1055293670.0 0.0035497471 -0.0038532295
1060293640.0 0.0032429388 -0.0041718868
1065293610.0 0.0032285657 -0.0038933692
1070293580.0 0.0031546681 -0.0041948866
1075293550.0 0.0032381697 -0.0040378499
1080293520.0 0.0034251478 -0.0041042819
1085293490.0 0.0033776731 -0.0041352238
1090293460.0 0.0033477648 -0.0040681867
1095293430.0 0.0034258757 -0.0041346602
1100293400.0 0.0033818217 -0.0041661677
1105293370.0 0.0032462231 -0.0043216061
1110293340.0 0.0032628771 -0.0042089808
1115293310.0 0.0032714132 -0.0043799118
1120293280.0 0.0032251596 -0.0042731115
1125293250.0 0.0033067869 -0.0045534421
1130293220.0 0.003153413 -0.0043342837
1135293190.0 0.0028432997 -0.0043250165
1140293160.0 0.0031275231 -0.0040178122
1145293130.0 0.0029566872 -0.0040594793
1150293100.0 0.0029649106 -0.0040801285
1155293070.0 0.0027680073 -0.0041343445
1160293040.0 0.0027981473 -0.0041859432
1165293010.0 0.0028291041 -0.0042228992
1170292980.0 0.0028661569 -0.0043345161
1175292950.0 0.0029455428 -0.004388938
1180292920.0 0.0029943755 -0.0042843709
1185292890.0 0.0031776485 -0.0042162323
1190292860.0 0.0032763917 -0.0044969353
1195292830.0 0.003147711 -0.0044658513
1200292800.0 0.0032981736 -0.0045445736
1205292770.0 0.0032453873 -0.0045774167
1210292740.0 0.0032645691 -0.0045888884
1215292710.0 0.0030789843 -0.0045855833
1220292680.0 0.0031630363 -0.0046529199
1225292650.0 0.0030874609 -0.0046820244
1230292620.0 0.0032051299 -0.0048931371
1235292590.0 0.0031252586 -0.0046451502
1240292560.0 0.0031081146 -0.0048947855
1245292530.0 0.003313838 -0.0046492268
1250292500.0 0.0030521611 -0.0048659454
1255292470.0 0.0030721652 -0.0049129168
1260292440.0 0.0032769314 -0.0048847014
1265292410.0 0.0032823636 -0.00489906
1270292380.0 0.0031638466 -0.0050103808
1275292350.0 0.0030096649 -0.0048088373
1280292320.0 0.0033660459 -0.0048909306
1285292290.0 0.0031240959 -0.0048068885
1290292260.0 0.0032514584 -0.0048992788
1295292230.0 0.003415705 -0.0050078438
1300292200.0 0.0032792771 -0.0048134538
1305292170.0 0.003185146 -0.0048343293
1310292140.0 0.0031531676 -0.0051144747
1315292110.0 0.003181957 -0.0049911826
1320292080.0 0.0033640117 -0.004958149
1325292050.0 0.0034049352 -0.0050319919
1330292020.0 0.0033190855 -0.0051394189
1335291990.0 0.0031617576 -0.0052635825
1340291960.0 0.0031881515 -0.0051721593
1345291930.0 0.0032880159 -0.0051713871
1350291900.0 0.0031504191 -0.0053401133
1355291870.0 0.003296939 -0.0052292126
1360291840.0 0.0029735416 -0.0052650371
1365291810.0 0.0032189187 -0.0051215966
1370291780.0 0.0032004515 -0.0052074986
1375291750.0 0.0032650709 -0.0052252655
1380291720.0 0.0030602061 -0.0051833808
1385291690.0 0.0029612435 -0.0054460735
1390291660.0 0.0032091679 -0.005436231
1395291630.0 0.0034065718 -0.0053619804
1400291600.0 0.003219126 -0.0054079779
1405291570.0 0.0030243097 -0.0055559948
1410291540.0 0.0032018748 -0.0055336739
1415291510.0 0.00322705 -0.005493896
1420291480.0 0.0031296525 -0.0054905242
1425291450.0 0.0030256592 -0.0055143516
1430291420.0 0.0033186112 -0.0056881607
1435291390.0 0.003126755 -0.005581353
1440291360.0 0.0031770987 -0.0056692112
1445291330.0 0.0030862451 -0.0056328485
1450291300.0 0.0034021495 -0.0056303817
1455291270.0 0.0032951711 -0.0056072498
1460291240.0 0.0030913382 -0.0055362885
1465291210.0 0.0032237735 -0.0054672286
1470291180.0 0.0032140572 -0.005732008
1475291150.0 0.0032111591 -0.0054957056
1480291120.0 0.003064446 -0.0057786265
1485291090.0 0.0032419027 -0.0056838523
1490291060.0 0.0033542327 -0.0057768467
1495291030.0 0.0031422644 -0.0058556505
1500291000.0 0.0031240572 -0.0056978461
1505290970.0 0.0029411238 -0.0060027844
1510290940.0 0.0033308531 -0.0059365432
1515290910.0 0.0031596795 -0.005896951
1520290880.0 0.0031408958 -0.0058904869
1525290850.0 0.0033109437 -0.0060164461
1530290820.0 0.0031458332 -0.0059291429
1535290790.0 0.0031051822 -0.0060348664
1540290760.0 0.0032401448 -0.0060354794
1545290730.0 0.0032322101 -0.0057663848
1550290700.0 0.0031354177 -0.0060046649
1555290670.0 0.0031635396 -0.0059978637
1560290640.0 0.0031073326 -0.0060529274
1565290610.0 0.0031128414 -0.0061917893
1570290580.0 0.0032150981 -0.0059828145
1575290550.0 0.003268679 -0.006200691
1580290520.0 0.0032989549 -0.0060617207
1585290490.0 0.0030478133 -0.0062593394
1590290460.0 0.0030873976 -0.006080748
1595290430.0 0.0032564049 -0.0062286436
1600290400.0 0.002999424 -0.0061999061
1605290370.0 0.0032216176 -0.0062373881
1610290340.0 0.0032437445 -0.0061836527
1615290310.0 0.003237171 -0.0061509931
1620290280.0 0.0032605514 -0.0061355301
1625290250.0 0.0031089062 -0.0063029203
1630290220.0 0.0031574349 -0.006316568
1635290190.0 0.0032876953 -0.0061718269
1640290160.0 0.0032160511 -0.0066081368
1645290130.0 0.0033878173 -0.0064266879
1650290100.0 0.0031983762 -0.0064197988
1655290070.0 0.0031397307 -0.0063596139
1660290040.0 0.0032847829 -0.0064325107
1665290010.0 0.0033193007 -0.0065691603
1670289980.0 0.0032080614 -0.0063843223
1675289950.0 0.0032173503 -0.006494328
1680289920.0 0.0031337613 -0.0063021831
1685289890.0 0.0029088267 -0.0063169335
1690289860.0 0.0032592126 -0.0065550968
1695289830.0 0.0030418377 -0.0066534863
1700289800.0 0.0031934521 -0.006458157
1705289770.0 0.0031636647 -0.0065662676
1710289740.0 0.0031840147 -0.0064534061
1715289710.0 0.0032061773 -0.0066921508
1720289680.0 0.003050007 -0.006606387
1725289650.0 0.0032112747 -0.0066684417
1730289620.0 0.0032909087 -0.0066167191
1735289590.0 0.0031524525 -0.0063651994
1740289560.0 0.0032081429 -0.0065183869
1745289530.0 0.0031491374 -0.0066699458
1750289500.0 0.0029629088 -0.0068651252
1755289470.0 0.0031238169 -0.0066273345
1760289440.0 0.0032801619 -0.0066077251
1765289410.0 0.0031945029 -0.0068158349
1770289380.0 0.0033070782 -0.0067737541
1775289350.0 0.0030756686 -0.0066569297
1780289320.0 0.0034196898 -0.0068074302
1785289290.0 0.0030435128 -0.0067697718
1790289260.0 0.0030181466 -0.0068654431
1795289230.0 0.0032229678 -0.006896342
1800289200.0 0.0033148118 -0.0068333084
1805289170.0 0.0030186771 -0.0067966869
1810289140.0 0.0030983885 -0.0069389657
1815289110.0 0.0030020313 -0.0068875731
1820289080.0 0.0033419721 -0.0067209781
1825289050.0 0.0032207915 -0.0069971887
1830289020.0 0.0031085122 -0.0069066933
1835288990.0 0.0030459762 -0.0068735131
1840288960.0 0.0032316812 -0.0068693617
1845288930.0 0.0030186438 -0.0069609683
1850288900.0 0.0029101742 -0.0070468179
1855288870.0 0.0031916552 -0.0069967921
1860288840.0 0.0030673959 -0.0071746952
1865288810.0 0.0030275058 -0.0069163138
1870288780.0 0.0032892541 -0.00697309
1875288750.0 0.0031782288 -0.0069590189
1880288720.0 0.0029566327 -0.007056909
1885288690.0 0.0029566105 -0.0070482383
1890288660.0 0.0031490902 -0.0070652356
1895288630.0 0.0029796015 -0.0071319548
1900288600.0 0.0031857909 -0.0069556513
1905288570.0 0.002982315 -0.0073358498
1910288540.0 0.0032001305 -0.0071661571
1915288510.0 0.0030957999 -0.0071196989
1920288480.0 0.0030926875 -0.0071732871
1925288450.0 0.0030751291 -0.0071978933
1930288420.0 0.0030718763 -0.0071389754
1935288390.0 0.0030877708 -0.0071763841
1940288360.0 0.0030624153 -0.0071809329
1945288330.0 0.002892668 -0.0071730093
1950288300.0 0.0030826435 -0.0070827611
1955288270.0 0.0030272737 -0.0072417118
1960288240.0 0.0030085829 -0.0072461898
1965288210.0 0.0032288477 -0.0071181374
1970288180.0 0.0030802437 -0.007038483
1975288150.0 0.0031724017 -0.0072508806
1980288120.0 0.0032344988 -0.0073757671
1985288090.0 0.0031253659 -0.0072513664
1990288060.0 0.0031155616 -0.0073523748
1995288030.0 0.0030648098 -0.0071308997
2000288000.0 0.0029279573 -0.0073142634
2005287970.0 0.0031115451 -0.0071260691
2010287940.0 0.0029039862 -0.0070690651
2015287910.0 0.0029865151 -0.0072800527
2020287880.0 0.0029927994 -0.007287045
2025287850.0 0.0031004836 -0.0073960612
2030287820.0 0.0029631013 -0.0074120919
2035287790.0 0.0027835204 -0.0072463262
2040287760.0 0.0029378747 -0.0071744813
2045287730.0 0.003011613 -0.0072820384
2050287700.0 0.0030659943 -0.0073975725
2055287670.0 0.0030658925 -0.0073404924
2060287640.0 0.0029696854 -0.0073879693
2065287610.0 0.0029638332 -0.0073031767
2070287580.0 0.0027897306 -0.0075291365
2075287550.0 0.0027304213 -0.007338648
2080287520.0 0.0028484822 -0.0075370387
2085287490.0 0.0028354755 -0.0073051681
2090287460.0 0.0027480827 -0.0074801172
2095287430.0 0.002840413 -0.0073841826
2100287400.0 0.002797778 -0.0072367461
2105287370.0 0.0029623256 -0.007614714
2110287340.0 0.0028733485 -0.0074215453
2115287310.0 0.0027368431 -0.0073188461
2120287280.0 0.0026983941 -0.0073776278
2125287250.0 0.0027392896 -0.0071978516
2130287220.0 0.002718389 -0.0076210613
2135287190.0 0.0027633103 -0.0075430493
2140287160.0 0.0026552386 -0.0073038235
2145287130.0 0.0029796699 -0.0074807703
2150287100.0 0.0026312276 -0.0072243512
2155287070.0 0.0026871727 -0.007507948
2160287040.0 0.0026422997 -0.0073709591
2165287010.0 0.0027591017 -0.0074983418
2170286980.0 0.0026682451 -0.0073394206
2175286950.0 0.0027336698 -0.0074771136
2180286920.0 0.0027652172 -0.0075018895
2185286890.0 0.0024353154 -0.0074511456
2190286860.0 0.0026115287 -0.0074425853
2195286830.0 0.0027203881 -0.0074563971
2200286800.0 0.0025532339 -0.0075197714
2205286770.0 0.0026361834 -0.0073679335
2210286740.0 0.0026801335 -0.0074668765
2215286710.0 0.0026311539 -0.0077286333
2220286680.0 0.0027255726 -0.0075896095
2225286650.0 0.0026094056 -0.0074749865
2230286620.0 0.0024848288 -0.0075084462
2235286590.0 0.0022762798 -0.0075214849
2240286560.0 0.0024292771 -0.0076057583
2245286530.0 0.0023793328 -0.007536059
2250286500.0 0.002383194 -0.0075049773
2255286470.0 0.0022835555 -0.0075593473
2260286440.0 0.0024684639 -0.0074133086
2265286410.0 0.0024201117 -0.0075939183
2270286380.0 0.0022034277 -0.0075564358
2275286350.0 0.0023833461 -0.0077431312
2280286320.0 0.0023695645 -0.0074932419
2285286290.0 0.0020364372 -0.0075952108
2290286260.0 0.0023799177 -0.0076319
2295286230.0 0.0022314313 -0.0075189353
2300286200.0 0.0022902671 -0.0075506925
2305286170.0 0.0022962703 -0.0073101737
2310286140.0 0.0022907482 -0.0076643036
2315286110.0 0.0022293718 -0.0076124519
2320286080.0 0.002193168 -0.0076074988
2325286050.0 0.002003788 -0.0075616558
2330286020.0 0.0020659907 -0.0075576608
2335285990.0 0.0020462955 -0.0077092392
2340285960.0 0.0021245686 -0.0076869371
2345285930.0 0.0020500067 -0.007354111
2350285900.0 0.0019699541 -0.0077460699
2355285870.0 0.0020064212 -0.007471053
2360285840.0 0.0019188068 -0.0076808599
2365285810.0 0.0019976689 -0.0074752797
2370285780.0 0.0020951852 -0.007667665
2375285750.0 0.0018334767 -0.007705818
2380285720.0 0.0019421304 -0.0076089883
2385285690.0 0.0017983241 -0.0075298774
2390285660.0 0.0020574668 -0.0073550779
2395285630.0 0.0018733022 -0.0076684826
2400285600.0 0.0016286498 -0.0075678383
2405285570.0 0.0019377064 -0.007564346
2410285540.0 0.0017073173 -0.0078064125
2415285510.0 0.0018049709 -0.007692327
2420285480.0 0.0016568632 -0.0075861953
2425285450.0 0.0019388372 -0.0076350372
2430285420.0 0.0017492209 -0.0075414076
2435285390.0 0.0015030792 -0.0076543894
2440285360.0 0.0015580029 -0.0078177407
2445285330.0 0.0014802906 -0.0077968251
2450285300.0 0.0016481375 -0.0076723285
2455285270.0 0.0014776054 -0.0076940807
2460285240.0 0.0014948064 -0.0076924848
2465285210.0 0.0014527526 -0.0076099362
2470285180.0 0.0011690394 -0.007907657
2475285150.0 0.0013467223 -0.0076502072
2480285120.0 0.0016512834 -0.0077194492
2485285090.0 0.0014491506 -0.0076407493
2490285060.0 0.001371918 -0.0076639997
2495285030.0 0.0014149889 -0.0076735913
2500285000.0 0.0012305555 -0.0076891282
2505284970.0 0.0016075157 -0.0073760379
2510284940.0 0.0012263382 -0.0075522694
2515284910.0 0.0012406272 -0.007651259
2520284880.0 0.0013398184 -0.0075792924
2525284850.0 0.0013263573 -0.0078844773
2530284820.0 0.0012662026 -0.0077382488
