!Created with skrf (http://scikit-rf.org).
# Hz S RI R 50.0 
!freq ReS11 ImS11
300000.0 -1.01680813 -0.0908507175
5299970.0 -1.001552251 0.0112342181
10299940.0 -1.000030486 0.0138630028
15299910.0 -0.9991005064 0.0255447725
20299880.0 -0.9992162082 0.0290881711
25299850.0 -0.9985226921 0.0375851028
30299820.0 -0.9984026183 0.0454249702
35299790.0 -0.9979942629 0.050159733
40299760.0 -0.9970053913 0.0573431307
45299730.0 -0.9964652182 0.0640587065
50299700.0 -0.9957734222 0.071386646
55299670.0 -0.9947831123 0.0783855235
60299640.0 -0.9944194308 0.0850325997
65299610.0 -0.9937752054 0.0918195049
70299580.0 -0.9929932854 0.0986138273
75299550.0 -0.9915582792 0.1052405815
80299520.0 -0.9910144297 0.1119220506
85299490.0 -0.9900882112 0.1186477935
90299460.0 -0.9888541018 0.1254886628
95299430.0 -0.9878674932 0.1330325095
100299400.0 -0.98691744 0.1395831263
105299370.0 -0.9859681792 0.1462430895
110299340.0 -0.9849451974 0.1530823076
115299310.0 -0.9836328072 0.1596036081
120299280.0 -0.9822864749 0.1660579651
125299250.0 -0.9812284194 0.1729420996
130299220.0 -0.9798581643 0.179995855
135299190.0 -0.9783375533 0.1863737166
140299160.0 -0.9771132362 0.1932328384
145299130.0 -0.9760382804 0.1996390985
150299100.0 -0.9736783774 0.2063123258
155299070.0 -0.9731803474 0.2132381011
160299040.0 -0.9709560795 0.2199053457
165299010.0 -0.969257826 0.2269889138
170298980.0 -0.9675100428 0.2326610534
175298950.0 -0.9642524486 0.2386961911
180298920.0 -0.9621214072 0.2450548877
185298890.0 -0.9615007389 0.251757229
190298860.0 -0.9610807578 0.259712715
195298830.0 -0.959287724 0.2655313805
200298800.0 -0.9576583341 0.2721409631
205298770.0 -0.9555990309 0.2798957765
210298740.0 -0.9536684577 0.2857126236
215298710.0 -0.9515233946 0.2923260433
220298680.0 -0.9494875803 0.2982576511
225298650.0 -0.9471588596 0.3048913412
230298620.0 -0.9447020988 0.3119127383
235298590.0 -0.9431639889 0.317699263
240298560.0 -0.9408271087 0.3246354643
245298530.0 -0.9385049789 0.3309140397
250298500.0 -0.9359927762 0.3372393785
255298470.0 -0.9338487268 0.3432105248
260298440.0 -0.9312492439 0.3498992528
265298410.0 -0.9288829776 0.3568627167
270298380.0 -0.9264025578 0.3621575931
275298350.0 -0.923993312 0.3684299419
280298320.0 -0.9212807513 0.3755047051
285298290.0 -0.9186264362 0.3811357394
290298260.0 -0.9164410902 0.3875462886
295298230.0 -0.9130268646 0.3940478466
300298200.0 -0.9109396844 0.4001982262
305298170.0 -0.9076475975 0.4058092035
310298140.0 -0.9048514683 0.4124318124
315298110.0 -0.9025995049 0.4187596606
320298080.0 -0.8993149153 0.4246780009
325298050.0 -0.8962429628 0.4306651961
330298020.0 -0.8933225137 0.4377852303
335297990.0 -0.8902021173 0.4431226811
340297960.0 -0.8870157773 0.4495155565
345297930.0 -0.8845571861 0.4555003092
350297900.0 -0.8815784125 0.4615257833
355297870.0 -0.8782698714 0.4675402815
360297840.0 -0.8750472562 0.4739104958
365297810.0 -0.8720859617 0.4794647005
370297780.0 -0.8689019898 0.4849029225
375297750.0 -0.8644134671 0.4911410815
380297720.0 -0.8610249275 0.4971922018
385297690.0 -0.8579736814 0.5027892621
390297660.0 -0.8535188918 0.508792093
395297630.0 -0.8511735696 0.5150554785
400297600.0 -0.8471260975 0.5203382548
405297570.0 -0.8427713817 0.5263128338
410297540.0 -0.8398438019 0.5318409864
415297510.0 -0.8360977184 0.5372411957
420297480.0 -0.8324513923 0.5432296847
425297450.0 -0.8284497282 0.5489629793
430297420.0 -0.8246571427 0.5547749586
435297390.0 -0.8212585379 0.5607247795
440297360.0 -0.8172441995 0.5660462634
445297330.0 -0.8129088534 0.5715427861
450297300.0 -0.8091024539 0.5773049408
455297270.0 -0.8051629652 0.5823931594
460297240.0 -0.8015648434 0.5878638091
465297210.0 -0.7974961169 0.593881486
470297180.0 -0.7929923735 0.5987253918
475297150.0 -0.7889106824 0.6045085818
480297120.0 -0.7851239312 0.609766383
485297090.0 -0.7802321207 0.6145350185
490297060.0 -0.7766510609 0.6204830734
495297030.0 -0.7723436843 0.6251547773
500297000.0 -0.7675480617 0.6304289924
505296970.0 -0.7637691902 0.6366988507
510296940.0 -0.7592898618 0.6406969708
515296910.0 -0.7557907824 0.6464867554
520296880.0 -0.7511243232 0.6515388761
525296850.0 -0.7462279222 0.656997259
530296820.0 -0.7418976654 0.6621269455
535296790.0 -0.737468637 0.6673567056
540296760.0 -0.7330856816 0.6716230827
545296730.0 -0.7279606469 0.6775766079
550296700.0 -0.7231190541 0.6823154125
555296670.0 -0.7185459377 0.6859924425
560296640.0 -0.7140431842 0.6910085855
565296610.0 -0.7082902571 0.6959788184
570296580.0 -0.7035365199 0.700842022
575296550.0 -0.6984119294 0.7058948684
580296520.0 -0.6933397928 0.7107678327
585296490.0 -0.689096209 0.7151576907
590296460.0 -0.6845627514 0.7199855458
595296430.0 -0.6792245048 0.7246523436
600296400.0 -0.6743371861 0.7294105397
605296370.0 -0.6688041529 0.7337041602
610296340.0 -0.6640011374 0.7384262038
615296310.0 -0.6589715904 0.7426880206
620296280.0 -0.6537883732 0.7467437537
625296250.0 -0.6494762379 0.7514594102
630296220.0 -0.6437899047 0.7557152261
635296190.0 -0.638354987 0.7602936172
640296160.0 -0.6335030044 0.7645348704
645296130.0 -0.628352652 0.7689759275
650296100.0 -0.6230997119 0.7733480643
655296070.0 -0.6178707943 0.77715661
660296040.0 -0.612268783 0.7807562563
665296010.0 -0.6070123624 0.7852040918
670295980.0 -0.6015486483 0.7893590078
675295950.0 -0.5956654663 0.7938402385
680295920.0 -0.5899604638 0.7981107847
685295890.0 -0.5851668443 0.8020822619
690295860.0 -0.5795509123 0.8058648411
695295830.0 -0.5742696119 0.8099525003
700295800.0 -0.5685267377 0.8142260735
705295770.0 -0.5629686579 0.8179680639
710295740.0 -0.5575126831 0.8215840318
715295710.0 -0.5517856513 0.8254421531
720295680.0 -0.5458241633 0.8289353793
725295650.0 -0.5404176987 0.832192301
730295620.0 -0.5348396229 0.8359327246
735295590.0 -0.5293663853 0.8395590155
740295560.0 -0.5237097733 0.8432353455
745295530.0 -0.5177585873 0.8466023901
750295500.0 -0.5109805826 0.8507468996
755295470.0 -0.5058357452 0.8534065263
760295440.0 -0.4996846335 0.8573006293
765295410.0 -0.4941621132 0.860481189
770295380.0 -0.4882996926 0.8639926363
775295350.0 -0.481544161 0.867260984
780295320.0 -0.4760564907 0.8710030702
785295290.0 -0.469824989 0.8737086873
790295260.0 -0.4642770524 0.87685021
795295230.0 -0.4576480909 0.8801367025
800295200.0 -0.451666526 0.8829579899
805295170.0 -0.4458228753 0.8862172546
810295140.0 -0.4396288428 0.88888724
815295110.0 -0.4334693739 0.891968251
820295080.0 -0.4274498302 0.8948122387
825295050.0 -0.4216101668 0.8976155553
830295020.0 -0.4153247087 0.9010202795
835294990.0 -0.4091605185 0.9034519943
840294960.0 -0.4025385232 0.9058240247
845294930.0 -0.3968484797 0.9085829801
850294900.0 -0.3913435367 0.9116749701
855294870.0 -0.3839433508 0.9144860377
860294840.0 -0.3779018908 0.9167799394
865294810.0 -0.3715848906 0.9194450513
870294780.0 -0.3655329711 0.9216291147
875294750.0 -0.359185035 0.9240993494
880294720.0 -0.3531410062 0.9266805635
885294690.0 -0.3463642702 0.9291432459
890294660.0 -0.3399000656 0.9312228715
895294630.0 -0.3337125606 0.9330777092
900294600.0 -0.3277738513 0.9358591319
905294570.0 -0.3210046959 0.9373121342
910294540.0 -0.314400337 0.9390452116
915294510.0 -0.3081787405 0.9418229008
920294480.0 -0.3016607629 0.9439652763
925294450.0 -0.2950415331 0.9459505369
930294420.0 -0.288540347 0.9479711252
935294390.0 -0.2821192728 0.94916376
940294360.0 -0.27569714 0.9519604296
945294330.0 -0.2694796794 0.953034036
950294300.0 -0.2627546641 0.9552556251
955294270.0 -0.2559412862 0.957207775
960294240.0 -0.2494627481 0.9585753236
965294210.0 -0.2429103306 0.9601482106
970294180.0 -0.2354187645 0.9618915036
975294150.0 -0.229958145 0.9638139202
980294120.0 -0.2234473626 0.9656590062
985294090.0 -0.2162909008 0.9665033683
990294060.0 -0.2103801386 0.9678792856
995294030.0 -0.2033866431 0.9695530522
1000294000.0 -0.1969375428 0.9705875259
1005293970.0 -0.1898824268 0.9718030421
1010293940.0 -0.1833594522 0.973298341
1015293910.0 -0.1768848936 0.9739638923
1020293880.0 -0.1702246484 0.9751830141
1025293850.0 -0.1641894117 0.9768387081
1030293820.0 -0.156896455 0.9776807505
1035293790.0 -0.1507036602 0.9781462226
1040293760.0 -0.1440489172 0.9794852229
1045293730.0 -0.1368538789 0.9805931298
1050293700.0 -0.1299204224 0.9813982199
1055293670.0 -0.1231506799 0.9822715501
1060293640.0 -0.1164126461 0.9830299771
1065293610.0 -0.1098897927 0.9836556191
1070293580.0 -0.1034500693 0.9848265239
1075293550.0 -0.097028417 0.9847130414
1080293520.0 -0.0897778028 0.9862185775
1085293490.0 -0.0827708857 0.98604362
1090293460.0 -0.075887278 0.9869367584
1095293430.0 -0.0688024838 0.9873689181
1100293400.0 -0.0624705323 0.9881398622
1105293370.0 -0.0552064509 0.9878532164
1110293340.0 -0.0485873317 0.9880957163
1115293310.0 -0.04210754 0.9889464519
1120293280.0 -0.0355155015 0.9887979854
1125293250.0 -0.029135248 0.9893155396
1130293220.0 -0.0225393125 0.9900045771
1135293190.0 -0.0158440403 0.98970284
1140293160.0 -0.0089942177 0.990115258
1145293130.0 -0.0021244715 0.9899558904
1150293100.0 0.004867171 0.9900936111
1155293070.0 0.0116615756 0.9898694262
1160293040.0 0.0183047619 0.989602292
1165293010.0 0.0251950682 0.9898120084
1170292980.0 0.0310530937 0.9893294549
1175292950.0 0.0383082567 0.9888376749
1180292920.0 0.0449029297 0.9886693249
1185292890.0 0.0519913927 0.988506812
1190292860.0 0.0583825586 0.9879302715
1195292830.0 0.0654437351 0.9868906706
1200292800.0 0.0722484414 0.9867615217
1205292770.0 0.0783946772 0.9861876144
1210292740.0 0.0854187825 0.9860466195
1215292710.0 0.0923636258 0.9852233081
1220292680.0 0.0991321794 0.9845571584
1225292650.0 0.1061805262 0.9835340398
1230292620.0 0.1124159551 0.9828449328
1235292590.0 0.1192038117 0.9819951931
1240292560.0 0.1258267115 0.9815698236
1245292530.0 0.1331075997 0.980595328
1250292500.0 0.1394593581 0.9793317373
1255292470.0 0.1460490832 0.9788777695
1260292440.0 0.1526890886 0.9776597024
1265292410.0 0.1598596462 0.9767057391
1270292380.0 0.166600565 0.9756404018
1275292350.0 0.1729738917 0.9742541493
1280292320.0 0.1793435923 0.9733102455
1285292290.0 0.1857822646 0.9715832949
1290292260.0 0.1932234655 0.9708467745
1295292230.0 0.1993189313 0.9693364909
1300292200.0 0.2061861031 0.9677903348
1305292170.0 0.2124211175 0.9659549749
1310292140.0 0.2193146742 0.9649820957
1315292110.0 0.2259732706 0.9632051231
1320292080.0 0.2325719809 0.9622115408
1325292050.0 0.2389126722 0.9603474835
1330292020.0 0.2461775093 0.9587780107
1335291990.0 0.2522087904 0.9564688129
1340291960.0 0.2587952912 0.9545440411
1345291930.0 0.2662907559 0.9530195808
1350291900.0 0.272141338 0.9509644632
1355291870.0 0.2786281204 0.9493109245
1360291840.0 0.2845344535 0.9475310621
1365291810.0 0.2910370724 0.9457211066
1370291780.0 0.2983003275 0.9437854771
1375291750.0 0.3034472337 0.9415303007
1380291720.0 0.3105415032 0.9395164422
1385291690.0 0.316776031 0.9368533118
1390291660.0 0.3237714147 0.9353384761
1395291630.0 0.3302055578 0.9325159693
1400291600.0 0.336393785 0.9300028668
1405291570.0 0.342595251 0.9284118151
1410291540.0 0.3488118146 0.9258128405
1415291510.0 0.3551469871 0.9237825199
1420291480.0 0.3616493222 0.9207842052
1425291450.0 0.368327395 0.9186706939
1430291420.0 0.3745981093 0.9163474293
1435291390.0 0.3799391722 0.9138709042
1440291360.0 0.3859280365 0.9109553614
1445291330.0 0.3927005478 0.9085539684
1450291300.0 0.3981589967 0.905960151
1455291270.0 0.4042720016 0.9031158524
1460291240.0 0.4104891592 0.9002600605
1465291210.0 0.416873051 0.8976402764
1470291180.0 0.4231978283 0.8941439413
1475291150.0 0.4292035169 0.8914108252
1480291120.0 0.4358077231 0.8886725447
1485291090.0 0.4417185497 0.8857009001
1490291060.0 0.4476027287 0.8833358647
1495291030.0 0.4536632079 0.8800931198
1500291000.0 0.4596276013 0.8763280344
1505290970.0 0.4647168729 0.8732357679
1510290940.0 0.4714253207 0.87032159
1515290910.0 0.4772927437 0.8660731021
1520290880.0 0.4828435566 0.8634092338
1525290850.0 0.4887916256 0.860440323
1530290820.0 0.4947833442 0.857080645
1535290790.0 0.5010684576 0.8537061545
1540290760.0 0.5070823425 0.8502124035
1545290730.0 0.5126720672 0.8466979012
1550290700.0 0.5191368102 0.8423181991
1555290670.0 0.5245500366 0.8391739586
1560290640.0 0.5294647291 0.835841505
1565290610.0 0.5361717811 0.8321422136
1570290580.0 0.5409452872 0.8287061229
1575290550.0 0.5471135738 0.8252208511
1580290520.0 0.5527395242 0.8212017491
1585290490.0 0.5591495359 0.8173211612
1590290460.0 0.5638275781 0.8135754813
1595290430.0 0.5691657679 0.8088372764
1600290400.0 0.5747739279 0.8056746146
1605290370.0 0.5802275324 0.8018111124
1610290340.0 0.5863122395 0.7977081817
1615290310.0 0.5915146517 0.794038205
1620290280.0 0.5973033402 0.7891277545
1625290250.0 0.6020275928 0.7857039423
1630290220.0 0.6072253323 0.7820535324
1635290190.0 0.6126126832 0.7773903822
1640290160.0 0.6176075567 0.7728953425
1645290130.0 0.6227138482 0.7689372361
1650290100.0 0.628650008 0.7648045918
1655290070.0 0.6333118958 0.7605964911
1660290040.0 0.6390303059 0.7562944106
1665290010.0 0.6443037845 0.7520284414
1670289980.0 0.6488744615 0.7475347072
1675289950.0 0.6537207879 0.7425005679
1680289920.0 0.6594354291 0.7385661842
1685289890.0 0.6646385551 0.7331263692
1690289860.0 0.6699755669 0.7288545938
1695289830.0 0.6748406849 0.7236291838
1700289800.0 0.6796058468 0.7200020715
1705289770.0 0.6847153185 0.715063106
1710289740.0 0.6894223156 0.7099250261
1715289710.0 0.6943073134 0.7055070824
1720289680.0 0.6993863658 0.7006498277
1725289650.0 0.704637499 0.6958818379
1730289620.0 0.7079802355 0.6915027317
1735289590.0 0.7137007165 0.6866325101
1740289560.0 0.7180807173 0.6821842413
1745289530.0 0.7227996858 0.6776849863
1750289500.0 0.7272518815 0.6715756719
1755289470.0 0.7317452029 0.66657992
1760289440.0 0.7362858314 0.6621063408
1765289410.0 0.740790701 0.6570255064
1770289380.0 0.745979691 0.6524473855
1775289350.0 0.7493817824 0.646995992
1780289320.0 0.7541330898 0.6420431966
1785289290.0 0.759072412 0.6369385663
1790289260.0 0.763043736 0.6313316619
1795289230.0 0.7674349655 0.6263963487
1800289200.0 0.7721228414 0.6204295553
1805289170.0 0.7765628831 0.6155051637
1810289140.0 0.7799212237 0.6103286782
1815289110.0 0.7845946627 0.6051381583
1820289080.0 0.7884836857 0.6001134527
1825289050.0 0.7920883892 0.5949078815
1830289020.0 0.7963598266 0.589887297
1835288990.0 0.799963519 0.584057789
1840288960.0 0.8038160549 0.578488429
1845288930.0 0.8076183655 0.5734463206
1850288900.0 0.8117102549 0.5675776385
1855288870.0 0.8160349064 0.5625316136
1860288840.0 0.8198473358 0.5563469041
1865288810.0 0.8238671214 0.5507904408
1870288780.0 0.8274164411 0.5449455661
1875288750.0 0.8314757631 0.5392723085
1880288720.0 0.8351096906 0.5333316509
1885288690.0 0.8382649473 0.5275984908
1890288660.0 0.8424930438 0.5221659141
1895288630.0 0.8452154304 0.5161365129
1900288600.0 0.8489375948 0.5104655294
1905288570.0 0.8527892773 0.5045693904
1910288540.0 0.8559659099 0.4984133206
1915288510.0 0.8598010155 0.4925531947
1920288480.0 0.8633230559 0.4863639552
1925288450.0 0.8665056124 0.4808948014
1930288420.0 0.8701841365 0.4747880444
1935288390.0 0.8727525392 0.4691243951
1940288360.0 0.8760288337 0.4630053806
1945288330.0 0.8792117899 0.4568628638
1950288300.0 0.8824940182 0.4503295146
1955288270.0 0.8857090846 0.4446564786
1960288240.0 0.8890541263 0.4376926018
1965288210.0 0.8923465431 0.431778496
1970288180.0 0.895309532 0.4259419813
1975288150.0 0.8973534153 0.4194887655
1980288120.0 0.9007751833 0.4141617345
1985288090.0 0.9032747131 0.4077647158
1990288060.0 0.9062744452 0.4020839473
1995288030.0 0.9085359237 0.3965863615
2000288000.0 0.911044785 0.3903898615
2005287970.0 0.9132496977 0.3839624249
2010287940.0 0.9166982772 0.3780914071
2015287910.0 0.9192506237 0.3720766603
2020287880.0 0.9213237405 0.3652271901
2025287850.0 0.9240301144 0.3585310716
2030287820.0 0.9260646159 0.3529750614
2035287790.0 0.9285804461 0.3465560587
2040287760.0 0.9313597813 0.3399572965
2045287730.0 0.9336729725 0.3336567624
2050287700.0 0.9359626704 0.3273709579
2055287670.0 0.9381575952 0.3210404377
2060287640.0 0.9401563618 0.3146733326
2065287610.0 0.9419840879 0.3079692603
2070287580.0 0.944511862 0.3013831752
2075287550.0 0.9461523618 0.2948451376
2080287520.0 0.9481452026 0.2893178088
2085287490.0 0.9502301612 0.2821024408
2090287460.0 0.95263215 0.2754439107
2095287430.0 0.9540089572 0.2692875782
2100287400.0 0.9563575585 0.2625996681
2105287370.0 0.9578960657 0.2558826828
2110287340.0 0.9598826534 0.2498103739
2115287310.0 0.9614080016 0.2425186562
2120287280.0 0.9631825732 0.2359591552
2125287250.0 0.9651170302 0.2294449659
2130287220.0 0.9665509767 0.2229471122
2135287190.0 0.9679923111 0.2162550617
2140287160.0 0.9692088049 0.2097083797
2145287130.0 0.9703573345 0.202744635
2150287100.0 0.9721029849 0.1961785555
2155287070.0 0.973553477 0.1898863328
2160287040.0 0.9751020614 0.1833559258
2165287010.0 0.9761245428 0.1764239863
2170286980.0 0.9774328682 0.1702283115
2175286950.0 0.9786682661 0.1632131487
2180286920.0 0.9795712628 0.1568640294
2185286890.0 0.980526619 0.1506440772
2190286860.0 0.9810942555 0.144477266
2195286830.0 0.9822757206 0.1378314697
2200286800.0 0.9833294945 0.1310871846
2205286770.0 0.9844744467 0.1245658089
2210286740.0 0.9846442423 0.1182263454
2215286710.0 0.9858040068 0.1106005666
2220286680.0 0.9866506573 0.1041201729
2225286650.0 0.9873119099 0.0976365426
2230286620.0 0.9880868059 0.0906695234
2235286590.0 0.9886679086 0.0833805784
2240286560.0 0.9893100359 0.0771981714
2245286530.0 0.9892935377 0.0702455228
2250286500.0 0.9903733413 0.0630206915
2255286470.0 0.9902519102 0.0561482739
2260286440.0 0.9909122057 0.0497716405
2265286410.0 0.9912883551 0.0425837817
2270286380.0 0.9913512948 0.0357244597
2275286350.0 0.9915386427 0.0292584754
2280286320.0 0.9920980606 0.0223294012
2285286290.0 0.991698945 0.0156650781
2290286260.0 0.991838501 0.0087556816
2295286230.0 0.9926565398 0.00232201
2300286200.0 0.9922685237 -0.0045316883
2305286170.0 0.9916342239 -0.0112367493
2310286140.0 0.9922580767 -0.0186689642
2315286110.0 0.9917810782 -0.025139988
2320286080.0 0.9914062695 -0.0321038501
2325286050.0 0.9912147658 -0.0386104772
2330286020.0 0.9912878794 -0.0453739224
2335285990.0 0.9908623958 -0.0517073084
2340285960.0 0.9908772935 -0.0588252441
2345285930.0 0.9901218704 -0.0650125385
2350285900.0 0.9898848478 -0.0718801214
2355285870.0 0.9888906383 -0.0789211071
2360285840.0 0.9883347997 -0.0854965897
2365285810.0 0.988119816 -0.0919960047
2370285780.0 0.9878014035 -0.0991686028
2375285750.0 0.9861973776 -0.1059503411
2380285720.0 0.9853956719 -0.1125315965
2385285690.0 0.9851981986 -0.1188327647
2390285660.0 0.9838696315 -0.1260984968
2395285630.0 0.9832932894 -0.1327936357
2400285600.0 0.9822529581 -0.1394210221
2405285570.0 0.9813320827 -0.145384123
2410285540.0 0.980140047 -0.1518360161
2415285510.0 0.9792340354 -0.1584713743
2420285480.0 0.9780724367 -0.1656574145
2425285450.0 0.977355993 -0.1717567962
2430285420.0 0.9763147058 -0.1782566576
2435285390.0 0.9750369035 -0.1854231017
2440285360.0 0.9734910586 -0.1917071342
2445285330.0 0.9719777613 -0.1980747667
2450285300.0 0.9707219166 -0.2052367268
2455285270.0 0.969032954 -0.2119425469
2460285240.0 0.9677296927 -0.2184743926
2465285210.0 0.9661359731 -0.2253118744
2470285180.0 0.9645101218 -0.2315820191
2475285150.0 0.9626137392 -0.2381521703
2480285120.0 0.9608990153 -0.2449044019
2485285090.0 0.9599331247 -0.2513093994
2490285060.0 0.9578683865 -0.257603357
2495285030.0 0.95592872 -0.2647013978
2500285000.0 0.9540509027 -0.2712927427
2505284970.0 0.9522063328 -0.2779549675
2510284940.0 0.9503813036 -0.2840410557
2515284910.0 0.9480573844 -0.2906190131
2520284880.0 0.9463372298 -0.2970236849
2525284850.0 0.9435466314 -0.3035990381
2530284820.0 0.9419271805 -0.3096958465
2535284790.0 0.940130092 -0.316238522
2540284760.0 0.9377094468 -0.3223567811
2545284730.0 0.9358372655 -0.328695891
2550284700.0 0.9334186636 -0.3352941153
2555284670.0 0.9312500374 -0.34187238
