!Created with skrf (http://scikit-rf.org).
# Hz S RI R 50.0 
!freq ReS11 ImS11
45000000.0 -0.003840208053588867 -0.0010704994201660156
49995500.0 -0.004161357879638672 -0.0005731582641601562
54991000.0 -0.004493236541748047 -4.363059997558594e-05
59986500.0 -0.004747867584228516 0.00017547607421875
64982000.0 -0.0048639774322509766 0.0007255077362060547
69977500.0 -0.005083799362182617 0.0012087821960449219
74973000.0 -0.005054950714111328 0.0018701553344726562
79968500.0 -0.005121469497680664 0.00238800048828125
84964000.0 -0.00494694709777832 0.003047466278076172
89959500.0 -0.004778623580932617 0.0036597251892089844
94955000.0 -0.00441288948059082 0.004348278045654297
99950500.0 -0.0040509700775146484 0.004912853240966797
104946000.0 -0.003513813018798828 0.0055179595947265625
109941500.0 -0.002994537353515625 0.005918025970458984
114937000.0 -0.002278566360473633 0.00650787353515625
119932500.0 -0.0015866756439208984 0.006899833679199219
124928000.0 -0.0009005069732666016 0.0071070194244384766
129923500.0 -0.000125885009765625 0.007395267486572266
134919000.0 0.0007853507995605469 0.007425785064697266
139914500.0 0.001682281494140625 0.007452726364135742
144910000.0 0.0024137496948242188 0.007405281066894531
149905500.0 0.0034313201904296875 0.007110118865966797
154901000.0 0.004277467727661133 0.006851673126220703
159896500.0 0.005042076110839844 0.006482839584350586
164892000.0 0.005812883377075195 0.006066799163818359
169887500.0 0.006485939025878906 0.005407094955444336
174883000.0 0.007154703140258789 0.004755973815917969
179878500.0 0.007771015167236328 0.003927469253540039
184874000.0 0.00816965103149414 0.0031538009643554688
189869500.0 0.008638381958007812 0.002257823944091797
194865000.0 0.008936405181884766 0.0013256072998046875
199860500.0 0.00917959213256836 0.0004181861877441406
204856000.0 0.009362220764160156 -0.0006570816040039062
209851500.0 0.009212970733642578 -0.0016713142395019531
214847000.0 0.00909566879272461 -0.0027151107788085938
219842500.0 0.008869647979736328 -0.0037374496459960938
224838000.0 0.00853109359741211 -0.0046939849853515625
229833500.0 0.008073806762695312 -0.005663394927978516
234829000.0 0.007497072219848633 -0.006608009338378906
239824500.0 0.006936311721801758 -0.0074117183685302734
244820000.0 0.006079673767089844 -0.00816202163696289
249815500.0 0.005329608917236328 -0.00892782211303711
254811000.0 0.0047931671142578125 -0.00939321517944336
259806500.0 0.0038280487060546875 -0.01003265380859375
264802000.0 0.0027360916137695312 -0.010482311248779297
269797500.0 0.0017189979553222656 -0.01080465316772461
274793000.0 0.0005240440368652344 -0.011011123657226562
279788500.0 -0.0006136894226074219 -0.011082172393798828
284784000.0 -0.0018110275268554688 -0.011135101318359375
289779500.0 -0.0030074119567871094 -0.011017322540283203
294775000.0 -0.004130840301513672 -0.010729789733886719
299770500.0 -0.005307197570800781 -0.010340690612792969
304766000.0 -0.006446361541748047 -0.009701251983642578
309761500.0 -0.007468223571777344 -0.009137153625488281
314757000.0 -0.008442878723144531 -0.00838327407836914
319752500.0 -0.009471416473388672 -0.007466316223144531
324748000.0 -0.010218143463134766 -0.006614208221435547
329743500.0 -0.01101827621459961 -0.005415439605712891
334739000.0 -0.011646270751953125 -0.004250049591064453
339734500.0 -0.01212453842163086 -0.0031366348266601562
344730000.0 -0.01237630844116211 -0.001880645751953125
349725500.0 -0.012618541717529297 -0.00035381317138671875
354721000.0 -0.012751579284667969 0.00081634521484375
359716500.0 -0.01262664794921875 0.002284526824951172
364712000.0 -0.012456417083740234 0.003574371337890625
369707500.0 -0.012157440185546875 0.00485992431640625
374703000.0 -0.01145029067993164 0.006126880645751953
379698500.0 -0.010909557342529297 0.00740814208984375
384694000.0 -0.010126113891601562 0.008577823638916016
389689500.0 -0.009266853332519531 0.009588241577148438
394685000.0 -0.008147239685058594 0.010730743408203125
399680500.0 -0.007232666015625 0.011461734771728516
404676000.0 -0.005858898162841797 0.012335777282714844
409671500.0 -0.0045490264892578125 0.012917518615722656
414667000.0 -0.0032663345336914062 0.013454437255859375
419662500.0 -0.0017271041870117188 0.013781547546386719
424658000.0 -0.0003204345703125 0.013930797576904297
429653500.0 0.001155853271484375 0.01397562026977539
434649000.0 0.002631664276123047 0.013870716094970703
439644500.0 0.0040874481201171875 0.013591289520263672
444640000.0 0.005460262298583984 0.01312112808227539
449635500.0 0.0069217681884765625 0.012599945068359375
454631000.0 0.00822591781616211 0.011822700500488281
459626500.0 0.009418487548828125 0.010895729064941406
464622000.0 0.010581493377685547 0.009919166564941406
469617500.0 0.011638164520263672 0.008797168731689453
474613000.0 0.012547016143798828 0.007542133331298828
479608500.0 0.013326644897460938 0.006214618682861328
484604000.0 0.014018535614013672 0.004721641540527344
489599500.0 0.014485359191894531 0.0033826828002929688
494595000.0 0.014770030975341797 0.0018177032470703125
499590500.0 0.014899730682373047 0.00018930435180664062
504586000.0 0.014951229095458984 -0.0011806488037109375
509581500.0 0.014829158782958984 -0.002833843231201172
514577000.0 0.01459646224975586 -0.004245758056640625
519572500.0 0.014122962951660156 -0.005736351013183594
524568000.0 0.013354301452636719 -0.007187366485595703
529563500.0 0.012581348419189453 -0.008553028106689453
534559000.0 0.011637687683105469 -0.009885311126708984
539554500.0 0.010738849639892578 -0.01092529296875
544550000.0 0.009614944458007812 -0.012042999267578125
549545500.0 0.008405208587646484 -0.012953758239746094
554541000.0 0.007138252258300781 -0.013903141021728516
559536500.0 0.005644798278808594 -0.014601707458496094
564532000.0 0.004246711730957031 -0.015237808227539062
569527500.0 0.0027456283569335938 -0.01571178436279297
574523000.0 0.0011434555053710938 -0.015936851501464844
579518500.0 -0.0005197525024414062 -0.01602458953857422
584514000.0 -0.0021419525146484375 -0.015981674194335938
589509500.0 -0.0038318634033203125 -0.015770912170410156
594505000.0 -0.0054416656494140625 -0.015469074249267578
599500500.0 -0.007048130035400391 -0.014862060546875
604496000.0 -0.008547782897949219 -0.014085769653320312
609491500.0 -0.009978294372558594 -0.0133514404296875
614487000.0 -0.011356830596923828 -0.012294769287109375
619482500.0 -0.012745380401611328 -0.011038780212402344
624478000.0 -0.01378488540649414 -0.009789466857910156
629473500.0 -0.014748096466064453 -0.008433341979980469
634469000.0 -0.015574455261230469 -0.006899356842041016
639464500.0 -0.016256332397460938 -0.005382537841796875
644460000.0 -0.016814231872558594 -0.0036058425903320312
649455500.0 -0.017230987548828125 -0.0019502639770507812
654451000.0 -0.01739978790283203 -0.00023746490478515625
659446500.0 -0.017324447631835938 0.0016012191772460938
664442000.0 -0.017198562622070312 0.003345489501953125
669437500.0 -0.016920089721679688 0.005125999450683594
674433000.0 -0.016336441040039062 0.006775856018066406
679428500.0 -0.01573467254638672 0.008502006530761719
684424000.0 -0.014831066131591797 0.010060787200927734
689419500.0 -0.013767242431640625 0.011488914489746094
694415000.0 -0.012597084045410156 0.012969017028808594
699410500.0 -0.011263370513916016 0.014252662658691406
704406000.0 -0.009745121002197266 0.015436649322509766
709401500.0 -0.008228302001953125 0.016373634338378906
714397000.0 -0.0065746307373046875 0.01712512969970703
719392500.0 -0.004876136779785156 0.017805099487304688
724388000.0 -0.0030460357666015625 0.0183868408203125
729383500.0 -0.001171112060546875 0.018644332885742188
734379000.0 0.000762939453125 0.018692970275878906
739374500.0 0.0025911331176757812 0.01860332489013672
744370000.0 0.0044803619384765625 0.018388748168945312
749365500.0 0.0062236785888671875 0.017911911010742188
754361000.0 0.008088111877441406 0.01723957061767578
759356500.0 0.009798049926757812 0.016450881958007812
764352000.0 0.011497974395751953 0.0154266357421875
769347500.0 0.013021469116210938 0.01426553726196289
774343000.0 0.014464378356933594 0.013036727905273438
779338500.0 0.015730857849121094 0.011466026306152344
784334000.0 0.016916275024414062 0.009846687316894531
789329500.0 0.017877578735351562 0.008113861083984375
794325000.0 0.018768310546875 0.0063800811767578125
799320500.0 0.019313812255859375 0.004436492919921875
804316000.0 0.01973247528076172 0.0025653839111328125
809311500.0 0.019964218139648438 0.0005998611450195312
814307000.0 0.020038604736328125 -0.0014314651489257812
819302500.0 0.0199127197265625 -0.0034322738647460938
824298000.0 0.01951313018798828 -0.005420684814453125
829293500.0 0.018911361694335938 -0.007309913635253906
834289000.0 0.01820087432861328 -0.009293556213378906
839284500.0 0.01719379425048828 -0.010958671569824219
844280000.0 0.01691436767578125 -0.012115478515625
849275500.0 0.01571369171142578 -0.013841629028320312
854271000.0 0.014297008514404297 -0.01532745361328125
859266500.0 0.012811660766601562 -0.016706466674804688
864262000.0 0.011160850524902344 -0.01798248291015625
869257500.0 0.009505271911621094 -0.019179344177246094
874253000.0 0.0075206756591796875 -0.019927024841308594
879248500.0 0.0055980682373046875 -0.020610809326171875
884244000.0 0.0035924911499023438 -0.021248817443847656
889239500.0 0.0015316009521484375 -0.021584510803222656
894235000.0 -0.000614166259765625 -0.021691322326660156
899230500.0 -0.0027608871459960938 -0.02164173126220703
904226000.0 -0.005005836486816406 -0.021497726440429688
909221500.0 -0.006974220275878906 -0.02098560333251953
914217000.0 -0.009074211120605469 -0.020300865173339844
919212500.0 -0.011226654052734375 -0.019559860229492188
924208000.0 -0.013037681579589844 -0.018487930297851562
929203500.0 -0.0150146484375 -0.017096519470214844
934199000.0 -0.01662158966064453 -0.015580177307128906
939194500.0 -0.01830005645751953 -0.013915061950683594
944190000.0 -0.01968860626220703 -0.012036323547363281
949185500.0 -0.020880699157714844 -0.010282516479492188
954181000.0 -0.02184581756591797 -0.008128166198730469
959176500.0 -0.022796630859375 -0.005927085876464844
964172000.0 -0.023345947265625 -0.0036458969116210938
969167500.0 -0.023698806762695312 -0.0012989044189453125
974163000.0 -0.023847579956054688 0.0010461807250976562
979158500.0 -0.023728370666503906 0.0033941268920898438
984154000.0 -0.023284912109375 0.005957603454589844
989149500.0 -0.02277088165283203 0.0082550048828125
994145000.0 -0.021932601928710938 0.010363578796386719
999140500.0 -0.020860671997070312 0.012724876403808594
1004136000.0 -0.019573211669921875 0.014795303344726562
1009131500.0 -0.0181427001953125 0.01681041717529297
1014127000.0 -0.016429901123046875 0.018449783325195312
1019122500.0 -0.01462554931640625 0.020109176635742188
1024118000.0 -0.012520790100097656 0.021610260009765625
1029113500.0 -0.010321617126464844 0.022844314575195312
1034109000.0 -0.008076667785644531 0.02390003204345703
1039104500.0 -0.0057525634765625 0.024721145629882812
1044100000.0 -0.0031375885009765625 0.025269508361816406
1049095500.0 -0.00064849853515625 0.025594711303710938
1054091000.0 0.0018901824951171875 0.025587081909179688
1059086500.0 0.004471778869628906 0.02531719207763672
1064082000.0 0.006985664367675781 0.024933815002441406
1069077500.0 0.009520530700683594 0.02421283721923828
1074073000.0 0.012027740478515625 0.02329254150390625
1079068500.0 0.014210700988769531 0.022060394287109375
1084064000.0 0.016493797302246094 0.02051830291748047
1089059500.0 0.018515586853027344 0.018835067749023438
1094055000.0 0.020416259765625 0.016925811767578125
1099050500.0 0.02207469940185547 0.014977455139160156
1104046000.0 0.023479461669921875 0.01262664794921875
1109041500.0 0.02480030059814453 0.010288238525390625
1114037000.0 0.02579784393310547 0.007739067077636719
1119032500.0 0.026561737060546875 0.005161285400390625
1124028000.0 0.027006149291992188 0.002452850341796875
1129023500.0 0.027199745178222656 -0.00025177001953125
1134019000.0 0.027109146118164062 -0.003017425537109375
1139014500.0 0.02675628662109375 -0.005672454833984375
1144010000.0 0.026241302490234375 -0.008381843566894531
1149005500.0 0.02534198760986328 -0.011049270629882812
1154001000.0 0.02408313751220703 -0.013463020324707031
1158996500.0 0.02265167236328125 -0.01584625244140625
1163992000.0 0.020984649658203125 -0.018110275268554688
1168987500.0 0.0191497802734375 -0.020180702209472656
1173983000.0 0.01721477508544922 -0.022141456604003906
1178978500.0 0.014883041381835938 -0.023657798767089844
1183974000.0 0.012325286865234375 -0.025196075439453125
1188969500.0 0.009881019592285156 -0.02633953094482422
1193965000.0 0.007176399230957031 -0.02720928192138672
1198960500.0 0.004420280456542969 -0.027937889099121094
1203956000.0 0.0017137527465820312 -0.02810955047607422
1208951500.0 -0.0012378692626953125 -0.028345108032226562
1213947000.0 -0.0040378570556640625 -0.0281219482421875
1218942500.0 -0.0069065093994140625 -0.027692794799804688
1223938000.0 -0.009564399719238281 -0.026909828186035156
1228933500.0 -0.012269020080566406 -0.025748252868652344
1233929000.0 -0.014752388000488281 -0.0245819091796875
1238924500.0 -0.01720428466796875 -0.02300548553466797
1243920000.0 -0.01937580108642578 -0.021345138549804688
1248915500.0 -0.021472930908203125 -0.019369125366210938
1253911000.0 -0.02333831787109375 -0.0171051025390625
1258906500.0 -0.02497100830078125 -0.014908790588378906
1263902000.0 -0.026389122009277344 -0.012170791625976562
1268897500.0 -0.02748584747314453 -0.009707450866699219
1273893000.0 -0.02852153778076172 -0.006911277770996094
1278888500.0 -0.02909088134765625 -0.004124641418457031
1283884000.0 -0.029494285583496094 -0.0011224746704101562
1288879500.0 -0.02950572967529297 0.0018310546875
1293875000.0 -0.02935314178466797 0.0046253204345703125
1298870500.0 -0.02869129180908203 0.0075550079345703125
1303866000.0 -0.02795886993408203 0.010457038879394531
1308861500.0 -0.02679920196533203 0.013181686401367188
1313857000.0 -0.025394439697265625 0.01581859588623047
1318852500.0 -0.023853302001953125 0.018390655517578125
1323848000.0 -0.022055625915527344 0.02071380615234375
1328843500.0 -0.019692420959472656 0.022937774658203125
1333839000.0 -0.0174713134765625 0.024740219116210938
1338834500.0 -0.014972686767578125 0.02648639678955078
1343830000.0 -0.012303352355957031 0.028013229370117188
1348825500.0 -0.009291648864746094 0.029226303100585938
1353821000.0 -0.006388664245605469 0.029993057250976562
1358816500.0 -0.00339508056640625 0.030623435974121094
1363812000.0 -0.00033283233642578125 0.03085041046142578
1368807500.0 0.0026922225952148438 0.030792236328125
1373803000.0 0.005782127380371094 0.03052806854248047
1378798500.0 0.008930206298828125 0.029857635498046875
1383794000.0 0.011919975280761719 0.02869129180908203
1388789500.0 0.01474761962890625 0.027419090270996094
1393785000.0 0.017518043518066406 0.025959014892578125
1398780500.0 0.019994735717773438 0.02404308319091797
1403776000.0 0.02231597900390625 0.021950721740722656
1408771500.0 0.024480819702148438 0.01964092254638672
1413767000.0 0.026346206665039062 0.01716136932373047
1418762500.0 0.02796649932861328 0.014363288879394531
1423758000.0 0.029291152954101562 0.01148223876953125
1428753500.0 0.030457496643066406 0.008535385131835938
1433749000.0 0.03112506866455078 0.005417823791503906
1438744500.0 0.03157615661621094 0.0022029876708984375
1443740000.0 0.03160858154296875 -0.0008983612060546875
1448735500.0 0.03145790100097656 -0.0040454864501953125
1453731000.0 0.03088665008544922 -0.007315635681152344
1458726500.0 0.030121803283691406 -0.010427474975585938
1463722000.0 0.02891254425048828 -0.01326751708984375
1468717500.0 0.027337074279785156 -0.01611614227294922
1473713000.0 0.02572154998779297 -0.018828392028808594
1478708500.0 0.02373027801513672 -0.021272659301757812
1483704000.0 0.021450042724609375 -0.02364063262939453
1488699500.0 0.018995285034179688 -0.02566051483154297
1493695000.0 0.016259193420410156 -0.02747058868408203
1498690500.0 0.013416290283203125 -0.028975486755371094
1503686000.0 0.010516166687011719 -0.03017711639404297
1508681500.0 0.007433891296386719 -0.03106975555419922
1513677000.0 0.0042877197265625 -0.031585693359375
1518672500.0 0.00113677978515625 -0.031848907470703125
1523668000.0 -0.0020503997802734375 -0.03182029724121094
1528663500.0 -0.0053119659423828125 -0.03147125244140625
1533659000.0 -0.008432388305664062 -0.0306854248046875
1538654500.0 -0.011393547058105469 -0.029722213745117188
1543650000.0 -0.014301300048828125 -0.028438568115234375
1548645500.0 -0.01704120635986328 -0.026833534240722656
1553641000.0 -0.019652366638183594 -0.024956703186035156
1558636500.0 -0.021966934204101562 -0.022930145263671875
1563632000.0 -0.02408599853515625 -0.020586013793945312
1568627500.0 -0.02606487274169922 -0.017996788024902344
1573623000.0 -0.02762603759765625 -0.015334129333496094
1578618500.0 -0.029105186462402344 -0.01242828369140625
1583614000.0 -0.030096054077148438 -0.009473800659179688
1588609500.0 -0.03089618682861328 -0.006592750549316406
1593605000.0 -0.031213760375976562 -0.0034246444702148438
1598600500.0 -0.031352996826171875 -0.000347137451171875
1603596000.0 -0.031217575073242188 0.0027666091918945312
1608591500.0 -0.030620574951171875 0.0057582855224609375
1613587000.0 -0.029911041259765625 0.008852958679199219
1618582500.0 -0.028906822204589844 0.011666297912597656
1623578000.0 -0.02765369415283203 0.014308929443359375
1628573500.0 -0.02611827850341797 0.016910552978515625
1633569000.0 -0.0242919921875 0.019456863403320312
1638564500.0 -0.02223682403564453 0.021717071533203125
1643560000.0 -0.02005481719970703 0.02369403839111328
1648555500.0 -0.01759815216064453 0.02552509307861328
1653551000.0 -0.014933586120605469 0.027031898498535156
1658546500.0 -0.012320518493652344 0.028389930725097656
1663542000.0 -0.009459495544433594 0.02939128875732422
1668537500.0 -0.006518363952636719 0.030246734619140625
1673533000.0 -0.0035486221313476562 0.030752182006835938
1678528500.0 -0.0005779266357421875 0.030920028686523438
1683524000.0 0.0025196075439453125 0.030719757080078125
1688519500.0 0.0054225921630859375 0.030303001403808594
1693515000.0 0.008405685424804688 0.02971363067626953
1698510500.0 0.011330604553222656 0.02864551544189453
1703506000.0 0.014037132263183594 0.027418136596679688
1708501500.0 0.016676902770996094 0.025948524475097656
1713497000.0 0.01908111572265625 0.02421092987060547
1718492500.0 0.021413803100585938 0.022171974182128906
1723488000.0 0.023507118225097656 0.01999950408935547
1728483500.0 0.025351524353027344 0.017516136169433594
1733479000.0 0.026970863342285156 0.014941215515136719
1738474500.0 0.02819061279296875 0.012174606323242188
1743470000.0 0.029293060302734375 0.009386062622070312
1748465500.0 0.030043601989746094 0.0064144134521484375
1753461000.0 0.030480384826660156 0.0034618377685546875
1758456500.0 0.03065204620361328 0.00039958953857421875
1763452000.0 0.030508995056152344 -0.0026102066040039062
1768447500.0 0.0299835205078125 -0.005644798278808594
1773443000.0 0.02929210662841797 -0.008471488952636719
1778438500.0 0.028260231018066406 -0.011295318603515625
1783434000.0 0.026952743530273438 -0.013995170593261719
1788429500.0 0.025427818298339844 -0.01658153533935547
1793425000.0 0.023650169372558594 -0.018891334533691406
1798420500.0 0.02158641815185547 -0.021119117736816406
1803416000.0 0.01937580108642578 -0.023101806640625
1808411500.0 0.01706218719482422 -0.024839401245117188
1813407000.0 0.014382362365722656 -0.026389122009277344
1818402500.0 0.011798858642578125 -0.027472496032714844
1823398000.0 0.008975982666015625 -0.02850055694580078
1828393500.0 0.006167411804199219 -0.029237747192382812
1833389000.0 0.0032396316528320312 -0.029626846313476562
1838384500.0 0.00044536590576171875 -0.02979564666748047
1843380000.0 -0.0025415420532226562 -0.02950000762939453
