!Created with skrf (http://scikit-rf.org).
# Hz S RI R 50.0 
!freq ReS11 ImS11
300000.0 1.001160356 3.76597e-05
5299970.0 1.004375127 -0.0072970751
10299940.0 1.003190561 -0.0141434748
15299910.0 1.003045856 -0.0212015883
20299880.0 1.002649475 -0.0277586358
25299850.0 1.002071477 -0.0337639647
30299820.0 1.002297255 -0.0414978165
35299790.0 1.00212389 -0.0471652511
40299760.0 1.00134569 -0.0540873818
45299730.0 1.001091453 -0.0609834027
50299700.0 1.001092461 -0.0675757133
55299670.0 1.000163999 -0.0740210711
60299640.0 0.9999814981 -0.0815366955
65299610.0 0.9996785768 -0.087460379
70299580.0 0.9986237398 -0.094068563
75299550.0 0.998073799 -0.100955649
80299520.0 0.9969574282 -0.1072140688
85299490.0 0.9964746634 -0.1144462969
90299460.0 0.9963038354 -0.1210137885
95299430.0 0.9951000046 -0.1272848188
100299400.0 0.9940912075 -0.1344080462
105299370.0 0.992912858 -0.1401091241
110299340.0 0.9931801165 -0.1470015641
115299310.0 0.9914371252 -0.1536444357
120299280.0 0.9901393719 -0.1602763153
125299250.0 0.9895908125 -0.1666637885
130299220.0 0.9879341783 -0.1728498411
135299190.0 0.9867655425 -0.1793875418
140299160.0 0.986140867 -0.1867988114
145299130.0 0.9841866044 -0.1932892693
150299100.0 0.9829381087 -0.1989536633
155299070.0 0.9818363673 -0.2056201922
160299040.0 0.9804193693 -0.2120184437
165299010.0 0.9787340156 -0.218601007
170298980.0 0.9771760628 -0.2255279447
175298950.0 0.9748304678 -0.2317545904
180298920.0 0.9727334744 -0.2380600528
185298890.0 0.9717862071 -0.2447218418
190298860.0 0.9709469872 -0.2510933546
195298830.0 0.9691521863 -0.2574554242
200298800.0 0.96756866 -0.263493472
205298770.0 0.9654868498 -0.2701734305
210298740.0 0.9640233413 -0.2769733283
215298710.0 0.9622272845 -0.2833127218
220298680.0 0.9602100122 -0.2894377693
225298650.0 0.9583649116 -0.2963416034
230298620.0 0.9562513009 -0.3022627395
235298590.0 0.9537890175 -0.3087931989
240298560.0 0.9518409748 -0.3152961422
245298530.0 0.949638636 -0.3207423207
250298500.0 0.9478937832 -0.3271110029
255298470.0 0.9457715743 -0.3338691156
260298440.0 0.9435403451 -0.3397499448
265298410.0 0.9413118818 -0.3461354974
270298380.0 0.9386955306 -0.3524359976
275298350.0 0.9367878797 -0.3585800057
280298320.0 0.9339862039 -0.3647126107
285298290.0 0.9315761336 -0.3711187156
290298260.0 0.928876847 -0.3769528106
295298230.0 0.9268834011 -0.3831564795
300298200.0 0.9237452702 -0.3889873535
305298170.0 0.9208481191 -0.3952519829
310298140.0 0.9184459506 -0.4017388336
315298110.0 0.9159499377 -0.4078438594
320298080.0 0.9129489042 -0.4139097906
325298050.0 0.9104495913 -0.4195076348
330298020.0 0.9082486449 -0.4260428585
335297990.0 0.9045925333 -0.4318011668
340297960.0 0.9020128978 -0.4379287357
345297930.0 0.899203374 -0.4436875287
350297900.0 0.8967055645 -0.4501015286
355297870.0 0.8938275944 -0.4562834294
360297840.0 0.8910558063 -0.4623999029
365297810.0 0.8881398337 -0.4678873928
370297780.0 0.8844466228 -0.4735937808
375297750.0 0.8800373345 -0.478498422
380297720.0 0.8773290026 -0.4846122159
385297690.0 0.8737452709 -0.4907936635
390297660.0 0.8704581619 -0.4964804259
395297630.0 0.8673217286 -0.5025102453
400297600.0 0.864315015 -0.5076044582
405297570.0 0.8600157011 -0.5131234076
410297540.0 0.8573809252 -0.5191060775
415297510.0 0.8542743757 -0.5248635777
420297480.0 0.8505190797 -0.5306718557
425297450.0 0.8473260666 -0.5356754109
430297420.0 0.8431196406 -0.5415613627
435297390.0 0.839726505 -0.5473979083
440297360.0 0.8359843967 -0.5522402565
445297330.0 0.8322732706 -0.55845065
450297300.0 0.8287252608 -0.5642504992
455297270.0 0.8250580642 -0.5690907292
460297240.0 0.8210686341 -0.5749834618
465297210.0 0.8177032342 -0.5805489209
470297180.0 0.8133146924 -0.5853951075
475297150.0 0.8092652709 -0.5907886038
480297120.0 0.8061452702 -0.5961835568
485297090.0 0.8015788667 -0.6013242999
490297060.0 0.7975668858 -0.6070513622
495297030.0 0.793110217 -0.6124229909
500297000.0 0.7893389587 -0.6175574624
505296970.0 0.7854929297 -0.6222921212
510296940.0 0.7809074212 -0.6281406752
515296910.0 0.7766085182 -0.6328302658
520296880.0 0.771804873 -0.6378760522
525296850.0 0.7681072375 -0.6427166126
530296820.0 0.763917209 -0.6480167099
535296790.0 0.7593188478 -0.652830813
540296760.0 0.7550187057 -0.6580911528
545296730.0 0.7503376299 -0.6630792216
550296700.0 0.746550045 -0.6677477091
555296670.0 0.7423437574 -0.6728039535
560296640.0 0.7378447744 -0.6779234672
565296610.0 0.7334651284 -0.6831563649
570296580.0 0.7287335598 -0.687506968
575296550.0 0.7241224405 -0.692450597
580296520.0 0.7193106472 -0.6972182277
585296490.0 0.7153124226 -0.7024243689
590296460.0 0.7101510435 -0.7063529448
595296430.0 0.7056653793 -0.7115610718
600296400.0 0.7011011749 -0.7159417983
605296370.0 0.6962376239 -0.7207569956
610296340.0 0.6913755266 -0.7246960505
615296310.0 0.6864042552 -0.72989101
620296280.0 0.6820180199 -0.7341538775
625296250.0 0.6768901015 -0.7390483914
630296220.0 0.6721222061 -0.7432401864
635296190.0 0.667031545 -0.7475098205
640296160.0 0.6618989382 -0.7520510384
645296130.0 0.6570548535 -0.7560440191
650296100.0 0.6521231323 -0.7604446649
655296070.0 0.6470597943 -0.7650268068
660296040.0 0.6418144225 -0.7690762675
665296010.0 0.6368303214 -0.7728408659
670295980.0 0.6316310245 -0.7779288351
675295950.0 0.6264186576 -0.7821235195
680295920.0 0.6211894934 -0.7861084105
685295890.0 0.6163283339 -0.7894874734
690295860.0 0.6110413773 -0.7942535129
695295830.0 0.6060436196 -0.7976662898
700295800.0 0.6003560363 -0.8020745847
705295770.0 0.5943869889 -0.8062442819
710295740.0 0.5896057006 -0.8101449814
715295710.0 0.5841909827 -0.8138215886
720295680.0 0.5788700033 -0.8184868138
725295650.0 0.5727925835 -0.8216196
730295620.0 0.568135252 -0.8252667897
735295590.0 0.5622699094 -0.8289899075
740295560.0 0.5568028952 -0.8322133533
745295530.0 0.5516517736 -0.8363895927
750295500.0 0.5457194899 -0.8403122208
755295470.0 0.5403546296 -0.8437794682
760295440.0 0.5344551325 -0.8474716964
765295410.0 0.529043932 -0.8507224965
770295380.0 0.5238735477 -0.8543226158
775295350.0 0.5173126616 -0.8574139617
780295320.0 0.5116758871 -0.8611451581
785295290.0 0.5067204823 -0.8648635204
790295260.0 0.500232447 -0.8677592217
795295230.0 0.4946127533 -0.8707144808
800295200.0 0.4890252158 -0.8743752267
805295170.0 0.4835326582 -0.8778034537
810295140.0 0.4775811701 -0.8805520911
815295110.0 0.4711687399 -0.8839757579
820295080.0 0.4651373102 -0.8868559939
825295050.0 0.4600473808 -0.8906058024
830295020.0 0.4548128841 -0.8933992782
835294990.0 0.4482970168 -0.8957141333
840294960.0 0.4423472322 -0.8990661073
845294930.0 0.4361352129 -0.9018411296
850294900.0 0.4299699413 -0.9043508444
855294870.0 0.4241973279 -0.9076769209
860294840.0 0.4184833288 -0.9104340887
865294810.0 0.4119371637 -0.9131491151
870294780.0 0.4064546017 -0.9155342231
875294750.0 0.3999303422 -0.9190121732
880294720.0 0.3942442513 -0.9211317057
885294690.0 0.3878554071 -0.9238710231
890294660.0 0.3818334877 -0.9261822671
895294630.0 0.376002111 -0.9283021517
900294600.0 0.3699376443 -0.9311028624
905294570.0 0.363312802 -0.9333309875
910294540.0 0.3574327829 -0.9362117829
915294510.0 0.3505216821 -0.9388531612
920294480.0 0.3446839859 -0.9405359433
925294450.0 0.3382866235 -0.9437219646
930294420.0 0.3321952268 -0.9452684456
935294390.0 0.3254910841 -0.9474959422
940294360.0 0.3197221463 -0.9499635756
945294330.0 0.3137076407 -0.9512798664
950294300.0 0.3071571864 -0.9538810872
955294270.0 0.3008450298 -0.9561640535
960294240.0 0.2938419679 -0.957704474
965294210.0 0.2872669114 -0.9595161483
970294180.0 0.2809839025 -0.9617800681
975294150.0 0.2748511673 -0.9634821665
980294120.0 0.2685420928 -0.9650686637
985294090.0 0.2625981143 -0.9665501492
990294060.0 0.256201523 -0.9691787521
995294030.0 0.2494799002 -0.9701725478
1000294000.0 0.2428934816 -0.9722738055
1005293970.0 0.2361338201 -0.9737109102
1010293940.0 0.229508392 -0.9754080473
1015293910.0 0.2235925142 -0.9768736793
1020293880.0 0.2173511423 -0.9776590584
1025293850.0 0.2111093028 -0.9795729231
1030293820.0 0.2048183866 -0.9805363064
1035293790.0 0.1982286072 -0.9817164321
1040293760.0 0.1913477789 -0.9835661116
1045293730.0 0.1851010344 -0.9845735559
1050293700.0 0.178199101 -0.9856069546
1055293670.0 0.1713746021 -0.9867133639
1060293640.0 0.1650762857 -0.9877297582
1065293610.0 0.1588976219 -0.9888006157
1070293580.0 0.1526532825 -0.9900795822
1075293550.0 0.1464398333 -0.9911960175
1080293520.0 0.1393339521 -0.9916884266
1085293490.0 0.1326491227 -0.9929513481
1090293460.0 0.1262096477 -0.993665123
1095293430.0 0.1189813382 -0.994524041
1100293400.0 0.1115547033 -0.9950682651
1105293370.0 0.1054860587 -0.9957179084
1110293340.0 0.0989960397 -0.9965552275
1115293310.0 0.0924362063 -0.9963989428
1120293280.0 0.0858358028 -0.9982829542
1125293250.0 0.0797716003 -0.9983879647
1130293220.0 0.0730863043 -0.9986353762
1135293190.0 0.0664489429 -0.9994451848
1140293160.0 0.0599791457 -0.999686476
1145293130.0 0.0527356368 -0.9998593208
1150293100.0 0.0455840885 -1.000555244
1155293070.0 0.0391781731 -1.00080508
1160293040.0 0.0326031842 -1.00096407
1165293010.0 0.0256303572 -1.001212465
1170292980.0 0.0196129323 -1.00159218
1175292950.0 0.0132305472 -1.001241368
1180292920.0 0.0064250813 -1.001428096
1185292890.0 0.0001072982 -1.00128652
1190292860.0 -0.0065419298 -1.001029232
1195292830.0 -0.012777337 -1.001331438
1200292800.0 -0.0196123439 -1.000697706
1205292770.0 -0.0258476746 -1.001271302
1210292740.0 -0.032019486 -1.000961264
1215292710.0 -0.0393137867 -1.000603172
1220292680.0 -0.0456094118 -1.000100082
1225292650.0 -0.0531034371 -0.9999317087
1230292620.0 -0.0594834064 -0.9999078914
1235292590.0 -0.0659857054 -0.9993013209
1240292560.0 -0.0726301299 -0.9983030445
1245292530.0 -0.0787503764 -0.9979268814
1250292500.0 -0.0857012818 -0.9974087505
1255292470.0 -0.0919642207 -0.9969981397
1260292440.0 -0.0983233011 -0.996167356
1265292410.0 -0.1049890905 -0.9954510278
1270292380.0 -0.1114235422 -0.994586321
1275292350.0 -0.1186753906 -0.9942147905
1280292320.0 -0.1244842938 -0.993467623
1285292290.0 -0.1318210651 -0.992534566
1290292260.0 -0.1383034314 -0.9910628078
1295292230.0 -0.1443549272 -0.9905312387
1300292200.0 -0.1512314866 -0.9891944583
1305292170.0 -0.1578284817 -0.988306698
1310292140.0 -0.1640745436 -0.9873632193
1315292110.0 -0.1705174589 -0.985760479
1320292080.0 -0.1769508126 -0.9850348409
1325292050.0 -0.1835131916 -0.9838029151
1330292020.0 -0.1901524793 -0.9822549143
1335291990.0 -0.1974060246 -0.9806482532
1340291960.0 -0.2039283631 -0.979500618
1345291930.0 -0.2105822107 -0.9781095969
1350291900.0 -0.2168272761 -0.9766959108
1355291870.0 -0.2230175522 -0.9750692963
1360291840.0 -0.2285279566 -0.9736207656
1365291810.0 -0.2349889409 -0.9721696884
1370291780.0 -0.2416266811 -0.9703039392
1375291750.0 -0.2479376923 -0.9688046563
1380291720.0 -0.2543700123 -0.9673260648
1385291690.0 -0.2614389283 -0.9661403993
1390291660.0 -0.2675303245 -0.9639014767
1395291630.0 -0.2741884467 -0.9618799926
1400291600.0 -0.2804693268 -0.9593818168
1405291570.0 -0.2868989429 -0.9580745688
1410291540.0 -0.2926952237 -0.9562441991
1415291510.0 -0.2993932756 -0.9544403758
1420291480.0 -0.3054995277 -0.9521488588
1425291450.0 -0.3120725622 -0.9499689122
1430291420.0 -0.3176655061 -0.9487609553
1435291390.0 -0.3239080114 -0.9458790745
1440291360.0 -0.3295423842 -0.944042249
1445291330.0 -0.3361197885 -0.9416094935
1450291300.0 -0.3421797411 -0.9390638944
1455291270.0 -0.3484212823 -0.9375454668
1460291240.0 -0.3545728097 -0.9345117271
1465291210.0 -0.3605186265 -0.9326060086
1470291180.0 -0.3669860661 -0.929549378
1475291150.0 -0.3728303359 -0.9275864546
1480291120.0 -0.3792600974 -0.9249531569
1485291090.0 -0.3854939605 -0.922317387
1490291060.0 -0.3919382656 -0.9195263807
1495291030.0 -0.397998364 -0.9168300738
1500291000.0 -0.4040265801 -0.9144465736
1505290970.0 -0.4093618938 -0.911717733
1510290940.0 -0.4151970731 -0.9088532409
1515290910.0 -0.4211635918 -0.9062523756
1520290880.0 -0.4271297076 -0.9033272118
1525290850.0 -0.4327230511 -0.9006646829
1530290820.0 -0.4394380374 -0.8977996561
1535290790.0 -0.4449408372 -0.894239892
1540290760.0 -0.4512463324 -0.8922661775
1545290730.0 -0.4570285731 -0.8886812262
1550290700.0 -0.4628098806 -0.8855029463
1555290670.0 -0.4687927791 -0.8820865355
1560290640.0 -0.4742156743 -0.8797520872
1565290610.0 -0.4802946663 -0.8764280521
1570290580.0 -0.4858224156 -0.873199064
1575290550.0 -0.4913198185 -0.8698564726
1580290520.0 -0.4969831431 -0.8660255803
1585290490.0 -0.502922417 -0.8625990317
1590290460.0 -0.5087549343 -0.8597026922
1595290430.0 -0.5147924355 -0.8566293127
1600290400.0 -0.5202462399 -0.8524079941
1605290370.0 -0.5256857027 -0.8498453335
1610290340.0 -0.5315671292 -0.8454548278
1615290310.0 -0.536993892 -0.8420555331
1620290280.0 -0.5423788872 -0.8386387908
1625290250.0 -0.5481932147 -0.8349499633
1630290220.0 -0.5533959701 -0.8311845648
1635290190.0 -0.5582171573 -0.8276056592
1640290160.0 -0.5632259551 -0.8243434836
1645290130.0 -0.5690397714 -0.8208036626
1650290100.0 -0.5741482903 -0.8167940209
1655290070.0 -0.5797081905 -0.8126101666
1660290040.0 -0.5852828438 -0.8089428568
1665290010.0 -0.5898328448 -0.8050898897
1670289980.0 -0.595949791 -0.8011778752
1675289950.0 -0.6001536525 -0.7972210157
1680289920.0 -0.606200165 -0.7926580987
1685289890.0 -0.6112163779 -0.7886403582
1690289860.0 -0.6170245331 -0.7841486807
1695289830.0 -0.6220574311 -0.7803345326
1700289800.0 -0.627109655 -0.7760471227
1705289770.0 -0.6321897299 -0.7719263423
1710289740.0 -0.637522074 -0.767465564
1715289710.0 -0.6424125667 -0.7634170886
1720289680.0 -0.6470263498 -0.7589581287
1725289650.0 -0.652530996 -0.754706358
1730289620.0 -0.6568544206 -0.7498317286
1735289590.0 -0.6622745746 -0.745894576
1740289560.0 -0.6666263392 -0.7417657532
1745289530.0 -0.6715899648 -0.7372041844
1750289500.0 -0.6761971502 -0.7332289672
1755289470.0 -0.6811387429 -0.7280410299
1760289440.0 -0.6859203592 -0.7236161752
1765289410.0 -0.691006651 -0.7193971926
1770289380.0 -0.6951224757 -0.7145753986
1775289350.0 -0.6999993429 -0.710003401
1780289320.0 -0.7041298403 -0.7055531782
1785289290.0 -0.7090882926 -0.7006537173
1790289260.0 -0.7137096661 -0.6953871396
1795289230.0 -0.7189863474 -0.6910760211
1800289200.0 -0.7229566984 -0.6863900087
1805289170.0 -0.7274665062 -0.6812345427
1810289140.0 -0.7322286018 -0.6764821428
1815289110.0 -0.7358667574 -0.6714312237
1820289080.0 -0.7405168922 -0.6670771935
1825289050.0 -0.7446223999 -0.6620159906
1830289020.0 -0.7488028974 -0.6574737459
1835288990.0 -0.7531508776 -0.6525404342
1840288960.0 -0.7573221009 -0.6475852941
1845288930.0 -0.761484702 -0.6429190438
1850288900.0 -0.7655441717 -0.6373644873
1855288870.0 -0.7699456717 -0.6323266479
1860288840.0 -0.7740439575 -0.6269860556
1865288810.0 -0.7786311797 -0.6213785049
1870288780.0 -0.7821656893 -0.6160566491
1875288750.0 -0.786390729 -0.6113161137
1880288720.0 -0.7906389681 -0.6058049908
1885288690.0 -0.794783606 -0.601409989
1890288660.0 -0.798643542 -0.5949001304
1895288630.0 -0.8020010964 -0.5899920237
1900288600.0 -0.8060894061 -0.5851252998
1905288570.0 -0.8098772823 -0.579466969
1910288540.0 -0.8131985994 -0.5739290519
1915288510.0 -0.8180550244 -0.5684126646
1920288480.0 -0.8211567451 -0.5631247462
1925288450.0 -0.8247509497 -0.5576111737
1930288420.0 -0.8285911087 -0.5521072597
1935288390.0 -0.8313179069 -0.5461099662
1940288360.0 -0.8357883084 -0.5409336127
1945288330.0 -0.8391387423 -0.5353722073
1950288300.0 -0.8424442537 -0.5295270716
1955288270.0 -0.8466461746 -0.5235699106
1960288240.0 -0.8497124473 -0.5176808775
1965288210.0 -0.8531490612 -0.5120461877
1970288180.0 -0.8560764112 -0.5060410947
1975288150.0 -0.8596914363 -0.5009038717
1980288120.0 -0.8626456027 -0.4956595256
1985288090.0 -0.8655348724 -0.4902734436
1990288060.0 -0.8691381715 -0.4839442846
1995288030.0 -0.8718406469 -0.479135463
2000288000.0 -0.8751936043 -0.4731534028
2005287970.0 -0.8780028827 -0.4674118537
2010287940.0 -0.8809084877 -0.4610852427
2015287910.0 -0.8842614258 -0.4553573975
2020287880.0 -0.8865949764 -0.4494787122
2025287850.0 -0.8902085069 -0.4438298642
2030287820.0 -0.8926823077 -0.4374475241
2035287790.0 -0.8955869284 -0.4317693994
2040287760.0 -0.8985892135 -0.4257201373
2045287730.0 -0.9013934326 -0.4193817347
2050287700.0 -0.9037414911 -0.4135679575
2055287670.0 -0.9074029311 -0.4074657471
2060287640.0 -0.9095213626 -0.4016599047
2065287610.0 -0.9125509303 -0.3955128484
2070287580.0 -0.9149712352 -0.389822022
2075287550.0 -0.9171696256 -0.383684407
2080287520.0 -0.9192900079 -0.3770863871
2085287490.0 -0.9214171236 -0.3715895831
2090287460.0 -0.9244559628 -0.3658859539
2095287430.0 -0.9266024541 -0.3590793042
2100287400.0 -0.9292564884 -0.3527143431
2105287370.0 -0.931468437 -0.3467514344
2110287340.0 -0.9334617499 -0.3402515688
2115287310.0 -0.9357990204 -0.3343246815
2120287280.0 -0.9376916688 -0.3278464949
2125287250.0 -0.9396155924 -0.3215660925
2130287220.0 -0.9419396784 -0.3156360164
2135287190.0 -0.9439289566 -0.3088609854
2140287160.0 -0.9458458911 -0.3026876907
2145287130.0 -0.9481587937 -0.2962922212
2150287100.0 -0.9497884888 -0.2899025869
2155287070.0 -0.9517602929 -0.2835501918
2160287040.0 -0.9528946173 -0.2777963496
2165287010.0 -0.9551024194 -0.2711387775
2170286980.0 -0.9569856851 -0.2648296169
2175286950.0 -0.9582136197 -0.258863634
2180286920.0 -0.9595961482 -0.2527476364
2185286890.0 -0.9617125316 -0.2469020296
2190286860.0 -0.9633547411 -0.2403770709
2195286830.0 -0.9650705858 -0.2340099996
2200286800.0 -0.9665724529 -0.2275520224
2205286770.0 -0.9675795639 -0.2214446521
2210286740.0 -0.969238198 -0.2152395563
2215286710.0 -0.9700862503 -0.2094288169
2220286680.0 -0.9716484005 -0.2020574626
2225286650.0 -0.9731051776 -0.1959019235
2230286620.0 -0.9742656787 -0.1889581337
2235286590.0 -0.9755254407 -0.1828641905
2240286560.0 -0.9767032639 -0.1759530225
2245286530.0 -0.9778254674 -0.1695842233
2250286500.0 -0.9789772448 -0.1631045073
2255286470.0 -0.9795269053 -0.1562898326
2260286440.0 -0.9804129532 -0.1495929785
2265286410.0 -0.9822898409 -0.1434032908
2270286380.0 -0.9829327428 -0.1366912297
2275286350.0 -0.9832624427 -0.1304437402
2280286320.0 -0.9842312511 -0.1233556074
2285286290.0 -0.9848580216 -0.1168357718
2290286260.0 -0.9859373812 -0.1098978777
2295286230.0 -0.9868897665 -0.1040710974
2300286200.0 -0.9872362135 -0.0979977534
2305286170.0 -0.9872005166 -0.0908580942
2310286140.0 -0.9877832654 -0.0840151261
2315286110.0 -0.989058139 -0.0775189247
2320286080.0 -0.9886901234 -0.0707399946
2325286050.0 -0.9892901013 -0.0645195358
2330286020.0 -0.9901859271 -0.0579707646
2335285990.0 -0.9904593576 -0.0516277668
2340285960.0 -0.9907999656 -0.0453436164
2345285930.0 -0.9904691213 -0.038793675
2350285900.0 -0.9907305646 -0.0315175433
2355285870.0 -0.9909876984 -0.0253754207
2360285840.0 -0.991217972 -0.0186764298
2365285810.0 -0.991318319 -0.0120905619
2370285780.0 -0.9916334206 -0.0055040041
2375285750.0 -0.9910354399 0.0007256954
2380285720.0 -0.9912317431 0.0075251191
2385285690.0 -0.9914242554 0.0134709821
2390285660.0 -0.9913494708 0.0200285496
2395285630.0 -0.9904662295 0.0266632273
2400285600.0 -0.9905719763 0.0333974548
2405285570.0 -0.990285461 0.0393086607
2410285540.0 -0.9905886265 0.0462250651
2415285510.0 -0.9899992085 0.0526146422
2420285480.0 -0.9892877792 0.0585796036
2425285450.0 -0.988940113 0.0653499255
2430285420.0 -0.9881290875 0.0722700522
2435285390.0 -0.987581428 0.0786876672
2440285360.0 -0.9874765514 0.0846182847
2445285330.0 -0.9863250733 0.091656635
2450285300.0 -0.9855177249 0.0984531927
2455285270.0 -0.984861092 0.1049884673
2460285240.0 -0.9842424375 0.1116545943
2465285210.0 -0.9833469219 0.1180581761
2470285180.0 -0.9824551528 0.12470939
2475285150.0 -0.9817202716 0.1310007324
2480285120.0 -0.9807428102 0.1375398878
2485285090.0 -0.9803644072 0.1448718712
2490285060.0 -0.9786307332 0.1510217061
2495285030.0 -0.9784025599 0.156879466
