!Created with skrf (http://scikit-rf.org).
# Hz S RI R 50.0 
!freq ReS11 ImS11
45000000.0 0.06920623779296875 0.08723068237304688
49995500.0 0.0880279541015625 0.08717727661132812
54991000.0 0.10847854614257812 0.08321762084960938
59986500.0 0.1273193359375 0.08489227294921875
64982000.0 0.14821624755859375 0.078216552734375
69977500.0 0.16953277587890625 0.06585693359375
74973000.0 0.1900634765625 0.049591064453125
79968500.0 0.20868682861328125 0.02886199951171875
84964000.0 0.225006103515625 0.00421905517578125
89959500.0 0.23760986328125 -0.0240631103515625
94955000.0 0.2464141845703125 -0.05584716796875
99950500.0 0.2498321533203125 -0.0897064208984375
104946000.0 0.24813079833984375 -0.12516021728515625
109941500.0 0.24141693115234375 -0.16104888916015625
114937000.0 0.22881317138671875 -0.19724273681640625
119932500.0 0.2108306884765625 -0.23183441162109375
124928000.0 0.1884002685546875 -0.2650909423828125
129923500.0 0.1608123779296875 -0.2953033447265625
134919000.0 0.128631591796875 -0.32275390625
139914500.0 0.092315673828125 -0.3469390869140625
144910000.0 0.052398681640625 -0.366973876953125
149905500.0 0.0089569091796875 -0.381988525390625
154901000.0 -0.0367889404296875 -0.3921051025390625
159896500.0 -0.0845794677734375 -0.3965606689453125
164892000.0 -0.133941650390625 -0.3954315185546875
169887500.0 -0.184234619140625 -0.3876953125
174883000.0 -0.2347564697265625 -0.3737335205078125
179878500.0 -0.284454345703125 -0.3529815673828125
184874000.0 -0.3318939208984375 -0.3259124755859375
189869500.0 -0.377532958984375 -0.2916107177734375
194865000.0 -0.4192352294921875 -0.2514801025390625
199860500.0 -0.4566650390625 -0.205474853515625
204856000.0 -0.4881591796875 -0.153778076171875
209851500.0 -0.513824462890625 -0.09747314453125
214847000.0 -0.53271484375 -0.03753662109375
219842500.0 -0.5443115234375 0.025390625
224838000.0 -0.5478515625 0.090118408203125
229833500.0 -0.543975830078125 0.1558837890625
234829000.0 -0.53204345703125 0.22125244140625
239824500.0 -0.51220703125 0.285919189453125
244820000.0 -0.4847564697265625 0.3482818603515625
249815500.0 -0.4498443603515625 0.4082183837890625
254811000.0 -0.4310760498046875 0.4514312744140625
259806500.0 -0.3857421875 0.505645751953125
264802000.0 -0.333526611328125 0.555511474609375
269797500.0 -0.27490234375 0.600128173828125
274793000.0 -0.210693359375 0.638763427734375
279788500.0 -0.141265869140625 0.670562744140625
284784000.0 -0.067047119140625 0.695159912109375
289779500.0 0.0111083984375 0.711761474609375
294775000.0 0.093109130859375 0.719451904296875
299770500.0 0.17718505859375 0.718109130859375
304766000.0 0.262420654296875 0.70654296875
309761500.0 0.34765625 0.684234619140625
314757000.0 0.43182373046875 0.65069580078125
319752500.0 0.513092041015625 0.60589599609375
324748000.0 0.5897216796875 0.55108642578125
329743500.0 0.660247802734375 0.48553466796875
334739000.0 0.723724365234375 0.410064697265625
339734500.0 0.777740478515625 0.326080322265625
344730000.0 0.821136474609375 0.234375
349725500.0 0.852874755859375 0.137451171875
354721000.0 0.87249755859375 0.036712646484375
359716500.0 0.87908935546875 -0.06646728515625
364712000.0 0.873016357421875 -0.170440673828125
369707500.0 0.854248046875 -0.273193359375
374703000.0 0.82354736328125 -0.373992919921875
379698500.0 0.780853271484375 -0.469635009765625
384694000.0 0.72723388671875 -0.5604248046875
389689500.0 0.6636962890625 -0.64471435546875
394685000.0 0.590667724609375 -0.721221923828125
399680500.0 0.51019287109375 -0.790130615234375
404676000.0 0.421905517578125 -0.849822998046875
409671500.0 0.32696533203125 -0.902252197265625
414667000.0 0.226806640625 -0.941558837890625
419662500.0 0.1214599609375 -0.971527099609375
424658000.0 0.011444091796875 -0.9901123046875
429653500.0 -0.1029052734375 -0.996673583984375
434649000.0 -0.218963623046875 -0.988922119140625
439644500.0 -0.334136962890625 -0.96820068359375
444640000.0 -0.4482421875 -0.934478759765625
449635500.0 -0.55950927734375 -0.88787841796875
454631000.0 -0.66839599609375 -0.8280029296875
459626500.0 -0.771636962890625 -0.752777099609375
464622000.0 -0.866119384765625 -0.661865234375
469617500.0 -0.94952392578125 -0.5584716796875
474613000.0 -1.01922607421875 -0.4434814453125
479608500.0 -1.073974609375 -0.3187255859375
484604000.0 -1.1116943359375 -0.1871337890625
489599500.0 -1.131591796875 -0.05023193359375
494595000.0 -1.1326904296875 0.08734130859375
499590500.0 -1.1158447265625 0.22320556640625
504586000.0 -1.08148193359375 0.3541259765625
509581500.0 -1.03094482421875 0.47802734375
514577000.0 -0.966217041015625 0.592529296875
519572500.0 -0.89019775390625 0.696441650390625
524568000.0 -0.804656982421875 0.788818359375
529563500.0 -0.712188720703125 0.86956787109375
534559000.0 -0.614715576171875 0.939788818359375
539554500.0 -0.51336669921875 1.0001220703125
544550000.0 -0.40802001953125 1.05145263671875
549545500.0 -0.29852294921875 1.0950927734375
554541000.0 -0.18280029296875 1.129150390625
559536500.0 -0.06378173828125 1.15399169921875
564532000.0 0.06103515625 1.16693115234375
569527500.0 0.1893310546875 1.16748046875
574523000.0 0.3201904296875 1.15350341796875
579518500.0 0.45172119140625 1.1248779296875
584514000.0 0.58184814453125 1.0810546875
589509500.0 0.70904541015625 1.02142333984375
594505000.0 0.83172607421875 0.94573974609375
599500500.0 0.946929931640625 0.854278564453125
604496000.0 1.05303955078125 0.7469482421875
609491500.0 1.14715576171875 0.6248779296875
614487000.0 1.226806640625 0.48980712890625
619482500.0 1.28955078125 0.342529296875
624478000.0 1.33306884765625 0.18634033203125
629473500.0 1.35577392578125 0.02410888671875
634469000.0 1.35614013671875 -0.14105224609375
639464500.0 1.33441162109375 -0.30517578125
644460000.0 1.290771484375 -0.46527099609375
649455500.0 1.22662353515625 -0.61767578125
654451000.0 1.1439208984375 -0.75946044921875
659446500.0 1.04425048828125 -0.88800048828125
664442000.0 0.93157958984375 -1.00177001953125
669437500.0 0.807373046875 -1.099853515625
674433000.0 0.6746826171875 -1.18133544921875
679428500.0 0.53594970703125 -1.24603271484375
684424000.0 0.3934326171875 -1.2945556640625
689419500.0 0.24822998046875 -1.32745361328125
694415000.0 0.10260009765625 -1.34478759765625
699410500.0 -0.042236328125 -1.347900390625
704406000.0 -0.18621826171875 -1.33721923828125
709401500.0 -0.32781982421875 -1.31353759765625
714397000.0 -0.46728515625 -1.27618408203125
719392500.0 -0.6029052734375 -1.22589111328125
724388000.0 -0.73504638671875 -1.16351318359375
729383500.0 -0.8623046875 -1.0870361328125
734379000.0 -0.9833984375 -0.99652099609375
739374500.0 -1.09759521484375 -0.89263916015625
744370000.0 -1.20220947265625 -0.77435302734375
749365500.0 -1.2967529296875 -0.6429443359375
754361000.0 -1.37762451171875 -0.4976806640625
759356500.0 -1.44232177734375 -0.33966064453125
764352000.0 -1.488525390625 -0.171142578125
769347500.0 -1.5135498046875 0.00592041015625
774343000.0 -1.5157470703125 0.1883544921875
779338500.0 -1.49420166015625 0.37200927734375
784334000.0 -1.44696044921875 0.5535888671875
789329500.0 -1.3736572265625 0.7279052734375
794325000.0 -1.2784423828125 0.89166259765625
799320500.0 -1.162109375 1.0406494140625
804316000.0 -1.02764892578125 1.17144775390625
809311500.0 -0.87872314453125 1.2823486328125
814307000.0 -0.71917724609375 1.3719482421875
819302500.0 -0.55279541015625 1.439697265625
824298000.0 -0.38116455078125 1.48583984375
829293500.0 -0.21075439453125 1.5123291015625
834289000.0 -0.040283203125 1.5179443359375
839284500.0 0.1256103515625 1.506103515625
844280000.0 0.22674560546875 1.50897216796875
849275500.0 0.38616943359375 1.4720458984375
854271000.0 0.53955078125 1.420654296875
859266500.0 0.68597412109375 1.35552978515625
864262000.0 0.8255615234375 1.2769775390625
869257500.0 0.9564208984375 1.18536376953125
874253000.0 1.07928466796875 1.08209228515625
879248500.0 1.192138671875 0.96746826171875
884244000.0 1.294921875 0.84100341796875
889239500.0 1.38629150390625 0.70416259765625
894235000.0 1.466064453125 0.5570068359375
899230500.0 1.531494140625 0.4000244140625
904226000.0 1.5833740234375 0.23236083984375
909221500.0 1.61688232421875 0.0550537109375
914217000.0 1.629638671875 -0.13055419921875
919212500.0 1.6204833984375 -0.320556640625
924208000.0 1.5860595703125 -0.51214599609375
929203500.0 1.526611328125 -0.70001220703125
934199000.0 1.44207763671875 -0.8818359375
939194500.0 1.33331298828125 -1.0526123046875
944190000.0 1.202392578125 -1.2081298828125
949185500.0 1.05194091796875 -1.34490966796875
954181000.0 0.884521484375 -1.46038818359375
959176500.0 0.70513916015625 -1.55224609375
964172000.0 0.51715087890625 -1.62054443359375
969167500.0 0.32452392578125 -1.66363525390625
974163000.0 0.131103515625 -1.68310546875
979158500.0 -0.06036376953125 -1.67938232421875
984154000.0 -0.24676513671875 -1.65460205078125
989149500.0 -0.42645263671875 -1.61065673828125
994145000.0 -0.59735107421875 -1.5484619140625
999140500.0 -0.75982666015625 -1.470703125
1004136000.0 -0.9117431640625 -1.377685546875
1009131500.0 -1.05352783203125 -1.27197265625
1014127000.0 -1.1842041015625 -1.15283203125
1019122500.0 -1.30230712890625 -1.02142333984375
1024118000.0 -1.408203125 -0.87957763671875
1029113500.0 -1.5010986328125 -0.725830078125
1034109000.0 -1.57843017578125 -0.5621337890625
1039104500.0 -1.6395263671875 -0.389404296875
1044100000.0 -1.68377685546875 -0.20843505859375
1049095500.0 -1.708251953125 -0.02008056640625
1054091000.0 -1.71173095703125 0.17291259765625
1059086500.0 -1.692626953125 0.3680419921875
1064082000.0 -1.65032958984375 0.563720703125
1069077500.0 -1.58331298828125 0.75531005859375
1074073000.0 -1.49176025390625 0.93914794921875
1079068500.0 -1.37701416015625 1.1121826171875
1084064000.0 -1.23956298828125 1.2701416015625
1089059500.0 -1.08270263671875 1.40997314453125
1094055000.0 -0.90899658203125 1.528564453125
1099050500.0 -0.7220458984375 1.62335205078125
1104046000.0 -0.525390625 1.69287109375
1109041500.0 -0.3236083984375 1.73699951171875
1114037000.0 -0.120361328125 1.75537109375
1119032500.0 0.08148193359375 1.7496337890625
1124028000.0 0.27777099609375 1.720458984375
1129023500.0 0.46728515625 1.66943359375
1134019000.0 0.647216796875 1.59912109375
1139014500.0 0.8157958984375 1.5106201171875
1144010000.0 0.9716796875 1.40679931640625
1149005500.0 1.114501953125 1.28802490234375
1154001000.0 1.24298095703125 1.15673828125
1158996500.0 1.3580322265625 1.01446533203125
1163992000.0 1.45733642578125 0.8616943359375
1168987500.0 1.541259765625 0.700439453125
1173983000.0 1.60821533203125 0.5316162109375
1178978500.0 1.657470703125 0.35662841796875
1183974000.0 1.68975830078125 0.176513671875
1188969500.0 1.7037353515625 -0.00677490234375
1193965000.0 1.69842529296875 -0.1923828125
1198960500.0 1.6734619140625 -0.37786865234375
1203956000.0 1.628173828125 -0.56195068359375
1208951500.0 1.562744140625 -0.74163818359375
1213947000.0 1.47662353515625 -0.9146728515625
1218942500.0 1.370361328125 -1.07830810546875
1223938000.0 1.24505615234375 -1.23077392578125
1228933500.0 1.10162353515625 -1.368408203125
1233929000.0 0.94183349609375 -1.4893798828125
1238924500.0 0.7681884765625 -1.591064453125
1243920000.0 0.58233642578125 -1.67230224609375
1248915500.0 0.38775634765625 -1.73040771484375
1253911000.0 0.1876220703125 -1.76483154296875
1258906500.0 -0.01702880859375 -1.77545166015625
1263902000.0 -0.21990966796875 -1.76177978515625
1268897500.0 -0.420654296875 -1.72479248046875
1273893000.0 -0.61065673828125 -1.66326904296875
1278888500.0 -0.794677734375 -1.5814208984375
1283884000.0 -0.96649169921875 -1.4793701171875
1288879500.0 -1.12420654296875 -1.3585205078125
1293875000.0 -1.267822265625 -1.22149658203125
1298870500.0 -1.3935546875 -1.0704345703125
1303866000.0 -1.50164794921875 -0.90625
1308861500.0 -1.5904541015625 -0.73211669921875
1313857000.0 -1.65875244140625 -0.549560546875
1318852500.0 -1.70672607421875 -0.361083984375
1323848000.0 -1.7330322265625 -0.16943359375
1328843500.0 -1.738525390625 0.0234375
1333839000.0 -1.7227783203125 0.21563720703125
1338834500.0 -1.68560791015625 0.4039306640625
1343830000.0 -1.62890625 0.586181640625
1348825500.0 -1.55291748046875 0.76171875
1353821000.0 -1.45770263671875 0.9263916015625
1358816500.0 -1.345947265625 1.079833984375
1363812000.0 -1.21844482421875 1.22052001953125
1368807500.0 -1.0770263671875 1.34613037109375
1373803000.0 -0.92279052734375 1.45550537109375
1378798500.0 -0.7581787109375 1.5479736328125
1383794000.0 -0.5843505859375 1.6221923828125
1388789500.0 -0.404052734375 1.67724609375
1393785000.0 -0.21722412109375 1.71337890625
1398780500.0 -0.0279541015625 1.7293701171875
1403776000.0 0.16326904296875 1.724853515625
1408771500.0 0.35333251953125 1.69927978515625
1413767000.0 0.5408935546875 1.65350341796875
1418762500.0 0.722900390625 1.58673095703125
1423758000.0 0.89874267578125 1.49993896484375
1428753500.0 1.0645751953125 1.3927001953125
1433749000.0 1.21807861328125 1.26611328125
1438744500.0 1.3577880859375 1.12152099609375
1443740000.0 1.47979736328125 0.96002197265625
1448735500.0 1.58123779296875 0.78399658203125
1453731000.0 1.66204833984375 0.595947265625
1458726500.0 1.71942138671875 0.39898681640625
1463722000.0 1.7506103515625 0.1961669921875
1468717500.0 1.7569580078125 -0.00738525390625
1473713000.0 1.73785400390625 -0.21026611328125
1478708500.0 1.69354248046875 -0.40716552734375
1483704000.0 1.626953125 -0.595703125
1488699500.0 1.5389404296875 -0.77313232421875
1493695000.0 1.4315185546875 -0.9344482421875
1498690500.0 1.30865478515625 -1.08123779296875
1503686000.0 1.1715087890625 -1.21014404296875
1508681500.0 1.02374267578125 -1.32098388671875
1513677000.0 0.86822509765625 -1.41357421875
1518672500.0 0.7064208984375 -1.48822021484375
1523668000.0 0.5400390625 -1.54510498046875
1528663500.0 0.37200927734375 -1.58447265625
1533659000.0 0.20263671875 -1.60699462890625
1538654500.0 0.033447265625 -1.6131591796875
1543650000.0 -0.1343994140625 -1.60357666015625
1548645500.0 -0.29962158203125 -1.5780029296875
1553641000.0 -0.4617919921875 -1.5374755859375
1558636500.0 -0.62005615234375 -1.4815673828125
1563632000.0 -0.7728271484375 -1.41009521484375
1568627500.0 -0.91851806640625 -1.32305908203125
1573623000.0 -1.0570068359375 -1.2215576171875
1578618500.0 -1.185546875 -1.10394287109375
1583614000.0 -1.30206298828125 -0.97296142578125
1588609500.0 -1.4052734375 -0.827880859375
1593605000.0 -1.49285888671875 -0.6700439453125
1598600500.0 -1.56207275390625 -0.50225830078125
1603596000.0 -1.6121826171875 -0.3245849609375
1608591500.0 -1.640869140625 -0.14154052734375
1613587000.0 -1.64788818359375 0.044677734375
1618582500.0 -1.630859375 0.230224609375
1623578000.0 -1.592529296875 0.41259765625
1628573500.0 -1.531982421875 0.588134765625
1633569000.0 -1.45123291015625 0.754150390625
1638564500.0 -1.35247802734375 0.90777587890625
1643560000.0 -1.23760986328125 1.0479736328125
1648555500.0 -1.10919189453125 1.171630859375
1653551000.0 -0.9697265625 1.2783203125
1658546500.0 -0.821533203125 1.367919921875
1663542000.0 -0.6673583984375 1.44073486328125
1668537500.0 -0.50830078125 1.49609375
1673533000.0 -0.34674072265625 1.535400390625
1678528500.0 -0.184326171875 1.558349609375
1683524000.0 -0.02178955078125 1.5655517578125
1688519500.0 0.14019775390625 1.55743408203125
1693515000.0 0.30010986328125 1.534912109375
1698510500.0 0.45819091796875 1.497314453125
1703506000.0 0.613037109375 1.4454345703125
1708501500.0 0.76226806640625 1.37945556640625
1713497000.0 0.907470703125 1.29766845703125
1718492500.0 1.0460205078125 1.20086669921875
1723488000.0 1.17633056640625 1.0887451171875
1728483500.0 1.29644775390625 0.9603271484375
1733479000.0 1.40386962890625 0.81689453125
1738474500.0 1.496826171875 0.65875244140625
1743470000.0 1.57110595703125 0.48760986328125
1748465500.0 1.62451171875 0.30609130859375
1753461000.0 1.65509033203125 0.11590576171875
1758456500.0 1.66143798828125 -0.0787353515625
1763452000.0 1.640869140625 -0.2728271484375
1768447500.0 1.595703125 -0.4632568359375
1773443000.0 1.52593994140625 -0.6451416015625
1778438500.0 1.43365478515625 -0.81463623046875
1783434000.0 1.3216552734375 -0.96893310546875
1788429500.0 1.19329833984375 -1.10528564453125
1793425000.0 1.052490234375 -1.22198486328125
1798420500.0 0.90191650390625 -1.320068359375
1803416000.0 0.74530029296875 -1.39794921875
1808411500.0 0.585205078125 -1.45709228515625
1813407000.0 0.4234619140625 -1.49847412109375
1818402500.0 0.2615966796875 -1.5233154296875
1823398000.0 0.101806640625 -1.5322265625
1828393500.0 -0.05621337890625 -1.52667236328125
1833389000.0 -0.21044921875 -1.5074462890625
1838384500.0 -0.3619384765625 -1.47467041015625
1843380000.0 -0.50970458984375 -1.42938232421875
1848375500.0 -0.6534423828125 -1.37109375
1853371000.0 -0.7919921875 -1.300048828125
1858366500.0 -0.925537109375 -1.2156982421875
1863362000.0 -1.05218505859375 -1.11712646484375
1868357500.0 -1.17108154296875 -1.00537109375
1873353000.0 -1.28009033203125 -0.87933349609375
1878348500.0 -1.37713623046875 -0.73968505859375
1883344000.0 -1.458984375 -0.5869140625
1888339500.0 -1.5242919921875 -0.42218017578125
1893335000.0 -1.5703125 -0.24761962890625
1898330500.0 -1.59417724609375 -0.06634521484375
1903326000.0 -1.5947265625 0.1185302734375
1908321500.0 -1.5714111328125 0.30316162109375
1913317000.0 -1.52392578125 0.48358154296875
1918312500.0 -1.4532470703125 0.655517578125
1923308000.0 -1.36175537109375 0.81585693359375
1928303500.0 -1.25128173828125 0.96063232421875
1933299000.0 -1.125732421875 1.08917236328125
1938294500.0 -0.98809814453125 1.19915771484375
1943290000.0 -0.84149169921875 1.2896728515625
1948285500.0 -0.68927001953125 1.36181640625
1953281000.0 -0.53314208984375 1.41558837890625
1958276500.0 -0.37615966796875 1.45184326171875
1963272000.0 -0.21966552734375 1.47125244140625
1968267500.0 -0.06500244140625 1.47540283203125
1973263000.0 0.08673095703125 1.46533203125
1978258500.0 0.2349853515625 1.44146728515625
1983254000.0 0.37945556640625 1.40399169921875
1988249500.0 0.5191650390625 1.35516357421875
1993245000.0 0.6536865234375 1.2930908203125
1998240500.0 0.781494140625 1.21868896484375
2003236000.0 0.903076171875 1.13330078125
2008231500.0 1.01690673828125 1.03509521484375
2013227000.0 1.12158203125 0.9249267578125
2018222500.0 1.2154541015625 0.804443359375
2023218000.0 1.29693603515625 0.67315673828125
2028213500.0 1.3653564453125 0.5321044921875
2033209000.0 1.41845703125 0.38299560546875
2038204500.0 1.45452880859375 0.22760009765625
2043200000.0 1.47265625 0.068359375
2048195500.0 1.47283935546875 -0.0936279296875
2053191000.0 1.45361328125 -0.25433349609375
2058186500.0 1.416015625 -0.41131591796875
2063182000.0 1.36083984375 -0.5628662109375
2068177500.0 1.2889404296875 -0.706298828125
2073173000.0 1.2020263671875 -0.8397216796875
2078168500.0 1.10125732421875 -0.96148681640625
2083164000.0 0.989013671875 -1.07025146484375
2088159500.0 0.86737060546875 -1.165771484375
2093155000.0 0.73785400390625 -1.2471923828125
2098150500.0 0.601806640625 -1.3143310546875
2103146000.0 0.46063232421875 -1.3680419921875
2108141500.0 0.316162109375 -1.40667724609375
2113137000.0 0.16925048828125 -1.43157958984375
2118132500.0 0.02105712890625 -1.4422607421875
2123128000.0 -0.12799072265625 -1.43902587890625
2128123500.0 -0.27703857421875 -1.4217529296875
2133119000.0 -0.4239501953125 -1.38995361328125
2138114500.0 -0.56903076171875 -1.3441162109375
2143110000.0 -0.710693359375 -1.28271484375
2148105500.0 -0.846435546875 -1.20672607421875
2153101000.0 -0.97662353515625 -1.11627197265625
2158096500.0 -1.09759521484375 -1.00994873046875
2163092000.0 -1.2091064453125 -0.889404296875
2168087500.0 -1.30609130859375 -0.75494384765625
2173083000.0 -1.3887939453125 -0.6080322265625
2178078500.0 -1.45404052734375 -0.45062255859375
2183074000.0 -1.50042724609375 -0.2845458984375
2188069500.0 -1.52630615234375 -0.1134033203125
