!Created with skrf (http://scikit-rf.org).
# Hz S RI R 50.0 
!freq ReS11 ImS11
45000000.0 -0.00858926773071289 -0.0065212249755859375
49995500.0 -0.010118961334228516 -0.0058383941650390625
54991000.0 -0.011701583862304688 -0.005087375640869141
59986500.0 -0.013086795806884766 -0.004676342010498047
64982000.0 -0.014525413513183594 -0.0036211013793945312
69977500.0 -0.015923500061035156 -0.0022497177124023438
74973000.0 -0.01711750030517578 -0.00039577484130859375
79968500.0 -0.018024444580078125 0.001514434814453125
84964000.0 -0.01891040802001953 0.0036859512329101562
89959500.0 -0.019330978393554688 0.006117820739746094
94955000.0 -0.01939868927001953 0.008604049682617188
99950500.0 -0.019144058227539062 0.011468887329101562
104946000.0 -0.018541336059570312 0.014188766479492188
109941500.0 -0.017488479614257812 0.0169219970703125
114937000.0 -0.01595783233642578 0.019641876220703125
119932500.0 -0.0139312744140625 0.022144317626953125
124928000.0 -0.011668205261230469 0.02449512481689453
129923500.0 -0.009057044982910156 0.026681900024414062
134919000.0 -0.006031990051269531 0.028392791748046875
139914500.0 -0.0027379989624023438 0.02990436553955078
144910000.0 0.0008907318115234375 0.030997276306152344
149905500.0 0.0047760009765625 0.031543731689453125
154901000.0 0.008607864379882812 0.03170967102050781
159896500.0 0.01275634765625 0.031284332275390625
164892000.0 0.016744613647460938 0.03041553497314453
169887500.0 0.02069377899169922 0.02895832061767578
174883000.0 0.024603843688964844 0.027062416076660156
179878500.0 0.02823162078857422 0.024628639221191406
184874000.0 0.03171348571777344 0.021631240844726562
189869500.0 0.03487396240234375 0.018224716186523438
194865000.0 0.03771400451660156 0.01432037353515625
199860500.0 0.03983497619628906 0.010099411010742188
204856000.0 0.04171562194824219 0.005466461181640625
209851500.0 0.04291534423828125 0.000576019287109375
214847000.0 0.04364967346191406 -0.0045948028564453125
219842500.0 0.04367637634277344 -0.009836196899414062
224838000.0 0.04315948486328125 -0.015188217163085938
229833500.0 0.041927337646484375 -0.020524978637695312
234829000.0 0.03988075256347656 -0.025667190551757812
239824500.0 0.037387847900390625 -0.030780792236328125
244820000.0 0.034244537353515625 -0.03563499450683594
249815500.0 0.030376434326171875 -0.039974212646484375
254811000.0 0.02799224853515625 -0.043331146240234375
259806500.0 0.023241043090820312 -0.04706001281738281
264802000.0 0.018093109130859375 -0.050441741943359375
269797500.0 0.012365341186523438 -0.05302238464355469
274793000.0 0.0063724517822265625 -0.054981231689453125
279788500.0 9.1552734375e-05 -0.05647087097167969
284784000.0 -0.0065288543701171875 -0.05702972412109375
289779500.0 -0.013248443603515625 -0.05682945251464844
294775000.0 -0.019878387451171875 -0.055805206298828125
299770500.0 -0.0267333984375 -0.053936004638671875
304766000.0 -0.03330039978027344 -0.051158905029296875
309761500.0 -0.03968238830566406 -0.0477752685546875
314757000.0 -0.045436859130859375 -0.043399810791015625
319752500.0 -0.050769805908203125 -0.03828620910644531
324748000.0 -0.05559730529785156 -0.032474517822265625
329743500.0 -0.05980491638183594 -0.02611541748046875
334739000.0 -0.06322097778320312 -0.019268035888671875
339734500.0 -0.0659942626953125 -0.0117645263671875
344730000.0 -0.06749725341796875 -0.004184722900390625
349725500.0 -0.06841278076171875 0.00374603271484375
354721000.0 -0.06822967529296875 0.01177215576171875
359716500.0 -0.06715774536132812 0.02001190185546875
364712000.0 -0.06500244140625 0.0278472900390625
369707500.0 -0.061954498291015625 0.035625457763671875
374703000.0 -0.05787467956542969 0.043186187744140625
379698500.0 -0.05316352844238281 0.050189971923828125
384694000.0 -0.04741096496582031 0.05668830871582031
389689500.0 -0.04066658020019531 0.06233406066894531
394685000.0 -0.03340911865234375 0.06720352172851562
399680500.0 -0.025569915771484375 0.07143783569335938
404676000.0 -0.01711273193359375 0.07468795776367188
409671500.0 -0.008373260498046875 0.07680130004882812
414667000.0 0.000591278076171875 0.0779266357421875
419662500.0 0.009952545166015625 0.07806777954101562
424658000.0 0.019145965576171875 0.076934814453125
429653500.0 0.0281829833984375 0.07481002807617188
434649000.0 0.03714752197265625 0.0712738037109375
439644500.0 0.0453643798828125 0.06685256958007812
444640000.0 0.05314064025878906 0.06158256530761719
449635500.0 0.06040382385253906 0.05535316467285156
454631000.0 0.0670166015625 0.048381805419921875
459626500.0 0.07273483276367188 0.040340423583984375
464622000.0 0.07738113403320312 0.031829833984375
469617500.0 0.08116531372070312 0.022724151611328125
474613000.0 0.083740234375 0.01313018798828125
479608500.0 0.08518218994140625 0.003238677978515625
484604000.0 0.085540771484375 -0.006771087646484375
489599500.0 0.08462142944335938 -0.016815185546875
494595000.0 0.08252716064453125 -0.026790618896484375
499590500.0 0.0793304443359375 -0.036457061767578125
504586000.0 0.07498550415039062 -0.0455169677734375
509581500.0 0.06948089599609375 -0.05426788330078125
514577000.0 0.062896728515625 -0.06221771240234375
519572500.0 0.0555572509765625 -0.06929397583007812
524568000.0 0.0472564697265625 -0.07559585571289062
529563500.0 0.038440704345703125 -0.08082199096679688
534559000.0 0.029041290283203125 -0.084991455078125
539554500.0 0.019222259521484375 -0.088043212890625
544550000.0 0.009174346923828125 -0.09011459350585938
549545500.0 -0.0011444091796875 -0.09104537963867188
554541000.0 -0.0114898681640625 -0.0908660888671875
559536500.0 -0.02190399169921875 -0.08953475952148438
564532000.0 -0.032314300537109375 -0.08691024780273438
569527500.0 -0.04227447509765625 -0.08319091796875
574523000.0 -0.052005767822265625 -0.0782318115234375
579518500.0 -0.060985565185546875 -0.07199859619140625
584514000.0 -0.06924057006835938 -0.06478118896484375
589509500.0 -0.07668685913085938 -0.05657958984375
594505000.0 -0.0831298828125 -0.047588348388671875
599500500.0 -0.08846282958984375 -0.03771209716796875
604496000.0 -0.09259796142578125 -0.0272064208984375
609491500.0 -0.09556198120117188 -0.016498565673828125
614487000.0 -0.097137451171875 -0.005214691162109375
619482500.0 -0.09755325317382812 0.006099700927734375
624478000.0 -0.096588134765625 0.0173492431640625
629473500.0 -0.0943450927734375 0.02858734130859375
634469000.0 -0.09068679809570312 0.039455413818359375
639464500.0 -0.08596420288085938 0.049732208251953125
644460000.0 -0.079864501953125 0.0595550537109375
649455500.0 -0.07260513305664062 0.06875228881835938
654451000.0 -0.06439208984375 0.07690811157226562
659446500.0 -0.055267333984375 0.08417510986328125
664442000.0 -0.04521942138671875 0.09032058715820312
669437500.0 -0.0345306396484375 0.0953521728515625
674433000.0 -0.023151397705078125 0.09901046752929688
679428500.0 -0.011501312255859375 0.10134124755859375
684424000.0 0.000354766845703125 0.10231399536132812
689419500.0 0.012447357177734375 0.1018524169921875
694415000.0 0.024303436279296875 0.09985733032226562
699410500.0 0.03582000732421875 0.09653091430664062
704406000.0 0.04693603515625 0.09169387817382812
709401500.0 0.057315826416015625 0.08576583862304688
714397000.0 0.067047119140625 0.078582763671875
719392500.0 0.07587051391601562 0.0703125
724388000.0 0.08361053466796875 0.06097412109375
729383500.0 0.0902557373046875 0.050968170166015625
734379000.0 0.09561920166015625 0.040164947509765625
739374500.0 0.09969711303710938 0.02877044677734375
744370000.0 0.10243988037109375 0.01708221435546875
749365500.0 0.10380172729492188 0.005077362060546875
754361000.0 0.10370254516601562 -0.007030487060546875
759356500.0 0.10222244262695312 -0.0190277099609375
764352000.0 0.09936141967773438 -0.03066253662109375
769347500.0 0.09509658813476562 -0.042072296142578125
774343000.0 0.08966445922851562 -0.05272674560546875
779338500.0 0.08297348022460938 -0.062835693359375
784334000.0 0.07519149780273438 -0.07199859619140625
789329500.0 0.06624984741210938 -0.08012008666992188
794325000.0 0.05658721923828125 -0.08731842041015625
799320500.0 0.04602813720703125 -0.09323883056640625
804316000.0 0.034870147705078125 -0.09801101684570312
809311500.0 0.023464202880859375 -0.10141372680664062
814307000.0 0.01140594482421875 -0.10337448120117188
819302500.0 -0.00055694580078125 -0.10400390625
824298000.0 -0.0126190185546875 -0.1030120849609375
829293500.0 -0.024425506591796875 -0.1009368896484375
834289000.0 -0.035976409912109375 -0.09721755981445312
839284500.0 -0.046939849853515625 -0.09237289428710938
844280000.0 -0.054035186767578125 -0.08961868286132812
849275500.0 -0.0638580322265625 -0.08292007446289062
854271000.0 -0.07296371459960938 -0.07474517822265625
859266500.0 -0.08102035522460938 -0.06576919555664062
864262000.0 -0.08799362182617188 -0.0559844970703125
869257500.0 -0.09350967407226562 -0.045440673828125
874253000.0 -0.09796142578125 -0.034275054931640625
879248500.0 -0.10109329223632812 -0.022777557373046875
884244000.0 -0.10285186767578125 -0.011196136474609375
889239500.0 -0.103363037109375 0.0006256103515625
894235000.0 -0.1027069091796875 0.012378692626953125
899230500.0 -0.10046768188476562 0.024082183837890625
904226000.0 -0.09710311889648438 0.03533172607421875
909221500.0 -0.0923614501953125 0.046276092529296875
914217000.0 -0.08639144897460938 0.056732177734375
919212500.0 -0.079254150390625 0.0662994384765625
924208000.0 -0.07103347778320312 0.07497787475585938
929203500.0 -0.061798095703125 0.08270645141601562
934199000.0 -0.05179595947265625 0.08924484252929688
939194500.0 -0.040966033935546875 0.09462738037109375
944190000.0 -0.029621124267578125 0.09870147705078125
949185500.0 -0.017974853515625 0.10137176513671875
954181000.0 -0.00603485107421875 0.10271453857421875
959176500.0 0.005901336669921875 0.1026458740234375
964172000.0 0.01788330078125 0.101226806640625
969167500.0 0.029758453369140625 0.09828567504882812
974163000.0 0.040904998779296875 0.09401321411132812
979158500.0 0.05155181884765625 0.08852767944335938
984154000.0 0.061492919921875 0.08163833618164062
989149500.0 0.0706024169921875 0.07373809814453125
994145000.0 0.07854080200195312 0.06475830078125
999140500.0 0.08547210693359375 0.054901123046875
1004136000.0 0.09114837646484375 0.04438018798828125
1009131500.0 0.09560012817382812 0.0332183837890625
1014127000.0 0.09857559204101562 0.02155303955078125
1019122500.0 0.10007095336914062 0.009796142578125
1024118000.0 0.10031890869140625 -0.002017974853515625
1029113500.0 0.09910202026367188 -0.013813018798828125
1034109000.0 0.09647750854492188 -0.02541351318359375
1039104500.0 0.09253692626953125 -0.03646087646484375
1044100000.0 0.08723831176757812 -0.046878814697265625
1049095500.0 0.08094024658203125 -0.056896209716796875
1054091000.0 0.07339859008789062 -0.065887451171875
1059086500.0 0.06506729125976562 -0.07390213012695312
1064082000.0 0.05567169189453125 -0.08072280883789062
1069077500.0 0.045459747314453125 -0.0866241455078125
1074073000.0 0.034786224365234375 -0.09102249145507812
1079068500.0 0.02381134033203125 -0.0943603515625
1084064000.0 0.01239013671875 -0.09630966186523438
1089059500.0 0.000823974609375 -0.09665298461914062
1094055000.0 -0.01071929931640625 -0.09596633911132812
1099050500.0 -0.021793365478515625 -0.09365463256835938
1104046000.0 -0.032787322998046875 -0.09011077880859375
1109041500.0 -0.043132781982421875 -0.08543777465820312
1114037000.0 -0.052886962890625 -0.0795440673828125
1119032500.0 -0.061737060546875 -0.07230758666992188
1124028000.0 -0.06981658935546875 -0.0643157958984375
1129023500.0 -0.07677841186523438 -0.05527496337890625
1134019000.0 -0.08259963989257812 -0.045654296875
1139014500.0 -0.08710861206054688 -0.03517913818359375
1144010000.0 -0.09049224853515625 -0.0243682861328125
1149005500.0 -0.09242630004882812 -0.013240814208984375
1154001000.0 -0.09307479858398438 -0.0020751953125
1158996500.0 -0.09223175048828125 0.00910186767578125
1163992000.0 -0.09027099609375 0.020069122314453125
1168987500.0 -0.08689498901367188 0.030559539794921875
1173983000.0 -0.0822296142578125 0.040622711181640625
1178978500.0 -0.07642364501953125 0.04996490478515625
1183974000.0 -0.06966781616210938 0.05847930908203125
1188969500.0 -0.06192779541015625 0.06632232666015625
1193965000.0 -0.053211212158203125 0.07294464111328125
1198960500.0 -0.04396820068359375 0.0784759521484375
1203956000.0 -0.034206390380859375 0.0828399658203125
1208951500.0 -0.023723602294921875 0.086090087890625
1213947000.0 -0.0133819580078125 0.08798599243164062
1218942500.0 -0.00289154052734375 0.08864593505859375
1223938000.0 0.007770538330078125 0.08800125122070312
1228933500.0 0.018146514892578125 0.08622360229492188
1233929000.0 0.0281524658203125 0.08327102661132812
1238924500.0 0.037761688232421875 0.07906723022460938
1243920000.0 0.046825408935546875 0.073822021484375
1248915500.0 0.05516815185546875 0.06764602661132812
1253911000.0 0.06270217895507812 0.0605621337890625
1258906500.0 0.0693817138671875 0.0524749755859375
1263902000.0 0.07505035400390625 0.043834686279296875
1268897500.0 0.07967376708984375 0.034603118896484375
1273893000.0 0.0829620361328125 0.024951934814453125
1278888500.0 0.0853424072265625 0.0147857666015625
1283884000.0 0.08648681640625 0.004364013671875
1288879500.0 0.08643341064453125 -0.005840301513671875
1293875000.0 0.08503341674804688 -0.0163421630859375
1298870500.0 0.08249282836914062 -0.0263519287109375
1303866000.0 0.07871627807617188 -0.03591156005859375
1308861500.0 0.07374954223632812 -0.04509735107421875
1313857000.0 0.06784439086914062 -0.05377197265625
1318852500.0 0.060718536376953125 -0.06154632568359375
1323848000.0 0.05295562744140625 -0.06831741333007812
1328843500.0 0.0442657470703125 -0.07421875
1333839000.0 0.034999847412109375 -0.07910919189453125
1338834500.0 0.025211334228515625 -0.08277130126953125
1343830000.0 0.01505279541015625 -0.08515548706054688
1348825500.0 0.00472259521484375 -0.0864715576171875
1353821000.0 -0.005710601806640625 -0.086395263671875
1358816500.0 -0.016208648681640625 -0.08514404296875
1363812000.0 -0.026458740234375 -0.08257675170898438
1368807500.0 -0.03609466552734375 -0.0788726806640625
1373803000.0 -0.045215606689453125 -0.07394027709960938
1378798500.0 -0.05405426025390625 -0.067962646484375
1383794000.0 -0.06183624267578125 -0.0611419677734375
1388789500.0 -0.06879425048828125 -0.0532684326171875
1393785000.0 -0.07477188110351562 -0.044727325439453125
1398780500.0 -0.0796356201171875 -0.03536224365234375
1403776000.0 -0.08339309692382812 -0.0255584716796875
1408771500.0 -0.086090087890625 -0.015308380126953125
1413767000.0 -0.08731842041015625 -0.00499725341796875
1418762500.0 -0.08736801147460938 0.005634307861328125
1423758000.0 -0.08620452880859375 0.01612091064453125
1428753500.0 -0.08380126953125 0.02637481689453125
1433749000.0 -0.080108642578125 0.036212921142578125
1438744500.0 -0.07538604736328125 0.0454864501953125
1443740000.0 -0.06946945190429688 0.054317474365234375
1448735500.0 -0.06273269653320312 0.062335968017578125
1453731000.0 -0.0547637939453125 0.06951141357421875
1458726500.0 -0.046298980712890625 0.07567214965820312
1463722000.0 -0.03692626953125 0.08083343505859375
1468717500.0 -0.02716064453125 0.08489227294921875
1473713000.0 -0.016857147216796875 0.08770751953125
1478708500.0 -0.006313323974609375 0.08913803100585938
1483704000.0 0.004383087158203125 0.08953857421875
1488699500.0 0.015064239501953125 0.08873367309570312
1493695000.0 0.025455474853515625 0.08650588989257812
1498690500.0 0.03562164306640625 0.08307647705078125
1503686000.0 0.04534912109375 0.0782470703125
1508681500.0 0.054508209228515625 0.07252883911132812
1513677000.0 0.06283187866210938 0.06561660766601562
1518672500.0 0.07018661499023438 0.057956695556640625
1523668000.0 0.07674789428710938 0.0493011474609375
1528663500.0 0.08223724365234375 0.039966583251953125
1533659000.0 0.08652114868164062 0.03017425537109375
1538654500.0 0.08955764770507812 0.019802093505859375
1543650000.0 0.0914764404296875 0.009124755859375
1548645500.0 0.09197998046875 -0.001735687255859375
1553641000.0 0.09130096435546875 -0.01235198974609375
1558636500.0 0.08951950073242188 -0.022922515869140625
1563632000.0 0.08637237548828125 -0.033283233642578125
1568627500.0 0.08203125 -0.04319000244140625
1573623000.0 0.07651138305664062 -0.0523529052734375
1578618500.0 0.06995010375976562 -0.06099700927734375
1583614000.0 0.06264114379882812 -0.06882858276367188
1588609500.0 0.054416656494140625 -0.07558822631835938
1593605000.0 0.045436859130859375 -0.08157730102539062
1598600500.0 0.0358428955078125 -0.0862884521484375
1603596000.0 0.02594757080078125 -0.09010696411132812
1608591500.0 0.015476226806640625 -0.09270477294921875
1613587000.0 0.004764556884765625 -0.09401702880859375
1618582500.0 -0.005878448486328125 -0.09424972534179688
1623578000.0 -0.0164947509765625 -0.09322738647460938
1628573500.0 -0.027156829833984375 -0.09094619750976562
1633569000.0 -0.037326812744140625 -0.08753204345703125
1638564500.0 -0.047119140625 -0.0830841064453125
1643560000.0 -0.056400299072265625 -0.0774383544921875
1648555500.0 -0.06488800048828125 -0.07085037231445312
1653551000.0 -0.07284164428710938 -0.06331253051757812
1658546500.0 -0.0797271728515625 -0.0549468994140625
1663542000.0 -0.08563995361328125 -0.04581451416015625
1668537500.0 -0.09072113037109375 -0.035907745361328125
1673533000.0 -0.09450531005859375 -0.02573394775390625
1678528500.0 -0.09712982177734375 -0.014873504638671875
1683524000.0 -0.09869766235351562 -0.003879547119140625
1688519500.0 -0.09884262084960938 0.007266998291015625
1693515000.0 -0.09789657592773438 0.018527984619140625
1698510500.0 -0.0955047607421875 0.02942657470703125
1703506000.0 -0.09196853637695312 0.040008544921875
1708501500.0 -0.08721542358398438 0.0503997802734375
1713497000.0 -0.08138275146484375 0.06005096435546875
1718492500.0 -0.07458114624023438 0.06913375854492188
1723488000.0 -0.0665435791015625 0.0773162841796875
1728483500.0 -0.057659149169921875 0.0846099853515625
1733479000.0 -0.04810333251953125 0.09095382690429688
1738474500.0 -0.037811279296875 0.09612655639648438
1743470000.0 -0.02690887451171875 0.10017013549804688
1748465500.0 -0.015567779541015625 0.10293960571289062
1753461000.0 -0.004085540771484375 0.10454177856445312
1758456500.0 0.00769805908203125 0.10470962524414062
1763452000.0 0.01934051513671875 0.1036834716796875
1768447500.0 0.031036376953125 0.10141372680664062
1773443000.0 0.042263031005859375 0.09777069091796875
1778438500.0 0.05321502685546875 0.09279632568359375
1783434000.0 0.06336593627929688 0.08661270141601562
1788429500.0 0.07305526733398438 0.07931900024414062
1793425000.0 0.0819244384765625 0.07088088989257812
1798420500.0 0.08960342407226562 0.061553955078125
1803416000.0 0.09618759155273438 0.05144500732421875
1808411500.0 0.10167694091796875 0.040477752685546875
1813407000.0 0.10594940185546875 0.028873443603515625
1818402500.0 0.1088714599609375 0.017002105712890625
1823398000.0 0.110443115234375 0.004863739013671875
1828393500.0 0.11069107055664062 -0.007663726806640625
1833389000.0 0.10934066772460938 -0.01985931396484375
1838384500.0 0.1068267822265625 -0.031963348388671875
1843380000.0 0.1028900146484375 -0.043674468994140625
1848375500.0 0.09772872924804688 -0.05504608154296875
1853371000.0 0.09124374389648438 -0.06563568115234375
1858366500.0 0.08362579345703125 -0.07551956176757812
1863362000.0 0.07506561279296875 -0.08455276489257812
1868357500.0 0.06559371948242188 -0.09256744384765625
1873353000.0 0.055095672607421875 -0.099456787109375
1878348500.0 0.043903350830078125 -0.1053009033203125
1883344000.0 0.032184600830078125 -0.1097259521484375
1888339500.0 0.020061492919921875 -0.11309051513671875
1893335000.0 0.007579803466796875 -0.11493301391601562
1898330500.0 -0.005054473876953125 -0.1154022216796875
1903326000.0 -0.017749786376953125 -0.114471435546875
1908321500.0 -0.030300140380859375 -0.11223983764648438
