!Created with skrf (http://scikit-rf.org).
# Hz S RI R 50.0 
!freq ReS11 ImS11
45000000.0 -0.0816497802734375 -0.09261703491210938
49995500.0 -0.10235214233398438 -0.08852005004882812
54991000.0 -0.12287521362304688 -0.08018112182617188
59986500.0 -0.140716552734375 -0.077972412109375
64982000.0 -0.1598052978515625 -0.06865692138671875
69977500.0 -0.1782684326171875 -0.05401611328125
74973000.0 -0.19545745849609375 -0.03624725341796875
79968500.0 -0.210723876953125 -0.0153656005859375
84964000.0 -0.2241973876953125 0.00850677490234375
89959500.0 -0.23468780517578125 0.0356597900390625
94955000.0 -0.24124908447265625 0.0654144287109375
99950500.0 -0.24408721923828125 0.0975341796875
104946000.0 -0.242523193359375 0.13098907470703125
109941500.0 -0.23621368408203125 0.16539764404296875
114937000.0 -0.2241973876953125 0.20090484619140625
119932500.0 -0.207183837890625 0.23567962646484375
124928000.0 -0.18536376953125 0.26910400390625
129923500.0 -0.1575927734375 0.3001556396484375
134919000.0 -0.125244140625 0.3285369873046875
139914500.0 -0.0876922607421875 0.353363037109375
144910000.0 -0.0462493896484375 0.37335205078125
149905500.0 -0.00115966796875 0.38848876953125
154901000.0 0.0464324951171875 0.3976898193359375
159896500.0 0.0959625244140625 0.40081787109375
164892000.0 0.1466064453125 0.397552490234375
169887500.0 0.19775390625 0.38775634765625
174883000.0 0.2483367919921875 0.3712310791015625
179878500.0 0.297210693359375 0.3482666015625
184874000.0 0.3441314697265625 0.319000244140625
189869500.0 0.3882598876953125 0.2834014892578125
194865000.0 0.42852783203125 0.242431640625
199860500.0 0.464324951171875 0.19598388671875
204856000.0 0.4947662353515625 0.144256591796875
209851500.0 0.519622802734375 0.08837890625
214847000.0 0.53851318359375 0.028656005859375
219842500.0 0.55047607421875 -0.034393310546875
224838000.0 0.55474853515625 -0.10003662109375
229833500.0 0.5516357421875 -0.167022705078125
234829000.0 0.54010009765625 -0.234283447265625
239824500.0 0.520111083984375 -0.30194091796875
244820000.0 0.491424560546875 -0.36785888671875
249815500.0 0.4539947509765625 -0.4309844970703125
254811000.0 0.43243408203125 -0.4770660400390625
259806500.0 0.382232666015625 -0.53399658203125
264802000.0 0.32421875 -0.58575439453125
269797500.0 0.25885009765625 -0.630523681640625
274793000.0 0.187347412109375 -0.667236328125
279788500.0 0.11041259765625 -0.6956787109375
284784000.0 0.030242919921875 -0.714019775390625
289779500.0 -0.05303955078125 -0.723388671875
294775000.0 -0.137664794921875 -0.722412109375
299770500.0 -0.2222900390625 -0.711181640625
304766000.0 -0.305938720703125 -0.6903076171875
309761500.0 -0.387054443359375 -0.659149169921875
314757000.0 -0.46429443359375 -0.61834716796875
319752500.0 -0.53729248046875 -0.568603515625
324748000.0 -0.604949951171875 -0.51068115234375
329743500.0 -0.666351318359375 -0.44488525390625
334739000.0 -0.72125244140625 -0.371856689453125
339734500.0 -0.768157958984375 -0.292327880859375
344730000.0 -0.80615234375 -0.207061767578125
349725500.0 -0.835540771484375 -0.11688232421875
354721000.0 -0.855072021484375 -0.022674560546875
359716500.0 -0.864166259765625 0.07470703125
364712000.0 -0.862213134765625 0.1746826171875
369707500.0 -0.84857177734375 0.27587890625
374703000.0 -0.822967529296875 0.376953125
379698500.0 -0.78460693359375 0.47662353515625
384694000.0 -0.733673095703125 0.57275390625
389689500.0 -0.67034912109375 0.6630859375
394685000.0 -0.5948486328125 0.7470703125
399680500.0 -0.507904052734375 0.8218994140625
404676000.0 -0.411651611328125 0.88616943359375
409671500.0 -0.306304931640625 0.939208984375
414667000.0 -0.194732666015625 0.9775390625
419662500.0 -0.07806396484375 1.0018310546875
424658000.0 0.04150390625 1.01104736328125
429653500.0 0.1624755859375 1.00482177734375
434649000.0 0.2816162109375 0.982086181640625
439644500.0 0.395050048828125 0.94573974609375
444640000.0 0.50274658203125 0.8974609375
449635500.0 0.603546142578125 0.83843994140625
454631000.0 0.697998046875 0.769012451171875
459626500.0 0.784515380859375 0.68853759765625
464622000.0 0.8612060546875 0.599029541015625
469617500.0 0.927520751953125 0.50201416015625
474613000.0 0.983062744140625 0.3985595703125
479608500.0 1.0281982421875 0.28997802734375
484604000.0 1.06219482421875 0.17620849609375
489599500.0 1.0845947265625 0.05889892578125
494595000.0 1.094970703125 -0.06134033203125
499590500.0 1.09326171875 -0.1839599609375
504586000.0 1.07843017578125 -0.30780029296875
509581500.0 1.04986572265625 -0.431884765625
514577000.0 1.0068359375 -0.55438232421875
519572500.0 0.94891357421875 -0.67462158203125
524568000.0 0.875244140625 -0.7896728515625
529563500.0 0.7860107421875 -0.89752197265625
534559000.0 0.6822509765625 -0.994781494140625
539554500.0 0.56451416015625 -1.07940673828125
544550000.0 0.43609619140625 -1.14874267578125
549545500.0 0.2979736328125 -1.2015380859375
554541000.0 0.154052734375 -1.23602294921875
559536500.0 0.00604248046875 -1.25238037109375
564532000.0 -0.143310546875 -1.25048828125
569527500.0 -0.29119873046875 -1.22955322265625
574523000.0 -0.435302734375 -1.1904296875
579518500.0 -0.57293701171875 -1.13360595703125
584514000.0 -0.7021484375 -1.061279296875
589509500.0 -0.820709228515625 -0.973907470703125
594505000.0 -0.927398681640625 -0.87432861328125
599500500.0 -1.02093505859375 -0.763671875
604496000.0 -1.10107421875 -0.64471435546875
609491500.0 -1.16729736328125 -0.518798828125
614487000.0 -1.2196044921875 -0.38787841796875
619482500.0 -1.25775146484375 -0.253173828125
624478000.0 -1.28240966796875 -0.11566162109375
629473500.0 -1.293212890625 0.02362060546875
634469000.0 -1.29046630859375 0.163330078125
639464500.0 -1.27423095703125 0.303466796875
644460000.0 -1.24407958984375 0.44287109375
649455500.0 -1.1995849609375 0.5806884765625
654451000.0 -1.14056396484375 0.71563720703125
659446500.0 -1.0665283203125 0.84716796875
664442000.0 -0.977081298828125 0.97271728515625
669437500.0 -0.87158203125 1.09088134765625
674433000.0 -0.75018310546875 1.19915771484375
679428500.0 -0.6129150390625 1.29486083984375
684424000.0 -0.46173095703125 1.37469482421875
689419500.0 -0.29705810546875 1.43621826171875
694415000.0 -0.12261962890625 1.47607421875
699410500.0 0.05859375 1.49267578125
704406000.0 0.2427978515625 1.48480224609375
709401500.0 0.42578125 1.451171875
714397000.0 0.60296630859375 1.39239501953125
719392500.0 0.77020263671875 1.309814453125
724388000.0 0.924072265625 1.2064208984375
729383500.0 1.0611572265625 1.08441162109375
734379000.0 1.1793212890625 0.94677734375
739374500.0 1.27789306640625 0.7977294921875
744370000.0 1.35516357421875 0.63958740234375
749365500.0 1.41259765625 0.47784423828125
754361000.0 1.4512939453125 0.3135986328125
759356500.0 1.470458984375 0.1490478515625
764352000.0 1.47222900390625 -0.0140380859375
769347500.0 1.4578857421875 -0.17388916015625
774343000.0 1.4276123046875 -0.32977294921875
779338500.0 1.38214111328125 -0.48065185546875
784334000.0 1.32476806640625 -0.62603759765625
789329500.0 1.253173828125 -0.76519775390625
794325000.0 1.16864013671875 -0.89776611328125
799320500.0 1.07110595703125 -1.02191162109375
804316000.0 0.961181640625 -1.1376953125
809311500.0 0.8385009765625 -1.24371337890625
814307000.0 0.7032470703125 -1.33837890625
819302500.0 0.55694580078125 -1.419921875
824298000.0 0.3985595703125 -1.4859619140625
829293500.0 0.2313232421875 -1.5362548828125
834289000.0 0.0543212890625 -1.56573486328125
839284500.0 -0.1278076171875 -1.5748291015625
844280000.0 -0.24676513671875 -1.59307861328125
849275500.0 -0.434814453125 -1.56414794921875
854271000.0 -0.61968994140625 -1.5101318359375
859266500.0 -0.79742431640625 -1.43231201171875
864262000.0 -0.964599609375 -1.3316650390625
869257500.0 -1.116943359375 -1.2100830078125
874253000.0 -1.25115966796875 -1.07025146484375
879248500.0 -1.36651611328125 -0.915283203125
884244000.0 -1.46099853515625 -0.74932861328125
889239500.0 -1.5335693359375 -0.57464599609375
894235000.0 -1.58465576171875 -0.3956298828125
899230500.0 -1.61468505859375 -0.21405029296875
904226000.0 -1.62451171875 -0.0313720703125
909221500.0 -1.6136474609375 0.14935302734375
914217000.0 -1.583251953125 0.32635498046875
919212500.0 -1.5345458984375 0.4967041015625
924208000.0 -1.469482421875 0.65966796875
929203500.0 -1.38836669921875 0.8133544921875
934199000.0 -1.29449462890625 0.9573974609375
939194500.0 -1.1871337890625 1.091064453125
944190000.0 -1.06744384765625 1.21466064453125
949185500.0 -0.93603515625 1.326904296875
954181000.0 -0.79296875 1.42822265625
959176500.0 -0.63824462890625 1.51513671875
964172000.0 -0.47259521484375 1.58758544921875
969167500.0 -0.29736328125 1.64306640625
974163000.0 -0.11346435546875 1.67950439453125
979158500.0 0.0775146484375 1.696044921875
984154000.0 0.27337646484375 1.6900634765625
989149500.0 0.47119140625 1.65966796875
994145000.0 0.6668701171875 1.60400390625
999140500.0 0.8565673828125 1.5234375
1004136000.0 1.036865234375 1.41748046875
1009131500.0 1.20233154296875 1.28759765625
1014127000.0 1.35028076171875 1.136474609375
1019122500.0 1.47662353515625 0.96783447265625
1024118000.0 1.580322265625 0.78411865234375
1029113500.0 1.6583251953125 0.58978271484375
1034109000.0 1.71063232421875 0.38958740234375
1039104500.0 1.7376708984375 0.18658447265625
1044100000.0 1.7393798828125 -0.01519775390625
1049095500.0 1.71832275390625 -0.21307373046875
1054091000.0 1.6748046875 -0.40399169921875
1059086500.0 1.61151123046875 -0.58612060546875
1064082000.0 1.5301513671875 -0.75775146484375
1069077500.0 1.43328857421875 -0.917724609375
1074073000.0 1.32110595703125 -1.06591796875
1079068500.0 1.1959228515625 -1.20111083984375
1084064000.0 1.05853271484375 -1.3226318359375
1089059500.0 0.91015625 -1.42974853515625
1094055000.0 0.75152587890625 -1.5225830078125
1099050500.0 0.58343505859375 -1.5987548828125
1104046000.0 0.40692138671875 -1.6591796875
1109041500.0 0.22332763671875 -1.70062255859375
1114037000.0 0.033935546875 -1.72314453125
1119032500.0 -0.15924072265625 -1.7249755859375
1124028000.0 -0.35430908203125 -1.7049560546875
1129023500.0 -0.5491943359375 -1.66253662109375
1134019000.0 -0.73944091796875 -1.59625244140625
1139014500.0 -0.92376708984375 -1.50604248046875
1144010000.0 -1.0980224609375 -1.3935546875
1149005500.0 -1.2574462890625 -1.258544921875
1154001000.0 -1.4002685546875 -1.10321044921875
1158996500.0 -1.5224609375 -0.92987060546875
1163992000.0 -1.62176513671875 -0.74273681640625
1168987500.0 -1.69549560546875 -0.54388427734375
1173983000.0 -1.7437744140625 -0.338134765625
1178978500.0 -1.76458740234375 -0.12945556640625
1183974000.0 -1.75958251953125 0.0775146484375
1188969500.0 -1.7293701171875 0.280517578125
1193965000.0 -1.67529296875 0.475830078125
1198960500.0 -1.5994873046875 0.65960693359375
1203956000.0 -1.50482177734375 0.8314208984375
1208951500.0 -1.3924560546875 0.988525390625
1213947000.0 -1.26556396484375 1.13067626953125
1218942500.0 -1.126220703125 1.2554931640625
1223938000.0 -0.97637939453125 1.3634033203125
1228933500.0 -0.818115234375 1.4541015625
1233929000.0 -0.6534423828125 1.52777099609375
1238924500.0 -0.4833984375 1.58294677734375
1243920000.0 -0.30938720703125 1.62127685546875
1248915500.0 -0.13372802734375 1.64215087890625
1253911000.0 0.042724609375 1.6456298828125
1258906500.0 0.21942138671875 1.6312255859375
1263902000.0 0.39501953125 1.60015869140625
1268897500.0 0.56427001953125 1.54913330078125
1273893000.0 0.7291259765625 1.48089599609375
1278888500.0 0.887451171875 1.39617919921875
1283884000.0 1.036865234375 1.293701171875
1288879500.0 1.1754150390625 1.17523193359375
1293875000.0 1.301025390625 1.0406494140625
1298870500.0 1.41168212890625 0.89276123046875
1303866000.0 1.5062255859375 0.7315673828125
1308861500.0 1.5816650390625 0.55999755859375
1313857000.0 1.63787841796875 0.3795166015625
1318852500.0 1.67315673828125 0.193359375
1323848000.0 1.6868896484375 0.0035400390625
1328843500.0 1.67877197265625 -0.1871337890625
1333839000.0 1.64910888671875 -0.37646484375
1338834500.0 1.59710693359375 -0.561767578125
1343830000.0 1.52459716796875 -0.739501953125
1348825500.0 1.4315185546875 -0.90899658203125
1353821000.0 1.31939697265625 -1.06646728515625
1358816500.0 1.189453125 -1.21002197265625
1363812000.0 1.04339599609375 -1.3387451171875
1368807500.0 0.88385009765625 -1.447998046875
1373803000.0 0.71197509765625 -1.53875732421875
1378798500.0 0.53045654296875 -1.60888671875
1383794000.0 0.34271240234375 -1.65594482421875
1388789500.0 0.1510009765625 -1.680908203125
1393785000.0 -0.04144287109375 -1.6829833984375
1398780500.0 -0.23193359375 -1.6629638671875
1403776000.0 -0.41741943359375 -1.6201171875
1408771500.0 -0.59576416015625 -1.556884765625
1413767000.0 -0.76361083984375 -1.47418212890625
1418762500.0 -0.9197998046875 -1.37384033203125
1423758000.0 -1.0628662109375 -1.25762939453125
1428753500.0 -1.1895751953125 -1.1278076171875
1433749000.0 -1.3017578125 -0.98699951171875
1438744500.0 -1.39593505859375 -0.8358154296875
1443740000.0 -1.47406005859375 -0.67694091796875
1448735500.0 -1.5343017578125 -0.51239013671875
1453731000.0 -1.5780029296875 -0.34320068359375
1458726500.0 -1.6038818359375 -0.17120361328125
1463722000.0 -1.61273193359375 0.0023193359375
1468717500.0 -1.603759765625 0.17572021484375
1473713000.0 -1.5777587890625 0.34814453125
1478708500.0 -1.533935546875 0.5185546875
1483704000.0 -1.47265625 0.68408203125
1488699500.0 -1.3931884765625 0.843994140625
1493695000.0 -1.29693603515625 0.9970703125
1498690500.0 -1.183349609375 1.14019775390625
1503686000.0 -1.05181884765625 1.2711181640625
1508681500.0 -0.90435791015625 1.3885498046875
1513677000.0 -0.74200439453125 1.4888916015625
1518672500.0 -0.56695556640625 1.5693359375
1523668000.0 -0.3807373046875 1.6287841796875
1528663500.0 -0.1876220703125 1.66455078125
1533659000.0 0.01007080078125 1.675537109375
1538654500.0 0.208251953125 1.66070556640625
1543650000.0 0.40179443359375 1.6207275390625
1548645500.0 0.588134765625 1.5556640625
1553641000.0 0.76239013671875 1.46820068359375
1558636500.0 0.92266845703125 1.36083984375
1563632000.0 1.06597900390625 1.23602294921875
1568627500.0 1.1903076171875 1.09722900390625
1573623000.0 1.2952880859375 0.947509765625
1578618500.0 1.3807373046875 0.78912353515625
1583614000.0 1.44671630859375 0.6265869140625
1588609500.0 1.4932861328125 0.460693359375
1593605000.0 1.52215576171875 0.29400634765625
1598600500.0 1.53314208984375 0.128662109375
1603596000.0 1.5277099609375 -0.0345458984375
1608591500.0 1.5068359375 -0.1943359375
1613587000.0 1.4715576171875 -0.34942626953125
1618582500.0 1.42230224609375 -0.49908447265625
1623578000.0 1.35931396484375 -0.6439208984375
1628573500.0 1.282958984375 -0.780517578125
1633569000.0 1.194091796875 -0.91094970703125
1638564500.0 1.09307861328125 -1.032958984375
1643560000.0 0.97955322265625 -1.14544677734375
1648555500.0 0.8533935546875 -1.2459716796875
1653551000.0 0.71612548828125 -1.335205078125
1658546500.0 0.56817626953125 -1.41009521484375
1663542000.0 0.410888671875 -1.4688720703125
1668537500.0 0.24591064453125 -1.509521484375
1673533000.0 0.074951171875 -1.5318603515625
1678528500.0 -0.09912109375 -1.53326416015625
1683524000.0 -0.27325439453125 -1.51263427734375
1688519500.0 -0.44403076171875 -1.47088623046875
1693515000.0 -0.60894775390625 -1.40777587890625
1698510500.0 -0.7635498046875 -1.3251953125
1703506000.0 -0.90478515625 -1.22503662109375
1708501500.0 -1.03240966796875 -1.1090087890625
1713497000.0 -1.1429443359375 -0.98052978515625
1718492500.0 -1.23663330078125 -0.84246826171875
1723488000.0 -1.31207275390625 -0.69683837890625
1728483500.0 -1.37030029296875 -0.54693603515625
1733479000.0 -1.41119384765625 -0.39483642578125
1738474500.0 -1.4364013671875 -0.24212646484375
1743470000.0 -1.4459228515625 -0.08984375
1748465500.0 -1.44122314453125 0.05987548828125
1753461000.0 -1.42303466796875 0.2073974609375
1758456500.0 -1.39166259765625 0.3511962890625
1763452000.0 -1.3480224609375 0.4915771484375
1768447500.0 -1.29193115234375 0.62762451171875
1773443000.0 -1.2236328125 0.75885009765625
1778438500.0 -1.14349365234375 0.884765625
1783434000.0 -1.0501708984375 1.00396728515625
1788429500.0 -0.94403076171875 1.11566162109375
1793425000.0 -0.82513427734375 1.2181396484375
1798420500.0 -0.69329833984375 1.3095703125
1803416000.0 -0.54901123046875 1.387939453125
1808411500.0 -0.39385986328125 1.45050048828125
1813407000.0 -0.22882080078125 1.4952392578125
1818402500.0 -0.0562744140625 1.5198974609375
1823398000.0 0.12005615234375 1.522705078125
1828393500.0 0.297607421875 1.5023193359375
1833389000.0 0.4716796875 1.45904541015625
1838384500.0 0.638916015625 1.39263916015625
1843380000.0 0.79522705078125 1.3055419921875
1848375500.0 0.93792724609375 1.19940185546875
1853371000.0 1.063720703125 1.07733154296875
1858366500.0 1.17242431640625 0.9429931640625
1863362000.0 1.26171875 0.79931640625
1868357500.0 1.33221435546875 0.64947509765625
1873353000.0 1.3839111328125 0.4964599609375
1878348500.0 1.4185791015625 0.34185791015625
1883344000.0 1.4368896484375 0.18780517578125
1888339500.0 1.439453125 0.0367431640625
1893335000.0 1.42822265625 -0.1126708984375
1898330500.0 1.40362548828125 -0.257568359375
1903326000.0 1.3668212890625 -0.3988037109375
1908321500.0 1.3177490234375 -0.53533935546875
1913317000.0 1.2574462890625 -0.667236328125
1918312500.0 1.1854248046875 -0.79339599609375
1923308000.0 1.1011962890625 -0.91412353515625
1928303500.0 1.005615234375 -1.0279541015625
1933299000.0 0.89776611328125 -1.13409423828125
1938294500.0 0.77789306640625 -1.23046875
1943290000.0 0.64654541015625 -1.3162841796875
1948285500.0 0.50286865234375 -1.38922119140625
1953281000.0 0.34942626953125 -1.44580078125
1958276500.0 0.18695068359375 -1.486083984375
1963272000.0 0.01788330078125 -1.50677490234375
1968267500.0 -0.15460205078125 -1.5062255859375
1973263000.0 -0.328125 -1.484375
1978258500.0 -0.49847412109375 -1.43994140625
1983254000.0 -0.66265869140625 -1.3741455078125
1988249500.0 -0.81707763671875 -1.28704833984375
1993245000.0 -0.95843505859375 -1.18182373046875
1998240500.0 -1.084716796875 -1.06048583984375
2003236000.0 -1.19244384765625 -0.9263916015625
2008231500.0 -1.28302001953125 -0.78216552734375
2013227000.0 -1.35467529296875 -0.630859375
2018222500.0 -1.40802001953125 -0.474609375
2023218000.0 -1.4432373046875 -0.31640625
2028213500.0 -1.4617919921875 -0.157958984375
2033209000.0 -1.4632568359375 -0.00067138671875
2038204500.0 -1.44964599609375 0.1536865234375
2043200000.0 -1.42041015625 0.30462646484375
2048195500.0 -1.377685546875 0.45123291015625
2053191000.0 -1.32135009765625 0.59295654296875
2058186500.0 -1.25177001953125 0.72760009765625
2063182000.0 -1.16912841796875 0.85528564453125
2068177500.0 -1.07421875 0.97528076171875
2073173000.0 -0.96734619140625 1.08563232421875
2078168500.0 -0.84783935546875 1.185791015625
2083164000.0 -0.718017578125 1.27386474609375
2088159500.0 -0.5777587890625 1.348876953125
2093155000.0 -0.4288330078125 1.4080810546875
2098150500.0 -0.27239990234375 1.4505615234375
2103146000.0 -0.11041259765625 1.475830078125
2108141500.0 0.05426025390625 1.4814453125
2113137000.0 0.218994140625 1.468017578125
2118132500.0 0.3817138671875 1.43463134765625
2123128000.0 0.53887939453125 1.38214111328125
2128123500.0 0.6883544921875 1.3121337890625
2133119000.0 0.827392578125 1.2249755859375
2138114500.0 0.95501708984375 1.12335205078125
2143110000.0 1.06842041015625 1.00921630859375
2148105500.0 1.16766357421875 0.8837890625
2153101000.0 1.251708984375 0.7508544921875
2158096500.0 1.32025146484375 0.61090087890625
2163092000.0 1.3734130859375 0.46624755859375
2168087500.0 1.411376953125 0.31890869140625
2173083000.0 1.43487548828125 0.1695556640625
2178078500.0 1.4439697265625 0.01983642578125
2183074000.0 1.4383544921875 -0.13018798828125
2188069500.0 1.41986083984375 -0.27862548828125
2193065000.0 1.38616943359375 -0.42486572265625
2198060500.0 1.33868408203125 -0.5687255859375
