!Created with skrf (http://scikit-rf.org).
# Hz S RI R 50.0 
!freq ReS11 ImS11
300000.0 -1.017635033 -0.079583335
5299970.0 -1.001239324 0.010817848
10299940.0 -1.000088969 0.0134798554
15299910.0 -0.9991651936 0.0247412716
20299880.0 -0.9995505008 0.0280757084
25299850.0 -0.9985406472 0.0369610013
30299820.0 -0.9984434329 0.043890799
35299790.0 -0.9981104827 0.0488677158
40299760.0 -0.9967275233 0.0557672018
45299730.0 -0.9964951599 0.0625250754
50299700.0 -0.9951765897 0.0698450704
55299670.0 -0.9952924356 0.0762480972
60299640.0 -0.9942864361 0.0826344835
65299610.0 -0.9937129463 0.0895768822
70299580.0 -0.9932012513 0.0959334033
75299550.0 -0.9927689462 0.1020512361
80299520.0 -0.9915001252 0.1089873045
85299490.0 -0.9898908602 0.115303879
90299460.0 -0.9896514479 0.1222402834
95299430.0 -0.9885154782 0.1289988822
100299400.0 -0.9874572439 0.135259007
105299370.0 -0.9867068937 0.14251428
110299340.0 -0.9855987694 0.1481777057
115299310.0 -0.9840930156 0.1552212003
120299280.0 -0.9833800954 0.1618527278
125299250.0 -0.9823546888 0.1680295784
130299220.0 -0.9804498929 0.174898128
135299190.0 -0.9801713688 0.1813726155
140299160.0 -0.9782038694 0.188063022
145299130.0 -0.977252562 0.1939995934
150299100.0 -0.9758690624 0.2005582979
155299070.0 -0.973975034 0.2075882979
160299040.0 -0.9723824299 0.2138011141
165299010.0 -0.9711918018 0.2204007334
170298980.0 -0.9690988199 0.2268342543
175298950.0 -0.9658669888 0.2322862742
180298920.0 -0.9636748287 0.2379702673
185298890.0 -0.963643474 0.245000754
190298860.0 -0.9622575009 0.2522873183
195298830.0 -0.9611637853 0.2584396555
200298800.0 -0.9594536863 0.2651893298
205298770.0 -0.957746634 0.271494141
210298740.0 -0.9556379672 0.278066054
215298710.0 -0.9541910608 0.284000306
220298680.0 -0.9522907402 0.2908096733
225298650.0 -0.9507355567 0.2968153812
230298620.0 -0.9478860979 0.3034219949
235298590.0 -0.9462012174 0.309494043
240298560.0 -0.9433225823 0.3159678829
245298530.0 -0.9415309773 0.3213450245
250298500.0 -0.9399112325 0.3280353181
255298470.0 -0.9374855281 0.3341973509
260298440.0 -0.9349314364 0.3406199306
265298410.0 -0.9325128072 0.3469349793
270298380.0 -0.9301141281 0.3528157552
275298350.0 -0.9280685579 0.3590672186
280298320.0 -0.9254027894 0.3655443378
285298290.0 -0.9223879602 0.3718094207
290298260.0 -0.9201449563 0.3773771823
295298230.0 -0.9178989856 0.3835551791
300298200.0 -0.9154153632 0.3894325633
305298170.0 -0.9129069029 0.3955976242
310298140.0 -0.9096665264 0.4020616112
315298110.0 -0.9074720748 0.4077553924
320298080.0 -0.904545616 0.4139232765
325298050.0 -0.9017465096 0.4204157192
330298020.0 -0.8982883183 0.4260829964
335297990.0 -0.8960376035 0.4324654966
340297960.0 -0.8926664077 0.437621804
345297930.0 -0.8906228678 0.4436499187
350297900.0 -0.8880470866 0.4500016309
355297870.0 -0.8847945374 0.455617725
360297840.0 -0.8819940494 0.4616357123
365297810.0 -0.8782787238 0.4666954643
370297780.0 -0.8752202109 0.4732288126
375297750.0 -0.8715854958 0.4788483344
380297720.0 -0.8684602509 0.4841364267
385297690.0 -0.8650789799 0.4909272665
390297660.0 -0.8619488542 0.4959436757
395297630.0 -0.8580389541 0.5020402238
400297600.0 -0.8546893154 0.5073452504
405297570.0 -0.8516527233 0.5132339938
410297540.0 -0.8475804496 0.518810493
415297510.0 -0.844131469 0.5239482567
420297480.0 -0.8412488071 0.5302323589
425297450.0 -0.8375575259 0.5353940778
430297420.0 -0.8336067254 0.5410543358
435297390.0 -0.8302381207 0.5464674108
440297360.0 -0.8264718976 0.5523840544
445297330.0 -0.823039177 0.5577534976
450297300.0 -0.8193841164 0.5626333373
455297270.0 -0.8148942439 0.5675907417
460297240.0 -0.8118091585 0.5739672855
465297210.0 -0.8075890432 0.5793054721
470297180.0 -0.8040478706 0.584508159
475297150.0 -0.7998815828 0.5895093761
480297120.0 -0.796301009 0.5950662245
485297090.0 -0.7914668424 0.6005605838
490297060.0 -0.7880383957 0.6055149799
495297030.0 -0.78412301 0.6110381886
500297000.0 -0.7794492146 0.6164923746
505296970.0 -0.7765640028 0.620934881
510296940.0 -0.7721062717 0.6261938409
515296910.0 -0.767891239 0.6316581307
520296880.0 -0.7631823094 0.6371442179
525296850.0 -0.7594813293 0.6421660945
530296820.0 -0.7551224953 0.6467581134
535296790.0 -0.7508912569 0.651968578
540296760.0 -0.7468244763 0.6568993778
545296730.0 -0.7424632891 0.6615832185
550296700.0 -0.7370524844 0.6665133761
555296670.0 -0.7332287286 0.6712912555
560296640.0 -0.72822077 0.6758321583
565296610.0 -0.7237195695 0.6805877568
570296580.0 -0.7184407911 0.6858699931
575296550.0 -0.7141152206 0.6907578988
580296520.0 -0.7095696636 0.6952699342
585296490.0 -0.7046571775 0.6999947908
590296460.0 -0.7004489671 0.704913459
595296430.0 -0.6955212073 0.7088290159
600296400.0 -0.6898186832 0.7139346338
605296370.0 -0.6857517028 0.7181970063
610296340.0 -0.6810764503 0.7219922352
615296310.0 -0.6767699357 0.7270492489
620296280.0 -0.6712222926 0.7315675962
625296250.0 -0.6666925366 0.7350734413
630296220.0 -0.6619314376 0.740330424
635296190.0 -0.656927636 0.7443216482
640296160.0 -0.6518484569 0.7485999323
645296130.0 -0.6470111423 0.7530116222
650296100.0 -0.6412703621 0.7574393687
655296070.0 -0.6361789564 0.7622421112
660296040.0 -0.6315273536 0.7661019175
665296010.0 -0.6263428871 0.7695081875
670295980.0 -0.6209354567 0.7737677881
675295950.0 -0.6161536609 0.777916502
680295920.0 -0.6110281638 0.7826187697
685295890.0 -0.6059500613 0.7866064859
690295860.0 -0.6006803983 0.7904938784
695295830.0 -0.5949754269 0.7939871931
700295800.0 -0.5899176565 0.7983968502
705295770.0 -0.584712965 0.8021731417
710295740.0 -0.5793317671 0.8062576738
715295710.0 -0.573550919 0.8096972989
720295680.0 -0.5682645311 0.8137380823
725295650.0 -0.5631203117 0.8171001615
730295620.0 -0.5576653221 0.8207694374
735295590.0 -0.5516703443 0.82458032
740295560.0 -0.5476028871 0.8278488627
745295530.0 -0.5410675789 0.8315306015
750295500.0 -0.5352793612 0.8349943366
755295470.0 -0.5301551284 0.8387346464
760295440.0 -0.5243921422 0.8425272908
765295410.0 -0.5190948577 0.8460254677
770295380.0 -0.5130494523 0.8494328409
775295350.0 -0.5074605456 0.8528331783
780295320.0 -0.501379394 0.8562829288
785295290.0 -0.4955416617 0.8593478432
790295260.0 -0.489768268 0.8629507459
795295230.0 -0.4843478611 0.8661029735
800295200.0 -0.4785674782 0.8691918643
805295170.0 -0.4727353862 0.8717734505
810295140.0 -0.4667758964 0.8753462369
815295110.0 -0.4609687667 0.8777715017
820295080.0 -0.4553569853 0.8816548869
825295050.0 -0.4490734224 0.8839138208
830295020.0 -0.4433826188 0.8873736281
835294990.0 -0.4371267546 0.8902887774
840294960.0 -0.4313975246 0.8931162858
845294930.0 -0.4257102308 0.8959518314
850294900.0 -0.4197621653 0.8990132338
855294870.0 -0.4137542623 0.9012830288
860294840.0 -0.4074088165 0.9039336446
865294810.0 -0.4017641307 0.9070119673
870294780.0 -0.3955997854 0.9095252883
875294750.0 -0.3897073103 0.9119606541
880294720.0 -0.3838405587 0.914740798
885294690.0 -0.3776889362 0.9165686423
890294660.0 -0.3716453529 0.9191151403
895294630.0 -0.3650928705 0.9214155382
900294600.0 -0.3583303345 0.9238468471
905294570.0 -0.3528333871 0.926379883
910294540.0 -0.3472772174 0.9283629544
915294510.0 -0.3405666729 0.930480434
920294480.0 -0.3339443122 0.9325327022
925294450.0 -0.327933108 0.9351959645
930294420.0 -0.3218218646 0.9368460687
935294390.0 -0.3155479441 0.9387976045
940294360.0 -0.3090733469 0.9408270535
945294330.0 -0.3036853879 0.9431208877
950294300.0 -0.2969779445 0.9455329549
955294270.0 -0.290732619 0.9467512784
960294240.0 -0.284335985 0.9487574627
965294210.0 -0.2770282342 0.9508201362
970294180.0 -0.2712982552 0.9526728741
975294150.0 -0.264898304 0.9544667281
980294120.0 -0.2585570937 0.9560276186
985294090.0 -0.2527320667 0.9574583902
990294060.0 -0.2466044893 0.9597194795
995294030.0 -0.2399928278 0.9607975746
1000294000.0 -0.2337294317 0.962526516
1005293970.0 -0.2268893963 0.9636694015
1010293940.0 -0.2206406884 0.9652059162
1015293910.0 -0.2143389781 0.9674146173
1020293880.0 -0.2075956014 0.9684066145
1025293850.0 -0.2015844344 0.9692838968
1030293820.0 -0.1947937395 0.9706296538
1035293790.0 -0.1886383733 0.9722763734
1040293760.0 -0.1816906772 0.9733210039
1045293730.0 -0.1752650904 0.9744981293
1050293700.0 -0.1686915123 0.9755835198
1055293670.0 -0.1619225975 0.976459909
1060293640.0 -0.1562653988 0.9779949931
1065293610.0 -0.149662729 0.9789540441
1070293580.0 -0.1431089594 0.9796854898
1075293550.0 -0.1367313666 0.9806817503
1080293520.0 -0.1301908269 0.9815048184
1085293490.0 -0.1238323695 0.9818130299
1090293460.0 -0.1167270488 0.9832031274
1095293430.0 -0.1100924684 0.9840237257
1100293400.0 -0.1035714206 0.984633483
1105293370.0 -0.0968536006 0.9853275141
1110293340.0 -0.0902094749 0.985722645
1115293310.0 -0.0840063118 0.9863815076
1120293280.0 -0.0771508149 0.9867845663
1125293250.0 -0.0714118061 0.987084791
1130293220.0 -0.0651120024 0.9880427662
1135293190.0 -0.0575676006 0.9879535579
1140293160.0 -0.0512046035 0.9882497564
1145293130.0 -0.0446074508 0.9887034606
1150293100.0 -0.0383295582 0.9892427869
1155293070.0 -0.0311414896 0.9894020456
1160293040.0 -0.0251840682 0.9896056132
1165293010.0 -0.0183147454 0.9897825782
1170292980.0 -0.0120513043 0.9892151936
1175292950.0 -0.0053101262 0.9897897174
1180292920.0 0.0012348417 0.9900127492
1185292890.0 0.0073355146 0.9896170152
1190292860.0 0.0143896282 0.9900186832
1195292830.0 0.0211405811 0.9893596059
1200292800.0 0.0271457982 0.9893627643
1205292770.0 0.03396275 0.9889864507
1210292740.0 0.0402410569 0.9889001953
1215292710.0 0.0466735428 0.9885118138
1220292680.0 0.0535810177 0.9879600917
1225292650.0 0.0604962928 0.9871918413
1230292620.0 0.0672050412 0.9872709437
1235292590.0 0.0739037696 0.9870045329
1240292560.0 0.0798329136 0.9862744972
1245292530.0 0.0863643037 0.9853725851
1250292500.0 0.0931130772 0.9844735025
1255292470.0 0.0999247658 0.9841862216
1260292440.0 0.1063771471 0.9836745441
1265292410.0 0.1125071067 0.983277397
1270292380.0 0.1191171912 0.9828734248
1275292350.0 0.1257161416 0.9815070607
1280292320.0 0.1325035877 0.9808228334
1285292290.0 0.1389179299 0.9799971978
1290292260.0 0.1453663668 0.9786207631
1295292230.0 0.1518258813 0.9773103292
1300292200.0 0.1578757111 0.9767561139
1305292170.0 0.1648786717 0.9753177758
1310292140.0 0.1716114388 0.9745562479
1315292110.0 0.1776765279 0.9734300316
1320292080.0 0.1846088527 0.9718409299
1325292050.0 0.1907330511 0.971218401
1330292020.0 0.1972668176 0.9696827806
1335291990.0 0.2045112379 0.9681776631
1340291960.0 0.2109629014 0.9669731192
1345291930.0 0.2168098468 0.9655065693
1350291900.0 0.2231671859 0.9639533596
1355291870.0 0.2296980012 0.9620614375
1360291840.0 0.2355482951 0.9607625326
1365291810.0 0.2417529982 0.959501906
1370291780.0 0.2480117961 0.9577201493
1375291750.0 0.2544739021 0.956320693
1380291720.0 0.2609558547 0.9540529493
1385291690.0 0.267882104 0.9524143798
1390291660.0 0.2739715247 0.9507041147
1395291630.0 0.2802984191 0.9487409459
1400291600.0 0.2866310933 0.947220192
1405291570.0 0.2929068523 0.9457715201
1410291540.0 0.2991925561 0.9432339816
1415291510.0 0.3050384726 0.9411673747
1420291480.0 0.311569817 0.9388027593
1425291450.0 0.3183101744 0.9369710769
1430291420.0 0.3245848477 0.9350144346
1435291390.0 0.3300241271 0.9327650774
1440291360.0 0.3358898895 0.9303529273
1445291330.0 0.3420162976 0.9284257804
1450291300.0 0.3480475949 0.9264630437
1455291270.0 0.3541652128 0.9235622854
1460291240.0 0.3602207946 0.9215521363
1465291210.0 0.3668242466 0.9189828969
1470291180.0 0.3730816234 0.9169940796
1475291150.0 0.3792701711 0.9135737939
1480291120.0 0.3851854382 0.9113940195
1485291090.0 0.3911646383 0.9087859607
1490291060.0 0.39776945 0.905761896
1495291030.0 0.4036327015 0.9033546511
1500291000.0 0.4089930155 0.9008116201
1505290970.0 0.4147495996 0.8981077061
1510290940.0 0.4206744707 0.8957158646
1515290910.0 0.4270861365 0.8921286408
1520290880.0 0.4328241067 0.890035896
1525290850.0 0.4383158494 0.8869349357
1530290820.0 0.4442164288 0.8836956321
1535290790.0 0.4507292633 0.8809793678
1540290760.0 0.4565728365 0.8775073573
1545290730.0 0.4628659385 0.8750133336
1550290700.0 0.4685220981 0.8714133927
1555290670.0 0.4742495785 0.8688866409
1560290640.0 0.479824306 0.8650261738
1565290610.0 0.4857905197 0.8621072283
1570290580.0 0.4910191615 0.859374706
1575290550.0 0.4968370227 0.8559328766
1580290520.0 0.5025806083 0.8526134215
1585290490.0 0.5080947324 0.8488547889
1590290460.0 0.5146405636 0.8451755497
1595290430.0 0.5194768013 0.8426086936
1600290400.0 0.5251916949 0.8390385103
1605290370.0 0.530777943 0.8348890713
1610290340.0 0.5366009275 0.8322171987
1615290310.0 0.5421205944 0.8288428595
1620290280.0 0.5472989939 0.8249013835
1625290250.0 0.5527380748 0.8211732952
1630290220.0 0.5578850904 0.8173631637
1635290190.0 0.5634597039 0.8143506737
1640290160.0 0.5683894431 0.809773578
1645290130.0 0.5740412093 0.8059195015
1650290100.0 0.5793439932 0.8023702426
1655290070.0 0.5852380513 0.7981648105
1660290040.0 0.5904110176 0.7943102225
1665290010.0 0.5949913202 0.7899276448
1670289980.0 0.5999424233 0.7868620375
1675289950.0 0.6056332521 0.782357938
1680289920.0 0.611146392 0.7786023666
1685289890.0 0.6168402022 0.7739479308
1690289860.0 0.6217788389 0.7697302397
1695289830.0 0.6272959989 0.7653953175
1700289800.0 0.6323817164 0.7610119904
1705289770.0 0.6370527486 0.7577460015
1710289740.0 0.6422521585 0.7530966101
1715289710.0 0.6473729881 0.749004097
1720289680.0 0.6522813339 0.7441913193
1725289650.0 0.657353896 0.74037354
1730289620.0 0.6623843487 0.7355748863
1735289590.0 0.6670296518 0.7316810896
1740289560.0 0.6715318379 0.7271989244
1745289530.0 0.6763625033 0.7229764064
1750289500.0 0.6811909538 0.718058001
1755289470.0 0.6857898874 0.7137061708
1760289440.0 0.6906225821 0.7093181816
1765289410.0 0.6954383616 0.7042177947
1770289380.0 0.699963186 0.7006150722
1775289350.0 0.7053813973 0.6962175627
1780289320.0 0.7093713773 0.6914333045
1785289290.0 0.7142806322 0.6863536893
1790289260.0 0.718659043 0.6813685666
1795289230.0 0.7231610814 0.6764395317
1800289200.0 0.7278463375 0.6717933427
1805289170.0 0.7322709753 0.6669908103
1810289140.0 0.7365877313 0.6616704635
1815289110.0 0.7406864469 0.6571118544
1820289080.0 0.7454218345 0.6525806194
1825289050.0 0.7492174813 0.6480614174
1830289020.0 0.7531798623 0.642717828
1835288990.0 0.7578969382 0.6381883299
1840288960.0 0.7619356538 0.6334708009
1845288930.0 0.7659969093 0.6273539193
1850288900.0 0.7701686679 0.6229404506
1855288870.0 0.7743982561 0.6174212826
1860288840.0 0.7785678325 0.611890031
1865288810.0 0.7826813879 0.6070711596
1870288780.0 0.7868523625 0.6016361359
1875288750.0 0.7909040946 0.5964280507
1880288720.0 0.7954806698 0.5910615156
1885288690.0 0.7986383353 0.5852056599
1890288660.0 0.8023678288 0.5800433581
1895288630.0 0.8065975562 0.5751180336
1900288600.0 0.8103916379 0.570026568
1905288570.0 0.8145090329 0.5642625285
1910288540.0 0.8177088561 0.558571839
1915288510.0 0.82206136 0.5534286949
1920288480.0 0.825432895 0.5476043305
1925288450.0 0.8290740991 0.5418573605
1930288420.0 0.8326669434 0.5363824457
1935288390.0 0.836981658 0.5308950928
1940288360.0 0.8401756622 0.5253287382
1945288330.0 0.8433110544 0.5202266014
1950288300.0 0.847068352 0.5137778465
1955288270.0 0.8506544251 0.5076703281
1960288240.0 0.85429538 0.5022872689
1965288210.0 0.8578175562 0.4961310297
1970288180.0 0.8608236918 0.4901827719
1975288150.0 0.8643134122 0.4854399527
1980288120.0 0.8672647639 0.4799129935
1985288090.0 0.8697779959 0.4739500787
1990288060.0 0.8728894381 0.4688398727
1995288030.0 0.8763981796 0.4629921429
2000288000.0 0.8790732628 0.4571629889
2005287970.0 0.8819204077 0.4519535376
2010287940.0 0.8849942066 0.4454626026
2015287910.0 0.888177611 0.4400122951
2020287880.0 0.8908522196 0.4340781905
2025287850.0 0.8938268658 0.4285065342
2030287820.0 0.8964503523 0.4220561483
2035287790.0 0.8997294584 0.4161410656
2040287760.0 0.9021820484 0.4095750601
2045287730.0 0.9053860236 0.4038373429
2050287700.0 0.9074218532 0.3979756944
2055287670.0 0.9101890173 0.3925229173
2060287640.0 0.9130743752 0.3858377044
2065287610.0 0.915365795 0.3798533922
2070287580.0 0.9183674399 0.3737645497
2075287550.0 0.9204998393 0.3675570383
2080287520.0 0.9228015108 0.3618797995
2085287490.0 0.9257747144 0.355498625
2090287460.0 0.9277738971 0.3491716645
2095287430.0 0.9297036922 0.3434337114
2100287400.0 0.9321498487 0.337102771
2105287370.0 0.9344350388 0.3309212364
2110287340.0 0.9366646267 0.3241785273
2115287310.0 0.9386960234 0.318240459
2120287280.0 0.9415896218 0.3121032835
2125287250.0 0.9432579549 0.3054944711
2130287220.0 0.9453903192 0.2989891954
2135287190.0 0.9469866626 0.2930924968
2140287160.0 0.948962481 0.2865742784
2145287130.0 0.9508111693 0.2801884346
2150287100.0 0.9524385132 0.2740611708
2155287070.0 0.9543950768 0.2672499619
2160287040.0 0.9567027739 0.2608291724
2165287010.0 0.9584429389 0.255452993
2170286980.0 0.9598198776 0.2488690062
2175286950.0 0.961747759 0.242518481
2180286920.0 0.962845487 0.2364040656
2185286890.0 0.9650768601 0.2300983187
2190286860.0 0.9658921171 0.2242149316
2195286830.0 0.9673440496 0.2173115994
2200286800.0 0.9694079636 0.2113573671
2205286770.0 0.9702255334 0.2051861813
2210286740.0 0.9716989677 0.1991765785
2215286710.0 0.9731840347 0.1930066131
2220286680.0 0.9740770587 0.18587972
2225286650.0 0.975422528 0.1791907708
2230286620.0 0.9767986024 0.1723820906
2235286590.0 0.9780447136 0.1665733909
2240286560.0 0.9785059636 0.159426326
2245286530.0 0.9799094643 0.1535491704
2250286500.0 0.9803557989 0.1464318749
2255286470.0 0.981860423 0.1401424531
2260286440.0 0.9824406547 0.1328471538
2265286410.0 0.983360587 0.1265177703
2270286380.0 0.9844015258 0.1200978186
2275286350.0 0.9848134758 0.1131875317
2280286320.0 0.9859940459 0.1073668754
2285286290.0 0.9868291088 0.101072134
2290286260.0 0.9875665826 0.0939654164
2295286230.0 0.9884764988 0.0873139557
2300286200.0 0.9879796244 0.0811025001
2305286170.0 0.9885388301 0.0746475237
2310286140.0 0.9892115499 0.067996816
2315286110.0 0.9898984674 0.0610463441
2320286080.0 0.9899618729 0.0541033538
2325286050.0 0.9910266305 0.047495254
2330286020.0 0.9909828927 0.0411781219
2335285990.0 0.9912863839 0.0351036976
2340285960.0 0.9913515604 0.0287674011
2345285930.0 0.9916477608 0.0216058016
2350285900.0 0.9917241739 0.0149342025
2355285870.0 0.991800123 0.008489597
2360285840.0 0.991852925 0.0013725553
2365285810.0 0.9918366149 -0.0050357227
2370285780.0 0.9920606281 -0.0115918075
2375285750.0 0.9919082742 -0.0178865313
2380285720.0 0.9913733945 -0.0241722821
2385285690.0 0.9908387851 -0.0305027231
2390285660.0 0.9909104445 -0.0369874433
2395285630.0 0.9912299471 -0.0438004129
2400285600.0 0.990463098 -0.0500963544
2405285570.0 0.9899461111 -0.0566035355
2410285540.0 0.9893605594 -0.0634178398
2415285510.0 0.9893630369 -0.0695278862
2420285480.0 0.9887519011 -0.0767059882
2425285450.0 0.9885718077 -0.0828192509
2430285420.0 0.9877294775 -0.0895375834
2435285390.0 0.9870721164 -0.0959975659
2440285360.0 0.9865756116 -0.1023096167
2445285330.0 0.9856627245 -0.1086392301
2450285300.0 0.9848341013 -0.1155311121
2455285270.0 0.984015999 -0.1222048706
2460285240.0 0.9833109705 -0.1291044038
2465285210.0 0.9823005435 -0.1349297573
2470285180.0 0.9813727402 -0.1418304965
2475285150.0 0.9803236093 -0.1487082016
2480285120.0 0.9795137593 -0.1548847669
2485285090.0 0.9785744827 -0.1615200724
2490285060.0 0.9774782328 -0.1680773773
2495285030.0 0.9762560408 -0.1745015999
2500285000.0 0.9747073213 -0.1813708476
2505284970.0 0.9735351027 -0.1876796071
2510284940.0 0.9723917975 -0.194082221
2515284910.0 0.9707868985 -0.2006191311
2520284880.0 0.9692150515 -0.2066444599
2525284850.0 0.9677311521 -0.2132127711
2530284820.0 0.9664896895 -0.2193910554
2535284790.0 0.9654948038 -0.2259864485
2540284760.0 0.9637384255 -0.2324066604
2545284730.0 0.9617945632 -0.2383547085
2550284700.0 0.9606635283 -0.2447362657
2555284670.0 0.959099382 -0.2513095874
