!Created with skrf (http://scikit-rf.org).
# Hz S RI R 50.0 
!freq ReS11 ImS11
45000000.0 -0.08153533935546875 -0.0929412841796875
49995500.0 -0.10225296020507812 -0.08899307250976562
54991000.0 -0.12277603149414062 -0.0808258056640625
59986500.0 -0.1409759521484375 -0.07849884033203125
64982000.0 -0.1600189208984375 -0.0693817138671875
69977500.0 -0.1785125732421875 -0.0547332763671875
74973000.0 -0.19591522216796875 -0.03694915771484375
79968500.0 -0.2115325927734375 -0.0161285400390625
84964000.0 -0.22489166259765625 0.0079193115234375
89959500.0 -0.23551177978515625 0.03481292724609375
94955000.0 -0.24237060546875 0.064544677734375
99950500.0 -0.245330810546875 0.096771240234375
104946000.0 -0.243743896484375 0.1307373046875
109941500.0 -0.237548828125 0.16541290283203125
114937000.0 -0.225799560546875 0.20050048828125
119932500.0 -0.20892333984375 0.23525238037109375
124928000.0 -0.18701171875 0.26910400390625
129923500.0 -0.1597900390625 0.30023193359375
134919000.0 -0.12738037109375 0.3287811279296875
139914500.0 -0.0899505615234375 0.3536834716796875
144910000.0 -0.04876708984375 0.374359130859375
149905500.0 -0.00372314453125 0.3896026611328125
154901000.0 0.0441131591796875 0.3992156982421875
159896500.0 0.0937042236328125 0.402313232421875
164892000.0 0.1443939208984375 0.39947509765625
169887500.0 0.19561767578125 0.390167236328125
174883000.0 0.246185302734375 0.374176025390625
179878500.0 0.295562744140625 0.35137939453125
184874000.0 0.3426055908203125 0.3221435546875
189869500.0 0.3869476318359375 0.2872161865234375
194865000.0 0.427734375 0.2465057373046875
199860500.0 0.463958740234375 0.200225830078125
204856000.0 0.494964599609375 0.148712158203125
209851500.0 0.520263671875 0.092987060546875
214847000.0 0.539642333984375 0.033477783203125
219842500.0 0.55218505859375 -0.02972412109375
224838000.0 0.557159423828125 -0.095184326171875
229833500.0 0.554473876953125 -0.16259765625
234829000.0 0.543548583984375 -0.229888916015625
239824500.0 0.524200439453125 -0.29766845703125
244820000.0 0.496307373046875 -0.3639984130859375
249815500.0 0.4593353271484375 -0.4276123046875
254811000.0 0.4385528564453125 -0.474456787109375
259806500.0 0.388580322265625 -0.532135009765625
264802000.0 0.331085205078125 -0.58441162109375
269797500.0 0.2659912109375 -0.629669189453125
274793000.0 0.19482421875 -0.667388916015625
279788500.0 0.118316650390625 -0.696563720703125
284784000.0 0.037872314453125 -0.71649169921875
289779500.0 -0.0452880859375 -0.72625732421875
294775000.0 -0.130218505859375 -0.726287841796875
299770500.0 -0.215118408203125 -0.716064453125
304766000.0 -0.299072265625 -0.696197509765625
309761500.0 -0.380889892578125 -0.665863037109375
314757000.0 -0.458740234375 -0.625885009765625
319752500.0 -0.532623291015625 -0.576873779296875
324748000.0 -0.6009521484375 -0.519561767578125
329743500.0 -0.66339111328125 -0.454315185546875
334739000.0 -0.719085693359375 -0.381988525390625
339734500.0 -0.766876220703125 -0.302764892578125
344730000.0 -0.806304931640625 -0.217987060546875
349725500.0 -0.8367919921875 -0.12786865234375
354721000.0 -0.8575439453125 -0.0338134765625
359716500.0 -0.868011474609375 0.0638427734375
364712000.0 -0.86724853515625 0.163909912109375
369707500.0 -0.85491943359375 0.265411376953125
374703000.0 -0.830596923828125 0.3670654296875
379698500.0 -0.793426513671875 0.467193603515625
384694000.0 -0.743804931640625 0.56402587890625
389689500.0 -0.681671142578125 0.655731201171875
394685000.0 -0.60723876953125 0.74066162109375
399680500.0 -0.521484375 0.816925048828125
404676000.0 -0.42572021484375 0.882843017578125
409671500.0 -0.32135009765625 0.937774658203125
414667000.0 -0.210205078125 0.97747802734375
419662500.0 -0.09368896484375 1.0035400390625
424658000.0 0.0260009765625 1.0150146484375
429653500.0 0.147216796875 1.01055908203125
434649000.0 0.2669677734375 0.989990234375
439644500.0 0.38140869140625 0.955322265625
444640000.0 0.48992919921875 0.908355712890625
449635500.0 0.591766357421875 0.850738525390625
454631000.0 0.68768310546875 0.782745361328125
459626500.0 0.775787353515625 0.703704833984375
464622000.0 0.85400390625 0.615081787109375
469617500.0 0.92169189453125 0.518798828125
474613000.0 0.979278564453125 0.416229248046875
479608500.0 1.02606201171875 0.3079833984375
484604000.0 1.06207275390625 0.19464111328125
489599500.0 1.086181640625 0.07769775390625
494595000.0 1.09869384765625 -0.04266357421875
499590500.0 1.098876953125 -0.16534423828125
504586000.0 1.08612060546875 -0.289306640625
509581500.0 1.059814453125 -0.41357421875
514577000.0 1.01898193359375 -0.536865234375
519572500.0 0.96307373046875 -0.657928466796875
524568000.0 0.8916015625 -0.7745361328125
529563500.0 0.804931640625 -0.883758544921875
534559000.0 0.7030029296875 -0.98333740234375
539554500.0 0.58770751953125 -1.07061767578125
544550000.0 0.4599609375 -1.14263916015625
549545500.0 0.32305908203125 -1.19793701171875
554541000.0 0.1795654296875 -1.2359619140625
559536500.0 0.0316162109375 -1.25543212890625
564532000.0 -0.11761474609375 -1.25653076171875
569527500.0 -0.2664794921875 -1.2384033203125
574523000.0 -0.411376953125 -1.20257568359375
579518500.0 -0.5504150390625 -1.14886474609375
584514000.0 -0.68133544921875 -1.0791015625
589509500.0 -0.80224609375 -0.99420166015625
594505000.0 -0.91094970703125 -0.896484375
599500500.0 -1.00750732421875 -0.7877197265625
604496000.0 -1.0902099609375 -0.67047119140625
609491500.0 -1.1591796875 -0.54547119140625
614487000.0 -1.2142333984375 -0.41534423828125
619482500.0 -1.25531005859375 -0.281005859375
624478000.0 -1.28314208984375 -0.14398193359375
629473500.0 -1.29681396484375 -0.0047607421875
634469000.0 -1.29693603515625 0.135009765625
639464500.0 -1.28363037109375 0.2755126953125
644460000.0 -1.25616455078125 0.4156494140625
649455500.0 -1.2149658203125 0.55413818359375
654451000.0 -1.15850830078125 0.6904296875
659446500.0 -1.0877685546875 0.82318115234375
664442000.0 -1.0013427734375 0.95050048828125
669437500.0 -0.89892578125 1.07122802734375
674433000.0 -0.780029296875 1.18206787109375
679428500.0 -0.64556884765625 1.2806396484375
684424000.0 -0.49676513671875 1.3643798828125
689419500.0 -0.33428955078125 1.43011474609375
694415000.0 -0.16094970703125 1.474853515625
699410500.0 0.019775390625 1.4967041015625
704406000.0 0.2034912109375 1.4940185546875
709401500.0 0.38775634765625 1.46533203125
714397000.0 0.56671142578125 1.41168212890625
719392500.0 0.7364501953125 1.3338623046875
724388000.0 0.89349365234375 1.23504638671875
729383500.0 1.03472900390625 1.11676025390625
734379000.0 1.15673828125 0.9818115234375
739374500.0 1.259765625 0.83526611328125
744370000.0 1.34210205078125 0.67919921875
749365500.0 1.40435791015625 0.517822265625
754361000.0 1.4478759765625 0.35455322265625
759356500.0 1.4715576171875 0.18951416015625
764352000.0 1.477783203125 0.0263671875
769347500.0 1.46734619140625 -0.13446044921875
774343000.0 1.44134521484375 -0.29168701171875
779338500.0 1.39971923828125 -0.44476318359375
784334000.0 1.345703125 -0.591552734375
789329500.0 1.27752685546875 -0.73260498046875
794325000.0 1.1962890625 -0.8671875
799320500.0 1.10211181640625 -0.99420166015625
804316000.0 0.9951171875 -1.11328125
809311500.0 0.8751220703125 -1.22198486328125
814307000.0 0.74298095703125 -1.32012939453125
819302500.0 0.598876953125 -1.40618896484375
824298000.0 0.4422607421875 -1.476806640625
829293500.0 0.27667236328125 -1.53106689453125
834289000.0 0.10089111328125 -1.56640625
839284500.0 -0.0804443359375 -1.58099365234375
844280000.0 -0.1988525390625 -1.60382080078125
849275500.0 -0.38751220703125 -1.5806884765625
854271000.0 -0.5736083984375 -1.53271484375
859266500.0 -0.75439453125 -1.46063232421875
864262000.0 -0.9244384765625 -1.36553955078125
869257500.0 -1.08050537109375 -1.24896240234375
874253000.0 -1.2208251953125 -1.113525390625
879248500.0 -1.3416748046875 -0.962158203125
884244000.0 -1.44183349609375 -0.79876708984375
889239500.0 -1.5205078125 -0.62628173828125
894235000.0 -1.57757568359375 -0.4486083984375
899230500.0 -1.6141357421875 -0.26715087890625
904226000.0 -1.629638671875 -0.0843505859375
909221500.0 -1.62518310546875 0.09735107421875
914217000.0 -1.6004638671875 0.27642822265625
919212500.0 -1.5567626953125 0.44873046875
924208000.0 -1.49615478515625 0.61444091796875
929203500.0 -1.4205322265625 0.77093505859375
934199000.0 -1.33013916015625 0.918212890625
939194500.0 -1.2265625 1.0557861328125
944190000.0 -1.1104736328125 1.18341064453125
949185500.0 -0.9827880859375 1.3001708984375
954181000.0 -0.84246826171875 1.4052734375
959176500.0 -0.69073486328125 1.4971923828125
964172000.0 -0.52783203125 1.57464599609375
969167500.0 -0.354248046875 1.63604736328125
974163000.0 -0.17138671875 1.6790771484375
979158500.0 0.018798828125 1.70159912109375
984154000.0 0.2152099609375 1.70318603515625
989149500.0 0.4130859375 1.67938232421875
994145000.0 0.60968017578125 1.631103515625
999140500.0 0.8028564453125 1.5582275390625
1004136000.0 0.98663330078125 1.45928955078125
1009131500.0 1.1572265625 1.3359375
1014127000.0 1.31134033203125 1.19049072265625
1019122500.0 1.4451904296875 1.0264892578125
1024118000.0 1.5560302734375 0.8465576171875
1029113500.0 1.64208984375 0.65521240234375
1034109000.0 1.702392578125 0.4561767578125
1039104500.0 1.73773193359375 0.2535400390625
1044100000.0 1.746826171875 0.05120849609375
1049095500.0 1.7333984375 -0.14862060546875
1054091000.0 1.69671630859375 -0.341796875
1059086500.0 1.640380859375 -0.52667236328125
1064082000.0 1.56549072265625 -0.702392578125
1069077500.0 1.47357177734375 -0.86663818359375
1074073000.0 1.36724853515625 -1.0184326171875
1079068500.0 1.24652099609375 -1.15899658203125
1084064000.0 1.1129150390625 -1.2857666015625
1089059500.0 0.968017578125 -1.39849853515625
1094055000.0 0.813232421875 -1.49737548828125
1099050500.0 0.64764404296875 -1.580078125
1104046000.0 0.473388671875 -1.646240234375
1109041500.0 0.291748046875 -1.69549560546875
1114037000.0 0.10382080078125 -1.72479248046875
1119032500.0 -0.0887451171875 -1.734375
1124028000.0 -0.28466796875 -1.72296142578125
1129023500.0 -0.48089599609375 -1.68853759765625
1134019000.0 -0.67431640625 -1.63018798828125
1139014500.0 -0.86236572265625 -1.54876708984375
1144010000.0 -1.0404052734375 -1.44354248046875
1149005500.0 -1.20654296875 -1.31610107421875
1154001000.0 -1.3563232421875 -1.16729736328125
1158996500.0 -1.4866943359375 -0.99957275390625
1163992000.0 -1.5948486328125 -0.816650390625
1168987500.0 -1.677978515625 -0.6209716796875
1173983000.0 -1.7353515625 -0.417236328125
1178978500.0 -1.7669677734375 -0.208251953125
1183974000.0 -1.77093505859375 -0.000244140625
1188969500.0 -1.7498779296875 0.204833984375
1193965000.0 -1.70428466796875 0.4034423828125
1198960500.0 -1.63671875 0.59210205078125
1203956000.0 -1.5489501953125 0.768310546875
1208951500.0 -1.44287109375 0.931884765625
1213947000.0 -1.3212890625 1.08001708984375
1218942500.0 -1.1866455078125 1.2115478515625
1223938000.0 -1.04046630859375 1.32696533203125
1228933500.0 -0.885009765625 1.42535400390625
1233929000.0 -0.72247314453125 1.505126953125
1238924500.0 -0.553955078125 1.5682373046875
1243920000.0 -0.3809814453125 1.6136474609375
1248915500.0 -0.20654296875 1.64166259765625
1253911000.0 -0.02923583984375 1.65240478515625
1258906500.0 0.14794921875 1.6453857421875
1263902000.0 0.324462890625 1.621337890625
1268897500.0 0.4967041015625 1.57818603515625
1273893000.0 0.6640625 1.51739501953125
1278888500.0 0.8253173828125 1.43890380859375
1283884000.0 0.979248046875 1.34393310546875
1288879500.0 1.12255859375 1.2313232421875
1293875000.0 1.25469970703125 1.1033935546875
1298870500.0 1.372314453125 0.9603271484375
1303866000.0 1.4735107421875 0.80413818359375
1308861500.0 1.5576171875 0.6363525390625
1313857000.0 1.62176513671875 0.45953369140625
1318852500.0 1.666015625 0.27532958984375
1323848000.0 1.68963623046875 0.0858154296875
1328843500.0 1.691162109375 -0.104736328125
1333839000.0 1.6705322265625 -0.29541015625
1338834500.0 1.6278076171875 -0.483154296875
1343830000.0 1.564697265625 -0.6650390625
1348825500.0 1.480224609375 -0.838623046875
1353821000.0 1.3763427734375 -1.00250244140625
1358816500.0 1.25390625 -1.1529541015625
1363812000.0 1.1141357421875 -1.28900146484375
1368807500.0 0.9599609375 -1.40631103515625
1373803000.0 0.79266357421875 -1.5064697265625
1378798500.0 0.614990234375 -1.58538818359375
1383794000.0 0.42864990234375 -1.64288330078125
1388789500.0 0.238037109375 -1.677978515625
1393785000.0 0.04522705078125 -1.6903076171875
1398780500.0 -0.1463623046875 -1.6796875
1403776000.0 -0.33489990234375 -1.646728515625
1408771500.0 -0.516845703125 -1.59259033203125
1413767000.0 -0.68975830078125 -1.51837158203125
1418762500.0 -0.85174560546875 -1.42578125
1423758000.0 -0.9998779296875 -1.31658935546875
1428753500.0 -1.13421630859375 -1.19329833984375
1433749000.0 -1.25335693359375 -1.05706787109375
1438744500.0 -1.3565673828125 -0.91070556640625
1443740000.0 -1.44195556640625 -0.755615234375
1448735500.0 -1.5111083984375 -0.593505859375
1453731000.0 -1.56298828125 -0.4263916015625
1458726500.0 -1.59765625 -0.2559814453125
1463722000.0 -1.61505126953125 -0.082763671875
1468717500.0 -1.61480712890625 0.091064453125
1473713000.0 -1.59735107421875 0.26434326171875
1478708500.0 -1.56256103515625 0.43621826171875
1483704000.0 -1.510009765625 0.6041259765625
1488699500.0 -1.43988037109375 0.7684326171875
1493695000.0 -1.351806640625 0.9251708984375
1498690500.0 -1.2462158203125 1.07373046875
1503686000.0 -1.12261962890625 1.21185302734375
1508681500.0 -0.98284912109375 1.33685302734375
1513677000.0 -0.82684326171875 1.44586181640625
1518672500.0 -0.657470703125 1.53692626953125
1523668000.0 -0.4755859375 1.60748291015625
1528663500.0 -0.28521728515625 1.65460205078125
1533659000.0 -0.0885009765625 1.677734375
1538654500.0 0.10992431640625 1.675048828125
1543650000.0 0.3057861328125 1.6475830078125
1548645500.0 0.49627685546875 1.59442138671875
1553641000.0 0.67669677734375 1.517822265625
1558636500.0 0.843505859375 1.4202880859375
1563632000.0 0.99530029296875 1.3037109375
1568627500.0 1.1292724609375 1.171875
1573623000.0 1.24365234375 1.02789306640625
1578618500.0 1.339111328125 0.8741455078125
1583614000.0 1.4150390625 0.71441650390625
1588609500.0 1.4720458984375 0.5504150390625
1593605000.0 1.5107421875 0.38482666015625
1598600500.0 1.5311279296875 0.2191162109375
1603596000.0 1.53497314453125 0.05487060546875
1608591500.0 1.52294921875 -0.10675048828125
1613587000.0 1.49639892578125 -0.2642822265625
1618582500.0 1.45556640625 -0.41754150390625
1623578000.0 1.4002685546875 -0.56536865234375
1628573500.0 1.33184814453125 -0.70721435546875
1633569000.0 1.24981689453125 -0.84228515625
1638564500.0 1.1552734375 -0.96923828125
1643560000.0 1.04815673828125 -1.08807373046875
1648555500.0 0.92828369140625 -1.19598388671875
1653551000.0 0.7967529296875 -1.2926025390625
1658546500.0 0.6536865234375 -1.37554931640625
1663542000.0 0.5006103515625 -1.44366455078125
1668537500.0 0.3382568359375 -1.49542236328125
1673533000.0 0.1695556640625 -1.52716064453125
1678528500.0 -0.003662109375 -1.53936767578125
1683524000.0 -0.17877197265625 -1.53070068359375
1688519500.0 -0.35198974609375 -1.4998779296875
1693515000.0 -0.52032470703125 -1.44744873046875
1698510500.0 -0.68109130859375 -1.37432861328125
1703506000.0 -0.82806396484375 -1.2841796875
1708501500.0 -0.96368408203125 -1.17626953125
1713497000.0 -1.0828857421875 -1.05487060546875
1718492500.0 -1.18524169921875 -0.92205810546875
1723488000.0 -1.27093505859375 -0.78125
1728483500.0 -1.3385009765625 -0.63421630859375
1733479000.0 -1.3885498046875 -0.48406982421875
1738474500.0 -1.423095703125 -0.33251953125
1743470000.0 -1.44207763671875 -0.1807861328125
1748465500.0 -1.4464111328125 -0.03021240234375
1753461000.0 -1.4366455078125 0.11834716796875
1758456500.0 -1.4139404296875 0.2640380859375
1763452000.0 -1.3785400390625 0.40643310546875
1768447500.0 -1.33074951171875 0.54547119140625
1773443000.0 -1.270263671875 0.67962646484375
1778438500.0 -1.19732666015625 0.80950927734375
1783434000.0 -1.11260986328125 0.9339599609375
1788429500.0 -1.01434326171875 1.05133056640625
1793425000.0 -0.9027099609375 1.16082763671875
1798420500.0 -0.77783203125 1.260498046875
1803416000.0 -0.640380859375 1.3468017578125
1808411500.0 -0.49066162109375 1.419677734375
1813407000.0 -0.3302001953125 1.475830078125
1818402500.0 -0.16143798828125 1.5123291015625
1823398000.0 0.0140380859375 1.5277099609375
1828393500.0 0.1923828125 1.52099609375
1833389000.0 0.36871337890625 1.49066162109375
1838384500.0 0.5400390625 1.437255859375
1843380000.0 0.70355224609375 1.36175537109375
1848375500.0 0.8541259765625 1.266357421875
1853371000.0 0.98956298828125 1.15362548828125
1858366500.0 1.10760498046875 1.02667236328125
1863362000.0 1.20782470703125 0.8887939453125
1868357500.0 1.28912353515625 0.74310302734375
1873353000.0 1.35198974609375 0.59259033203125
1878348500.0 1.39697265625 0.4403076171875
1883344000.0 1.42535400390625 0.2872314453125
1888339500.0 1.4385986328125 0.1343994140625
1893335000.0 1.43682861328125 -0.0152587890625
1898330500.0 1.421142578125 -0.161865234375
1903326000.0 1.39337158203125 -0.30584716796875
1908321500.0 1.352783203125 -0.4447021484375
1913317000.0 1.301025390625 -0.579833984375
1918312500.0 1.237060546875 -0.7103271484375
1923308000.0 1.16180419921875 -0.83575439453125
1928303500.0 1.07366943359375 -0.954345703125
1933299000.0 0.97406005859375 -1.06658935546875
1938294500.0 0.86187744140625 -1.1705322265625
1943290000.0 0.7374267578125 -1.26434326171875
1948285500.0 0.60089111328125 -1.34600830078125
1953281000.0 0.4532470703125 -1.41387939453125
1958276500.0 0.2957763671875 -1.4656982421875
1963272000.0 0.13037109375 -1.4986572265625
1968267500.0 -0.04071044921875 -1.5118408203125
1973263000.0 -0.2147216796875 -1.50396728515625
1978258500.0 -0.3873291015625 -1.472900390625
1983254000.0 -0.555908203125 -1.420654296875
1988249500.0 -0.71612548828125 -1.34686279296875
1993245000.0 -0.86553955078125 -1.253662109375
1998240500.0 -1.00091552734375 -1.14263916015625
2003236000.0 -1.12017822265625 -1.01751708984375
2008231500.0 -1.22247314453125 -0.880615234375
2013227000.0 -1.30633544921875 -0.73486328125
2018222500.0 -1.3717041015625 -0.58258056640625
2023218000.0 -1.41912841796875 -0.42694091796875
2028213500.0 -1.44970703125 -0.26934814453125
2033209000.0 -1.46295166015625 -0.11260986328125
2038204500.0 -1.4609375 0.04339599609375
2043200000.0 -1.44342041015625 0.19647216796875
2048195500.0 -1.41119384765625 0.3460693359375
2053191000.0 -1.36541748046875 0.491455078125
2058186500.0 -1.30596923828125 0.631103515625
2063182000.0 -1.2332763671875 0.76513671875
2068177500.0 -1.147216796875 0.891357421875
2073173000.0 -1.04876708984375 1.00994873046875
2078168500.0 -0.93804931640625 1.11871337890625
2083164000.0 -0.8153076171875 1.2166748046875
2088159500.0 -0.68157958984375 1.301513671875
2093155000.0 -0.5377197265625 1.3721923828125
2098150500.0 -0.38555908203125 1.4273681640625
2103146000.0 -0.2264404296875 1.46478271484375
2108141500.0 -0.06280517578125 1.484130859375
2113137000.0 0.1026611328125 1.4835205078125
2118132500.0 0.2672119140625 1.4635009765625
2123128000.0 0.42840576171875 1.42376708984375
2128123500.0 0.58380126953125 1.36590576171875
2133119000.0 0.7298583984375 1.29046630859375
2138114500.0 0.86566162109375 1.19891357421875
2143110000.0 0.98809814453125 1.0936279296875
2148105500.0 1.09747314453125 0.97601318359375
2153101000.0 1.19189453125 0.84912109375
2158096500.0 1.27166748046875 0.7149658203125
2163092000.0 1.3358154296875 0.574462890625
2168087500.0 1.38507080078125 0.42950439453125
2173083000.0 1.42022705078125 0.2821044921875
2178078500.0 1.44000244140625 0.13348388671875
2183074000.0 1.44586181640625 -0.016357421875
2188069500.0 1.4381103515625 -0.16558837890625
2193065000.0 1.41619873046875 -0.3135986328125
2198060500.0 1.38006591796875 -0.46014404296875
