!Created with skrf (http://scikit-rf.org).
# Hz S RI R 50.0 
!freq ReS11 ImS11
300000.0 -0.0051752954 -0.0411136734
5299970.0 0.000233947 -0.000368602
10299940.0 0.0006258995 -0.0007298376
15299910.0 0.0009706158 0.0006997262
20299880.0 0.0010341207 0.0003100191
25299850.0 0.0011553688 0.0006330363
30299820.0 0.0013581091 0.0010718455
35299790.0 0.0012578965 0.0005385334
40299760.0 0.0015955841 0.0005701229
45299730.0 0.0014444622 0.0005718073
50299700.0 0.0015196857 0.0007886713
55299670.0 0.0018752715 0.0007284495
60299640.0 0.0017819761 0.0006730337
65299610.0 0.0017810417 0.0006495414
70299580.0 0.0018824246 0.0004172241
75299550.0 0.0018001941 0.0005855009
80299520.0 0.0019527845 0.0008445177
85299490.0 0.0017707127 0.0005163871
90299460.0 0.0019156019 0.000674529
95299430.0 0.0019963292 0.0007104864
100299400.0 0.0022019553 0.0004428001
105299370.0 0.0021408956 0.000577822
110299340.0 0.0021947357 0.0006540282
115299310.0 0.002197153 0.0007091986
120299280.0 0.002233888 0.0004783056
125299250.0 0.0021683669 0.0005323193
130299220.0 0.0020668146 0.0006205748
135299190.0 0.0020684665 0.0006100599
140299160.0 0.0020922347 0.0004940383
145299130.0 0.0021624091 0.0004506397
150299100.0 0.0021525607 0.0006332413
155299070.0 0.0021098436 0.0003925506
160299040.0 0.0023660432 0.0005542864
165299010.0 0.0022304773 0.0004372385
170298980.0 0.0022170595 0.0005829205
175298950.0 0.0023623848 0.0007594598
180298920.0 0.0022944236 0.0006186897
185298890.0 0.0022804186 0.0004098481
190298860.0 0.0023747769 0.0004674074
195298830.0 0.0022161003 0.0006855811
200298800.0 0.002582388 0.00030442
205298770.0 0.0024194509 0.0005009866
210298740.0 0.0022419867 0.0006601528
215298710.0 0.0022485034 0.0004566582
220298680.0 0.0025301987 0.0005029987
225298650.0 0.0026475219 0.0005267202
230298620.0 0.0024589745 0.0004720517
235298590.0 0.002569349 0.0004013572
240298560.0 0.0023779183 0.000369305
245298530.0 0.0024229202 0.0002966597
250298500.0 0.002601282 0.0002853437
255298470.0 0.0024200652 0.0005512766
260298440.0 0.0025191836 0.0001915834
265298410.0 0.0024386724 0.0004539423
270298380.0 0.0023938903 0.0004184985
275298350.0 0.0022391307 0.0003716752
280298320.0 0.0023487296 0.0003118035
285298290.0 0.0022819031 0.0002144091
290298260.0 0.0025589162 4.35277e-05
295298230.0 0.002422973 0.0004023288
300298200.0 0.0024344773 0.0004112855
305298170.0 0.0026664908 0.0003185491
310298140.0 0.0026077506 0.0002636068
315298110.0 0.0025336223 0.0002523135
320298080.0 0.0026265242 0.0003371227
325298050.0 0.0025587527 0.0001202762
330298020.0 0.002658572 -7.64387e-05
335297990.0 0.0027317395 0.0001335989
340297960.0 0.0026437379 1.20861e-05
345297930.0 0.0027588836 0.000135716
350297900.0 0.0026637154 8.43521e-05
355297870.0 0.0028888067 0.0001121609
360297840.0 0.0026629321 4.65085e-05
365297810.0 0.0027969808 -5.51719e-05
370297780.0 0.002785699 -3.56808e-05
375297750.0 0.0026343946 -2.7189e-05
380297720.0 0.0027992785 0.0001136936
385297690.0 0.0024296551 6.96949e-05
390297660.0 0.0026973153 0.0001031137
395297630.0 0.0026983034 0.0001796179
400297600.0 0.0026204412 -8.22468e-05
405297570.0 0.0026868708 3.43895e-05
410297540.0 0.0025154687 1.79024e-05
415297510.0 0.0027787627 -0.0001005298
420297480.0 0.0026110636 -3.22681e-05
425297450.0 0.0028134629 -4.5848e-06
430297420.0 0.0027050002 5.6001e-06
435297390.0 0.0026044444 -1.76092e-05
440297360.0 0.0027609214 -0.0002983813
445297330.0 0.0028522534 -0.0001478294
450297300.0 0.0028532651 -0.0001799516
455297270.0 0.0027049611 -0.000222959
460297240.0 0.0027240633 -9.55285e-05
465297210.0 0.0028213988 -0.0001276444
470297180.0 0.0025904201 -9.19755e-05
475297150.0 0.0026552273 -0.0001615232
480297120.0 0.0025544578 -0.0003046997
485297090.0 0.0025894719 -0.0003774434
490297060.0 0.0026589061 -0.0002261811
495297030.0 0.0025617455 -0.0001690605
500297000.0 0.002693763 -0.0002180056
505296970.0 0.0028153485 -0.0002311347
510296940.0 0.0024814352 -0.0001286212
515296910.0 0.0023680384 -0.0001397039
520296880.0 0.002685976 -0.0003453771
525296850.0 0.0026285553 -0.0002111619
530296820.0 0.0026703976 -0.0002084179
535296790.0 0.0025079945 -0.0003981091
540296760.0 0.0027246321 -0.0002895546
545296730.0 0.0024544855 -0.000411101
550296700.0 0.0026625174 -0.0004397996
555296670.0 0.0024997162 -0.0003985124
560296640.0 0.0026467404 -0.0005172521
565296610.0 0.002671661 -0.000488603
570296580.0 0.0027281578 -0.0006177961
575296550.0 0.0027695632 -0.0005607184
580296520.0 0.0028073682 -0.0005559206
585296490.0 0.0026607881 -0.0003453912
590296460.0 0.0027310322 -0.0006511902
595296430.0 0.0027368951 -0.0004454552
600296400.0 0.0026480694 -0.0008571837
605296370.0 0.0026270614 -0.0008991035
610296340.0 0.0028495345 -0.0005286499
615296310.0 0.0027393122 -0.0006849207
620296280.0 0.0025742121 -0.0006381691
625296250.0 0.0026519425 -0.0008341296
630296220.0 0.002652586 -0.000814194
635296190.0 0.0026711548 -0.0005971386
640296160.0 0.0025083279 -0.000792452
645296130.0 0.0025411742 -0.0006520982
650296100.0 0.0024856573 -0.0005791844
655296070.0 0.0027775641 -0.0008035147
660296040.0 0.0027062347 -0.0008904074
665296010.0 0.002800427 -0.0006784427
670295980.0 0.0026685945 -0.0010060214
675295950.0 0.0026450947 -0.0009369933
680295920.0 0.0028730433 -0.0009591783
685295890.0 0.0025601294 -0.0007822817
690295860.0 0.0025320298 -0.0009149781
695295830.0 0.0025417409 -0.0008668882
700295800.0 0.0025661449 -0.000956039
705295770.0 0.0027452988 -0.0011464205
710295740.0 0.0026550637 -0.0008022358
715295710.0 0.002495766 -0.0009105249
720295680.0 0.0024559902 -0.0010016327
725295650.0 0.0027387981 -0.0010902895
730295620.0 0.0026415513 -0.0009214687
735295590.0 0.0026754753 -0.0011530046
740295560.0 0.0025744776 -0.0010955192
745295530.0 0.0023867847 -0.0009529221
750295500.0 0.0026363691 -0.0011120837
755295470.0 0.0025294519 -0.0011609651
760295440.0 0.0025116911 -0.0010472701
765295410.0 0.0027800037 -0.0010687284
770295380.0 0.0025347003 -0.0011511837
775295350.0 0.0025594705 -0.0012584062
780295320.0 0.0023091412 -0.0013251775
785295290.0 0.00260052 -0.0014064582
790295260.0 0.0023680703 -0.0014639917
795295230.0 0.0027255862 -0.0014398701
800295200.0 0.002489634 -0.0012893559
805295170.0 0.0023607708 -0.0014145386
810295140.0 0.0023395191 -0.0014327989
815295110.0 0.0025098734 -0.0013255459
820295080.0 0.0023813019 -0.001310638
825295050.0 0.0025040444 -0.0016486141
830295020.0 0.0025342428 -0.0015062765
835294990.0 0.0025507342 -0.0015105234
840294960.0 0.0023014573 -0.001579007
845294930.0 0.0024410781 -0.001539856
850294900.0 0.0025352768 -0.00165942
855294870.0 0.0023100669 -0.0014476512
860294840.0 0.0024266382 -0.0016868364
865294810.0 0.0024238507 -0.0017066306
870294780.0 0.002577211 -0.0016368627
875294750.0 0.0025533195 -0.0016640767
880294720.0 0.002304873 -0.001681273
885294690.0 0.0023929154 -0.0015695458
890294660.0 0.0024737748 -0.0017369254
895294630.0 0.002486783 -0.0019265786
900294600.0 0.0023827637 -0.0017175442
905294570.0 0.0023767072 -0.0020874819
910294540.0 0.0025094807 -0.0018279194
915294510.0 0.0023070645 -0.0017302958
920294480.0 0.0025968784 -0.0016574088
925294450.0 0.0023038713 -0.0016939295
930294420.0 0.0021925293 -0.0017772904
935294390.0 0.0023975951 -0.0017500208
940294360.0 0.0022404615 -0.0020097195
945294330.0 0.0024073408 -0.0020264484
950294300.0 0.0021824031 -0.0022049511
955294270.0 0.002061189 -0.001871565
960294240.0 0.0021920259 -0.0019957188
965294210.0 0.0025220468 -0.0020649571
970294180.0 0.0022364517 -0.0021929606
975294150.0 0.0021697867 -0.0019910215
980294120.0 0.0021680445 -0.0022264726
985294090.0 0.0022589726 -0.002245603
990294060.0 0.0023463177 -0.0020643186
995294030.0 0.0021349332 -0.0022755493
1000294000.0 0.0024261066 -0.0023632802
1005293970.0 0.0022463216 -0.0023787009
1010293940.0 0.0020911568 -0.0021472328
1015293910.0 0.0022318504 -0.002440109
1020293880.0 0.0022319222 -0.0023167134
1025293850.0 0.0022260157 -0.0025229768
1030293820.0 0.002194476 -0.0024485351
1035293790.0 0.0023606631 -0.002461824
1040293760.0 0.0023150579 -0.0024095953
1045293730.0 0.0021731105 -0.0022743199
1050293700.0 0.0022569815 -0.0023904508
1055293670.0 0.0023702158 -0.0024765142
1060293640.0 0.0022608765 -0.0025293091
1065293610.0 0.0022277259 -0.0024929916
1070293580.0 0.0023269852 -0.0027077664
1075293550.0 0.0022104593 -0.0023370212
1080293520.0 0.0023338232 -0.0025456258
1085293490.0 0.0022604817 -0.0024663347
1090293460.0 0.0023943731 -0.0027249876
1095293430.0 0.0023005708 -0.002625631
1100293400.0 0.0022247528 -0.0026721997
1105293370.0 0.0020690356 -0.002753734
1110293340.0 0.0023257504 -0.0027396713
1115293310.0 0.0023155282 -0.0028147007
1120293280.0 0.0022442343 -0.0025097771
1125293250.0 0.0022053882 -0.0026654094
1130293220.0 0.0020727456 -0.0027068049
1135293190.0 0.0021633656 -0.0026980326
1140293160.0 0.0019972659 -0.0026295617
1145293130.0 0.0020467034 -0.002446154
1150293100.0 0.0019335769 -0.0023644468
1155293070.0 0.0019759113 -0.0026792297
1160293040.0 0.0019673915 -0.0024715199
1165293010.0 0.0017885367 -0.0025745906
1170292980.0 0.001899959 -0.0026163434
1175292950.0 0.001860989 -0.002725693
1180292920.0 0.001919844 -0.0028542553
1185292890.0 0.001994928 -0.0028882465
1190292860.0 0.0022039316 -0.0029184483
1195292830.0 0.0021117614 -0.0030034153
1200292800.0 0.0019815368 -0.0029744384
1205292770.0 0.0021072613 -0.0031386864
1210292740.0 0.0023174295 -0.0029420819
1215292710.0 0.0025300193 -0.0031166668
1220292680.0 0.0020364471 -0.0031443868
1225292650.0 0.0020575902 -0.0032300333
1230292620.0 0.0020834308 -0.0032671899
1235292590.0 0.0022453096 -0.0030752973
1240292560.0 0.0022473775 -0.0032146005
1245292530.0 0.0020942553 -0.0029990076
1250292500.0 0.0020587663 -0.00323573
1255292470.0 0.0023935576 -0.0031355497
1260292440.0 0.0021612392 -0.0032123668
1265292410.0 0.0020829938 -0.0033105466
1270292380.0 0.0023166023 -0.0031640885
1275292350.0 0.002113526 -0.0031372062
1280292320.0 0.0021162528 -0.003342013
1285292290.0 0.0019604562 -0.0030343477
1290292260.0 0.0021987744 -0.0033109222
1295292230.0 0.00227863 -0.0033592711
1300292200.0 0.0022537381 -0.0034043475
1305292170.0 0.0020845407 -0.0034059197
1310292140.0 0.0021121006 -0.0034304632
1315292110.0 0.0021323249 -0.0033849214
1320292080.0 0.0022104564 -0.0032428361
1325292050.0 0.0021274121 -0.0033891278
1330292020.0 0.002078144 -0.0031906121
1335291990.0 0.0020956954 -0.0033784629
1340291960.0 0.0022295121 -0.0036048872
1345291930.0 0.0021504769 -0.0031888318
1350291900.0 0.0021792087 -0.0036113634
1355291870.0 0.0020843102 -0.0035019805
1360291840.0 0.0021960082 -0.0034150329
1365291810.0 0.0022038581 -0.0034829491
1370291780.0 0.0021401758 -0.0034143068
1375291750.0 0.0019415563 -0.0036588737
1380291720.0 0.0020004972 -0.0034675865
1385291690.0 0.0019420292 -0.0036575222
1390291660.0 0.0022182103 -0.0035523704
1395291630.0 0.002168035 -0.0036131311
1400291600.0 0.0020284692 -0.0034509922
1405291570.0 0.0023004746 -0.0036777138
1410291540.0 0.001967294 -0.0037344869
1415291510.0 0.0020969838 -0.0037070712
1420291480.0 0.0020697032 -0.0036661894
1425291450.0 0.002021086 -0.0036752176
1430291420.0 0.0021310066 -0.0038187052
1435291390.0 0.0020406312 -0.0036816877
1440291360.0 0.0019912362 -0.0037579216
1445291330.0 0.0021221736 -0.0037594771
1450291300.0 0.0021344933 -0.0039517737
1455291270.0 0.0019076024 -0.0036989788
1460291240.0 0.0019639952 -0.0036743973
1465291210.0 0.0020115486 -0.0036399256
1470291180.0 0.0020167628 -0.0036124324
1475291150.0 0.0018731447 -0.0037043215
1480291120.0 0.0018948061 -0.0037204007
1485291090.0 0.0022912776 -0.0037461246
1490291060.0 0.002086001 -0.0037178517
1495291030.0 0.0021134728 -0.0037814568
1500291000.0 0.0020458108 -0.0038488074
1505290970.0 0.0021520034 -0.0039443617
1510290940.0 0.0019336055 -0.0036768439
1515290910.0 0.0024390592 -0.0039045405
1520290880.0 0.0019912111 -0.0037800317
1525290850.0 0.0018961774 -0.0038582035
1530290820.0 0.0020839438 -0.0038067858
1535290790.0 0.0021078042 -0.0037466287
1540290760.0 0.0020294037 -0.003985692
1545290730.0 0.0020527489 -0.0037848575
1550290700.0 0.0022413942 -0.0040044525
1555290670.0 0.001974257 -0.0039082165
1560290640.0 0.0020212725 -0.0037550783
1565290610.0 0.0022695022 -0.0040327495
1570290580.0 0.0021379495 -0.0039090057
1575290550.0 0.0022330632 -0.0040681898
1580290520.0 0.0018629236 -0.0040099373
1585290490.0 0.0021586694 -0.0038334641
1590290460.0 0.0021871252 -0.004022573
1595290430.0 0.0021872701 -0.0041351674
1600290400.0 0.0021024277 -0.0038812302
1605290370.0 0.0023029581 -0.0040523513
1610290340.0 0.0021605934 -0.004064273
1615290310.0 0.002355017 -0.0039619267
1620290280.0 0.0024428588 -0.0039047442
1625290250.0 0.002221147 -0.0040217719
1630290220.0 0.0021098996 -0.0041139935
1635290190.0 0.0021892531 -0.0039362755
1640290160.0 0.0021834152 -0.0041127249
1645290130.0 0.0022110167 -0.0042870441
1650290100.0 0.002137806 -0.0041552702
1655290070.0 0.0022121894 -0.0039283564
1660290040.0 0.0022471448 -0.0041495877
1665290010.0 0.0020750473 -0.0041711741
1670289980.0 0.0021792842 -0.0042991756
1675289950.0 0.0021848939 -0.0041520136
1680289920.0 0.0019786546 -0.0043265111
1685289890.0 0.0023055612 -0.0043873739
1690289860.0 0.0021616081 -0.0041490438
1695289830.0 0.0024161073 -0.0042940246
1700289800.0 0.0021507258 -0.0042832871
1705289770.0 0.0022723141 -0.004187377
1710289740.0 0.0019200742 -0.0042877411
1715289710.0 0.0021869452 -0.0042105397
1720289680.0 0.0023268548 -0.0043095588
1725289650.0 0.0021892969 -0.0042020397
1730289620.0 0.0021255551 -0.0041175637
1735289590.0 0.0022093007 -0.0041379061
1740289560.0 0.0022173923 -0.0044064896
1745289530.0 0.0021870579 -0.004172137
1750289500.0 0.0022448834 -0.0044869914
1755289470.0 0.0021154741 -0.0042366722
1760289440.0 0.002154097 -0.0041929302
1765289410.0 0.0024338081 -0.0042866311
1770289380.0 0.0024738327 -0.0043271137
1775289350.0 0.0024034943 -0.0042582691
1780289320.0 0.0023916598 -0.0041463939
1785289290.0 0.002064608 -0.0041093877
1790289260.0 0.002323194 -0.0043158175
1795289230.0 0.0022383099 -0.0042631679
1800289200.0 0.0025282589 -0.0042066157
1805289170.0 0.0022370966 -0.0041852833
1810289140.0 0.0024299884 -0.0042183147
1815289110.0 0.002318667 -0.0044438344
1820289080.0 0.0023542965 -0.0042406423
1825289050.0 0.0023039131 -0.0043159064
1830289020.0 0.0022277049 -0.0044314477
1835288990.0 0.0023379388 -0.0044309935
1840288960.0 0.0022350373 -0.0041831465
1845288930.0 0.0021942116 -0.0042865668
1850288900.0 0.0024550272 -0.0042796657
1855288870.0 0.0022192604 -0.0042752665
1860288840.0 0.0023210978 -0.0044764405
1865288810.0 0.0022382966 -0.0041299054
1870288780.0 0.0024769155 -0.0042288695
1875288750.0 0.0022180172 -0.0042517066
1880288720.0 0.0022073923 -0.0042077384
1885288690.0 0.0024780069 -0.0042030633
1890288660.0 0.0023397629 -0.0041806723
1895288630.0 0.00251942 -0.0042544661
1900288600.0 0.0022406946 -0.0041967279
1905288570.0 0.0024807 -0.0042528785
1910288540.0 0.0023436986 -0.0042354136
1915288510.0 0.0026092286 -0.0041653872
1920288480.0 0.0024685962 -0.0040635426
1925288450.0 0.0025127206 -0.004305248
1930288420.0 0.0025290934 -0.0043957281
1935288390.0 0.0025023777 -0.0042949152
1940288360.0 0.0024789231 -0.0041619113
1945288330.0 0.0026418492 -0.0042082227
1950288300.0 0.0024754811 -0.0041468537
1955288270.0 0.0027049016 -0.0042663819
1960288240.0 0.0024608508 -0.0043264618
1965288210.0 0.0026449015 -0.0041614322
1970288180.0 0.0024795689 -0.0042650739
1975288150.0 0.0022264367 -0.0043435017
1980288120.0 0.0024315118 -0.004198441
1985288090.0 0.0024865518 -0.0041355324
1990288060.0 0.0024848019 -0.0040605133
1995288030.0 0.0026270239 -0.0041535778
2000288000.0 0.0025945421 -0.0040595082
2005287970.0 0.0027226049 -0.0042705655
2010287940.0 0.0024141409 -0.00411779
2015287910.0 0.0026116567 -0.0041426224
2020287880.0 0.0025814867 -0.0041561988
2025287850.0 0.0025695339 -0.0040211745
2030287820.0 0.0025335619 -0.0040290116
2035287790.0 0.0024675864 -0.0042815351
2040287760.0 0.0026037178 -0.0042199031
2045287730.0 0.0025332904 -0.0041241027
2050287700.0 0.0025138764 -0.0040392552
2055287670.0 0.0024068849 -0.0040487629
2060287640.0 0.0023959149 -0.0040207708
2065287610.0 0.0025110825 -0.0040027754
2070287580.0 0.0025545402 -0.0040468048
2075287550.0 0.0025769697 -0.0039458215
2080287520.0 0.0027613787 -0.0039299577
2085287490.0 0.0025576645 -0.0041084551
2090287460.0 0.002599332 -0.0041432003
2095287430.0 0.0024263873 -0.0040417122
2100287400.0 0.0024383123 -0.0040294983
2105287370.0 0.0023688173 -0.0041496963
2110287340.0 0.0025823713 -0.0041578158
2115287310.0 0.0027563965 -0.0037993545
2120287280.0 0.0025340468 -0.0038318812
2125287250.0 0.0026413647 -0.0040106634
2130287220.0 0.0026947908 -0.0040885479
2135287190.0 0.0026320348 -0.0038734524
2140287160.0 0.0025235017 -0.0040247473
2145287130.0 0.0028473862 -0.0039664877
2150287100.0 0.0027094019 -0.0038370783
2155287070.0 0.0026826221 -0.0040657666
2160287040.0 0.0027659369 -0.0041236392
2165287010.0 0.0026274081 -0.0040037313
2170286980.0 0.0025928439 -0.0038767414
2175286950.0 0.0026118433 -0.0039912934
2180286920.0 0.0028506343 -0.0039351557
2185286890.0 0.0025141011 -0.0037605568
2190286860.0 0.0026646512 -0.0037538627
2195286830.0 0.0026185102 -0.0038976837
2200286800.0 0.0027715089 -0.0037702858
2205286770.0 0.0025654454 -0.0039008136
2210286740.0 0.0028198795 -0.0038259915
2215286710.0 0.0025533869 -0.0039762371
2220286680.0 0.0026072067 -0.0039637089
2225286650.0 0.0026260342 -0.0037328578
2230286620.0 0.002602552 -0.0037728936
2235286590.0 0.0027873848 -0.0039351109
2240286560.0 0.0027758801 -0.0037230704
2245286530.0 0.0026129209 -0.0040955032
2250286500.0 0.002721208 -0.003890707
2255286470.0 0.0024397574 -0.0038776485
2260286440.0 0.002600616 -0.0039273716
2265286410.0 0.0028114412 -0.0038753969
2270286380.0 0.0027588719 -0.0039188738
2275286350.0 0.0025644408 -0.003930407
2280286320.0 0.0025924456 -0.003932779
2285286290.0 0.0025596179 -0.0038445264
2290286260.0 0.0026143862 -0.003848641
2295286230.0 0.0025829168 -0.0037520321
2300286200.0 0.0026694621 -0.0037872031
2305286170.0 0.0026126738 -0.0037633383
2310286140.0 0.0027581484 -0.003801328
2315286110.0 0.0026985756 -0.0038179483
2320286080.0 0.0026694559 -0.0036803114
2325286050.0 0.0025817547 -0.0038134068
2330286020.0 0.0026338219 -0.003755192
2335285990.0 0.0026996585 -0.003723661
2340285960.0 0.0025606632 -0.0036353134
2345285930.0 0.0028705875 -0.0036566607
2350285900.0 0.0029273943 -0.0036027331
2355285870.0 0.0025173546 -0.0037432189
2360285840.0 0.0024362081 -0.0038872471
2365285810.0 0.0027535174 -0.0035412477
2370285780.0 0.0026873583 -0.0034217996
2375285750.0 0.0026591333 -0.0035687599
2380285720.0 0.0027439154 -0.0036859275
2385285690.0 0.0024682222 -0.0036339177
2390285660.0 0.0026823174 -0.0034300388
2395285630.0 0.0026114918 -0.0037063467
2400285600.0 0.0027295127 -0.0034836575
2405285570.0 0.0027083016 -0.0035586827
2410285540.0 0.0025468025 -0.0037661023
2415285510.0 0.002424717 -0.0037777556
2420285480.0 0.0026021579 -0.00367525
2425285450.0 0.002706876 -0.0035817989
2430285420.0 0.0027404031 -0.0035451588
2435285390.0 0.0025361816 -0.003548796
2440285360.0 0.0027956781 -0.0035307889
2445285330.0 0.002878968 -0.0036381701
2450285300.0 0.0028263172 -0.0038027366
2455285270.0 0.0025390958 -0.0034790053
2460285240.0 0.0026494138 -0.0035798256
2465285210.0 0.0026588783 -0.0034175891
2470285180.0 0.002569233 -0.0035471244
2475285150.0 0.0025999787 -0.0034283472
2480285120.0 0.0027519204 -0.0035865355
2485285090.0 0.0024940601 -0.0034452139
2490285060.0 0.0025764235 -0.0036723149
2495285030.0 0.0023858233 -0.0034454596
2500285000.0 0.0025947906 -0.0032964669
2505284970.0 0.0024680803 -0.0034227474
2510284940.0 0.0026818268 -0.0034027886
2515284910.0 0.0026202729 -0.0033128114
2520284880.0 0.0024777728 -0.0037415561
2525284850.0 0.0028634641 -0.0035337883
2530284820.0 0.0025409087 -0.0035025735
2535284790.0 0.0027064453 -0.0036412196
