!Created with skrf (http://scikit-rf.org).
# Hz S RI R 50.0 
!freq ReS11 ImS11
300000.0 -1.017217739 -0.1473742087
5299970.0 -1.002779194 0.0084236271
10299940.0 -1.000742466 0.0124761322
15299910.0 -1.000091875 0.0246586641
20299880.0 -1.000234614 0.028270489
25299850.0 -0.9994766199 0.0367179088
30299820.0 -0.999421711 0.0446847319
35299790.0 -0.9982077014 0.0492697124
40299760.0 -0.9972950266 0.0561791852
45299730.0 -0.9975813799 0.0628726041
50299700.0 -0.9962917463 0.0700789268
55299670.0 -0.9954216562 0.0768033774
60299640.0 -0.9953921957 0.0829736774
65299610.0 -0.9950167636 0.0896071138
70299580.0 -0.9937340772 0.0962262955
75299550.0 -0.9929076536 0.1026126452
80299520.0 -0.991849614 0.109850304
85299490.0 -0.9911907398 0.1165814817
90299460.0 -0.9900549128 0.1229688083
95299430.0 -0.989250407 0.1294687417
100299400.0 -0.9886151354 0.1360694157
105299370.0 -0.9870126212 0.1430894974
110299340.0 -0.9859617876 0.1496799355
115299310.0 -0.9847437023 0.1564912806
120299280.0 -0.9835850268 0.162586943
125299250.0 -0.9824848987 0.1686719866
130299220.0 -0.9816776529 0.1757355805
135299190.0 -0.9800000902 0.1819836344
140299160.0 -0.9788629629 0.1885897053
145299130.0 -0.9776854843 0.1955065181
150299100.0 -0.9757245882 0.2014254771
155299070.0 -0.9750920122 0.2075267257
160299040.0 -0.9730076604 0.2145609842
165299010.0 -0.9717699911 0.221063631
170298980.0 -0.970037196 0.2276427061
175298950.0 -0.9666596989 0.2330803727
180298920.0 -0.9643972954 0.2392268154
185298890.0 -0.9641379055 0.2458691998
190298860.0 -0.9637771325 0.2537178002
195298830.0 -0.9615018548 0.2600459388
200298800.0 -0.9600482641 0.2666204974
205298770.0 -0.9586090814 0.2724610743
210298740.0 -0.9565707014 0.2790917222
215298710.0 -0.9545531989 0.2853672263
220298680.0 -0.9528545375 0.2913322141
225298650.0 -0.9505775409 0.2983637083
230298620.0 -0.9488387762 0.3041323303
235298590.0 -0.9466082636 0.3107568397
240298560.0 -0.944282101 0.3169510739
245298530.0 -0.9426541796 0.3227518923
250298500.0 -0.9401092718 0.3299115121
255298470.0 -0.9377396009 0.3355844698
260298440.0 -0.9357411995 0.3422656397
265298410.0 -0.9334448663 0.3476229765
270298380.0 -0.9311431077 0.3543972839
275298350.0 -0.9280434128 0.3603083994
280298320.0 -0.9257446004 0.3664234063
285298290.0 -0.9235031753 0.372585171
290298260.0 -0.9207773573 0.3788611315
295298230.0 -0.9184327677 0.3847624668
300298200.0 -0.9157255441 0.3910359936
305298170.0 -0.9128243294 0.3969679145
310298140.0 -0.910443322 0.4030302392
315298110.0 -0.9079529344 0.4094259743
320298080.0 -0.9055426581 0.4155124674
325298050.0 -0.9018801002 0.4214386155
330298020.0 -0.8999100239 0.4280034159
335297990.0 -0.8959143182 0.4330747529
340297960.0 -0.8930437118 0.4389439445
345297930.0 -0.8906912779 0.4452383573
350297900.0 -0.8875666727 0.4513035518
355297870.0 -0.8853163802 0.4567381675
360297840.0 -0.8826204608 0.4627826994
365297810.0 -0.8796679268 0.4689235367
370297780.0 -0.8755797686 0.4741253605
375297750.0 -0.872160846 0.480504857
380297720.0 -0.8683997008 0.4856404392
385297690.0 -0.8653386216 0.4919249735
390297660.0 -0.8624287865 0.4974525991
395297630.0 -0.8583201832 0.5036996355
400297600.0 -0.8550321551 0.5089964598
405297570.0 -0.8521079011 0.514676975
410297540.0 -0.8484749701 0.52017508
415297510.0 -0.8449847986 0.5259918045
420297480.0 -0.8415309411 0.5314424944
425297450.0 -0.8376148088 0.5371399604
430297420.0 -0.8341857742 0.5423125466
435297390.0 -0.8303133162 0.5482515775
440297360.0 -0.8268156993 0.5536041408
445297330.0 -0.8224640158 0.5592162633
450297300.0 -0.8195173905 0.5647410245
455297270.0 -0.8152162105 0.5703352105
460297240.0 -0.8112558081 0.5760963148
465297210.0 -0.8080317412 0.5809195196
470297180.0 -0.8032933583 0.5861064283
475297150.0 -0.7998319797 0.5911193514
480297120.0 -0.7965688582 0.5973986376
485297090.0 -0.7918871571 0.6021463833
490297060.0 -0.7878595524 0.6073646782
495297030.0 -0.7836324598 0.6124549966
500297000.0 -0.7796630339 0.6173001885
505296970.0 -0.7759566672 0.6229039835
510296940.0 -0.7728677665 0.6280635861
515296910.0 -0.7679649534 0.6331352973
520296880.0 -0.7638571558 0.6386863079
525296850.0 -0.7598181202 0.6431113485
530296820.0 -0.7555911845 0.6488637087
535296790.0 -0.7506933752 0.6545714633
540296760.0 -0.7459081947 0.6592989977
545296730.0 -0.7418296719 0.6636837616
550296700.0 -0.7371005855 0.668298669
555296670.0 -0.7330057369 0.673243788
560296640.0 -0.7277352342 0.6778063016
565296610.0 -0.7234923324 0.6826220363
570296580.0 -0.7183149834 0.6875698798
575296550.0 -0.7142264965 0.6922694534
580296520.0 -0.7090096779 0.6970516635
585296490.0 -0.7046548802 0.7023342648
590296460.0 -0.7000702913 0.7060602943
595296430.0 -0.6948906153 0.7105327073
600296400.0 -0.6902134321 0.7158376294
605296370.0 -0.6856430245 0.7196325012
610296340.0 -0.6809931424 0.7243552654
615296310.0 -0.6758828172 0.7298938988
620296280.0 -0.6712859343 0.7333806209
625296250.0 -0.6664954195 0.7368403644
630296220.0 -0.6608818064 0.7416550304
635296190.0 -0.6564522556 0.7460976562
640296160.0 -0.6516924821 0.7504020892
645296130.0 -0.6464097181 0.7544423049
650296100.0 -0.6413954093 0.7591307603
655296070.0 -0.6365034413 0.7635344116
660296040.0 -0.6301945423 0.7671769662
665296010.0 -0.626109262 0.7713969462
670295980.0 -0.6205706935 0.7760745797
675295950.0 -0.6153089991 0.7796508434
680295920.0 -0.6103443723 0.7840291276
685295890.0 -0.605029786 0.7880676979
690295860.0 -0.5999833402 0.7922688459
695295830.0 -0.5948938572 0.7958594714
700295800.0 -0.5892576441 0.7998282034
705295770.0 -0.5842429311 0.803217184
710295740.0 -0.5788875998 0.8077280748
715295710.0 -0.5729826825 0.8120663387
720295680.0 -0.5675748149 0.8153345756
725295650.0 -0.5625217242 0.8192601791
730295620.0 -0.5568900721 0.8225263979
735295590.0 -0.5515685103 0.8263030459
740295560.0 -0.5463398428 0.8299715803
745295530.0 -0.5407355188 0.833623407
750295500.0 -0.534974492 0.8372900297
755295470.0 -0.5300793573 0.8408239579
760295440.0 -0.5235883667 0.844361861
765295410.0 -0.5179392441 0.847658234
770295380.0 -0.5122482333 0.8510587536
775295350.0 -0.5066945336 0.8543842456
780295320.0 -0.5007329477 0.8574765423
785295290.0 -0.4949905041 0.8609659975
790295260.0 -0.4895158491 0.8640354382
795295230.0 -0.4833431163 0.8672063523
800295200.0 -0.4774915385 0.8709982174
805295170.0 -0.4718970414 0.8733091728
810295140.0 -0.4655973487 0.8765753798
815295110.0 -0.4602328212 0.8793720164
820295080.0 -0.454643883 0.8829782792
825295050.0 -0.4482736941 0.886023562
830295020.0 -0.4424621536 0.8885636414
835294990.0 -0.4368590692 0.8914001547
840294960.0 -0.4306092523 0.8943290721
845294930.0 -0.4242886422 0.896996362
850294900.0 -0.4189191733 0.8997329183
855294870.0 -0.4127700281 0.9029583929
860294840.0 -0.406704732 0.905541452
865294810.0 -0.4008799788 0.908212225
870294780.0 -0.3946075791 0.9105512151
875294750.0 -0.3883950739 0.9134227828
880294720.0 -0.3827640441 0.9155040564
885294690.0 -0.3764061983 0.9180657032
890294660.0 -0.3698761802 0.9205339238
895294630.0 -0.3641756157 0.9230818842
900294600.0 -0.3579822157 0.9252470458
905294570.0 -0.3517951582 0.9274490611
910294540.0 -0.3460524557 0.9295018881
915294510.0 -0.3400109436 0.9320680632
920294480.0 -0.3330786704 0.9337698682
925294450.0 -0.3270165118 0.9361337898
930294420.0 -0.3209650757 0.9379252442
935294390.0 -0.3148719901 0.9401290758
940294360.0 -0.3081493663 0.9414201811
945294330.0 -0.3022513771 0.9440321046
950294300.0 -0.2957629432 0.9460377927
955294270.0 -0.2897845297 0.9480985287
960294240.0 -0.2832002624 0.9496780575
965294210.0 -0.2769501591 0.95196265
970294180.0 -0.2704044752 0.9536192621
975294150.0 -0.2641278682 0.9553840218
980294120.0 -0.2577635345 0.9573302729
985294090.0 -0.2519215936 0.9586941419
990294060.0 -0.2454321873 0.9602219131
995294030.0 -0.2387163208 0.9628222248
1000294000.0 -0.2326674951 0.9634454507
1005293970.0 -0.2251981394 0.9653222717
1010293940.0 -0.2193597143 0.9665464176
1015293910.0 -0.2133620364 0.9679427612
1020293880.0 -0.2069884678 0.9693853601
1025293850.0 -0.2009143176 0.9706058352
1030293820.0 -0.1939916608 0.9718228563
1035293790.0 -0.1877892164 0.9730509143
1040293760.0 -0.1812618574 0.9746643975
1045293730.0 -0.1748716085 0.9759001418
1050293700.0 -0.1678273863 0.9765077941
1055293670.0 -0.1612893002 0.9773731188
1060293640.0 -0.1551205305 0.9781942244
1065293610.0 -0.1491478464 0.980031189
1070293580.0 -0.1422783309 0.9804303783
1075293550.0 -0.1360283574 0.9817217239
1080293520.0 -0.1294253525 0.981832011
1085293490.0 -0.1222767814 0.9831388684
1090293460.0 -0.1159123765 0.9832130184
1095293430.0 -0.1093255952 0.9847716676
1100293400.0 -0.1025242791 0.9858221888
1105293370.0 -0.0958381097 0.9858208796
1110293340.0 -0.0894322853 0.98645461
1115293310.0 -0.0827443377 0.9870024239
1120293280.0 -0.0766505064 0.987705539
1125293250.0 -0.0701229146 0.9874006227
1130293220.0 -0.0639103687 0.9881374001
1135293190.0 -0.0576657291 0.9889024334
1140293160.0 -0.0508246005 0.9889913053
1145293130.0 -0.0443661781 0.9892821537
1150293100.0 -0.0369827868 0.989777598
1155293070.0 -0.0305294092 0.9901205291
1160293040.0 -0.0239668183 0.9903723852
1165293010.0 -0.0177990782 0.9904076761
1170292980.0 -0.011401321 0.9906912257
1175292950.0 -0.0046232044 0.9904942853
1180292920.0 0.0019334403 0.9902538374
1185292890.0 0.007974348 0.9904601991
1190292860.0 0.0147552024 0.990246628
1195292830.0 0.0213912064 0.9899580822
1200292800.0 0.028125783 0.9897530831
1205292770.0 0.0344822479 0.9896400543
1210292740.0 0.0405857445 0.98913328
1215292710.0 0.0478206492 0.9884017298
1220292680.0 0.0540014132 0.9883315997
1225292650.0 0.0612306623 0.9881998361
1230292620.0 0.067753656 0.9874646802
1235292590.0 0.0744142796 0.9871729001
1240292560.0 0.0808217626 0.9864717023
1245292530.0 0.0871241937 0.9865251545
1250292500.0 0.0935231114 0.9858241081
1255292470.0 0.1004927735 0.984722591
1260292440.0 0.1071572216 0.9838012044
1265292410.0 0.1133805074 0.9836586185
1270292380.0 0.1196106358 0.9830641104
1275292350.0 0.1263694097 0.9817780997
1280292320.0 0.1330759785 0.9812422318
1285292290.0 0.1394284168 0.9797378806
1290292260.0 0.1459189173 0.9790116035
1295292230.0 0.1518598819 0.9782328855
1300292200.0 0.1584322254 0.976623933
1305292170.0 0.1650385746 0.9755094544
1310292140.0 0.1716484901 0.9748689604
1315292110.0 0.1783347809 0.9738014154
1320292080.0 0.1842287333 0.9727836006
1325292050.0 0.1912407809 0.9712551857
1330292020.0 0.1977620577 0.9696693693
1335291990.0 0.2045624111 0.9688380019
1340291960.0 0.2110660787 0.9670675356
1345291930.0 0.2172264631 0.9658481797
1350291900.0 0.2237673479 0.9641020485
1355291870.0 0.2296411237 0.9625798994
1360291840.0 0.2360156356 0.9615175801
1365291810.0 0.2424757972 0.95984479
1370291780.0 0.2489423497 0.9578034878
1375291750.0 0.2552869882 0.9564698231
1380291720.0 0.2618502231 0.9547070588
1385291690.0 0.2678276375 0.9532155707
1390291660.0 0.2742883527 0.9505812598
1395291630.0 0.2807430759 0.9492044403
1400291600.0 0.2870720149 0.9470408212
1405291570.0 0.293208725 0.945033133
1410291540.0 0.2996877536 0.9434211906
1415291510.0 0.3060525024 0.9417464036
1420291480.0 0.3120101479 0.9395765605
1425291450.0 0.3179676066 0.9373464881
1430291420.0 0.3240566655 0.9351035823
1435291390.0 0.33063923 0.9333542309
1440291360.0 0.3366835257 0.9312292386
1445291330.0 0.3428263694 0.9290439426
1450291300.0 0.3488564235 0.9262929843
1455291270.0 0.3544444865 0.9236062864
1460291240.0 0.3603917268 0.9213822666
1465291210.0 0.3671726039 0.9191485412
1470291180.0 0.3731481727 0.9166828846
1475291150.0 0.3790454957 0.9135725911
1480291120.0 0.3854323988 0.9113098457
1485291090.0 0.3909928666 0.9086439284
1490291060.0 0.39777665 0.9064051048
1495291030.0 0.4032973766 0.9038718348
1500291000.0 0.4097086451 0.9012923717
1505290970.0 0.4157655998 0.8985106083
1510290940.0 0.4208904048 0.8959618913
1515290910.0 0.4273536272 0.8927889023
1520290880.0 0.4331450056 0.8899562228
1525290850.0 0.4388773682 0.8874618136
1530290820.0 0.4445944342 0.8841598351
1535290790.0 0.4512106525 0.8808797523
1540290760.0 0.4570657681 0.8780096976
1545290730.0 0.4630393636 0.8749729023
1550290700.0 0.4689035177 0.872271514
1555290670.0 0.4744164977 0.8687995555
1560290640.0 0.4800066664 0.8656752323
1565290610.0 0.4859988211 0.8625432066
1570290580.0 0.4913654289 0.8594622937
1575290550.0 0.4974269805 0.8556874412
1580290520.0 0.5030060419 0.852756069
1585290490.0 0.5085506212 0.8493808828
1590290460.0 0.5143998994 0.8458342613
1595290430.0 0.5204897278 0.8431472335
1600290400.0 0.5256487433 0.8386931373
1605290370.0 0.5308441702 0.8357896361
1610290340.0 0.5368528741 0.8322675043
1615290310.0 0.54225792 0.8288046028
1620290280.0 0.5473520816 0.8248916716
1625290250.0 0.5529631131 0.8213961993
1630290220.0 0.5581026378 0.8173855726
1635290190.0 0.5633944744 0.8141169582
1640290160.0 0.5685632164 0.8099430374
1645290130.0 0.5740489628 0.8066740895
1650290100.0 0.5797507324 0.8027918589
1655290070.0 0.5849909812 0.7986425252
1660290040.0 0.590718929 0.7950558335
1665290010.0 0.5954328249 0.7906699582
1670289980.0 0.6020272176 0.7870577261
1675289950.0 0.6056359091 0.7829183943
1680289920.0 0.611414139 0.7786529347
1685289890.0 0.6163163987 0.7743250548
1690289860.0 0.6219087186 0.7696057262
1695289830.0 0.6276055008 0.7664907095
1700289800.0 0.6321313927 0.7621549785
1705289770.0 0.6370699866 0.7579026318
1710289740.0 0.6419888746 0.7538075922
1715289710.0 0.6469779799 0.7493519703
1720289680.0 0.6518661509 0.7449867203
1725289650.0 0.6576089702 0.7408218921
1730289620.0 0.6621563489 0.7364175851
1735289590.0 0.6672750364 0.7327463825
1740289560.0 0.6714241649 0.7282612463
1745289530.0 0.6758082767 0.7233527355
1750289500.0 0.681414983 0.7188688952
1755289470.0 0.686570492 0.7148928102
1760289440.0 0.6910290972 0.7101097902
1765289410.0 0.6954242678 0.7053417477
1770289380.0 0.6997655648 0.7011190362
1775289350.0 0.7044137862 0.696572612
1780289320.0 0.7094074553 0.691626382
1785289290.0 0.713746872 0.6867593349
1790289260.0 0.7187536342 0.6822649276
1795289230.0 0.7234347374 0.6768492196
1800289200.0 0.7279025878 0.6719508069
1805289170.0 0.7324857901 0.6669960333
1810289140.0 0.7363428287 0.6626670324
1815289110.0 0.7410216413 0.6577100973
1820289080.0 0.7451599228 0.6534635707
1825289050.0 0.7492081161 0.6485667578
1830289020.0 0.7537234304 0.6433877367
1835288990.0 0.7572521902 0.6385982651
1840288960.0 0.7615473733 0.633839809
1845288930.0 0.7658411795 0.6285226534
1850288900.0 0.7706175116 0.6235686004
1855288870.0 0.7743960635 0.6186605576
1860288840.0 0.7782815407 0.612422146
1865288810.0 0.782231424 0.6074797908
1870288780.0 0.7869540605 0.601856427
1875288750.0 0.7909015071 0.5973170171
1880288720.0 0.7952536872 0.5917371207
1885288690.0 0.7989280132 0.5866276025
1890288660.0 0.8029101344 0.5806808843
1895288630.0 0.8064528706 0.5758230808
1900288600.0 0.810386659 0.5704458551
1905288570.0 0.8140833359 0.5644963689
1910288540.0 0.81834962 0.559444292
1915288510.0 0.8214214605 0.5536475337
1920288480.0 0.8256460507 0.5484081112
1925288450.0 0.8289894941 0.542933654
1930288420.0 0.8327316226 0.5373150928
1935288390.0 0.8366418133 0.5317213598
1940288360.0 0.8397289569 0.5261471829
1945288330.0 0.8436670948 0.5209641805
1950288300.0 0.8472868802 0.5146929072
1955288270.0 0.8507001018 0.5087799742
1960288240.0 0.8538915914 0.5030984339
1965288210.0 0.8570785366 0.4974924316
1970288180.0 0.8606798014 0.4913593152
1975288150.0 0.8638755892 0.4864462414
1980288120.0 0.867223882 0.4810298465
1985288090.0 0.8702253841 0.4755078732
1990288060.0 0.873262592 0.4697247739
1995288030.0 0.8761726681 0.4638733478
2000288000.0 0.8791486332 0.4586890392
2005287970.0 0.8817562992 0.4530291948
2010287940.0 0.8846244131 0.4472165247
2015287910.0 0.8877270029 0.4408876897
2020287880.0 0.8906616564 0.435379937
2025287850.0 0.8935858449 0.4288046003
2030287820.0 0.8966628072 0.4229411393
2035287790.0 0.899780582 0.4170415246
2040287760.0 0.90192766 0.4111535305
2045287730.0 0.9050056527 0.4052451401
2050287700.0 0.9076926519 0.3990515308
2055287670.0 0.9104601924 0.3930921566
2060287640.0 0.9131619906 0.3874918463
2065287610.0 0.9152339699 0.3809034844
2070287580.0 0.9180797346 0.3756970455
2075287550.0 0.9202102202 0.3689715357
2080287520.0 0.923042193 0.3633837076
2085287490.0 0.9252220117 0.3570427093
2090287460.0 0.9275433814 0.3505650011
2095287430.0 0.9301693975 0.3443001291
2100287400.0 0.9323831061 0.338196372
2105287370.0 0.9346556367 0.3322235509
2110287340.0 0.936518115 0.3256450134
2115287310.0 0.938336755 0.3198923591
2120287280.0 0.9409095209 0.3129556304
2125287250.0 0.9433896708 0.3071787726
2130287220.0 0.9451406143 0.3008651326
2135287190.0 0.9474683726 0.2944029323
2140287160.0 0.9488771595 0.2881016998
2145287130.0 0.9510876558 0.2814955428
2150287100.0 0.953035271 0.2755139276
2155287070.0 0.9545392889 0.269358879
2160287040.0 0.956368105 0.2631979996
2165287010.0 0.9583577041 0.256812777
2170286980.0 0.9600120352 0.2506396722
2175286950.0 0.9612777034 0.2446106735
2180286920.0 0.9628874217 0.2386954252
2185286890.0 0.9649365442 0.2322469292
2190286860.0 0.9657687572 0.2260945916
2195286830.0 0.96763879 0.2199796128
2200286800.0 0.9692463539 0.2140812426
2205286770.0 0.9701369392 0.2066002351
2210286740.0 0.9713954451 0.2005252027
2215286710.0 0.9729428847 0.1942060476
2220286680.0 0.9744640731 0.1879693103
2225286650.0 0.9758778072 0.1810831948
2230286620.0 0.977035326 0.1744531399
2235286590.0 0.9776743504 0.1683301741
2240286560.0 0.9790721738 0.1613142392
2245286530.0 0.9798521687 0.1551411908
2250286500.0 0.9810804258 0.1482435872
2255286470.0 0.9824420162 0.1419196743
2260286440.0 0.9828309108 0.1355444506
2265286410.0 0.9834529297 0.1286604827
2270286380.0 0.9843110601 0.1221267447
2275286350.0 0.9851957661 0.1157123216
2280286320.0 0.9866287223 0.1092063727
2285286290.0 0.9866441529 0.1024527173
2290286260.0 0.9877866655 0.0959828703
2295286230.0 0.9886085213 0.0896761773
2300286200.0 0.9887903919 0.0829691879
2305286170.0 0.9896703488 0.0769728239
2310286140.0 0.989979052 0.0698371171
2315286110.0 0.9896105159 0.0631250469
2320286080.0 0.990788413 0.0563318573
2325286050.0 0.9906110011 0.0500509248
2330286020.0 0.9908659535 0.043412647
2335285990.0 0.9919493267 0.0371735561
2340285960.0 0.9912642388 0.0305016095
2345285930.0 0.9917683737 0.0242336206
2350285900.0 0.9924040648 0.0177394308
2355285870.0 0.9924417174 0.0105898867
2360285840.0 0.9922387851 0.0040174
2365285810.0 0.9926140421 -0.0027690755
2370285780.0 0.9925686223 -0.00891965
2375285750.0 0.992701811 -0.0153229652
2380285720.0 0.9919816992 -0.0219795104
2385285690.0 0.992517845 -0.0283966631
2390285660.0 0.9920526647 -0.0348296478
2395285630.0 0.9912660753 -0.0414028423
2400285600.0 0.9908474034 -0.0473438507
2405285570.0 0.990672091 -0.0542938658
2410285540.0 0.9901838526 -0.0605933294
2415285510.0 0.9902791854 -0.0663211563
2420285480.0 0.9894668427 -0.0733798423
2425285450.0 0.9892251642 -0.0796350871
2430285420.0 0.9883977673 -0.0861941156
2435285390.0 0.9877120871 -0.0930200908
2440285360.0 0.9870174994 -0.0997295824
2445285330.0 0.9868389022 -0.1054800104
2450285300.0 0.9859919011 -0.1127934164
2455285270.0 0.9848764383 -0.1191324483
2460285240.0 0.9839210995 -0.126220721
2465285210.0 0.9834334356 -0.1320855337
2470285180.0 0.9819161337 -0.1391575087
2475285150.0 0.9810891507 -0.145415433
2480285120.0 0.980287366 -0.1515117223
2485285090.0 0.9789433595 -0.158891217
2490285060.0 0.9783409888 -0.1655066813
2495285030.0 0.9768863039 -0.1712065628
2500285000.0 0.9758988912 -0.1784411558
2505284970.0 0.9746401024 -0.1850335294
2510284940.0 0.973685857 -0.1909233096
2515284910.0 0.9723163201 -0.1975070106
2520284880.0 0.9702750414 -0.2041368405
2525284850.0 0.9691622567 -0.2105284968
2530284820.0 0.9682544272 -0.2165983431
2535284790.0 0.966936027 -0.2226171392
2540284760.0 0.9648616343 -0.2289446408
2545284730.0 0.9639374513 -0.2352343585
2550284700.0 0.9624839207 -0.2416612808
2555284670.0 0.9605454248 -0.2486032339
