!Created with skrf (http://scikit-rf.org).
# Hz S RI R 50.0 
!freq ReS11 ImS11
45000000.0 -0.08127212524414062 -0.09347915649414062
49995500.0 -0.1020050048828125 -0.08964157104492188
54991000.0 -0.12273406982421875 -0.08136367797851562
59986500.0 -0.14130401611328125 -0.0795745849609375
64982000.0 -0.16009521484375 -0.07025909423828125
69977500.0 -0.1788330078125 -0.05572509765625
74973000.0 -0.1964263916015625 -0.03821563720703125
79968500.0 -0.21199798583984375 -0.01721954345703125
84964000.0 -0.22563934326171875 0.006866455078125
89959500.0 -0.236480712890625 0.03369903564453125
94955000.0 -0.2433929443359375 0.0633697509765625
99950500.0 -0.24672698974609375 0.09569549560546875
104946000.0 -0.24558258056640625 0.12953948974609375
109941500.0 -0.23925018310546875 0.1641693115234375
114937000.0 -0.22812652587890625 0.19989013671875
119932500.0 -0.21111297607421875 0.23443603515625
124928000.0 -0.18975830078125 0.2684783935546875
129923500.0 -0.16253662109375 0.2998046875
134919000.0 -0.13031005859375 0.328643798828125
139914500.0 -0.093017578125 0.354095458984375
144910000.0 -0.05181884765625 0.37481689453125
149905500.0 -0.0068511962890625 0.390594482421875
154901000.0 0.0408172607421875 0.400482177734375
159896500.0 0.0904541015625 0.404083251953125
164892000.0 0.1412200927734375 0.4017181396484375
169887500.0 0.19232177734375 0.3929595947265625
174883000.0 0.2432403564453125 0.377532958984375
179878500.0 0.2928924560546875 0.355438232421875
184874000.0 0.34014892578125 0.3268280029296875
189869500.0 0.3849334716796875 0.2919158935546875
194865000.0 0.4261627197265625 0.2516632080078125
199860500.0 0.4628143310546875 0.2058868408203125
204856000.0 0.4944610595703125 0.1547393798828125
209851500.0 0.52044677734375 0.099151611328125
214847000.0 0.54052734375 0.039794921875
219842500.0 0.55377197265625 -0.02313232421875
224838000.0 0.559600830078125 -0.088470458984375
229833500.0 0.557952880859375 -0.155792236328125
234829000.0 0.5478515625 -0.223724365234375
239824500.0 0.529388427734375 -0.29144287109375
244820000.0 0.5020751953125 -0.3582763671875
249815500.0 0.46612548828125 -0.42230224609375
254811000.0 0.446136474609375 -0.4699249267578125
259806500.0 0.39703369140625 -0.5284423828125
264802000.0 0.340301513671875 -0.581329345703125
269797500.0 0.275604248046875 -0.6280517578125
274793000.0 0.20501708984375 -0.666778564453125
279788500.0 0.129058837890625 -0.697174072265625
284784000.0 0.048736572265625 -0.71795654296875
289779500.0 -0.034332275390625 -0.7293701171875
294775000.0 -0.119293212890625 -0.730926513671875
299770500.0 -0.20477294921875 -0.721771240234375
304766000.0 -0.289093017578125 -0.702911376953125
309761500.0 -0.371307373046875 -0.67413330078125
314757000.0 -0.450286865234375 -0.63531494140625
319752500.0 -0.52471923828125 -0.587371826171875
324748000.0 -0.594268798828125 -0.531463623046875
329743500.0 -0.657989501953125 -0.46710205078125
334739000.0 -0.714813232421875 -0.3953857421875
339734500.0 -0.764251708984375 -0.316925048828125
344730000.0 -0.805084228515625 -0.232757568359375
349725500.0 -0.837127685546875 -0.143310546875
354721000.0 -0.859527587890625 -0.049285888671875
359716500.0 -0.87176513671875 0.048065185546875
364712000.0 -0.8726806640625 0.1483154296875
369707500.0 -0.862396240234375 0.25018310546875
374703000.0 -0.8399658203125 0.35223388671875
379698500.0 -0.8046875 0.452880859375
384694000.0 -0.75701904296875 0.550994873046875
389689500.0 -0.696563720703125 0.643768310546875
394685000.0 -0.623687744140625 0.730010986328125
399680500.0 -0.539794921875 0.808319091796875
404676000.0 -0.44537353515625 0.8763427734375
409671500.0 -0.342071533203125 0.933990478515625
414667000.0 -0.231658935546875 0.97552490234375
419662500.0 -0.11572265625 1.00421142578125
424658000.0 0.00372314453125 1.018310546875
429653500.0 0.12518310546875 1.01678466796875
434649000.0 0.245758056640625 0.998779296875
439644500.0 0.360992431640625 0.966217041015625
444640000.0 0.470489501953125 0.92218017578125
449635500.0 0.57403564453125 0.86651611328125
454631000.0 0.671539306640625 0.80047607421875
459626500.0 0.761444091796875 0.7235107421875
464622000.0 0.8416748046875 0.63671875
469617500.0 0.91180419921875 0.5416259765625
474613000.0 0.971710205078125 0.44024658203125
479608500.0 1.0208740234375 0.33294677734375
484604000.0 1.05938720703125 0.220947265625
489599500.0 1.086181640625 0.1043701171875
494595000.0 1.1016845703125 -0.0152587890625
499590500.0 1.10455322265625 -0.137939453125
504586000.0 1.094970703125 -0.261962890625
509581500.0 1.07183837890625 -0.3868408203125
514577000.0 1.0341796875 -0.51080322265625
519572500.0 0.98187255859375 -0.632720947265625
524568000.0 0.913818359375 -0.750823974609375
529563500.0 0.830474853515625 -0.862762451171875
534559000.0 0.73150634765625 -0.964599609375
539554500.0 0.61865234375 -1.05511474609375
544550000.0 0.49334716796875 -1.130859375
549545500.0 0.3585205078125 -1.1905517578125
554541000.0 0.2154541015625 -1.23248291015625
559536500.0 0.06884765625 -1.25665283203125
564532000.0 -0.08050537109375 -1.2623291015625
569527500.0 -0.2298583984375 -1.24951171875
574523000.0 -0.3763427734375 -1.2171630859375
579518500.0 -0.5169677734375 -1.16802978515625
584514000.0 -0.65032958984375 -1.101806640625
589509500.0 -0.7738037109375 -1.02069091796875
594505000.0 -0.88604736328125 -0.926483154296875
599500500.0 -0.985626220703125 -0.820404052734375
604496000.0 -1.0718994140625 -0.7049560546875
609491500.0 -1.1448974609375 -0.58233642578125
614487000.0 -1.20391845703125 -0.45361328125
619482500.0 -1.24896240234375 -0.32073974609375
624478000.0 -1.28057861328125 -0.18414306640625
629473500.0 -1.29864501953125 -0.04534912109375
634469000.0 -1.3028564453125 0.09442138671875
639464500.0 -1.2935791015625 0.235107421875
644460000.0 -1.27056884765625 0.37548828125
649455500.0 -1.23321533203125 0.5147705078125
654451000.0 -1.1815185546875 0.65252685546875
659446500.0 -1.11529541015625 0.78704833984375
664442000.0 -1.033447265625 0.91656494140625
669437500.0 -0.935546875 1.0401611328125
674433000.0 -0.82135009765625 1.15484619140625
679428500.0 -0.69085693359375 1.2576904296875
684424000.0 -0.545654296875 1.34661865234375
689419500.0 -0.386474609375 1.41827392578125
694415000.0 -0.215576171875 1.46929931640625
699410500.0 -0.03668212890625 1.4979248046875
704406000.0 0.147705078125 1.5025634765625
709401500.0 0.33197021484375 1.48187255859375
714397000.0 0.5128173828125 1.4356689453125
719392500.0 0.68597412109375 1.36474609375
724388000.0 0.84722900390625 1.27227783203125
729383500.0 0.99371337890625 1.15985107421875
734379000.0 1.121826171875 1.0291748046875
739374500.0 1.23089599609375 0.88629150390625
744370000.0 1.3201904296875 0.73406982421875
749365500.0 1.38848876953125 0.57391357421875
754361000.0 1.438232421875 0.41168212890625
759356500.0 1.468505859375 0.2470703125
764352000.0 1.4810791015625 0.0833740234375
769347500.0 1.47650146484375 -0.0784912109375
774343000.0 1.45599365234375 -0.23687744140625
779338500.0 1.4205322265625 -0.39105224609375
784334000.0 1.37115478515625 -0.54010009765625
789329500.0 1.30841064453125 -0.6842041015625
794325000.0 1.232177734375 -0.8214111328125
799320500.0 1.142578125 -0.95184326171875
804316000.0 1.0401611328125 -1.0743408203125
809311500.0 0.9246826171875 -1.1876220703125
814307000.0 0.796875 -1.29058837890625
819302500.0 0.65655517578125 -1.38153076171875
824298000.0 0.50384521484375 -1.45819091796875
829293500.0 0.3414306640625 -1.51947021484375
834289000.0 0.16796875 -1.5614013671875
839284500.0 -0.01141357421875 -1.583740234375
844280000.0 -0.129150390625 -1.61334228515625
849275500.0 -0.31854248046875 -1.59930419921875
854271000.0 -0.5067138671875 -1.56036376953125
859266500.0 -0.6904296875 -1.4969482421875
864262000.0 -0.8648681640625 -1.409423828125
869257500.0 -1.0267333984375 -1.30035400390625
874253000.0 -1.17254638671875 -1.17095947265625
879248500.0 -1.30084228515625 -1.02581787109375
884244000.0 -1.4088134765625 -0.8671875
889239500.0 -1.4957275390625 -0.6983642578125
894235000.0 -1.5616455078125 -0.5224609375
899230500.0 -1.60693359375 -0.342041015625
904226000.0 -1.631103515625 -0.15960693359375
909221500.0 -1.6346435546875 0.0228271484375
914217000.0 -1.61846923828125 0.20367431640625
919212500.0 -1.58270263671875 0.37890625
924208000.0 -1.52886962890625 0.54730224609375
929203500.0 -1.45965576171875 0.70770263671875
934199000.0 -1.376220703125 0.85888671875
939194500.0 -1.27825927734375 1.00189208984375
944190000.0 -1.16778564453125 1.1343994140625
949185500.0 -1.04486083984375 1.25665283203125
954181000.0 -0.9097900390625 1.367919921875
959176500.0 -0.76263427734375 1.4664306640625
964172000.0 -0.60345458984375 1.5511474609375
969167500.0 -0.43359375 1.619873046875
974163000.0 -0.25384521484375 1.67156982421875
979158500.0 -0.06524658203125 1.703857421875
984154000.0 0.12939453125 1.7147216796875
989149500.0 0.328125 1.70208740234375
994145000.0 0.52703857421875 1.6641845703125
999140500.0 0.7227783203125 1.60089111328125
1004136000.0 0.9111328125 1.51220703125
1009131500.0 1.0885009765625 1.39862060546875
1014127000.0 1.25042724609375 1.26220703125
1019122500.0 1.3931884765625 1.10565185546875
1024118000.0 1.5147705078125 0.93170166015625
1029113500.0 1.61163330078125 0.74493408203125
1034109000.0 1.68328857421875 0.5487060546875
1039104500.0 1.72918701171875 0.347900390625
1044100000.0 1.75054931640625 0.1446533203125
1049095500.0 1.7469482421875 -0.05584716796875
1054091000.0 1.720947265625 -0.2515869140625
1059086500.0 1.67413330078125 -0.44049072265625
1064082000.0 1.60784912109375 -0.62030029296875
1069077500.0 1.5244140625 -0.79010009765625
1074073000.0 1.42547607421875 -0.948486328125
1079068500.0 1.311767578125 -1.094482421875
1084064000.0 1.18475341796875 -1.2281494140625
1089059500.0 1.04632568359375 -1.34893798828125
1094055000.0 0.89581298828125 -1.45562744140625
1099050500.0 0.73516845703125 -1.54620361328125
1104046000.0 0.56500244140625 -1.62164306640625
1109041500.0 0.38665771484375 -1.6800537109375
1114037000.0 0.20111083984375 -1.7200927734375
1119032500.0 0.009521484375 -1.74053955078125
1124028000.0 -0.18560791015625 -1.73956298828125
1129023500.0 -0.3822021484375 -1.71649169921875
1134019000.0 -0.57867431640625 -1.67047119140625
1139014500.0 -0.77020263671875 -1.60052490234375
1144010000.0 -0.95440673828125 -1.50689697265625
1149005500.0 -1.12823486328125 -1.39007568359375
1154001000.0 -1.28680419921875 -1.2508544921875
1158996500.0 -1.42706298828125 -1.09234619140625
1163992000.0 -1.5469970703125 -0.916259765625
1168987500.0 -1.64312744140625 -0.7261962890625
1173983000.0 -1.714111328125 -0.5257568359375
1178978500.0 -1.75848388671875 -0.3192138671875
1183974000.0 -1.7764892578125 -0.11041259765625
1188969500.0 -1.7684326171875 0.09698486328125
1193965000.0 -1.73590087890625 0.29901123046875
1198960500.0 -1.6793212890625 0.49267578125
1203956000.0 -1.6025390625 0.67584228515625
1208951500.0 -1.5062255859375 0.84619140625
1213947000.0 -1.39337158203125 1.00225830078125
1218942500.0 -1.2659912109375 1.14306640625
1223938000.0 -1.12591552734375 1.2669677734375
1228933500.0 -0.97576904296875 1.375244140625
1233929000.0 -0.8173828125 1.4658203125
1238924500.0 -0.6519775390625 1.5389404296875
1243920000.0 -0.481689453125 1.5946044921875
1248915500.0 -0.308349609375 1.63287353515625
1253911000.0 -0.13165283203125 1.65338134765625
1258906500.0 0.04522705078125 1.6568603515625
1263902000.0 0.2225341796875 1.64312744140625
1268897500.0 0.39825439453125 1.61083984375
1273893000.0 0.5682373046875 1.5601806640625
1278888500.0 0.734130859375 1.4920654296875
1283884000.0 0.89288330078125 1.4066162109375
1288879500.0 1.043212890625 1.30401611328125
1293875000.0 1.18231201171875 1.184814453125
1298870500.0 1.30908203125 1.0501708984375
1303866000.0 1.42010498046875 0.90130615234375
1308861500.0 1.5146484375 0.73992919921875
1313857000.0 1.59051513671875 0.56787109375
1318852500.0 1.6474609375 0.38702392578125
1323848000.0 1.6832275390625 0.200439453125
1328843500.0 1.6978759765625 0.01031494140625
1333839000.0 1.69061279296875 -0.181396484375
1338834500.0 1.6612548828125 -0.37103271484375
1343830000.0 1.61029052734375 -0.55645751953125
1348825500.0 1.5382080078125 -0.7354736328125
1353821000.0 1.44635009765625 -0.906494140625
1358816500.0 1.334716796875 -1.064453125
1363812000.0 1.20526123046875 -1.21038818359375
1368807500.0 1.05987548828125 -1.339599609375
1373803000.0 0.89996337890625 -1.45050048828125
1378798500.0 0.72802734375 -1.54241943359375
1383794000.0 0.5469970703125 -1.6131591796875
1388789500.0 0.35888671875 -1.6617431640625
1393785000.0 0.1671142578125 -1.687744140625
1398780500.0 -0.02569580078125 -1.6917724609375
1403776000.0 -0.21636962890625 -1.67230224609375
1408771500.0 -0.40234375 -1.6317138671875
1413767000.0 -0.580322265625 -1.5694580078125
1418762500.0 -0.74932861328125 -1.4886474609375
1423758000.0 -0.906005859375 -1.3902587890625
1428753500.0 -1.0494384765625 -1.27593994140625
1433749000.0 -1.177734375 -1.1483154296875
1438744500.0 -1.29119873046875 -1.00921630859375
1443740000.0 -1.38726806640625 -0.86004638671875
1448735500.0 -1.468505859375 -0.70294189453125
1453731000.0 -1.53155517578125 -0.5399169921875
1458726500.0 -1.57757568359375 -0.37213134765625
1463722000.0 -1.60687255859375 -0.2008056640625
1468717500.0 -1.61907958984375 -0.0277099609375
1473713000.0 -1.61376953125 0.14605712890625
1478708500.0 -1.59100341796875 0.3192138671875
1483704000.0 -1.5506591796875 0.48992919921875
1488699500.0 -1.4930419921875 0.65777587890625
1493695000.0 -1.417724609375 0.8199462890625
1498690500.0 -1.3238525390625 0.974853515625
1503686000.0 -1.2125244140625 1.1207275390625
1508681500.0 -1.08380126953125 1.25531005859375
1513677000.0 -0.938232421875 1.37548828125
1518672500.0 -0.77728271484375 1.47930908203125
1523668000.0 -0.60296630859375 1.56402587890625
1528663500.0 -0.4176025390625 1.62689208984375
1533659000.0 -0.2249755859375 1.66644287109375
1538654500.0 -0.02734375 1.680908203125
1543650000.0 0.170654296875 1.66998291015625
1548645500.0 0.3643798828125 1.63397216796875
1553641000.0 0.55078125 1.572998046875
1558636500.0 0.7264404296875 1.48974609375
1563632000.0 0.88800048828125 1.3863525390625
1568627500.0 1.0330810546875 1.26580810546875
1573623000.0 1.16021728515625 1.13134765625
1578618500.0 1.26910400390625 0.9857177734375
1583614000.0 1.35858154296875 0.83123779296875
1588609500.0 1.42913818359375 0.6715087890625
1593605000.0 1.4808349609375 0.50811767578125
1598600500.0 1.51470947265625 0.34368896484375
1603596000.0 1.53192138671875 0.17938232421875
1608591500.0 1.53314208984375 0.01654052734375
1613587000.0 1.51776123046875 -0.14349365234375
1618582500.0 1.488525390625 -0.29962158203125
1623578000.0 1.44512939453125 -0.45147705078125
1628573500.0 1.387939453125 -0.5987548828125
1633569000.0 1.31689453125 -0.7393798828125
1638564500.0 1.23248291015625 -0.8729248046875
1643560000.0 1.135009765625 -0.99896240234375
1648555500.0 1.0247802734375 -1.1163330078125
1653551000.0 0.90203857421875 -1.22265625
1658546500.0 0.7664794921875 -1.31719970703125
1663542000.0 0.62060546875 -1.3968505859375
1668537500.0 0.46441650390625 -1.46124267578125
1673533000.0 0.2999267578125 -1.50762939453125
1678528500.0 0.128662109375 -1.535400390625
1683524000.0 -0.04541015625 -1.54180908203125
1688519500.0 -0.2205810546875 -1.52703857421875
1693515000.0 -0.3924560546875 -1.489990234375
1698510500.0 -0.55938720703125 -1.43231201171875
1703506000.0 -0.71533203125 -1.3541259765625
1708501500.0 -0.8594970703125 -1.25958251953125
1713497000.0 -0.98974609375 -1.148681640625
1718492500.0 -1.104248046875 -1.02484130859375
1723488000.0 -1.2015380859375 -0.89105224609375
1728483500.0 -1.28240966796875 -0.75
1733479000.0 -1.3458251953125 -0.60382080078125
1738474500.0 -1.39251708984375 -0.4547119140625
1743470000.0 -1.4241943359375 -0.3043212890625
1748465500.0 -1.44085693359375 -0.1541748046875
1753461000.0 -1.4432373046875 -0.00469970703125
1758456500.0 -1.43182373046875 0.1422119140625
1763452000.0 -1.40777587890625 0.28662109375
1768447500.0 -1.37158203125 0.42816162109375
1773443000.0 -1.3226318359375 0.56658935546875
1778438500.0 -1.2607421875 0.700927734375
1783434000.0 -1.18707275390625 0.83050537109375
1788429500.0 -1.0999755859375 0.954345703125
1793425000.0 -0.9991455078125 1.07147216796875
1798420500.0 -0.8851318359375 1.1798095703125
1803416000.0 -0.75762939453125 1.27838134765625
1808411500.0 -0.6170654296875 1.36322021484375
1813407000.0 -0.46453857421875 1.4332275390625
1818402500.0 -0.3016357421875 1.48553466796875
1823398000.0 -0.13031005859375 1.517822265625
1828393500.0 0.0457763671875 1.52862548828125
1833389000.0 0.223876953125 1.5167236328125
1838384500.0 0.39910888671875 1.48089599609375
1843380000.0 0.568603515625 1.422607421875
1848375500.0 0.72784423828125 1.3428955078125
1853371000.0 0.8743896484375 1.24462890625
1858366500.0 1.00518798828125 1.12969970703125
1863362000.0 1.1190185546875 1.0018310546875
1868357500.0 1.21514892578125 0.86419677734375
1873353000.0 1.2916259765625 0.71978759765625
1878348500.0 1.3519287109375 0.571044921875
1883344000.0 1.39422607421875 0.42022705078125
1888339500.0 1.4210205078125 0.26910400390625
1893335000.0 1.4327392578125 0.11883544921875
1898330500.0 1.43017578125 -0.02874755859375
1903326000.0 1.41461181640625 -0.17425537109375
1908321500.0 1.38671875 -0.31634521484375
1913317000.0 1.34686279296875 -0.45526123046875
1918312500.0 1.2947998046875 -0.58966064453125
1923308000.0 1.23114013671875 -0.71978759765625
1928303500.0 1.15484619140625 -0.84503173828125
1933299000.0 1.06646728515625 -0.9638671875
1938294500.0 0.9654541015625 -1.07598876953125
1943290000.0 0.8525390625 -1.17938232421875
1948285500.0 0.7261962890625 -1.27227783203125
1953281000.0 0.5880126953125 -1.35345458984375
1958276500.0 0.43878173828125 -1.41943359375
1963272000.0 0.2796630859375 -1.46923828125
1968267500.0 0.11346435546875 -1.500244140625
1973263000.0 -0.058349609375 -1.51025390625
1978258500.0 -0.23077392578125 -1.49847412109375
1983254000.0 -0.402587890625 -1.46502685546875
1988249500.0 -0.569580078125 -1.4102783203125
1993245000.0 -0.72723388671875 -1.333984375
1998240500.0 -0.87359619140625 -1.2392578125
2003236000.0 -1.00555419921875 -1.12823486328125
2008231500.0 -1.1220703125 -1.003173828125
2013227000.0 -1.22119140625 -0.86724853515625
2018222500.0 -1.30322265625 -0.72259521484375
2023218000.0 -1.36688232421875 -0.5726318359375
2028213500.0 -1.41302490234375 -0.4193115234375
2033209000.0 -1.44293212890625 -0.263916015625
2038204500.0 -1.4569091796875 -0.108642578125
2043200000.0 -1.45513916015625 0.044921875
2048195500.0 -1.43841552734375 0.1973876953125
2053191000.0 -1.40777587890625 0.34649658203125
2058186500.0 -1.3624267578125 0.49114990234375
2063182000.0 -1.30401611328125 0.63067626953125
2068177500.0 -1.2320556640625 0.76519775390625
2073173000.0 -1.14697265625 0.89227294921875
2078168500.0 -1.04833984375 1.0106201171875
2083164000.0 -0.937744140625 1.12017822265625
2088159500.0 -0.81439208984375 1.21807861328125
2093155000.0 -0.680419921875 1.303466796875
2098150500.0 -0.5355224609375 1.37445068359375
2103146000.0 -0.3828125 1.42852783203125
2108141500.0 -0.22296142578125 1.4659423828125
2113137000.0 -0.05914306640625 1.484130859375
2118132500.0 0.1065673828125 1.48248291015625
2123128000.0 0.2706298828125 1.46142578125
2128123500.0 0.43109130859375 1.4205322265625
2133119000.0 0.5849609375 1.36224365234375
2138114500.0 0.7301025390625 1.28607177734375
2143110000.0 0.86407470703125 1.1951904296875
2148105500.0 0.9859619140625 1.0899658203125
2153101000.0 1.09356689453125 0.9732666015625
2158096500.0 1.18756103515625 0.84783935546875
2163092000.0 1.26611328125 0.714599609375
2168087500.0 1.33062744140625 0.57562255859375
2173083000.0 1.38043212890625 0.43243408203125
2178078500.0 1.41571044921875 0.28662109375
2183074000.0 1.4371337890625 0.13824462890625
2188069500.0 1.44451904296875 -0.01025390625
