!Created with skrf (http://scikit-rf.org).
# Hz S RI R 50.0 
!freq ReS11 ImS11
45000000.0 -0.08177566528320312 -0.092926025390625
49995500.0 -0.10242843627929688 -0.08890151977539062
54991000.0 -0.123046875 -0.08075332641601562
59986500.0 -0.1415252685546875 -0.0783538818359375
64982000.0 -0.16017913818359375 -0.06937408447265625
69977500.0 -0.1789398193359375 -0.0546417236328125
74973000.0 -0.1964263916015625 -0.03679656982421875
79968500.0 -0.21178436279296875 -0.01570892333984375
84964000.0 -0.2252197265625 0.00836944580078125
89959500.0 -0.2359161376953125 0.0354766845703125
94955000.0 -0.2426300048828125 0.065338134765625
99950500.0 -0.245635986328125 0.09766387939453125
104946000.0 -0.24391937255859375 0.13153839111328125
109941500.0 -0.23760223388671875 0.166046142578125
114937000.0 -0.2257232666015625 0.20145416259765625
119932500.0 -0.20874786376953125 0.236541748046875
124928000.0 -0.18646240234375 0.2698974609375
129923500.0 -0.159027099609375 0.301116943359375
134919000.0 -0.126373291015625 0.32965087890625
139914500.0 -0.0886077880859375 0.3545684814453125
144910000.0 -0.0469970703125 0.3748626708984375
149905500.0 -0.001953125 0.390167236328125
154901000.0 0.0460357666015625 0.3997039794921875
159896500.0 0.0955047607421875 0.4025115966796875
164892000.0 0.146392822265625 0.3994140625
169887500.0 0.197723388671875 0.3897857666015625
174883000.0 0.24859619140625 0.3733367919921875
179878500.0 0.2978363037109375 0.3505096435546875
184874000.0 0.3448333740234375 0.321075439453125
189869500.0 0.3889617919921875 0.28546142578125
194865000.0 0.4297637939453125 0.2444000244140625
199860500.0 0.465728759765625 0.1979217529296875
204856000.0 0.4964141845703125 0.1459808349609375
209851500.0 0.521453857421875 0.089996337890625
214847000.0 0.540618896484375 0.030059814453125
219842500.0 0.5526123046875 -0.033294677734375
224838000.0 0.5572509765625 -0.099090576171875
229833500.0 0.554168701171875 -0.16619873046875
234829000.0 0.542755126953125 -0.2340087890625
239824500.0 0.522735595703125 -0.301727294921875
244820000.0 0.494293212890625 -0.3682098388671875
249815500.0 0.4566497802734375 -0.4315032958984375
254811000.0 0.43560791015625 -0.4785614013671875
259806500.0 0.38519287109375 -0.53582763671875
264802000.0 0.326873779296875 -0.588104248046875
269797500.0 0.26104736328125 -0.632843017578125
274793000.0 0.18975830078125 -0.670166015625
279788500.0 0.112548828125 -0.6983642578125
284784000.0 0.031707763671875 -0.717529296875
289779500.0 -0.051544189453125 -0.7269287109375
294775000.0 -0.13702392578125 -0.726104736328125
299770500.0 -0.222015380859375 -0.715576171875
304766000.0 -0.3060302734375 -0.69415283203125
309761500.0 -0.387451171875 -0.663116455078125
314757000.0 -0.4656982421875 -0.62261962890625
319752500.0 -0.538909912109375 -0.572601318359375
324748000.0 -0.60687255859375 -0.5145263671875
329743500.0 -0.66888427734375 -0.44866943359375
334739000.0 -0.72418212890625 -0.375274658203125
339734500.0 -0.77130126953125 -0.29534912109375
344730000.0 -0.81005859375 -0.209686279296875
349725500.0 -0.83966064453125 -0.119171142578125
354721000.0 -0.8594970703125 -0.02471923828125
359716500.0 -0.868865966796875 0.07354736328125
364712000.0 -0.8670654296875 0.1737060546875
369707500.0 -0.8533935546875 0.275787353515625
374703000.0 -0.827606201171875 0.37750244140625
379698500.0 -0.789306640625 0.47735595703125
384694000.0 -0.7384033203125 0.573822021484375
389689500.0 -0.675048828125 0.665374755859375
394685000.0 -0.599090576171875 0.74957275390625
399680500.0 -0.51226806640625 0.82464599609375
404676000.0 -0.415191650390625 0.889495849609375
409671500.0 -0.309722900390625 0.9425048828125
414667000.0 -0.197845458984375 0.98162841796875
419662500.0 -0.0806884765625 1.00616455078125
424658000.0 0.03936767578125 1.01580810546875
429653500.0 0.16107177734375 1.00982666015625
434649000.0 0.28057861328125 0.9876708984375
439644500.0 0.394927978515625 0.951385498046875
444640000.0 0.5029296875 0.902801513671875
449635500.0 0.60455322265625 0.843353271484375
454631000.0 0.6995849609375 0.77410888671875
459626500.0 0.786773681640625 0.693878173828125
464622000.0 0.863555908203125 0.603851318359375
469617500.0 0.930633544921875 0.506500244140625
474613000.0 0.98687744140625 0.402557373046875
479608500.0 1.03216552734375 0.29339599609375
484604000.0 1.06671142578125 0.1793212890625
489599500.0 1.08917236328125 0.06158447265625
494595000.0 1.0999755859375 -0.05938720703125
499590500.0 1.098388671875 -0.182373046875
504586000.0 1.08367919921875 -0.30670166015625
509581500.0 1.0555419921875 -0.43109130859375
514577000.0 1.01214599609375 -0.55450439453125
519572500.0 0.9541015625 -0.67486572265625
524568000.0 0.880584716796875 -0.79071044921875
529563500.0 0.791351318359375 -0.899139404296875
534559000.0 0.687347412109375 -0.9970703125
539554500.0 0.56939697265625 -1.08245849609375
544550000.0 0.4404296875 -1.15252685546875
549545500.0 0.30169677734375 -1.20538330078125
554541000.0 0.1573486328125 -1.24029541015625
559536500.0 0.00872802734375 -1.25714111328125
564532000.0 -0.14105224609375 -1.25531005859375
569527500.0 -0.28948974609375 -1.23455810546875
574523000.0 -0.4339599609375 -1.1959228515625
579518500.0 -0.57232666015625 -1.13909912109375
584514000.0 -0.70208740234375 -1.06658935546875
589509500.0 -0.82135009765625 -0.9796142578125
594505000.0 -0.92840576171875 -0.87982177734375
599500500.0 -1.02252197265625 -0.76922607421875
604496000.0 -1.10333251953125 -0.64996337890625
609491500.0 -1.1702880859375 -0.52386474609375
614487000.0 -1.22296142578125 -0.392578125
619482500.0 -1.26177978515625 -0.2574462890625
624478000.0 -1.28680419921875 -0.11932373046875
629473500.0 -1.29803466796875 0.02032470703125
634469000.0 -1.29583740234375 0.16058349609375
639464500.0 -1.27960205078125 0.30120849609375
644460000.0 -1.2498779296875 0.44134521484375
649455500.0 -1.20538330078125 0.5794677734375
654451000.0 -1.146240234375 0.71539306640625
659446500.0 -1.0723876953125 0.84716796875
664442000.0 -0.983123779296875 0.973602294921875
669437500.0 -0.87738037109375 1.09222412109375
674433000.0 -0.75592041015625 1.201171875
679428500.0 -0.6185302734375 1.2974853515625
684424000.0 -0.46697998046875 1.3780517578125
689419500.0 -0.30224609375 1.44000244140625
694415000.0 -0.1273193359375 1.48126220703125
699410500.0 0.0543212890625 1.49835205078125
704406000.0 0.23919677734375 1.4908447265625
709401500.0 0.42266845703125 1.45745849609375
714397000.0 0.60076904296875 1.39923095703125
719392500.0 0.76910400390625 1.31683349609375
724388000.0 0.92352294921875 1.21380615234375
729383500.0 1.06195068359375 1.09130859375
734379000.0 1.18096923828125 0.9534912109375
739374500.0 1.28045654296875 0.804931640625
744370000.0 1.35821533203125 0.64617919921875
749365500.0 1.4163818359375 0.48406982421875
754361000.0 1.45599365234375 0.31939697265625
759356500.0 1.47589111328125 0.15399169921875
764352000.0 1.47833251953125 -0.009521484375
769347500.0 1.46417236328125 -0.17010498046875
774343000.0 1.43463134765625 -0.32696533203125
779338500.0 1.389404296875 -0.47869873046875
784334000.0 1.3321533203125 -0.62469482421875
789329500.0 1.26055908203125 -0.7645263671875
794325000.0 1.176025390625 -0.89794921875
799320500.0 1.078369140625 -1.0228271484375
804316000.0 0.96795654296875 -1.1395263671875
809311500.0 0.844970703125 -1.24615478515625
814307000.0 0.71014404296875 -1.3416748046875
819302500.0 0.56280517578125 -1.42431640625
824298000.0 0.40350341796875 -1.49053955078125
829293500.0 0.23590087890625 -1.54156494140625
834289000.0 0.058349609375 -1.57122802734375
839284500.0 -0.1241455078125 -1.5811767578125
844280000.0 -0.244140625 -1.60089111328125
849275500.0 -0.4334716796875 -1.5721435546875
854271000.0 -0.61883544921875 -1.51861572265625
859266500.0 -0.79815673828125 -1.4410400390625
864262000.0 -0.96527099609375 -1.33978271484375
869257500.0 -1.11883544921875 -1.21795654296875
874253000.0 -1.25445556640625 -1.07763671875
879248500.0 -1.370361328125 -0.9228515625
884244000.0 -1.465576171875 -0.75616455078125
889239500.0 -1.538818359375 -0.5814208984375
894235000.0 -1.59075927734375 -0.40118408203125
899230500.0 -1.6217041015625 -0.21917724609375
904226000.0 -1.63165283203125 -0.0362548828125
909221500.0 -1.62200927734375 0.14569091796875
914217000.0 -1.5919189453125 0.32342529296875
919212500.0 -1.54376220703125 0.494873046875
924208000.0 -1.47833251953125 0.65838623046875
929203500.0 -1.3980712890625 0.81280517578125
934199000.0 -1.3035888671875 0.95770263671875
939194500.0 -1.1956787109375 1.09320068359375
944190000.0 -1.07623291015625 1.2177734375
949185500.0 -0.944580078125 1.3316650390625
954181000.0 -0.80029296875 1.43328857421875
959176500.0 -0.64532470703125 1.52056884765625
964172000.0 -0.47918701171875 1.59405517578125
969167500.0 -0.3028564453125 1.650146484375
974163000.0 -0.11798095703125 1.6881103515625
979158500.0 0.07415771484375 1.70465087890625
984154000.0 0.2708740234375 1.69927978515625
989149500.0 0.4696044921875 1.66937255859375
994145000.0 0.66546630859375 1.6138916015625
999140500.0 0.85711669921875 1.53326416015625
1004136000.0 1.03778076171875 1.42718505859375
1009131500.0 1.20416259765625 1.29742431640625
1014127000.0 1.35369873046875 1.1461181640625
1019122500.0 1.4815673828125 0.9766845703125
1024118000.0 1.5858154296875 0.79254150390625
1029113500.0 1.6649169921875 0.59747314453125
1034109000.0 1.71832275390625 0.39666748046875
1039104500.0 1.74566650390625 0.19281005859375
1044100000.0 1.7486572265625 -0.01031494140625
1049095500.0 1.7275390625 -0.2091064453125
1054091000.0 1.684326171875 -0.40081787109375
1059086500.0 1.62152099609375 -0.5836181640625
1064082000.0 1.54071044921875 -0.75634765625
1069077500.0 1.443359375 -0.917236328125
1074073000.0 1.3314208984375 -1.0665283203125
1079068500.0 1.205810546875 -1.202392578125
1084064000.0 1.06842041015625 -1.3248291015625
1089059500.0 0.9195556640625 -1.43359375
1094055000.0 0.76043701171875 -1.52685546875
1099050500.0 0.5916748046875 -1.60443115234375
1104046000.0 0.4146728515625 -1.665283203125
1109041500.0 0.23114013671875 -1.7073974609375
1114037000.0 0.0413818359375 -1.73126220703125
1119032500.0 -0.15362548828125 -1.73358154296875
1124028000.0 -0.34930419921875 -1.71441650390625
1129023500.0 -0.5450439453125 -1.672607421875
1134019000.0 -0.7371826171875 -1.60687255859375
1139014500.0 -0.92193603515625 -1.51751708984375
1144010000.0 -1.0972900390625 -1.40496826171875
1149005500.0 -1.25897216796875 -1.26983642578125
1154001000.0 -1.40301513671875 -1.11468505859375
1158996500.0 -1.526611328125 -0.9415283203125
1163992000.0 -1.6265869140625 -0.75347900390625
1168987500.0 -1.70263671875 -0.5540771484375
1173983000.0 -1.75146484375 -0.34735107421875
1178978500.0 -1.774169921875 -0.13775634765625
1183974000.0 -1.77008056640625 0.0712890625
1188969500.0 -1.74017333984375 0.27532958984375
1193965000.0 -1.68670654296875 0.471435546875
1198960500.0 -1.61138916015625 0.6572265625
1203956000.0 -1.5164794921875 0.83013916015625
1208951500.0 -1.40386962890625 0.98895263671875
1213947000.0 -1.2767333984375 1.1314697265625
1218942500.0 -1.13641357421875 1.25811767578125
1223938000.0 -0.9862060546875 1.367919921875
1228933500.0 -0.82757568359375 1.45916748046875
1233929000.0 -0.6614990234375 1.5330810546875
1238924500.0 -0.49072265625 1.5897216796875
1243920000.0 -0.315185546875 1.6279296875
1248915500.0 -0.13970947265625 1.64990234375
1253911000.0 0.0377197265625 1.65264892578125
1258906500.0 0.21490478515625 1.63885498046875
1263902000.0 0.3916015625 1.60797119140625
1268897500.0 0.56134033203125 1.55743408203125
1273893000.0 0.72698974609375 1.49005126953125
1278888500.0 0.885498046875 1.4049072265625
1283884000.0 1.03558349609375 1.30291748046875
1288879500.0 1.17559814453125 1.18438720703125
1293875000.0 1.3021240234375 1.05029296875
1298870500.0 1.41357421875 0.902099609375
1303866000.0 1.50872802734375 0.7412109375
1308861500.0 1.58502197265625 0.56982421875
1313857000.0 1.64263916015625 0.3890380859375
1318852500.0 1.67938232421875 0.20233154296875
1323848000.0 1.69451904296875 0.01141357421875
1328843500.0 1.6871337890625 -0.1798095703125
1333839000.0 1.65826416015625 -0.3697509765625
1338834500.0 1.60699462890625 -0.55615234375
1343830000.0 1.53533935546875 -0.7354736328125
1348825500.0 1.4429931640625 -0.9061279296875
1353821000.0 1.33111572265625 -1.0645751953125
1358816500.0 1.2015380859375 -1.21002197265625
1363812000.0 1.05523681640625 -1.33941650390625
1368807500.0 0.89544677734375 -1.45166015625
1373803000.0 0.72283935546875 -1.54254150390625
1378798500.0 0.54119873046875 -1.6134033203125
1383794000.0 0.3526611328125 -1.6622314453125
1388789500.0 0.1605224609375 -1.68792724609375
1393785000.0 -0.03289794921875 -1.6912841796875
1398780500.0 -0.22454833984375 -1.67181396484375
1403776000.0 -0.4114990234375 -1.6300048828125
1408771500.0 -0.59033203125 -1.56707763671875
1413767000.0 -0.76031494140625 -1.4852294921875
1418762500.0 -0.9173583984375 -1.3851318359375
1423758000.0 -1.0614013671875 -1.26885986328125
1428753500.0 -1.19000244140625 -1.13934326171875
1433749000.0 -1.30255126953125 -0.9979248046875
1438744500.0 -1.39892578125 -0.846435546875
1443740000.0 -1.47802734375 -0.687255859375
1448735500.0 -1.539794921875 -0.52227783203125
1453731000.0 -1.5836181640625 -0.352783203125
1458726500.0 -1.610595703125 -0.1798095703125
1463722000.0 -1.61968994140625 -0.00543212890625
1468717500.0 -1.6121826171875 0.1690673828125
1473713000.0 -1.586181640625 0.34197998046875
1478708500.0 -1.54302978515625 0.512451171875
1483704000.0 -1.48223876953125 0.679443359375
1488699500.0 -1.403564453125 0.84033203125
1493695000.0 -1.30706787109375 0.9945068359375
1498690500.0 -1.1934814453125 1.13812255859375
1503686000.0 -1.06256103515625 1.27069091796875
1508681500.0 -0.91534423828125 1.389404296875
1513677000.0 -0.75286865234375 1.4908447265625
1518672500.0 -0.57745361328125 1.57269287109375
1523668000.0 -0.39093017578125 1.63397216796875
1528663500.0 -0.197265625 1.67083740234375
1533659000.0 0.0013427734375 1.68255615234375
1538654500.0 0.20025634765625 1.6693115234375
1543650000.0 0.39434814453125 1.6297607421875
1548645500.0 0.58123779296875 1.56622314453125
1553641000.0 0.7574462890625 1.4791259765625
1558636500.0 0.91888427734375 1.3724365234375
1563632000.0 1.063720703125 1.24786376953125
1568627500.0 1.18988037109375 1.10894775390625
1573623000.0 1.296875 0.959228515625
1578618500.0 1.38330078125 0.801025390625
1583614000.0 1.45086669921875 0.63726806640625
1588609500.0 1.49847412109375 0.47088623046875
1593605000.0 1.52825927734375 0.30364990234375
1598600500.0 1.54058837890625 0.1373291015625
1603596000.0 1.53607177734375 -0.0269775390625
1608591500.0 1.5157470703125 -0.187255859375
1613587000.0 1.481201171875 -0.343994140625
1618582500.0 1.43218994140625 -0.49462890625
1623578000.0 1.36956787109375 -0.64031982421875
1628573500.0 1.29364013671875 -0.7789306640625
1633569000.0 1.2041015625 -0.90972900390625
1638564500.0 1.10272216796875 -1.032958984375
1643560000.0 0.9886474609375 -1.14599609375
1648555500.0 0.86260986328125 -1.248291015625
1653551000.0 0.72479248046875 -1.33740234375
1658546500.0 0.57647705078125 -1.41314697265625
1663542000.0 0.41888427734375 -1.47222900390625
1668537500.0 0.2532958984375 -1.51416015625
1673533000.0 0.08233642578125 -1.53656005859375
1678528500.0 -0.0914306640625 -1.53802490234375
1683524000.0 -0.26678466796875 -1.51885986328125
1688519500.0 -0.43829345703125 -1.4776611328125
1693515000.0 -0.60382080078125 -1.41510009765625
1698510500.0 -0.7591552734375 -1.33294677734375
1703506000.0 -0.9007568359375 -1.233642578125
1708501500.0 -1.029052734375 -1.11834716796875
1713497000.0 -1.14093017578125 -0.990478515625
1718492500.0 -1.23516845703125 -0.8525390625
1723488000.0 -1.3123779296875 -0.70721435546875
1728483500.0 -1.371337890625 -0.55731201171875
1733479000.0 -1.41339111328125 -0.4049072265625
1738474500.0 -1.43939208984375 -0.2518310546875
1743470000.0 -1.4500732421875 -0.09967041015625
1748465500.0 -1.4466552734375 0.0506591796875
1753461000.0 -1.4293212890625 0.19879150390625
1758456500.0 -1.39874267578125 0.3433837890625
1763452000.0 -1.3560791015625 0.48419189453125
1768447500.0 -1.301025390625 0.62066650390625
1773443000.0 -1.2335205078125 0.7528076171875
1778438500.0 -1.1533203125 0.8798828125
1783434000.0 -1.0609130859375 1.0
1788429500.0 -0.955322265625 1.1129150390625
1793425000.0 -0.83660888671875 1.21649169921875
1798420500.0 -0.70526123046875 1.308837890625
1803416000.0 -0.56121826171875 1.38934326171875
1808411500.0 -0.40576171875 1.4530029296875
1813407000.0 -0.24017333984375 1.49969482421875
1818402500.0 -0.06793212890625 1.52557373046875
1823398000.0 0.10931396484375 1.52960205078125
1828393500.0 0.287841796875 1.510986328125
1833389000.0 0.46240234375 1.46844482421875
1838384500.0 0.63189697265625 1.40325927734375
1843380000.0 0.78924560546875 1.31707763671875
1848375500.0 0.93365478515625 1.21142578125
1853371000.0 1.061767578125 1.09002685546875
1858366500.0 1.17108154296875 0.955810546875
1863362000.0 1.2623291015625 0.81195068359375
1868357500.0 1.3338623046875 0.66162109375
1873353000.0 1.3873291015625 0.5081787109375
1878348500.0 1.4228515625 0.35302734375
1883344000.0 1.4427490234375 0.19781494140625
1888339500.0 1.4464111328125 0.04595947265625
1893335000.0 1.435791015625 -0.10406494140625
1898330500.0 1.41168212890625 -0.24957275390625
1903326000.0 1.375244140625 -0.3916015625
1908321500.0 1.32720947265625 -0.52899169921875
1913317000.0 1.2669677734375 -0.661376953125
1918312500.0 1.1956787109375 -0.788818359375
1923308000.0 1.112060546875 -0.91064453125
1928303500.0 1.0166015625 -1.02490234375
1933299000.0 0.90875244140625 -1.13226318359375
1938294500.0 0.7889404296875 -1.23004150390625
1943290000.0 0.65777587890625 -1.316650390625
1948285500.0 0.514404296875 -1.39056396484375
1953281000.0 0.36077880859375 -1.44891357421875
1958276500.0 0.19830322265625 -1.49041748046875
1963272000.0 0.029052734375 -1.5120849609375
1968267500.0 -0.1444091796875 -1.51312255859375
1973263000.0 -0.3184814453125 -1.492919921875
1978258500.0 -0.490234375 -1.449462890625
1983254000.0 -0.655517578125 -1.3841552734375
1988249500.0 -0.8106689453125 -1.29827880859375
1993245000.0 -0.9532470703125 -1.193359375
1998240500.0 -1.08074951171875 -1.07257080078125
2003236000.0 -1.1907958984375 -0.93896484375
2008231500.0 -1.28271484375 -0.794921875
2013227000.0 -1.35589599609375 -0.64361572265625
2018222500.0 -1.41058349609375 -0.48699951171875
2023218000.0 -1.44744873046875 -0.32830810546875
2028213500.0 -1.46661376953125 -0.16937255859375
2033209000.0 -1.46942138671875 -0.0120849609375
2038204500.0 -1.45672607421875 0.143798828125
2043200000.0 -1.42926025390625 0.295654296875
2048195500.0 -1.38702392578125 0.44287109375
2053191000.0 -1.33154296875 0.58526611328125
2058186500.0 -1.262451171875 0.72174072265625
2063182000.0 -1.1802978515625 0.8507080078125
2068177500.0 -1.0853271484375 0.97210693359375
2073173000.0 -0.97869873046875 1.08355712890625
2078168500.0 -0.859619140625 1.1851806640625
2083164000.0 -0.72955322265625 1.274658203125
2088159500.0 -0.58929443359375 1.35003662109375
2093155000.0 -0.43939208984375 1.4111328125
2098150500.0 -0.2830810546875 1.45452880859375
2103146000.0 -0.1209716796875 1.4803466796875
2108141500.0 0.04449462890625 1.4876708984375
2113137000.0 0.21002197265625 1.47454833984375
2118132500.0 0.3731689453125 1.4420166015625
2123128000.0 0.53167724609375 1.39044189453125
2128123500.0 0.68170166015625 1.32073974609375
2133119000.0 0.82147216796875 1.23486328125
2138114500.0 0.9498291015625 1.13372802734375
2143110000.0 1.06463623046875 1.01953125
2148105500.0 1.16497802734375 0.8951416015625
2153101000.0 1.24981689453125 0.76190185546875
2158096500.0 1.319580078125 0.62249755859375
2163092000.0 1.3736572265625 0.4781494140625
2168087500.0 1.4132080078125 0.33062744140625
2173083000.0 1.43768310546875 0.18121337890625
2178078500.0 1.44769287109375 0.03125
2183074000.0 1.4434814453125 -0.11895751953125
