!Created with skrf (http://scikit-rf.org).
# Hz S RI R 50.0 
!freq ReS11 ImS11
45000000.0 -0.0038186311721801758 -0.0007916688919067383
49995500.0 -0.004159212112426758 -0.00028061866760253906
54991000.0 -0.004354715347290039 0.00026226043701171875
59986500.0 -0.004606962203979492 0.0006208419799804688
64982000.0 -0.004705190658569336 0.0010838508605957031
69977500.0 -0.004746437072753906 0.0016741752624511719
74973000.0 -0.0046541690826416016 0.0022454261779785156
79968500.0 -0.0045926570892333984 0.002910137176513672
84964000.0 -0.004277467727661133 0.0034584999084472656
89959500.0 -0.00412297248840332 0.0041124820709228516
94955000.0 -0.003786325454711914 0.004697084426879883
99950500.0 -0.003148794174194336 0.005176067352294922
104946000.0 -0.002619504928588867 0.005603790283203125
109941500.0 -0.001837015151977539 0.006061553955078125
114937000.0 -0.0012426376342773438 0.0062940120697021484
119932500.0 -0.0005502700805664062 0.006539821624755859
124928000.0 0.00016117095947265625 0.006595134735107422
129923500.0 0.0010232925415039062 0.006588935852050781
134919000.0 0.001756429672241211 0.0065135955810546875
139914500.0 0.0025484561920166016 0.006455183029174805
144910000.0 0.003314495086669922 0.006136655807495117
149905500.0 0.003981351852416992 0.00580286979675293
154901000.0 0.00467681884765625 0.005400896072387695
159896500.0 0.005269765853881836 0.004852294921875
164892000.0 0.005903959274291992 0.004246711730957031
169887500.0 0.0063664913177490234 0.003675699234008789
174883000.0 0.0067288875579833984 0.0029664039611816406
179878500.0 0.007112741470336914 0.0022361278533935547
184874000.0 0.007318735122680664 0.0013949871063232422
189869500.0 0.0075113773345947266 0.00067901611328125
194865000.0 0.0076291561126708984 -0.00019025802612304688
199860500.0 0.00759124755859375 -0.0010149478912353516
204856000.0 0.0075113773345947266 -0.0018489360809326172
209851500.0 0.007311344146728516 -0.002694368362426758
214847000.0 0.0069882869720458984 -0.0034766197204589844
219842500.0 0.006672859191894531 -0.004202365875244141
224838000.0 0.006141185760498047 -0.004863739013671875
229833500.0 0.005675554275512695 -0.005541086196899414
234829000.0 0.005096912384033203 -0.006217002868652344
239824500.0 0.004413127899169922 -0.0067501068115234375
244820000.0 0.003668546676635742 -0.007234334945678711
249815500.0 0.0029206275939941406 -0.007615804672241211
254811000.0 0.0025229454040527344 -0.00782918930053711
259806500.0 0.0017294883728027344 -0.008176803588867188
264802000.0 0.0008893013000488281 -0.008406639099121094
269797500.0 -2.288818359375e-05 -0.008372306823730469
274793000.0 -0.000873565673828125 -0.008469581604003906
279788500.0 -0.0016808509826660156 -0.008289813995361328
284784000.0 -0.0026044845581054688 -0.008175373077392578
289779500.0 -0.0035271644592285156 -0.008025169372558594
294775000.0 -0.004117250442504883 -0.007585048675537109
299770500.0 -0.00502324104309082 -0.007273435592651367
304766000.0 -0.005758762359619141 -0.006759166717529297
309761500.0 -0.0063898563385009766 -0.006153583526611328
314757000.0 -0.00696253776550293 -0.00547337532043457
319752500.0 -0.007524251937866211 -0.0046634674072265625
324748000.0 -0.00802469253540039 -0.003989696502685547
329743500.0 -0.008489608764648438 -0.0031938552856445312
334739000.0 -0.008881568908691406 -0.0024471282958984375
339734500.0 -0.009175777435302734 -0.0014853477478027344
344730000.0 -0.009239673614501953 -0.0005502700805664062
349725500.0 -0.009224414825439453 0.0005173683166503906
354721000.0 -0.009147167205810547 0.0013470649719238281
359716500.0 -0.009061336517333984 0.0022678375244140625
364712000.0 -0.008894920349121094 0.0032029151916503906
369707500.0 -0.008578300476074219 0.004132270812988281
374703000.0 -0.008145809173583984 0.004970550537109375
379698500.0 -0.0076711177825927734 0.005828857421875
384694000.0 -0.0070667266845703125 0.0065844058990478516
389689500.0 -0.006357431411743164 0.0074160099029541016
394685000.0 -0.005583286285400391 0.007888317108154297
399680500.0 -0.004712581634521484 0.008510112762451172
404676000.0 -0.004014492034912109 0.009083271026611328
409671500.0 -0.00313568115234375 0.009441375732421875
414667000.0 -0.0020904541015625 0.009861946105957031
419662500.0 -0.0011348724365234375 0.01002645492553711
424658000.0 -0.00018262863159179688 0.010085582733154297
429653500.0 0.0008792877197265625 0.010143756866455078
434649000.0 0.0019121170043945312 0.010033607482910156
439644500.0 0.0029273033142089844 0.009914398193359375
444640000.0 0.003944873809814453 0.009441375732421875
449635500.0 0.004956245422363281 0.00923776626586914
454631000.0 0.005809783935546875 0.008687973022460938
459626500.0 0.006742000579833984 0.008202552795410156
464622000.0 0.00757598876953125 0.007523298263549805
469617500.0 0.008358955383300781 0.006732940673828125
474613000.0 0.00891733169555664 0.0058765411376953125
479608500.0 0.009657859802246094 0.004863262176513672
484604000.0 0.01013326644897461 0.0039615631103515625
489599500.0 0.010434627532958984 0.002978801727294922
494595000.0 0.010891437530517578 0.0017876625061035156
499590500.0 0.011011600494384766 0.0008440017700195312
504586000.0 0.011100292205810547 -0.0002989768981933594
509581500.0 0.011142253875732422 -0.0013952255249023438
514577000.0 0.010925769805908203 -0.002602100372314453
519572500.0 0.010585784912109375 -0.0036163330078125
524568000.0 0.010337352752685547 -0.004731655120849609
529563500.0 0.009959697723388672 -0.005721092224121094
534559000.0 0.009358882904052734 -0.006672382354736328
539554500.0 0.008728504180908203 -0.007497310638427734
544550000.0 0.007894515991210938 -0.008517265319824219
549545500.0 0.007140636444091797 -0.00929403305053711
554541000.0 0.006218910217285156 -0.009983062744140625
559536500.0 0.0053234100341796875 -0.010571956634521484
564532000.0 0.004245281219482422 -0.01118612289428711
569527500.0 0.003200531005859375 -0.011653423309326172
574523000.0 0.002097606658935547 -0.01203775405883789
579518500.0 0.0009546279907226562 -0.012192726135253906
584514000.0 -0.00036144256591796875 -0.0124053955078125
589509500.0 -0.0016226768493652344 -0.012378692626953125
594505000.0 -0.0027523040771484375 -0.012319087982177734
599500500.0 -0.004108905792236328 -0.012039661407470703
604496000.0 -0.005385398864746094 -0.011640071868896484
609491500.0 -0.006548404693603516 -0.011172294616699219
614487000.0 -0.007672786712646484 -0.010549068450927734
619482500.0 -0.00873565673828125 -0.009828567504882812
624478000.0 -0.009801864624023438 -0.008977413177490234
629473500.0 -0.010736465454101562 -0.008027076721191406
634469000.0 -0.0115509033203125 -0.0069427490234375
639464500.0 -0.012176036834716797 -0.005851268768310547
644460000.0 -0.01289987564086914 -0.004587650299072266
649455500.0 -0.013391971588134766 -0.003304004669189453
654451000.0 -0.01382303237915039 -0.0019268989562988281
659446500.0 -0.013926982879638672 -0.000621795654296875
664442000.0 -0.01401519775390625 0.0008754730224609375
669437500.0 -0.014110565185546875 0.002192974090576172
674433000.0 -0.013794898986816406 0.003632068634033203
679428500.0 -0.01349639892578125 0.005019187927246094
684424000.0 -0.013082027435302734 0.0064239501953125
689419500.0 -0.012442588806152344 0.007771492004394531
694415000.0 -0.011678695678710938 0.009053230285644531
699410500.0 -0.01079702377319336 0.010264396667480469
704406000.0 -0.00970315933227539 0.011302471160888672
709401500.0 -0.008593559265136719 0.012366771697998047
714397000.0 -0.0074176788330078125 0.013233184814453125
719392500.0 -0.0060138702392578125 0.013870716094970703
724388000.0 -0.004721641540527344 0.014690876007080078
729383500.0 -0.0032553672790527344 0.015125751495361328
734379000.0 -0.0016927719116210938 0.015514850616455078
739374500.0 -0.00021266937255859375 0.01571178436279297
744370000.0 0.0013837814331054688 0.01569652557373047
749365500.0 0.002955913543701172 0.015609264373779297
754361000.0 0.004563331604003906 0.015421390533447266
759356500.0 0.006079673767089844 0.014966964721679688
764352000.0 0.007649421691894531 0.014377117156982422
769347500.0 0.009091854095458984 0.013658523559570312
774343000.0 0.01044607162475586 0.012740135192871094
779338500.0 0.01176309585571289 0.011711597442626953
784334000.0 0.01307535171508789 0.010509490966796875
789329500.0 0.014097213745117188 0.009279727935791016
794325000.0 0.014995098114013672 0.007823467254638672
799320500.0 0.015712738037109375 0.006381988525390625
804316000.0 0.0164794921875 0.004756927490234375
809311500.0 0.016979217529296875 0.00315093994140625
814307000.0 0.017322540283203125 0.0014810562133789062
819302500.0 0.01751708984375 -0.00030517578125
824298000.0 0.01746368408203125 -0.0020580291748046875
829293500.0 0.01732921600341797 -0.0037288665771484375
834289000.0 0.016976356506347656 -0.005419731140136719
839284500.0 0.016366004943847656 -0.007213592529296875
844280000.0 0.016330718994140625 -0.008142471313476562
849275500.0 0.015439510345458984 -0.009760379791259766
854271000.0 0.014425277709960938 -0.01131439208984375
859266500.0 0.013467788696289062 -0.012804031372070312
864262000.0 0.012135028839111328 -0.01406097412109375
869257500.0 0.010825157165527344 -0.015439033508300781
874253000.0 0.009356498718261719 -0.016411781311035156
879248500.0 0.007775306701660156 -0.017406463623046875
884244000.0 0.006047248840332031 -0.01825237274169922
889239500.0 0.00423431396484375 -0.018833160400390625
894235000.0 0.0024900436401367188 -0.019258499145507812
899230500.0 0.000530242919921875 -0.01955699920654297
904226000.0 -0.0014133453369140625 -0.019662857055664062
909221500.0 -0.0033121109008789062 -0.019655227661132812
914217000.0 -0.00527191162109375 -0.019341468811035156
919212500.0 -0.0072193145751953125 -0.01886749267578125
924208000.0 -0.009165763854980469 -0.01817035675048828
929203500.0 -0.010996818542480469 -0.017473220825195312
934199000.0 -0.012785911560058594 -0.0163116455078125
939194500.0 -0.014500617980957031 -0.014934062957763672
944190000.0 -0.016020774841308594 -0.013641357421875
949185500.0 -0.017439842224121094 -0.012060165405273438
954181000.0 -0.018514633178710938 -0.010274887084960938
959176500.0 -0.019683837890625 -0.008500099182128906
964172000.0 -0.020603179931640625 -0.006505012512207031
969167500.0 -0.021277427673339844 -0.004488945007324219
974163000.0 -0.02171039581298828 -0.0023927688598632812
979158500.0 -0.02213764190673828 -6.4849853515625e-05
984154000.0 -0.022078514099121094 0.0021448135375976562
989149500.0 -0.021956443786621094 0.004261970520019531
994145000.0 -0.02143096923828125 0.006558418273925781
999140500.0 -0.02084827423095703 0.008666038513183594
1004136000.0 -0.01998138427734375 0.010759353637695312
1009131500.0 -0.018935203552246094 0.012862205505371094
1014127000.0 -0.01768016815185547 0.014657020568847656
1019122500.0 -0.01623058319091797 0.01641082763671875
1024118000.0 -0.014576911926269531 0.018152236938476562
1029113500.0 -0.012815475463867188 0.01964569091796875
1034109000.0 -0.010724067687988281 0.020867347717285156
1039104500.0 -0.0086669921875 0.02191638946533203
1044100000.0 -0.006604194641113281 0.022879600524902344
1049095500.0 -0.004128456115722656 0.023555755615234375
1054091000.0 -0.0017366409301757812 0.024024009704589844
1059086500.0 0.0006246566772460938 0.02411174774169922
1064082000.0 0.003055572509765625 0.024042129516601562
1069077500.0 0.005612373352050781 0.02384662628173828
1074073000.0 0.007922172546386719 0.023240089416503906
1079068500.0 0.010321617126464844 0.02242279052734375
1084064000.0 0.012529373168945312 0.02140331268310547
1089059500.0 0.014626502990722656 0.020262718200683594
1094055000.0 0.01678943634033203 0.01858997344970703
1099050500.0 0.018707275390625 0.01692485809326172
1104046000.0 0.020287513732910156 0.015076637268066406
1109041500.0 0.02186870574951172 0.013068199157714844
1114037000.0 0.023140907287597656 0.010739326477050781
1119032500.0 0.02421855926513672 0.008462905883789062
1124028000.0 0.025043487548828125 0.006104469299316406
1129023500.0 0.025506973266601562 0.00353240966796875
1134019000.0 0.025954246520996094 0.0009222030639648438
1139014500.0 0.026010513305664062 -0.0016832351684570312
1144010000.0 0.025923728942871094 -0.004370689392089844
1149005500.0 0.02540874481201172 -0.0069293975830078125
1154001000.0 0.02477264404296875 -0.00946044921875
1158996500.0 0.023787498474121094 -0.012078285217285156
1163992000.0 0.022414207458496094 -0.014369964599609375
1168987500.0 0.021004676818847656 -0.016721725463867188
1173983000.0 0.01922321319580078 -0.018761634826660156
1178978500.0 0.017477035522460938 -0.02059173583984375
1183974000.0 0.015256881713867188 -0.022292137145996094
1188969500.0 0.013054847717285156 -0.0238800048828125
1193965000.0 0.010542869567871094 -0.025076866149902344
1198960500.0 0.007992744445800781 -0.02609729766845703
1203956000.0 0.005245208740234375 -0.02686595916748047
1208951500.0 0.002765655517578125 -0.027441978454589844
1213947000.0 -0.00015163421630859375 -0.027434349060058594
1218942500.0 -0.0028924942016601562 -0.027496337890625
1223938000.0 -0.00566864013671875 -0.02718639373779297
1228933500.0 -0.008343696594238281 -0.02661418914794922
1233929000.0 -0.0108795166015625 -0.025728225708007812
1238924500.0 -0.013430595397949219 -0.024583816528320312
1243920000.0 -0.015786170959472656 -0.023141860961914062
1248915500.0 -0.018182754516601562 -0.021533966064453125
1253911000.0 -0.020215988159179688 -0.01973724365234375
1258906500.0 -0.022100448608398438 -0.01768016815185547
1263902000.0 -0.023894309997558594 -0.01541900634765625
1268897500.0 -0.02544689178466797 -0.013037681579589844
1273893000.0 -0.02666187286376953 -0.01056671142578125
1278888500.0 -0.027637481689453125 -0.007832527160644531
1283884000.0 -0.028612136840820312 -0.005093574523925781
1288879500.0 -0.028987884521484375 -0.0022983551025390625
1293875000.0 -0.029247283935546875 0.0006685256958007812
1298870500.0 -0.029085159301757812 0.0035247802734375
1303866000.0 -0.02871227264404297 0.0065135955810546875
1308861500.0 -0.02809429168701172 0.009266853332519531
1313857000.0 -0.02698516845703125 0.01212310791015625
1318852500.0 -0.02579212188720703 0.014841079711914062
1323848000.0 -0.024282455444335938 0.017408370971679688
1328843500.0 -0.022589683532714844 0.019751548767089844
1333839000.0 -0.020501136779785156 0.02211761474609375
1338834500.0 -0.018190383911132812 0.024160385131835938
1343830000.0 -0.015783309936523438 0.025909423828125
1348825500.0 -0.013135910034179688 0.02748394012451172
1353821000.0 -0.010319709777832031 0.02871417999267578
1358816500.0 -0.007527351379394531 0.029717445373535156
1363812000.0 -0.0044040679931640625 0.03034496307373047
1368807500.0 -0.0012760162353515625 0.030712127685546875
1373803000.0 0.0018606185913085938 0.030885696411132812
1378798500.0 0.0047245025634765625 0.030646324157714844
1383794000.0 0.007863998413085938 0.030129432678222656
1388789500.0 0.011030197143554688 0.029349327087402344
1393785000.0 0.013845443725585938 0.028062820434570312
1398780500.0 0.016592025756835938 0.026510238647460938
1403776000.0 0.01924610137939453 0.02479267120361328
1408771500.0 0.02169513702392578 0.022782325744628906
1413767000.0 0.024056434631347656 0.020400047302246094
1418762500.0 0.02604961395263672 0.01804351806640625
1423758000.0 0.027662277221679688 0.015428543090820312
1428753500.0 0.0292816162109375 0.0125732421875
1433749000.0 0.03044891357421875 0.009550094604492188
1438744500.0 0.031228065490722656 0.0064754486083984375
1443740000.0 0.031696319580078125 0.003337860107421875
1448735500.0 0.03204536437988281 4.38690185546875e-05
1453731000.0 0.031887054443359375 -0.0031642913818359375
1458726500.0 0.03156852722167969 -0.0063343048095703125
1463722000.0 0.03080463409423828 -0.009387016296386719
1468717500.0 0.029722213745117188 -0.012530326843261719
1473713000.0 0.02825927734375 -0.015534400939941406
1478708500.0 0.02657604217529297 -0.01824188232421875
1483704000.0 0.02468395233154297 -0.020830154418945312
1488699500.0 0.022421836853027344 -0.023362159729003906
1493695000.0 0.020090103149414062 -0.02545452117919922
1498690500.0 0.0174713134765625 -0.027500152587890625
1503686000.0 0.014551162719726562 -0.029047012329101562
1508681500.0 0.011669158935546875 -0.03042125701904297
1513677000.0 0.008562088012695312 -0.03155517578125
1518672500.0 0.0052852630615234375 -0.0320892333984375
1523668000.0 0.0021305084228515625 -0.032562255859375
1528663500.0 -0.0011692047119140625 -0.032611846923828125
1533659000.0 -0.00444793701171875 -0.032306671142578125
1538654500.0 -0.0075855255126953125 -0.03164100646972656
1543650000.0 -0.010769844055175781 -0.030878067016601562
1548645500.0 -0.013855934143066406 -0.029649734497070312
1553641000.0 -0.016704559326171875 -0.028100013732910156
1558636500.0 -0.019483566284179688 -0.026226043701171875
1563632000.0 -0.021966934204101562 -0.024138450622558594
1568627500.0 -0.02413463592529297 -0.02196025848388672
1573623000.0 -0.026157379150390625 -0.01948261260986328
1578618500.0 -0.028037071228027344 -0.016638755798339844
1583614000.0 -0.029567718505859375 -0.013814926147460938
1588609500.0 -0.030794143676757812 -0.010842323303222656
1593605000.0 -0.03163909912109375 -0.0077667236328125
1598600500.0 -0.03216743469238281 -0.0045757293701171875
1603596000.0 -0.03244781494140625 -0.001220703125
1608591500.0 -0.03241920471191406 0.0019207000732421875
1613587000.0 -0.03215980529785156 0.00513458251953125
1618582500.0 -0.031375885009765625 0.008234024047851562
1623578000.0 -0.030443191528320312 0.011168479919433594
1628573500.0 -0.029158592224121094 0.014174461364746094
1633569000.0 -0.027692794799804688 0.01688385009765625
1638564500.0 -0.025943756103515625 0.019529342651367188
1643560000.0 -0.023833274841308594 0.02187347412109375
1648555500.0 -0.02158355712890625 0.02415943145751953
1653551000.0 -0.019112586975097656 0.026132583618164062
1658546500.0 -0.016549110412597656 0.027868270874023438
1663542000.0 -0.013638496398925781 0.029349327087402344
1668537500.0 -0.010777473449707031 0.030653953552246094
1673533000.0 -0.0077056884765625 0.031558990478515625
1678528500.0 -0.0046234130859375 0.03214454650878906
1683524000.0 -0.0014095306396484375 0.03240966796875
1688519500.0 0.0017242431640625 0.03254127502441406
1693515000.0 0.0048999786376953125 0.03222465515136719
1698510500.0 0.008043289184570312 0.03159904479980469
1703506000.0 0.011033058166503906 0.030745506286621094
1708501500.0 0.014105796813964844 0.02942943572998047
1713497000.0 0.01690387725830078 0.02780914306640625
1718492500.0 0.019662857055664062 0.026116371154785156
1723488000.0 0.02209758758544922 0.02414989471435547
1728483500.0 0.024394989013671875 0.02181720733642578
1733479000.0 0.02641582489013672 0.019309043884277344
1738474500.0 0.028234481811523438 0.016574859619140625
1743470000.0 0.02977275848388672 0.013685226440429688
1748465500.0 0.030890464782714844 0.010738372802734375
1753461000.0 0.031894683837890625 0.0076274871826171875
1758456500.0 0.03243064880371094 0.0044841766357421875
1763452000.0 0.03275489807128906 0.001369476318359375
1768447500.0 0.03261375427246094 -0.00201416015625
1773443000.0 0.0323028564453125 -0.0051326751708984375
1778438500.0 0.03162384033203125 -0.008380889892578125
1783434000.0 0.0306243896484375 -0.011391639709472656
1788429500.0 0.02934741973876953 -0.014363288879394531
1793425000.0 0.027777671813964844 -0.017129898071289062
1798420500.0 0.025926589965820312 -0.01988506317138672
1803416000.0 0.023856163024902344 -0.022237777709960938
1808411500.0 0.021467208862304688 -0.02446269989013672
1813407000.0 0.018957138061523438 -0.026454925537109375
1818402500.0 0.016332626342773438 -0.02814960479736328
1823398000.0 0.013380050659179688 -0.02960968017578125
1828393500.0 0.010518074035644531 -0.03075408935546875
1833389000.0 0.0073528289794921875 -0.03154945373535156
1838384500.0 0.004199981689453125 -0.03207969665527344
1843380000.0 0.00103759765625 -0.03236961364746094
