!Created with skrf (http://scikit-rf.org).
# Hz S RI R 50.0 
!freq ReS11 ImS11
45000000.0 -0.08147811889648438 -0.0930938720703125
49995500.0 -0.10216140747070312 -0.08914566040039062
54991000.0 -0.12258148193359375 -0.08127212524414062
59986500.0 -0.141204833984375 -0.0791015625
64982000.0 -0.15993499755859375 -0.0696563720703125
69977500.0 -0.1783599853515625 -0.05532073974609375
74973000.0 -0.195892333984375 -0.0375213623046875
79968500.0 -0.211273193359375 -0.01663970947265625
84964000.0 -0.2248992919921875 0.00743865966796875
89959500.0 -0.23552703857421875 0.03411102294921875
94955000.0 -0.24251556396484375 0.063568115234375
99950500.0 -0.2455902099609375 0.09581756591796875
104946000.0 -0.2442474365234375 0.12950897216796875
109941500.0 -0.2381439208984375 0.16429901123046875
114937000.0 -0.22655487060546875 0.19964599609375
119932500.0 -0.210052490234375 0.234375
124928000.0 -0.1882476806640625 0.2679595947265625
129923500.0 -0.16119384765625 0.2993621826171875
134919000.0 -0.129058837890625 0.3282012939453125
139914500.0 -0.0918121337890625 0.3532257080078125
144910000.0 -0.050537109375 0.373779296875
149905500.0 -0.0058135986328125 0.3895263671875
154901000.0 0.041900634765625 0.399200439453125
159896500.0 0.0914306640625 0.4028778076171875
164892000.0 0.1421356201171875 0.4003753662109375
169887500.0 0.1931610107421875 0.3911590576171875
174883000.0 0.243865966796875 0.3756866455078125
179878500.0 0.2933349609375 0.3532562255859375
184874000.0 0.34033203125 0.324615478515625
189869500.0 0.384979248046875 0.28973388671875
194865000.0 0.42596435546875 0.249481201171875
199860500.0 0.4624481201171875 0.20355224609375
204856000.0 0.49371337890625 0.1524658203125
209851500.0 0.519561767578125 0.096923828125
214847000.0 0.539337158203125 0.03753662109375
219842500.0 0.55224609375 -0.02532958984375
224838000.0 0.55780029296875 -0.090576171875
229833500.0 0.555755615234375 -0.15771484375
234829000.0 0.545562744140625 -0.22528076171875
239824500.0 0.52679443359375 -0.29290771484375
244820000.0 0.4993438720703125 -0.3594207763671875
249815500.0 0.463226318359375 -0.4235687255859375
254811000.0 0.442962646484375 -0.47015380859375
259806500.0 0.393829345703125 -0.5279541015625
264802000.0 0.336883544921875 -0.580810546875
269797500.0 0.272216796875 -0.627044677734375
274793000.0 0.20184326171875 -0.665313720703125
279788500.0 0.12554931640625 -0.694854736328125
284784000.0 0.045745849609375 -0.7158203125
289779500.0 -0.037322998046875 -0.7269287109375
294775000.0 -0.122314453125 -0.72772216796875
299770500.0 -0.207244873046875 -0.718505859375
304766000.0 -0.29119873046875 -0.69952392578125
309761500.0 -0.373138427734375 -0.670166015625
314757000.0 -0.451507568359375 -0.631317138671875
319752500.0 -0.52581787109375 -0.582977294921875
324748000.0 -0.59466552734375 -0.5264892578125
329743500.0 -0.657623291015625 -0.462188720703125
334739000.0 -0.714263916015625 -0.39044189453125
339734500.0 -0.762969970703125 -0.3121337890625
344730000.0 -0.803436279296875 -0.227752685546875
349725500.0 -0.834869384765625 -0.138580322265625
354721000.0 -0.8568115234375 -0.044677734375
359716500.0 -0.868438720703125 0.0523681640625
364712000.0 -0.86907958984375 0.15216064453125
369707500.0 -0.85833740234375 0.25341796875
374703000.0 -0.83538818359375 0.355560302734375
379698500.0 -0.79962158203125 0.45562744140625
384694000.0 -0.75177001953125 0.55303955078125
389689500.0 -0.69091796875 0.6453857421875
394685000.0 -0.617889404296875 0.731231689453125
399680500.0 -0.53350830078125 0.8087158203125
404676000.0 -0.439117431640625 0.8760986328125
409671500.0 -0.335479736328125 0.932891845703125
414667000.0 -0.225372314453125 0.9739990234375
419662500.0 -0.10943603515625 1.00177001953125
424658000.0 0.00970458984375 1.01513671875
429653500.0 0.1312255859375 1.01275634765625
434649000.0 0.2509765625 0.99432373046875
439644500.0 0.365875244140625 0.9610595703125
444640000.0 0.4749755859375 0.916351318359375
449635500.0 0.577667236328125 0.86016845703125
454631000.0 0.6744384765625 0.794189453125
459626500.0 0.763824462890625 0.71661376953125
464622000.0 0.843292236328125 0.629302978515625
469617500.0 0.912750244140625 0.5343017578125
474613000.0 0.97174072265625 0.432861328125
479608500.0 1.0203857421875 0.32550048828125
484604000.0 1.05780029296875 0.21337890625
489599500.0 1.0841064453125 0.0970458984375
494595000.0 1.0986328125 -0.022705078125
499590500.0 1.10107421875 -0.14495849609375
504586000.0 1.09051513671875 -0.2686767578125
509581500.0 1.06658935546875 -0.39324951171875
514577000.0 1.02850341796875 -0.51690673828125
519572500.0 0.97509765625 -0.638214111328125
524568000.0 0.906463623046875 -0.755767822265625
529563500.0 0.8221435546875 -0.8663330078125
534559000.0 0.72265625 -0.96807861328125
539554500.0 0.60906982421875 -1.05743408203125
544550000.0 0.48406982421875 -1.1319580078125
549545500.0 0.348388671875 -1.19073486328125
554541000.0 0.20574951171875 -1.23150634765625
559536500.0 0.05889892578125 -1.2545166015625
564532000.0 -0.0904541015625 -1.2589111328125
569527500.0 -0.2391357421875 -1.2445068359375
574523000.0 -0.38519287109375 -1.211669921875
579518500.0 -0.5252685546875 -1.1614990234375
584514000.0 -0.65802001953125 -1.09429931640625
589509500.0 -0.77996826171875 -1.0126953125
594505000.0 -0.891632080078125 -0.9168701171875
599500500.0 -0.990081787109375 -0.8106689453125
604496000.0 -1.075439453125 -0.6949462890625
609491500.0 -1.1470947265625 -0.57177734375
614487000.0 -1.204833984375 -0.44281005859375
619482500.0 -1.2490234375 -0.309326171875
624478000.0 -1.27935791015625 -0.17303466796875
629473500.0 -1.296142578125 -0.03460693359375
634469000.0 -1.2991943359375 0.1051025390625
639464500.0 -1.28912353515625 0.24560546875
644460000.0 -1.2650146484375 0.3853759765625
649455500.0 -1.22662353515625 0.5247802734375
654451000.0 -1.173828125 0.66143798828125
659446500.0 -1.10650634765625 0.79534912109375
664442000.0 -1.0235595703125 0.92449951171875
669437500.0 -0.9246826171875 1.04705810546875
674433000.0 -0.80926513671875 1.160400390625
679428500.0 -0.67816162109375 1.2618408203125
684424000.0 -0.53216552734375 1.3492431640625
689419500.0 -0.37249755859375 1.4195556640625
694415000.0 -0.200927734375 1.46893310546875
699410500.0 -0.02166748046875 1.4962158203125
704406000.0 0.16192626953125 1.4986572265625
709401500.0 0.34625244140625 1.475830078125
714397000.0 0.526611328125 1.427490234375
719392500.0 0.69854736328125 1.355224609375
724388000.0 0.858642578125 1.26092529296875
729383500.0 1.00347900390625 1.14703369140625
734379000.0 1.12982177734375 1.0152587890625
739374500.0 1.23736572265625 0.871337890625
744370000.0 1.32421875 0.71832275390625
749365500.0 1.39093017578125 0.55841064453125
754361000.0 1.4388427734375 0.395751953125
759356500.0 1.46759033203125 0.2314453125
764352000.0 1.47808837890625 0.0679931640625
769347500.0 1.471923828125 -0.09320068359375
774343000.0 1.4501953125 -0.25115966796875
779338500.0 1.41290283203125 -0.40460205078125
784334000.0 1.362548828125 -0.55279541015625
789329500.0 1.29840087890625 -0.695556640625
794325000.0 1.22113037109375 -0.83197021484375
799320500.0 1.13079833984375 -0.9615478515625
804316000.0 1.0269775390625 -1.0826416015625
809311500.0 0.91058349609375 -1.1943359375
814307000.0 0.7818603515625 -1.29644775390625
819302500.0 0.6409912109375 -1.3856201171875
824298000.0 0.48779296875 -1.4608154296875
829293500.0 0.32470703125 -1.51995849609375
834289000.0 0.15093994140625 -1.560791015625
839284500.0 -0.0286865234375 -1.5810546875
844280000.0 -0.1456298828125 -1.60797119140625
849275500.0 -0.334716796875 -1.59161376953125
854271000.0 -0.52215576171875 -1.55072021484375
859266500.0 -0.704833984375 -1.4852294921875
864262000.0 -0.87799072265625 -1.39630126953125
869257500.0 -1.03778076171875 -1.285400390625
874253000.0 -1.18206787109375 -1.15496826171875
879248500.0 -1.30902099609375 -1.00885009765625
884244000.0 -1.41448974609375 -0.84912109375
889239500.0 -1.49957275390625 -0.6795654296875
894235000.0 -1.56317138671875 -0.50341796875
899230500.0 -1.606201171875 -0.32318115234375
904226000.0 -1.6279296875 -0.14068603515625
909221500.0 -1.6295166015625 0.04132080078125
914217000.0 -1.6107177734375 0.220458984375
919212500.0 -1.57293701171875 0.3953857421875
924208000.0 -1.51800537109375 0.56243896484375
929203500.0 -1.447021484375 0.72210693359375
934199000.0 -1.36187744140625 0.8720703125
939194500.0 -1.26300048828125 1.0126953125
944190000.0 -1.15167236328125 1.14385986328125
949185500.0 -1.02752685546875 1.26434326171875
954181000.0 -0.8916015625 1.37451171875
959176500.0 -0.74359130859375 1.470947265625
964172000.0 -0.584228515625 1.552978515625
969167500.0 -0.41375732421875 1.62078857421875
974163000.0 -0.23358154296875 1.670654296875
979158500.0 -0.04510498046875 1.70025634765625
984154000.0 0.1495361328125 1.708984375
989149500.0 0.3475341796875 1.69366455078125
994145000.0 0.54608154296875 1.6531982421875
999140500.0 0.74072265625 1.58758544921875
1004136000.0 0.927490234375 1.49658203125
1009131500.0 1.1033935546875 1.38092041015625
1014127000.0 1.2630615234375 1.242431640625
1019122500.0 1.4039306640625 1.08428955078125
1024118000.0 1.52227783203125 0.90911865234375
1029113500.0 1.6160888671875 0.72198486328125
1034109000.0 1.68505859375 0.52532958984375
1039104500.0 1.72845458984375 0.32391357421875
1044100000.0 1.74639892578125 0.12200927734375
1049095500.0 1.7403564453125 -0.07794189453125
1054091000.0 1.7117919921875 -0.273193359375
1059086500.0 1.6629638671875 -0.4605712890625
1064082000.0 1.5948486328125 -0.63909912109375
1069077500.0 1.50927734375 -0.8072509765625
1074073000.0 1.40869140625 -0.96429443359375
1079068500.0 1.2933349609375 -1.10833740234375
1084064000.0 1.16534423828125 -1.24029541015625
1089059500.0 1.02484130859375 -1.35882568359375
1094055000.0 0.87408447265625 -1.4630126953125
1099050500.0 0.71209716796875 -1.55242919921875
1104046000.0 0.54156494140625 -1.625
1109041500.0 0.36279296875 -1.68115234375
1114037000.0 0.17645263671875 -1.71875
1119032500.0 -0.01458740234375 -1.7362060546875
1124028000.0 -0.20989990234375 -1.73297119140625
1129023500.0 -0.40679931640625 -1.70697021484375
1134019000.0 -0.6009521484375 -1.65814208984375
1139014500.0 -0.79193115234375 -1.5855712890625
1144010000.0 -0.974609375 -1.4893798828125
1149005500.0 -1.14569091796875 -1.3695068359375
1154001000.0 -1.30206298828125 -1.22821044921875
1158996500.0 -1.439697265625 -1.0675048828125
1163992000.0 -1.556640625 -0.88958740234375
1168987500.0 -1.64910888671875 -0.69879150390625
1173983000.0 -1.71685791015625 -0.497802734375
1178978500.0 -1.7574462890625 -0.2913818359375
1183974000.0 -1.77239990234375 -0.0826416015625
1188969500.0 -1.76129150390625 0.123779296875
1193965000.0 -1.725341796875 0.32440185546875
1198960500.0 -1.66650390625 0.5166015625
1203956000.0 -1.58673095703125 0.697509765625
1208951500.0 -1.48779296875 0.86566162109375
1213947000.0 -1.373291015625 1.01959228515625
1218942500.0 -1.24432373046875 1.15826416015625
1223938000.0 -1.103271484375 1.2799072265625
1228933500.0 -0.95263671875 1.38458251953125
1233929000.0 -0.7933349609375 1.47314453125
1238924500.0 -0.62786865234375 1.54339599609375
1243920000.0 -0.45697021484375 1.59716796875
1248915500.0 -0.283203125 1.632080078125
1253911000.0 -0.10699462890625 1.65185546875
1258906500.0 0.0699462890625 1.6519775390625
1263902000.0 0.24688720703125 1.635986328125
1268897500.0 0.4217529296875 1.60107421875
1273893000.0 0.5909423828125 1.54840087890625
1278888500.0 0.7554931640625 1.4776611328125
1283884000.0 0.91357421875 1.39056396484375
1288879500.0 1.061767578125 1.28497314453125
1293875000.0 1.199462890625 1.16363525390625
1298870500.0 1.323486328125 1.02703857421875
1303866000.0 1.4324951171875 0.8765869140625
1308861500.0 1.5238037109375 0.71356201171875
1313857000.0 1.59722900390625 0.54034423828125
1318852500.0 1.65057373046875 0.35894775390625
1323848000.0 1.68353271484375 0.17156982421875
1328843500.0 1.69451904296875 -0.0179443359375
1333839000.0 1.6839599609375 -0.2093505859375
1338834500.0 1.6512451171875 -0.39813232421875
1343830000.0 1.59747314453125 -0.58319091796875
1348825500.0 1.5223388671875 -0.7606201171875
1353821000.0 1.42730712890625 -0.92919921875
1358816500.0 1.3135986328125 -1.08587646484375
1363812000.0 1.18133544921875 -1.2279052734375
1368807500.0 1.03369140625 -1.3544921875
1373803000.0 0.87237548828125 -1.462646484375
1378798500.0 0.69970703125 -1.5511474609375
1383794000.0 0.51727294921875 -1.61895751953125
1388789500.0 0.32855224609375 -1.6640625
1393785000.0 0.13677978515625 -1.68695068359375
1398780500.0 -0.055419921875 -1.687255859375
1403776000.0 -0.24530029296875 -1.66473388671875
1408771500.0 -0.43011474609375 -1.62042236328125
1413767000.0 -0.60723876953125 -1.55560302734375
1418762500.0 -0.77362060546875 -1.4715576171875
1423758000.0 -0.92840576171875 -1.37109375
1428753500.0 -1.06939697265625 -1.2545166015625
1433749000.0 -1.1954345703125 -1.12469482421875
1438744500.0 -1.30621337890625 -0.98388671875
1443740000.0 -1.39935302734375 -0.833740234375
1448735500.0 -1.47723388671875 -0.67572021484375
1453731000.0 -1.537841796875 -0.51177978515625
1458726500.0 -1.5811767578125 -0.34320068359375
1463722000.0 -1.60748291015625 -0.171630859375
1468717500.0 -1.61688232421875 0.00146484375
1473713000.0 -1.60882568359375 0.17486572265625
1478708500.0 -1.58294677734375 0.34722900390625
1483704000.0 -1.53955078125 0.51715087890625
1488699500.0 -1.4791259765625 0.6839599609375
1493695000.0 -1.400634765625 0.8447265625
1498690500.0 -1.3045654296875 0.99835205078125
1503686000.0 -1.190185546875 1.14154052734375
1508681500.0 -1.05889892578125 1.27435302734375
1513677000.0 -0.910888671875 1.39190673828125
1518672500.0 -0.748046875 1.4927978515625
1523668000.0 -0.572021484375 1.57373046875
1528663500.0 -0.3853759765625 1.63336181640625
1533659000.0 -0.1917724609375 1.6685791015625
1538654500.0 0.0054931640625 1.67938232421875
1543650000.0 0.20318603515625 1.6639404296875
1548645500.0 0.3963623046875 1.623779296875
1553641000.0 0.58154296875 1.55908203125
1558636500.0 0.7547607421875 1.4720458984375
1563632000.0 0.91412353515625 1.36614990234375
1568627500.0 1.0562744140625 1.24267578125
1573623000.0 1.180419921875 1.10552978515625
1578618500.0 1.28582763671875 0.95782470703125
1583614000.0 1.37176513671875 0.80218505859375
1588609500.0 1.4390869140625 0.641357421875
1593605000.0 1.4873046875 0.47760009765625
1598600500.0 1.51806640625 0.31304931640625
1603596000.0 1.53192138671875 0.1488037109375
1608591500.0 1.529296875 -0.0130615234375
1613587000.0 1.51190185546875 -0.1724853515625
1618582500.0 1.47967529296875 -0.32781982421875
1623578000.0 1.43341064453125 -0.478271484375
1628573500.0 1.37335205078125 -0.62384033203125
1633569000.0 1.3004150390625 -0.76318359375
1638564500.0 1.2135009765625 -0.8955078125
1643560000.0 1.11407470703125 -1.0196533203125
1648555500.0 1.001708984375 -1.134765625
1653551000.0 0.87689208984375 -1.2388916015625
1658546500.0 0.740234375 -1.3302001953125
1663542000.0 0.5921630859375 -1.40814208984375
1668537500.0 0.43463134765625 -1.4691162109375
1673533000.0 0.2691650390625 -1.51312255859375
1678528500.0 0.09759521484375 -1.537109375
1683524000.0 -0.07708740234375 -1.5399169921875
1688519500.0 -0.251953125 -1.52081298828125
1693515000.0 -0.423095703125 -1.48052978515625
1698510500.0 -0.588623046875 -1.418701171875
1703506000.0 -0.74334716796875 -1.33831787109375
1708501500.0 -0.8851318359375 -1.2401123046875
1713497000.0 -1.01312255859375 -1.12652587890625
1718492500.0 -1.12457275390625 -1.00030517578125
1723488000.0 -1.21929931640625 -0.86468505859375
1728483500.0 -1.2967529296875 -0.72216796875
1733479000.0 -1.35736083984375 -0.57470703125
1738474500.0 -1.40093994140625 -0.42474365234375
1743470000.0 -1.42938232421875 -0.27423095703125
1748465500.0 -1.44256591796875 -0.12359619140625
1753461000.0 -1.44189453125 0.0252685546875
1758456500.0 -1.427734375 0.172119140625
1763452000.0 -1.40093994140625 0.3160400390625
1768447500.0 -1.36199951171875 0.45697021484375
1773443000.0 -1.31011962890625 0.593994140625
1778438500.0 -1.2457275390625 0.72772216796875
1783434000.0 -1.16925048828125 0.8560791015625
1788429500.0 -1.07916259765625 0.9781494140625
1793425000.0 -0.97601318359375 1.09344482421875
1798420500.0 -0.85919189453125 1.19964599609375
1803416000.0 -0.72930908203125 1.294921875
1808411500.0 -0.58648681640625 1.377197265625
1813407000.0 -0.431884765625 1.44403076171875
1818402500.0 -0.267578125 1.492431640625
1823398000.0 -0.094970703125 1.52105712890625
1828393500.0 0.08148193359375 1.52716064453125
1833389000.0 0.2591552734375 1.51055908203125
1838384500.0 0.4337158203125 1.47076416015625
1843380000.0 0.6016845703125 1.408447265625
1848375500.0 0.7586669921875 1.32470703125
1853371000.0 0.90277099609375 1.2227783203125
1858366500.0 1.03076171875 1.10491943359375
1863362000.0 1.14117431640625 0.97479248046875
1868357500.0 1.23309326171875 0.83514404296875
1873353000.0 1.3067626953125 0.68927001953125
1878348500.0 1.36309814453125 0.5394287109375
1883344000.0 1.40240478515625 0.3880615234375
1888339500.0 1.42529296875 0.23663330078125
1893335000.0 1.43377685546875 0.08685302734375
1898330500.0 1.428466796875 -0.06109619140625
1903326000.0 1.41009521484375 -0.20587158203125
1908321500.0 1.37896728515625 -0.34747314453125
1913317000.0 1.33599853515625 -0.4847412109375
1918312500.0 1.2816162109375 -0.61865234375
1923308000.0 1.21466064453125 -0.747314453125
1928303500.0 1.13616943359375 -0.8717041015625
1933299000.0 1.04486083984375 -0.98895263671875
1938294500.0 0.9410400390625 -1.09857177734375
1943290000.0 0.8255615234375 -1.19976806640625
1948285500.0 0.69647216796875 -1.29058837890625
1953281000.0 0.55657958984375 -1.36846923828125
1958276500.0 0.40509033203125 -1.43212890625
1963272000.0 0.24444580078125 -1.47747802734375
1968267500.0 0.07672119140625 -1.50390625
1973263000.0 -0.0958251953125 -1.50970458984375
1978258500.0 -0.2689208984375 -1.49420166015625
1983254000.0 -0.43988037109375 -1.45611572265625
1988249500.0 -0.605224609375 -1.3963623046875
1993245000.0 -0.7611083984375 -1.3157958984375
1998240500.0 -0.90557861328125 -1.2171630859375
2003236000.0 -1.0343017578125 -1.102783203125
2008231500.0 -1.147216796875 -0.97491455078125
2013227000.0 -1.24261474609375 -0.8363037109375
2018222500.0 -1.32037353515625 -0.68988037109375
2023218000.0 -1.380126953125 -0.538330078125
2028213500.0 -1.42340087890625 -0.38348388671875
2033209000.0 -1.4493408203125 -0.22772216796875
2038204500.0 -1.458984375 -0.0721435546875
2043200000.0 -1.45355224609375 0.08148193359375
2048195500.0 -1.433349609375 0.233154296875
2053191000.0 -1.398681640625 0.38140869140625
2058186500.0 -1.3505859375 0.52496337890625
2063182000.0 -1.28839111328125 0.6630859375
2068177500.0 -1.2130126953125 0.79559326171875
2073173000.0 -1.12469482421875 0.92047119140625
2078168500.0 -1.02337646484375 1.03759765625
2083164000.0 -0.90960693359375 1.1444091796875
2088159500.0 -0.7840576171875 1.23895263671875
2093155000.0 -0.6473388671875 1.3212890625
2098150500.0 -0.5008544921875 1.38836669921875
2103146000.0 -0.3463134765625 1.43927001953125
2108141500.0 -0.185546875 1.4722900390625
2113137000.0 -0.02069091796875 1.4859619140625
2118132500.0 0.14471435546875 1.48028564453125
2123128000.0 0.3087158203125 1.45465087890625
2128123500.0 0.468017578125 1.41046142578125
2133119000.0 0.620849609375 1.34716796875
2138114500.0 0.76324462890625 1.26727294921875
2143110000.0 0.8956298828125 1.17266845703125
2148105500.0 1.01434326171875 1.0648193359375
2153101000.0 1.11920166015625 0.9454345703125
2158096500.0 1.20953369140625 0.817626953125
2163092000.0 1.28570556640625 0.6820068359375
2168087500.0 1.345947265625 0.541748046875
2173083000.0 1.392578125 0.3968505859375
2178078500.0 1.4241943359375 0.2501220703125
2183074000.0 1.4415283203125 0.1014404296875
2188069500.0 1.44525146484375 -0.04742431640625
2193065000.0 1.4349365234375 -0.1966552734375
2198060500.0 1.41064453125 -0.3447265625
