!Created with skrf (http://scikit-rf.org).
# Hz S RI R 50.0 
!freq ReS11 ImS11
45000000.0 -0.08139419555664062 -0.09273529052734375
49995500.0 -0.10209274291992188 -0.08878326416015625
54991000.0 -0.12247848510742188 -0.08073043823242188
59986500.0 -0.14052581787109375 -0.0783843994140625
64982000.0 -0.15962982177734375 -0.06951141357421875
69977500.0 -0.1779632568359375 -0.05496978759765625
74973000.0 -0.195220947265625 -0.03736114501953125
79968500.0 -0.21071624755859375 -0.01654815673828125
84964000.0 -0.22412872314453125 0.00728607177734375
89959500.0 -0.23474884033203125 0.0342254638671875
94955000.0 -0.24146270751953125 0.06378936767578125
99950500.0 -0.24460601806640625 0.09584808349609375
104946000.0 -0.243255615234375 0.12924957275390625
109941500.0 -0.2370147705078125 0.16371917724609375
114937000.0 -0.22579193115234375 0.19864654541015625
119932500.0 -0.209014892578125 0.233673095703125
124928000.0 -0.1873931884765625 0.26739501953125
129923500.0 -0.160308837890625 0.2984771728515625
134919000.0 -0.1282501220703125 0.3268280029296875
139914500.0 -0.0912322998046875 0.352203369140625
144910000.0 -0.050201416015625 0.3726654052734375
149905500.0 -0.005340576171875 0.38824462890625
154901000.0 0.042236328125 0.39801025390625
159896500.0 0.0914764404296875 0.401336669921875
164892000.0 0.1420135498046875 0.39892578125
169887500.0 0.1931915283203125 0.3898162841796875
174883000.0 0.2436370849609375 0.3740234375
179878500.0 0.292816162109375 0.351959228515625
184874000.0 0.339813232421875 0.3232421875
189869500.0 0.3841705322265625 0.288330078125
194865000.0 0.4251251220703125 0.248077392578125
199860500.0 0.4613189697265625 0.2021484375
204856000.0 0.492279052734375 0.151092529296875
209851500.0 0.51788330078125 0.09588623046875
214847000.0 0.53765869140625 0.03662109375
219842500.0 0.55047607421875 -0.026092529296875
224838000.0 0.555999755859375 -0.090972900390625
229833500.0 0.553863525390625 -0.157867431640625
234829000.0 0.5435791015625 -0.225433349609375
239824500.0 0.52471923828125 -0.29290771484375
244820000.0 0.4974365234375 -0.358917236328125
249815500.0 0.46112060546875 -0.4227294921875
254811000.0 0.44091796875 -0.4689483642578125
259806500.0 0.391754150390625 -0.5267333984375
264802000.0 0.335296630859375 -0.579132080078125
269797500.0 0.270721435546875 -0.624786376953125
274793000.0 0.200347900390625 -0.6634521484375
279788500.0 0.124664306640625 -0.692596435546875
284784000.0 0.04486083984375 -0.713165283203125
289779500.0 -0.037811279296875 -0.72406005859375
294775000.0 -0.122589111328125 -0.72467041015625
299770500.0 -0.20721435546875 -0.715484619140625
304766000.0 -0.291015625 -0.696746826171875
309761500.0 -0.372406005859375 -0.667083740234375
314757000.0 -0.450531005859375 -0.628173828125
319752500.0 -0.524169921875 -0.580230712890625
324748000.0 -0.59283447265625 -0.5238037109375
329743500.0 -0.655731201171875 -0.45977783203125
334739000.0 -0.711883544921875 -0.3883056640625
339734500.0 -0.760345458984375 -0.310272216796875
344730000.0 -0.800537109375 -0.2261962890625
349725500.0 -0.8319091796875 -0.1370849609375
354721000.0 -0.853607177734375 -0.0438232421875
359716500.0 -0.865081787109375 0.053009033203125
364712000.0 -0.86541748046875 0.152374267578125
369707500.0 -0.8544921875 0.25372314453125
374703000.0 -0.831756591796875 0.3548583984375
379698500.0 -0.7960205078125 0.454925537109375
384694000.0 -0.748321533203125 0.55181884765625
389689500.0 -0.687713623046875 0.644195556640625
394685000.0 -0.615081787109375 0.72955322265625
399680500.0 -0.53076171875 0.806549072265625
404676000.0 -0.43670654296875 0.873321533203125
409671500.0 -0.33367919921875 0.92938232421875
414667000.0 -0.22381591796875 0.970855712890625
419662500.0 -0.108062744140625 0.998779296875
424658000.0 0.0107421875 1.01141357421875
429653500.0 0.13153076171875 1.00921630859375
434649000.0 0.251251220703125 0.9901123046875
439644500.0 0.365478515625 0.957550048828125
444640000.0 0.474334716796875 0.912506103515625
449635500.0 0.576690673828125 0.856658935546875
454631000.0 0.67303466796875 0.790618896484375
459626500.0 0.76214599609375 0.713134765625
464622000.0 0.841278076171875 0.626312255859375
469617500.0 0.910308837890625 0.531494140625
474613000.0 0.96905517578125 0.43023681640625
479608500.0 1.0172119140625 0.3232421875
484604000.0 1.0545654296875 0.21136474609375
489599500.0 1.0806884765625 0.09539794921875
494595000.0 1.09503173828125 -0.02349853515625
499590500.0 1.09735107421875 -0.14556884765625
504586000.0 1.08685302734375 -0.26904296875
509581500.0 1.06280517578125 -0.39288330078125
514577000.0 1.02447509765625 -0.51605224609375
519572500.0 0.971527099609375 -0.637298583984375
524568000.0 0.902740478515625 -0.75421142578125
529563500.0 0.81878662109375 -0.864501953125
534559000.0 0.719482421875 -0.965728759765625
539554500.0 0.60662841796875 -1.0546875
544550000.0 0.48126220703125 -1.12908935546875
549545500.0 0.34661865234375 -1.18731689453125
554541000.0 0.2041015625 -1.2281494140625
559536500.0 0.057861328125 -1.25115966796875
564532000.0 -0.09124755859375 -1.2552490234375
569527500.0 -0.23956298828125 -1.24090576171875
574523000.0 -0.38525390625 -1.20794677734375
579518500.0 -0.52520751953125 -1.15777587890625
584514000.0 -0.65740966796875 -1.09063720703125
589509500.0 -0.77947998046875 -1.0086669921875
594505000.0 -0.89019775390625 -0.9134521484375
599500500.0 -0.98822021484375 -0.8072509765625
604496000.0 -1.07330322265625 -0.69146728515625
609491500.0 -1.14459228515625 -0.5684814453125
614487000.0 -1.2021484375 -0.43994140625
619482500.0 -1.24566650390625 -0.3070068359375
624478000.0 -1.276123046875 -0.1708984375
629473500.0 -1.2923583984375 -0.03314208984375
634469000.0 -1.2955322265625 0.1064453125
639464500.0 -1.2850341796875 0.246337890625
644460000.0 -1.2611083984375 0.385986328125
649455500.0 -1.22265625 0.5245361328125
654451000.0 -1.170166015625 0.661376953125
659446500.0 -1.1025390625 0.7945556640625
664442000.0 -1.0198974609375 0.92303466796875
669437500.0 -0.92138671875 1.045166015625
674433000.0 -0.80596923828125 1.158447265625
679428500.0 -0.67486572265625 1.2598876953125
684424000.0 -0.5291748046875 1.346923828125
689419500.0 -0.36932373046875 1.41668701171875
694415000.0 -0.19879150390625 1.46539306640625
699410500.0 -0.019775390625 1.49224853515625
704406000.0 0.1636962890625 1.49462890625
709401500.0 0.34759521484375 1.471435546875
714397000.0 0.5274658203125 1.4232177734375
719392500.0 0.6988525390625 1.35052490234375
724388000.0 0.858154296875 1.25616455078125
729383500.0 1.00244140625 1.1424560546875
734379000.0 1.1280517578125 1.0107421875
739374500.0 1.23486328125 0.8670654296875
744370000.0 1.3216552734375 0.71435546875
749365500.0 1.38775634765625 0.55462646484375
754361000.0 1.4351806640625 0.3924560546875
759356500.0 1.4632568359375 0.22869873046875
764352000.0 1.47357177734375 0.06591796875
769347500.0 1.4674072265625 -0.09503173828125
774343000.0 1.4453125 -0.25238037109375
779338500.0 1.4080810546875 -0.4051513671875
784334000.0 1.35760498046875 -0.55303955078125
789329500.0 1.2935791015625 -0.6953125
794325000.0 1.2164306640625 -0.8311767578125
799320500.0 1.1259765625 -0.9600830078125
804316000.0 1.02252197265625 -1.08111572265625
809311500.0 0.90673828125 -1.1922607421875
814307000.0 0.77850341796875 -1.293212890625
819302500.0 0.6375732421875 -1.3824462890625
824298000.0 0.48455810546875 -1.45751953125
829293500.0 0.32232666015625 -1.516357421875
834289000.0 0.14935302734375 -1.5567626953125
839284500.0 -0.03033447265625 -1.57623291015625
844280000.0 -0.14666748046875 -1.60223388671875
849275500.0 -0.33502197265625 -1.58551025390625
854271000.0 -0.52178955078125 -1.54541015625
859266500.0 -0.70330810546875 -1.48004150390625
864262000.0 -0.8756103515625 -1.39044189453125
869257500.0 -1.035400390625 -1.28021240234375
874253000.0 -1.17950439453125 -1.15032958984375
879248500.0 -1.304931640625 -1.0042724609375
884244000.0 -1.41046142578125 -0.84478759765625
889239500.0 -1.495361328125 -0.6756591796875
894235000.0 -1.55859375 -0.49981689453125
899230500.0 -1.600830078125 -0.32000732421875
904226000.0 -1.62261962890625 -0.138427734375
909221500.0 -1.6240234375 0.04315185546875
914217000.0 -1.60467529296875 0.2222900390625
919212500.0 -1.5667724609375 0.39581298828125
924208000.0 -1.51141357421875 0.5625
929203500.0 -1.44110107421875 0.72100830078125
934199000.0 -1.35589599609375 0.8702392578125
939194500.0 -1.25732421875 1.01031494140625
944190000.0 -1.1458740234375 1.14117431640625
949185500.0 -1.0220947265625 1.26153564453125
954181000.0 -0.8870849609375 1.3701171875
959176500.0 -0.73931884765625 1.4666748046875
964172000.0 -0.5804443359375 1.54815673828125
969167500.0 -0.4105224609375 1.615234375
974163000.0 -0.23101806640625 1.6644287109375
979158500.0 -0.0433349609375 1.6939697265625
984154000.0 0.15087890625 1.70233154296875
989149500.0 0.34869384765625 1.68707275390625
994145000.0 0.54608154296875 1.6470947265625
999140500.0 0.74017333984375 1.581298828125
1004136000.0 0.92681884765625 1.49041748046875
1009131500.0 1.10101318359375 1.37469482421875
1014127000.0 1.260009765625 1.23675537109375
1019122500.0 1.40020751953125 1.07879638671875
1024118000.0 1.5177001953125 0.904296875
1029113500.0 1.61114501953125 0.71722412109375
1034109000.0 1.6793212890625 0.521484375
1039104500.0 1.72216796875 0.3206787109375
1044100000.0 1.73992919921875 0.119140625
1049095500.0 1.7342529296875 -0.0806884765625
1054091000.0 1.7054443359375 -0.2745361328125
1059086500.0 1.6561279296875 -0.4617919921875
1064082000.0 1.58831787109375 -0.639404296875
1069077500.0 1.5028076171875 -0.80694580078125
1074073000.0 1.40185546875 -0.9630126953125
1079068500.0 1.28717041015625 -1.1070556640625
1084064000.0 1.15899658203125 -1.2384033203125
1089059500.0 1.01922607421875 -1.35528564453125
1094055000.0 0.8687744140625 -1.45941162109375
1099050500.0 0.70751953125 -1.54815673828125
1104046000.0 0.53717041015625 -1.6204833984375
1109041500.0 0.35858154296875 -1.67633056640625
1114037000.0 0.17340087890625 -1.71258544921875
1119032500.0 -0.0177001953125 -1.72991943359375
1124028000.0 -0.21234130859375 -1.72637939453125
1129023500.0 -0.4085693359375 -1.7000732421875
1134019000.0 -0.6029052734375 -1.6513671875
1139014500.0 -0.79266357421875 -1.57843017578125
1144010000.0 -0.97430419921875 -1.48175048828125
1149005500.0 -1.1441650390625 -1.3619384765625
1154001000.0 -1.2994384765625 -1.22100830078125
1158996500.0 -1.437255859375 -1.06048583984375
1163992000.0 -1.5523681640625 -0.88330078125
1168987500.0 -1.64447021484375 -0.69256591796875
1173983000.0 -1.7113037109375 -0.49212646484375
1178978500.0 -1.7513427734375 -0.28619384765625
1183974000.0 -1.76519775390625 -0.078857421875
1188969500.0 -1.75341796875 0.12652587890625
1193965000.0 -1.71759033203125 0.32647705078125
1198960500.0 -1.65869140625 0.51763916015625
1203956000.0 -1.5787353515625 0.69781494140625
1208951500.0 -1.4803466796875 0.86492919921875
1213947000.0 -1.36614990234375 1.0184326171875
1218942500.0 -1.2376708984375 1.1553955078125
1223938000.0 -1.09686279296875 1.27703857421875
1228933500.0 -0.946533203125 1.38116455078125
1233929000.0 -0.78826904296875 1.46856689453125
1238924500.0 -0.62359619140625 1.538818359375
1243920000.0 -0.453369140625 1.5919189453125
1248915500.0 -0.28045654296875 1.62738037109375
1253911000.0 -0.10455322265625 1.64599609375
1258906500.0 0.07196044921875 1.6473388671875
1263902000.0 0.24835205078125 1.630859375
1268897500.0 0.42327880859375 1.5955810546875
1273893000.0 0.59149169921875 1.54266357421875
1278888500.0 0.7559814453125 1.47222900390625
1283884000.0 0.91363525390625 1.38458251953125
1288879500.0 1.06121826171875 1.27935791015625
1293875000.0 1.1983642578125 1.15802001953125
1298870500.0 1.3212890625 1.0211181640625
1303866000.0 1.4296875 0.87054443359375
1308861500.0 1.5213623046875 0.7078857421875
1313857000.0 1.5933837890625 0.53485107421875
1318852500.0 1.6463623046875 0.35382080078125
1323848000.0 1.67822265625 0.16656494140625
1328843500.0 1.68853759765625 -0.02239990234375
1333839000.0 1.677978515625 -0.21337890625
1338834500.0 1.64483642578125 -0.40234375
1343830000.0 1.59100341796875 -0.58587646484375
1348825500.0 1.51544189453125 -0.7625732421875
1353821000.0 1.42022705078125 -0.92999267578125
1358816500.0 1.30584716796875 -1.08575439453125
1363812000.0 1.174072265625 -1.227294921875
1368807500.0 1.02685546875 -1.35272216796875
1373803000.0 0.8658447265625 -1.4599609375
1378798500.0 0.6929931640625 -1.54827880859375
1383794000.0 0.5108642578125 -1.6151123046875
1388789500.0 0.32379150390625 -1.65887451171875
1393785000.0 0.13214111328125 -1.68157958984375
1398780500.0 -0.05999755859375 -1.68133544921875
1403776000.0 -0.2489013671875 -1.65814208984375
1408771500.0 -0.43280029296875 -1.61376953125
1413767000.0 -0.6090087890625 -1.5487060546875
1418762500.0 -0.77490234375 -1.4649658203125
1423758000.0 -0.9288330078125 -1.36395263671875
1428753500.0 -1.06915283203125 -1.24725341796875
1433749000.0 -1.1944580078125 -1.1180419921875
1438744500.0 -1.30364990234375 -0.97747802734375
1443740000.0 -1.39715576171875 -0.8270263671875
1448735500.0 -1.47406005859375 -0.66943359375
1453731000.0 -1.53387451171875 -0.5059814453125
1458726500.0 -1.57672119140625 -0.3380126953125
1463722000.0 -1.60272216796875 -0.167236328125
1468717500.0 -1.6109619140625 0.0052490234375
1473713000.0 -1.602783203125 0.17840576171875
1478708500.0 -1.57659912109375 0.3502197265625
1483704000.0 -1.53338623046875 0.51971435546875
1488699500.0 -1.47271728515625 0.68536376953125
1493695000.0 -1.39404296875 0.84619140625
1498690500.0 -1.29736328125 0.99859619140625
1503686000.0 -1.18353271484375 1.14166259765625
1508681500.0 -1.0516357421875 1.2735595703125
1513677000.0 -0.904296875 1.3900146484375
1518672500.0 -0.74151611328125 1.49029541015625
1523668000.0 -0.56622314453125 1.5709228515625
1528663500.0 -0.379638671875 1.6297607421875
1533659000.0 -0.18634033203125 1.66436767578125
1538654500.0 0.01116943359375 1.67340087890625
1543650000.0 0.20745849609375 1.6580810546875
1548645500.0 0.39971923828125 1.61749267578125
1553641000.0 0.5841064453125 1.55230712890625
1558636500.0 0.75726318359375 1.46533203125
1563632000.0 0.9151611328125 1.35858154296875
1568627500.0 1.0565185546875 1.2352294921875
1573623000.0 1.17999267578125 1.0980224609375
1578618500.0 1.28424072265625 0.9505615234375
1583614000.0 1.3697509765625 0.795166015625
1588609500.0 1.4354248046875 0.634765625
1593605000.0 1.48370361328125 0.471435546875
1598600500.0 1.51385498046875 0.30731201171875
1603596000.0 1.526123046875 0.1441650390625
1608591500.0 1.52362060546875 -0.0177001953125
1613587000.0 1.5054931640625 -0.17596435546875
1618582500.0 1.4732666015625 -0.330322265625
1623578000.0 1.42694091796875 -0.48040771484375
1628573500.0 1.36700439453125 -0.62518310546875
1633569000.0 1.29400634765625 -0.76373291015625
1638564500.0 1.2073974609375 -0.8953857421875
1643560000.0 1.1082763671875 -1.01910400390625
1648555500.0 0.99627685546875 -1.13330078125
1653551000.0 0.871337890625 -1.23773193359375
1658546500.0 0.73516845703125 -1.3282470703125
1663542000.0 0.58758544921875 -1.4053955078125
1668537500.0 0.43048095703125 -1.4666748046875
1673533000.0 0.26507568359375 -1.5101318359375
1678528500.0 0.09356689453125 -1.53338623046875
1683524000.0 -0.08050537109375 -1.53631591796875
1688519500.0 -0.2552490234375 -1.5169677734375
1693515000.0 -0.42657470703125 -1.47674560546875
1698510500.0 -0.592041015625 -1.41387939453125
1703506000.0 -0.74609375 -1.3330078125
1708501500.0 -0.8876953125 -1.235107421875
1713497000.0 -1.01470947265625 -1.120849609375
1718492500.0 -1.1258544921875 -0.99420166015625
1723488000.0 -1.21942138671875 -0.8583984375
1728483500.0 -1.29632568359375 -0.71588134765625
1733479000.0 -1.3560791015625 -0.56817626953125
1738474500.0 -1.3994140625 -0.4185791015625
1743470000.0 -1.427001953125 -0.26788330078125
1748465500.0 -1.43939208984375 -0.117919921875
1753461000.0 -1.43817138671875 0.0303955078125
1758456500.0 -1.42364501953125 0.177490234375
1763452000.0 -1.39642333984375 0.32122802734375
1768447500.0 -1.35662841796875 0.46099853515625
1773443000.0 -1.30426025390625 0.59832763671875
1778438500.0 -1.239990234375 0.73150634765625
1783434000.0 -1.16278076171875 0.8587646484375
1788429500.0 -1.07220458984375 0.97998046875
1793425000.0 -0.96881103515625 1.094970703125
1798420500.0 -0.85186767578125 1.2008056640625
1803416000.0 -0.72186279296875 1.29486083984375
1808411500.0 -0.57904052734375 1.37579345703125
1813407000.0 -0.4239501953125 1.44195556640625
1818402500.0 -0.260009765625 1.48944091796875
1823398000.0 -0.08782958984375 1.517333984375
1828393500.0 0.0882568359375 1.52276611328125
1833389000.0 0.26483154296875 1.50494384765625
1838384500.0 0.43865966796875 1.464111328125
1843380000.0 0.60614013671875 1.401123046875
1848375500.0 0.76214599609375 1.317138671875
1853371000.0 0.90496826171875 1.214599609375
1858366500.0 1.03173828125 1.09674072265625
1863362000.0 1.14117431640625 0.966552734375
1868357500.0 1.23272705078125 0.8270263671875
1873353000.0 1.3055419921875 0.6812744140625
1878348500.0 1.36090087890625 0.531982421875
1883344000.0 1.399169921875 0.3809814453125
1888339500.0 1.421875 0.2296142578125
1893335000.0 1.4296875 0.08013916015625
1898330500.0 1.423583984375 -0.06646728515625
1903326000.0 1.4046630859375 -0.21112060546875
1908321500.0 1.3734130859375 -0.3519287109375
1913317000.0 1.330078125 -0.489013671875
1918312500.0 1.27484130859375 -0.622314453125
1923308000.0 1.20819091796875 -0.7501220703125
1928303500.0 1.1292724609375 -0.8736572265625
1933299000.0 1.03790283203125 -0.99029541015625
1938294500.0 0.93408203125 -1.0997314453125
1943290000.0 0.8179931640625 -1.20037841796875
1948285500.0 0.68951416015625 -1.29022216796875
1953281000.0 0.54913330078125 -1.36700439453125
1958276500.0 0.3980712890625 -1.4296875
1963272000.0 0.23760986328125 -1.47442626953125
1968267500.0 0.06964111328125 -1.500732421875
1973263000.0 -0.1016845703125 -1.50531005859375
1978258500.0 -0.274658203125 -1.48870849609375
1983254000.0 -0.4451904296875 -1.45037841796875
1988249500.0 -0.60968017578125 -1.38946533203125
1993245000.0 -0.7655029296875 -1.30889892578125
1998240500.0 -0.90850830078125 -1.20953369140625
2003236000.0 -1.03680419921875 -1.09454345703125
2008231500.0 -1.1485595703125 -0.96673583984375
2013227000.0 -1.2435302734375 -0.82769775390625
2018222500.0 -1.31982421875 -0.6817626953125
2023218000.0 -1.37921142578125 -0.530029296875
2028213500.0 -1.42083740234375 -0.375732421875
2033209000.0 -1.4464111328125 -0.22015380859375
2038204500.0 -1.45513916015625 -0.0648193359375
2043200000.0 -1.448974609375 0.0885009765625
2048195500.0 -1.427734375 0.2393798828125
2053191000.0 -1.39288330078125 0.3868408203125
2058186500.0 -1.34381103515625 0.52984619140625
2063182000.0 -1.28143310546875 0.66754150390625
2068177500.0 -1.2061767578125 0.79901123046875
2073173000.0 -1.11724853515625 0.92364501953125
2078168500.0 -1.01611328125 1.0389404296875
2083164000.0 -0.9017333984375 1.1448974609375
2088159500.0 -0.776123046875 1.23944091796875
2093155000.0 -0.6396484375 1.32073974609375
2098150500.0 -0.493408203125 1.38720703125
2103146000.0 -0.33892822265625 1.43719482421875
2108141500.0 -0.1785888671875 1.4691162109375
2113137000.0 -0.01422119140625 1.482421875
2118132500.0 0.15106201171875 1.47613525390625
2123128000.0 0.31427001953125 1.4498291015625
2128123500.0 0.4736328125 1.4049072265625
2133119000.0 0.62548828125 1.34130859375
2138114500.0 0.76824951171875 1.26129150390625
2143110000.0 0.89886474609375 1.16595458984375
2148105500.0 1.01715087890625 1.057373046875
2153101000.0 1.12115478515625 0.93817138671875
2158096500.0 1.21124267578125 0.80975341796875
2163092000.0 1.28643798828125 0.674072265625
2168087500.0 1.3460693359375 0.5338134765625
2173083000.0 1.3917236328125 0.3892822265625
2178078500.0 1.4228515625 0.2421875
2183074000.0 1.43951416015625 0.09375
2188069500.0 1.44256591796875 -0.05535888671875
2193065000.0 1.4315185546875 -0.20428466796875
