!Created with skrf (http://scikit-rf.org).
# Hz S RI R 50.0 
!freq ReS11 ImS11
45000000.0 -0.0816497802734375 -0.09300994873046875
49995500.0 -0.10225296020507812 -0.08893966674804688
54991000.0 -0.12282180786132812 -0.08084869384765625
59986500.0 -0.14109039306640625 -0.07855987548828125
64982000.0 -0.15997314453125 -0.06941986083984375
69977500.0 -0.17852020263671875 -0.055023193359375
74973000.0 -0.19599151611328125 -0.03717041015625
79968500.0 -0.21161651611328125 -0.0160980224609375
84964000.0 -0.22492218017578125 0.007720947265625
89959500.0 -0.23569488525390625 0.034942626953125
94955000.0 -0.24260711669921875 0.06462860107421875
99950500.0 -0.2454376220703125 0.09680938720703125
104946000.0 -0.24390411376953125 0.13060760498046875
109941500.0 -0.23751068115234375 0.16527557373046875
114937000.0 -0.22592926025390625 0.20044708251953125
119932500.0 -0.20917510986328125 0.23537445068359375
124928000.0 -0.1873931884765625 0.26898193359375
129923500.0 -0.15997314453125 0.3002777099609375
134919000.0 -0.12744140625 0.32867431640625
139914500.0 -0.090179443359375 0.3538970947265625
144910000.0 -0.0488128662109375 0.3741912841796875
149905500.0 -0.00360107421875 0.3896484375
154901000.0 0.0440826416015625 0.39947509765625
159896500.0 0.093719482421875 0.4025421142578125
164892000.0 0.14459228515625 0.399505615234375
169887500.0 0.195556640625 0.39019775390625
174883000.0 0.2463531494140625 0.3744354248046875
179878500.0 0.29559326171875 0.35162353515625
184874000.0 0.3426055908203125 0.322845458984375
189869500.0 0.387054443359375 0.28741455078125
194865000.0 0.4278564453125 0.2467193603515625
199860500.0 0.464141845703125 0.2005462646484375
204856000.0 0.494964599609375 0.14892578125
209851500.0 0.5203857421875 0.093109130859375
214847000.0 0.539794921875 0.033599853515625
219842500.0 0.552276611328125 -0.029541015625
224838000.0 0.557281494140625 -0.0950927734375
229833500.0 0.55474853515625 -0.162261962890625
234829000.0 0.54376220703125 -0.229736328125
239824500.0 0.524566650390625 -0.297576904296875
244820000.0 0.4965362548828125 -0.3639373779296875
249815500.0 0.4596405029296875 -0.427642822265625
254811000.0 0.4387359619140625 -0.4747467041015625
259806500.0 0.3887939453125 -0.531951904296875
264802000.0 0.331268310546875 -0.584136962890625
269797500.0 0.266143798828125 -0.6297607421875
274793000.0 0.195098876953125 -0.667633056640625
279788500.0 0.11871337890625 -0.696929931640625
284784000.0 0.03802490234375 -0.716339111328125
289779500.0 -0.045135498046875 -0.726959228515625
294775000.0 -0.13006591796875 -0.726593017578125
299770500.0 -0.215057373046875 -0.716583251953125
304766000.0 -0.299072265625 -0.696380615234375
309761500.0 -0.380462646484375 -0.66632080078125
314757000.0 -0.458831787109375 -0.626190185546875
319752500.0 -0.53253173828125 -0.577239990234375
324748000.0 -0.601165771484375 -0.519866943359375
329743500.0 -0.66351318359375 -0.4547119140625
334739000.0 -0.719390869140625 -0.38232421875
339734500.0 -0.76702880859375 -0.303070068359375
344730000.0 -0.8065185546875 -0.2181396484375
349725500.0 -0.837127685546875 -0.128143310546875
354721000.0 -0.85784912109375 -0.03411865234375
359716500.0 -0.86846923828125 0.063751220703125
364712000.0 -0.867645263671875 0.1636962890625
369707500.0 -0.855438232421875 0.265411376953125
374703000.0 -0.8309326171875 0.3671875
379698500.0 -0.79388427734375 0.466949462890625
384694000.0 -0.744384765625 0.56414794921875
389689500.0 -0.682159423828125 0.655914306640625
394685000.0 -0.6075439453125 0.74078369140625
399680500.0 -0.522064208984375 0.81707763671875
404676000.0 -0.426055908203125 0.88287353515625
409671500.0 -0.3216552734375 0.938018798828125
414667000.0 -0.210479736328125 0.977783203125
419662500.0 -0.09393310546875 1.0040283203125
424658000.0 0.02557373046875 1.015380859375
429653500.0 0.1473388671875 1.01104736328125
434649000.0 0.266815185546875 0.990509033203125
439644500.0 0.381317138671875 0.955657958984375
444640000.0 0.489837646484375 0.9088134765625
449635500.0 0.591766357421875 0.851043701171875
454631000.0 0.687744140625 0.783203125
459626500.0 0.77569580078125 0.704071044921875
464622000.0 0.854034423828125 0.61541748046875
469617500.0 0.921966552734375 0.519256591796875
474613000.0 0.97943115234375 0.416534423828125
479608500.0 1.02630615234375 0.308349609375
484604000.0 1.0621337890625 0.1951904296875
489599500.0 1.08648681640625 0.0780029296875
494595000.0 1.09918212890625 -0.042236328125
499590500.0 1.0992431640625 -0.1650390625
504586000.0 1.08660888671875 -0.2890625
509581500.0 1.06024169921875 -0.41326904296875
514577000.0 1.0194091796875 -0.5367431640625
519572500.0 0.96380615234375 -0.65765380859375
524568000.0 0.892486572265625 -0.774658203125
529563500.0 0.805511474609375 -0.88372802734375
534559000.0 0.703643798828125 -0.983642578125
539554500.0 0.587890625 -1.0703125
544550000.0 0.46044921875 -1.14263916015625
549545500.0 0.32373046875 -1.1981201171875
554541000.0 0.179443359375 -1.23614501953125
559536500.0 0.031982421875 -1.25579833984375
564532000.0 -0.117431640625 -1.25677490234375
569527500.0 -0.2659912109375 -1.23919677734375
574523000.0 -0.4112548828125 -1.20294189453125
579518500.0 -0.55029296875 -1.14935302734375
584514000.0 -0.6812744140625 -1.0792236328125
589509500.0 -0.80218505859375 -0.994842529296875
594505000.0 -0.911346435546875 -0.897003173828125
599500500.0 -1.00738525390625 -0.78839111328125
604496000.0 -1.0902099609375 -0.6707763671875
609491500.0 -1.15936279296875 -0.54608154296875
614487000.0 -1.21429443359375 -0.4158935546875
619482500.0 -1.25543212890625 -0.28167724609375
624478000.0 -1.28326416015625 -0.144287109375
629473500.0 -1.2969970703125 -0.00543212890625
634469000.0 -1.29693603515625 0.13458251953125
639464500.0 -1.28387451171875 0.27520751953125
644460000.0 -1.256591796875 0.41522216796875
649455500.0 -1.2152099609375 0.5538330078125
654451000.0 -1.1590576171875 0.69000244140625
659446500.0 -1.08819580078125 0.82275390625
664442000.0 -1.001708984375 0.9503173828125
669437500.0 -0.89935302734375 1.07098388671875
674433000.0 -0.7806396484375 1.18212890625
679428500.0 -0.64630126953125 1.2808837890625
684424000.0 -0.4970703125 1.36474609375
689419500.0 -0.334716796875 1.43060302734375
694415000.0 -0.1614990234375 1.47503662109375
699410500.0 0.0191650390625 1.4971923828125
704406000.0 0.2034912109375 1.4945068359375
709401500.0 0.38751220703125 1.465576171875
714397000.0 0.56646728515625 1.4119873046875
719392500.0 0.73626708984375 1.3345947265625
724388000.0 0.8934326171875 1.2357177734375
729383500.0 1.03466796875 1.1173095703125
734379000.0 1.15679931640625 0.982177734375
739374500.0 1.260009765625 0.835693359375
744370000.0 1.34246826171875 0.679443359375
749365500.0 1.40478515625 0.51861572265625
754361000.0 1.44793701171875 0.354736328125
759356500.0 1.471923828125 0.1898193359375
764352000.0 1.47833251953125 0.02655029296875
769347500.0 1.46771240234375 -0.1341552734375
774343000.0 1.441650390625 -0.29132080078125
779338500.0 1.39990234375 -0.44403076171875
784334000.0 1.34625244140625 -0.59112548828125
789329500.0 1.27801513671875 -0.7322998046875
794325000.0 1.1968994140625 -0.86712646484375
799320500.0 1.1026611328125 -0.994140625
804316000.0 0.9954833984375 -1.1129150390625
809311500.0 0.87591552734375 -1.2225341796875
814307000.0 0.74383544921875 -1.3203125
819302500.0 0.59918212890625 -1.40667724609375
824298000.0 0.44281005859375 -1.47686767578125
829293500.0 0.27740478515625 -1.53155517578125
834289000.0 0.1014404296875 -1.5667724609375
839284500.0 -0.079833984375 -1.58123779296875
844280000.0 -0.19830322265625 -1.6043701171875
849275500.0 -0.38739013671875 -1.58123779296875
854271000.0 -0.57440185546875 -1.53387451171875
859266500.0 -0.75439453125 -1.46160888671875
864262000.0 -0.92449951171875 -1.3663330078125
869257500.0 -1.0809326171875 -1.24969482421875
874253000.0 -1.220703125 -1.11395263671875
879248500.0 -1.341552734375 -0.9632568359375
884244000.0 -1.44195556640625 -0.799560546875
889239500.0 -1.5206298828125 -0.62701416015625
894235000.0 -1.57781982421875 -0.44891357421875
899230500.0 -1.6141357421875 -0.2677001953125
904226000.0 -1.63006591796875 -0.08502197265625
909221500.0 -1.6253662109375 0.0968017578125
914217000.0 -1.6007080078125 0.2755126953125
919212500.0 -1.5574951171875 0.4481201171875
924208000.0 -1.4969482421875 0.614013671875
929203500.0 -1.4210205078125 0.77056884765625
934199000.0 -1.33111572265625 0.91778564453125
939194500.0 -1.2269287109375 1.05584716796875
944190000.0 -1.1112060546875 1.1837158203125
949185500.0 -0.98309326171875 1.30072021484375
954181000.0 -0.84283447265625 1.40496826171875
959176500.0 -0.691162109375 1.49737548828125
964172000.0 -0.52838134765625 1.5751953125
969167500.0 -0.35479736328125 1.63641357421875
974163000.0 -0.17205810546875 1.679443359375
979158500.0 0.0184326171875 1.70281982421875
984154000.0 0.21405029296875 1.7037353515625
989149500.0 0.41265869140625 1.680419921875
994145000.0 0.60955810546875 1.63214111328125
999140500.0 0.80291748046875 1.55865478515625
1004136000.0 0.98626708984375 1.45989990234375
1009131500.0 1.15777587890625 1.3367919921875
1014127000.0 1.31134033203125 1.19146728515625
1019122500.0 1.44537353515625 1.02703857421875
1024118000.0 1.55615234375 0.84735107421875
1029113500.0 1.64251708984375 0.65582275390625
1034109000.0 1.703125 0.4566650390625
1039104500.0 1.73760986328125 0.2542724609375
1044100000.0 1.748046875 0.05120849609375
1049095500.0 1.7342529296875 -0.14825439453125
1054091000.0 1.697509765625 -0.3411865234375
1059086500.0 1.64080810546875 -0.5262451171875
1064082000.0 1.5662841796875 -0.7021484375
1069077500.0 1.47430419921875 -0.86651611328125
1074073000.0 1.36712646484375 -1.0186767578125
1079068500.0 1.2467041015625 -1.15887451171875
1084064000.0 1.113525390625 -1.28631591796875
1089059500.0 0.96868896484375 -1.39849853515625
1094055000.0 0.81341552734375 -1.49725341796875
1099050500.0 0.64788818359375 -1.58026123046875
1104046000.0 0.4737548828125 -1.646728515625
1109041500.0 0.29248046875 -1.6956787109375
1114037000.0 0.1046142578125 -1.7252197265625
1119032500.0 -0.08856201171875 -1.73565673828125
1124028000.0 -0.28411865234375 -1.7235107421875
1129023500.0 -0.48046875 -1.68890380859375
1134019000.0 -0.673828125 -1.63134765625
1139014500.0 -0.86151123046875 -1.54962158203125
1144010000.0 -1.04058837890625 -1.44488525390625
1149005500.0 -1.206787109375 -1.3172607421875
1154001000.0 -1.35614013671875 -1.16796875
1158996500.0 -1.4869384765625 -1.00042724609375
1163992000.0 -1.59478759765625 -0.8175048828125
1168987500.0 -1.67852783203125 -0.62188720703125
1173983000.0 -1.73590087890625 -0.41790771484375
1178978500.0 -1.7672119140625 -0.2091064453125
1183974000.0 -1.771728515625 -0.0003662109375
1188969500.0 -1.7506103515625 0.20452880859375
1193965000.0 -1.7052001953125 0.40325927734375
1198960500.0 -1.63739013671875 0.59161376953125
1203956000.0 -1.5498046875 0.76910400390625
1208951500.0 -1.44390869140625 0.93218994140625
1213947000.0 -1.32220458984375 1.079833984375
1218942500.0 -1.1873779296875 1.2117919921875
1223938000.0 -1.041259765625 1.3267822265625
1228933500.0 -0.8861083984375 1.42462158203125
1233929000.0 -0.7232666015625 1.5054931640625
1238924500.0 -0.55474853515625 1.56842041015625
1243920000.0 -0.38140869140625 1.61419677734375
1248915500.0 -0.2064208984375 1.64263916015625
1253911000.0 -0.02972412109375 1.65283203125
1258906500.0 0.14739990234375 1.64599609375
1263902000.0 0.323974609375 1.6220703125
1268897500.0 0.4959716796875 1.57861328125
1273893000.0 0.66357421875 1.517822265625
1278888500.0 0.82501220703125 1.43975830078125
1283884000.0 0.9793701171875 1.34454345703125
1288879500.0 1.12286376953125 1.23248291015625
1293875000.0 1.2542724609375 1.10406494140625
1298870500.0 1.37188720703125 0.9610595703125
1303866000.0 1.4739990234375 0.80462646484375
1308861500.0 1.557861328125 0.63714599609375
1313857000.0 1.6224365234375 0.4599609375
1318852500.0 1.6669921875 0.27557373046875
1323848000.0 1.6904296875 0.08648681640625
1328843500.0 1.69189453125 -0.1046142578125
1333839000.0 1.67120361328125 -0.29522705078125
1338834500.0 1.62872314453125 -0.48297119140625
1343830000.0 1.565185546875 -0.66424560546875
1348825500.0 1.48095703125 -0.83843994140625
1353821000.0 1.37677001953125 -1.001953125
1358816500.0 1.25439453125 -1.15289306640625
1363812000.0 1.11492919921875 -1.28839111328125
1368807500.0 0.960693359375 -1.40716552734375
1373803000.0 0.7930908203125 -1.50634765625
1378798500.0 0.6153564453125 -1.5853271484375
1383794000.0 0.4295654296875 -1.64312744140625
1388789500.0 0.23876953125 -1.67803955078125
1393785000.0 0.0462646484375 -1.69061279296875
1398780500.0 -0.14617919921875 -1.68048095703125
1403776000.0 -0.33416748046875 -1.64715576171875
1408771500.0 -0.51605224609375 -1.59326171875
1413767000.0 -0.689453125 -1.5189208984375
1418762500.0 -0.851318359375 -1.42620849609375
1423758000.0 -0.99981689453125 -1.31744384765625
1428753500.0 -1.13433837890625 -1.1939697265625
1433749000.0 -1.253662109375 -1.05780029296875
1438744500.0 -1.356201171875 -0.91119384765625
1443740000.0 -1.4422607421875 -0.75604248046875
1448735500.0 -1.51129150390625 -0.59423828125
1453731000.0 -1.56341552734375 -0.42724609375
1458726500.0 -1.59796142578125 -0.25665283203125
1463722000.0 -1.6153564453125 -0.0833740234375
1468717500.0 -1.615234375 0.09051513671875
1473713000.0 -1.5980224609375 0.2642822265625
1478708500.0 -1.5633544921875 0.43603515625
1483704000.0 -1.510498046875 0.60418701171875
1488699500.0 -1.44036865234375 0.76788330078125
1493695000.0 -1.3525390625 0.9254150390625
1498690500.0 -1.2464599609375 1.07427978515625
1503686000.0 -1.1234130859375 1.21124267578125
1508681500.0 -0.98333740234375 1.3367919921875
1513677000.0 -0.8282470703125 1.44647216796875
1518672500.0 -0.65771484375 1.53765869140625
1523668000.0 -0.47613525390625 1.60711669921875
1528663500.0 -0.28558349609375 1.6549072265625
1533659000.0 -0.08941650390625 1.67791748046875
1538654500.0 0.10906982421875 1.67572021484375
1543650000.0 0.30596923828125 1.64794921875
1548645500.0 0.49615478515625 1.59466552734375
1553641000.0 0.6759033203125 1.51800537109375
1558636500.0 0.84320068359375 1.42083740234375
1563632000.0 0.9951171875 1.3045654296875
1568627500.0 1.12872314453125 1.172607421875
1573623000.0 1.2440185546875 1.02838134765625
1578618500.0 1.33941650390625 0.8748779296875
1583614000.0 1.41558837890625 0.71490478515625
1588609500.0 1.47247314453125 0.55096435546875
1593605000.0 1.510498046875 0.3851318359375
1598600500.0 1.5318603515625 0.21917724609375
1603596000.0 1.53564453125 0.0555419921875
1608591500.0 1.52386474609375 -0.10638427734375
1613587000.0 1.496826171875 -0.2640380859375
1618582500.0 1.4556884765625 -0.41717529296875
1623578000.0 1.40087890625 -0.56573486328125
1628573500.0 1.33245849609375 -0.7069091796875
1633569000.0 1.250244140625 -0.84228515625
1638564500.0 1.15582275390625 -0.96942138671875
1643560000.0 1.04876708984375 -1.08795166015625
1648555500.0 0.928955078125 -1.196044921875
1653551000.0 0.7969970703125 -1.2930908203125
1658546500.0 0.65399169921875 -1.37615966796875
1663542000.0 0.50067138671875 -1.44378662109375
1668537500.0 0.33880615234375 -1.4951171875
1673533000.0 0.16973876953125 -1.52740478515625
1678528500.0 -0.00323486328125 -1.53997802734375
1683524000.0 -0.17828369140625 -1.53076171875
1688519500.0 -0.3514404296875 -1.5
1693515000.0 -0.52008056640625 -1.44793701171875
1698510500.0 -0.68096923828125 -1.375
1703506000.0 -0.82830810546875 -1.28472900390625
1708501500.0 -0.9632568359375 -1.17706298828125
1713497000.0 -1.08282470703125 -1.055419921875
1718492500.0 -1.1854248046875 -0.9224853515625
1723488000.0 -1.27069091796875 -0.7816162109375
1728483500.0 -1.3382568359375 -0.63507080078125
1733479000.0 -1.3887939453125 -0.48468017578125
1738474500.0 -1.42340087890625 -0.3326416015625
1743470000.0 -1.4422607421875 -0.18121337890625
1748465500.0 -1.4466552734375 -0.0308837890625
1753461000.0 -1.43670654296875 0.1177978515625
1758456500.0 -1.4141845703125 0.263671875
1763452000.0 -1.379150390625 0.4063720703125
1768447500.0 -1.3310546875 0.54486083984375
1773443000.0 -1.270751953125 0.67974853515625
1778438500.0 -1.198486328125 0.809814453125
1783434000.0 -1.11322021484375 0.93402099609375
1788429500.0 -1.0146484375 1.05126953125
1793425000.0 -0.9031982421875 1.16046142578125
1798420500.0 -0.7784423828125 1.26019287109375
1803416000.0 -0.640869140625 1.346923828125
1808411500.0 -0.4913330078125 1.41998291015625
1813407000.0 -0.33087158203125 1.47576904296875
1818402500.0 -0.16168212890625 1.5125732421875
1823398000.0 0.0135498046875 1.52850341796875
1828393500.0 0.19140625 1.52130126953125
1833389000.0 0.36822509765625 1.49102783203125
1838384500.0 0.5399169921875 1.4376220703125
1843380000.0 0.70269775390625 1.36199951171875
1848375500.0 0.853759765625 1.26641845703125
1853371000.0 0.989013671875 1.15435791015625
1858366500.0 1.10748291015625 1.02716064453125
1863362000.0 1.207275390625 0.8896484375
1868357500.0 1.2889404296875 0.743896484375
1873353000.0 1.35211181640625 0.59375
1878348500.0 1.397216796875 0.4410400390625
1883344000.0 1.425537109375 0.2874755859375
1888339500.0 1.43865966796875 0.1353759765625
1893335000.0 1.43695068359375 -0.01458740234375
1898330500.0 1.42156982421875 -0.16162109375
1903326000.0 1.39361572265625 -0.3052978515625
1908321500.0 1.353515625 -0.44464111328125
1913317000.0 1.30157470703125 -0.5797119140625
1918312500.0 1.23773193359375 -0.71014404296875
1923308000.0 1.16253662109375 -0.83563232421875
1928303500.0 1.07470703125 -0.95465087890625
1933299000.0 0.97467041015625 -1.0665283203125
1938294500.0 0.8621826171875 -1.1702880859375
1943290000.0 0.73834228515625 -1.26397705078125
1948285500.0 0.6011962890625 -1.34588623046875
1953281000.0 0.45367431640625 -1.41436767578125
1958276500.0 0.2962646484375 -1.465576171875
1963272000.0 0.130615234375 -1.498779296875
1968267500.0 -0.04058837890625 -1.5123291015625
1973263000.0 -0.21417236328125 -1.504150390625
1978258500.0 -0.38671875 -1.47369384765625
1983254000.0 -0.55560302734375 -1.42108154296875
1988249500.0 -0.71575927734375 -1.34759521484375
1993245000.0 -0.865234375 -1.25421142578125
1998240500.0 -1.00152587890625 -1.14337158203125
2003236000.0 -1.11993408203125 -1.01824951171875
2008231500.0 -1.22210693359375 -0.88134765625
2013227000.0 -1.305908203125 -0.7352294921875
2018222500.0 -1.371826171875 -0.583251953125
2023218000.0 -1.41900634765625 -0.427490234375
2028213500.0 -1.44964599609375 -0.26995849609375
2033209000.0 -1.46307373046875 -0.11285400390625
2038204500.0 -1.46075439453125 0.04278564453125
2043200000.0 -1.44378662109375 0.196044921875
2048195500.0 -1.41168212890625 0.34564208984375
2053191000.0 -1.36590576171875 0.49072265625
2058186500.0 -1.30615234375 0.63055419921875
2063182000.0 -1.23388671875 0.7646484375
2068177500.0 -1.1478271484375 0.8909912109375
2073173000.0 -1.049560546875 1.00958251953125
2078168500.0 -0.93878173828125 1.11773681640625
2083164000.0 -0.8160400390625 1.21630859375
2088159500.0 -0.68212890625 1.3013916015625
2093155000.0 -0.53839111328125 1.37200927734375
2098150500.0 -0.38641357421875 1.42669677734375
2103146000.0 -0.2274169921875 1.464599609375
2108141500.0 -0.0635986328125 1.4837646484375
2113137000.0 0.10205078125 1.483642578125
2118132500.0 0.266845703125 1.46380615234375
2123128000.0 0.4281005859375 1.42401123046875
2128123500.0 0.583251953125 1.366455078125
2133119000.0 0.72943115234375 1.29071044921875
2138114500.0 0.8648681640625 1.19940185546875
2143110000.0 0.988037109375 1.09405517578125
2148105500.0 1.09716796875 0.9766845703125
2153101000.0 1.191650390625 0.84991455078125
2158096500.0 1.27142333984375 0.71539306640625
2163092000.0 1.335693359375 0.57476806640625
2168087500.0 1.38519287109375 0.430419921875
2173083000.0 1.41986083984375 0.28289794921875
2178078500.0 1.4400634765625 0.13421630859375
2183074000.0 1.4459228515625 -0.015625
2188069500.0 1.438232421875 -0.16455078125
2193065000.0 1.416015625 -0.31268310546875
