!Created with skrf (http://scikit-rf.org).
# Hz S RI R 50.0 
!freq ReS11 ImS11
300000.0 -1.024464385 -0.160658961
5299970.0 -1.002918776 0.0081443532
10299940.0 -1.001100869 0.0123795567
15299910.0 -1.000506871 0.024030769
20299880.0 -1.000128681 0.028272118
25299850.0 -0.9995750393 0.0361761155
30299820.0 -0.9991628674 0.0441007256
35299790.0 -0.9986216199 0.0493545289
40299760.0 -0.9978452878 0.0557866211
45299730.0 -0.9973413944 0.0622453789
50299700.0 -0.9968221786 0.0694597131
55299670.0 -0.9957570716 0.0765327953
60299640.0 -0.9949698608 0.0829727172
65299610.0 -0.9942624621 0.0892967534
70299580.0 -0.9939147295 0.0962887042
75299550.0 -0.9927029637 0.102463992
80299520.0 -0.9922773728 0.108749544
85299490.0 -0.990726448 0.1154402061
90299460.0 -0.9897900657 0.1224447889
95299430.0 -0.9890917475 0.1283650878
100299400.0 -0.9885919271 0.1354768017
105299370.0 -0.9876708833 0.1425545399
110299340.0 -0.9861633205 0.1489890657
115299310.0 -0.9849436282 0.1552251665
120299280.0 -0.9837799335 0.1617819904
125299250.0 -0.9824630842 0.1679771748
130299220.0 -0.9814816149 0.1743244206
135299190.0 -0.9803522371 0.180973057
140299160.0 -0.9789181211 0.187518831
145299130.0 -0.9773887201 0.1935738224
150299100.0 -0.9762163122 0.1999422782
155299070.0 -0.9744898333 0.2063586863
160299040.0 -0.9730766278 0.213444752
165299010.0 -0.9713835738 0.2197419476
170298980.0 -0.9705145328 0.2261849244
175298950.0 -0.966830332 0.2319879817
180298920.0 -0.9643234988 0.2379064441
185298890.0 -0.9645198323 0.244302526
190298860.0 -0.9637083825 0.2518353423
195298830.0 -0.962359329 0.2581993319
200298800.0 -0.9603875167 0.2645246965
205298770.0 -0.958465909 0.2709911391
210298740.0 -0.9568907249 0.2772210211
215298710.0 -0.95520808 0.2835276476
220298680.0 -0.9525373852 0.2899820956
225298650.0 -0.9505401028 0.2963806424
230298620.0 -0.9491009564 0.3019950375
235298590.0 -0.9469051652 0.3082350903
240298560.0 -0.9447934599 0.3141776214
245298530.0 -0.9427722608 0.3209578149
250298500.0 -0.9407684508 0.327244281
255298470.0 -0.9387228911 0.3330143764
260298440.0 -0.9359892863 0.3397990081
265298410.0 -0.9334280564 0.3456402797
270298380.0 -0.9316369247 0.3520246699
275298350.0 -0.9295576399 0.3574848212
280298320.0 -0.9262064297 0.3634039405
285298290.0 -0.9239549657 0.3698751576
290298260.0 -0.9212396464 0.3766194915
295298230.0 -0.9188138128 0.38210153
300298200.0 -0.9167265779 0.3882613159
305298170.0 -0.9137760669 0.3940941115
310298140.0 -0.9106585869 0.4001718225
315298110.0 -0.9088994312 0.4067178231
320298080.0 -0.9056532405 0.4121905153
325298050.0 -0.9030597912 0.4180801337
330298020.0 -0.8998629148 0.4239347494
335297990.0 -0.8970489458 0.4296761502
340297960.0 -0.8942353087 0.4357246767
345297930.0 -0.8912507173 0.4419601714
350297900.0 -0.8894052125 0.4478447152
355297870.0 -0.8864493734 0.4539251089
360297840.0 -0.8831006813 0.4595890196
365297810.0 -0.8801700206 0.4650459854
370297780.0 -0.8768074683 0.4708310705
375297750.0 -0.8734669092 0.476650535
380297720.0 -0.8697947525 0.4820043882
385297690.0 -0.8666338189 0.488274682
390297660.0 -0.8637486985 0.4938863324
395297630.0 -0.8597902435 0.4991173506
400297600.0 -0.8570193907 0.5055592493
405297570.0 -0.8533244236 0.5112451499
410297540.0 -0.8492650931 0.5162139036
415297510.0 -0.8465447522 0.5215383387
420297480.0 -0.8429088143 0.5279417444
425297450.0 -0.8395293349 0.5333360842
430297420.0 -0.8356166741 0.5388889447
435297390.0 -0.8323884973 0.5437824695
440297360.0 -0.8289428643 0.5494270553
445297330.0 -0.8246761183 0.5547600146
450297300.0 -0.8212116414 0.560289848
455297270.0 -0.8172490745 0.5660577229
460297240.0 -0.8138339861 0.5712636668
465297210.0 -0.8093224488 0.5763172627
470297180.0 -0.8057738481 0.5812576276
475297150.0 -0.8024429177 0.5869671318
480297120.0 -0.7985776481 0.5925350735
485297090.0 -0.7944672402 0.5973425237
490297060.0 -0.7902843656 0.6027808072
495297030.0 -0.7869082064 0.6082270834
500297000.0 -0.7816049898 0.6131863888
505296970.0 -0.7787564606 0.6182671081
510296940.0 -0.7745471328 0.6235410723
515296910.0 -0.7709208531 0.6291231094
520296880.0 -0.7667401452 0.634444704
525296850.0 -0.762700519 0.639241877
530296820.0 -0.7582026137 0.6445098138
535296790.0 -0.7543579023 0.6490059151
540296760.0 -0.7492504192 0.6540532394
545296730.0 -0.7446582432 0.6587781058
550296700.0 -0.7404602746 0.6643777531
555296670.0 -0.7361222243 0.6681467534
560296640.0 -0.7316373992 0.6727139074
565296610.0 -0.726353762 0.6774976356
570296580.0 -0.7218505108 0.6827274003
575296550.0 -0.717425334 0.6874394297
580296520.0 -0.7125571224 0.6924976421
585296490.0 -0.7077471085 0.6971540517
590296460.0 -0.7038177761 0.7013171782
595296430.0 -0.6991721867 0.7058770979
600296400.0 -0.6941440265 0.7107716188
605296370.0 -0.6893548706 0.715200351
610296340.0 -0.684627288 0.7197707291
615296310.0 -0.6803112292 0.7233448125
620296280.0 -0.6754544964 0.7282840774
625296250.0 -0.6705670476 0.7327279544
630296220.0 -0.6654743717 0.7366561892
635296190.0 -0.6604635171 0.7409371603
640296160.0 -0.6559693402 0.7457273317
645296130.0 -0.6506253235 0.7493472384
650296100.0 -0.6457928299 0.7538862768
655296070.0 -0.6406610416 0.7582843545
660296040.0 -0.6355341176 0.7624871849
665296010.0 -0.6306240931 0.7668196027
670295980.0 -0.6252461312 0.7701704787
675295950.0 -0.6210079196 0.7748692601
680295920.0 -0.6147631501 0.7791980122
685295890.0 -0.6102219607 0.7831860369
690295860.0 -0.6053284042 0.7871451084
695295830.0 -0.5998017582 0.791336432
700295800.0 -0.594832866 0.7947645177
705295770.0 -0.58933178 0.7987361606
710295740.0 -0.5839900274 0.8024853044
715295710.0 -0.5789044891 0.8068214809
720295680.0 -0.5737539037 0.8101097853
725295650.0 -0.5677822919 0.8138721933
730295620.0 -0.5623735984 0.8179066824
735295590.0 -0.5574589292 0.8212427079
740295560.0 -0.5521848311 0.8249861691
745295530.0 -0.5465489955 0.8278481723
750295500.0 -0.5410630389 0.832272775
755295470.0 -0.5350168826 0.8356741305
760295440.0 -0.530032058 0.8388537177
765295410.0 -0.5241485813 0.8421675973
770295380.0 -0.5189354787 0.8454142109
775295350.0 -0.5125925157 0.8492707715
780295320.0 -0.5073910949 0.8528487401
785295290.0 -0.5019402004 0.8557881691
790295260.0 -0.4964464789 0.8594895946
795295230.0 -0.4899700096 0.8626346686
800295200.0 -0.4844526486 0.8652245216
805295170.0 -0.4789283585 0.868555541
810295140.0 -0.4732259373 0.8717248216
815295110.0 -0.4674925569 0.8743977351
820295080.0 -0.461136993 0.8777464694
825295050.0 -0.455829312 0.8806029972
830295020.0 -0.4497197595 0.883540848
835294990.0 -0.444046773 0.8868459408
840294960.0 -0.4379340853 0.8898290014
845294930.0 -0.4324419174 0.8923380348
850294900.0 -0.4263051571 0.8952695756
855294870.0 -0.4208167794 0.8981897808
860294840.0 -0.4149084075 0.90062107
865294810.0 -0.4083579107 0.9035543704
870294780.0 -0.4023716524 0.9059744306
875294750.0 -0.3969917781 0.9085948204
880294720.0 -0.3905826404 0.9106529997
885294690.0 -0.3846574104 0.9133403283
890294660.0 -0.3782627291 0.915753155
895294630.0 -0.3726127862 0.918471408
900294600.0 -0.3663268555 0.9212036681
905294570.0 -0.360317009 0.9223372831
910294540.0 -0.3545929625 0.9253799655
915294510.0 -0.3478363458 0.9272059042
920294480.0 -0.3414868875 0.9293930034
925294450.0 -0.3358930797 0.9315766913
930294420.0 -0.3297751537 0.9339745538
935294390.0 -0.3238060019 0.9358165143
940294360.0 -0.317559135 0.937316944
945294330.0 -0.311213489 0.9394264441
950294300.0 -0.3049834929 0.9420974212
955294270.0 -0.299180309 0.9440200597
960294240.0 -0.2924978302 0.9458286354
965294210.0 -0.2862990398 0.948085984
970294180.0 -0.2802167713 0.9497648923
975294150.0 -0.2736289818 0.9514066286
980294120.0 -0.2677261642 0.9529076914
985294090.0 -0.2616057336 0.9543683541
990294060.0 -0.254901854 0.9561813905
995294030.0 -0.2488975921 0.9578163841
1000294000.0 -0.2422698314 0.9598446674
1005293970.0 -0.2357987158 0.9615818106
1010293940.0 -0.2299880379 0.9628410152
1015293910.0 -0.2237484532 0.9641682163
1020293880.0 -0.2167187311 0.9657737305
1025293850.0 -0.2112156612 0.9667847128
1030293820.0 -0.204947961 0.9683717588
1035293790.0 -0.1983411311 0.969389922
1040293760.0 -0.191797324 0.9710941483
1045293730.0 -0.1854342902 0.9714707151
1050293700.0 -0.1783583409 0.9726530894
1055293670.0 -0.1718485921 0.9742931808
1060293640.0 -0.1660972063 0.975173178
1065293610.0 -0.1589980216 0.9761876848
1070293580.0 -0.1531601957 0.9771650709
1075293550.0 -0.1468517364 0.9783862652
1080293520.0 -0.1404945513 0.9792138268
1085293490.0 -0.1341237611 0.9802515424
1090293460.0 -0.1269789498 0.9806107666
1095293430.0 -0.1198668737 0.9815689709
1100293400.0 -0.1141280012 0.9828118908
1105293370.0 -0.1077514238 0.9829523605
1110293340.0 -0.1010260278 0.9840279641
1115293310.0 -0.094498259 0.9844219472
1120293280.0 -0.0884302303 0.9846060679
1125293250.0 -0.0826050752 0.9849787361
1130293220.0 -0.0759627573 0.9857122921
1135293190.0 -0.0695573062 0.9865043625
1140293160.0 -0.0628052272 0.9871014209
1145293130.0 -0.055953454 0.9875473109
1150293100.0 -0.0490354071 0.9877034793
1155293070.0 -0.0430045728 0.9877996593
1160293040.0 -0.0364610439 0.9877827048
1165293010.0 -0.0301639712 0.9886839915
1170292980.0 -0.0235988365 0.9885028482
1175292950.0 -0.0170123946 0.9880398211
1180292920.0 -0.0104422895 0.988429284
1185292890.0 -0.003997952 0.9882843368
1190292860.0 0.0023041661 0.9881822101
1195292830.0 0.0090053873 0.9884148252
1200292800.0 0.0149210497 0.9882742606
1205292770.0 0.0218730311 0.9884834358
1210292740.0 0.0280211868 0.9882106673
1215292710.0 0.0346800897 0.9877165351
1220292680.0 0.0412988639 0.9870224805
1225292650.0 0.0478618292 0.9867062153
1230292620.0 0.0541674255 0.9863092062
1235292590.0 0.0606484861 0.986475092
1240292560.0 0.0672043716 0.9856565877
1245292530.0 0.0731317984 0.9856412951
1250292500.0 0.0797244317 0.9850050906
1255292470.0 0.0868118577 0.9842519458
1260292440.0 0.0933935232 0.9835314493
1265292410.0 0.0992783544 0.9828044293
1270292380.0 0.1055459326 0.982460837
1275292350.0 0.1121145358 0.9810970255
1280292320.0 0.1186019845 0.980890304
1285292290.0 0.1257112716 0.9796130417
1290292260.0 0.1318871872 0.9787868812
1295292230.0 0.1380769188 0.978437303
1300292200.0 0.1446004525 0.9774170701
1305292170.0 0.1509862012 0.9763202007
1310292140.0 0.157641855 0.9751226281
1315292110.0 0.1638932815 0.9744093861
1320292080.0 0.1699816262 0.9732282258
1325292050.0 0.17677569 0.9716005646
1330292020.0 0.1833973227 0.9702777869
1335291990.0 0.1899028173 0.9695768677
1340291960.0 0.1965859884 0.9682576019
1345291930.0 0.2032145073 0.9665845594
1350291900.0 0.2088535826 0.9655226782
1355291870.0 0.214995896 0.964049581
1360291840.0 0.2215666829 0.9627292263
1365291810.0 0.2276912285 0.9608078493
1370291780.0 0.2340666665 0.9596628339
1375291750.0 0.2404611494 0.9579273524
1380291720.0 0.2461964953 0.9570596952
1385291690.0 0.2529207288 0.9543752615
1390291660.0 0.2594511863 0.953132056
1395291630.0 0.2657371232 0.9514959686
1400291600.0 0.2724272109 0.9493901457
1405291570.0 0.2791942158 0.9481920768
1410291540.0 0.2847431297 0.9457172729
1415291510.0 0.2906826425 0.9438335086
1420291480.0 0.2968546091 0.9421388979
1425291450.0 0.3028907093 0.9402849763
1430291420.0 0.3088453135 0.9385102029
1435291390.0 0.3151668474 0.9362367806
1440291360.0 0.3213372807 0.934293909
1445291330.0 0.3274352399 0.9318310502
1450291300.0 0.3330450527 0.9296814015
1455291270.0 0.3389526767 0.9274308061
1460291240.0 0.3460817718 0.9250340395
1465291210.0 0.351094453 0.9230198708
1470291180.0 0.357782084 0.9206802808
1475291150.0 0.3637963533 0.9186797757
1480291120.0 0.3699019332 0.9164953548
1485291090.0 0.3759732688 0.9128964713
1490291060.0 0.3822124519 0.9104377642
1495291030.0 0.3877387697 0.9085161949
1500291000.0 0.3939920881 0.9056274554
1505290970.0 0.3998464308 0.9034222286
1510290940.0 0.405591661 0.9008450145
1515290910.0 0.4114363511 0.8979411376
1520290880.0 0.4170262681 0.8947377077
1525290850.0 0.4232817782 0.8925136335
1530290820.0 0.4289989615 0.889523077
1535290790.0 0.4353599826 0.8864723324
1540290760.0 0.4410035104 0.8842886357
1545290730.0 0.4466890959 0.8806092238
1550290700.0 0.4529757704 0.8778395948
1555290670.0 0.458362013 0.8749211918
1560290640.0 0.4638119018 0.87175495
1565290610.0 0.4693920642 0.8690218643
1570290580.0 0.4753687088 0.8659969726
1575290550.0 0.4814455486 0.8626258202
1580290520.0 0.4866258693 0.8590798323
1585290490.0 0.4929508488 0.8557030734
1590290460.0 0.498324549 0.853118522
1595290430.0 0.5043836669 0.8496743119
1600290400.0 0.5100653691 0.846385243
1605290370.0 0.5148404744 0.843091799
1610290340.0 0.5202913221 0.8388905387
1615290310.0 0.5260823207 0.8358557227
1620290280.0 0.5310064883 0.8324417318
1625290250.0 0.5372822676 0.828906293
1630290220.0 0.5422183507 0.8253178385
1635290190.0 0.5480359573 0.8219097582
1640290160.0 0.5523578327 0.8180975024
1645290130.0 0.5580113479 0.8149175673
1650290100.0 0.5636981632 0.8107263833
1655290070.0 0.5693201855 0.8074947602
1660290040.0 0.5743420814 0.8030149467
1665290010.0 0.5793374883 0.7997405407
1670289980.0 0.5847843858 0.7961607954
1675289950.0 0.5899567981 0.7917476677
1680289920.0 0.5956321664 0.7882035451
1685289890.0 0.6006573424 0.7841136524
1690289860.0 0.6059665346 0.7797502158
1695289830.0 0.6111234463 0.775708451
1700289800.0 0.6163733487 0.7715377705
1705289770.0 0.6211662085 0.7677396705
1710289740.0 0.626216385 0.7634004225
1715289710.0 0.6314561199 0.7594217986
1720289680.0 0.6366788279 0.7547718988
1725289650.0 0.6408898878 0.7511755764
1730289620.0 0.6460925175 0.7466826379
1735289590.0 0.6506150198 0.7430506724
1740289560.0 0.656174924 0.7387887444
1745289530.0 0.6608126087 0.7337257293
1750289500.0 0.6658976617 0.7292632004
1755289470.0 0.6700462892 0.7256901136
1760289440.0 0.6747001392 0.7213582479
1765289410.0 0.6794443331 0.7168678929
1770289380.0 0.6847713442 0.7125342483
1775289350.0 0.6891116965 0.7079528652
1780289320.0 0.6936070227 0.7032921108
1785289290.0 0.6983881612 0.6992400862
1790289260.0 0.7029319428 0.6938969606
1795289230.0 0.7083069928 0.6894741803
1800289200.0 0.7125425074 0.6843886907
1805289170.0 0.7171368817 0.6794408074
1810289140.0 0.7209632991 0.674757861
1815289110.0 0.7256865286 0.6709411646
1820289080.0 0.7297912768 0.6660795047
1825289050.0 0.7337168494 0.6612939242
1830289020.0 0.7384847036 0.6573452488
1835288990.0 0.74191017 0.6518224731
1840288960.0 0.7465867695 0.6470380299
1845288930.0 0.7507024685 0.6426630435
1850288900.0 0.7545882571 0.6370621706
1855288870.0 0.7584031628 0.6319166085
1860288840.0 0.7634820985 0.6271024963
1865288810.0 0.7679654257 0.6215117115
1870288780.0 0.7719524313 0.6168215867
1875288750.0 0.775888133 0.6110578276
1880288720.0 0.7805304413 0.606391015
1885288690.0 0.7847594527 0.6010250982
1890288660.0 0.7878256108 0.5953130813
1895288630.0 0.7921308551 0.5907042383
1900288600.0 0.7959805113 0.585595143
1905288570.0 0.7993407232 0.5801651033
1910288540.0 0.8035818533 0.575290689
1915288510.0 0.807315941 0.5698664134
1920288480.0 0.811352737 0.5638409433
1925288450.0 0.8149766986 0.5587913962
1930288420.0 0.8184915409 0.553562304
1935288390.0 0.8220754835 0.5476181545
1940288360.0 0.8257389869 0.542570265
1945288330.0 0.8290573066 0.536649978
1950288300.0 0.8332993172 0.5311628876
1955288270.0 0.8365804193 0.5254017538
1960288240.0 0.8398001404 0.5196336965
1965288210.0 0.8443503211 0.5139383708
1970288180.0 0.8473204782 0.5086255565
1975288150.0 0.8504000655 0.5036454992
1980288120.0 0.853031777 0.498304551
1985288090.0 0.8566030993 0.4927418806
1990288060.0 0.860169731 0.4875806444
1995288030.0 0.8629815074 0.4817557401
2000288000.0 0.866097144 0.4762419621
2005287970.0 0.8686571528 0.4706224514
2010287940.0 0.8719393939 0.4651649817
2015287910.0 0.8755412227 0.4590209564
2020287880.0 0.8782985914 0.4534737902
2025287850.0 0.8814382311 0.4479254229
2030287820.0 0.8836936687 0.4422209178
2035287790.0 0.8864833143 0.4363952286
2040287760.0 0.8896199269 0.4299681359
2045287730.0 0.8926904159 0.4242522276
2050287700.0 0.895399303 0.4181147676
2055287670.0 0.8977753641 0.4125087179
2060287640.0 0.9009055399 0.4069274062
2065287610.0 0.9032417931 0.4008110334
2070287580.0 0.9057293385 0.3947305975
2075287550.0 0.9084556781 0.3890553069
2080287520.0 0.9112061874 0.3832796668
2085287490.0 0.913622572 0.3768418297
2090287460.0 0.9158047846 0.3709321782
2095287430.0 0.9185901942 0.3647905686
2100287400.0 0.9206160331 0.3586658248
2105287370.0 0.9230814901 0.352642585
2110287340.0 0.9257707347 0.3468025829
2115287310.0 0.9282503232 0.3399483585
2120287280.0 0.9305939168 0.3342403764
2125287250.0 0.9326790895 0.327563901
2130287220.0 0.9338336566 0.3219455764
2135287190.0 0.936388774 0.3157678137
2140287160.0 0.9384536263 0.3102331706
2145287130.0 0.9410900049 0.303298113
2150287100.0 0.9428521986 0.2976883676
2155287070.0 0.9446501932 0.2917748086
2160287040.0 0.946258317 0.2849273442
2165287010.0 0.9478135598 0.2790248618
2170286980.0 0.9494549142 0.2727054282
2175286950.0 0.9521232414 0.2669130243
2180286920.0 0.9536861895 0.26052883
2185286890.0 0.955240407 0.2549060864
2190286860.0 0.956518237 0.2486256256
2195286830.0 0.958647696 0.2425749313
2200286800.0 0.9598316049 0.2365479377
2205286770.0 0.9611396049 0.2306231535
2210286740.0 0.9627530538 0.2246533744
2215286710.0 0.9642485058 0.2176974969
2220286680.0 0.965785435 0.2114882687
2225286650.0 0.9673133657 0.2048990183
2230286620.0 0.9687390153 0.198634757
2235286590.0 0.9696371458 0.1920525314
2240286560.0 0.9709608063 0.1855645859
2245286530.0 0.971990692 0.1787358921
2250286500.0 0.97395852 0.1731569286
2255286470.0 0.9744800459 0.166040446
2260286440.0 0.9757696465 0.1594134344
2265286410.0 0.9763713648 0.1527464975
2270286380.0 0.9771144442 0.1470613593
2275286350.0 0.9786609183 0.1404483363
2280286320.0 0.9786570123 0.1340741005
2285286290.0 0.9802840406 0.1273680601
2290286260.0 0.9812964604 0.1210566325
2295286230.0 0.9817322618 0.1143115009
2300286200.0 0.9824699421 0.1082157189
2305286170.0 0.9831204059 0.101613334
2310286140.0 0.9842034166 0.094740229
2315286110.0 0.984723891 0.0886045646
2320286080.0 0.9849538201 0.0816494014
2325286050.0 0.9855663039 0.0756744233
2330286020.0 0.9863737128 0.0693589926
2335285990.0 0.9863369865 0.0634159202
2340285960.0 0.9868740425 0.056495967
2345285930.0 0.9868145882 0.0500497272
2350285900.0 0.9876128454 0.0435200053
2355285870.0 0.9877560806 0.0372151952
2360285840.0 0.9876215943 0.0302504538
2365285810.0 0.9881231027 0.0237697836
2370285780.0 0.9876732284 0.017187278
2375285750.0 0.988519732 0.0112158562
2380285720.0 0.9883005293 0.0050203454
2385285690.0 0.9881811802 -0.0013789213
2390285660.0 0.9879201685 -0.0075278763
2395285630.0 0.9884178819 -0.014295522
2400285600.0 0.9877603385 -0.0212471964
2405285570.0 0.9874655888 -0.0268701246
2410285540.0 0.98759124 -0.0333451604
2415285510.0 0.987324322 -0.0394357138
2420285480.0 0.9868553425 -0.0460341898
2425285450.0 0.9864528167 -0.0525232077
2430285420.0 0.9866730923 -0.05905241
2435285390.0 0.9857794239 -0.065783915
2440285360.0 0.9853751314 -0.0713771962
2445285330.0 0.9853538633 -0.0782431548
2450285300.0 0.9844874249 -0.0846244484
2455285270.0 0.9840261114 -0.0911959163
2460285240.0 0.9834027794 -0.0977205302
2465285210.0 0.9828317759 -0.1039923587
2470285180.0 0.9814814372 -0.1106746057
2475285150.0 0.9806692234 -0.1172478923
2480285120.0 0.9803620365 -0.1235050462
2485285090.0 0.9792264435 -0.1297884695
2490285060.0 0.9785508574 -0.1364393086
2495285030.0 0.9769098618 -0.1428113628
2500285000.0 0.9766796505 -0.1498112032
2505284970.0 0.9753588288 -0.1560214497
2510284940.0 0.9747717842 -0.1624430818
2515284910.0 0.9731568626 -0.1689019427
2520284880.0 0.9718156601 -0.1750959896
2525284850.0 0.970797402 -0.1812090189
2530284820.0 0.9696297965 -0.1878168098
2535284790.0 0.9678421567 -0.1937891102
2540284760.0 0.9674526006 -0.1995740573
2545284730.0 0.9658950909 -0.206224642
2550284700.0 0.9638208976 -0.2129420025
2555284670.0 0.9625771316 -0.2186288755
2560284640.0 0.9609687245 -0.2253929958
