!Created with skrf (http://scikit-rf.org).
# Hz S RI R 50.0 
!freq ReS11 ImS11
45000000.0 -0.08164596557617188 -0.09284210205078125
49995500.0 -0.10227584838867188 -0.0885467529296875
54991000.0 -0.12281417846679688 -0.08038711547851562
59986500.0 -0.14111328125 -0.07843017578125
64982000.0 -0.15967559814453125 -0.06890869140625
69977500.0 -0.17806243896484375 -0.05457305908203125
74973000.0 -0.195343017578125 -0.03673553466796875
79968500.0 -0.21085357666015625 -0.0157623291015625
84964000.0 -0.22418212890625 0.0081329345703125
89959500.0 -0.23471832275390625 0.035125732421875
94955000.0 -0.24144744873046875 0.064910888671875
99950500.0 -0.2442474365234375 0.09694671630859375
104946000.0 -0.24283599853515625 0.13062286376953125
109941500.0 -0.23633575439453125 0.1651153564453125
114937000.0 -0.22480010986328125 0.2004241943359375
119932500.0 -0.20795440673828125 0.2351837158203125
124928000.0 -0.1859130859375 0.2685089111328125
129923500.0 -0.1585845947265625 0.2996826171875
134919000.0 -0.1262054443359375 0.328125
139914500.0 -0.0887908935546875 0.353179931640625
144910000.0 -0.0472564697265625 0.3734130859375
149905500.0 -0.002349853515625 0.3885040283203125
154901000.0 0.045166015625 0.398101806640625
159896500.0 0.095001220703125 0.400909423828125
164892000.0 0.1455230712890625 0.398193359375
169887500.0 0.1965484619140625 0.3885650634765625
174883000.0 0.247039794921875 0.372344970703125
179878500.0 0.2963714599609375 0.3494110107421875
184874000.0 0.343048095703125 0.3204345703125
189869500.0 0.3871917724609375 0.2848358154296875
194865000.0 0.4277496337890625 0.244140625
199860500.0 0.463897705078125 0.1977691650390625
204856000.0 0.4944000244140625 0.146240234375
209851500.0 0.519500732421875 0.090362548828125
214847000.0 0.53857421875 0.03082275390625
219842500.0 0.55078125 -0.0321044921875
224838000.0 0.55548095703125 -0.09771728515625
229833500.0 0.55255126953125 -0.164703369140625
234829000.0 0.541290283203125 -0.23193359375
239824500.0 0.521697998046875 -0.29962158203125
244820000.0 0.4932708740234375 -0.3656463623046875
249815500.0 0.4563446044921875 -0.4293212890625
254811000.0 0.435150146484375 -0.4752197265625
259806500.0 0.385009765625 -0.5323486328125
264802000.0 0.327301025390625 -0.584381103515625
269797500.0 0.262054443359375 -0.629638671875
274793000.0 0.19085693359375 -0.666595458984375
279788500.0 0.11419677734375 -0.694915771484375
284784000.0 0.033905029296875 -0.714385986328125
289779500.0 -0.04925537109375 -0.723480224609375
294775000.0 -0.13385009765625 -0.72332763671875
299770500.0 -0.218536376953125 -0.71282958984375
304766000.0 -0.302032470703125 -0.69219970703125
309761500.0 -0.383270263671875 -0.6614990234375
314757000.0 -0.46124267578125 -0.62103271484375
319752500.0 -0.534271240234375 -0.57159423828125
324748000.0 -0.60211181640625 -0.5140380859375
329743500.0 -0.6639404296875 -0.44866943359375
334739000.0 -0.719024658203125 -0.376251220703125
339734500.0 -0.76641845703125 -0.2967529296875
344730000.0 -0.805267333984375 -0.21173095703125
349725500.0 -0.834991455078125 -0.12188720703125
354721000.0 -0.855255126953125 -0.0279541015625
359716500.0 -0.86474609375 0.069610595703125
364712000.0 -0.86346435546875 0.16949462890625
369707500.0 -0.850372314453125 0.270416259765625
374703000.0 -0.825408935546875 0.371856689453125
379698500.0 -0.787506103515625 0.471405029296875
384694000.0 -0.737548828125 0.568115234375
389689500.0 -0.67474365234375 0.65936279296875
394685000.0 -0.59967041015625 0.743408203125
399680500.0 -0.513824462890625 0.818756103515625
404676000.0 -0.417510986328125 0.883392333984375
409671500.0 -0.3128662109375 0.937255859375
414667000.0 -0.201629638671875 0.976470947265625
419662500.0 -0.085205078125 1.00152587890625
424658000.0 0.0345458984375 1.01141357421875
429653500.0 0.15533447265625 1.0067138671875
434649000.0 0.274658203125 0.984893798828125
439644500.0 0.388519287109375 0.949371337890625
444640000.0 0.49615478515625 0.90167236328125
449635500.0 0.5975341796875 0.84320068359375
454631000.0 0.692657470703125 0.774566650390625
459626500.0 0.779876708984375 0.69464111328125
464622000.0 0.85711669921875 0.605682373046875
469617500.0 0.924102783203125 0.509124755859375
474613000.0 0.980712890625 0.406158447265625
479608500.0 1.02618408203125 0.2978515625
484604000.0 1.0611572265625 0.18450927734375
489599500.0 1.08428955078125 0.0675048828125
494595000.0 1.0958251953125 -0.05279541015625
499590500.0 1.0950927734375 -0.17529296875
504586000.0 1.08111572265625 -0.29888916015625
509581500.0 1.0535888671875 -0.4228515625
514577000.0 1.0115966796875 -0.54595947265625
519572500.0 0.95465087890625 -0.666351318359375
524568000.0 0.882293701171875 -0.782073974609375
529563500.0 0.794342041015625 -0.890350341796875
534559000.0 0.691314697265625 -0.988739013671875
539554500.0 0.57470703125 -1.07415771484375
544550000.0 0.44647216796875 -1.14520263671875
549545500.0 0.30914306640625 -1.198974609375
554541000.0 0.16534423828125 -1.23529052734375
559536500.0 0.017578125 -1.2528076171875
564532000.0 -0.131591796875 -1.25213623046875
569527500.0 -0.27978515625 -1.2327880859375
574523000.0 -0.42431640625 -1.1949462890625
579518500.0 -0.562744140625 -1.1397705078125
584514000.0 -0.6925048828125 -1.068359375
589509500.0 -0.811859130859375 -0.982177734375
594505000.0 -0.919403076171875 -0.8834228515625
599500500.0 -1.01434326171875 -0.773681640625
604496000.0 -1.095458984375 -0.65545654296875
609491500.0 -1.16259765625 -0.5302734375
614487000.0 -1.21636962890625 -0.39984130859375
619482500.0 -1.2557373046875 -0.26531982421875
624478000.0 -1.28173828125 -0.128173828125
629473500.0 -1.2938232421875 0.0107421875
634469000.0 -1.29248046875 0.15057373046875
639464500.0 -1.27740478515625 0.2908935546875
644460000.0 -1.2486572265625 0.4302978515625
649455500.0 -1.20550537109375 0.56842041015625
654451000.0 -1.1478271484375 0.7039794921875
659446500.0 -1.07513427734375 0.83575439453125
664442000.0 -0.9873046875 0.9620361328125
669437500.0 -0.88311767578125 1.08135986328125
674433000.0 -0.76287841796875 1.190673828125
679428500.0 -0.6273193359375 1.28765869140625
684424000.0 -0.4769287109375 1.369384765625
689419500.0 -0.31341552734375 1.4327392578125
694415000.0 -0.13946533203125 1.47491455078125
699410500.0 0.04132080078125 1.49383544921875
704406000.0 0.22552490234375 1.48822021484375
709401500.0 0.40887451171875 1.45654296875
714397000.0 0.5865478515625 1.39990234375
719392500.0 0.7552490234375 1.31964111328125
724388000.0 0.9102783203125 1.218505859375
729383500.0 1.0491943359375 1.0980224609375
734379000.0 1.169189453125 0.96124267578125
739374500.0 1.2694091796875 0.813720703125
744370000.0 1.34893798828125 0.65625
749365500.0 1.40838623046875 0.4952392578125
754361000.0 1.44891357421875 0.3314208984375
759356500.0 1.469970703125 0.1666259765625
764352000.0 1.47412109375 0.00360107421875
769347500.0 1.46124267578125 -0.1566162109375
774343000.0 1.43292236328125 -0.31280517578125
779338500.0 1.38916015625 -0.46478271484375
784334000.0 1.33349609375 -0.61029052734375
789329500.0 1.2630615234375 -0.75054931640625
794325000.0 1.18017578125 -0.8837890625
799320500.0 1.08465576171875 -1.009033203125
804316000.0 0.9755859375 -1.12603759765625
809311500.0 0.85394287109375 -1.2335205078125
814307000.0 0.72076416015625 -1.3297119140625
819302500.0 0.5748291015625 -1.4132080078125
824298000.0 0.41754150390625 -1.48101806640625
829293500.0 0.2508544921875 -1.5333251953125
834289000.0 0.07464599609375 -1.56524658203125
839284500.0 -0.10699462890625 -1.5765380859375
844280000.0 -0.2249755859375 -1.59625244140625
849275500.0 -0.4134521484375 -1.56964111328125
854271000.0 -0.5987548828125 -1.51885986328125
859266500.0 -0.77764892578125 -1.44384765625
864262000.0 -0.94549560546875 -1.34521484375
869257500.0 -1.09979248046875 -1.225830078125
874253000.0 -1.23651123046875 -1.088134765625
879248500.0 -1.3541259765625 -0.93536376953125
884244000.0 -1.4505615234375 -0.77056884765625
889239500.0 -1.52667236328125 -0.5968017578125
894235000.0 -1.5802001953125 -0.4185791015625
899230500.0 -1.613037109375 -0.23712158203125
904226000.0 -1.62518310546875 -0.0548095703125
909221500.0 -1.6168212890625 0.1259765625
914217000.0 -1.5892333984375 0.30364990234375
919212500.0 -1.5428466796875 0.47503662109375
924208000.0 -1.4793701171875 0.638427734375
929203500.0 -1.4014892578125 0.79351806640625
934199000.0 -1.30902099609375 0.9388427734375
939194500.0 -1.2032470703125 1.07427978515625
944190000.0 -1.085693359375 1.199951171875
949185500.0 -0.95599365234375 1.314208984375
954181000.0 -0.8143310546875 1.41650390625
959176500.0 -0.66107177734375 1.50543212890625
964172000.0 -0.4967041015625 1.580078125
969167500.0 -0.322021484375 1.638427734375
974163000.0 -0.13934326171875 1.6778564453125
979158500.0 0.05157470703125 1.6971435546875
984154000.0 0.2476806640625 1.694580078125
989149500.0 0.44500732421875 1.6671142578125
994145000.0 0.64093017578125 1.6151123046875
999140500.0 0.83245849609375 1.5372314453125
1004136000.0 1.0133056640625 1.4345703125
1009131500.0 1.18133544921875 1.30792236328125
1014127000.0 1.3319091796875 1.15960693359375
1019122500.0 1.4622802734375 0.9923095703125
1024118000.0 1.56842041015625 0.810791015625
1029113500.0 1.64984130859375 0.6177978515625
1034109000.0 1.70635986328125 0.41790771484375
1039104500.0 1.7362060546875 0.2158203125
1044100000.0 1.74151611328125 0.0135498046875
1049095500.0 1.7232666015625 -0.184326171875
1054091000.0 1.68292236328125 -0.37591552734375
1059086500.0 1.6231689453125 -0.55963134765625
1064082000.0 1.54473876953125 -0.73272705078125
1069077500.0 1.44989013671875 -0.8944091796875
1074073000.0 1.34027099609375 -1.04473876953125
1079068500.0 1.21746826171875 -1.18157958984375
1084064000.0 1.08172607421875 -1.30511474609375
1089059500.0 0.93524169921875 -1.4146728515625
1094055000.0 0.77777099609375 -1.51019287109375
1099050500.0 0.61077880859375 -1.58905029296875
1104046000.0 0.43603515625 -1.652099609375
1109041500.0 0.2535400390625 -1.69708251953125
1114037000.0 0.06463623046875 -1.7225341796875
1119032500.0 -0.1282958984375 -1.72772216796875
1124028000.0 -0.32354736328125 -1.7113037109375
1129023500.0 -0.51861572265625 -1.67236328125
1134019000.0 -0.710205078125 -1.61029052734375
1139014500.0 -0.8961181640625 -1.52386474609375
1144010000.0 -1.0726318359375 -1.41473388671875
1149005500.0 -1.23486328125 -1.2828369140625
1154001000.0 -1.38043212890625 -1.130126953125
1158996500.0 -1.5059814453125 -0.959716796875
1163992000.0 -1.60955810546875 -0.77386474609375
1168987500.0 -1.68768310546875 -0.57672119140625
1173983000.0 -1.739501953125 -0.37188720703125
1178978500.0 -1.7642822265625 -0.16357421875
1183974000.0 -1.7635498046875 0.04443359375
1188969500.0 -1.7374267578125 0.24786376953125
1193965000.0 -1.68707275390625 0.44427490234375
1198960500.0 -1.6148681640625 0.630615234375
1203956000.0 -1.5228271484375 0.803955078125
1208951500.0 -1.41363525390625 0.96392822265625
1213947000.0 -1.28887939453125 1.107421875
1218942500.0 -1.151123046875 1.2357177734375
1223938000.0 -1.00335693359375 1.347412109375
1228933500.0 -0.84613037109375 1.44134521484375
1233929000.0 -0.6822509765625 1.5174560546875
1238924500.0 -0.51324462890625 1.57598876953125
1243920000.0 -0.3394775390625 1.61700439453125
1248915500.0 -0.1646728515625 1.6412353515625
1253911000.0 0.0123291015625 1.64752197265625
1258906500.0 0.1888427734375 1.63616943359375
1263902000.0 0.3648681640625 1.6080322265625
1268897500.0 0.534912109375 1.560302734375
1273893000.0 0.701171875 1.495849609375
1278888500.0 0.86102294921875 1.4134521484375
1283884000.0 1.01202392578125 1.3140869140625
1288879500.0 1.15216064453125 1.198486328125
1293875000.0 1.28021240234375 1.06671142578125
1298870500.0 1.393798828125 0.9207763671875
1303866000.0 1.4910888671875 0.76177978515625
1308861500.0 1.57061767578125 0.59197998046875
1313857000.0 1.63055419921875 0.41314697265625
1318852500.0 1.66937255859375 0.2281494140625
1323848000.0 1.68731689453125 0.03826904296875
1328843500.0 1.6834716796875 -0.15240478515625
1333839000.0 1.6571044921875 -0.34161376953125
1338834500.0 1.60943603515625 -0.52825927734375
1343830000.0 1.5411376953125 -0.7076416015625
1348825500.0 1.451904296875 -0.87872314453125
1353821000.0 1.343017578125 -1.0389404296875
1358816500.0 1.2164306640625 -1.18548583984375
1363812000.0 1.07330322265625 -1.3167724609375
1368807500.0 0.91571044921875 -1.42938232421875
1373803000.0 0.7457275390625 -1.52447509765625
1378798500.0 0.566162109375 -1.59759521484375
1383794000.0 0.37921142578125 -1.64959716796875
1388789500.0 0.188232421875 -1.67919921875
1393785000.0 -0.0047607421875 -1.685546875
1398780500.0 -0.19573974609375 -1.6689453125
1403776000.0 -0.38226318359375 -1.63116455078125
1408771500.0 -0.56170654296875 -1.571044921875
1413767000.0 -0.732177734375 -1.49212646484375
1418762500.0 -0.890869140625 -1.3951416015625
1423758000.0 -1.03570556640625 -1.28228759765625
1428753500.0 -1.166259765625 -1.15472412109375
1433749000.0 -1.28082275390625 -1.0159912109375
1438744500.0 -1.37884521484375 -0.866943359375
1443740000.0 -1.46014404296875 -0.709716796875
1448735500.0 -1.5245361328125 -0.54632568359375
1453731000.0 -1.57110595703125 -0.378173828125
1458726500.0 -1.6007080078125 -0.2069091796875
1463722000.0 -1.61279296875 -0.03363037109375
1468717500.0 -1.60760498046875 0.14013671875
1473713000.0 -1.585205078125 0.31292724609375
1478708500.0 -1.54541015625 0.48297119140625
1483704000.0 -1.4876708984375 0.6505126953125
1488699500.0 -1.41265869140625 0.81219482421875
1493695000.0 -1.3197021484375 0.9666748046875
1498690500.0 -1.209228515625 1.11224365234375
1503686000.0 -1.0814208984375 1.2454833984375
1508681500.0 -0.9371337890625 1.36663818359375
1513677000.0 -0.77789306640625 1.47052001953125
1518672500.0 -0.6046142578125 1.55584716796875
1523668000.0 -0.42071533203125 1.6199951171875
1528663500.0 -0.22808837890625 1.660400390625
1533659000.0 -0.03106689453125 1.67596435546875
1538654500.0 0.16748046875 1.66668701171875
1543650000.0 0.36187744140625 1.631591796875
1548645500.0 0.55029296875 1.5716552734375
1553641000.0 0.72662353515625 1.48846435546875
1558636500.0 0.8897705078125 1.3857421875
1563632000.0 1.0361328125 1.26397705078125
1568627500.0 1.1646728515625 1.12811279296875
1573623000.0 1.27423095703125 0.98046875
1578618500.0 1.3634033203125 0.824951171875
1583614000.0 1.43341064453125 0.66290283203125
1588609500.0 1.4844970703125 0.49774169921875
1593605000.0 1.5174560546875 0.33148193359375
1598600500.0 1.5323486328125 0.166015625
1603596000.0 1.5308837890625 0.00225830078125
1608591500.0 1.51422119140625 -0.15802001953125
1613587000.0 1.481689453125 -0.31396484375
1618582500.0 1.436279296875 -0.4652099609375
1623578000.0 1.37628173828125 -0.61163330078125
1628573500.0 1.30328369140625 -0.75048828125
1633569000.0 1.217529296875 -0.88330078125
1638564500.0 1.11895751953125 -1.0069580078125
1643560000.0 1.007568359375 -1.121337890625
1648555500.0 0.88433837890625 -1.225830078125
1653551000.0 0.7493896484375 -1.31781005859375
1658546500.0 0.60333251953125 -1.39569091796875
1663542000.0 0.44775390625 -1.45855712890625
1668537500.0 0.28387451171875 -1.50384521484375
1673533000.0 0.113525390625 -1.5299072265625
1678528500.0 -0.0601806640625 -1.53558349609375
1683524000.0 -0.234619140625 -1.5196533203125
1688519500.0 -0.40631103515625 -1.48260498046875
1693515000.0 -0.572509765625 -1.42340087890625
1698510500.0 -0.72979736328125 -1.34466552734375
1703506000.0 -0.8731689453125 -1.2491455078125
1708501500.0 -1.0037841796875 -1.13616943359375
1713497000.0 -1.1185302734375 -1.0106201171875
1718492500.0 -1.21527099609375 -0.87493896484375
1723488000.0 -1.294677734375 -0.73126220703125
1728483500.0 -1.35699462890625 -0.58258056640625
1733479000.0 -1.4022216796875 -0.43121337890625
1738474500.0 -1.43084716796875 -0.2789306640625
1743470000.0 -1.4443359375 -0.127197265625
1748465500.0 -1.443115234375 0.0233154296875
1753461000.0 -1.42822265625 0.17059326171875
1758456500.0 -1.40069580078125 0.31524658203125
1763452000.0 -1.3603515625 0.4564208984375
1768447500.0 -1.3079833984375 0.59405517578125
1773443000.0 -1.242919921875 0.72601318359375
1778438500.0 -1.1654052734375 0.8536376953125
1783434000.0 -1.07568359375 0.9754638671875
1788429500.0 -0.97271728515625 1.0889892578125
1793425000.0 -0.85693359375 1.1953125
1798420500.0 -0.7279052734375 1.28961181640625
1803416000.0 -0.58648681640625 1.37158203125
1808411500.0 -0.4334716796875 1.43817138671875
1813407000.0 -0.27008056640625 1.48748779296875
1818402500.0 -0.099365234375 1.51739501953125
1823398000.0 0.0767822265625 1.5250244140625
1828393500.0 0.2545166015625 1.5101318359375
1833389000.0 0.42974853515625 1.47222900390625
1838384500.0 0.5989990234375 1.4107666015625
1843380000.0 0.7579345703125 1.32855224609375
1848375500.0 0.90386962890625 1.22662353515625
1853371000.0 1.0335693359375 1.10858154296875
1858366500.0 1.14599609375 0.9771728515625
1863362000.0 1.2403564453125 0.8358154296875
1868357500.0 1.31488037109375 0.68743896484375
1873353000.0 1.3712158203125 0.5355224609375
1878348500.0 1.41058349609375 0.3818359375
1883344000.0 1.4324951171875 0.2279052734375
1888339500.0 1.439453125 0.075927734375
1893335000.0 1.4322509765625 -0.07342529296875
1898330500.0 1.4112548828125 -0.21917724609375
1903326000.0 1.3778076171875 -0.36126708984375
1908321500.0 1.332763671875 -0.499267578125
1913317000.0 1.275634765625 -0.6319580078125
1918312500.0 1.206787109375 -0.7598876953125
1923308000.0 1.1263427734375 -0.88238525390625
1928303500.0 1.03363037109375 -0.9989013671875
1933299000.0 0.9288330078125 -1.10675048828125
1938294500.0 0.812255859375 -1.2066650390625
1943290000.0 0.68365478515625 -1.29547119140625
1948285500.0 0.54290771484375 -1.3719482421875
1953281000.0 0.39154052734375 -1.433349609375
1958276500.0 0.23095703125 -1.47821044921875
1963272000.0 0.0633544921875 -1.50421142578125
1968267500.0 -0.1087646484375 -1.50909423828125
1973263000.0 -0.28228759765625 -1.4925537109375
1978258500.0 -0.45379638671875 -1.45391845703125
1983254000.0 -0.6199951171875 -1.39324951171875
1988249500.0 -0.7767333984375 -1.31158447265625
1993245000.0 -0.9215087890625 -1.21136474609375
1998240500.0 -1.05145263671875 -1.09375
2003236000.0 -1.16448974609375 -0.9632568359375
2008231500.0 -1.25909423828125 -0.82208251953125
2013227000.0 -1.33599853515625 -0.67254638671875
2018222500.0 -1.3941650390625 -0.5181884765625
2023218000.0 -1.434326171875 -0.3609619140625
2028213500.0 -1.45751953125 -0.20263671875
2033209000.0 -1.46429443359375 -0.0452880859375
2038204500.0 -1.45465087890625 0.10968017578125
2043200000.0 -1.43048095703125 0.26153564453125
2048195500.0 -1.39202880859375 0.4095458984375
2053191000.0 -1.33953857421875 0.5517578125
2058186500.0 -1.27410888671875 0.6898193359375
2063182000.0 -1.1954345703125 0.81988525390625
2068177500.0 -1.1036376953125 0.9423828125
2073173000.0 -1.0003662109375 1.05670166015625
2078168500.0 -0.884033203125 1.160400390625
2083164000.0 -0.75701904296875 1.25146484375
2088159500.0 -0.619384765625 1.33062744140625
2093155000.0 -0.4718017578125 1.3944091796875
2098150500.0 -0.31719970703125 1.442138671875
2103146000.0 -0.15655517578125 1.47235107421875
2108141500.0 0.0079345703125 1.48321533203125
2113137000.0 0.1734619140625 1.47515869140625
2118132500.0 0.337158203125 1.44683837890625
2123128000.0 0.49554443359375 1.3992919921875
2128123500.0 0.64739990234375 1.3338623046875
2133119000.0 0.7896728515625 1.2513427734375
2138114500.0 0.9202880859375 1.15350341796875
2143110000.0 1.03741455078125 1.042724609375
2148105500.0 1.14031982421875 0.92047119140625
2153101000.0 1.22857666015625 0.7896728515625
2158096500.0 1.3016357421875 0.65179443359375
2163092000.0 1.359375 0.50909423828125
2168087500.0 1.40185546875 0.36260986328125
2173083000.0 1.4298095703125 0.21417236328125
2178078500.0 1.4429931640625 0.06463623046875
2183074000.0 1.4422607421875 -0.0855712890625
2188069500.0 1.42742919921875 -0.234130859375
2193065000.0 1.39837646484375 -0.381103515625
