!Created with skrf (http://scikit-rf.org).
# Hz S RI R 50.0 
!freq ReS11 ImS11
45000000.0 0.06923294067382812 0.0868682861328125
49995500.0 0.08827972412109375 0.08685684204101562
54991000.0 0.10857009887695312 0.08287429809570312
59986500.0 0.127410888671875 0.0840606689453125
64982000.0 0.14804840087890625 0.0777740478515625
69977500.0 0.1693115234375 0.06539154052734375
74973000.0 0.189788818359375 0.048919677734375
79968500.0 0.208251953125 0.0282135009765625
84964000.0 0.22434234619140625 0.003631591796875
89959500.0 0.2372894287109375 -0.02503204345703125
94955000.0 0.24521636962890625 -0.0563201904296875
99950500.0 0.2488861083984375 -0.0904388427734375
104946000.0 0.2471771240234375 -0.1257476806640625
109941500.0 0.2401580810546875 -0.16139984130859375
114937000.0 0.22747039794921875 -0.197479248046875
119932500.0 0.20947265625 -0.232177734375
124928000.0 0.186859130859375 -0.2651214599609375
129923500.0 0.1591339111328125 -0.295196533203125
134919000.0 0.126983642578125 -0.3227996826171875
139914500.0 0.090545654296875 -0.34649658203125
144910000.0 0.0504150390625 -0.366180419921875
149905500.0 0.0072021484375 -0.381378173828125
154901000.0 -0.0387725830078125 -0.3909149169921875
159896500.0 -0.08648681640625 -0.3951416015625
164892000.0 -0.135894775390625 -0.3937225341796875
169887500.0 -0.1861114501953125 -0.3857879638671875
174883000.0 -0.2364044189453125 -0.371490478515625
179878500.0 -0.2857666015625 -0.3507080078125
184874000.0 -0.333465576171875 -0.3229217529296875
189869500.0 -0.378448486328125 -0.288665771484375
194865000.0 -0.4200897216796875 -0.248504638671875
199860500.0 -0.457183837890625 -0.2021942138671875
204856000.0 -0.488250732421875 -0.1503143310546875
209851500.0 -0.513214111328125 -0.094146728515625
214847000.0 -0.5321044921875 -0.033905029296875
219842500.0 -0.543060302734375 0.029083251953125
224838000.0 -0.5465087890625 0.093841552734375
229833500.0 -0.54205322265625 0.15960693359375
234829000.0 -0.529510498046875 0.224884033203125
239824500.0 -0.5091552734375 0.2891845703125
244820000.0 -0.48126220703125 0.35125732421875
249815500.0 -0.44586181640625 0.410919189453125
254811000.0 -0.4266510009765625 0.453765869140625
259806500.0 -0.380828857421875 0.507354736328125
264802000.0 -0.328521728515625 0.556854248046875
269797500.0 -0.269500732421875 0.600982666015625
274793000.0 -0.205078125 0.638824462890625
279788500.0 -0.135345458984375 0.670135498046875
284784000.0 -0.06103515625 0.69415283203125
289779500.0 0.017425537109375 0.709991455078125
294775000.0 0.09930419921875 0.71697998046875
299770500.0 0.18316650390625 0.71478271484375
304766000.0 0.2681884765625 0.70269775390625
309761500.0 0.3531494140625 0.67950439453125
314757000.0 0.437042236328125 0.64532470703125
319752500.0 0.517486572265625 0.599884033203125
324748000.0 0.593414306640625 0.544158935546875
329743500.0 0.66357421875 0.477783203125
334739000.0 0.726226806640625 0.402069091796875
339734500.0 0.779144287109375 0.3173828125
344730000.0 0.8216552734375 0.225494384765625
349725500.0 0.852020263671875 0.12823486328125
354721000.0 0.870635986328125 0.027313232421875
359716500.0 0.876220703125 -0.07586669921875
364712000.0 0.86907958984375 -0.179473876953125
369707500.0 0.849029541015625 -0.282135009765625
374703000.0 0.81707763671875 -0.381561279296875
379698500.0 0.773590087890625 -0.47711181640625
384694000.0 0.719085693359375 -0.567413330078125
389689500.0 0.654632568359375 -0.650360107421875
394685000.0 0.581207275390625 -0.726226806640625
399680500.0 0.499664306640625 -0.794036865234375
404676000.0 0.410888671875 -0.852874755859375
409671500.0 0.315582275390625 -0.9036865234375
414667000.0 0.215240478515625 -0.942169189453125
419662500.0 0.109466552734375 -0.9705810546875
424658000.0 -0.0009765625 -0.988037109375
429653500.0 -0.114990234375 -0.993438720703125
434649000.0 -0.231231689453125 -0.98394775390625
439644500.0 -0.345855712890625 -0.961669921875
444640000.0 -0.459442138671875 -0.9268798828125
449635500.0 -0.570098876953125 -0.87872314453125
454631000.0 -0.67828369140625 -0.81719970703125
459626500.0 -0.78057861328125 -0.740447998046875
464622000.0 -0.873565673828125 -0.649017333984375
469617500.0 -0.955322265625 -0.543975830078125
474613000.0 -1.023193359375 -0.42803955078125
479608500.0 -1.0760498046875 -0.302490234375
484604000.0 -1.11181640625 -0.17034912109375
489599500.0 -1.129638671875 -0.03424072265625
494595000.0 -1.1287841796875 0.10345458984375
499590500.0 -1.10955810546875 0.23876953125
504586000.0 -1.0732421875 0.36883544921875
509581500.0 -1.02093505859375 0.49163818359375
514577000.0 -0.95489501953125 0.604949951171875
519572500.0 -0.877593994140625 0.707061767578125
524568000.0 -0.790802001953125 0.79833984375
529563500.0 -0.69757080078125 0.87762451171875
534559000.0 -0.599456787109375 0.946502685546875
539554500.0 -0.49755859375 1.0052490234375
544550000.0 -0.39154052734375 1.05548095703125
549545500.0 -0.28131103515625 1.0972900390625
554541000.0 -0.1656494140625 1.130126953125
559536500.0 -0.04559326171875 1.1529541015625
564532000.0 0.07928466796875 1.164306640625
569527500.0 0.20751953125 1.1624755859375
574523000.0 0.33837890625 1.14654541015625
579518500.0 0.46923828125 1.11614990234375
584514000.0 0.59906005859375 1.0701904296875
589509500.0 0.725341796875 1.0081787109375
594505000.0 0.84674072265625 0.930511474609375
599500500.0 0.96051025390625 0.83673095703125
604496000.0 1.06451416015625 0.7276611328125
609491500.0 1.15643310546875 0.6038818359375
614487000.0 1.23370361328125 0.467041015625
619482500.0 1.2935791015625 0.31842041015625
624478000.0 1.33416748046875 0.16168212890625
629473500.0 1.3533935546875 -0.00054931640625
634469000.0 1.35137939453125 -0.1663818359375
639464500.0 1.325927734375 -0.3297119140625
644460000.0 1.27911376953125 -0.48822021484375
649455500.0 1.2120361328125 -0.6392822265625
654451000.0 1.12677001953125 -0.7791748046875
659446500.0 1.02508544921875 -0.90533447265625
664442000.0 0.91015625 -1.016845703125
669437500.0 0.7847900390625 -1.11199951171875
674433000.0 0.65093994140625 -1.1910400390625
679428500.0 0.5111083984375 -1.25286865234375
684424000.0 0.3681640625 -1.29864501953125
689419500.0 0.22259521484375 -1.3291015625
694415000.0 0.07684326171875 -1.34375
699410500.0 -0.0677490234375 -1.3443603515625
704406000.0 -0.21112060546875 -1.3310546875
709401500.0 -0.3525390625 -1.30474853515625
714397000.0 -0.490966796875 -1.26507568359375
719392500.0 -0.62579345703125 -1.212646484375
724388000.0 -0.75677490234375 -1.1474609375
729383500.0 -0.88275146484375 -1.06878662109375
734379000.0 -1.00244140625 -0.97564697265625
739374500.0 -1.1148681640625 -0.86956787109375
744370000.0 -1.21746826171875 -0.74932861328125
749365500.0 -1.30902099609375 -0.61541748046875
754361000.0 -1.38714599609375 -0.46807861328125
759356500.0 -1.448486328125 -0.308349609375
764352000.0 -1.49090576171875 -0.1385498046875
769347500.0 -1.51214599609375 0.0390625
774343000.0 -1.50994873046875 0.22186279296875
779338500.0 -1.4844970703125 0.40496826171875
784334000.0 -1.43212890625 0.5855712890625
789329500.0 -1.355224609375 0.75848388671875
794325000.0 -1.255859375 0.91937255859375
799320500.0 -1.13592529296875 1.0653076171875
804316000.0 -0.99871826171875 1.19317626953125
809311500.0 -0.84722900390625 1.29986572265625
814307000.0 -0.68603515625 1.38543701171875
819302500.0 -0.51812744140625 1.44927978515625
824298000.0 -0.34600830078125 1.49072265625
829293500.0 -0.17547607421875 1.51348876953125
834289000.0 -0.00506591796875 1.51556396484375
839284500.0 0.16046142578125 1.49969482421875
844280000.0 0.26043701171875 1.49969482421875
849275500.0 0.41845703125 1.4593505859375
854271000.0 0.57025146484375 1.40460205078125
859266500.0 0.7152099609375 1.3365478515625
864262000.0 0.85284423828125 1.255126953125
869257500.0 0.9822998046875 1.160888671875
874253000.0 1.1021728515625 1.0552978515625
879248500.0 1.21246337890625 0.937744140625
884244000.0 1.312255859375 0.80926513671875
889239500.0 1.40081787109375 0.67022705078125
894235000.0 1.47662353515625 0.521484375
899230500.0 1.53973388671875 0.36273193359375
904226000.0 1.58721923828125 0.19354248046875
909221500.0 1.61676025390625 0.014892578125
914217000.0 1.6251220703125 -0.1708984375
919212500.0 1.6103515625 -0.36175537109375
924208000.0 1.57073974609375 -0.5521240234375
929203500.0 1.50616455078125 -0.73876953125
934199000.0 1.4166259765625 -0.91802978515625
939194500.0 1.302978515625 -1.08563232421875
944190000.0 1.16796875 -1.2371826171875
949185500.0 1.013671875 -1.3697509765625
954181000.0 0.84320068359375 -1.48089599609375
959176500.0 0.66156005859375 -1.567626953125
964172000.0 0.47259521484375 -1.629638671875
969167500.0 0.2786865234375 -1.66754150390625
974163000.0 0.08563232421875 -1.681396484375
979158500.0 -0.10479736328125 -1.67266845703125
984154000.0 -0.2900390625 -1.64312744140625
989149500.0 -0.46783447265625 -1.59429931640625
994145000.0 -0.63751220703125 -1.52838134765625
999140500.0 -0.797119140625 -1.44622802734375
1004136000.0 -0.9461669921875 -1.3497314453125
1009131500.0 -1.08514404296875 -1.240234375
1014127000.0 -1.2122802734375 -1.118408203125
1019122500.0 -1.327392578125 -0.98455810546875
1024118000.0 -1.4293212890625 -0.83935546875
1029113500.0 -1.51776123046875 -0.68353271484375
1034109000.0 -1.59130859375 -0.5179443359375
1039104500.0 -1.6485595703125 -0.34283447265625
1044100000.0 -1.6873779296875 -0.16070556640625
1049095500.0 -1.70654296875 0.02825927734375
1054091000.0 -1.704833984375 0.221923828125
1059086500.0 -1.6796875 0.416748046875
1064082000.0 -1.63134765625 0.6104736328125
1069077500.0 -1.55853271484375 0.80035400390625
1074073000.0 -1.4613037109375 0.98138427734375
1079068500.0 -1.34112548828125 1.1513671875
1084064000.0 -1.19891357421875 1.3050537109375
1089059500.0 -1.03759765625 1.43988037109375
1094055000.0 -0.86053466796875 1.552490234375
1099050500.0 -0.6705322265625 1.64105224609375
1104046000.0 -0.4722900390625 1.7047119140625
1109041500.0 -0.26959228515625 1.74200439453125
1114037000.0 -0.06610107421875 1.75421142578125
1119032500.0 0.13433837890625 1.74151611328125
1124028000.0 0.32965087890625 1.70660400390625
1129023500.0 0.5164794921875 1.65032958984375
1134019000.0 0.69384765625 1.5748291015625
1139014500.0 0.85906982421875 1.48199462890625
1144010000.0 1.0118408203125 1.37347412109375
1149005500.0 1.1507568359375 1.25079345703125
1154001000.0 1.27557373046875 1.1162109375
1158996500.0 1.3861083984375 0.97100830078125
1163992000.0 1.48052978515625 0.81585693359375
1168987500.0 1.55938720703125 0.652099609375
1173983000.0 1.6217041015625 0.48126220703125
1178978500.0 1.66650390625 0.30474853515625
1183974000.0 1.6929931640625 0.12353515625
1188969500.0 1.70147705078125 -0.060302734375
1193965000.0 1.6905517578125 -0.24603271484375
1198960500.0 1.65972900390625 -0.43096923828125
1203956000.0 1.60888671875 -0.6134033203125
1208951500.0 1.537109375 -0.79156494140625
1213947000.0 1.4453125 -0.9622802734375
1218942500.0 1.33355712890625 -1.12249755859375
1223938000.0 1.202880859375 -1.27130126953125
1228933500.0 1.054443359375 -1.404052734375
1233929000.0 0.89068603515625 -1.52001953125
1238924500.0 0.712890625 -1.61541748046875
1243920000.0 0.52410888671875 -1.690185546875
1248915500.0 0.32733154296875 -1.74090576171875
1253911000.0 0.12542724609375 -1.7686767578125
1258906500.0 -0.07879638671875 -1.77166748046875
1263902000.0 -0.2816162109375 -1.7508544921875
1268897500.0 -0.4798583984375 -1.7061767578125
1273893000.0 -0.66815185546875 -1.63836669921875
1278888500.0 -0.84869384765625 -1.5499267578125
1283884000.0 -1.01568603515625 -1.44134521484375
1288879500.0 -1.169677734375 -1.31573486328125
1293875000.0 -1.30755615234375 -1.1739501953125
1298870500.0 -1.42822265625 -1.01824951171875
1303866000.0 -1.530029296875 -0.85052490234375
1308861500.0 -1.61187744140625 -0.67376708984375
1313857000.0 -1.67437744140625 -0.4893798828125
1318852500.0 -1.71551513671875 -0.29931640625
1323848000.0 -1.7352294921875 -0.10723876953125
1328843500.0 -1.7342529296875 0.0855712890625
1333839000.0 -1.71087646484375 0.2763671875
1338834500.0 -1.66778564453125 0.4638671875
1343830000.0 -1.6043701171875 0.643798828125
1348825500.0 -1.52227783203125 0.81597900390625
1353821000.0 -1.4212646484375 0.977294921875
1358816500.0 -1.304443359375 1.1275634765625
1363812000.0 -1.1717529296875 1.2626953125
1368807500.0 -1.0260009765625 1.383056640625
1373803000.0 -0.86785888671875 1.4869384765625
1378798500.0 -0.69989013671875 1.57318115234375
1383794000.0 -0.52349853515625 1.64068603515625
1388789500.0 -0.340576171875 1.68951416015625
1393785000.0 -0.15264892578125 1.71868896484375
1398780500.0 0.0374755859375 1.7279052734375
1403776000.0 0.2279052734375 1.71588134765625
1408771500.0 0.41729736328125 1.68353271484375
1413767000.0 0.6033935546875 1.6302490234375
1418762500.0 0.78363037109375 1.55670166015625
1423758000.0 0.95556640625 1.46240234375
1428753500.0 1.11724853515625 1.34881591796875
1433749000.0 1.265869140625 1.21612548828125
1438744500.0 1.399658203125 1.06549072265625
1443740000.0 1.51458740234375 0.89923095703125
1448735500.0 1.60943603515625 0.71893310546875
1453731000.0 1.68218994140625 0.52764892578125
1458726500.0 1.73028564453125 0.32916259765625
1463722000.0 1.75396728515625 0.1251220703125
1468717500.0 1.75128173828125 -0.0792236328125
1473713000.0 1.72393798828125 -0.2803955078125
1478708500.0 1.67193603515625 -0.47467041015625
1483704000.0 1.59698486328125 -0.65972900390625
1488699500.0 1.501708984375 -0.831298828125
1493695000.0 1.388916015625 -0.988525390625
1498690500.0 1.25982666015625 -1.1292724609375
1503686000.0 1.1185302734375 -1.25262451171875
1508681500.0 0.96746826171875 -1.35699462890625
1513677000.0 0.80889892578125 -1.44287109375
1518672500.0 0.64422607421875 -1.51153564453125
1523668000.0 0.47711181640625 -1.56109619140625
1528663500.0 0.307861328125 -1.59405517578125
1533659000.0 0.13818359375 -1.61004638671875
1538654500.0 -0.03082275390625 -1.610107421875
1543650000.0 -0.19757080078125 -1.59368896484375
1548645500.0 -0.36175537109375 -1.562255859375
1553641000.0 -0.52215576171875 -1.51519775390625
1558636500.0 -0.678466796875 -1.453125
1563632000.0 -0.82818603515625 -1.37615966796875
1568627500.0 -0.9710693359375 -1.28350830078125
1573623000.0 -1.10546875 -1.1766357421875
1578618500.0 -1.22930908203125 -1.0538330078125
1583614000.0 -1.34051513671875 -0.91748046875
1588609500.0 -1.4383544921875 -0.76788330078125
1593605000.0 -1.5191650390625 -0.60595703125
1598600500.0 -1.5819091796875 -0.434326171875
1603596000.0 -1.62451171875 -0.2550048828125
1608591500.0 -1.64453125 -0.07037353515625
1613587000.0 -1.64361572265625 0.11651611328125
1618582500.0 -1.61883544921875 0.301025390625
1623578000.0 -1.57159423828125 0.48175048828125
1628573500.0 -1.50341796875 0.65496826171875
1633569000.0 -1.41522216796875 0.81695556640625
1638564500.0 -1.30926513671875 0.9659423828125
1643560000.0 -1.18853759765625 1.10003662109375
1648555500.0 -1.054443359375 1.21746826171875
1653551000.0 -0.91064453125 1.31817626953125
1658546500.0 -0.7586669921875 1.401123046875
1663542000.0 -0.6015625 1.466552734375
1668537500.0 -0.440673828125 1.51513671875
1673533000.0 -0.2783203125 1.546875
1678528500.0 -0.1146240234375 1.56280517578125
1683524000.0 0.04791259765625 1.5633544921875
1688519500.0 0.2095947265625 1.5478515625
1693515000.0 0.36895751953125 1.5185546875
1698510500.0 0.525390625 1.4739990234375
1703506000.0 0.67718505859375 1.41558837890625
1708501500.0 0.82421875 1.34307861328125
1713497000.0 0.966064453125 1.25482177734375
1718492500.0 1.10064697265625 1.15118408203125
1723488000.0 1.22607421875 1.03265380859375
1728483500.0 1.3408203125 0.8985595703125
1733479000.0 1.44158935546875 0.749267578125
1738474500.0 1.52691650390625 0.58599853515625
1743470000.0 1.59283447265625 0.41064453125
1748465500.0 1.636962890625 0.2257080078125
1753461000.0 1.657470703125 0.0338134765625
1758456500.0 1.65289306640625 -0.16033935546875
1763452000.0 1.62274169921875 -0.3533935546875
1768447500.0 1.567138671875 -0.54095458984375
1773443000.0 1.48822021484375 -0.7186279296875
1778438500.0 1.38726806640625 -0.882568359375
1783434000.0 1.26788330078125 -1.029541015625
1788429500.0 1.1331787109375 -1.158935546875
1793425000.0 0.98712158203125 -1.2679443359375
1798420500.0 0.83306884765625 -1.35723876953125
1803416000.0 0.6737060546875 -1.42706298828125
1808411500.0 0.51141357421875 -1.478271484375
1813407000.0 0.34906005859375 -1.51171875
1818402500.0 0.18719482421875 -1.52874755859375
1823398000.0 0.0279541015625 -1.53021240234375
1828393500.0 -0.1285400390625 -1.517578125
1833389000.0 -0.2818603515625 -1.4913330078125
1838384500.0 -0.431884765625 -1.45257568359375
1843380000.0 -0.5771484375 -1.4007568359375
1848375500.0 -0.71795654296875 -1.33575439453125
1853371000.0 -0.85382080078125 -1.25823974609375
1858366500.0 -0.9833984375 -1.16741943359375
1863362000.0 -1.1055908203125 -1.06304931640625
1868357500.0 -1.2193603515625 -0.94464111328125
1873353000.0 -1.32177734375 -0.813232421875
1878348500.0 -1.41192626953125 -0.66741943359375
1883344000.0 -1.48651123046875 -0.51025390625
1888339500.0 -1.5430908203125 -0.3419189453125
1893335000.0 -1.5789794921875 -0.1649169921875
1898330500.0 -1.59271240234375 0.01806640625
1903326000.0 -1.5828857421875 0.20330810546875
1908321500.0 -1.54888916015625 0.3858642578125
1913317000.0 -1.4910888671875 0.56304931640625
1918312500.0 -1.41107177734375 0.73028564453125
1923308000.0 -1.310546875 0.88446044921875
1928303500.0 -1.19268798828125 1.022705078125
1933299000.0 -1.06097412109375 1.1427001953125
1938294500.0 -0.91839599609375 1.2440185546875
1943290000.0 -0.7684326171875 1.3258056640625
1948285500.0 -0.61309814453125 1.38916015625
1953281000.0 -0.4560546875 1.43414306640625
1958276500.0 -0.29852294921875 1.4617919921875
1963272000.0 -0.1427001953125 1.4737548828125
1968267500.0 0.01055908203125 1.4698486328125
1973263000.0 0.1612548828125 1.452392578125
1978258500.0 0.30718994140625 1.42144775390625
1983254000.0 0.448974609375 1.377685546875
1988249500.0 0.58612060546875 1.32183837890625
1993245000.0 0.71661376953125 1.25372314453125
1998240500.0 0.8416748046875 1.17401123046875
2003236000.0 0.9580078125 1.08184814453125
2008231500.0 1.06671142578125 0.97808837890625
2013227000.0 1.16583251953125 0.86328125
2018222500.0 1.25311279296875 0.73773193359375
2023218000.0 1.328369140625 0.6021728515625
2028213500.0 1.38885498046875 0.45758056640625
2033209000.0 1.4342041015625 0.30596923828125
2038204500.0 1.46185302734375 0.1484375
2043200000.0 1.47088623046875 -0.01116943359375
2048195500.0 1.4622802734375 -0.1728515625
2053191000.0 1.43438720703125 -0.33184814453125
2058186500.0 1.38824462890625 -0.487060546875
2063182000.0 1.32476806640625 -0.63482666015625
2068177500.0 1.24517822265625 -0.77392578125
2073173000.0 1.1510009765625 -0.902099609375
2078168500.0 1.04425048828125 -1.01763916015625
2083164000.0 0.9267578125 -1.1201171875
2088159500.0 0.80023193359375 -1.2091064453125
2093155000.0 0.6663818359375 -1.28289794921875
2098150500.0 0.52716064453125 -1.3426513671875
2103146000.0 0.38372802734375 -1.3883056640625
2108141500.0 0.2374267578125 -1.41961669921875
2113137000.0 0.0894775390625 -1.43621826171875
2118132500.0 -0.05926513671875 -1.43890380859375
2123128000.0 -0.208251953125 -1.4278564453125
2128123500.0 -0.35595703125 -1.4024658203125
2133119000.0 -0.50128173828125 -1.362060546875
2138114500.0 -0.64385986328125 -1.30828857421875
2143110000.0 -0.781982421875 -1.239501953125
2148105500.0 -0.91473388671875 -1.155517578125
2153101000.0 -1.0391845703125 -1.0567626953125
2158096500.0 -1.15435791015625 -0.9432373046875
2163092000.0 -1.258056640625 -0.81591796875
2168087500.0 -1.34759521484375 -0.67523193359375
2173083000.0 -1.42144775390625 -0.52294921875
2178078500.0 -1.47686767578125 -0.36187744140625
2183074000.0 -1.51263427734375 -0.1929931640625
2188069500.0 -1.5274658203125 -0.0206298828125
2193065000.0 -1.52056884765625 0.15277099609375
