!Created with skrf (http://scikit-rf.org).
# Hz S RI R 50.0 
!freq ReS11 ImS11
45000000.0 -0.00374603271484375 -0.0009735822677612305
49995500.0 -0.004034996032714844 -0.0005986690521240234
54991000.0 -0.004256010055541992 -4.673004150390625e-05
59986500.0 -0.0045986175537109375 0.00016164779663085938
64982000.0 -0.004698038101196289 0.0006635189056396484
69977500.0 -0.004935026168823242 0.0011942386627197266
74973000.0 -0.0049436092376708984 0.0017290115356445312
79968500.0 -0.004982709884643555 0.0022516250610351562
84964000.0 -0.004849672317504883 0.0029439926147460938
89959500.0 -0.004509925842285156 0.003599882125854492
94955000.0 -0.004358053207397461 0.004125356674194336
99950500.0 -0.003926753997802734 0.004850149154663086
104946000.0 -0.003415822982788086 0.0052738189697265625
109941500.0 -0.002945423126220703 0.005705118179321289
114937000.0 -0.002358675003051758 0.006246328353881836
119932500.0 -0.0016012191772460938 0.006577491760253906
124928000.0 -0.0009095668792724609 0.006840944290161133
129923500.0 -0.00016021728515625 0.007076740264892578
134919000.0 0.0004634857177734375 0.00715947151184082
139914500.0 0.0013387203216552734 0.0071659088134765625
144910000.0 0.0021207332611083984 0.007093191146850586
149905500.0 0.0029532909393310547 0.0069849491119384766
154901000.0 0.0037162303924560547 0.006797313690185547
159896500.0 0.0046117305755615234 0.006399631500244141
164892000.0 0.005334138870239258 0.005964517593383789
169887500.0 0.006072521209716797 0.00547480583190918
174883000.0 0.0066874027252197266 0.0048635005950927734
179878500.0 0.0071909427642822266 0.004142284393310547
184874000.0 0.007750272750854492 0.003315448760986328
189869500.0 0.008183002471923828 0.0025687217712402344
194865000.0 0.008559703826904297 0.0016474723815917969
199860500.0 0.008848190307617188 0.0008182525634765625
204856000.0 0.008980751037597656 -0.00015163421630859375
209851500.0 0.009074211120605469 -0.0010395050048828125
214847000.0 0.008908271789550781 -0.0020236968994140625
219842500.0 0.00885152816772461 -0.0030608177185058594
224838000.0 0.008573532104492188 -0.004071712493896484
229833500.0 0.008237838745117188 -0.004930973052978516
234829000.0 0.007782936096191406 -0.00593113899230957
239824500.0 0.007161140441894531 -0.006720542907714844
244820000.0 0.0064465999603271484 -0.007571220397949219
249815500.0 0.005720615386962891 -0.008277416229248047
254811000.0 0.005313396453857422 -0.008770465850830078
259806500.0 0.004351615905761719 -0.009429931640625
264802000.0 0.0034036636352539062 -0.010013580322265625
269797500.0 0.0024747848510742188 -0.010390281677246094
274793000.0 0.0013442039489746094 -0.010713577270507812
279788500.0 0.0003256797790527344 -0.010946273803710938
284784000.0 -0.0009388923645019531 -0.011085987091064453
289779500.0 -0.00202178955078125 -0.010994434356689453
294775000.0 -0.0032782554626464844 -0.010816574096679688
299770500.0 -0.004360675811767578 -0.010653972625732422
304766000.0 -0.005566596984863281 -0.010190486907958984
309761500.0 -0.006503105163574219 -0.00965118408203125
314757000.0 -0.007737159729003906 -0.008997440338134766
319752500.0 -0.00861501693725586 -0.00823831558227539
324748000.0 -0.009560108184814453 -0.007352352142333984
329743500.0 -0.010347843170166016 -0.006321430206298828
334739000.0 -0.011187553405761719 -0.005299568176269531
339734500.0 -0.011751174926757812 -0.004250526428222656
344730000.0 -0.012165546417236328 -0.002930164337158203
349725500.0 -0.012497425079345703 -0.0016493797302246094
354721000.0 -0.012792110443115234 -0.0004367828369140625
359716500.0 -0.012778759002685547 0.0010457038879394531
364712000.0 -0.012809276580810547 0.0023403167724609375
369707500.0 -0.012485504150390625 0.003699779510498047
374703000.0 -0.01218557357788086 0.005017757415771484
379698500.0 -0.011640548706054688 0.006363868713378906
384694000.0 -0.011008262634277344 0.0075168609619140625
389689500.0 -0.010343074798583984 0.008798599243164062
394685000.0 -0.009357929229736328 0.00986623764038086
399680500.0 -0.00843191146850586 0.01083993911743164
404676000.0 -0.007224082946777344 0.011850357055664062
409671500.0 -0.005933284759521484 0.012553691864013672
414667000.0 -0.004753589630126953 0.013143539428710938
419662500.0 -0.0033178329467773438 0.013720989227294922
424658000.0 -0.0018978118896484375 0.014175891876220703
429653500.0 -0.0004138946533203125 0.01440286636352539
434649000.0 0.001224517822265625 0.014439582824707031
439644500.0 0.002692699432373047 0.014284610748291016
444640000.0 0.0042018890380859375 0.01399087905883789
449635500.0 0.005602359771728516 0.01357412338256836
454631000.0 0.007153511047363281 0.013021469116210938
459626500.0 0.008599281311035156 0.01234579086303711
464622000.0 0.009765148162841797 0.011464118957519531
469617500.0 0.011046886444091797 0.010356426239013672
474613000.0 0.012015342712402344 0.009213447570800781
479608500.0 0.013087749481201172 0.007927417755126953
484604000.0 0.013934612274169922 0.0066127777099609375
489599500.0 0.014694690704345703 0.0050640106201171875
494595000.0 0.015202045440673828 0.0036215782165527344
499590500.0 0.01560831069946289 0.0020117759704589844
504586000.0 0.01578998565673828 0.00043010711669921875
509581500.0 0.015791893005371094 -0.0012836456298828125
514577000.0 0.015729904174804688 -0.00286865234375
519572500.0 0.015308380126953125 -0.004437923431396484
524568000.0 0.014805316925048828 -0.006031036376953125
529563500.0 0.014239788055419922 -0.007637500762939453
534559000.0 0.013432502746582031 -0.009084701538085938
539554500.0 0.012532711029052734 -0.010390758514404297
544550000.0 0.011454105377197266 -0.011714458465576172
549545500.0 0.01038980484008789 -0.01287698745727539
554541000.0 0.00918722152709961 -0.01392221450805664
559536500.0 0.0076580047607421875 -0.01489400863647461
564532000.0 0.00618743896484375 -0.015735626220703125
569527500.0 0.0045413970947265625 -0.016388893127441406
574523000.0 0.0029239654541015625 -0.016876220703125
579518500.0 0.0011873245239257812 -0.017187118530273438
584514000.0 -0.000713348388671875 -0.017454147338867188
589509500.0 -0.0024280548095703125 -0.017347335815429688
594505000.0 -0.004248619079589844 -0.0170745849609375
599500500.0 -0.006053924560546875 -0.016767501831054688
604496000.0 -0.007816314697265625 -0.016153335571289062
609491500.0 -0.009482860565185547 -0.015371322631835938
614487000.0 -0.011073589324951172 -0.014371871948242188
619482500.0 -0.012601375579833984 -0.013255596160888672
624478000.0 -0.013926029205322266 -0.011897087097167969
629473500.0 -0.015181541442871094 -0.010542869567871094
634469000.0 -0.016282081604003906 -0.008989334106445312
639464500.0 -0.01729297637939453 -0.007279396057128906
644460000.0 -0.01800060272216797 -0.005520820617675781
649455500.0 -0.01861095428466797 -0.003795623779296875
654451000.0 -0.018965721130371094 -0.0018873214721679688
659446500.0 -0.01915454864501953 0.0001430511474609375
664442000.0 -0.019150733947753906 0.0021419525146484375
669437500.0 -0.01896953582763672 0.004120826721191406
674433000.0 -0.018426895141601562 0.006005287170410156
679428500.0 -0.01778888702392578 0.008006095886230469
684424000.0 -0.01700878143310547 0.009798049926757812
689419500.0 -0.015999794006347656 0.011640548706054688
694415000.0 -0.01487874984741211 0.013218402862548828
699410500.0 -0.013544559478759766 0.01474761962890625
704406000.0 -0.012063980102539062 0.016221046447753906
709401500.0 -0.010341644287109375 0.01735973358154297
714397000.0 -0.008550643920898438 0.018444061279296875
719392500.0 -0.0066375732421875 0.019286155700683594
724388000.0 -0.004708290100097656 0.020020484924316406
729383500.0 -0.002597808837890625 0.02052783966064453
734379000.0 -0.0005445480346679688 0.02082538604736328
739374500.0 0.0016241073608398438 0.02075958251953125
744370000.0 0.0037679672241210938 0.02064990997314453
749365500.0 0.0058078765869140625 0.020250320434570312
754361000.0 0.007871627807617188 0.019606590270996094
759356500.0 0.009924888610839844 0.01887989044189453
764352000.0 0.0118255615234375 0.017831802368164062
769347500.0 0.013638496398925781 0.016600608825683594
774343000.0 0.015376567840576172 0.015155792236328125
779338500.0 0.01696014404296875 0.01357269287109375
784334000.0 0.01825428009033203 0.011837005615234375
789329500.0 0.019468307495117188 0.01007843017578125
794325000.0 0.020395278930664062 0.008011817932128906
799320500.0 0.02116870880126953 0.0059413909912109375
804316000.0 0.021795272827148438 0.0037994384765625
809311500.0 0.022174835205078125 0.0015077590942382812
814307000.0 0.022301673889160156 -0.0006456375122070312
819302500.0 0.02225780487060547 -0.003021240234375
824298000.0 0.02184772491455078 -0.00524139404296875
829293500.0 0.021387100219726562 -0.007476806640625
834289000.0 0.020557403564453125 -0.009578704833984375
839284500.0 0.01957988739013672 -0.01152801513671875
844280000.0 0.01913928985595703 -0.012891769409179688
849275500.0 0.017915725708007812 -0.014841079711914062
854271000.0 0.01634979248046875 -0.016439437866210938
859266500.0 0.0146942138671875 -0.01823711395263672
864262000.0 0.012927055358886719 -0.019689559936523438
869257500.0 0.010900497436523438 -0.020977020263671875
874253000.0 0.008777618408203125 -0.021940231323242188
879248500.0 0.0066318511962890625 -0.022823333740234375
884244000.0 0.0043964385986328125 -0.023385047912597656
889239500.0 0.0020809173583984375 -0.02373981475830078
894235000.0 -0.00032138824462890625 -0.02412891387939453
899230500.0 -0.00263214111328125 -0.024147987365722656
904226000.0 -0.004992485046386719 -0.0239410400390625
909221500.0 -0.007427215576171875 -0.02340984344482422
914217000.0 -0.009847640991210938 -0.02264404296875
919212500.0 -0.011981010437011719 -0.0217132568359375
924208000.0 -0.014325141906738281 -0.020432472229003906
929203500.0 -0.016389846801757812 -0.01910686492919922
934199000.0 -0.01823711395263672 -0.017343521118164062
939194500.0 -0.02000141143798828 -0.015528678894042969
944190000.0 -0.021724700927734375 -0.013487815856933594
949185500.0 -0.023000717163085938 -0.011371612548828125
954181000.0 -0.024229049682617188 -0.009022712707519531
959176500.0 -0.024970054626464844 -0.006577491760253906
964172000.0 -0.025681495666503906 -0.003996849060058594
969167500.0 -0.025997161865234375 -0.001491546630859375
974163000.0 -0.026198387145996094 0.0011930465698242188
979158500.0 -0.026001930236816406 0.0038461685180664062
984154000.0 -0.02569103240966797 0.0064849853515625
989149500.0 -0.02492046356201172 0.009024620056152344
994145000.0 -0.023935317993164062 0.0115509033203125
999140500.0 -0.022840499877929688 0.013959884643554688
1004136000.0 -0.021422386169433594 0.01630687713623047
1009131500.0 -0.0196533203125 0.01834392547607422
1014127000.0 -0.017810821533203125 0.02037334442138672
1019122500.0 -0.015700340270996094 0.0221405029296875
1024118000.0 -0.013431549072265625 0.023801803588867188
1029113500.0 -0.011065483093261719 0.025000572204589844
1034109000.0 -0.008589744567871094 0.026108741760253906
1039104500.0 -0.005719184875488281 0.02698040008544922
1044100000.0 -0.0031156539916992188 0.027486801147460938
1049095500.0 -0.00046443939208984375 0.027769088745117188
1054091000.0 0.002422332763671875 0.027784347534179688
1059086500.0 0.005213737487792969 0.027467727661132812
1064082000.0 0.008077621459960938 0.026964187622070312
1069077500.0 0.010663986206054688 0.026155471801757812
1074073000.0 0.013319015502929688 0.02499866485595703
1079068500.0 0.015825271606445312 0.023474693298339844
1084064000.0 0.018218040466308594 0.02184581756591797
1089059500.0 0.020400047302246094 0.01998138427734375
1094055000.0 0.022260665893554688 0.017917633056640625
1099050500.0 0.024214744567871094 0.015622138977050781
1104046000.0 0.025641441345214844 0.013186454772949219
1109041500.0 0.026947975158691406 0.010457992553710938
1114037000.0 0.02787017822265625 0.0077648162841796875
1119032500.0 0.028603553771972656 0.004994392395019531
1124028000.0 0.028964996337890625 0.00213623046875
1129023500.0 0.029256820678710938 -0.000896453857421875
1134019000.0 0.02906036376953125 -0.004002571105957031
1139014500.0 0.02852630615234375 -0.006819725036621094
1144010000.0 0.027803421020507812 -0.009639739990234375
1149005500.0 0.026787757873535156 -0.012356758117675781
1154001000.0 0.025449752807617188 -0.01513671875
1158996500.0 0.02380847930908203 -0.017563819885253906
1163992000.0 0.022029876708984375 -0.01991748809814453
1168987500.0 0.019903182983398438 -0.02208232879638672
1173983000.0 0.017560958862304688 -0.024017333984375
1178978500.0 0.015172004699707031 -0.025674819946289062
1183974000.0 0.01250457763671875 -0.027164459228515625
1188969500.0 0.009715080261230469 -0.028379440307617188
1193965000.0 0.006882667541503906 -0.029203414916992188
1198960500.0 0.0038433074951171875 -0.0298919677734375
1203956000.0 0.0008745193481445312 -0.0300750732421875
1208951500.0 -0.002277374267578125 -0.0301513671875
1213947000.0 -0.005124092102050781 -0.029700279235839844
1218942500.0 -0.008027076721191406 -0.0290985107421875
1223938000.0 -0.010931015014648438 -0.02817821502685547
1228933500.0 -0.013702392578125 -0.027006149291992188
1233929000.0 -0.016414642333984375 -0.025484085083007812
1238924500.0 -0.018774986267089844 -0.02374553680419922
1243920000.0 -0.021131515502929688 -0.02196216583251953
1248915500.0 -0.023279190063476562 -0.019762039184570312
1253911000.0 -0.025046348571777344 -0.01738739013671875
1258906500.0 -0.026763916015625 -0.014811515808105469
1263902000.0 -0.028250694274902344 -0.012186050415039062
1268897500.0 -0.02930450439453125 -0.009271621704101562
1273893000.0 -0.030135154724121094 -0.006336212158203125
1278888500.0 -0.03069019317626953 -0.003448486328125
1283884000.0 -0.030991554260253906 -0.00029754638671875
1288879500.0 -0.030997276306152344 0.0027780532836914062
1293875000.0 -0.030508041381835938 0.0057544708251953125
1298870500.0 -0.02991008758544922 0.008849143981933594
1303866000.0 -0.029015541076660156 0.011751174926757812
1308861500.0 -0.027785301208496094 0.014691352844238281
1313857000.0 -0.026332855224609375 0.017327308654785156
1318852500.0 -0.024374008178710938 0.019910812377929688
1323848000.0 -0.02221202850341797 0.022272109985351562
1328843500.0 -0.020076751708984375 0.024509429931640625
1333839000.0 -0.017539024353027344 0.026546478271484375
1338834500.0 -0.014822006225585938 0.028131484985351562
1343830000.0 -0.011910438537597656 0.029501914978027344
1348825500.0 -0.008927345275878906 0.030681610107421875
1353821000.0 -0.0058135986328125 0.0314483642578125
1358816500.0 -0.0024871826171875 0.03196144104003906
1363812000.0 0.0006999969482421875 0.03193092346191406
1368807500.0 0.0038890838623046875 0.03187751770019531
1373803000.0 0.006984710693359375 0.03150367736816406
1378798500.0 0.010126113891601562 0.03058338165283203
1383794000.0 0.013202667236328125 0.02942371368408203
1388789500.0 0.016111373901367188 0.028032302856445312
1393785000.0 0.019083023071289062 0.026335716247558594
1398780500.0 0.02144908905029297 0.024359703063964844
1403776000.0 0.023868560791015625 0.022047042846679688
1408771500.0 0.0259552001953125 0.01956462860107422
1413767000.0 0.027785301208496094 0.016845703125
1418762500.0 0.0294189453125 0.014064788818359375
1423758000.0 0.03073596954345703 0.011078834533691406
1428753500.0 0.03166389465332031 0.007909774780273438
1433749000.0 0.0323638916015625 0.0047626495361328125
1438744500.0 0.03263664245605469 0.0014362335205078125
1443740000.0 0.03271484375 -0.001773834228515625
1448735500.0 0.03236961364746094 -0.005146026611328125
1453731000.0 0.031688690185546875 -0.00847625732421875
1458726500.0 0.030762672424316406 -0.01155853271484375
1463722000.0 0.029417037963867188 -0.01446533203125
1468717500.0 0.027794837951660156 -0.01737213134765625
1473713000.0 0.025893211364746094 -0.020227432250976562
1478708500.0 0.023734092712402344 -0.02264690399169922
1483704000.0 0.021371841430664062 -0.024805068969726562
1488699500.0 0.018779754638671875 -0.02683544158935547
1493695000.0 0.016028404235839844 -0.02850627899169922
1498690500.0 0.013121604919433594 -0.030037879943847656
1503686000.0 0.010028839111328125 -0.031244277954101562
1508681500.0 0.0067901611328125 -0.03203582763671875
1513677000.0 0.0036220550537109375 -0.03255462646484375
1518672500.0 0.00038909912109375 -0.03282356262207031
1523668000.0 -0.002872467041015625 -0.03249931335449219
1528663500.0 -0.006221771240234375 -0.03218841552734375
1533659000.0 -0.009385108947753906 -0.031235694885253906
1538654500.0 -0.01239013671875 -0.030176162719726562
1543650000.0 -0.015353202819824219 -0.028733253479003906
1548645500.0 -0.018144607543945312 -0.027065277099609375
1553641000.0 -0.02059459686279297 -0.025162696838378906
1558636500.0 -0.02299785614013672 -0.022805213928222656
1563632000.0 -0.025182723999023438 -0.020501136779785156
1568627500.0 -0.027072906494140625 -0.017884254455566406
1573623000.0 -0.028685569763183594 -0.015028953552246094
1578618500.0 -0.029976844787597656 -0.012176513671875
1583614000.0 -0.030918121337890625 -0.009179115295410156
1588609500.0 -0.03172492980957031 -0.0061206817626953125
1593605000.0 -0.03200721740722656 -0.0029087066650390625
1598600500.0 -0.03202056884765625 0.000316619873046875
1603596000.0 -0.03179931640625 0.003513336181640625
1608591500.0 -0.03134727478027344 0.0065326690673828125
1613587000.0 -0.030492782592773438 0.00946807861328125
1618582500.0 -0.029333114624023438 0.012469291687011719
1623578000.0 -0.027945518493652344 0.015288352966308594
1628573500.0 -0.026187896728515625 0.017729759216308594
1633569000.0 -0.024260520935058594 0.020340919494628906
1638564500.0 -0.022340774536132812 0.022525787353515625
1643560000.0 -0.019944190979003906 0.02454376220703125
1648555500.0 -0.017442703247070312 0.026445388793945312
1653551000.0 -0.014786720275878906 0.027988433837890625
1658546500.0 -0.012053489685058594 0.02921295166015625
1663542000.0 -0.009190559387207031 0.030284881591796875
1668537500.0 -0.006108283996582031 0.030881881713867188
1673533000.0 -0.0032138824462890625 0.03132438659667969
1678528500.0 -4.00543212890625e-05 0.03150367736816406
1683524000.0 0.003093719482421875 0.03131103515625
1688519500.0 0.006096839904785156 0.03093719482421875
1693515000.0 0.009070396423339844 0.030213356018066406
1698510500.0 0.011999130249023438 0.02925872802734375
1703506000.0 0.014772415161132812 0.027742385864257812
1708501500.0 0.017432212829589844 0.026238441467285156
1713497000.0 0.01987457275390625 0.024361610412597656
1718492500.0 0.022146224975585938 0.02232837677001953
1723488000.0 0.02423095703125 0.019954681396484375
1728483500.0 0.026085853576660156 0.01735973358154297
1733479000.0 0.027683258056640625 0.014838218688964844
1738474500.0 0.028926849365234375 0.012059211730957031
1743470000.0 0.030014991760253906 0.00917816162109375
1748465500.0 0.03075885772705078 0.006115913391113281
1753461000.0 0.031096458435058594 0.00308990478515625
1758456500.0 0.031195640563964844 2.384185791015625e-05
1763452000.0 0.03108692169189453 -0.00296783447265625
1768447500.0 0.030541419982910156 -0.0060482025146484375
1773443000.0 0.029793739318847656 -0.009058952331542969
1778438500.0 0.028667449951171875 -0.011822700500488281
1783434000.0 0.027387619018554688 -0.014492034912109375
1788429500.0 0.02573871612548828 -0.017152786254882812
1793425000.0 0.023876190185546875 -0.019481658935546875
1798420500.0 0.02176666259765625 -0.021852493286132812
1803416000.0 0.019623756408691406 -0.023766517639160156
1808411500.0 0.017202377319335938 -0.025409698486328125
1813407000.0 0.014468193054199219 -0.02704143524169922
1818402500.0 0.011793136596679688 -0.028287887573242188
1823398000.0 0.008971214294433594 -0.0291595458984375
1828393500.0 0.0059986114501953125 -0.029906272888183594
1833389000.0 0.0031232833862304688 -0.030241966247558594
1838384500.0 0.00022602081298828125 -0.030333518981933594
1843380000.0 -0.0028934478759765625 -0.030121803283691406
1848375500.0 -0.0057201385498046875 -0.029549598693847656
