!Created with skrf (http://scikit-rf.org).
# Hz S RI R 50.0 
!freq ReS11 ImS11
300000.0 1.002831668 0.0014322914
5299970.0 1.005771822 -0.0028059925
10299940.0 1.00478527 -0.003474173
15299910.0 1.005033983 -0.0046628964
20299880.0 1.005454079 -0.0056169586
25299850.0 1.004909541 -0.0066992755
30299820.0 1.005004878 -0.0079352451
35299790.0 1.005192244 -0.009028751
40299760.0 1.005256837 -0.0102308439
45299730.0 1.005056384 -0.0115760759
50299700.0 1.005237764 -0.0124397217
55299670.0 1.005213994 -0.013356709
60299640.0 1.004883743 -0.0149329121
65299610.0 1.004791542 -0.0158394802
70299580.0 1.005089689 -0.0161557414
75299550.0 1.0048571 -0.0178776946
80299520.0 1.005073644 -0.0187303368
85299490.0 1.004909272 -0.0196779236
90299460.0 1.004654893 -0.0211023886
95299430.0 1.005375662 -0.0217157318
100299400.0 1.004554041 -0.0228249935
105299370.0 1.005021983 -0.0240425992
110299340.0 1.004714331 -0.0251028669
115299310.0 1.004742475 -0.0268103288
120299280.0 1.004819918 -0.0274221925
125299250.0 1.00498336 -0.0284643433
130299220.0 1.004604748 -0.0291382199
135299190.0 1.004654157 -0.030017554
140299160.0 1.004411515 -0.0313369938
145299130.0 1.004051993 -0.0327641179
150299100.0 1.003810448 -0.0333342895
155299070.0 1.004575302 -0.0347637291
160299040.0 1.004835434 -0.0360589959
165299010.0 1.003789908 -0.0363189967
170298980.0 1.00410028 -0.037950771
175298950.0 1.003095652 -0.0389517017
180298920.0 1.002447336 -0.0401097034
185298890.0 1.003334291 -0.0412201098
190298860.0 1.003554903 -0.0417323882
195298830.0 1.003811232 -0.0428135484
200298800.0 1.004174718 -0.0443771234
205298770.0 1.003497712 -0.0453963843
210298740.0 1.003504568 -0.0466908793
215298710.0 1.003210582 -0.0473213932
220298680.0 1.003528972 -0.0483420085
225298650.0 1.003351703 -0.049710252
230298620.0 1.003345933 -0.0505568296
235298590.0 1.003060869 -0.0521558486
240298560.0 1.003374877 -0.0523617486
245298530.0 1.002813917 -0.0533883302
250298500.0 1.002729393 -0.0551705665
255298470.0 1.002928214 -0.0558650529
260298440.0 1.003140355 -0.0573176851
265298410.0 1.00245024 -0.0582842853
270298380.0 1.002476264 -0.0586656658
275298350.0 1.002252277 -0.0598877935
280298320.0 1.002719946 -0.0608212016
285298290.0 1.002298465 -0.0617360983
290298260.0 1.002263278 -0.0629370143
295298230.0 1.001988379 -0.0634400362
300298200.0 1.001578171 -0.064815796
305298170.0 1.001899245 -0.066555495
310298140.0 1.002186769 -0.0670122975
315298110.0 1.001684736 -0.0684626849
320298080.0 1.001654172 -0.0691460416
325298050.0 1.001745085 -0.0704138117
330298020.0 1.001750873 -0.0712545198
335297990.0 1.000714642 -0.072779678
340297960.0 1.001026519 -0.0733345394
345297930.0 1.00110242 -0.074537324
350297900.0 1.00218006 -0.075527296
355297870.0 1.002445874 -0.0767156577
360297840.0 1.002513171 -0.0781906711
365297810.0 1.001486585 -0.0788534994
370297780.0 1.001460474 -0.0800893684
375297750.0 1.000137039 -0.0804279304
380297720.0 1.000269968 -0.081811099
385297690.0 0.9999915104 -0.0829377092
390297660.0 1.000007492 -0.0837296153
395297630.0 0.9999876102 -0.0851047903
400297600.0 0.9994924822 -0.0859050453
405297570.0 0.9992053531 -0.0870637262
410297540.0 0.9993719199 -0.0880437422
415297510.0 0.9991795858 -0.089100065
420297480.0 0.9994480258 -0.0897107943
425297450.0 0.9992751881 -0.0911352455
430297420.0 0.9987867417 -0.0920766453
435297390.0 0.998761977 -0.0933921065
440297360.0 0.9986228826 -0.0942263398
445297330.0 0.9990698079 -0.0951997379
450297300.0 0.9986402041 -0.0962388977
455297270.0 0.9986545371 -0.0974517871
460297240.0 0.9986188807 -0.0980416964
465297210.0 0.9983763759 -0.099286981
470297180.0 0.9984455098 -0.1005652276
475297150.0 0.9978629132 -0.1010360633
480297120.0 0.9975595992 -0.1022771421
485297090.0 0.9975689913 -0.1035771734
490297060.0 0.9981704659 -0.1046390916
495297030.0 0.9974112393 -0.1057761977
500297000.0 0.997599975 -0.1066097054
505296970.0 0.9979080658 -0.1082271686
510296940.0 0.9968175469 -0.1093702662
515296910.0 0.9970792897 -0.1102869902
520296880.0 0.99668593 -0.111185433
525296850.0 0.9963907795 -0.1120440767
530296820.0 0.9965924685 -0.1134991742
535296790.0 0.9958514463 -0.1146820413
540296760.0 0.996225079 -0.1152639167
545296730.0 0.9958163579 -0.1166348105
550296700.0 0.9960119392 -0.117203708
555296670.0 0.9958480753 -0.1183135713
560296640.0 0.9959716668 -0.1191915823
565296610.0 0.9951669154 -0.1203327249
570296580.0 0.9949681584 -0.1213282509
575296550.0 0.9952253987 -0.1225554256
580296520.0 0.9952136163 -0.123312099
585296490.0 0.9953782834 -0.1246557684
590296460.0 0.9950317362 -0.1258084668
595296430.0 0.9948108331 -0.12646698
600296400.0 0.994446971 -0.1273069957
605296370.0 0.9941373102 -0.1283299814
610296340.0 0.9941868157 -0.1288055868
615296310.0 0.9940624288 -0.1301223272
620296280.0 0.9940626784 -0.1310463684
625296250.0 0.9934484506 -0.132364135
630296220.0 0.9934701208 -0.1335111358
635296190.0 0.9935369313 -0.134470119
640296160.0 0.9934645233 -0.1352621252
645296130.0 0.992817714 -0.1368090217
650296100.0 0.9926529363 -0.1380452963
655296070.0 0.9930470908 -0.1385346395
660296040.0 0.9924475325 -0.1396994692
665296010.0 0.9926977579 -0.1404641769
670295980.0 0.9920063411 -0.1411734509
675295950.0 0.9921889599 -0.1431376191
680295920.0 0.9916205674 -0.143777502
685295890.0 0.9912626766 -0.1451510364
690295860.0 0.9914391746 -0.1460806966
695295830.0 0.991582882 -0.1469066057
700295800.0 0.9919055533 -0.1481564825
705295770.0 0.9914229794 -0.149293794
710295740.0 0.9909925117 -0.150120707
715295710.0 0.990964772 -0.1511249817
720295680.0 0.9906328893 -0.1521190861
725295650.0 0.9903999898 -0.1536268531
730295620.0 0.9901076034 -0.1541887606
735295590.0 0.9905498884 -0.1551830605
740295560.0 0.9898280027 -0.155935489
745295530.0 0.9895608231 -0.1573379035
750295500.0 0.9896057248 -0.1584285676
755295470.0 0.9898805534 -0.1595255625
760295440.0 0.9896002984 -0.1602890674
765295410.0 0.9890893474 -0.1616202173
770295380.0 0.9886624676 -0.1623605467
775295350.0 0.9888986963 -0.1635822657
780295320.0 0.9885886506 -0.164810227
785295290.0 0.9884961213 -0.1658880088
790295260.0 0.9880812774 -0.1672427025
795295230.0 0.9882469748 -0.1679472199
800295200.0 0.988002324 -0.1692298649
805295170.0 0.9880242488 -0.1699895228
810295140.0 0.9876891495 -0.1713065618
815295110.0 0.9873537186 -0.1720299666
820295080.0 0.9872571761 -0.1724159921
825295050.0 0.9870073844 -0.1738458617
830295020.0 0.9869605884 -0.1752329427
835294990.0 0.9866726634 -0.1767231484
840294960.0 0.9866136607 -0.1776145062
845294930.0 0.9860443499 -0.1780126557
850294900.0 0.9860523208 -0.1790581582
855294870.0 0.9859645991 -0.1805765967
860294840.0 0.9856158236 -0.1811776363
865294810.0 0.985660533 -0.1824503845
870294780.0 0.9851572263 -0.1832434892
875294750.0 0.9850159582 -0.1848639401
880294720.0 0.9848127127 -0.1854108754
885294690.0 0.9849964894 -0.1864576468
890294660.0 0.9845045563 -0.1877685605
895294630.0 0.9845177129 -0.1884473547
900294600.0 0.9836956626 -0.1893555519
905294570.0 0.9837815079 -0.1899353048
910294540.0 0.9833114828 -0.191621245
915294510.0 0.9832562026 -0.1922523721
920294480.0 0.9826258668 -0.1930736418
925294450.0 0.9829178886 -0.1942799733
930294420.0 0.9826857339 -0.1955952019
935294390.0 0.9828195463 -0.1964437931
940294360.0 0.9826801643 -0.1970333918
945294330.0 0.9818411793 -0.198349998
950294300.0 0.9818204395 -0.1994581772
955294270.0 0.9816653108 -0.2009580115
960294240.0 0.9815124699 -0.2021823096
965294210.0 0.9815026688 -0.2031603138
970294180.0 0.9812088225 -0.204160237
975294150.0 0.9812387748 -0.2047960732
980294120.0 0.9805965448 -0.2059788645
985294090.0 0.9803591 -0.2071984076
990294060.0 0.980163824 -0.2074509761
995294030.0 0.9800359853 -0.2091379005
1000294000.0 0.9802766041 -0.2102835982
1005293970.0 0.9796156522 -0.211191744
1010293940.0 0.9794170174 -0.2123622478
1015293910.0 0.979411198 -0.2128958671
1020293880.0 0.9791839369 -0.2142141205
1025293850.0 0.9787462576 -0.2145415226
1030293820.0 0.9785324595 -0.2159592352
1035293790.0 0.9782250753 -0.2167869391
1040293760.0 0.9778404824 -0.2187669175
1045293730.0 0.977753099 -0.2189605254
1050293700.0 0.9774629154 -0.2207441494
1055293670.0 0.9769639134 -0.2215295613
1060293640.0 0.9772303345 -0.2226303446
1065293610.0 0.9767090072 -0.2233531893
1070293580.0 0.9766644572 -0.2244515293
1075293550.0 0.9763662031 -0.2252177904
1080293520.0 0.9760978027 -0.2262214589
1085293490.0 0.9761392455 -0.2282336339
1090293460.0 0.9756646625 -0.2291431348
1095293430.0 0.9759670833 -0.2303542154
1100293400.0 0.9749169988 -0.2309792192
1105293370.0 0.9745061576 -0.2321768874
1110293340.0 0.9748539508 -0.2330021155
1115293310.0 0.9745673994 -0.2338695719
1120293280.0 0.973736714 -0.2353185255
1125293250.0 0.974309694 -0.2358381425
1130293220.0 0.9737580397 -0.2363150875
1135293190.0 0.9737349939 -0.2380972139
1140293160.0 0.9733735445 -0.2383662599
1145293130.0 0.9730557894 -0.2400293308
1150293100.0 0.972515136 -0.2412862872
1155293070.0 0.9725175413 -0.2420701544
1160293040.0 0.9715691359 -0.2430990519
1165293010.0 0.9714102607 -0.2441406361
1170292980.0 0.9716824891 -0.2457552162
1175292950.0 0.9717006811 -0.2466782688
1180292920.0 0.9710086593 -0.2479579701
1185292890.0 0.9710517216 -0.2486414169
1190292860.0 0.9709882176 -0.2495147086
1195292830.0 0.9700590965 -0.2509031779
1200292800.0 0.9704331968 -0.2514128937
1205292770.0 0.9701576721 -0.2519865673
1210292740.0 0.9699836055 -0.2527762185
1215292710.0 0.9692837084 -0.2539558015
1220292680.0 0.9691185501 -0.2549665736
1225292650.0 0.9690424629 -0.2565040266
1230292620.0 0.9686209444 -0.2575738552
1235292590.0 0.9683468915 -0.2588385365
1240292560.0 0.9675257529 -0.259552932
1245292530.0 0.9677030141 -0.2602299582
1250292500.0 0.9674989725 -0.261635669
1255292470.0 0.9673896974 -0.2626952027
1260292440.0 0.9668420669 -0.263807765
1265292410.0 0.9661526616 -0.2643431907
1270292380.0 0.9664545606 -0.2656196722
1275292350.0 0.9666371812 -0.2666718406
1280292320.0 0.9655807718 -0.2676206704
1285292290.0 0.9652179861 -0.2692853856
1290292260.0 0.9651962382 -0.2703062399
1295292230.0 0.9651770631 -0.270615201
1300292200.0 0.964793957 -0.2711721002
1305292170.0 0.9647321004 -0.272880886
1310292140.0 0.9646533324 -0.2739213166
1315292110.0 0.9642491648 -0.2749285476
1320292080.0 0.9637435918 -0.275613725
1325292050.0 0.9634337779 -0.2775918824
1330292020.0 0.9622920178 -0.2781274737
1335291990.0 0.9625110742 -0.2794560286
1340291960.0 0.9623176511 -0.2810721066
1345291930.0 0.9619926898 -0.2819219646
1350291900.0 0.9618151308 -0.2830673211
1355291870.0 0.9616741618 -0.2838449959
1360291840.0 0.9611538046 -0.2844961536
1365291810.0 0.9606991099 -0.2855943645
1370291780.0 0.9609381958 -0.2860779359
1375291750.0 0.960604052 -0.2872262459
1380291720.0 0.9598218391 -0.2887001489
1385291690.0 0.9597395857 -0.2897864898
1390291660.0 0.9596244343 -0.291139991
1395291630.0 0.9587283311 -0.2914509703
1400291600.0 0.9586689194 -0.2929238218
1405291570.0 0.9585080043 -0.2926881155
1410291540.0 0.9580071012 -0.2944819819
1415291510.0 0.9581771008 -0.2960563785
1420291480.0 0.95687729 -0.2964654297
1425291450.0 0.9573171673 -0.2971152277
1430291420.0 0.9573533145 -0.2982919547
1435291390.0 0.9566969245 -0.2992904338
1440291360.0 0.956162396 -0.300493179
1445291330.0 0.9562969831 -0.301493063
1450291300.0 0.9557478749 -0.3023365381
1455291270.0 0.9553520769 -0.3032541858
1460291240.0 0.9559959027 -0.3043946684
1465291210.0 0.9548116483 -0.3049894596
1470291180.0 0.9548373667 -0.3062740885
1475291150.0 0.9549152216 -0.3072917297
1480291120.0 0.9544313261 -0.3088075294
1485291090.0 0.953142634 -0.3093484598
1490291060.0 0.9538375266 -0.3105290184
1495291030.0 0.9526307075 -0.3105704553
1500291000.0 0.9526111034 -0.3123438886
1505290970.0 0.952397617 -0.3132499976
1510290940.0 0.9522355197 -0.3139055737
1515290910.0 0.951870318 -0.3149537545
1520290880.0 0.9515010562 -0.3162860249
1525290850.0 0.9511631032 -0.316755558
1530290820.0 0.9506905445 -0.3184473522
1535290790.0 0.9502047093 -0.3187942435
1540290760.0 0.9497885046 -0.3205501251
1545290730.0 0.949210012 -0.3216698669
1550290700.0 0.949463149 -0.3224135343
1555290670.0 0.9488077433 -0.3232818709
1560290640.0 0.9488761711 -0.324497098
1565290610.0 0.9486602774 -0.3254026475
1570290580.0 0.9481782341 -0.325853669
1575290550.0 0.9479717864 -0.327300152
1580290520.0 0.9475667851 -0.3284792094
1585290490.0 0.9468828417 -0.3298269924
1590290460.0 0.9466814894 -0.3311204446
1595290430.0 0.9459743575 -0.3317845474
1600290400.0 0.9459638937 -0.3326556716
1605290370.0 0.9463739228 -0.3334463811
1610290340.0 0.945837959 -0.3342407913
1615290310.0 0.9455959014 -0.3359019769
1620290280.0 0.9450042257 -0.336280794
1625290250.0 0.9446640835 -0.3377804528
1630290220.0 0.9440674151 -0.338799043
1635290190.0 0.9439483071 -0.3389190268
1640290160.0 0.9440684674 -0.3400524285
1645290130.0 0.9426444667 -0.3404429287
1650290100.0 0.9429551804 -0.3418875874
1655290070.0 0.9424269483 -0.3428795222
1660290040.0 0.9418219584 -0.344018258
1665290010.0 0.9419470095 -0.3445908115
1670289980.0 0.9412923626 -0.3454022019
1675289950.0 0.9410493414 -0.3466165776
1680289920.0 0.9403565157 -0.3479660366
1685289890.0 0.9402287619 -0.3492489281
1690289860.0 0.9393047874 -0.3503429559
1695289830.0 0.9393766681 -0.3514316481
1700289800.0 0.9390551289 -0.352717461
1705289770.0 0.9380029362 -0.3532972831
1710289740.0 0.937853557 -0.3545160217
1715289710.0 0.9379287323 -0.3557182752
1720289680.0 0.9373668437 -0.3563847048
1725289650.0 0.9369307445 -0.3574931588
1730289620.0 0.9365355853 -0.3583533108
1735289590.0 0.9364845345 -0.3592939736
1740289560.0 0.9360679871 -0.359975762
1745289530.0 0.9355856678 -0.3612252279
1750289500.0 0.934994213 -0.3622106282
1755289470.0 0.9350691828 -0.3631064424
1760289440.0 0.9348161446 -0.3637812223
1765289410.0 0.9346421281 -0.3649150858
1770289380.0 0.9343048557 -0.3658282142
1775289350.0 0.9339938124 -0.3663830517
1780289320.0 0.9335459036 -0.3674441373
1785289290.0 0.9326481154 -0.3687612486
1790289260.0 0.9323757426 -0.370316637
1795289230.0 0.9322226704 -0.3710771806
1800289200.0 0.9316252241 -0.3723397086
1805289170.0 0.931674222 -0.3729113284
1810289140.0 0.9308045961 -0.3741244263
1815289110.0 0.9308184691 -0.374321379
1820289080.0 0.9303156872 -0.3752456156
1825289050.0 0.9303216797 -0.3760093774
1830289020.0 0.9297002902 -0.3767275361
1835288990.0 0.9292197422 -0.3773984583
1840288960.0 0.9289725161 -0.3786509957
1845288930.0 0.9290792595 -0.37914409
1850288900.0 0.9283443619 -0.3800967098
1855288870.0 0.9279031145 -0.3815832086
1860288840.0 0.9269255242 -0.3827971524
1865288810.0 0.9267177296 -0.3842022398
1870288780.0 0.9268412073 -0.3856557162
1875288750.0 0.9259826158 -0.3860195238
1880288720.0 0.9254548613 -0.3874938176
1885288690.0 0.9249500487 -0.3880229631
1890288660.0 0.9244593128 -0.3896422076
1895288630.0 0.9239633858 -0.3900799703
1900288600.0 0.9233613198 -0.391170594
1905288570.0 0.9233535665 -0.3915525256
1910288540.0 0.9225245174 -0.3930671153
1915288510.0 0.9223574044 -0.3935684087
1920288480.0 0.9221382856 -0.39515941
1925288450.0 0.921290142 -0.395643016
1930288420.0 0.9215415746 -0.3971872495
1935288390.0 0.9209778022 -0.3980308738
1940288360.0 0.9206863291 -0.3989449242
1945288330.0 0.9201017772 -0.4003164224
1950288300.0 0.9189863015 -0.4013266321
1955288270.0 0.9180226726 -0.4025096094
1960288240.0 0.9176166196 -0.4036270993
1965288210.0 0.9177223711 -0.4045667441
1970288180.0 0.9172582864 -0.4059402269
1975288150.0 0.9171010592 -0.406357794
1980288120.0 0.9166441679 -0.406878411
1985288090.0 0.9161592593 -0.4077607967
1990288060.0 0.9157456654 -0.4082063798
1995288030.0 0.9156512332 -0.4091661354
2000288000.0 0.9156595149 -0.4102398907
2005287970.0 0.9147972664 -0.4104214302
2010287940.0 0.9148924616 -0.4118805864
2015287910.0 0.9139757963 -0.4126084211
2020287880.0 0.9132930884 -0.4135888524
2025287850.0 0.9126171463 -0.4143287931
2030287820.0 0.9123419767 -0.4158837361
2035287790.0 0.912647111 -0.4167466284
2040287760.0 0.9120612164 -0.417914004
2045287730.0 0.9116327473 -0.418526084
2050287700.0 0.9113203668 -0.4200728661
2055287670.0 0.9106203328 -0.4206588729
2060287640.0 0.9104644508 -0.4213366337
2065287610.0 0.909809074 -0.4220883595
2070287580.0 0.9099397221 -0.4231738452
2075287550.0 0.9088131508 -0.4244019865
2080287520.0 0.9083062253 -0.4250527202
2085287490.0 0.9076806831 -0.4260004861
2090287460.0 0.9070676283 -0.4273360073
2095287430.0 0.906818433 -0.4285293629
2100287400.0 0.9061803875 -0.429008797
2105287370.0 0.90582417 -0.4300636114
2110287340.0 0.9052723281 -0.430845613
2115287310.0 0.9052564983 -0.4318683467
2120287280.0 0.9046290809 -0.4332227963
2125287250.0 0.9040885838 -0.4334263044
2130287220.0 0.9035853658 -0.4348859312
2135287190.0 0.9026781215 -0.4361810781
2140287160.0 0.9030121667 -0.4369492792
2145287130.0 0.9022285339 -0.4381841962
2150287100.0 0.9019248321 -0.4384930679
2155287070.0 0.901036721 -0.4393216813
2160287040.0 0.9018978453 -0.440372306
2165287010.0 0.899969184 -0.4410273766
2170286980.0 0.9002121324 -0.4422589159
2175286950.0 0.8995552893 -0.4427843248
2180286920.0 0.899461116 -0.4438923887
2185286890.0 0.8989185524 -0.4443625562
2190286860.0 0.8987665271 -0.4452033545
2195286830.0 0.8983126516 -0.4456502193
2200286800.0 0.8981432061 -0.4466294986
2205286770.0 0.89699636 -0.448020424
2210286740.0 0.8967299664 -0.448423912
2215286710.0 0.8966096151 -0.4498833189
2220286680.0 0.8960190083 -0.4503653636
2225286650.0 0.8951886739 -0.4516143294
2230286620.0 0.8951076059 -0.4525639585
2235286590.0 0.8940931782 -0.4531050256
2240286560.0 0.8938319911 -0.4541406794
2245286530.0 0.8936035294 -0.4556043557
2250286500.0 0.8928235134 -0.4567321729
2255286470.0 0.892297587 -0.4571590912
2260286440.0 0.8914799129 -0.4583921916
2265286410.0 0.8909505476 -0.4592312451
2270286380.0 0.8906759887 -0.4603054739
2275286350.0 0.8898292293 -0.4618553481
2280286320.0 0.8894202706 -0.462565723
2285286290.0 0.8894231848 -0.4635710909
2290286260.0 0.8888574449 -0.4642705864
2295286230.0 0.8882619722 -0.4652839937
2300286200.0 0.8874161029 -0.4658999861
2305286170.0 0.8876499802 -0.4670760838
2310286140.0 0.8865490839 -0.4680470303
2315286110.0 0.8856592925 -0.4689303965
2320286080.0 0.8855400954 -0.4702741839
2325286050.0 0.8851384222 -0.4710466999
2330286020.0 0.8845962486 -0.4719765402
2335285990.0 0.8842124966 -0.4726381741
2340285960.0 0.8836995848 -0.4731883197
2345285930.0 0.8831238297 -0.474501554
2350285900.0 0.8822859364 -0.4754058745
2355285870.0 0.8818118051 -0.4768729772
2360285840.0 0.8813018957 -0.4777819938
2365285810.0 0.8807343205 -0.4787352323
2370285780.0 0.8801103656 -0.4790230863
2375285750.0 0.8802079477 -0.4800290039
2380285720.0 0.8790466648 -0.4805948361
2385285690.0 0.8789711851 -0.4815895401
2390285660.0 0.8779696864 -0.482459173
2395285630.0 0.8776949135 -0.4834289289
2400285600.0 0.8774634176 -0.4840342309
2405285570.0 0.8769878154 -0.4846678053
2410285540.0 0.8762504931 -0.4850912139
2415285510.0 0.876149332 -0.4863675844
2420285480.0 0.8755279845 -0.4866139921
2425285450.0 0.8755696821 -0.489011006
2430285420.0 0.8743180319 -0.4894101676
2435285390.0 0.8738850339 -0.490060995
2440285360.0 0.8737626066 -0.4910000024
2445285330.0 0.8731065908 -0.4915958028
2450285300.0 0.8722343455 -0.4933746465
2455285270.0 0.8712880328 -0.4936827508
2460285240.0 0.8715564449 -0.4948387641
2465285210.0 0.8703488235 -0.4957805848
2470285180.0 0.8701974777 -0.4965382804
2475285150.0 0.8691821769 -0.4973837369
2480285120.0 0.8687858674 -0.4979629769
2485285090.0 0.8679297271 -0.4990149616
2490285060.0 0.8677529056 -0.5006706544
2495285030.0 0.8667575073 -0.5012049591
2500285000.0 0.8665208385 -0.5023732699
2505284970.0 0.8657299218 -0.5036166493
2510284940.0 0.8653794182 -0.503952899
2515284910.0 0.8646152339 -0.5054140728
2520284880.0 0.8642543058 -0.5063704401
2525284850.0 0.863731852 -0.5069197904
2530284820.0 0.8631262569 -0.5075783369
2535284790.0 0.8625982627 -0.5082812585
