!Created with skrf (http://scikit-rf.org).
# Hz S RI R 50.0 
!freq ReS11 ImS11
45000000.0 0.06482696533203125 0.0898284912109375
49995500.0 0.0830841064453125 0.0911102294921875
54991000.0 0.10292434692382812 0.08890151977539062
59986500.0 0.121063232421875 0.09189605712890625
64982000.0 0.141265869140625 0.08791351318359375
69977500.0 0.16275787353515625 0.07806396484375
74973000.0 0.1839752197265625 0.0645294189453125
79968500.0 0.2038421630859375 0.0468597412109375
84964000.0 0.22186279296875 0.0251007080078125
89959500.0 0.237396240234375 -0.000274658203125
94955000.0 0.24874114990234375 -0.0292205810546875
99950500.0 0.2564544677734375 -0.0611419677734375
104946000.0 0.25946044921875 -0.0950469970703125
109941500.0 0.25762939453125 -0.1300201416015625
114937000.0 0.250579833984375 -0.16571044921875
119932500.0 0.23839569091796875 -0.2010345458984375
124928000.0 0.2219085693359375 -0.23557281494140625
129923500.0 0.200286865234375 -0.268157958984375
134919000.0 0.1742095947265625 -0.2991485595703125
139914500.0 0.1437225341796875 -0.3274383544921875
144910000.0 0.1092529296875 -0.3523712158203125
149905500.0 0.0712127685546875 -0.3739166259765625
154901000.0 0.0298004150390625 -0.3911285400390625
159896500.0 -0.014068603515625 -0.4035491943359375
164892000.0 -0.060333251953125 -0.411163330078125
169887500.0 -0.1083526611328125 -0.413360595703125
174883000.0 -0.1580657958984375 -0.4099578857421875
179878500.0 -0.20855712890625 -0.40045166015625
184874000.0 -0.25830078125 -0.3848876953125
189869500.0 -0.30743408203125 -0.3625335693359375
194865000.0 -0.3550567626953125 -0.33441162109375
199860500.0 -0.399383544921875 -0.2998504638671875
204856000.0 -0.4402313232421875 -0.2587890625
209851500.0 -0.4766693115234375 -0.212799072265625
214847000.0 -0.5081787109375 -0.1614990234375
219842500.0 -0.533843994140625 -0.10614013671875
224838000.0 -0.553009033203125 -0.047210693359375
229833500.0 -0.565399169921875 0.014892578125
234829000.0 -0.5704345703125 0.078460693359375
239824500.0 -0.56854248046875 0.142730712890625
244820000.0 -0.558837890625 0.207611083984375
249815500.0 -0.542205810546875 0.2713623046875
254811000.0 -0.536834716796875 0.314453125
259806500.0 -0.509613037109375 0.37615966796875
264802000.0 -0.4759063720703125 0.435272216796875
269797500.0 -0.4350128173828125 0.4916839599609375
274793000.0 -0.387939453125 0.544219970703125
279788500.0 -0.334259033203125 0.592559814453125
284784000.0 -0.275146484375 0.636077880859375
289779500.0 -0.21014404296875 0.6737060546875
294775000.0 -0.139862060546875 0.704986572265625
299770500.0 -0.065093994140625 0.729644775390625
304766000.0 0.01385498046875 0.74609375
309761500.0 0.0958251953125 0.753936767578125
314757000.0 0.180450439453125 0.751953125
319752500.0 0.2662353515625 0.73980712890625
324748000.0 0.352264404296875 0.718292236328125
329743500.0 0.437255859375 0.68572998046875
334739000.0 0.51898193359375 0.642486572265625
339734500.0 0.596649169921875 0.5887451171875
344730000.0 0.6683349609375 0.524871826171875
349725500.0 0.732635498046875 0.45233154296875
354721000.0 0.78857421875 0.371124267578125
359716500.0 0.8341064453125 0.283203125
364712000.0 0.86920166015625 0.189605712890625
369707500.0 0.8929443359375 0.091827392578125
374703000.0 0.90557861328125 -0.00872802734375
379698500.0 0.906158447265625 -0.1099853515625
384694000.0 0.895111083984375 -0.211334228515625
389689500.0 0.872894287109375 -0.310272216796875
394685000.0 0.839813232421875 -0.4068603515625
399680500.0 0.79669189453125 -0.49896240234375
404676000.0 0.74444580078125 -0.58648681640625
409671500.0 0.683074951171875 -0.668121337890625
414667000.0 0.613800048828125 -0.7437744140625
419662500.0 0.5362548828125 -0.8138427734375
424658000.0 0.450927734375 -0.87353515625
429653500.0 0.35821533203125 -0.926544189453125
434649000.0 0.258087158203125 -0.9693603515625
439644500.0 0.1546630859375 -1.00128173828125
444640000.0 0.0469970703125 -1.02362060546875
449635500.0 -0.06341552734375 -1.03546142578125
454631000.0 -0.17822265625 -1.03717041015625
459626500.0 -0.29638671875 -1.02490234375
464622000.0 -0.414642333984375 -0.99786376953125
469617500.0 -0.53131103515625 -0.956451416015625
474613000.0 -0.644317626953125 -0.899993896484375
479608500.0 -0.751068115234375 -0.82916259765625
484604000.0 -0.850006103515625 -0.743408203125
489599500.0 -0.93853759765625 -0.64520263671875
494595000.0 -1.013671875 -0.5347900390625
499590500.0 -1.07452392578125 -0.41552734375
504586000.0 -1.119140625 -0.289306640625
509581500.0 -1.14593505859375 -0.15850830078125
514577000.0 -1.15594482421875 -0.02716064453125
519572500.0 -1.14923095703125 0.10272216796875
524568000.0 -1.127685546875 0.22802734375
529563500.0 -1.09283447265625 0.34686279296875
534559000.0 -1.04742431640625 0.45849609375
539554500.0 -0.993072509765625 0.5628662109375
544550000.0 -0.931549072265625 0.660247802734375
549545500.0 -0.86260986328125 0.751861572265625
554541000.0 -0.78668212890625 0.83837890625
559536500.0 -0.7030029296875 0.91864013671875
564532000.0 -0.6109619140625 0.99261474609375
569527500.0 -0.5108642578125 1.0587158203125
574523000.0 -0.4022216796875 1.11578369140625
579518500.0 -0.28826904296875 1.1624755859375
584514000.0 -0.1676025390625 1.19818115234375
589509500.0 -0.0418701171875 1.22222900390625
594505000.0 0.08831787109375 1.2330322265625
599500500.0 0.22100830078125 1.2313232421875
604496000.0 0.35601806640625 1.21490478515625
609491500.0 0.4913330078125 1.183837890625
614487000.0 0.625732421875 1.1370849609375
619482500.0 0.7567138671875 1.07403564453125
624478000.0 0.88250732421875 0.994537353515625
629473500.0 1.0001220703125 0.89898681640625
634469000.0 1.10723876953125 0.787353515625
639464500.0 1.20068359375 0.6610107421875
644460000.0 1.2789306640625 0.52166748046875
649455500.0 1.33892822265625 0.3721923828125
654451000.0 1.37921142578125 0.21514892578125
659446500.0 1.39849853515625 0.0535888671875
664442000.0 1.397705078125 -0.1083984375
669437500.0 1.376220703125 -0.2686767578125
674433000.0 1.33477783203125 -0.42327880859375
679428500.0 1.275634765625 -0.56988525390625
684424000.0 1.20068359375 -0.70574951171875
689419500.0 1.11181640625 -0.8304443359375
694415000.0 1.01153564453125 -0.9423828125
699410500.0 0.9022216796875 -1.04107666015625
704406000.0 0.78521728515625 -1.12646484375
709401500.0 0.662353515625 -1.1990966796875
714397000.0 0.53509521484375 -1.2589111328125
719392500.0 0.4041748046875 -1.30609130859375
724388000.0 0.27081298828125 -1.34228515625
729383500.0 0.134521484375 -1.36614990234375
734379000.0 -0.0035400390625 -1.3770751953125
739374500.0 -0.14300537109375 -1.37677001953125
744370000.0 -0.2830810546875 -1.36395263671875
749365500.0 -0.423828125 -1.33831787109375
754361000.0 -0.56353759765625 -1.29931640625
759356500.0 -0.7017822265625 -1.24591064453125
764352000.0 -0.837158203125 -1.1771240234375
769347500.0 -0.9681396484375 -1.093505859375
774343000.0 -1.09234619140625 -0.99359130859375
779338500.0 -1.206787109375 -0.87713623046875
784334000.0 -1.31048583984375 -0.7467041015625
789329500.0 -1.39892578125 -0.60028076171875
794325000.0 -1.4697265625 -0.44158935546875
799320500.0 -1.5216064453125 -0.27301025390625
804316000.0 -1.55133056640625 -0.0968017578125
809311500.0 -1.55853271484375 0.0830078125
814307000.0 -1.54266357421875 0.2620849609375
819302500.0 -1.50433349609375 0.43768310546875
824298000.0 -1.44219970703125 0.60626220703125
829293500.0 -1.3619384765625 0.7630615234375
834289000.0 -1.26300048828125 0.90838623046875
839284500.0 -1.15032958984375 1.03759765625
844280000.0 -1.0872802734375 1.1175537109375
849275500.0 -0.95672607421875 1.2222900390625
854271000.0 -0.818359375 1.31048583984375
859266500.0 -0.67425537109375 1.38214111328125
864262000.0 -0.52593994140625 1.43927001953125
869257500.0 -0.37322998046875 1.48095703125
874253000.0 -0.222412109375 1.50787353515625
879248500.0 -0.06982421875 1.521484375
884244000.0 0.0814208984375 1.5205078125
889239500.0 0.23223876953125 1.508056640625
894235000.0 0.38092041015625 1.4825439453125
899230500.0 0.52874755859375 1.44488525390625
904226000.0 0.6748046875 1.39373779296875
909221500.0 0.8187255859375 1.328369140625
914217000.0 0.9583740234375 1.2484130859375
919212500.0 1.09283447265625 1.15252685546875
924208000.0 1.21905517578125 1.0408935546875
929203500.0 1.3353271484375 0.9141845703125
934199000.0 1.4395751953125 0.772705078125
939194500.0 1.52935791015625 0.61724853515625
944190000.0 1.60235595703125 0.4490966796875
949185500.0 1.65533447265625 0.26971435546875
954181000.0 1.68707275390625 0.082275390625
959176500.0 1.69476318359375 -0.11016845703125
964172000.0 1.67706298828125 -0.30322265625
969167500.0 1.6353759765625 -0.49346923828125
974163000.0 1.569580078125 -0.67724609375
979158500.0 1.48138427734375 -0.85040283203125
984154000.0 1.37322998046875 -1.009521484375
989149500.0 1.24774169921875 -1.15350341796875
994145000.0 1.1077880859375 -1.27899169921875
999140500.0 0.9569091796875 -1.385986328125
1004136000.0 0.7979736328125 -1.47412109375
1009131500.0 0.63299560546875 -1.54364013671875
1014127000.0 0.464599609375 -1.59521484375
1019122500.0 0.29449462890625 -1.6287841796875
1024118000.0 0.12347412109375 -1.6456298828125
1029113500.0 -0.0462646484375 -1.646240234375
1034109000.0 -0.21417236328125 -1.63104248046875
1039104500.0 -0.379150390625 -1.6004638671875
1044100000.0 -0.54083251953125 -1.55511474609375
1049095500.0 -0.69818115234375 -1.495849609375
1054091000.0 -0.84991455078125 -1.42059326171875
1059086500.0 -0.99591064453125 -1.330322265625
1064082000.0 -1.13385009765625 -1.22637939453125
1069077500.0 -1.2626953125 -1.10699462890625
1074073000.0 -1.3807373046875 -0.97320556640625
1079068500.0 -1.4852294921875 -0.8255615234375
1084064000.0 -1.5753173828125 -0.66485595703125
1089059500.0 -1.6475830078125 -0.49267578125
1094055000.0 -1.70098876953125 -0.3104248046875
1099050500.0 -1.7330322265625 -0.12054443359375
1104046000.0 -1.74212646484375 0.07330322265625
1109041500.0 -1.72802734375 0.26898193359375
1114037000.0 -1.68902587890625 0.46209716796875
1119032500.0 -1.627197265625 0.6488037109375
1124028000.0 -1.54217529296875 0.827392578125
1129023500.0 -1.4365234375 0.9931640625
1134019000.0 -1.312744140625 1.14453125
1139014500.0 -1.173095703125 1.279052734375
1144010000.0 -1.01953125 1.39349365234375
1149005500.0 -0.857177734375 1.4886474609375
1154001000.0 -0.68646240234375 1.56451416015625
1158996500.0 -0.51165771484375 1.6197509765625
1163992000.0 -0.3343505859375 1.65570068359375
1168987500.0 -0.15716552734375 1.672119140625
1173983000.0 0.0189208984375 1.67108154296875
1178978500.0 0.19140625 1.6522216796875
1183974000.0 0.35894775390625 1.6173095703125
1188969500.0 0.5208740234375 1.5665283203125
1193965000.0 0.6763916015625 1.50115966796875
1198960500.0 0.82373046875 1.421142578125
1203956000.0 0.962158203125 1.328369140625
1208951500.0 1.09185791015625 1.22320556640625
1213947000.0 1.2108154296875 1.1060791015625
1218942500.0 1.3184814453125 0.97808837890625
1223938000.0 1.4130859375 0.83917236328125
1228933500.0 1.49456787109375 0.69140625
1233929000.0 1.5618896484375 0.53533935546875
1238924500.0 1.61346435546875 0.37225341796875
1243920000.0 1.6488037109375 0.20355224609375
1248915500.0 1.666259765625 0.0308837890625
1253911000.0 1.66644287109375 -0.14483642578125
1258906500.0 1.6478271484375 -0.32098388671875
1263902000.0 1.60968017578125 -0.495361328125
1268897500.0 1.5528564453125 -0.66607666015625
1273893000.0 1.47686767578125 -0.83087158203125
1278888500.0 1.38330078125 -0.98773193359375
1283884000.0 1.27142333984375 -1.13299560546875
1288879500.0 1.14434814453125 -1.26544189453125
1293875000.0 1.001953125 -1.3839111328125
1298870500.0 0.84759521484375 -1.48785400390625
1303866000.0 0.6820068359375 -1.570556640625
1308861500.0 0.5091552734375 -1.6341552734375
1313857000.0 0.32965087890625 -1.67938232421875
1318852500.0 0.14593505859375 -1.7052001953125
1323848000.0 -0.038330078125 -1.70977783203125
1328843500.0 -0.22271728515625 -1.69427490234375
1333839000.0 -0.403076171875 -1.6593017578125
1338834500.0 -0.578857421875 -1.60400390625
1343830000.0 -0.7470703125 -1.53143310546875
1348825500.0 -0.9066162109375 -1.44024658203125
1353821000.0 -1.0535888671875 -1.33355712890625
1358816500.0 -1.1873779296875 -1.2100830078125
1363812000.0 -1.30780029296875 -1.0745849609375
1368807500.0 -1.4119873046875 -0.9271240234375
1373803000.0 -1.49908447265625 -0.7705078125
1378798500.0 -1.56884765625 -0.605712890625
1383794000.0 -1.61993408203125 -0.4359130859375
1388789500.0 -1.6531982421875 -0.262451171875
1393785000.0 -1.667236328125 -0.08782958984375
1398780500.0 -1.66387939453125 0.08709716796875
1403776000.0 -1.64276123046875 0.25946044921875
1408771500.0 -1.604248046875 0.427490234375
1413767000.0 -1.54931640625 0.59039306640625
1418762500.0 -1.47882080078125 0.74688720703125
1423758000.0 -1.39324951171875 0.89520263671875
1428753500.0 -1.294189453125 1.03375244140625
1433749000.0 -1.181640625 1.162841796875
1438744500.0 -1.05645751953125 1.28106689453125
1443740000.0 -0.91973876953125 1.38616943359375
1448735500.0 -0.7723388671875 1.47845458984375
1453731000.0 -0.61505126953125 1.55572509765625
1458726500.0 -0.44891357421875 1.6171875
1463722000.0 -0.27545166015625 1.66168212890625
1468717500.0 -0.09619140625 1.68780517578125
1473713000.0 0.0865478515625 1.694091796875
1478708500.0 0.27191162109375 1.6798095703125
1483704000.0 0.455322265625 1.64404296875
1488699500.0 0.63555908203125 1.58636474609375
1493695000.0 0.80841064453125 1.508056640625
1498690500.0 0.97174072265625 1.408203125
1503686000.0 1.1217041015625 1.28936767578125
1508681500.0 1.25567626953125 1.15277099609375
1513677000.0 1.3719482421875 1.00201416015625
1518672500.0 1.46832275390625 0.8389892578125
1523668000.0 1.5433349609375 0.66741943359375
1528663500.0 1.59613037109375 0.4908447265625
1533659000.0 1.6275634765625 0.311767578125
1538654500.0 1.63861083984375 0.133544921875
1543650000.0 1.62921142578125 -0.04083251953125
1548645500.0 1.6021728515625 -0.210205078125
1553641000.0 1.55841064453125 -0.37237548828125
1558636500.0 1.49920654296875 -0.5262451171875
1563632000.0 1.42694091796875 -0.6710205078125
1568627500.0 1.34246826171875 -0.805419921875
1573623000.0 1.2471923828125 -0.92987060546875
1578618500.0 1.14276123046875 -1.04327392578125
1583614000.0 1.02911376953125 -1.146484375
1588609500.0 0.907958984375 -1.23760986328125
1593605000.0 0.77960205078125 -1.31787109375
1598600500.0 0.6448974609375 -1.3868408203125
1603596000.0 0.50408935546875 -1.44281005859375
1608591500.0 0.35870361328125 -1.48651123046875
1613587000.0 0.2088623046875 -1.5166015625
1618582500.0 0.0557861328125 -1.53289794921875
1623578000.0 -0.10052490234375 -1.53472900390625
1628573500.0 -0.2569580078125 -1.520263671875
1633569000.0 -0.41351318359375 -1.4898681640625
1638564500.0 -0.567626953125 -1.44256591796875
1643560000.0 -0.7171630859375 -1.37811279296875
1648555500.0 -0.8604736328125 -1.29766845703125
1653551000.0 -0.99462890625 -1.200439453125
1658546500.0 -1.11785888671875 -1.08795166015625
1663542000.0 -1.22674560546875 -0.961669921875
1668537500.0 -1.32110595703125 -0.82427978515625
1673533000.0 -1.39837646484375 -0.67669677734375
1678528500.0 -1.45758056640625 -0.52215576171875
1683524000.0 -1.498291015625 -0.36370849609375
1688519500.0 -1.5208740234375 -0.20318603515625
1693515000.0 -1.52593994140625 -0.043212890625
1698510500.0 -1.51361083984375 0.11370849609375
1703506000.0 -1.486083984375 0.26580810546875
1708501500.0 -1.44403076171875 0.41259765625
1713497000.0 -1.388671875 0.552001953125
1718492500.0 -1.32183837890625 0.683837890625
1723488000.0 -1.24444580078125 0.80743408203125
1728483500.0 -1.1573486328125 0.92254638671875
1733479000.0 -1.06103515625 1.0302734375
1738474500.0 -0.95635986328125 1.1285400390625
1743470000.0 -0.8436279296875 1.21746826171875
1748465500.0 -0.72314453125 1.29736328125
1753461000.0 -0.5943603515625 1.36767578125
1758456500.0 -0.45831298828125 1.42681884765625
1763452000.0 -0.3153076171875 1.47418212890625
1768447500.0 -0.16680908203125 1.50885009765625
1773443000.0 -0.0113525390625 1.52886962890625
1778438500.0 0.14849853515625 1.53302001953125
1783434000.0 0.31158447265625 1.51934814453125
1788429500.0 0.4754638671875 1.48773193359375
1793425000.0 0.63720703125 1.436279296875
1798420500.0 0.794677734375 1.36407470703125
1803416000.0 0.94305419921875 1.27252197265625
1808411500.0 1.081298828125 1.16217041015625
1813407000.0 1.20416259765625 1.0345458984375
1818402500.0 1.3095703125 0.8929443359375
1823398000.0 1.395751953125 0.7398681640625
1828393500.0 1.46246337890625 0.57916259765625
1833389000.0 1.50799560546875 0.41375732421875
1838384500.0 1.5335693359375 0.24749755859375
1843380000.0 1.53936767578125 0.08221435546875
1848375500.0 1.5272216796875 -0.078369140625
1853371000.0 1.49945068359375 -0.2337646484375
1858366500.0 1.45703125 -0.38189697265625
1863362000.0 1.40191650390625 -0.52227783203125
1868357500.0 1.33526611328125 -0.65435791015625
1873353000.0 1.25872802734375 -0.77801513671875
1878348500.0 1.1729736328125 -0.8935546875
1883344000.0 1.07904052734375 -1.0006103515625
1888339500.0 0.97698974609375 -1.0987548828125
1893335000.0 0.8670654296875 -1.18878173828125
1898330500.0 0.749755859375 -1.26971435546875
1903326000.0 0.6251220703125 -1.341064453125
1908321500.0 0.49285888671875 -1.4022216796875
1913317000.0 0.3538818359375 -1.4521484375
1918312500.0 0.2078857421875 -1.490234375
1923308000.0 0.05560302734375 -1.51409912109375
1928303500.0 -0.1015625 -1.52337646484375
1933299000.0 -0.261474609375 -1.51416015625
1938294500.0 -0.42388916015625 -1.48779296875
1943290000.0 -0.5845947265625 -1.44195556640625
1948285500.0 -0.74176025390625 -1.37689208984375
1953281000.0 -0.89111328125 -1.292236328125
1958276500.0 -1.0301513671875 -1.1885986328125
1963272000.0 -1.156005859375 -1.06817626953125
1968267500.0 -1.26568603515625 -0.93328857421875
1973263000.0 -1.35736083984375 -0.78607177734375
1978258500.0 -1.43023681640625 -0.63067626953125
1983254000.0 -1.48333740234375 -0.4691162109375
1988249500.0 -1.51654052734375 -0.304931640625
1993245000.0 -1.53082275390625 -0.1405029296875
1998240500.0 -1.52642822265625 0.02099609375
2003236000.0 -1.506103515625 0.17816162109375
2008231500.0 -1.469970703125 0.32940673828125
2013227000.0 -1.41986083984375 0.47393798828125
2018222500.0 -1.35791015625 0.61077880859375
2023218000.0 -1.2838134765625 0.73968505859375
2028213500.0 -1.19940185546875 0.859619140625
2033209000.0 -1.10626220703125 0.9708251953125
2038204500.0 -1.00311279296875 1.0728759765625
2043200000.0 -0.89202880859375 1.16473388671875
2048195500.0 -0.77252197265625 1.2469482421875
2053191000.0 -0.64593505859375 1.31781005859375
2058186500.0 -0.51275634765625 1.377685546875
2063182000.0 -0.3731689453125 1.42425537109375
2068177500.0 -0.227783203125 1.4586181640625
2073173000.0 -0.0792236328125 1.47802734375
2078168500.0 0.0728759765625 1.48193359375
2083164000.0 0.22515869140625 1.46954345703125
2088159500.0 0.37689208984375 1.4420166015625
2093155000.0 0.52618408203125 1.39691162109375
2098150500.0 0.66998291015625 1.33563232421875
2103146000.0 0.8055419921875 1.25836181640625
2108141500.0 0.9324951171875 1.16656494140625
2113137000.0 1.048583984375 1.0615234375
2118132500.0 1.15142822265625 0.94476318359375
2123128000.0 1.23974609375 0.81829833984375
2128123500.0 1.31378173828125 0.6842041015625
2133119000.0 1.37261962890625 0.5445556640625
2138114500.0 1.41619873046875 0.40155029296875
2143110000.0 1.4453125 0.2559814453125
2148105500.0 1.4593505859375 0.11029052734375
2153101000.0 1.46002197265625 -0.0352783203125
2158096500.0 1.44683837890625 -0.17889404296875
2163092000.0 1.4207763671875 -0.3194580078125
2168087500.0 1.3831787109375 -0.45660400390625
2173083000.0 1.3333740234375 -0.5899658203125
2178078500.0 1.2720947265625 -0.71868896484375
2183074000.0 1.198486328125 -0.84185791015625
2188069500.0 1.11407470703125 -0.95904541015625
2193065000.0 1.0186767578125 -1.069091796875
