!Created with skrf (http://scikit-rf.org).
# Hz S RI R 50.0 
!freq ReS11 ImS11
300000.0 -0.0083843648 -0.0400234071
5299970.0 -0.0001038583 -0.0001288873
10299940.0 0.0004368575 -0.0004324368
15299910.0 0.000321969 0.0009151822
20299880.0 0.0005579789 0.0003871128
25299850.0 0.0003908745 0.0008946836
30299820.0 0.000685001 0.001196857
35299790.0 0.0004754699 0.0010726719
40299760.0 0.0005077804 0.0012218192
45299730.0 0.0007776248 0.0014971525
50299700.0 0.0008705139 0.001752996
55299670.0 0.001065504 0.0017640084
60299640.0 0.0012169327 0.0019376755
65299610.0 0.0011446429 0.0021055282
70299580.0 0.00158003 0.0022196701
75299550.0 0.0017838875 0.0021619834
80299520.0 0.0017443338 0.0024500085
85299490.0 0.0019548287 0.0024349649
90299460.0 0.0020889022 0.0026932433
95299430.0 0.0020764432 0.0026830359
100299400.0 0.0024260721 0.0028159265
105299370.0 0.0027146695 0.0028229865
110299340.0 0.0025487967 0.0028654082
115299310.0 0.0028584365 0.003028408
120299280.0 0.0031867594 0.0031372135
125299250.0 0.0034778138 0.0030760207
130299220.0 0.0034459027 0.0031986186
135299190.0 0.0034749392 0.003382664
140299160.0 0.0035570587 0.0029906098
145299130.0 0.0040458439 0.0028514554
150299100.0 0.004302569 0.0027824399
155299070.0 0.0042613252 0.0029122261
160299040.0 0.0045369505 0.0027757936
165299010.0 0.0047986621 0.0027471568
170298980.0 0.0048971384 0.0026788281
175298950.0 0.0048328508 0.0025756018
180298920.0 0.0051303189 0.0026529144
185298890.0 0.005104546 0.0024176383
190298860.0 0.0054350033 0.0023439324
195298830.0 0.0057393416 0.002070489
200298800.0 0.0057620702 0.0022259029
205298770.0 0.0058615667 0.0019147071
210298740.0 0.0058754579 0.0018729666
215298710.0 0.0059075096 0.0015722395
220298680.0 0.0060900116 0.0015184608
225298650.0 0.0060947511 0.0014799559
230298620.0 0.0064163322 0.001110488
235298590.0 0.0063398675 0.0010575265
240298560.0 0.0066351169 0.0009236731
245298530.0 0.006366177 0.00072201
250298500.0 0.0063886213 0.000574282
255298470.0 0.0063414989 0.0006513196
260298440.0 0.0066401533 0.0002800165
265298410.0 0.006437379 0.0001922379
270298380.0 0.0062784228 0.0002363756
275298350.0 0.006304134 1.4039e-05
280298320.0 0.0064495075 -0.0003429306
285298290.0 0.0064941892 -0.0003152131
290298260.0 0.0064750621 -0.0006273605
295298230.0 0.00654174 -0.0007282757
300298200.0 0.0064534126 -0.0006917597
305298170.0 0.0064580953 -0.0010266712
310298140.0 0.0066584048 -0.0009220035
315298110.0 0.0064759254 -0.0012202455
320298080.0 0.006311609 -0.0013770982
325298050.0 0.006193035 -0.0013479853
330298020.0 0.0064658372 -0.0015556294
335297990.0 0.0061148271 -0.0016627073
340297960.0 0.0062032747 -0.0015376338
345297930.0 0.006113028 -0.001872538
350297900.0 0.0060570105 -0.0020913568
355297870.0 0.0060826303 -0.0022146282
360297840.0 0.0058885991 -0.0022126747
365297810.0 0.0059904372 -0.0021953413
370297780.0 0.0057625405 -0.0023971998
375297750.0 0.005536344 -0.0021451296
380297720.0 0.0057131168 -0.0023742247
385297690.0 0.0055503684 -0.0025880007
390297660.0 0.0053732083 -0.0024003846
395297630.0 0.0054860461 -0.0025141917
400297600.0 0.0055932754 -0.0024246321
405297570.0 0.0054031347 -0.0027462761
410297540.0 0.0053350646 -0.0027826586
415297510.0 0.0052014708 -0.0026356201
420297480.0 0.0049539903 -0.0028635874
425297450.0 0.0049851465 -0.0029012961
430297420.0 0.0050027749 -0.0029197717
435297390.0 0.004782607 -0.0029377718
440297360.0 0.0049757551 -0.0028458258
445297330.0 0.0046984543 -0.0032157464
450297300.0 0.0049609012 -0.0031158379
455297270.0 0.0047186369 -0.0032148003
460297240.0 0.0046336796 -0.0033053351
465297210.0 0.0045151703 -0.0033075966
470297180.0 0.0045297285 -0.0032470466
475297150.0 0.0042237232 -0.003063359
480297120.0 0.0042623595 -0.0032662674
485297090.0 0.0040190998 -0.0034013651
490297060.0 0.0040320149 -0.0031367067
495297030.0 0.0040852486 -0.0034583702
500297000.0 0.0039839719 -0.0034378018
505296970.0 0.0039070338 -0.0034557175
510296940.0 0.0038419416 -0.003324396
515296910.0 0.0037012146 -0.0033676488
520296880.0 0.0037386368 -0.0032113991
525296850.0 0.0037629044 -0.003342851
530296820.0 0.0034391332 -0.0032537544
535296790.0 0.0034255059 -0.0034114517
540296760.0 0.003470375 -0.0035281868
545296730.0 0.0033905011 -0.0036198938
550296700.0 0.0035192037 -0.0034507297
555296670.0 0.0034111562 -0.0035165324
560296640.0 0.0032083387 -0.0033543565
565296610.0 0.0032718329 -0.0035160617
570296580.0 0.0033418149 -0.0036816522
575296550.0 0.00318701 -0.0038460433
580296520.0 0.003242936 -0.0035022098
585296490.0 0.003270449 -0.0039523657
590296460.0 0.0031193707 -0.0034908622
595296430.0 0.0030970736 -0.0037997908
600296400.0 0.0030194662 -0.0035896056
605296370.0 0.0029783065 -0.0036636235
610296340.0 0.002810871 -0.0036608735
615296310.0 0.0028187213 -0.003734718
620296280.0 0.0027178461 -0.0035484011
625296250.0 0.0025803155 -0.0037329271
630296220.0 0.0025826386 -0.0035981463
635296190.0 0.0026499658 -0.0038180299
640296160.0 0.0026383171 -0.0039245854
645296130.0 0.002412882 -0.0035677565
650296100.0 0.0023433548 -0.0036500658
655296070.0 0.0022544099 -0.0037898486
660296040.0 0.0022553957 -0.0037795426
665296010.0 0.0022628608 -0.0037820183
670295980.0 0.0023131783 -0.0036410592
675295950.0 0.002418772 -0.0036532779
680295920.0 0.0023968583 -0.0039843543
685295890.0 0.0023066735 -0.0037046258
690295860.0 0.002105719 -0.0035721306
695295830.0 0.0021262346 -0.0039007968
700295800.0 0.0018924788 -0.0037386352
705295770.0 0.0020686987 -0.0037557935
710295740.0 0.0020128111 -0.003643141
715295710.0 0.0019061368 -0.0038120109
720295680.0 0.0017602058 -0.0036606437
725295650.0 0.0019549973 -0.0036339806
730295620.0 0.0018385412 -0.0034818404
735295590.0 0.0018354969 -0.0034930665
740295560.0 0.0016502916 -0.0036268022
745295530.0 0.0016541752 -0.0037046646
750295500.0 0.0018484531 -0.0037201378
755295470.0 0.0015270964 -0.0037100575
760295440.0 0.0016158705 -0.0034597932
765295410.0 0.0015702048 -0.0035527411
770295380.0 0.0016478125 -0.003747324
775295350.0 0.0014751031 -0.0035705181
780295320.0 0.0014082494 -0.0036283358
785295290.0 0.0014947687 -0.0036436697
790295260.0 0.0014808401 -0.0037975016
795295230.0 0.0016447376 -0.0037824474
800295200.0 0.0013088232 -0.0035814879
805295170.0 0.0012506895 -0.0037963831
810295140.0 0.0011398989 -0.0036971369
815295110.0 0.0010962938 -0.0037341389
820295080.0 0.0012895786 -0.0036628258
825295050.0 0.0012868665 -0.0038194485
830295020.0 0.0012057258 -0.0037826862
835294990.0 0.0012909987 -0.0037555046
840294960.0 0.0013702127 -0.0037978915
845294930.0 0.0012079819 -0.0035073733
850294900.0 0.0011000501 -0.0036761587
855294870.0 0.0010753762 -0.0036523057
860294840.0 0.0010724599 -0.0036502149
865294810.0 0.0010557564 -0.0036833353
870294780.0 0.0010050481 -0.0037226617
875294750.0 0.0011169283 -0.0038298552
880294720.0 0.0009303911 -0.0037105432
885294690.0 0.0009093453 -0.0036364457
890294660.0 0.0010220969 -0.0037530677
895294630.0 0.0007723427 -0.0038186294
900294600.0 0.0011172873 -0.0036555654
905294570.0 0.0008047514 -0.0038839054
910294540.0 0.0007860388 -0.003614099
915294510.0 0.0009148974 -0.003602135
920294480.0 0.0008794276 -0.0036449503
925294450.0 0.0006111111 -0.0036126221
930294420.0 0.0007331464 -0.0036842268
935294390.0 0.0006225896 -0.0037686548
940294360.0 0.0008586459 -0.0037635899
945294330.0 0.0007191843 -0.0036237836
950294300.0 0.0008575767 -0.0037208843
955294270.0 0.000657755 -0.0037923792
960294240.0 0.0006743074 -0.0036323065
965294210.0 0.0007410106 -0.0035968965
970294180.0 0.0005480953 -0.0037761972
975294150.0 0.0005107503 -0.0036883576
980294120.0 0.0005231131 -0.003459127
985294090.0 0.000474075 -0.003894434
990294060.0 0.00055318 -0.0038126241
995294030.0 0.0006767884 -0.0036906671
1000294000.0 0.000506032 -0.0037125394
1005293970.0 0.0003617504 -0.0038604746
1010293940.0 0.0004833506 -0.0037915107
1015293910.0 0.0004011264 -0.0036158821
1020293880.0 0.0004695733 -0.0037180689
1025293850.0 0.0005315037 -0.0038563841
1030293820.0 0.0004346677 -0.0036110634
1035293790.0 0.0003690078 -0.0036897123
1040293760.0 0.000604084 -0.0036891687
1045293730.0 0.0004515267 -0.0035625978
1050293700.0 0.000340292 -0.0036602435
1055293670.0 0.0002936707 -0.0036001929
1060293640.0 0.0003518764 -0.0038140386
1065293610.0 0.0004793342 -0.0039491532
1070293580.0 0.0003533109 -0.003845251
1075293550.0 0.0003403034 -0.0037187832
1080293520.0 0.0004232007 -0.0038026178
1085293490.0 0.0005003942 -0.0036812395
1090293460.0 0.0003518636 -0.0034988564
1095293430.0 0.0003287074 -0.0036275067
1100293400.0 0.0004703176 -0.0038988783
1105293370.0 0.0003345008 -0.0035533035
1110293340.0 0.0002311288 -0.0035838572
1115293310.0 0.0003790016 -0.003829508
1120293280.0 0.0002012096 -0.0037508014
1125293250.0 1.09352e-05 -0.0036155936
1130293220.0 0.0002794628 -0.0035672788
1135293190.0 0.00026942 -0.0033458036
1140293160.0 5.4083e-05 -0.0033939171
1145293130.0 0.0001617826 -0.0034044224
1150293100.0 0.0001140101 -0.0034327264
1155293070.0 6.73376e-05 -0.0035615132
1160293040.0 -0.0002308892 -0.0034726092
1165293010.0 -0.0002021521 -0.0033589453
1170292980.0 -0.0002583673 -0.0034524217
1175292950.0 -0.0001051805 -0.0036919396
1180292920.0 7.03758e-05 -0.0036315038
1185292890.0 -7.578e-07 -0.0036938264
1190292860.0 0.000147294 -0.0037423483
1195292830.0 4.2588e-05 -0.0037800115
1200292800.0 0.0004572129 -0.0038145767
1205292770.0 0.000180817 -0.0036789673
1210292740.0 0.0002154618 -0.003738995
1215292710.0 0.0002604862 -0.0037576614
1220292680.0 0.0002346217 -0.0036337944
1225292650.0 -0.0001068595 -0.0036934771
1230292620.0 0.0002137486 -0.0037914808
1235292590.0 0.0002931883 -0.0040128621
1240292560.0 6.13589e-05 -0.0038383872
1245292530.0 0.0002232903 -0.0036730828
1250292500.0 0.00021703 -0.0035721186
1255292470.0 0.0002729826 -0.0037424284
1260292440.0 0.0003448788 -0.0037975913
1265292410.0 0.0002273798 -0.003597401
1270292380.0 0.0003302137 -0.0036656054
1275292350.0 6.50014e-05 -0.003870621
1280292320.0 0.0002186573 -0.0037228485
1285292290.0 0.0002702129 -0.0035947445
1290292260.0 0.0001144889 -0.0036727033
1295292230.0 0.0001347216 -0.0037621117
1300292200.0 0.0002052201 -0.0038132414
1305292170.0 0.000199098 -0.0038671938
1310292140.0 0.0001501099 -0.0036530419
1315292110.0 0.0002808219 -0.0035548664
1320292080.0 0.0001130468 -0.0038750129
1325292050.0 -4.67904e-05 -0.003699941
1330292020.0 0.0002961093 -0.0040084576
1335291990.0 0.0002809478 -0.0038887836
1340291960.0 8.5832e-05 -0.0037707279
1345291930.0 0.0001125995 -0.0038086232
1350291900.0 0.00032828 -0.0038905922
1355291870.0 0.0002248704 -0.0037681526
1360291840.0 0.0003773291 -0.0039297631
1365291810.0 0.0002813546 -0.0037667843
1370291780.0 6.77282e-05 -0.0037680352
1375291750.0 0.0002219348 -0.0036917821
1380291720.0 0.0002888358 -0.0038218514
1385291690.0 0.0001961121 -0.0037691338
1390291660.0 5.4467e-05 -0.0038082133
1395291630.0 0.0002965227 -0.0037196631
1400291600.0 0.0003477993 -0.0037169623
1405291570.0 0.0002291715 -0.003975717
1410291540.0 0.0001338709 -0.0034668381
1415291510.0 0.0003807091 -0.0036874097
1420291480.0 0.0003046574 -0.0035874025
1425291450.0 -1.47991e-05 -0.0037892408
1430291420.0 0.0001245588 -0.0036376114
1435291390.0 1.01534e-05 -0.0037426667
1440291360.0 0.0003368484 -0.0038182487
1445291330.0 9.21607e-05 -0.0037779386
1450291300.0 7.73751e-05 -0.0038240528
1455291270.0 0.0002191477 -0.0035472914
1460291240.0 0.0002711624 -0.0039031784
1465291210.0 3.37747e-05 -0.0037849788
1470291180.0 0.0001995147 -0.0038414706
1475291150.0 0.0001714985 -0.0034894613
1480291120.0 0.0003287086 -0.0038306975
1485291090.0 0.0004044984 -0.0038858018
1490291060.0 -3.9396e-06 -0.0037929015
1495291030.0 7.37017e-05 -0.0037360192
1500291000.0 0.0004250456 -0.0037597576
1505290970.0 0.0002443926 -0.0039508261
1510290940.0 0.0001829074 -0.0037907708
1515290910.0 0.0002351797 -0.0038335299
1520290880.0 0.0002162378 -0.0036642901
1525290850.0 0.0001672587 -0.00369078
1530290820.0 0.0001840595 -0.0037155315
1535290790.0 0.0003212445 -0.0036588339
1540290760.0 7.59117e-05 -0.0035342397
1545290730.0 0.00016877 -0.0038543055
1550290700.0 0.0003844242 -0.0035920544
1555290670.0 0.000450405 -0.0037006235
1560290640.0 0.0002680545 -0.0037729854
1565290610.0 0.0002876973 -0.0038031436
1570290580.0 0.0003411152 -0.0035665532
1575290550.0 4.50524e-05 -0.0036666128
1580290520.0 0.0004372778 -0.0036348614
1585290490.0 0.0004430086 -0.0035982072
1590290460.0 0.0002923187 -0.0036880711
1595290430.0 0.0002663976 -0.0037897068
1600290400.0 0.0005550879 -0.0038330496
1605290370.0 0.0003489025 -0.0036431675
1610290340.0 0.0003991864 -0.003608683
1615290310.0 0.0005001192 -0.0035566718
1620290280.0 0.0004809068 -0.0035690282
1625290250.0 0.0004455799 -0.0035853086
1630290220.0 0.000317528 -0.003723234
1635290190.0 0.0002721598 -0.0038608592
1640290160.0 0.0005205047 -0.0038014648
1645290130.0 0.0006778266 -0.0037517598
1650290100.0 0.0004325561 -0.0035594971
1655290070.0 0.0004267625 -0.0035165699
1660290040.0 0.0003553548 -0.0036427689
1665290010.0 0.0004540634 -0.0037088238
1670289980.0 0.0005136932 -0.0037263537
1675289950.0 0.0003527978 -0.0036964941
1680289920.0 0.0002733042 -0.0037123279
1685289890.0 0.0004805244 -0.003586578
1690289860.0 0.0004061625 -0.0036034464
1695289830.0 0.0004098172 -0.0037516625
1700289800.0 0.0004872651 -0.00365906
1705289770.0 0.0005564985 -0.0037111631
1710289740.0 0.0006615415 -0.0035549867
1715289710.0 0.0005120068 -0.0036221479
1720289680.0 0.0005198669 -0.0034876384
1725289650.0 0.0005757872 -0.0035872764
1730289620.0 0.0004869255 -0.0036121059
1735289590.0 0.0005532593 -0.0035072651
1740289560.0 0.0005105332 -0.0034501936
1745289530.0 0.0004696107 -0.0035941631
1750289500.0 0.000541005 -0.0035518816
1755289470.0 0.0005674517 -0.0035094366
1760289440.0 0.0004429662 -0.003547976
1765289410.0 0.0006174559 -0.0033529221
1770289380.0 0.000533335 -0.0036581006
1775289350.0 0.0007448786 -0.0034460906
1780289320.0 0.0005857661 -0.0034083934
1785289290.0 0.000714791 -0.003411975
1790289260.0 0.0005440768 -0.0034669868
1795289230.0 0.0005757955 -0.0035686142
1800289200.0 0.0007467088 -0.0036017376
1805289170.0 0.0008370532 -0.0036393559
1810289140.0 0.000842223 -0.0035661279
1815289110.0 0.0007192154 -0.0034984032
1820289080.0 0.0006838556 -0.0034537779
1825289050.0 0.0005716513 -0.0036774833
1830289020.0 0.0006963162 -0.003451039
1835288990.0 0.0007801194 -0.0033473748
1840288960.0 0.000592196 -0.0034399412
1845288930.0 0.0007363853 -0.003361962
1850288900.0 0.0006485353 -0.0034128803
1855288870.0 0.0007179952 -0.0035768619
1860288840.0 0.0007142863 -0.0033335344
1865288810.0 0.0007590338 -0.0033638646
1870288780.0 0.0006418268 -0.0034109307
1875288750.0 0.0006062975 -0.0033090962
1880288720.0 0.0007818177 -0.0033678392
1885288690.0 0.0007106015 -0.0033593671
1890288660.0 0.0006010112 -0.0032772209
1895288630.0 0.0008606745 -0.0032938619
1900288600.0 0.0008318163 -0.0033003238
1905288570.0 0.0006816785 -0.0031971307
1910288540.0 0.0007047613 -0.0032023507
1915288510.0 0.0010000407 -0.0034027373
1920288480.0 0.000716009 -0.0033056154
1925288450.0 0.000753415 -0.0032892962
1930288420.0 0.0010748285 -0.0033705078
1935288390.0 0.0010103073 -0.0033803349
1940288360.0 0.0009234961 -0.0032858076
1945288330.0 0.0008599878 -0.0032923679
1950288300.0 0.0009856509 -0.0030805171
1955288270.0 0.0008499331 -0.0032989392
1960288240.0 0.0009422148 -0.0031327722
1965288210.0 0.001008587 -0.0033480792
1970288180.0 0.0008683422 -0.0032640755
1975288150.0 0.0009214322 -0.0031360567
1980288120.0 0.0011158067 -0.003006471
1985288090.0 0.0008659395 -0.0032171204
1990288060.0 0.0012010422 -0.0033605087
1995288030.0 0.0009382748 -0.0031070554
2000288000.0 0.0010355456 -0.0030878026
2005287970.0 0.0008557795 -0.0028853234
2010287940.0 0.0009379725 -0.0029401762
2015287910.0 0.0009771288 -0.0030491288
2020287880.0 0.0009834944 -0.0030478515
2025287850.0 0.0009321199 -0.002890741
2030287820.0 0.0009588584 -0.0030593245
2035287790.0 0.0008245942 -0.0030411134
2040287760.0 0.0008597973 -0.0031697659
2045287730.0 0.0008666212 -0.0032418168
2050287700.0 0.0010999754 -0.0029616249
2055287670.0 0.0010834382 -0.0028883849
2060287640.0 0.0009322471 -0.002976682
2065287610.0 0.0011770635 -0.003125032
2070287580.0 0.0009144986 -0.0029306557
2075287550.0 0.0013434878 -0.0030524714
2080287520.0 0.0010816481 -0.0028735372
2085287490.0 0.0010616553 -0.0030858148
2090287460.0 0.0011191369 -0.0029546883
2095287430.0 0.0011963299 -0.002876181
2100287400.0 0.0011078384 -0.0028166559
2105287370.0 0.0011216605 -0.0029775457
2110287340.0 0.0011050767 -0.0027814018
2115287310.0 0.0011491863 -0.0028944971
2120287280.0 0.0011739506 -0.0028953608
2125287250.0 0.0010181509 -0.0028181332
2130287220.0 0.0009972544 -0.0028390133
2135287190.0 0.0010134747 -0.0028874988
2140287160.0 0.0011717762 -0.0027621487
2145287130.0 0.0012452661 -0.0026153511
2150287100.0 0.0011351351 -0.0025958719
2155287070.0 0.0012559011 -0.0029127206
2160287040.0 0.0013361903 -0.0029918556
2165287010.0 0.0012576848 -0.0026834825
2170286980.0 0.0013442035 -0.0027066496
2175286950.0 0.001170013 -0.0028142622
2180286920.0 0.0010825601 -0.0027449236
2185286890.0 0.0013298143 -0.0027914706
2190286860.0 0.0012910095 -0.0026281984
2195286830.0 0.0011171298 -0.0027342356
2200286800.0 0.0012494909 -0.0027366686
2205286770.0 0.0011135487 -0.0025689183
2210286740.0 0.0010895376 -0.002580661
2215286710.0 0.001066504 -0.0026125736
2220286680.0 0.0013275635 -0.0025224422
2225286650.0 0.0011225397 -0.0026419544
2230286620.0 0.0012175529 -0.0027403928
2235286590.0 0.0011243171 -0.0026730171
2240286560.0 0.0013616186 -0.0026756028
2245286530.0 0.0010736957 -0.00257607
2250286500.0 0.0011628308 -0.0027880213
2255286470.0 0.0011905124 -0.0023477141
2260286440.0 0.0011175859 -0.0026126188
2265286410.0 0.0011931597 -0.0025386998
2270286380.0 0.0012074826 -0.0025875764
2275286350.0 0.0012521311 -0.0025211099
2280286320.0 0.0011090494 -0.0024623845
2285286290.0 0.0011996974 -0.0022964944
2290286260.0 0.0011722773 -0.002616506
2295286230.0 0.0010237531 -0.0024449771
2300286200.0 0.0011923442 -0.0023328168
2305286170.0 0.0012268484 -0.0026363021
2310286140.0 0.0010866227 -0.0023525773
2315286110.0 0.0011084566 -0.002401553
2320286080.0 0.0011820339 -0.0022108063
2325286050.0 0.0009927923 -0.0022170264
2330286020.0 0.0011510323 -0.0024126491
2335285990.0 0.0012520099 -0.0021441877
2340285960.0 0.0012498445 -0.0023179417
2345285930.0 0.0009642823 -0.002229959
2350285900.0 0.0012501752 -0.002363363
2355285870.0 0.0014531571 -0.0024389806
2360285840.0 0.0012767519 -0.0023776889
2365285810.0 0.001199736 -0.0020591092
2370285780.0 0.001165113 -0.0024321592
2375285750.0 0.0010991571 -0.0020798594
2380285720.0 0.0010083101 -0.0023612643
2385285690.0 0.0010968719 -0.0020400927
2390285660.0 0.0011304331 -0.0022387477
2395285630.0 0.0013136337 -0.0022824078
2400285600.0 0.0009222932 -0.0022418851
2405285570.0 0.0012167268 -0.0023120691
2410285540.0 0.001098269 -0.0020996767
2415285510.0 0.0012316899 -0.0023820523
2420285480.0 0.0010437019 -0.0021015504
2425285450.0 0.0012407717 -0.0022353958
2430285420.0 0.0010099455 -0.0020289853
2435285390.0 0.0010537616 -0.0022487993
2440285360.0 0.001298098 -0.0021910918
2445285330.0 0.001148358 -0.0023509229
2450285300.0 0.0011837051 -0.0021069293
2455285270.0 0.0011416141 -0.0022361813
2460285240.0 0.0011222586 -0.0023017619
2465285210.0 0.001054099 -0.0018451844
2470285180.0 0.0009299093 -0.0021378741
2475285150.0 0.0010415114 -0.0021251024
2480285120.0 0.0010629218 -0.0019812052
2485285090.0 0.0010374526 -0.0021003015
2490285060.0 0.0008955976 -0.0020820412
2495285030.0 0.0010760329 -0.0021083832
2500285000.0 0.0009160721 -0.0020277766
2505284970.0 0.0011911039 -0.0019395973
2510284940.0 0.0011245384 -0.001902074
2515284910.0 0.0010098435 -0.0019310806
2520284880.0 0.0009952225 -0.0020506293
2525284850.0 0.0011365909 -0.0020192541
2530284820.0 0.00110042 -0.0020603934
2535284790.0 0.0012743255 -0.0019630712
