!Created with skrf (http://scikit-rf.org).
# Hz S RI R 50.0 
!freq ReS11 ImS11
45000000.0 -0.076690673828125 -0.09720993041992188
49995500.0 -0.097015380859375 -0.09459304809570312
54991000.0 -0.11761093139648438 -0.08829116821289062
59986500.0 -0.1354827880859375 -0.088043212890625
64982000.0 -0.15435791015625 -0.08081817626953125
69977500.0 -0.17364501953125 -0.06865692138671875
74973000.0 -0.19205474853515625 -0.05327606201171875
79968500.0 -0.20885467529296875 -0.034942626953125
84964000.0 -0.224151611328125 -0.01340484619140625
89959500.0 -0.237274169921875 0.01125335693359375
94955000.0 -0.247161865234375 0.0387420654296875
99950500.0 -0.2538909912109375 0.0688934326171875
104946000.0 -0.256622314453125 0.100860595703125
109941500.0 -0.2550201416015625 0.1345977783203125
114937000.0 -0.24893951416015625 0.16944122314453125
119932500.0 -0.23798370361328125 0.2045745849609375
124928000.0 -0.22216033935546875 0.23914337158203125
129923500.0 -0.20111083984375 0.272918701171875
134919000.0 -0.175140380859375 0.3048553466796875
139914500.0 -0.144195556640625 0.334197998046875
144910000.0 -0.108642578125 0.360321044921875
149905500.0 -0.0689544677734375 0.3824310302734375
154901000.0 -0.0260009765625 0.3997650146484375
159896500.0 0.02001953125 0.411956787109375
164892000.0 0.068023681640625 0.4185791015625
169887500.0 0.1176605224609375 0.419464111328125
174883000.0 0.1680755615234375 0.4145050048828125
179878500.0 0.2187347412109375 0.4029083251953125
184874000.0 0.2684478759765625 0.3854217529296875
189869500.0 0.317108154296875 0.3619384765625
194865000.0 0.3635101318359375 0.3326416015625
199860500.0 0.4071807861328125 0.2977447509765625
204856000.0 0.4471435546875 0.256988525390625
209851500.0 0.4831085205078125 0.211395263671875
214847000.0 0.514495849609375 0.1607666015625
219842500.0 0.5408935546875 0.105926513671875
224838000.0 0.5615234375 0.047210693359375
229833500.0 0.575836181640625 -0.014892578125
234829000.0 0.5830078125 -0.079345703125
239824500.0 0.582977294921875 -0.145904541015625
244820000.0 0.57537841796875 -0.21343994140625
249815500.0 0.559478759765625 -0.281402587890625
254811000.0 0.554351806640625 -0.328460693359375
259806500.0 0.5260009765625 -0.394622802734375
264802000.0 0.4893646240234375 -0.4586639404296875
269797500.0 0.444000244140625 -0.519195556640625
274793000.0 0.391571044921875 -0.574859619140625
279788500.0 0.33074951171875 -0.624908447265625
284784000.0 0.26446533203125 -0.66839599609375
289779500.0 0.192352294921875 -0.7037353515625
294775000.0 0.115386962890625 -0.730987548828125
299770500.0 0.035003662109375 -0.749725341796875
304766000.0 -0.0477294921875 -0.759002685546875
309761500.0 -0.131500244140625 -0.758392333984375
314757000.0 -0.215545654296875 -0.748443603515625
319752500.0 -0.298553466796875 -0.72845458984375
324748000.0 -0.37939453125 -0.7003173828125
329743500.0 -0.457366943359375 -0.662841796875
334739000.0 -0.531982421875 -0.6171875
339734500.0 -0.601959228515625 -0.56341552734375
344730000.0 -0.66619873046875 -0.501708984375
349725500.0 -0.724456787109375 -0.433380126953125
354721000.0 -0.7762451171875 -0.3583984375
359716500.0 -0.82037353515625 -0.27734375
364712000.0 -0.856475830078125 -0.190673828125
369707500.0 -0.883880615234375 -0.09881591796875
374703000.0 -0.901519775390625 -0.00274658203125
379698500.0 -0.909088134765625 0.096771240234375
384694000.0 -0.905517578125 0.198486328125
389689500.0 -0.88983154296875 0.300872802734375
394685000.0 -0.86248779296875 0.4031982421875
399680500.0 -0.822418212890625 0.50335693359375
404676000.0 -0.770751953125 0.599761962890625
409671500.0 -0.706787109375 0.690582275390625
414667000.0 -0.63165283203125 0.774139404296875
419662500.0 -0.544921875 0.851165771484375
424658000.0 -0.448760986328125 0.913970947265625
429653500.0 -0.3443603515625 0.9664306640625
434649000.0 -0.2325439453125 1.004638671875
439644500.0 -0.11883544921875 1.02862548828125
444640000.0 -0.0037841796875 1.03955078125
449635500.0 0.1104736328125 1.0380859375
454631000.0 0.2244873046875 1.025146484375
459626500.0 0.337188720703125 0.998260498046875
464622000.0 0.4454345703125 0.959259033203125
469617500.0 0.547760009765625 0.90863037109375
474613000.0 0.6435546875 0.848052978515625
479608500.0 0.732635498046875 0.778411865234375
484604000.0 0.814117431640625 0.70086669921875
489599500.0 0.8875732421875 0.61566162109375
494595000.0 0.95281982421875 0.523712158203125
499590500.0 1.009033203125 0.42547607421875
504586000.0 1.05609130859375 0.32183837890625
509581500.0 1.0938720703125 0.21307373046875
514577000.0 1.12139892578125 0.099853515625
519572500.0 1.13818359375 -0.01788330078125
524568000.0 1.1435546875 -0.139404296875
529563500.0 1.1365966796875 -0.2635498046875
534559000.0 1.11578369140625 -0.38934326171875
539554500.0 1.08056640625 -0.51495361328125
544550000.0 1.0303955078125 -0.63848876953125
549545500.0 0.964447021484375 -0.758056640625
554541000.0 0.88311767578125 -0.87103271484375
559536500.0 0.786773681640625 -0.97509765625
564532000.0 0.6773681640625 -1.06756591796875
569527500.0 0.5555419921875 -1.147216796875
574523000.0 0.42376708984375 -1.210693359375
579518500.0 0.2847900390625 -1.25823974609375
584514000.0 0.140380859375 -1.28814697265625
589509500.0 -0.00616455078125 -1.2998046875
594505000.0 -0.15264892578125 -1.2928466796875
599500500.0 -0.2965087890625 -1.2694091796875
604496000.0 -0.435791015625 -1.22906494140625
609491500.0 -0.56756591796875 -1.1739501953125
614487000.0 -0.6915283203125 -1.10552978515625
619482500.0 -0.8056640625 -1.025146484375
624478000.0 -0.90985107421875 -0.93487548828125
629473500.0 -1.00323486328125 -0.83526611328125
634469000.0 -1.08563232421875 -0.727783203125
639464500.0 -1.1571044921875 -0.6141357421875
644460000.0 -1.2176513671875 -0.49420166015625
649455500.0 -1.2669677734375 -0.36920166015625
654451000.0 -1.30499267578125 -0.23980712890625
659446500.0 -1.33203125 -0.1064453125
664442000.0 -1.34710693359375 0.0301513671875
669437500.0 -1.34918212890625 0.17034912109375
674433000.0 -1.33819580078125 0.3126220703125
679428500.0 -1.31256103515625 0.4559326171875
684424000.0 -1.271728515625 0.59930419921875
689419500.0 -1.21527099609375 0.74163818359375
694415000.0 -1.14117431640625 0.8798828125
699410500.0 -1.0506591796875 1.01239013671875
704406000.0 -0.9422607421875 1.13690185546875
709401500.0 -0.8172607421875 1.24945068359375
714397000.0 -0.67584228515625 1.34857177734375
719392500.0 -0.520751953125 1.42987060546875
724388000.0 -0.35418701171875 1.492431640625
729383500.0 -0.178955078125 1.5323486328125
734379000.0 0.00128173828125 1.54791259765625
739374500.0 0.18218994140625 1.540771484375
744370000.0 0.36004638671875 1.51031494140625
749365500.0 0.53106689453125 1.456787109375
754361000.0 0.6920166015625 1.38397216796875
759356500.0 0.84075927734375 1.2926025390625
764352000.0 0.97509765625 1.18603515625
769347500.0 1.094482421875 1.06683349609375
774343000.0 1.19781494140625 0.93798828125
779338500.0 1.28533935546875 0.80145263671875
784334000.0 1.3563232421875 0.65850830078125
789329500.0 1.41302490234375 0.51202392578125
794325000.0 1.45452880859375 0.3634033203125
799320500.0 1.4818115234375 0.21282958984375
804316000.0 1.4952392578125 0.061767578125
809311500.0 1.4949951171875 -0.08953857421875
814307000.0 1.48187255859375 -0.2396240234375
819302500.0 1.4537353515625 -0.38922119140625
824298000.0 1.413818359375 -0.5364990234375
829293500.0 1.361572265625 -0.680419921875
834289000.0 1.2928466796875 -0.8218994140625
839284500.0 1.21099853515625 -0.95733642578125
844280000.0 1.1744384765625 -1.04876708984375
849275500.0 1.06732177734375 -1.17657470703125
854271000.0 0.945068359375 -1.29437255859375
859266500.0 0.8074951171875 -1.40020751953125
864262000.0 0.65655517578125 -1.49188232421875
869257500.0 0.4913330078125 -1.566162109375
874253000.0 0.320068359375 -1.62164306640625
879248500.0 0.13970947265625 -1.6563720703125
884244000.0 -0.04522705078125 -1.670654296875
889239500.0 -0.23193359375 -1.6622314453125
894235000.0 -0.4163818359375 -1.63104248046875
899230500.0 -0.59722900390625 -1.5789794921875
904226000.0 -0.77105712890625 -1.50469970703125
909221500.0 -0.93487548828125 -1.41015625
914217000.0 -1.0850830078125 -1.296142578125
919212500.0 -1.21929931640625 -1.16534423828125
924208000.0 -1.33489990234375 -1.02178955078125
929203500.0 -1.43243408203125 -0.869140625
934199000.0 -1.5108642578125 -0.7091064453125
939194500.0 -1.5712890625 -0.5445556640625
944190000.0 -1.6151123046875 -0.377685546875
949185500.0 -1.64202880859375 -0.209228515625
954181000.0 -1.65289306640625 -0.04095458984375
959176500.0 -1.6484375 0.126708984375
964172000.0 -1.6287841796875 0.29266357421875
969167500.0 -1.5948486328125 0.45611572265625
974163000.0 -1.54559326171875 0.61773681640625
979158500.0 -1.48193359375 0.7744140625
984154000.0 -1.40252685546875 0.9266357421875
989149500.0 -1.307861328125 1.0728759765625
994145000.0 -1.197021484375 1.21160888671875
999140500.0 -1.0716552734375 1.340087890625
1004136000.0 -0.9305419921875 1.45684814453125
1009131500.0 -0.7744140625 1.561279296875
1014127000.0 -0.6048583984375 1.64886474609375
1019122500.0 -0.42236328125 1.717529296875
1024118000.0 -0.23089599609375 1.7650146484375
1029113500.0 -0.031982421875 1.78875732421875
1034109000.0 0.17041015625 1.78851318359375
1039104500.0 0.37261962890625 1.76318359375
1044100000.0 0.57000732421875 1.71209716796875
1049095500.0 0.76043701171875 1.6373291015625
1054091000.0 0.93914794921875 1.5396728515625
1059086500.0 1.102783203125 1.42156982421875
1064082000.0 1.25067138671875 1.28564453125
1069077500.0 1.3795166015625 1.13531494140625
1074073000.0 1.48907470703125 0.97393798828125
1079068500.0 1.57843017578125 0.8035888671875
1084064000.0 1.6480712890625 0.6273193359375
1089059500.0 1.697509765625 0.44775390625
1094055000.0 1.72808837890625 0.2666015625
1099050500.0 1.74102783203125 0.0853271484375
1104046000.0 1.73602294921875 -0.09423828125
1109041500.0 1.7138671875 -0.2713623046875
1114037000.0 1.67584228515625 -0.44415283203125
1119032500.0 1.62213134765625 -0.61334228515625
1124028000.0 1.55267333984375 -0.77618408203125
1129023500.0 1.46759033203125 -0.93182373046875
1134019000.0 1.36810302734375 -1.0809326171875
1139014500.0 1.25347900390625 -1.221435546875
1144010000.0 1.1246337890625 -1.35009765625
1149005500.0 0.98114013671875 -1.467529296875
1154001000.0 0.82476806640625 -1.5711669921875
1158996500.0 0.655517578125 -1.658447265625
1163992000.0 0.47589111328125 -1.72833251953125
1168987500.0 0.2867431640625 -1.7777099609375
1173983000.0 0.0911865234375 -1.806640625
1178978500.0 -0.10888671875 -1.8123779296875
1183974000.0 -0.309814453125 -1.7945556640625
1188969500.0 -0.5081787109375 -1.7528076171875
1193965000.0 -0.70184326171875 -1.6875
1198960500.0 -0.88604736328125 -1.59832763671875
1203956000.0 -1.05804443359375 -1.48822021484375
1208951500.0 -1.21575927734375 -1.35833740234375
1213947000.0 -1.355224609375 -1.2120361328125
1218942500.0 -1.476318359375 -1.0509033203125
1223938000.0 -1.57647705078125 -0.87908935546875
1228933500.0 -1.65582275390625 -0.6986083984375
1233929000.0 -1.71380615234375 -0.51251220703125
1238924500.0 -1.749755859375 -0.323974609375
1243920000.0 -1.76611328125 -0.134521484375
1248915500.0 -1.76171875 0.05255126953125
1253911000.0 -1.7381591796875 0.23590087890625
1258906500.0 -1.697265625 0.4146728515625
1263902000.0 -1.63916015625 0.58642578125
1268897500.0 -1.56500244140625 0.75
1273893000.0 -1.475341796875 0.90521240234375
1278888500.0 -1.37188720703125 1.04962158203125
1283884000.0 -1.25494384765625 1.18365478515625
1288879500.0 -1.12518310546875 1.30517578125
1293875000.0 -0.984375 1.413818359375
1298870500.0 -0.8333740234375 1.50994873046875
1303866000.0 -0.672607421875 1.58599853515625
1308861500.0 -0.50531005859375 1.646240234375
1313857000.0 -0.3321533203125 1.690673828125
1318852500.0 -0.1541748046875 1.71734619140625
1323848000.0 0.02569580078125 1.72442626953125
1328843500.0 0.20611572265625 1.7138671875
1333839000.0 0.384521484375 1.68402099609375
1338834500.0 0.5596923828125 1.63592529296875
1343830000.0 0.72833251953125 1.56982421875
1348825500.0 0.890625 1.486083984375
1353821000.0 1.04345703125 1.385986328125
1358816500.0 1.18560791015625 1.2694091796875
1363812000.0 1.31524658203125 1.138427734375
1368807500.0 1.4306640625 0.99420166015625
1373803000.0 1.53094482421875 0.83782958984375
1378798500.0 1.61456298828125 0.67047119140625
1383794000.0 1.67889404296875 0.4949951171875
1388789500.0 1.72503662109375 0.3121337890625
1393785000.0 1.7509765625 0.1243896484375
1398780500.0 1.7557373046875 -0.06597900390625
1403776000.0 1.73907470703125 -0.25616455078125
1408771500.0 1.700927734375 -0.44384765625
1413767000.0 1.64129638671875 -0.6273193359375
1418762500.0 1.561767578125 -0.80157470703125
1423758000.0 1.46234130859375 -0.96588134765625
1428753500.0 1.34423828125 -1.1175537109375
1433749000.0 1.2108154296875 -1.25360107421875
1438744500.0 1.06317138671875 -1.37298583984375
1443740000.0 0.9044189453125 -1.47332763671875
1448735500.0 0.73681640625 -1.55401611328125
1453731000.0 0.5631103515625 -1.615234375
1458726500.0 0.38623046875 -1.656005859375
1463722000.0 0.20806884765625 -1.67724609375
1468717500.0 0.03173828125 -1.6798095703125
1473713000.0 -0.141357421875 -1.66412353515625
1478708500.0 -0.31011962890625 -1.631103515625
1483704000.0 -0.472412109375 -1.58294677734375
1488699500.0 -0.6273193359375 -1.51995849609375
1493695000.0 -0.774169921875 -1.44366455078125
1498690500.0 -0.9119873046875 -1.35430908203125
1503686000.0 -1.04095458984375 -1.2537841796875
1508681500.0 -1.15948486328125 -1.14239501953125
1513677000.0 -1.26708984375 -1.02056884765625
1518672500.0 -1.3643798828125 -0.88983154296875
1523668000.0 -1.44879150390625 -0.7496337890625
1528663500.0 -1.52093505859375 -0.60107421875
1533659000.0 -1.57891845703125 -0.44439697265625
1538654500.0 -1.62176513671875 -0.28167724609375
1543650000.0 -1.649658203125 -0.1123046875
1548645500.0 -1.6593017578125 0.06085205078125
1553641000.0 -1.650390625 0.23675537109375
1558636500.0 -1.62213134765625 0.4127197265625
1563632000.0 -1.57391357421875 0.58685302734375
1568627500.0 -1.505126953125 0.7567138671875
1573623000.0 -1.41558837890625 0.918212890625
1578618500.0 -1.30706787109375 1.06903076171875
1583614000.0 -1.18109130859375 1.2054443359375
1588609500.0 -1.039306640625 1.32598876953125
1593605000.0 -0.88433837890625 1.42791748046875
1598600500.0 -0.71990966796875 1.5103759765625
1603596000.0 -0.548828125 1.57147216796875
1608591500.0 -0.3736572265625 1.6126708984375
1613587000.0 -0.1976318359375 1.63226318359375
1618582500.0 -0.024169921875 1.632568359375
1623578000.0 0.14581298828125 1.61474609375
1628573500.0 0.3101806640625 1.580322265625
1633569000.0 0.466796875 1.52972412109375
1638564500.0 0.61529541015625 1.46563720703125
1643560000.0 0.7547607421875 1.388916015625
1648555500.0 0.8851318359375 1.30084228515625
1653551000.0 1.00592041015625 1.20263671875
1658546500.0 1.1168212890625 1.09515380859375
1663542000.0 1.21771240234375 0.978515625
1668537500.0 1.307861328125 0.854248046875
1673533000.0 1.38714599609375 0.72216796875
1678528500.0 1.45587158203125 0.582275390625
1683524000.0 1.51202392578125 0.434814453125
1688519500.0 1.5546875 0.28131103515625
1693515000.0 1.5826416015625 0.121826171875
1698510500.0 1.594970703125 -0.04278564453125
1703506000.0 1.59002685546875 -0.21044921875
1708501500.0 1.5667724609375 -0.3802490234375
1713497000.0 1.52386474609375 -0.54901123046875
1718492500.0 1.4603271484375 -0.71368408203125
1723488000.0 1.37701416015625 -0.87225341796875
1728483500.0 1.273681640625 -1.02093505859375
1733479000.0 1.1524658203125 -1.15509033203125
1738474500.0 1.0152587890625 -1.27386474609375
1743470000.0 0.86444091796875 -1.37408447265625
1748465500.0 0.704345703125 -1.4541015625
1753461000.0 0.537109375 -1.51361083984375
1758456500.0 0.36627197265625 -1.551025390625
1763452000.0 0.197265625 -1.5684814453125
1768447500.0 0.03070068359375 -1.5672607421875
1773443000.0 -0.13177490234375 -1.5482177734375
1778438500.0 -0.28692626953125 -1.51361083984375
1783434000.0 -0.43487548828125 -1.46417236328125
1788429500.0 -0.57421875 -1.40301513671875
1793425000.0 -0.70538330078125 -1.33062744140625
1798420500.0 -0.82720947265625 -1.24859619140625
1803416000.0 -0.93994140625 -1.15740966796875
1808411500.0 -1.04486083984375 -1.05865478515625
1813407000.0 -1.140380859375 -0.951416015625
1818402500.0 -1.22698974609375 -0.83740234375
1823398000.0 -1.30413818359375 -0.71563720703125
1828393500.0 -1.37115478515625 -0.5869140625
1833389000.0 -1.427734375 -0.450927734375
1838384500.0 -1.47296142578125 -0.30780029296875
1843380000.0 -1.50457763671875 -0.15826416015625
1848375500.0 -1.52191162109375 -0.00360107421875
1853371000.0 -1.5233154296875 0.15594482421875
1858366500.0 -1.50732421875 0.31732177734375
1863362000.0 -1.47265625 0.47955322265625
1868357500.0 -1.4178466796875 0.638916015625
1873353000.0 -1.34368896484375 0.79241943359375
1878348500.0 -1.25042724609375 0.93768310546875
1883344000.0 -1.13983154296875 1.0703125
1888339500.0 -1.0125732421875 1.1884765625
1893335000.0 -0.8721923828125 1.2889404296875
1898330500.0 -0.721923828125 1.370361328125
1903326000.0 -0.56500244140625 1.432373046875
1908321500.0 -0.40411376953125 1.474609375
1913317000.0 -0.24249267578125 1.4971923828125
1918312500.0 -0.0830078125 1.50152587890625
1923308000.0 0.0723876953125 1.4886474609375
1928303500.0 0.22216796875 1.46075439453125
1933299000.0 0.36517333984375 1.4193115234375
1938294500.0 0.500244140625 1.36517333984375
1943290000.0 0.6279296875 1.3006591796875
1948285500.0 0.74725341796875 1.22625732421875
1953281000.0 0.85784912109375 1.1429443359375
1958276500.0 0.96014404296875 1.05133056640625
1963272000.0 1.05474853515625 0.9527587890625
1968267500.0 1.1407470703125 0.84564208984375
1973263000.0 1.2166748046875 0.73248291015625
1978258500.0 1.28350830078125 0.61212158203125
1983254000.0 1.3404541015625 0.4852294921875
1988249500.0 1.385986328125 0.352294921875
1993245000.0 1.419189453125 0.21343994140625
1998240500.0 1.43939208984375 0.070556640625
2003236000.0 1.44512939453125 -0.07684326171875
2008231500.0 1.4351806640625 -0.22442626953125
2013227000.0 1.4090576171875 -0.37298583984375
2018222500.0 1.367431640625 -0.5196533203125
2023218000.0 1.3084716796875 -0.66143798828125
2028213500.0 1.23358154296875 -0.79693603515625
2033209000.0 1.14373779296875 -0.92333984375
2038204500.0 1.03936767578125 -1.0386962890625
2043200000.0 0.92388916015625 -1.1414794921875
2048195500.0 0.797607421875 -1.2298583984375
2053191000.0 0.6634521484375 -1.3028564453125
2058186500.0 0.5235595703125 -1.36114501953125
2063182000.0 0.3798828125 -1.40325927734375
2068177500.0 0.2340087890625 -1.43060302734375
2073173000.0 0.0877685546875 -1.4423828125
2078168500.0 -0.0572509765625 -1.43994140625
2083164000.0 -0.2003173828125 -1.42401123046875
2088159500.0 -0.34014892578125 -1.39569091796875
2093155000.0 -0.47589111328125 -1.35418701171875
2098150500.0 -0.60699462890625 -1.301025390625
2103146000.0 -0.73309326171875 -1.2362060546875
2108141500.0 -0.85302734375 -1.1605224609375
2113137000.0 -0.96588134765625 -1.07318115234375
2118132500.0 -1.0714111328125 -0.97540283203125
2123128000.0 -1.168701171875 -0.866943359375
2128123500.0 -1.25592041015625 -0.74853515625
2133119000.0 -1.33258056640625 -0.6202392578125
2138114500.0 -1.39654541015625 -0.48291015625
2143110000.0 -1.44659423828125 -0.337646484375
2148105500.0 -1.4815673828125 -0.1851806640625
2153101000.0 -1.49957275390625 -0.0279541015625
2158096500.0 -1.50048828125 0.13214111328125
2163092000.0 -1.48223876953125 0.29315185546875
2168087500.0 -1.44549560546875 0.45147705078125
2173083000.0 -1.3902587890625 0.60601806640625
2178078500.0 -1.31719970703125 0.7515869140625
2183074000.0 -1.227294921875 0.88800048828125
2188069500.0 -1.1229248046875 1.0126953125
2193065000.0 -1.00604248046875 1.12371826171875
2198060500.0 -0.87884521484375 1.21923828125
