!Created with skrf (http://scikit-rf.org).
# Hz S RI R 50.0 
!freq ReS11 ImS11
300000.0 -1.020813012 -0.1761039728
5299970.0 -1.003891625 0.0017413758
10299940.0 -1.002095655 0.0014839639
15299910.0 -1.001832607 0.0078083506
20299880.0 -1.002200116 0.0057941399
25299850.0 -1.001988033 0.0092780102
30299820.0 -1.001897516 0.0120753867
35299790.0 -1.002058872 0.0116649921
40299760.0 -1.001871786 0.0134759498
45299730.0 -1.001824039 0.0147812961
50299700.0 -1.001382585 0.0166539496
55299670.0 -1.001286574 0.018267783
60299640.0 -1.001301712 0.0196974757
65299610.0 -1.001226355 0.0212555593
70299580.0 -1.000761078 0.0222695917
75299550.0 -1.000770824 0.0241338567
80299520.0 -1.001153562 0.0259403255
85299490.0 -1.001354336 0.026694727
90299460.0 -1.001263727 0.0290671468
95299430.0 -1.000438351 0.0300533698
100299400.0 -1.00026122 0.0318217965
105299370.0 -1.000449103 0.033735668
110299340.0 -1.000411563 0.0351980045
115299310.0 -1.000840559 0.036828541
120299280.0 -1.000325733 0.0378541093
125299250.0 -1.000696685 0.0390590155
130299220.0 -1.000347421 0.040780095
135299190.0 -1.000458637 0.0420098254
140299160.0 -1.000219319 0.0441587164
145299130.0 -1.000134072 0.0458332681
150299100.0 -0.9999125299 0.047512244
155299070.0 -1.000182971 0.0483740642
160299040.0 -0.9999758301 0.050040299
165299010.0 -0.9997212686 0.051373254
170298980.0 -0.9995041302 0.0524890039
175298950.0 -0.9977008486 0.0541607515
180298920.0 -0.9965767409 0.0555168652
185298890.0 -0.9980314694 0.057335871
190298860.0 -0.9996446433 0.0584388699
195298830.0 -0.9990725225 0.0602908957
200298800.0 -0.999732461 0.0625101845
205298770.0 -0.9996452197 0.0639224598
210298740.0 -0.9994179155 0.0653308056
215298710.0 -0.9994946106 0.0668324416
220298680.0 -0.9986085577 0.0684485455
225298650.0 -0.9986725885 0.0696302067
230298620.0 -0.9986967529 0.0711845333
235298590.0 -0.9991711249 0.0726896016
240298560.0 -0.9989759376 0.0742867539
245298530.0 -0.998827369 0.0758586104
250298500.0 -0.9985581464 0.0775671325
255298470.0 -0.9984414087 0.0790652337
260298440.0 -0.99816297 0.0801058982
265298410.0 -0.9982713039 0.0817205227
270298380.0 -0.9978466526 0.0833362492
275298350.0 -0.9979403798 0.0847275782
280298320.0 -0.9984313112 0.0865006521
285298290.0 -0.9975629781 0.087757771
290298260.0 -0.9980450366 0.0894242544
295298230.0 -0.9975045468 0.0906264858
300298200.0 -0.9974842251 0.092762272
305298170.0 -0.9976826521 0.0940342379
310298140.0 -0.9972385466 0.0952385383
315298110.0 -0.9973596718 0.0971021028
320298080.0 -0.997326332 0.0988484169
325298050.0 -0.9965477765 0.0998053907
330298020.0 -0.9966176075 0.1017326593
335297990.0 -0.9967497135 0.1032493031
340297960.0 -0.9966563386 0.1047257569
345297930.0 -0.9964693207 0.1063025726
350297900.0 -0.9971319012 0.1073423655
355297870.0 -0.9968728952 0.1088206826
360297840.0 -0.9971900858 0.1104859713
365297810.0 -0.9965680206 0.1121461644
370297780.0 -0.9959686517 0.113864668
375297750.0 -0.9955818358 0.1150483312
380297720.0 -0.9952362084 0.1167144569
385297690.0 -0.9949531551 0.1185810688
390297660.0 -0.9947653931 0.1198942415
395297630.0 -0.9949523879 0.1217760778
400297600.0 -0.9943081289 0.1229586012
405297570.0 -0.9944153119 0.1241146889
410297540.0 -0.9943290031 0.126458839
415297510.0 -0.9941939084 0.1277154291
420297480.0 -0.9937447676 0.1292091751
425297450.0 -0.9935167571 0.1304319944
430297420.0 -0.9937184656 0.1319538352
435297390.0 -0.9931866399 0.1341707238
440297360.0 -0.9933972284 0.1355622849
445297330.0 -0.9924813665 0.1368809258
450297300.0 -0.9931661791 0.1381646951
455297270.0 -0.992647649 0.139469092
460297240.0 -0.9924419972 0.1410385668
465297210.0 -0.9925695066 0.1428121008
470297180.0 -0.9920142049 0.1444563358
475297150.0 -0.9922479647 0.1453002321
480297120.0 -0.9917446695 0.1467932437
485297090.0 -0.9911820069 0.148820301
490297060.0 -0.9913719348 0.1499979156
495297030.0 -0.9910170696 0.1524046529
500297000.0 -0.990730422 0.153356778
505296970.0 -0.9907082427 0.1550037189
510296940.0 -0.9904737332 0.1560894346
515296910.0 -0.990411489 0.1575773109
520296880.0 -0.9905741998 0.1591807033
525296850.0 -0.9908020716 0.160788115
530296820.0 -0.9905496545 0.1625006093
535296790.0 -0.989950952 0.1638979306
540296760.0 -0.9899082537 0.1649592525
545296730.0 -0.9896186979 0.1670934473
550296700.0 -0.9896382791 0.1683065578
555296670.0 -0.9889439598 0.1700046319
560296640.0 -0.9885246326 0.17160392
565296610.0 -0.9886125608 0.1727603872
570296580.0 -0.9880326905 0.1748468984
575296550.0 -0.9873872375 0.1766414834
580296520.0 -0.9874343331 0.1789926158
585296490.0 -0.9870323969 0.1795299865
590296460.0 -0.9875191033 0.1808793365
595296430.0 -0.9863501026 0.1822981339
600296400.0 -0.986293882 0.1832121299
605296370.0 -0.9853931042 0.1858055287
610296340.0 -0.9856949644 0.1869251842
615296310.0 -0.9850531383 0.1882759313
620296280.0 -0.9853845362 0.1897002795
625296250.0 -0.9849585757 0.1912046106
630296220.0 -0.984226675 0.1928471063
635296190.0 -0.9837839616 0.1940970897
640296160.0 -0.9841216963 0.1956311686
645296130.0 -0.98333791 0.1965646231
650296100.0 -0.9832014861 0.198905434
655296070.0 -0.9827922516 0.2006951593
660296040.0 -0.9825763339 0.2017207982
665296010.0 -0.9823328331 0.203308809
670295980.0 -0.9814554357 0.2045824256
675295950.0 -0.9819023245 0.205884712
680295920.0 -0.9813437549 0.2080553754
685295890.0 -0.9813063129 0.2093443762
690295860.0 -0.9808567818 0.2108328683
695295830.0 -0.9807514404 0.2125823662
700295800.0 -0.980477798 0.2134739983
705295770.0 -0.980295775 0.2152821575
710295740.0 -0.9795259953 0.2171926366
715295710.0 -0.9795708663 0.2183523355
720295680.0 -0.9790569426 0.2203462945
725295650.0 -0.978386559 0.2213909156
730295620.0 -0.9782841157 0.2225618156
735295590.0 -0.9780021813 0.2241370656
740295560.0 -0.9774210116 0.225221281
745295530.0 -0.977523963 0.226691
750295500.0 -0.9764041879 0.2287097456
755295470.0 -0.9765651959 0.2298999077
760295440.0 -0.9765431827 0.2317665697
765295410.0 -0.9759794172 0.2337700257
770295380.0 -0.9761597068 0.2350011849
775295350.0 -0.9754730282 0.2363067135
780295320.0 -0.9748715656 0.2379455741
785295290.0 -0.9742891211 0.239331056
790295260.0 -0.9743181313 0.2405441984
795295230.0 -0.973766474 0.2425809221
800295200.0 -0.9734509221 0.2439813604
805295170.0 -0.9734383835 0.2451983519
810295140.0 -0.9729409125 0.2470034611
815295110.0 -0.9726760598 0.2485579007
820295080.0 -0.9719069912 0.2503841795
825295050.0 -0.9715100455 0.2509851507
830295020.0 -0.9711326256 0.2531183799
835294990.0 -0.9707659255 0.2548995606
840294960.0 -0.9703461729 0.2558689622
845294930.0 -0.9703983346 0.2576369317
850294900.0 -0.9699502438 0.2583352892
855294870.0 -0.9695211909 0.2601863225
860294840.0 -0.9688216741 0.2623213892
865294810.0 -0.9693482138 0.2636042138
870294780.0 -0.9682344552 0.2649562816
875294750.0 -0.9675484223 0.2658133452
880294720.0 -0.9673459235 0.2671522303
885294690.0 -0.9668135632 0.2692394433
890294660.0 -0.966600782 0.2705968714
895294630.0 -0.966413371 0.272316905
900294600.0 -0.9648502994 0.2737289999
905294570.0 -0.9649967326 0.274460251
910294540.0 -0.9640578953 0.2766319567
915294510.0 -0.9643275939 0.2777709323
920294480.0 -0.9635309669 0.2791246599
925294450.0 -0.9635098632 0.2814409391
930294420.0 -0.9628466703 0.2824630194
935294390.0 -0.9627919379 0.283794654
940294360.0 -0.9619661019 0.2848174305
945294330.0 -0.9617316522 0.2861484951
950294300.0 -0.9612548462 0.2876543507
955294270.0 -0.9605228795 0.2897960897
960294240.0 -0.9605756219 0.2910602725
965294210.0 -0.9592382075 0.2929378971
970294180.0 -0.9592832185 0.294490451
975294150.0 -0.9588738024 0.2954891822
980294120.0 -0.9581762431 0.2967440462
985294090.0 -0.9579434719 0.2984313148
990294060.0 -0.957705861 0.2996967462
995294030.0 -0.9568397606 0.3012217095
1000294000.0 -0.9561698104 0.3028245716
1005293970.0 -0.9558622935 0.3038716509
1010293940.0 -0.9561900945 0.3059354507
1015293910.0 -0.9547669616 0.307286972
1020293880.0 -0.9551024535 0.3083211337
1025293850.0 -0.9542613434 0.3091680361
1030293820.0 -0.954054607 0.3112437633
1035293790.0 -0.953446998 0.3120795535
1040293760.0 -0.9523848952 0.3138771898
1045293730.0 -0.9523988884 0.3150421455
1050293700.0 -0.9511599105 0.3172098862
1055293670.0 -0.9513513069 0.3186179121
1060293640.0 -0.9506214033 0.3190703283
1065293610.0 -0.9500228276 0.3210870095
1070293580.0 -0.9494018194 0.3218388865
1075293550.0 -0.948772551 0.3234179188
1080293520.0 -0.9482750485 0.3251877808
1085293490.0 -0.9480662972 0.3270426048
1090293460.0 -0.947227897 0.3286052224
1095293430.0 -0.9463867913 0.3305810008
1100293400.0 -0.9462886471 0.3316777631
1105293370.0 -0.9454788971 0.333116897
1110293340.0 -0.9453506932 0.3342447897
1115293310.0 -0.9446907354 0.3360468511
1120293280.0 -0.944827172 0.3367859175
1125293250.0 -0.9439089376 0.3380255725
1130293220.0 -0.9434244986 0.3396771385
1135293190.0 -0.9429051378 0.3411487368
1140293160.0 -0.9423505329 0.3431079776
1145293130.0 -0.9419770837 0.3447115825
1150293100.0 -0.9412745634 0.3467740557
1155293070.0 -0.9406044421 0.348416986
1160293040.0 -0.9400786196 0.3497126415
1165293010.0 -0.9397886295 0.3505712572
1170292980.0 -0.9387852899 0.3517773609
1175292950.0 -0.9385039748 0.3529280292
1180292920.0 -0.93817502 0.354416407
1185292890.0 -0.9373836738 0.3550641275
1190292860.0 -0.9368359407 0.3560520485
1195292830.0 -0.9363527181 0.3585175138
1200292800.0 -0.9359023559 0.359572346
1205292770.0 -0.9355364228 0.3605708629
1210292740.0 -0.9343819535 0.362514748
1215292710.0 -0.9344761146 0.3637035967
1220292680.0 -0.9335050124 0.3650034756
1225292650.0 -0.9330940012 0.3664606345
1230292620.0 -0.9329812465 0.3683942051
1235292590.0 -0.9317159448 0.3694558308
1240292560.0 -0.9311265853 0.3708752708
1245292530.0 -0.9309501065 0.3725457369
1250292500.0 -0.9301087582 0.3736317631
1255292470.0 -0.9294206937 0.3751131269
1260292440.0 -0.9289015687 0.3768610371
1265292410.0 -0.9281056633 0.3779807192
1270292380.0 -0.9275457907 0.3790101726
1275292350.0 -0.9273177226 0.3805727705
1280292320.0 -0.9266963073 0.382317958
1285292290.0 -0.9260597086 0.3835389077
1290292260.0 -0.925472183 0.38468822
1295292230.0 -0.9240417106 0.3861855948
1300292200.0 -0.9239649187 0.3879213519
1305292170.0 -0.9232376796 0.3889794138
1310292140.0 -0.9233876787 0.3900626277
1315292110.0 -0.9226366812 0.3909274106
1320292080.0 -0.9217195389 0.3929028043
1325292050.0 -0.9214662257 0.3941749335
1330292020.0 -0.9202741208 0.3962367165
1335291990.0 -0.9196040576 0.3980515406
1340291960.0 -0.9188452721 0.3988601635
1345291930.0 -0.9183590653 0.4006651464
1350291900.0 -0.917722695 0.40176908
1355291870.0 -0.9168518799 0.4027781845
1360291840.0 -0.9171949154 0.4045057641
1365291810.0 -0.9158615476 0.4057831061
1370291780.0 -0.9150211304 0.4067197056
1375291750.0 -0.9144461044 0.4086772259
1380291720.0 -0.9142155927 0.4098350544
1385291690.0 -0.9130825105 0.4112143864
1390291660.0 -0.9128696528 0.4125459446
1395291630.0 -0.9120971475 0.4140592725
1400291600.0 -0.9115801999 0.4156807385
1405291570.0 -0.9109835271 0.4167665197
1410291540.0 -0.9099850473 0.4186496288
1415291510.0 -0.9093647665 0.4194327757
1420291480.0 -0.9087893397 0.4207041353
1425291450.0 -0.9085058536 0.4223951415
1430291420.0 -0.9077322578 0.4236680326
1435291390.0 -0.9073833816 0.4243051861
1440291360.0 -0.9065765529 0.4259905751
1445291330.0 -0.9063700339 0.4272466277
1450291300.0 -0.9051967667 0.428137082
1455291270.0 -0.9046051317 0.4296917175
1460291240.0 -0.9042199096 0.4311788973
1465291210.0 -0.9032311581 0.4326847057
1470291180.0 -0.9023328446 0.4342321124
1475291150.0 -0.901584574 0.4358458867
1480291120.0 -0.9013659516 0.4368573799
1485291090.0 -0.9007208197 0.4380176544
1490291060.0 -0.8990291146 0.4394094742
1495291030.0 -0.8988083428 0.4403424129
1500291000.0 -0.8985687906 0.4418225106
1505290970.0 -0.8975024766 0.443720162
1510290940.0 -0.8971403307 0.4445092
1515290910.0 -0.896399282 0.446091734
1520290880.0 -0.895925742 0.4470549371
1525290850.0 -0.8950003464 0.4490860758
1530290820.0 -0.8947451412 0.4501004323
1535290790.0 -0.8934636359 0.4515790241
1540290760.0 -0.893148436 0.4529220985
1545290730.0 -0.8924915047 0.455063955
1550290700.0 -0.8914057979 0.4561452392
1555290670.0 -0.8908151765 0.4571601191
1560290640.0 -0.8899628158 0.4584544447
1565290610.0 -0.889597165 0.4592252199
1570290580.0 -0.8887092262 0.461688614
1575290550.0 -0.8877356893 0.4623058892
1580290520.0 -0.8867503009 0.4634952921
1585290490.0 -0.8863465452 0.4653308669
1590290460.0 -0.8852525781 0.4670735127
1595290430.0 -0.8853149428 0.4683244164
1600290400.0 -0.8841095433 0.4692130329
1605290370.0 -0.8832886383 0.4707919676
1610290340.0 -0.8826652926 0.4719602743
1615290310.0 -0.8823131811 0.4731429607
1620290280.0 -0.8814962295 0.4746222318
1625290250.0 -0.8801212618 0.4759067393
1630290220.0 -0.8798942191 0.4780215239
1635290190.0 -0.8788870352 0.4782918696
1640290160.0 -0.8788853224 0.479395395
1645290130.0 -0.878230265 0.4805876212
1650290100.0 -0.8768440407 0.4820445848
1655290070.0 -0.8760630146 0.4832225548
1660290040.0 -0.8753552385 0.4849409452
1665290010.0 -0.8747684687 0.485806315
1670289980.0 -0.8737955393 0.4866166531
1675289950.0 -0.8730660196 0.4889092706
1680289920.0 -0.8725425108 0.4900901146
1685289890.0 -0.8713912845 0.4922075352
1690289860.0 -0.8703533726 0.4937606136
1695289830.0 -0.8699122417 0.4949266434
1700289800.0 -0.8692190787 0.4958011461
1705289770.0 -0.8686852257 0.4970084695
1710289740.0 -0.8673911636 0.4985690101
1715289710.0 -0.8671412668 0.5001353115
1720289680.0 -0.8657868143 0.5007660186
1725289650.0 -0.8653601274 0.5019929775
1730289620.0 -0.864085552 0.5039163478
1735289590.0 -0.8638970737 0.5050101742
1740289560.0 -0.8633329499 0.5065601175
1745289530.0 -0.8618759984 0.5071945977
1750289500.0 -0.8608722646 0.5084787174
1755289470.0 -0.8602943431 0.5094989224
1760289440.0 -0.8601883643 0.5110795589
1765289410.0 -0.858604792 0.5120228137
1770289380.0 -0.8586918526 0.5139386667
1775289350.0 -0.858029016 0.5150000535
1780289320.0 -0.8564045279 0.5158096035
1785289290.0 -0.8558076271 0.5171101591
1790289260.0 -0.8551568056 0.5189042845
1795289230.0 -0.8545918788 0.5203381236
1800289200.0 -0.8532462702 0.5218750436
1805289170.0 -0.8529560809 0.5233395191
1810289140.0 -0.8522291715 0.5241103376
1815289110.0 -0.8509125397 0.5252303968
1820289080.0 -0.8505764559 0.5262469377
1825289050.0 -0.8497932367 0.5270477518
1830289020.0 -0.8487917421 0.5288248715
1835288990.0 -0.8483597391 0.5295956979
1840288960.0 -0.8471669077 0.5311571762
1845288930.0 -0.8463118113 0.5321755122
1850288900.0 -0.8455899144 0.5338605764
1855288870.0 -0.8447612239 0.5352435315
1860288840.0 -0.8441400495 0.536586275
1865288810.0 -0.8428744675 0.5383942248
1870288780.0 -0.8422743479 0.5391716948
1875288750.0 -0.8409700831 0.5407749668
1880288720.0 -0.8405006733 0.5420897219
1885288690.0 -0.8392310772 0.5430603156
1890288660.0 -0.8387002303 0.5449492708
1895288630.0 -0.8374494479 0.5465379404
1900288600.0 -0.8369757854 0.547513594
1905288570.0 -0.8361727845 0.5486157235
1910288540.0 -0.8354038403 0.5497335727
1915288510.0 -0.83403194 0.5517322763
1920288480.0 -0.8333794272 0.5521729455
1925288450.0 -0.8328473701 0.5541581059
1930288420.0 -0.831503185 0.5551728246
1935288390.0 -0.8310520532 0.5561655872
1940288360.0 -0.8301229257 0.5573361471
1945288330.0 -0.8287914874 0.5593101869
1950288300.0 -0.8277420635 0.5603373665
1955288270.0 -0.8269754767 0.5618463464
1960288240.0 -0.8258810885 0.5633347171
1965288210.0 -0.8248505392 0.5650207776
1970288180.0 -0.8240819731 0.5655798279
1975288150.0 -0.8232886321 0.566673127
1980288120.0 -0.8224625816 0.5680199115
1985288090.0 -0.8218989531 0.5690977346
1990288060.0 -0.8208439533 0.5702933684
1995288030.0 -0.8201880229 0.571520403
2000288000.0 -0.8194093708 0.5720426642
2005287970.0 -0.8190168739 0.5731528553
2010287940.0 -0.8179100138 0.5739177154
2015287910.0 -0.8168004314 0.5758092321
2020287880.0 -0.8164601713 0.5771049317
2025287850.0 -0.8145508159 0.5783820931
2030287820.0 -0.8140419379 0.5794393916
2035287790.0 -0.8129938222 0.5813435528
2040287760.0 -0.8117094703 0.5825149734
2045287730.0 -0.8112875099 0.5837009437
2050287700.0 -0.8102269894 0.5847539257
2055287670.0 -0.8092565141 0.5862007308
2060287640.0 -0.8083577676 0.5871968825
2065287610.0 -0.8076419379 0.5882462494
2070287580.0 -0.8064302185 0.5900406772
2075287550.0 -0.8058683827 0.5914347089
2080287520.0 -0.8055930215 0.5922323773
2085287490.0 -0.803945814 0.593395101
2090287460.0 -0.8034312445 0.5945693479
2095287430.0 -0.801463297 0.5959805925
2100287400.0 -0.8016050109 0.5972345609
2105287370.0 -0.8006006145 0.5985512289
2110287340.0 -0.7996694124 0.5998433161
2115287310.0 -0.7983070702 0.6006522335
2120287280.0 -0.7972140022 0.6021832387
2125287250.0 -0.7972267747 0.6033948194
2130287220.0 -0.79546005 0.6048937283
2135287190.0 -0.7945072004 0.6059600196
2140287160.0 -0.7932724572 0.6072156124
2145287130.0 -0.7919094463 0.6092072027
2150287100.0 -0.7915387091 0.6098723863
2155287070.0 -0.790806371 0.6102430496
2160287040.0 -0.7893686491 0.6121160348
2165287010.0 -0.7889984883 0.6128230274
2170286980.0 -0.7883711796 0.6144453738
2175286950.0 -0.7878049602 0.6151521059
2180286920.0 -0.7867506981 0.6163334262
2185286890.0 -0.7855143849 0.6171394413
2190286860.0 -0.7852296828 0.6180557626
2195286830.0 -0.784227795 0.619747125
2200286800.0 -0.7830982232 0.6207145925
2205286770.0 -0.7825444899 0.6222387111
2210286740.0 -0.781313839 0.6226279114
2215286710.0 -0.7803914832 0.6240835407
2220286680.0 -0.7792889062 0.6253859867
2225286650.0 -0.7785862863 0.6263699343
2230286620.0 -0.7776452575 0.6279408093
2235286590.0 -0.776115548 0.6291160251
2240286560.0 -0.7749382387 0.6308903753
2245286530.0 -0.7741514595 0.6321989556
2250286500.0 -0.7732462062 0.6331317827
2255286470.0 -0.7717110421 0.6343604769
2260286440.0 -0.7705235153 0.6353179888
2265286410.0 -0.7696496476 0.6368860865
2270286380.0 -0.7682716895 0.6382173473
2275286350.0 -0.7680855831 0.6391004177
2280286320.0 -0.7665358159 0.6401136189
2285286290.0 -0.765830969 0.641694487
2290286260.0 -0.7645663144 0.6428880722
2295286230.0 -0.7640648203 0.6442156766
2300286200.0 -0.7630985616 0.6453773718
2305286170.0 -0.7619831263 0.6465121779
2310286140.0 -0.7606354652 0.6476965392
2315286110.0 -0.759844832 0.6494804376
2320286080.0 -0.7585999282 0.650207858
2325286050.0 -0.7578373007 0.6513009732
2330286020.0 -0.75668793 0.6522717738
2335285990.0 -0.7563144107 0.6532717181
2340285960.0 -0.7547972988 0.6548853416
2345285930.0 -0.7545534515 0.655138025
2350285900.0 -0.7529455616 0.6567892452
2355285870.0 -0.7521496459 0.6581540781
2360285840.0 -0.7507758041 0.6592552091
2365285810.0 -0.7499203229 0.6603367569
2370285780.0 -0.7489142372 0.6608732963
2375285750.0 -0.7482155379 0.6625938088
2380285720.0 -0.7476783125 0.6630351312
2385285690.0 -0.7466769444 0.6644685439
2390285660.0 -0.7453198405 0.6658139199
2395285630.0 -0.7445756321 0.6668636327
2400285600.0 -0.7432795218 0.6677891829
2405285570.0 -0.742460156 0.6687008216
2410285540.0 -0.7413700686 0.669829161
2415285510.0 -0.7408182907 0.6707879077
2420285480.0 -0.7395719915 0.671800308
2425285450.0 -0.7387555314 0.6729689003
2430285420.0 -0.737820341 0.6744127916
2435285390.0 -0.7369424822 0.6751515169
2440285360.0 -0.7359132328 0.6760877284
2445285330.0 -0.7348653048 0.6769384488
2450285300.0 -0.7332452293 0.678577329
2455285270.0 -0.7325433987 0.6792646573
2460285240.0 -0.7310021906 0.6808912036
2465285210.0 -0.7299399495 0.6821733056
2470285180.0 -0.7292851076 0.6835195005
2475285150.0 -0.727786702 0.6841712535
2480285120.0 -0.7266166476 0.6858921332
2485285090.0 -0.7259002275 0.687465702
2490285060.0 -0.7246097613 0.6877926506
2495285030.0 -0.7242751174 0.6890879005
2500285000.0 -0.7221887345 0.6908349035
2505284970.0 -0.7216569357 0.6918212046
2510284940.0 -0.7208864608 0.6924744499
2515284910.0 -0.7194576664 0.6937014194
2520284880.0 -0.7183764033 0.6945238591
2525284850.0 -0.7172282876 0.6956261272
2530284820.0 -0.7163210005 0.6964569587
