!Created with skrf (http://scikit-rf.org).
# Hz S RI R 50.0 
!freq ReS11 ImS11
300000.0 1.002256524 0.0016983184
5299970.0 1.006064039 -0.0027126476
10299940.0 1.005096037 -0.0040369753
15299910.0 1.005789388 -0.0052257065
20299880.0 1.004861499 -0.0063405213
25299850.0 1.004969552 -0.0077687014
30299820.0 1.005353352 -0.0086738861
35299790.0 1.005168273 -0.0096972989
40299760.0 1.004639242 -0.0109793297
45299730.0 1.005165914 -0.0127340776
50299700.0 1.005310831 -0.0137071028
55299670.0 1.00507764 -0.0149930319
60299640.0 1.005516813 -0.0161533009
65299610.0 1.005243728 -0.0177886545
70299580.0 1.005144139 -0.0182030234
75299550.0 1.004916643 -0.019716676
80299520.0 1.004684421 -0.0208499463
85299490.0 1.004839267 -0.022112409
90299460.0 1.005111208 -0.0232520997
95299430.0 1.004626189 -0.0237310863
100299400.0 1.004839707 -0.025303345
105299370.0 1.004340841 -0.0267535847
110299340.0 1.004882626 -0.0279877809
115299310.0 1.004761754 -0.0297894867
120299280.0 1.00497618 -0.0306401086
125299250.0 1.004509914 -0.0321491303
130299220.0 1.004808173 -0.0329540795
135299190.0 1.004489091 -0.0340573739
140299160.0 1.004851857 -0.0355043148
145299130.0 1.004106043 -0.0368016211
150299100.0 1.00477703 -0.0376311197
155299070.0 1.00430669 -0.0383044735
160299040.0 1.004894306 -0.0400444591
165299010.0 1.003822703 -0.0407169142
170298980.0 1.00413356 -0.0420119146
175298950.0 1.002923505 -0.0435882248
180298920.0 1.001923837 -0.0446509269
185298890.0 1.002569221 -0.0456150179
190298860.0 1.003628775 -0.0467404052
195298830.0 1.003706967 -0.0477471291
200298800.0 1.003621704 -0.0493086907
205298770.0 1.003146238 -0.0507968777
210298740.0 1.00329103 -0.0517117988
215298710.0 1.003130956 -0.0523435883
220298680.0 1.003166415 -0.0543927154
225298650.0 1.003026015 -0.0553088304
230298620.0 1.003057924 -0.0563031962
235298590.0 1.002826017 -0.0575751424
240298560.0 1.002461924 -0.0584770227
245298530.0 1.002281753 -0.0601545327
250298500.0 1.00261012 -0.0609408773
255298470.0 1.002212724 -0.0620512499
260298440.0 1.002339281 -0.0633184178
265298410.0 1.00274912 -0.0646252563
270298380.0 1.002343154 -0.0660609141
275298350.0 1.002278566 -0.0669028316
280298320.0 1.002223849 -0.0678885181
285298290.0 1.001863361 -0.0689223228
290298260.0 1.002171615 -0.0700765019
295298230.0 1.001834762 -0.0717351733
300298200.0 1.001926558 -0.0729894623
305298170.0 1.00130015 -0.0742822603
310298140.0 1.001350139 -0.0750002466
315298110.0 1.000789155 -0.076405654
320298080.0 1.001047516 -0.0770271374
325298050.0 1.001144111 -0.0786343699
330298020.0 1.001134338 -0.0792866302
335297990.0 1.001018451 -0.0807430857
340297960.0 1.000665267 -0.0823488886
345297930.0 1.000949854 -0.0831746103
350297900.0 1.001463342 -0.0841991675
355297870.0 1.001922603 -0.0859432162
360297840.0 1.00174902 -0.0867761026
365297810.0 1.001315936 -0.0883489195
370297780.0 1.001433631 -0.089206242
375297750.0 1.000081677 -0.0905747856
380297720.0 0.9993240474 -0.0913547351
385297690.0 0.9995326673 -0.0925083247
390297660.0 0.9991241905 -0.0938609558
395297630.0 0.9992215584 -0.0943616582
400297600.0 0.9993186365 -0.0963241418
405297570.0 0.9991876489 -0.0972440696
410297540.0 0.9984276146 -0.0984821366
415297510.0 0.9982206784 -0.099254209
420297480.0 0.9983988716 -0.100627466
425297450.0 0.9982929223 -0.1019420369
430297420.0 0.9978437453 -0.1029461083
435297390.0 0.9981197167 -0.1044847076
440297360.0 0.99804217 -0.1053455281
445297330.0 0.9973805848 -0.1067040389
450297300.0 0.9974870108 -0.1075983044
455297270.0 0.9972503327 -0.1087891849
460297240.0 0.9975166933 -0.1097082664
465297210.0 0.9970015953 -0.1106955766
470297180.0 0.9969515003 -0.1118517439
475297150.0 0.9970797884 -0.1133004173
480297120.0 0.9965163171 -0.1150177713
485297090.0 0.9970134376 -0.1155907252
490297060.0 0.9966079208 -0.1171404384
495297030.0 0.9966040294 -0.1177235315
500297000.0 0.9962231629 -0.1190548863
505296970.0 0.9961900125 -0.1198825151
510296940.0 0.9962246947 -0.1219329201
515296910.0 0.9960170337 -0.1229585546
520296880.0 0.9953844579 -0.1246092996
525296850.0 0.9950865418 -0.125185591
530296820.0 0.9950393714 -0.1263782265
535296790.0 0.994598194 -0.1280823633
540296760.0 0.9945820471 -0.1291637546
545296730.0 0.9946486405 -0.1298474989
550296700.0 0.9941182527 -0.1315550546
555296670.0 0.9936223854 -0.1322657743
560296640.0 0.9940930321 -0.1330426579
565296610.0 0.9937373567 -0.1344025488
570296580.0 0.9938162439 -0.1358014164
575296550.0 0.9937606345 -0.1371724521
580296520.0 0.9937182446 -0.1380114007
585296490.0 0.9933812736 -0.1390590443
590296460.0 0.9933908741 -0.1401233684
595296430.0 0.9932357105 -0.1415078894
600296400.0 0.992528103 -0.1427624451
605296370.0 0.9927508 -0.1436005558
610296340.0 0.9928245557 -0.1444563828
615296310.0 0.991858862 -0.1456980255
620296280.0 0.9917078314 -0.1471140076
625296250.0 0.9918374892 -0.1481428405
630296220.0 0.9918548758 -0.1492959471
635296190.0 0.9915960789 -0.1502207565
640296160.0 0.9913397441 -0.1518117053
645296130.0 0.9911277242 -0.1523843913
650296100.0 0.9907665593 -0.1534911114
655296070.0 0.9901886602 -0.1552276551
660296040.0 0.9904273698 -0.1564557771
665296010.0 0.9905473839 -0.1574526233
670295980.0 0.9902516501 -0.1584892074
675295950.0 0.9898869523 -0.1598558412
680295920.0 0.9895946228 -0.1607122544
685295890.0 0.9891822925 -0.1619396985
690295860.0 0.9888862688 -0.1631539276
695295830.0 0.9898768451 -0.1643820847
700295800.0 0.9891969526 -0.1652782996
705295770.0 0.9889396835 -0.1668861016
710295740.0 0.9892322974 -0.1674986676
715295710.0 0.9887414957 -0.1688620079
720295680.0 0.9881733421 -0.1701562948
725295650.0 0.9880222494 -0.1715755444
730295620.0 0.9874717199 -0.1721429443
735295590.0 0.9876233636 -0.1736484531
740295560.0 0.9874331272 -0.1749663753
745295530.0 0.9873457409 -0.1760806762
750295500.0 0.986382137 -0.1773139479
755295470.0 0.9869728896 -0.1785872289
760295440.0 0.9864947924 -0.1795594902
765295410.0 0.9864328765 -0.1808775826
770295380.0 0.986072736 -0.1821086083
775295350.0 0.9860332512 -0.1827541268
780295320.0 0.9854008827 -0.1841958767
785295290.0 0.9854095649 -0.1851165981
790295260.0 0.9852625921 -0.1866416766
795295230.0 0.9852133713 -0.1879582745
800295200.0 0.9847639137 -0.1884458562
805295170.0 0.9845495556 -0.1896293963
810295140.0 0.9845515024 -0.1910817697
815295110.0 0.9845430282 -0.1923976419
820295080.0 0.9840168251 -0.1933637928
825295050.0 0.9838499846 -0.194273245
830295020.0 0.983335246 -0.1962117181
835294990.0 0.983038276 -0.1973349882
840294960.0 0.9830437472 -0.1980974763
845294930.0 0.9832145286 -0.1994474612
850294900.0 0.9824215946 -0.1996671374
855294870.0 0.9819576187 -0.2017136878
860294840.0 0.9820165303 -0.2031847669
865294810.0 0.9815429095 -0.2042256315
870294780.0 0.9818654057 -0.2051300349
875294750.0 0.9810332729 -0.2058759241
880294720.0 0.9805022325 -0.2071181244
885294690.0 0.980607174 -0.2084787529
890294660.0 0.9807345123 -0.2097144658
895294630.0 0.9800674522 -0.2105629646
900294600.0 0.9795074166 -0.2115911606
905294570.0 0.980131441 -0.2126894225
910294540.0 0.979629522 -0.2134369754
915294510.0 0.97933433 -0.2150312946
920294480.0 0.9792260765 -0.2162309522
925294450.0 0.9788128157 -0.2176440789
930294420.0 0.9785579223 -0.2185214054
935294390.0 0.9778409264 -0.2197785977
940294360.0 0.9778995205 -0.2206068531
945294330.0 0.977448894 -0.2221184263
950294300.0 0.977541204 -0.2238571276
955294270.0 0.9779835917 -0.2242124856
960294240.0 0.9763104207 -0.2257571242
965294210.0 0.9762374311 -0.2268690332
970294180.0 0.9764396714 -0.2278885434
975294150.0 0.9759157252 -0.2294415218
980294120.0 0.9759911344 -0.230034422
985294090.0 0.9753669825 -0.2313454991
990294060.0 0.9754038971 -0.2328308836
995294030.0 0.9750595793 -0.2336534311
1000294000.0 0.975251572 -0.235420241
1005293970.0 0.9741814023 -0.2365784225
1010293940.0 0.9739278141 -0.2375528521
1015293910.0 0.9735980586 -0.2389083133
1020293880.0 0.9736334439 -0.2388403602
1025293850.0 0.9735240497 -0.2398061244
1030293820.0 0.9731674704 -0.2416051805
1035293790.0 0.9725518248 -0.2428629904
1040293760.0 0.9719371276 -0.2443006311
1045293730.0 0.9721377221 -0.245127574
1050293700.0 0.9715773091 -0.2465574658
1055293670.0 0.9719811658 -0.2477850406
1060293640.0 0.9713756963 -0.2489440933
1065293610.0 0.9708636675 -0.2498296219
1070293580.0 0.9707478375 -0.2508331402
1075293550.0 0.970631946 -0.2517807685
1080293520.0 0.9706502061 -0.2533900612
1085293490.0 0.9698974302 -0.2546132677
1090293460.0 0.9696096279 -0.2559668683
1095293430.0 0.9696317991 -0.2569591701
1100293400.0 0.9694826372 -0.2592743529
1105293370.0 0.9688854332 -0.2591210858
1110293340.0 0.9684998392 -0.2606348344
1115293310.0 0.9676348163 -0.2615274188
1120293280.0 0.9677397509 -0.2625319583
1125293250.0 0.9675642571 -0.2636312228
1130293220.0 0.9674030412 -0.264193015
1135293190.0 0.9671861017 -0.2657972811
1140293160.0 0.9664465061 -0.2672309926
1145293130.0 0.9660143313 -0.2675398156
1150293100.0 0.9658849506 -0.2693668821
1155293070.0 0.965405377 -0.2712277968
1160293040.0 0.9651174013 -0.2724795816
1165293010.0 0.9647681124 -0.2728966658
1170292980.0 0.9646355952 -0.2745508786
1175292950.0 0.9639997457 -0.2757331376
1180292920.0 0.964811462 -0.2761983196
1185292890.0 0.9635658483 -0.277736621
1190292860.0 0.9633195407 -0.278920051
1195292830.0 0.9631071921 -0.2798827443
1200292800.0 0.9629205416 -0.2811166448
1205292770.0 0.9624717869 -0.2820340591
1210292740.0 0.962114308 -0.2833311212
1215292710.0 0.9617776291 -0.2836721806
1220292680.0 0.9616306591 -0.2853481626
1225292650.0 0.9607374022 -0.2866414399
1230292620.0 0.9611858024 -0.2886363914
1235292590.0 0.9605869955 -0.2894378903
1240292560.0 0.9602938099 -0.2901700813
1245292530.0 0.9598386777 -0.2914653942
1250292500.0 0.9593213849 -0.2925113556
1255292470.0 0.9594288148 -0.2934323921
1260292440.0 0.9592694632 -0.2950877699
1265292410.0 0.9581519643 -0.2958750544
1270292380.0 0.9582371353 -0.2960654763
1275292350.0 0.9574939389 -0.2979839942
1280292320.0 0.9568783555 -0.2989560716
1285292290.0 0.9566120945 -0.3002201564
1290292260.0 0.9565599696 -0.3015933494
1295292230.0 0.9560346615 -0.3026285321
1300292200.0 0.9559868232 -0.3032868298
1305292170.0 0.9557745521 -0.3047334626
1310292140.0 0.9554397268 -0.3059401408
1315292110.0 0.9551217205 -0.307596446
1320292080.0 0.9544393645 -0.3088292228
1325292050.0 0.9535291465 -0.3093732398
1330292020.0 0.9538978357 -0.3110276429
1335291990.0 0.9536875817 -0.3121856459
1340291960.0 0.9526395136 -0.3135760765
1345291930.0 0.9529194417 -0.3149564654
1350291900.0 0.9521432554 -0.3159200828
1355291870.0 0.9519961228 -0.3171040432
1360291840.0 0.9515585131 -0.3180218164
1365291810.0 0.9512849485 -0.3183755828
1370291780.0 0.9509629907 -0.3195808602
1375291750.0 0.9505576074 -0.320976659
1380291720.0 0.9505024252 -0.3220973831
1385291690.0 0.9497808391 -0.3233635624
1390291660.0 0.9495582484 -0.3242923334
1395291630.0 0.9490924602 -0.3254231559
1400291600.0 0.9484734488 -0.3270376278
1405291570.0 0.9481514861 -0.3284067988
1410291540.0 0.9477397188 -0.3290456989
1415291510.0 0.9475820573 -0.3305092964
1420291480.0 0.946478813 -0.3317916763
1425291450.0 0.9466412461 -0.3326678387
1430291420.0 0.9467374911 -0.3338213518
1435291390.0 0.9458619951 -0.3343433983
1440291360.0 0.9461223014 -0.3356627114
1445291330.0 0.9451973997 -0.3363938367
1450291300.0 0.9444512366 -0.3373415044
1455291270.0 0.9445263839 -0.3374790863
1460291240.0 0.9443101356 -0.3400377302
1465291210.0 0.9433397716 -0.3409932069
1470291180.0 0.9435383172 -0.3422015977
1475291150.0 0.9432351702 -0.3432762201
1480291120.0 0.9424991449 -0.3447561752
1485291090.0 0.9420718736 -0.3457826929
1490291060.0 0.9419674358 -0.347195024
1495291030.0 0.9413044211 -0.348308879
1500291000.0 0.9406441856 -0.3488950166
1505290970.0 0.9407359612 -0.349605273
1510290940.0 0.9400998808 -0.3507997752
1515290910.0 0.939671115 -0.3517116949
1520290880.0 0.9393404224 -0.3531805777
1525290850.0 0.9387994706 -0.3545187819
1530290820.0 0.9387079622 -0.355967304
1535290790.0 0.9376574703 -0.3564154848
1540290760.0 0.9380925737 -0.357470576
1545290730.0 0.937702224 -0.3593880816
1550290700.0 0.9366240038 -0.3599254228
1555290670.0 0.9362862098 -0.3608169849
1560290640.0 0.9364118303 -0.3621817545
1565290610.0 0.9351870956 -0.3632943167
1570290580.0 0.9349354851 -0.3644726358
1575290550.0 0.9344238462 -0.3653185523
1580290520.0 0.9340370824 -0.36687503
1585290490.0 0.9338859632 -0.3680127528
1590290460.0 0.9336501371 -0.3693481085
1595290430.0 0.9333247158 -0.3702446707
1600290400.0 0.9328515495 -0.3716293223
1605290370.0 0.9321859196 -0.3722164833
1610290340.0 0.9320633081 -0.3737065581
1615290310.0 0.93158679 -0.3741624616
1620290280.0 0.9311310748 -0.3751479447
1625290250.0 0.9301922796 -0.3762970933
1630290220.0 0.930392102 -0.3773407097
1635290190.0 0.9296545924 -0.3787040956
1640290160.0 0.9291432102 -0.3794815051
1645290130.0 0.9292587866 -0.3806046655
1650290100.0 0.9285813097 -0.3820197501
1655290070.0 0.9280329376 -0.38311054
1660290040.0 0.9274822057 -0.3842736231
1665290010.0 0.9272470432 -0.3852220297
1670289980.0 0.9264948309 -0.3856002024
1675289950.0 0.9262742912 -0.3870411344
1680289920.0 0.9254763219 -0.3884556126
1685289890.0 0.9249758655 -0.389953621
1690289860.0 0.9244348214 -0.3913074241
1695289830.0 0.9239051613 -0.3922235338
1700289800.0 0.923271076 -0.3936838293
1705289770.0 0.9226096992 -0.3941496973
1710289740.0 0.9223792673 -0.3953862002
1715289710.0 0.9221875005 -0.3970103398
1720289680.0 0.9213300285 -0.3973608703
1725289650.0 0.9209367654 -0.3987113314
1730289620.0 0.9206962282 -0.3998834998
1735289590.0 0.9203988689 -0.4006337219
1740289560.0 0.9201457145 -0.4018140212
1745289530.0 0.9193736493 -0.4026409797
1750289500.0 0.9190325824 -0.4044763997
1755289470.0 0.9185151156 -0.4048973483
1760289440.0 0.9179035652 -0.4059229822
1765289410.0 0.9183549165 -0.4069200866
1770289380.0 0.9173199767 -0.4077442429
1775289350.0 0.9167768352 -0.4088198651
1780289320.0 0.9167593062 -0.410118407
1785289290.0 0.9164693424 -0.4112356682
1790289260.0 0.9155559759 -0.4129411024
1795289230.0 0.9149597132 -0.4138820035
1800289200.0 0.9147499857 -0.4154079291
1805289170.0 0.9138128758 -0.4161222855
1810289140.0 0.913677552 -0.4169586898
1815289110.0 0.913207115 -0.4175829466
1820289080.0 0.9131408395 -0.4187285103
1825289050.0 0.9127289339 -0.4194891226
1830289020.0 0.9120952174 -0.4208483683
1835288990.0 0.9112261089 -0.4213773049
1840288960.0 0.9115317093 -0.4222344977
1845288930.0 0.910759006 -0.4234592971
1850288900.0 0.910255453 -0.4249968423
1855288870.0 0.9090985035 -0.4258433266
1860288840.0 0.9090412432 -0.4268061271
1865288810.0 0.9082984074 -0.4278934085
1870288780.0 0.907370602 -0.4292568029
1875288750.0 0.9072686009 -0.4305537347
1880288720.0 0.9067334227 -0.431574522
1885288690.0 0.9062553273 -0.4326248109
1890288660.0 0.9058102343 -0.43398135
1895288630.0 0.9052976297 -0.4344964659
1900288600.0 0.9045291135 -0.4360282903
1905288570.0 0.9039514861 -0.4369110809
1910288540.0 0.9031451739 -0.4381629758
1915288510.0 0.9027623079 -0.4392446559
1920288480.0 0.9021682334 -0.4403197593
1925288450.0 0.9020810715 -0.441789263
1930288420.0 0.9014555943 -0.4425234464
1935288390.0 0.9009590734 -0.4437166762
1940288360.0 0.900160262 -0.4452036406
1945288330.0 0.8999063782 -0.4459470481
1950288300.0 0.8995246818 -0.4472561451
1955288270.0 0.898321654 -0.448633204
1960288240.0 0.8975816199 -0.4496273465
1965288210.0 0.8970759367 -0.4512067039
1970288180.0 0.8964287805 -0.4519340885
1975288150.0 0.8962388487 -0.4527465632
1980288120.0 0.8956516378 -0.4535593446
1985288090.0 0.8953550654 -0.4534916034
1990288060.0 0.8948980114 -0.4549295429
1995288030.0 0.8945542202 -0.4555836088
2000288000.0 0.8939260917 -0.4566102925
2005287970.0 0.893878809 -0.4574761716
2010287940.0 0.8934397256 -0.4591034029
2015287910.0 0.8926014123 -0.4596071651
2020287880.0 0.8924098721 -0.460948733
2025287850.0 0.8916918324 -0.4621032979
2030287820.0 0.8902952955 -0.4627073418
2035287790.0 0.8900655941 -0.4639525058
2040287760.0 0.8901384299 -0.4652860323
2045287730.0 0.8892757245 -0.4660453912
2050287700.0 0.8884921632 -0.467422933
2055287670.0 0.8875963934 -0.4680006964
2060287640.0 0.8878816777 -0.4693786998
2065287610.0 0.8874176175 -0.4705795781
2070287580.0 0.8863732259 -0.4717169763
2075287550.0 0.886260205 -0.4722697761
2080287520.0 0.8851857698 -0.4731743882
2085287490.0 0.8847647916 -0.4743919769
2090287460.0 0.8846921801 -0.4756036139
2095287430.0 0.8832866186 -0.4767924366
2100287400.0 0.8829438636 -0.4779877292
2105287370.0 0.8823906904 -0.4793677717
2110287340.0 0.8815075393 -0.4800154342
2115287310.0 0.8811908828 -0.4804306214
2120287280.0 0.8809410429 -0.4817753439
2125287250.0 0.8799639696 -0.4827578855
2130287220.0 0.8795854602 -0.4840478787
2135287190.0 0.8790581136 -0.4852245602
2140287160.0 0.8781971279 -0.4866820258
2145287130.0 0.8777762766 -0.48680203
2150287100.0 0.876981638 -0.4881222996
2155287070.0 0.8763837527 -0.4888696306
2160287040.0 0.8762564544 -0.4898579616
2165287010.0 0.8752040543 -0.4910880789
2170286980.0 0.8753657606 -0.4922029407
2175286950.0 0.8740490939 -0.492870721
2180286920.0 0.8742515114 -0.4937238299
2185286890.0 0.8735750863 -0.4941419312
2190286860.0 0.8728980626 -0.4949640121
2195286830.0 0.8722240789 -0.4963873374
2200286800.0 0.871947289 -0.4972600964
2205286770.0 0.8714476629 -0.4984054543
2210286740.0 0.870839558 -0.4989759363
2215286710.0 0.8705856912 -0.5000421078
2220286680.0 0.8695496534 -0.5011401841
2225286650.0 0.8692679506 -0.5030579079
2230286620.0 0.8688009021 -0.5035662922
2235286590.0 0.8679109951 -0.5046748132
2240286560.0 0.8670764775 -0.5058050404
2245286530.0 0.8664675644 -0.5063733086
2250286500.0 0.8659342954 -0.5080673355
2255286470.0 0.864835475 -0.5090615142
2260286440.0 0.8651125589 -0.5098714769
2265286410.0 0.8643413451 -0.5111832313
2270286380.0 0.8631490618 -0.5124466109
2275286350.0 0.8630096048 -0.5133601483
2280286320.0 0.8617597917 -0.5142838623
2285286290.0 0.8611751436 -0.5154408565
2290286260.0 0.8607046175 -0.5164195432
2295286230.0 0.8597078314 -0.5174969021
2300286200.0 0.8591244163 -0.5186492676
2305286170.0 0.8586164524 -0.5192663707
2310286140.0 0.8581687801 -0.5202057883
2315286110.0 0.8576820506 -0.5218541192
2320286080.0 0.8570136049 -0.5225457128
2325286050.0 0.8564906143 -0.5232848287
2330286020.0 0.8553528176 -0.524017561
2335285990.0 0.8553160944 -0.5251498555
2340285960.0 0.8540709667 -0.5262902542
2345285930.0 0.8538957508 -0.5274198406
2350285900.0 0.8534772109 -0.5285111528
2355285870.0 0.8522646449 -0.5295043433
2360285840.0 0.8513866548 -0.5308109768
2365285810.0 0.850922385 -0.5316265288
2370285780.0 0.8499262534 -0.5328996242
2375285750.0 0.8496041723 -0.5335783979
2380285720.0 0.8495430049 -0.5342106907
2385285690.0 0.8483984807 -0.5351352363
2390285660.0 0.8483822485 -0.5362050573
2395285630.0 0.8473512291 -0.5368771187
2400285600.0 0.8465706761 -0.5382073621
2405285570.0 0.8457957167 -0.53915642
2410285540.0 0.8457082027 -0.5395148466
2415285510.0 0.8455985653 -0.5399732185
2420285480.0 0.8442084227 -0.5414447606
2425285450.0 0.8434431489 -0.5422924204
2430285420.0 0.8430452347 -0.5434234021
2435285390.0 0.8419903754 -0.544956772
2440285360.0 0.8418568214 -0.5450025047
2445285330.0 0.8413277447 -0.5463817832
2450285300.0 0.8403648147 -0.5473719758
2455285270.0 0.839799447 -0.548812653
2460285240.0 0.8388565351 -0.5495420411
2465285210.0 0.8382168655 -0.5507357228
2470285180.0 0.8374567177 -0.5512400594
2475285150.0 0.8366568595 -0.5521529095
2480285120.0 0.8364387831 -0.5536634275
2485285090.0 0.8354106928 -0.554411803
2490285060.0 0.8346916249 -0.5555093245
2495285030.0 0.8336779836 -0.5561504501
2500285000.0 0.8330587792 -0.5579938544
2505284970.0 0.8324915773 -0.5587886071
2510284940.0 0.8316320977 -0.5596764014
2515284910.0 0.8312810083 -0.5605745546
2520284880.0 0.8302885368 -0.5619895615
2525284850.0 0.8298913618 -0.5630918318
2530284820.0 0.8289543463 -0.5635533319
2535284790.0 0.8285693883 -0.5644178212
