!Created with skrf (http://scikit-rf.org).
# Hz S RI R 50.0 
!freq ReS11 ImS11
45000000.0 -0.07697296142578125 -0.09686279296875
49995500.0 -0.09747695922851562 -0.09403228759765625
54991000.0 -0.11818313598632812 -0.08794403076171875
59986500.0 -0.13607025146484375 -0.08709716796875
64982000.0 -0.15496826171875 -0.07985687255859375
69977500.0 -0.174041748046875 -0.06752777099609375
74973000.0 -0.19240570068359375 -0.051971435546875
79968500.0 -0.20915985107421875 -0.0333099365234375
84964000.0 -0.22431182861328125 -0.01165008544921875
89959500.0 -0.23715972900390625 0.0130615234375
94955000.0 -0.2467803955078125 0.04085540771484375
99950500.0 -0.253448486328125 0.071014404296875
104946000.0 -0.255645751953125 0.1033935546875
109941500.0 -0.2536468505859375 0.1373291015625
114937000.0 -0.24704742431640625 0.172149658203125
119932500.0 -0.23575592041015625 0.20717620849609375
124928000.0 -0.21950531005859375 0.2418365478515625
129923500.0 -0.197845458984375 0.27545166015625
134919000.0 -0.1712799072265625 0.30694580078125
139914500.0 -0.1396484375 0.336151123046875
144910000.0 -0.1036834716796875 0.3616943359375
149905500.0 -0.0634765625 0.383514404296875
154901000.0 -0.0198974609375 0.4001312255859375
159896500.0 0.0263671875 0.4114532470703125
164892000.0 0.07464599609375 0.41748046875
169887500.0 0.1245880126953125 0.4175262451171875
174883000.0 0.1751861572265625 0.41156005859375
179878500.0 0.2257537841796875 0.3992156982421875
184874000.0 0.275360107421875 0.3807525634765625
189869500.0 0.323699951171875 0.3561859130859375
194865000.0 0.369720458984375 0.325653076171875
199860500.0 0.4129486083984375 0.28985595703125
204856000.0 0.4521942138671875 0.248077392578125
209851500.0 0.487274169921875 0.201385498046875
214847000.0 0.517974853515625 0.150054931640625
219842500.0 0.543426513671875 0.094390869140625
224838000.0 0.562469482421875 0.034881591796875
229833500.0 0.575469970703125 -0.0277099609375
234829000.0 0.58135986328125 -0.09246826171875
239824500.0 0.579620361328125 -0.159637451171875
244820000.0 0.5704345703125 -0.227447509765625
249815500.0 0.55267333984375 -0.295013427734375
254811000.0 0.546051025390625 -0.342498779296875
259806500.0 0.515777587890625 -0.408111572265625
264802000.0 0.4771881103515625 -0.471466064453125
269797500.0 0.43023681640625 -0.531036376953125
274793000.0 0.3753662109375 -0.58551025390625
279788500.0 0.31378173828125 -0.633941650390625
284784000.0 0.245635986328125 -0.67547607421875
289779500.0 0.172119140625 -0.70892333984375
294775000.0 0.09405517578125 -0.73419189453125
299770500.0 0.013092041015625 -0.75030517578125
304766000.0 -0.07025146484375 -0.756805419921875
309761500.0 -0.1546630859375 -0.75390625
314757000.0 -0.2384033203125 -0.741119384765625
319752500.0 -0.320953369140625 -0.7188720703125
324748000.0 -0.401336669921875 -0.687957763671875
329743500.0 -0.478515625 -0.647674560546875
334739000.0 -0.5516357421875 -0.599365234375
339734500.0 -0.62005615234375 -0.543121337890625
344730000.0 -0.682769775390625 -0.479248046875
349725500.0 -0.738922119140625 -0.40887451171875
354721000.0 -0.78851318359375 -0.331756591796875
359716500.0 -0.83001708984375 -0.24859619140625
364712000.0 -0.863250732421875 -0.160247802734375
369707500.0 -0.887542724609375 -0.067138671875
374703000.0 -0.901702880859375 0.03045654296875
379698500.0 -0.905670166015625 0.130645751953125
384694000.0 -0.898101806640625 0.23272705078125
389689500.0 -0.87835693359375 0.33514404296875
394685000.0 -0.84661865234375 0.436798095703125
399680500.0 -0.802490234375 0.535980224609375
404676000.0 -0.74664306640625 0.630859375
409671500.0 -0.678375244140625 0.719146728515625
414667000.0 -0.598876953125 0.800140380859375
419662500.0 -0.50909423828125 0.8731689453125
424658000.0 -0.41021728515625 0.93170166015625
429653500.0 -0.3028564453125 0.98004150390625
434649000.0 -0.189208984375 1.01348876953125
439644500.0 -0.073974609375 1.03240966796875
444640000.0 0.04180908203125 1.0384521484375
449635500.0 0.15618896484375 1.03179931640625
454631000.0 0.26983642578125 1.013427734375
459626500.0 0.381439208984375 0.98199462890625
464622000.0 0.488037109375 0.93780517578125
469617500.0 0.58831787109375 0.882843017578125
474613000.0 0.681732177734375 0.81781005859375
479608500.0 0.767913818359375 0.744293212890625
484604000.0 0.84637451171875 0.662872314453125
489599500.0 0.9161376953125 0.573760986328125
494595000.0 0.977447509765625 0.478363037109375
499590500.0 1.02972412109375 0.37713623046875
504586000.0 1.07232666015625 0.27081298828125
509581500.0 1.10528564453125 0.15972900390625
514577000.0 1.1275634765625 0.0435791015625
519572500.0 1.13873291015625 -0.07586669921875
524568000.0 1.13812255859375 -0.19854736328125
529563500.0 1.12432861328125 -0.32342529296875
534559000.0 1.0966796875 -0.449462890625
539554500.0 1.0538330078125 -0.574462890625
544550000.0 0.99603271484375 -0.696014404296875
549545500.0 0.92236328125 -0.812652587890625
554541000.0 0.833648681640625 -0.9212646484375
559536500.0 0.730712890625 -1.02001953125
564532000.0 0.6151123046875 -1.10601806640625
569527500.0 0.48797607421875 -1.17791748046875
574523000.0 0.35235595703125 -1.2340087890625
579518500.0 0.2099609375 -1.27276611328125
584514000.0 0.063720703125 -1.2935791015625
589509500.0 -0.083984375 -1.29583740234375
594505000.0 -0.2298583984375 -1.28057861328125
599500500.0 -0.372314453125 -1.24853515625
604496000.0 -0.50830078125 -1.19921875
609491500.0 -0.63714599609375 -1.13641357421875
614487000.0 -0.75628662109375 -1.060302734375
619482500.0 -0.8656005859375 -0.973602294921875
624478000.0 -0.96429443359375 -0.876922607421875
629473500.0 -1.05157470703125 -0.77227783203125
634469000.0 -1.1280517578125 -0.65997314453125
639464500.0 -1.19293212890625 -0.5418701171875
644460000.0 -1.246337890625 -0.4180908203125
649455500.0 -1.2889404296875 -0.29010009765625
654451000.0 -1.3197021484375 -0.15765380859375
659446500.0 -1.338623046875 -0.02197265625
664442000.0 -1.34539794921875 0.1170654296875
669437500.0 -1.33929443359375 0.25830078125
674433000.0 -1.3189697265625 0.40087890625
679428500.0 -1.28363037109375 0.54443359375
684424000.0 -1.2330322265625 0.6864013671875
689419500.0 -1.16607666015625 0.826416015625
694415000.0 -1.08148193359375 0.9613037109375
699410500.0 -0.97998046875 1.08892822265625
704406000.0 -0.86138916015625 1.20574951171875
709401500.0 -0.7261962890625 1.3101806640625
714397000.0 -0.57586669921875 1.39874267578125
719392500.0 -0.41314697265625 1.468505859375
724388000.0 -0.24072265625 1.51727294921875
729383500.0 -0.06170654296875 1.543212890625
734379000.0 0.1202392578125 1.544189453125
739374500.0 0.30078125 1.52203369140625
744370000.0 0.4755859375 1.47662353515625
749365500.0 0.6414794921875 1.4093017578125
754361000.0 0.79583740234375 1.32379150390625
759356500.0 0.93634033203125 1.2208251953125
764352000.0 1.06182861328125 1.1044921875
769347500.0 1.17095947265625 0.9766845703125
774343000.0 1.2640380859375 0.84130859375
779338500.0 1.33990478515625 0.6973876953125
784334000.0 1.40081787109375 0.5509033203125
789329500.0 1.4459228515625 0.40093994140625
794325000.0 1.47637939453125 0.24969482421875
799320500.0 1.49298095703125 0.09722900390625
804316000.0 1.49517822265625 -0.05462646484375
809311500.0 1.4837646484375 -0.20623779296875
814307000.0 1.458740234375 -0.3564453125
819302500.0 1.421142578125 -0.5037841796875
824298000.0 1.36932373046875 -0.64892578125
829293500.0 1.3048095703125 -0.79034423828125
834289000.0 1.22467041015625 -0.9276123046875
839284500.0 1.13165283203125 -1.05792236328125
844280000.0 1.0865478515625 -1.14727783203125
849275500.0 0.9674072265625 -1.26690673828125
854271000.0 0.8336181640625 -1.3756103515625
859266500.0 0.6851806640625 -1.470458984375
864262000.0 0.5238037109375 -1.54876708984375
869257500.0 0.35211181640625 -1.6080322265625
874253000.0 0.17315673828125 -1.647705078125
879248500.0 -0.01116943359375 -1.66571044921875
884244000.0 -0.19830322265625 -1.66156005859375
889239500.0 -0.38421630859375 -1.63458251953125
894235000.0 -0.56622314453125 -1.5860595703125
899230500.0 -0.74169921875 -1.5162353515625
904226000.0 -0.9072265625 -1.425048828125
909221500.0 -1.0606689453125 -1.31414794921875
914217000.0 -1.1990966796875 -1.1864013671875
919212500.0 -1.31951904296875 -1.04388427734375
924208000.0 -1.4212646484375 -0.89080810546875
929203500.0 -1.5035400390625 -0.7298583984375
934199000.0 -1.56719970703125 -0.56414794921875
939194500.0 -1.6123046875 -0.39532470703125
944190000.0 -1.64007568359375 -0.22589111328125
949185500.0 -1.6522216796875 -0.0555419921875
954181000.0 -1.648193359375 0.11279296875
959176500.0 -1.62890625 0.28057861328125
964172000.0 -1.59521484375 0.44451904296875
969167500.0 -1.54595947265625 0.60565185546875
974163000.0 -1.4825439453125 0.76251220703125
979158500.0 -1.4036865234375 0.91497802734375
984154000.0 -1.30975341796875 1.06011962890625
989149500.0 -1.20037841796875 1.19873046875
994145000.0 -1.07598876953125 1.328125
999140500.0 -0.93609619140625 1.44512939453125
1004136000.0 -0.781494140625 1.54974365234375
1009131500.0 -0.61376953125 1.63800048828125
1014127000.0 -0.43316650390625 1.7080078125
1019122500.0 -0.2423095703125 1.7576904296875
1024118000.0 -0.044189453125 1.7840576171875
1029113500.0 0.15863037109375 1.7864990234375
1034109000.0 0.36138916015625 1.7628173828125
1039104500.0 0.5604248046875 1.71417236328125
1044100000.0 0.75225830078125 1.64111328125
1049095500.0 0.93341064453125 1.54473876953125
1054091000.0 1.099853515625 1.4271240234375
1059086500.0 1.249755859375 1.291015625
1064082000.0 1.38104248046875 1.1397705078125
1069077500.0 1.49212646484375 0.9765625
1074073000.0 1.58306884765625 0.80413818359375
1079068500.0 1.65277099609375 0.62548828125
1084064000.0 1.70220947265625 0.44390869140625
1089059500.0 1.73272705078125 0.2601318359375
1094055000.0 1.74407958984375 0.07684326171875
1099050500.0 1.737548828125 -0.1043701171875
1104046000.0 1.713623046875 -0.28265380859375
1109041500.0 1.67303466796875 -0.45654296875
1114037000.0 1.61700439453125 -0.62542724609375
1119032500.0 1.54522705078125 -0.78863525390625
1124028000.0 1.45867919921875 -0.944091796875
1129023500.0 1.3570556640625 -1.09185791015625
1134019000.0 1.240478515625 -1.23095703125
1139014500.0 1.11029052734375 -1.35906982421875
1144010000.0 0.9654541015625 -1.4747314453125
1149005500.0 0.808349609375 -1.5762939453125
1154001000.0 0.6383056640625 -1.6617431640625
1158996500.0 0.45770263671875 -1.730224609375
1163992000.0 0.268310546875 -1.77862548828125
1168987500.0 0.07177734375 -1.80523681640625
1173983000.0 -0.1285400390625 -1.809326171875
1178978500.0 -0.329833984375 -1.789794921875
1183974000.0 -0.52874755859375 -1.74609375
1188969500.0 -0.7230224609375 -1.6787109375
1193965000.0 -0.90765380859375 -1.58746337890625
1198960500.0 -1.07965087890625 -1.4749755859375
1203956000.0 -1.2362060546875 -1.342041015625
1208951500.0 -1.37554931640625 -1.19256591796875
1213947000.0 -1.4952392578125 -1.02825927734375
1218942500.0 -1.59381103515625 -0.8536376953125
1223938000.0 -1.670166015625 -0.66949462890625
1228933500.0 -1.72509765625 -0.48052978515625
1233929000.0 -1.75848388671875 -0.2890625
1238924500.0 -1.7696533203125 -0.098388671875
1243920000.0 -1.76123046875 0.0906982421875
1248915500.0 -1.7330322265625 0.275390625
1253911000.0 -1.687255859375 0.45318603515625
1258906500.0 -1.62396240234375 0.62445068359375
1263902000.0 -1.54522705078125 0.78656005859375
1268897500.0 -1.4508056640625 0.9393310546875
1273893000.0 -1.34344482421875 1.08245849609375
1278888500.0 -1.2222900390625 1.21270751953125
1283884000.0 -1.08935546875 1.33074951171875
1288879500.0 -0.94586181640625 1.4351806640625
1293875000.0 -0.79266357421875 1.52593994140625
1298870500.0 -0.62945556640625 1.600830078125
1303866000.0 -0.460693359375 1.6558837890625
1308861500.0 -0.2862548828125 1.69561767578125
1313857000.0 -0.10711669921875 1.7174072265625
1318852500.0 0.0728759765625 1.7200927734375
1323848000.0 0.2532958984375 1.704345703125
1328843500.0 0.43115234375 1.669921875
1333839000.0 0.6053466796875 1.6170654296875
1338834500.0 0.77325439453125 1.5455322265625
1343830000.0 0.932861328125 1.45697021484375
1348825500.0 1.0830078125 1.351318359375
1353821000.0 1.2222900390625 1.230712890625
1358816500.0 1.3480224609375 1.09539794921875
1363812000.0 1.45953369140625 0.94696044921875
1368807500.0 1.5548095703125 0.7867431640625
1373803000.0 1.6326904296875 0.61639404296875
1378798500.0 1.692138671875 0.438232421875
1383794000.0 1.7320556640625 0.25360107421875
1388789500.0 1.7513427734375 0.0653076171875
1393785000.0 1.74951171875 -0.12567138671875
1398780500.0 1.72662353515625 -0.31597900390625
1403776000.0 1.68231201171875 -0.5023193359375
1408771500.0 1.61639404296875 -0.68359375
1413767000.0 1.53021240234375 -0.8560791015625
1418762500.0 1.42486572265625 -1.017333984375
1423758000.0 1.3016357421875 -1.16510009765625
1428753500.0 1.1630859375 -1.2965087890625
1433749000.0 1.01068115234375 -1.4111328125
1438744500.0 0.8475341796875 -1.5068359375
1443740000.0 0.67596435546875 -1.5821533203125
1448735500.0 0.4990234375 -1.6365966796875
1453731000.0 0.31951904296875 -1.6712646484375
1458726500.0 0.1396484375 -1.68585205078125
1463722000.0 -0.03802490234375 -1.68096923828125
1468717500.0 -0.2120361328125 -1.658447265625
1473713000.0 -0.38037109375 -1.6182861328125
1478708500.0 -0.54193115234375 -1.56243896484375
1483704000.0 -0.69537353515625 -1.4920654296875
1488699500.0 -0.83990478515625 -1.40838623046875
1493695000.0 -0.974609375 -1.3126220703125
1498690500.0 -1.0994873046875 -1.205078125
1503686000.0 -1.213623046875 -1.08685302734375
1508681500.0 -1.3160400390625 -0.95928955078125
1513677000.0 -1.40673828125 -0.82293701171875
1518672500.0 -1.48529052734375 -0.67730712890625
1523668000.0 -1.54962158203125 -0.524658203125
1528663500.0 -1.6005859375 -0.36431884765625
1533659000.0 -1.63519287109375 -0.19891357421875
1538654500.0 -1.65399169921875 -0.0281982421875
1543650000.0 -1.65496826171875 0.14691162109375
1548645500.0 -1.637451171875 0.32293701171875
1553641000.0 -1.599365234375 0.49847412109375
1558636500.0 -1.5419921875 0.6707763671875
1563632000.0 -1.463623046875 0.83709716796875
1568627500.0 -1.36553955078125 0.99566650390625
1573623000.0 -1.24853515625 1.14141845703125
1578618500.0 -1.114013671875 1.27203369140625
1583614000.0 -0.96441650390625 1.38592529296875
1588609500.0 -0.8026123046875 1.480224609375
1593605000.0 -0.6318359375 1.55352783203125
1598600500.0 -0.45556640625 1.60528564453125
1603596000.0 -0.2764892578125 1.6356201171875
1608591500.0 -0.09771728515625 1.64501953125
1613587000.0 0.07757568359375 1.63446044921875
1618582500.0 0.24822998046875 1.60528564453125
1623578000.0 0.4112548828125 1.5592041015625
1628573500.0 0.56585693359375 1.4979248046875
1633569000.0 0.71112060546875 1.4228515625
1638564500.0 0.84613037109375 1.33587646484375
1643560000.0 0.97119140625 1.23828125
1648555500.0 1.0850830078125 1.130859375
1653551000.0 1.18841552734375 1.01483154296875
1658546500.0 1.28070068359375 0.890625
1663542000.0 1.36175537109375 0.759765625
1668537500.0 1.4310302734375 0.621337890625
1673533000.0 1.48919677734375 0.47686767578125
1678528500.0 1.53399658203125 0.325927734375
1683524000.0 1.56500244140625 0.16961669921875
1688519500.0 1.58099365234375 0.00885009765625
1693515000.0 1.58123779296875 -0.15631103515625
1698510500.0 1.56414794921875 -0.322265625
1703506000.0 1.52880859375 -0.4892578125
1708501500.0 1.4736328125 -0.65374755859375
1713497000.0 1.399169921875 -0.8133544921875
1718492500.0 1.3046875 -0.96466064453125
1723488000.0 1.19158935546875 -1.10552978515625
1728483500.0 1.06085205078125 -1.23052978515625
1733479000.0 0.915771484375 -1.33941650390625
1738474500.0 0.75872802734375 -1.4290771484375
1743470000.0 0.59295654296875 -1.49725341796875
1748465500.0 0.421630859375 -1.54376220703125
1753461000.0 0.2479248046875 -1.56939697265625
1758456500.0 0.07781982421875 -1.57452392578125
1763452000.0 -0.08843994140625 -1.560546875
1768447500.0 -0.24945068359375 -1.52935791015625
1773443000.0 -0.4022216796875 -1.4822998046875
1778438500.0 -0.54632568359375 -1.421875
1783434000.0 -0.68096923828125 -1.34967041015625
1788429500.0 -0.80548095703125 -1.26611328125
1793425000.0 -0.9208984375 -1.17474365234375
1798420500.0 -1.02655029296875 -1.0743408203125
1803416000.0 -1.122802734375 -0.96697998046875
1808411500.0 -1.20941162109375 -0.85284423828125
1813407000.0 -1.28594970703125 -0.73126220703125
1818402500.0 -1.3525390625 -0.6038818359375
1823398000.0 -1.409423828125 -0.469970703125
1828393500.0 -1.45489501953125 -0.329833984375
1833389000.0 -1.48663330078125 -0.18310546875
1838384500.0 -1.50604248046875 -0.0323486328125
1843380000.0 -1.5107421875 0.12359619140625
1848375500.0 -1.49847412109375 0.281982421875
1853371000.0 -1.468994140625 0.441650390625
1858366500.0 -1.4207763671875 0.60040283203125
1863362000.0 -1.3533935546875 0.75396728515625
1868357500.0 -1.2669677734375 0.90130615234375
1873353000.0 -1.16156005859375 1.03765869140625
1878348500.0 -1.03955078125 1.16082763671875
1883344000.0 -0.90264892578125 1.268310546875
1888339500.0 -0.7542724609375 1.35687255859375
1893335000.0 -0.5970458984375 1.42498779296875
1898330500.0 -0.4345703125 1.4727783203125
1903326000.0 -0.27020263671875 1.5013427734375
1908321500.0 -0.10662841796875 1.50946044921875
1913317000.0 0.053466796875 1.49951171875
1918312500.0 0.207275390625 1.47259521484375
1923308000.0 0.35418701171875 1.4310302734375
1928303500.0 0.49310302734375 1.3765869140625
1933299000.0 0.62335205078125 1.3101806640625
1938294500.0 0.744873046875 1.2337646484375
1943290000.0 0.856689453125 1.14874267578125
1948285500.0 0.9595947265625 1.0550537109375
1953281000.0 1.053466796875 0.95416259765625
1958276500.0 1.13812255859375 0.8465576171875
1963272000.0 1.213623046875 0.73248291015625
1968267500.0 1.279296875 0.611328125
1973263000.0 1.33477783203125 0.4852294921875
1978258500.0 1.37939453125 0.3529052734375
1983254000.0 1.4119873046875 0.21600341796875
1988249500.0 1.43212890625 0.07421875
1993245000.0 1.43853759765625 -0.07080078125
1998240500.0 1.430419921875 -0.21868896484375
2003236000.0 1.4063720703125 -0.36590576171875
2008231500.0 1.3660888671875 -0.51177978515625
2013227000.0 1.30950927734375 -0.6552734375
2018222500.0 1.23663330078125 -0.7919921875
2023218000.0 1.14752197265625 -0.919921875
2028213500.0 1.044189453125 -1.0382080078125
2033209000.0 0.9281005859375 -1.14312744140625
2038204500.0 0.8006591796875 -1.2337646484375
2043200000.0 0.6644287109375 -1.31036376953125
2048195500.0 0.52178955078125 -1.3695068359375
2053191000.0 0.374755859375 -1.41265869140625
2058186500.0 0.2255859375 -1.43914794921875
2063182000.0 0.0762939453125 -1.4500732421875
2068177500.0 -0.07183837890625 -1.445556640625
2073173000.0 -0.2171630859375 -1.42681884765625
2078168500.0 -0.358642578125 -1.39453125
2083164000.0 -0.49493408203125 -1.34942626953125
2088159500.0 -0.62640380859375 -1.2930908203125
2093155000.0 -0.7510986328125 -1.22406005859375
2098150500.0 -0.869384765625 -1.14483642578125
2103146000.0 -0.98046875 -1.0550537109375
2108141500.0 -1.083251953125 -0.95440673828125
2113137000.0 -1.17718505859375 -0.844970703125
2118132500.0 -1.260986328125 -0.72528076171875
2123128000.0 -1.33453369140625 -0.5963134765625
2128123500.0 -1.395751953125 -0.45947265625
2133119000.0 -1.44305419921875 -0.31451416015625
2138114500.0 -1.47576904296875 -0.16363525390625
2143110000.0 -1.49249267578125 -0.00762939453125
2148105500.0 -1.4915771484375 0.15142822265625
2153101000.0 -1.47265625 0.31134033203125
2158096500.0 -1.4354248046875 0.4691162109375
2163092000.0 -1.37896728515625 0.622802734375
2168087500.0 -1.3050537109375 0.76922607421875
2173083000.0 -1.21417236328125 0.9058837890625
2178078500.0 -1.10833740234375 1.031005859375
2183074000.0 -0.98883056640625 1.1419677734375
2188069500.0 -0.858642578125 1.237548828125
2193065000.0 -0.72015380859375 1.31671142578125
2198060500.0 -0.57537841796875 1.3800048828125
