!Created with skrf (http://scikit-rf.org).
# Hz S RI R 50.0 
!freq ReS11 ImS11
300000.0 -1.028476793 -0.1677463911
5299970.0 -1.003906417 0.0019924605
10299940.0 -1.002285435 0.0009861085
15299910.0 -1.0023723 0.0065971111
20299880.0 -1.002544011 0.0050709986
25299850.0 -1.002564846 0.0076643976
30299820.0 -1.002348289 0.0093335135
35299790.0 -1.001912926 0.0091805834
40299760.0 -1.001891375 0.0102928652
45299730.0 -1.001775828 0.0113522126
50299700.0 -1.001771125 0.0132952102
55299670.0 -1.00168317 0.0145172521
60299640.0 -1.001897779 0.0153584096
65299610.0 -1.001723661 0.0162090356
70299580.0 -1.002013862 0.0175039371
75299550.0 -1.001629631 0.018639251
80299520.0 -1.001334049 0.0200664734
85299490.0 -1.001231354 0.0213049625
90299460.0 -1.001473112 0.0219814159
95299430.0 -1.001341696 0.0231071057
100299400.0 -1.001340333 0.0249458835
105299370.0 -1.000821171 0.0259715532
110299340.0 -1.000969428 0.0273843419
115299310.0 -1.000945737 0.028106608
120299280.0 -1.000829688 0.0291630866
125299250.0 -1.001512644 0.0303042995
130299220.0 -1.000861119 0.0314555401
135299190.0 -1.00055154 0.032541561
140299160.0 -1.000684194 0.0336383478
145299130.0 -1.000328641 0.0347196811
150299100.0 -1.001194418 0.0358134858
155299070.0 -1.000377278 0.0369234594
160299040.0 -1.000912437 0.0387343131
165299010.0 -1.000540368 0.0391951198
170298980.0 -1.000453196 0.0407900226
175298950.0 -0.9980875811 0.0415746008
180298920.0 -0.9978966525 0.0416620297
185298890.0 -0.999487461 0.0437064901
190298860.0 -1.000438548 0.0447176932
195298830.0 -1.000615352 0.0466499583
200298800.0 -1.000245647 0.04769039
205298770.0 -1.000253119 0.0492678101
210298740.0 -1.000855852 0.0499972574
215298710.0 -1.000361153 0.0510756981
220298680.0 -1.000539726 0.0524315396
225298650.0 -1.000343259 0.0537746762
230298620.0 -1.000796216 0.0550511634
235298590.0 -1.000401157 0.055555729
240298560.0 -1.000305062 0.0575210094
245298530.0 -1.000013623 0.057795471
250298500.0 -1.000087756 0.0589875703
255298470.0 -0.9997743206 0.0604426487
260298440.0 -0.9995906013 0.0615757741
265298410.0 -1.00045841 0.0629529455
270298380.0 -1.000390328 0.0641937974
275298350.0 -1.000057008 0.0653229419
280298320.0 -0.9998398619 0.0662663266
285298290.0 -0.9998008003 0.0666451455
290298260.0 -0.9994726669 0.068513587
295298230.0 -0.999682783 0.069206683
300298200.0 -0.999725575 0.0702852783
305298170.0 -0.9991855173 0.0723996751
310298140.0 -0.9995130007 0.0729787842
315298110.0 -1.000041441 0.0733003163
320298080.0 -0.9991881126 0.0755401498
325298050.0 -0.9992294905 0.0767386534
330298020.0 -0.998849604 0.0774123196
335297990.0 -0.9990712344 0.0789841787
340297960.0 -0.9992147255 0.0806050132
345297930.0 -0.9992414803 0.0811018285
350297900.0 -1.000052729 0.0826625137
355297870.0 -0.9997394906 0.0835453408
360297840.0 -0.9993841009 0.0840545838
365297810.0 -1.000260425 0.0858465373
370297780.0 -0.9990519651 0.086683894
375297750.0 -0.9985911559 0.0883719745
380297720.0 -0.998921864 0.0893204184
385297690.0 -0.9986197656 0.09034686
390297660.0 -0.9986389247 0.0921137283
395297630.0 -0.9985019547 0.0929355326
400297600.0 -0.9984210887 0.0939493505
405297570.0 -0.998140094 0.0957637728
410297540.0 -0.9978789171 0.0966095309
415297510.0 -0.9977677811 0.0972910745
420297480.0 -0.9977009505 0.0986189073
425297450.0 -0.9977446515 0.0997534184
430297420.0 -0.9979770405 0.1007297147
435297390.0 -0.9974551328 0.1022601973
440297360.0 -0.9975765334 0.1036792279
445297330.0 -0.9969124778 0.1047062699
450297300.0 -0.9970564242 0.1053197177
455297270.0 -0.9974398327 0.1067238928
460297240.0 -0.9973451137 0.1083096938
465297210.0 -0.9971650839 0.1094906125
470297180.0 -0.9965521685 0.1107968861
475297150.0 -0.9963706511 0.1115186751
480297120.0 -0.9961662287 0.1131041127
485297090.0 -0.9961542115 0.1137788823
490297060.0 -0.996783478 0.1153346099
495297030.0 -0.9966680102 0.1164496527
500297000.0 -0.9957827051 0.1173152933
505296970.0 -0.9962708015 0.1184107812
510296940.0 -0.9966684541 0.119876116
515296910.0 -0.9965364601 0.1214638839
520296880.0 -0.9966600802 0.1217157893
525296850.0 -0.9967787507 0.1231072157
530296820.0 -0.9965508407 0.124869512
535296790.0 -0.996424229 0.1252005791
540296760.0 -0.9957093922 0.126271176
545296730.0 -0.9960230456 0.1278974764
550296700.0 -0.9957499011 0.1291906838
555296670.0 -0.9952819311 0.1303372993
560296640.0 -0.9951553685 0.1309739733
565296610.0 -0.9946790252 0.1323286135
570296580.0 -0.9946070481 0.1342325404
575296550.0 -0.9949902234 0.1359156377
580296520.0 -0.9944828065 0.1367625732
585296490.0 -0.994114771 0.1373418109
590296460.0 -0.9941653728 0.1387143891
595296430.0 -0.9936639105 0.1397612256
600296400.0 -0.9935647974 0.1411609008
605296370.0 -0.993776855 0.1420181747
610296340.0 -0.9937067913 0.1435640804
615296310.0 -0.9938781772 0.1445179539
620296280.0 -0.9929052474 0.1458503837
625296250.0 -0.9929836278 0.1470156233
630296220.0 -0.992735 0.1486628151
635296190.0 -0.9930491165 0.1484143548
640296160.0 -0.9927836676 0.1493973461
645296130.0 -0.99229405 0.1512036929
650296100.0 -0.9915247042 0.1524324179
655296070.0 -0.9918345414 0.1538450195
660296040.0 -0.9918443797 0.1544969224
665296010.0 -0.9912689297 0.1562172343
670295980.0 -0.9918995308 0.1569744517
675295950.0 -0.9914369 0.1577584404
680295920.0 -0.9907806683 0.159439755
685295890.0 -0.9904817159 0.1606150084
690295860.0 -0.9905224918 0.1615602927
695295830.0 -0.9913226488 0.1628942316
700295800.0 -0.9905062244 0.1635399307
705295770.0 -0.9904663007 0.1651049168
710295740.0 -0.989998384 0.1664273507
715295710.0 -0.9901535597 0.1675942576
720295680.0 -0.9893808838 0.1685114773
725295650.0 -0.9895345441 0.1699549838
730295620.0 -0.9893767315 0.1711008842
735295590.0 -0.9894592189 0.1723314489
740295560.0 -0.9889744422 0.1728864247
745295530.0 -0.9889454757 0.1742845724
750295500.0 -0.9887259294 0.1755194791
755295470.0 -0.9886678402 0.176520565
760295440.0 -0.9886447122 0.1776504184
765295410.0 -0.9878338876 0.1790601578
770295380.0 -0.9883177328 0.1801294008
775295350.0 -0.9873348748 0.1819619226
780295320.0 -0.987570257 0.1824727547
785295290.0 -0.9876501658 0.1837489729
790295260.0 -0.9866311512 0.1849549055
795295230.0 -0.9867512958 0.1864392252
800295200.0 -0.9867709138 0.1871398746
805295170.0 -0.9857273834 0.1886196077
810295140.0 -0.9861207419 0.1897315718
815295110.0 -0.986024478 0.1911838174
820295080.0 -0.9861280338 0.1919240583
825295050.0 -0.9855808584 0.1936827998
830295020.0 -0.9855230814 0.1945136559
835294990.0 -0.9850076826 0.1952039486
840294960.0 -0.9850015606 0.1965674136
845294930.0 -0.9842023696 0.1980111881
850294900.0 -0.9849088504 0.1990098714
855294870.0 -0.9844832011 0.2002739893
860294840.0 -0.9841004709 0.2012222297
865294810.0 -0.9837215752 0.2029201225
870294780.0 -0.9833905454 0.2035711104
875294750.0 -0.9834013174 0.204265455
880294720.0 -0.9829936148 0.2054627945
885294690.0 -0.9827621003 0.2072028608
890294660.0 -0.9820787644 0.2081006502
895294630.0 -0.9817406126 0.208901289
900294600.0 -0.9819462088 0.209869595
905294570.0 -0.9812972094 0.211068703
910294540.0 -0.9814061374 0.2124358374
915294510.0 -0.9811526374 0.2136405639
920294480.0 -0.9809596444 0.2146090516
925294450.0 -0.9803550284 0.2160455464
930294420.0 -0.9803625998 0.2175342689
935294390.0 -0.9799469366 0.2179195752
940294360.0 -0.9797770325 0.2188972731
945294330.0 -0.9796297612 0.2203320962
950294300.0 -0.9794901678 0.2210580572
955294270.0 -0.9788083054 0.2223352016
960294240.0 -0.9788194316 0.2240147562
965294210.0 -0.9781520997 0.225159819
970294180.0 -0.9779151316 0.2266902231
975294150.0 -0.9776839165 0.2269896719
980294120.0 -0.9774861316 0.2287359889
985294090.0 -0.9775601598 0.2293772524
990294060.0 -0.9774105267 0.2304552391
995294030.0 -0.9769155676 0.231543635
1000294000.0 -0.9765869704 0.2326510342
1005293970.0 -0.976250093 0.2339468981
1010293940.0 -0.9756889576 0.235394931
1015293910.0 -0.9761669023 0.236415451
1020293880.0 -0.9754374371 0.2370593074
1025293850.0 -0.9751521619 0.2378975572
1030293820.0 -0.9745149227 0.2394574009
1035293790.0 -0.9741041746 0.2402414778
1040293760.0 -0.9740748447 0.2420219931
1045293730.0 -0.9735110423 0.2425936567
1050293700.0 -0.9733046941 0.2444915343
1055293670.0 -0.9731055428 0.2453557863
1060293640.0 -0.9730516317 0.246284103
1065293610.0 -0.9724015357 0.2472634284
1070293580.0 -0.9721871634 0.2482682281
1075293550.0 -0.9719270728 0.249167738
1080293520.0 -0.9718601046 0.2509353016
1085293490.0 -0.9714112662 0.2523825846
1090293460.0 -0.9713112768 0.2532122529
1095293430.0 -0.9703197844 0.2550715023
1100293400.0 -0.9703616452 0.2553057881
1105293370.0 -0.9701564974 0.2570527012
1110293340.0 -0.9697816291 0.2577728797
1115293310.0 -0.9695024407 0.2585346413
1120293280.0 -0.9689235217 0.2601789454
1125293250.0 -0.9689076546 0.2607363305
1130293220.0 -0.9685502982 0.2621508066
1135293190.0 -0.9685871123 0.2634981354
1140293160.0 -0.9682723798 0.2646951149
1145293130.0 -0.9679193569 0.2656895313
1150293100.0 -0.9675826267 0.2676538644
1155293070.0 -0.9674415919 0.2685600874
1160293040.0 -0.9671133963 0.2700371602
1165293010.0 -0.966056283 0.2703246315
1170292980.0 -0.9659812865 0.2718140119
1175292950.0 -0.9662609672 0.2725140336
1180292920.0 -0.9654968098 0.2734620747
1185292890.0 -0.9652695201 0.2747193767
1190292860.0 -0.9649436143 0.2750205576
1195292830.0 -0.9645915436 0.2763026168
1200292800.0 -0.9641855142 0.2772627259
1205292770.0 -0.9640243446 0.2780166187
1210292740.0 -0.9636617343 0.2794728749
1215292710.0 -0.9631971155 0.2804076097
1220292680.0 -0.9629701249 0.2819341374
1225292650.0 -0.9627235848 0.283070304
1230292620.0 -0.9620816564 0.2838219724
1235292590.0 -0.9619775092 0.2847578756
1240292560.0 -0.9611890007 0.2861701048
1245292530.0 -0.9608704544 0.2874938063
1250292500.0 -0.9603920114 0.2884070512
1255292470.0 -0.9607918476 0.2894862479
1260292440.0 -0.9599573267 0.2907617068
1265292410.0 -0.9600719284 0.2915503224
1270292380.0 -0.9594919361 0.2924530562
1275292350.0 -0.9596535626 0.2936752655
1280292320.0 -0.9588631711 0.2947815496
1285292290.0 -0.9581365488 0.2966406861
1290292260.0 -0.957976236 0.297352696
1295292230.0 -0.9578336993 0.2986704023
1300292200.0 -0.957202992 0.2994850464
1305292170.0 -0.9565019163 0.3002288621
1310292140.0 -0.9561371485 0.30166625
1315292110.0 -0.9560664064 0.3028874655
1320292080.0 -0.9557451232 0.3033727193
1325292050.0 -0.9550584328 0.3047953361
1330292020.0 -0.9543357054 0.3063601017
1335291990.0 -0.9546345623 0.3073205812
1340291960.0 -0.9544121236 0.3086125355
1345291930.0 -0.9535475441 0.3096216909
1350291900.0 -0.9534336945 0.3105916792
1355291870.0 -0.9530530006 0.3120511087
1360291840.0 -0.952368463 0.3125939512
1365291810.0 -0.9520296388 0.3138957185
1370291780.0 -0.9519441009 0.3145953652
1375291750.0 -0.9515686376 0.3156547825
1380291720.0 -0.9516662935 0.317263614
1385291690.0 -0.9504710285 0.3178830861
1390291660.0 -0.950147118 0.3189833023
1395291630.0 -0.950090057 0.3200498921
1400291600.0 -0.9496308637 0.3219903534
1405291570.0 -0.9493256845 0.3225859498
1410291540.0 -0.9486319685 0.3240220337
1415291510.0 -0.9482354126 0.3247308549
1420291480.0 -0.9480529513 0.3259213904
1425291450.0 -0.9478890381 0.3267201392
1430291420.0 -0.9473973708 0.3276606892
1435291390.0 -0.9468485355 0.3290344752
1440291360.0 -0.9462165448 0.3296060023
1445291330.0 -0.9463947695 0.3310235682
1450291300.0 -0.9456699219 0.3318268614
1455291270.0 -0.9454590062 0.3332222514
1460291240.0 -0.9452757476 0.333756266
1465291210.0 -0.9443590897 0.3353366198
1470291180.0 -0.9436298888 0.3364864791
1475291150.0 -0.943405593 0.3372294586
1480291120.0 -0.9433647952 0.3388617043
1485291090.0 -0.9424087299 0.3398587627
1490291060.0 -0.9426061559 0.3409655499
1495291030.0 -0.9421660116 0.3417443851
1500291000.0 -0.9410652759 0.3431280351
1505290970.0 -0.9412676843 0.3435845067
1510290940.0 -0.9409987404 0.344835133
1515290910.0 -0.9402590437 0.3456891633
1520290880.0 -0.9403025006 0.3470699029
1525290850.0 -0.9400155373 0.347877856
1530290820.0 -0.9395552724 0.3491169306
1535290790.0 -0.9390049197 0.3501111312
1540290760.0 -0.9386333755 0.3516366526
1545290730.0 -0.9382252648 0.3528072917
1550290700.0 -0.9374711863 0.3530788494
1555290670.0 -0.9369619706 0.3546765863
1560290640.0 -0.9369993605 0.3557806143
1565290610.0 -0.9364791389 0.3564813947
1570290580.0 -0.9359029498 0.3580626803
1575290550.0 -0.9351821269 0.3592530097
1580290520.0 -0.9350507536 0.3603660478
1585290490.0 -0.9343112942 0.3615952936
1590290460.0 -0.933875395 0.3629360092
1595290430.0 -0.9334536458 0.363585805
1600290400.0 -0.9334072112 0.3646908985
1605290370.0 -0.9327476181 0.3654287004
1610290340.0 -0.9322718679 0.3661109662
1615290310.0 -0.9313791866 0.3676362574
1620290280.0 -0.9308503179 0.3687335698
1625290250.0 -0.9311259117 0.3696468149
1630290220.0 -0.930648451 0.3711940936
1635290190.0 -0.9303615322 0.3711820303
1640290160.0 -0.9294434526 0.3723067977
1645290130.0 -0.9292392578 0.3734926394
1650290100.0 -0.9286550211 0.3744990504
1655290070.0 -0.9281278768 0.375433889
1660290040.0 -0.92759169 0.3770017171
1665290010.0 -0.9275606149 0.3774263268
1670289980.0 -0.9272614141 0.3786684924
1675289950.0 -0.9263101256 0.3798283995
1680289920.0 -0.9263102019 0.3805966139
1685289890.0 -0.925249753 0.3826811139
1690289860.0 -0.924828855 0.3839711546
1695289830.0 -0.9245797609 0.3850084786
1700289800.0 -0.924053707 0.385833483
1705289770.0 -0.9237814114 0.3868372426
1710289740.0 -0.9230633496 0.3877785165
1715289710.0 -0.9225939153 0.388935296
1720289680.0 -0.9218775958 0.3901639055
1725289650.0 -0.9218256725 0.3910815116
1730289620.0 -0.9213243857 0.3919286595
1735289590.0 -0.9207607266 0.393062005
1740289560.0 -0.9199442229 0.3941381883
1745289530.0 -0.9198043016 0.3949287009
1750289500.0 -0.9191360081 0.3968194416
1755289470.0 -0.918877394 0.3969026298
1760289440.0 -0.9185709343 0.3982357104
1765289410.0 -0.917973708 0.3992248368
1770289380.0 -0.9177713931 0.3999141174
1775289350.0 -0.9178554233 0.4012283619
1780289320.0 -0.9163948024 0.4019430833
1785289290.0 -0.9160619273 0.4035967326
1790289260.0 -0.9157591921 0.4047937066
1795289230.0 -0.9149866404 0.4058663898
1800289200.0 -0.9146838236 0.4071126223
1805289170.0 -0.9142560022 0.4084151502
1810289140.0 -0.9137038899 0.4089591424
1815289110.0 -0.9137836829 0.4098257579
1820289080.0 -0.9128724785 0.4105109888
1825289050.0 -0.9130001107 0.4111222422
1830289020.0 -0.9117990872 0.4121485448
1835288990.0 -0.9113219306 0.4130533332
1840288960.0 -0.9106780507 0.4142273723
1845288930.0 -0.9105249105 0.4156318858
1850288900.0 -0.9097504893 0.4163709419
1855288870.0 -0.9097308629 0.4177229022
1860288840.0 -0.9088477989 0.4191076197
1865288810.0 -0.9082543795 0.4202859646
1870288780.0 -0.9077527375 0.4216388172
1875288750.0 -0.9076330418 0.4227623633
1880288720.0 -0.9066402586 0.4239004233
1885288690.0 -0.905972808 0.424837569
1890288660.0 -0.9051214293 0.4254847697
1895288630.0 -0.9050167266 0.4267114099
1900288600.0 -0.9043341674 0.4279543602
1905288570.0 -0.9037405118 0.4287797785
1910288540.0 -0.9034817474 0.4296278186
1915288510.0 -0.902898147 0.4311626247
1920288480.0 -0.9018529475 0.4330535614
1925288450.0 -0.9018045343 0.4331769234
1930288420.0 -0.9012978295 0.4347489784
1935288390.0 -0.900556274 0.4356126445
1940288360.0 -0.9005208418 0.4365568006
1945288330.0 -0.8990876772 0.4370483924
1950288300.0 -0.8988853485 0.4389094005
1955288270.0 -0.8988875001 0.4402954825
1960288240.0 -0.8971822902 0.4412805264
1965288210.0 -0.8970989488 0.4429692845
1970288180.0 -0.8963592042 0.4432445205
1975288150.0 -0.8963904064 0.4450755795
1980288120.0 -0.8959135288 0.445293489
1985288090.0 -0.8952389674 0.4462296875
1990288060.0 -0.8950370559 0.4471738048
1995288030.0 -0.8944229809 0.447953061
2000288000.0 -0.8945330342 0.4485011463
2005287970.0 -0.8935440876 0.4492557671
2010287940.0 -0.8931029911 0.4505590169
2015287910.0 -0.8923222255 0.4515971058
2020287880.0 -0.8917483163 0.4522941822
2025287850.0 -0.8907722607 0.4538732427
2030287820.0 -0.8905954523 0.4544300959
2035287790.0 -0.8900043631 0.4561237796
2040287760.0 -0.8889966443 0.4565841612
2045287730.0 -0.8885287409 0.4585702216
2050287700.0 -0.8886260679 0.4596047019
2055287670.0 -0.8878366489 0.459843298
2060287640.0 -0.8873389153 0.4613618319
2065287610.0 -0.8870521272 0.4627195423
2070287580.0 -0.8861146254 0.4635458885
2075287550.0 -0.8855225217 0.4645799279
2080287520.0 -0.8855302126 0.4652088168
2085287490.0 -0.8850490294 0.4661574312
2090287460.0 -0.8840287693 0.4672879546
2095287430.0 -0.8834829686 0.4685204116
2100287400.0 -0.883122067 0.4699002945
2105287370.0 -0.8817664209 0.4708932769
2110287340.0 -0.8815245339 0.4724389039
2115287310.0 -0.881092306 0.4727909746
2120287280.0 -0.8804648074 0.4744248624
2125287250.0 -0.8805153001 0.4747023297
2130287220.0 -0.8796345696 0.4757792056
2135287190.0 -0.8789099946 0.4770600415
2140287160.0 -0.8781434983 0.4786656938
2145287130.0 -0.8775907162 0.4795998732
2150287100.0 -0.8768934962 0.4804258124
2155287070.0 -0.8768708428 0.4808672092
2160287040.0 -0.8758941913 0.4822266756
2165287010.0 -0.8752800647 0.4831028998
2170286980.0 -0.8747975752 0.4847707748
2175286950.0 -0.8743844318 0.4848093159
2180286920.0 -0.8741895193 0.4854194973
2185286890.0 -0.8734393314 0.4865072443
2190286860.0 -0.8732037675 0.4870687927
2195286830.0 -0.8724907251 0.4878156034
2200286800.0 -0.8721250352 0.4888588231
2205286770.0 -0.8716960251 0.490455286
2210286740.0 -0.870518391 0.4908305555
2215286710.0 -0.8705996477 0.4923824872
2220286680.0 -0.8698754232 0.4928103761
2225286650.0 -0.8688162586 0.4946141238
2230286620.0 -0.8681944935 0.4957752071
2235286590.0 -0.8672042316 0.4966375334
2240286560.0 -0.8669217617 0.497725659
2245286530.0 -0.86624713 0.498446796
2250286500.0 -0.8661781399 0.4995703049
2255286470.0 -0.8648491698 0.5010393412
2260286440.0 -0.8644226265 0.502045002
2265286410.0 -0.8637980586 0.5026888345
2270286380.0 -0.8630770109 0.5043001162
2275286350.0 -0.863070486 0.5049352423
2280286320.0 -0.8621236366 0.5063063365
2285286290.0 -0.8612225083 0.5072710099
2290286260.0 -0.8605963937 0.5085297773
2295286230.0 -0.8603235763 0.5100509434
2300286200.0 -0.8595122875 0.510377973
2305286170.0 -0.8589132211 0.5118440774
2310286140.0 -0.8584413961 0.5123485509
2315286110.0 -0.8574396312 0.5138622486
2320286080.0 -0.8571865503 0.5146779572
2325286050.0 -0.8566070884 0.5155682221
2330286020.0 -0.8560420796 0.5161913457
2335285990.0 -0.8553477304 0.5172840022
2340285960.0 -0.8547242354 0.5181159851
2345285930.0 -0.8546286927 0.5196901023
2350285900.0 -0.8531883294 0.5211938048
2355285870.0 -0.853190901 0.5218536842
2360285840.0 -0.8524620225 0.5225111944
2365285810.0 -0.851444479 0.5236014904
2370285780.0 -0.8508308056 0.5244177897
2375285750.0 -0.8507991511 0.5254532947
2380285720.0 -0.8503298368 0.526354491
2385285690.0 -0.849426969 0.5272948579
2390285660.0 -0.8491198053 0.5283504785
2395285630.0 -0.8487426655 0.5294004668
2400285600.0 -0.8484169972 0.5302923056
2405285570.0 -0.8471654171 0.5308175705
2410285540.0 -0.8468499311 0.5313229532
2415285510.0 -0.8467653636 0.5321066671
2420285480.0 -0.846309878 0.5336165777
2425285450.0 -0.8454212499 0.5339101053
2430285420.0 -0.8448784701 0.5351843916
2435285390.0 -0.8437739327 0.5361515354
2440285360.0 -0.8433618905 0.5366216815
2445285330.0 -0.8424997591 0.537956395
2450285300.0 -0.8414118693 0.5389559053
2455285270.0 -0.8408677449 0.5402279945
2460285240.0 -0.840553708 0.5410066449
2465285210.0 -0.8396858146 0.5420627881
2470285180.0 -0.8393443132 0.54329966
2475285150.0 -0.8385215894 0.5442742879
2480285120.0 -0.8377472902 0.5453894572
2485285090.0 -0.8373994341 0.5462009643
2490285060.0 -0.8366786494 0.5473805357
2495285030.0 -0.835823311 0.5481101322
2500285000.0 -0.8353884775 0.5500189034
2505284970.0 -0.834340384 0.5499035882
2510284940.0 -0.8336173174 0.5514318062
2515284910.0 -0.832835422 0.5523742532
2520284880.0 -0.8324379345 0.5535787104
2525284850.0 -0.8319569182 0.5542475788
2530284820.0 -0.8312955483 0.5548309583
