!Created with skrf (http://scikit-rf.org).
# Hz S RI R 50.0 
!freq ReS11 ImS11
45000000.0 -0.07651519775390625 -0.0972442626953125
49995500.0 -0.09700393676757812 -0.09488677978515625
54991000.0 -0.11766433715820312 -0.08884429931640625
59986500.0 -0.13524627685546875 -0.08834075927734375
64982000.0 -0.1547698974609375 -0.0813751220703125
69977500.0 -0.17385101318359375 -0.06890869140625
74973000.0 -0.19246673583984375 -0.0536956787109375
79968500.0 -0.2092132568359375 -0.0352325439453125
84964000.0 -0.2247161865234375 -0.013641357421875
89959500.0 -0.23801422119140625 0.0108795166015625
94955000.0 -0.24790191650390625 0.0385284423828125
99950500.0 -0.2545013427734375 0.0688629150390625
104946000.0 -0.2574005126953125 0.101043701171875
109941500.0 -0.2558441162109375 0.1346282958984375
114937000.0 -0.2496337890625 0.1695709228515625
119932500.0 -0.238616943359375 0.20485687255859375
124928000.0 -0.22275543212890625 0.23968505859375
129923500.0 -0.2016754150390625 0.2734527587890625
134919000.0 -0.1756439208984375 0.305419921875
139914500.0 -0.144500732421875 0.3348236083984375
144910000.0 -0.1090240478515625 0.361175537109375
149905500.0 -0.0691986083984375 0.3831939697265625
154901000.0 -0.026123046875 0.400634765625
159896500.0 0.0197296142578125 0.4129791259765625
164892000.0 0.06787109375 0.419647216796875
169887500.0 0.1177215576171875 0.4203948974609375
174883000.0 0.1681976318359375 0.415435791015625
179878500.0 0.2191162109375 0.40423583984375
184874000.0 0.2689361572265625 0.386688232421875
189869500.0 0.3175048828125 0.3629302978515625
194865000.0 0.36419677734375 0.3336334228515625
199860500.0 0.4079742431640625 0.29852294921875
204856000.0 0.4481658935546875 0.25775146484375
209851500.0 0.4841461181640625 0.211944580078125
214847000.0 0.515960693359375 0.16131591796875
219842500.0 0.542266845703125 0.105987548828125
224838000.0 0.5628662109375 0.04742431640625
229833500.0 0.57720947265625 -0.01495361328125
234829000.0 0.584503173828125 -0.0794677734375
239824500.0 0.58447265625 -0.146240234375
244820000.0 0.576873779296875 -0.214111328125
249815500.0 0.560943603515625 -0.282012939453125
254811000.0 0.5557861328125 -0.3297119140625
259806500.0 0.527130126953125 -0.396026611328125
264802000.0 0.4903717041015625 -0.4604339599609375
269797500.0 0.445037841796875 -0.521148681640625
274793000.0 0.391998291015625 -0.576934814453125
279788500.0 0.331695556640625 -0.62701416015625
284784000.0 0.264617919921875 -0.670562744140625
289779500.0 0.192230224609375 -0.70611572265625
294775000.0 0.115234375 -0.73345947265625
299770500.0 0.034210205078125 -0.751800537109375
304766000.0 -0.048675537109375 -0.76116943359375
309761500.0 -0.132720947265625 -0.76080322265625
314757000.0 -0.216705322265625 -0.750091552734375
319752500.0 -0.300140380859375 -0.73028564453125
324748000.0 -0.38128662109375 -0.701995849609375
329743500.0 -0.459564208984375 -0.664337158203125
334739000.0 -0.534515380859375 -0.61871337890625
339734500.0 -0.604400634765625 -0.5643310546875
344730000.0 -0.66900634765625 -0.502349853515625
349725500.0 -0.727569580078125 -0.433685302734375
354721000.0 -0.77935791015625 -0.358489990234375
359716500.0 -0.823486328125 -0.27703857421875
364712000.0 -0.8594970703125 -0.1900634765625
369707500.0 -0.88702392578125 -0.097808837890625
374703000.0 -0.904571533203125 -0.001220703125
379698500.0 -0.911834716796875 0.0987548828125
384694000.0 -0.907958984375 0.20068359375
389689500.0 -0.892120361328125 0.303375244140625
394685000.0 -0.864410400390625 0.406005859375
399680500.0 -0.824066162109375 0.506500244140625
404676000.0 -0.77197265625 0.603302001953125
409671500.0 -0.707550048828125 0.69403076171875
414667000.0 -0.631561279296875 0.778106689453125
419662500.0 -0.544891357421875 0.85455322265625
424658000.0 -0.44842529296875 0.917572021484375
429653500.0 -0.343048095703125 0.9697265625
434649000.0 -0.23095703125 1.00823974609375
439644500.0 -0.1168212890625 1.031982421875
444640000.0 -0.00164794921875 1.04290771484375
449635500.0 0.11328125 1.040771484375
454631000.0 0.2275390625 1.02740478515625
459626500.0 0.34063720703125 1.0003662109375
464622000.0 0.44891357421875 0.9610595703125
469617500.0 0.551605224609375 0.90997314453125
474613000.0 0.64776611328125 0.84893798828125
479608500.0 0.73687744140625 0.77923583984375
484604000.0 0.81854248046875 0.70098876953125
489599500.0 0.892059326171875 0.615020751953125
494595000.0 0.956939697265625 0.522674560546875
499590500.0 1.013427734375 0.42388916015625
504586000.0 1.06036376953125 0.31988525390625
509581500.0 1.09808349609375 0.210693359375
514577000.0 1.1253662109375 0.09661865234375
519572500.0 1.1417236328125 -0.0218505859375
524568000.0 1.1468505859375 -0.1436767578125
529563500.0 1.13916015625 -0.26824951171875
534559000.0 1.1177978515625 -0.39459228515625
539554500.0 1.0821533203125 -0.520263671875
544550000.0 1.031005859375 -0.6441650390625
549545500.0 0.964324951171875 -0.76385498046875
554541000.0 0.88232421875 -0.87677001953125
559536500.0 0.78533935546875 -0.980804443359375
564532000.0 0.675048828125 -1.07318115234375
569527500.0 0.5526123046875 -1.1524658203125
574523000.0 0.42022705078125 -1.21588134765625
579518500.0 0.28076171875 -1.26263427734375
584514000.0 0.13568115234375 -1.291748046875
589509500.0 -0.01153564453125 -1.302978515625
594505000.0 -0.158447265625 -1.29571533203125
599500500.0 -0.30267333984375 -1.2716064453125
604496000.0 -0.44183349609375 -1.23052978515625
609491500.0 -0.57391357421875 -1.1748046875
614487000.0 -0.6976318359375 -1.10565185546875
619482500.0 -0.81201171875 -1.02490234375
624478000.0 -0.916107177734375 -0.933563232421875
629473500.0 -1.00927734375 -0.83319091796875
634469000.0 -1.09161376953125 -0.7252197265625
639464500.0 -1.16302490234375 -0.61065673828125
644460000.0 -1.2230224609375 -0.49041748046875
649455500.0 -1.27197265625 -0.36492919921875
654451000.0 -1.3096923828125 -0.23468017578125
659446500.0 -1.33642578125 -0.10089111328125
664442000.0 -1.350830078125 0.03631591796875
669437500.0 -1.3525390625 0.177001953125
674433000.0 -1.340576171875 0.319580078125
679428500.0 -1.314208984375 0.46337890625
684424000.0 -1.27294921875 0.60736083984375
689419500.0 -1.215087890625 0.7496337890625
694415000.0 -1.1405029296875 0.88836669921875
699410500.0 -1.04864501953125 1.02105712890625
704406000.0 -0.93896484375 1.14495849609375
709401500.0 -0.81256103515625 1.25762939453125
714397000.0 -0.67034912109375 1.35595703125
719392500.0 -0.51409912109375 1.437255859375
724388000.0 -0.346923828125 1.4984130859375
729383500.0 -0.1708984375 1.537841796875
734379000.0 0.01025390625 1.55255126953125
739374500.0 0.1917724609375 1.5440673828125
744370000.0 0.36968994140625 1.5120849609375
749365500.0 0.54071044921875 1.45770263671875
754361000.0 0.70172119140625 1.38372802734375
759356500.0 0.85064697265625 1.2913818359375
764352000.0 0.98468017578125 1.18365478515625
769347500.0 1.10394287109375 1.06341552734375
774343000.0 1.20648193359375 0.9334716796875
779338500.0 1.29345703125 0.7962646484375
784334000.0 1.3642578125 0.6524658203125
789329500.0 1.42010498046875 0.50543212890625
794325000.0 1.46112060546875 0.3558349609375
799320500.0 1.4874267578125 0.20465087890625
804316000.0 1.50006103515625 0.052734375
809311500.0 1.4991455078125 -0.09881591796875
814307000.0 1.4852294921875 -0.24932861328125
819302500.0 1.45611572265625 -0.39935302734375
824298000.0 1.41534423828125 -0.54693603515625
829293500.0 1.36151123046875 -0.69140625
834289000.0 1.29193115234375 -0.8333740234375
839284500.0 1.20892333984375 -0.9686279296875
844280000.0 1.17169189453125 -1.06109619140625
849275500.0 1.06292724609375 -1.188232421875
854271000.0 0.93914794921875 -1.305908203125
859266500.0 0.8006591796875 -1.4114990234375
864262000.0 0.64776611328125 -1.502197265625
869257500.0 0.481201171875 -1.57562255859375
874253000.0 0.3084716796875 -1.6304931640625
879248500.0 0.127197265625 -1.66400146484375
884244000.0 -0.0584716796875 -1.67596435546875
889239500.0 -0.24578857421875 -1.66607666015625
894235000.0 -0.43109130859375 -1.63409423828125
899230500.0 -0.6114501953125 -1.57952880859375
904226000.0 -0.78564453125 -1.5040283203125
909221500.0 -0.9495849609375 -1.407470703125
914217000.0 -1.09893798828125 -1.2916259765625
919212500.0 -1.23223876953125 -1.1595458984375
924208000.0 -1.3477783203125 -1.01495361328125
929203500.0 -1.4442138671875 -0.8604736328125
934199000.0 -1.5218505859375 -0.6995849609375
939194500.0 -1.58154296875 -0.53387451171875
944190000.0 -1.623779296875 -0.3663330078125
949185500.0 -1.64996337890625 -0.1971435546875
954181000.0 -1.65960693359375 -0.0281982421875
959176500.0 -1.65362548828125 0.1397705078125
964172000.0 -1.63287353515625 0.30718994140625
969167500.0 -1.5972900390625 0.47161865234375
974163000.0 -1.5465087890625 0.63214111328125
979158500.0 -1.48101806640625 0.78973388671875
984154000.0 -1.4005126953125 0.9417724609375
989149500.0 -1.30413818359375 1.0885009765625
994145000.0 -1.19219970703125 1.2264404296875
999140500.0 -1.0640869140625 1.35504150390625
1004136000.0 -0.921630859375 1.47161865234375
1009131500.0 -0.7635498046875 1.5748291015625
1014127000.0 -0.59259033203125 1.6617431640625
1019122500.0 -0.40863037109375 1.7286376953125
1024118000.0 -0.2152099609375 1.7745361328125
1029113500.0 -0.0155029296875 1.796875
1034109000.0 0.18804931640625 1.794677734375
1039104500.0 0.3912353515625 1.76715087890625
1044100000.0 0.58978271484375 1.71380615234375
1049095500.0 0.7796630859375 1.6365966796875
1054091000.0 0.958251953125 1.53643798828125
1059086500.0 1.12152099609375 1.41619873046875
1064082000.0 1.26824951171875 1.27850341796875
1069077500.0 1.39617919921875 1.12628173828125
1074073000.0 1.50482177734375 0.96282958984375
1079068500.0 1.592529296875 0.79083251953125
1084064000.0 1.6602783203125 0.6136474609375
1089059500.0 1.70794677734375 0.43292236328125
1094055000.0 1.73785400390625 0.250244140625
1099050500.0 1.748291015625 0.06884765625
1104046000.0 1.74151611328125 -0.11181640625
1109041500.0 1.7178955078125 -0.289306640625
1114037000.0 1.677734375 -0.462890625
1119032500.0 1.622314453125 -0.63189697265625
1124028000.0 1.55084228515625 -0.79473876953125
1129023500.0 1.46429443359375 -0.9510498046875
1134019000.0 1.3624267578125 -1.09912109375
1139014500.0 1.245849609375 -1.23895263671875
1144010000.0 1.115234375 -1.3671875
1149005500.0 0.97039794921875 -1.483642578125
1154001000.0 0.81134033203125 -1.58642578125
1158996500.0 0.6409912109375 -1.671875
1163992000.0 0.459228515625 -1.7403564453125
1168987500.0 0.26885986328125 -1.78875732421875
1173983000.0 0.0718994140625 -1.8154296875
1178978500.0 -0.12890625 -1.81829833984375
1183974000.0 -0.33074951171875 -1.7984619140625
1188969500.0 -0.5303955078125 -1.75421142578125
1193965000.0 -0.7237548828125 -1.68597412109375
1198960500.0 -0.90777587890625 -1.59478759765625
1203956000.0 -1.07958984375 -1.4822998046875
1208951500.0 -1.23614501953125 -1.3499755859375
1213947000.0 -1.37506103515625 -1.2008056640625
1218942500.0 -1.493896484375 -1.0380859375
1223938000.0 -1.592529296875 -0.86370849609375
1228933500.0 -1.6707763671875 -0.68096923828125
1233929000.0 -1.72589111328125 -0.49371337890625
1238924500.0 -1.76031494140625 -0.30401611328125
1243920000.0 -1.77374267578125 -0.11358642578125
1248915500.0 -1.767333984375 0.0743408203125
1253911000.0 -1.74151611328125 0.25811767578125
1258906500.0 -1.69769287109375 0.43682861328125
1263902000.0 -1.63775634765625 0.6077880859375
1268897500.0 -1.56097412109375 0.771240234375
1273893000.0 -1.469482421875 0.92578125
1278888500.0 -1.3636474609375 1.0694580078125
1283884000.0 -1.24505615234375 1.20245361328125
1288879500.0 -1.1134033203125 1.32281494140625
1293875000.0 -0.97076416015625 1.4300537109375
1298870500.0 -0.81787109375 1.52557373046875
1303866000.0 -0.65570068359375 1.5989990234375
1308861500.0 -0.48687744140625 1.65826416015625
1313857000.0 -0.3123779296875 1.7005615234375
1318852500.0 -0.13385009765625 1.7247314453125
1323848000.0 0.0469970703125 1.7303466796875
1328843500.0 0.22796630859375 1.71734619140625
1333839000.0 0.40667724609375 1.68560791015625
1338834500.0 0.58209228515625 1.6351318359375
1343830000.0 0.7506103515625 1.56646728515625
1348825500.0 0.91259765625 1.48095703125
1353821000.0 1.064697265625 1.37799072265625
1358816500.0 1.20648193359375 1.25958251953125
1363812000.0 1.33441162109375 1.12615966796875
1368807500.0 1.44915771484375 0.97979736328125
1373803000.0 1.54766845703125 0.8211669921875
1378798500.0 1.62933349609375 0.65228271484375
1383794000.0 1.69268798828125 0.47467041015625
1388789500.0 1.73590087890625 0.29071044921875
1393785000.0 1.759521484375 0.10186767578125
1398780500.0 1.761474609375 -0.0894775390625
1403776000.0 1.742431640625 -0.28070068359375
1408771500.0 1.70172119140625 -0.468994140625
1413767000.0 1.63934326171875 -0.65185546875
1418762500.0 1.556884765625 -0.825927734375
1423758000.0 1.45416259765625 -0.98956298828125
1428753500.0 1.33392333984375 -1.13970947265625
1433749000.0 1.19781494140625 -1.27490234375
1438744500.0 1.04803466796875 -1.3927001953125
1443740000.0 0.88726806640625 -1.49072265625
1448735500.0 0.7176513671875 -1.569580078125
1453731000.0 0.54241943359375 -1.62841796875
1458726500.0 0.364501953125 -1.66705322265625
1463722000.0 0.185791015625 -1.68585205078125
1468717500.0 0.0086669921875 -1.6859130859375
1473713000.0 -0.164794921875 -1.66754150390625
1478708500.0 -0.3338623046875 -1.63275146484375
1483704000.0 -0.49615478515625 -1.58233642578125
1488699500.0 -0.651123046875 -1.5169677734375
1493695000.0 -0.7974853515625 -1.4381103515625
1498690500.0 -0.93487548828125 -1.34686279296875
1503686000.0 -1.0623779296875 -1.2440185546875
1508681500.0 -1.18023681640625 -1.13055419921875
1513677000.0 -1.287353515625 -1.006591796875
1518672500.0 -1.3828125 -0.8736572265625
1523668000.0 -1.4659423828125 -0.731689453125
1528663500.0 -1.5362548828125 -0.5810546875
1533659000.0 -1.5926513671875 -0.4228515625
1538654500.0 -1.63397216796875 -0.258056640625
1543650000.0 -1.65875244140625 -0.08758544921875
1548645500.0 -1.6661376953125 0.08660888671875
1553641000.0 -1.654541015625 0.26348876953125
1558636500.0 -1.6229248046875 0.43994140625
1563632000.0 -1.57110595703125 0.61474609375
1568627500.0 -1.49908447265625 0.7835693359375
1573623000.0 -1.4068603515625 0.9447021484375
1578618500.0 -1.294921875 1.09368896484375
1583614000.0 -1.16571044921875 1.23004150390625
1588609500.0 -1.0211181640625 1.34814453125
1593605000.0 -0.864013671875 1.44873046875
1598600500.0 -0.697265625 1.5277099609375
1603596000.0 -0.52435302734375 1.58642578125
1608591500.0 -0.34796142578125 1.624267578125
1613587000.0 -0.17108154296875 1.64141845703125
1618582500.0 0.00323486328125 1.638916015625
1623578000.0 0.17303466796875 1.61773681640625
1628573500.0 0.33697509765625 1.580078125
1633569000.0 0.49383544921875 1.5272216796875
1638564500.0 0.64154052734375 1.4603271484375
1643560000.0 0.78057861328125 1.38092041015625
1648555500.0 0.91009521484375 1.29083251953125
1653551000.0 1.02947998046875 1.19024658203125
1658546500.0 1.13909912109375 1.08050537109375
1663542000.0 1.23822021484375 0.962158203125
1668537500.0 1.32763671875 0.83563232421875
1673533000.0 1.4052734375 0.70147705078125
1678528500.0 1.47125244140625 0.55963134765625
1683524000.0 1.52496337890625 0.4110107421875
1688519500.0 1.56585693359375 0.25592041015625
1693515000.0 1.5909423828125 0.0946044921875
1698510500.0 1.6004638671875 -0.0709228515625
1703506000.0 1.592529296875 -0.23980712890625
1708501500.0 1.5657958984375 -0.40948486328125
1713497000.0 1.51971435546875 -0.5787353515625
1718492500.0 1.45318603515625 -0.74383544921875
1723488000.0 1.36578369140625 -0.90032958984375
1728483500.0 1.25933837890625 -1.0474853515625
1733479000.0 1.135009765625 -1.180419921875
1738474500.0 0.9947509765625 -1.296875
1743470000.0 0.84173583984375 -1.39404296875
1748465500.0 0.67950439453125 -1.47161865234375
1753461000.0 0.51031494140625 -1.5277099609375
1758456500.0 0.33819580078125 -1.56231689453125
1763452000.0 0.1690673828125 -1.5762939453125
1768447500.0 0.00213623046875 -1.5721435546875
1773443000.0 -0.15972900390625 -1.54937744140625
1778438500.0 -0.3153076171875 -1.51202392578125
1783434000.0 -0.46240234375 -1.460205078125
1788429500.0 -0.6009521484375 -1.396240234375
1793425000.0 -0.730712890625 -1.32177734375
1798420500.0 -0.85125732421875 -1.23712158203125
1803416000.0 -0.96331787109375 -1.1444091796875
1808411500.0 -1.0665283203125 -1.04302978515625
1813407000.0 -1.16082763671875 -0.9345703125
1818402500.0 -1.24493408203125 -0.81854248046875
1823398000.0 -1.32098388671875 -0.6947021484375
1828393500.0 -1.3870849609375 -0.56439208984375
1833389000.0 -1.44140625 -0.4263916015625
1838384500.0 -1.48443603515625 -0.2821044921875
1843380000.0 -1.51385498046875 -0.131103515625
1848375500.0 -1.52813720703125 0.0250244140625
1853371000.0 -1.52655029296875 0.18499755859375
1858366500.0 -1.50750732421875 0.347412109375
1863362000.0 -1.46917724609375 0.50958251953125
1868357500.0 -1.411376953125 0.6683349609375
1873353000.0 -1.333740234375 0.82135009765625
1878348500.0 -1.2371826171875 0.96539306640625
1883344000.0 -1.122802734375 1.09710693359375
1888339500.0 -0.99267578125 1.21295166015625
1893335000.0 -0.8497314453125 1.310546875
1898330500.0 -0.697265625 1.38958740234375
1903326000.0 -0.538330078125 1.448486328125
1908321500.0 -0.37591552734375 1.4874267578125
1913317000.0 -0.2137451171875 1.5067138671875
1918312500.0 -0.053466796875 1.50811767578125
1923308000.0 0.1021728515625 1.4920654296875
1928303500.0 0.25140380859375 1.46099853515625
1933299000.0 0.39404296875 1.4166259765625
1938294500.0 0.52862548828125 1.359619140625
1943290000.0 0.655029296875 1.292724609375
1948285500.0 0.77313232421875 1.2159423828125
1953281000.0 0.883056640625 1.1304931640625
1958276500.0 0.98486328125 1.0369873046875
1963272000.0 1.077392578125 0.935302734375
1968267500.0 1.161376953125 0.827392578125
1973263000.0 1.23626708984375 0.71173095703125
1978258500.0 1.30157470703125 0.589599609375
1983254000.0 1.35589599609375 0.4608154296875
1988249500.0 1.3992919921875 0.32611083984375
1993245000.0 1.43017578125 0.18609619140625
1998240500.0 1.44757080078125 0.04119873046875
2003236000.0 1.4503173828125 -0.10601806640625
2008231500.0 1.43731689453125 -0.25543212890625
2013227000.0 1.40826416015625 -0.404541015625
2018222500.0 1.3626708984375 -0.55059814453125
2023218000.0 1.30059814453125 -0.6925048828125
2028213500.0 1.222412109375 -0.8267822265625
2033209000.0 1.12884521484375 -0.9517822265625
2038204500.0 1.021728515625 -1.06591796875
2043200000.0 0.90289306640625 -1.166259765625
2048195500.0 0.774169921875 -1.2523193359375
2053191000.0 0.63787841796875 -1.3228759765625
2058186500.0 0.49591064453125 -1.37799072265625
2063182000.0 0.3507080078125 -1.41729736328125
2068177500.0 0.2039794921875 -1.4407958984375
2073173000.0 0.0567626953125 -1.45001220703125
2078168500.0 -0.08935546875 -1.4444580078125
2083164000.0 -0.232177734375 -1.42535400390625
2088159500.0 -0.37176513671875 -1.393310546875
2093155000.0 -0.50726318359375 -1.3492431640625
2098150500.0 -0.6376953125 -1.29339599609375
2103146000.0 -0.76312255859375 -1.225341796875
2108141500.0 -0.88201904296875 -1.146240234375
2113137000.0 -0.99359130859375 -1.0567626953125
2118132500.0 -1.0977783203125 -0.9559326171875
2123128000.0 -1.193115234375 -0.84521484375
2128123500.0 -1.27862548828125 -0.72412109375
2133119000.0 -1.35247802734375 -0.593505859375
2138114500.0 -1.4139404296875 -0.45355224609375
2143110000.0 -1.46124267578125 -0.30584716796875
2148105500.0 -1.49298095703125 -0.152099609375
2153101000.0 -1.5074462890625 0.007080078125
2158096500.0 -1.50408935546875 0.1680908203125
2163092000.0 -1.48223876953125 0.32928466796875
2168087500.0 -1.44146728515625 0.4871826171875
2173083000.0 -1.38165283203125 0.64117431640625
2178078500.0 -1.30474853515625 0.7860107421875
2183074000.0 -1.21112060546875 0.92120361328125
2188069500.0 -1.1033935546875 1.0435791015625
