!Created with skrf (http://scikit-rf.org).
# Hz S RI R 50.0 
!freq ReS11 ImS11
300000.0 1.00257364 0.0028646953
5299970.0 1.005338275 -0.0029157523
10299940.0 1.005002963 -0.0043192696
15299910.0 1.00519459 -0.0059263901
20299880.0 1.005356217 -0.0070974332
25299850.0 1.004789685 -0.009034483
30299820.0 1.004482012 -0.010326429
35299790.0 1.005031197 -0.0114609062
40299760.0 1.005112714 -0.0131548918
45299730.0 1.005162618 -0.014711433
50299700.0 1.005224547 -0.0163273253
55299670.0 1.005306269 -0.0178412398
60299640.0 1.00532437 -0.0190443298
65299610.0 1.00529638 -0.0201027798
70299580.0 1.004982002 -0.0213725724
75299550.0 1.004723288 -0.0234970359
80299520.0 1.005051095 -0.0250595272
85299490.0 1.004722446 -0.0268862441
90299460.0 1.004818726 -0.0279429621
95299430.0 1.004878855 -0.0288936686
100299400.0 1.00445161 -0.0303581631
105299370.0 1.004525841 -0.0317515912
110299340.0 1.004753797 -0.0338097475
115299310.0 1.00426592 -0.0351096821
120299280.0 1.004530407 -0.0365710851
125299250.0 1.004264166 -0.0376051382
130299220.0 1.004585508 -0.0393287361
135299190.0 1.004614152 -0.0403827998
140299160.0 1.004316224 -0.0419095766
145299130.0 1.003491251 -0.043637154
150299100.0 1.004166175 -0.0445506291
155299070.0 1.004045367 -0.045869871
160299040.0 1.004166165 -0.047362328
165299010.0 1.003186309 -0.0493189844
170298980.0 1.003102811 -0.0506121576
175298950.0 1.002449025 -0.0518940111
180298920.0 1.001905977 -0.0533560782
185298890.0 1.00238917 -0.0551682317
190298860.0 1.002960341 -0.0563266096
195298830.0 1.002974259 -0.0575096991
200298800.0 1.003323078 -0.0590127264
205298770.0 1.002901453 -0.0604891643
210298740.0 1.002546152 -0.0619160788
215298710.0 1.002609455 -0.0634969595
220298680.0 1.002528881 -0.0651453386
225298650.0 1.002936517 -0.0663486486
230298620.0 1.002075635 -0.067737693
235298590.0 1.001968948 -0.0689168645
240298560.0 1.00206342 -0.0703250429
245298530.0 1.001877791 -0.071967723
250298500.0 1.001688314 -0.0731363036
255298470.0 1.001581336 -0.0748350351
260298440.0 1.001268471 -0.076172342
265298410.0 1.001389957 -0.0771639653
270298380.0 1.001597223 -0.0791123678
275298350.0 1.001113604 -0.0806186538
280298320.0 1.001448263 -0.0817277417
285298290.0 1.000637336 -0.0827800812
290298260.0 1.000724571 -0.0844867637
295298230.0 1.000399029 -0.0858852328
300298200.0 1.000679988 -0.0872456177
305298170.0 1.000417092 -0.0887163819
310298140.0 1.000138304 -0.0902130519
315298110.0 0.9993418868 -0.0920192595
320298080.0 0.9996533777 -0.0934911969
325298050.0 0.9994833995 -0.0942968228
330298020.0 1.00000035 -0.0960360295
335297990.0 0.9996350659 -0.0976336551
340297960.0 0.9990487974 -0.0990027441
345297930.0 0.9991907862 -0.0999229037
350297900.0 0.9992418011 -0.1017243745
355297870.0 0.9999105063 -0.1034849831
360297840.0 0.9996789779 -0.1047667256
365297810.0 0.9994507654 -0.1061784175
370297780.0 0.9989316809 -0.1076184434
375297750.0 0.9976634749 -0.1089704671
380297720.0 0.9975407488 -0.1099245442
385297690.0 0.9973936207 -0.1117797034
390297660.0 0.9972900526 -0.1127568462
395297630.0 0.9974730698 -0.1139158626
400297600.0 0.9966223355 -0.1156278831
405297570.0 0.9963019828 -0.1171386962
410297540.0 0.996656264 -0.1183437781
415297510.0 0.9962190219 -0.1199999092
420297480.0 0.9960891724 -0.1214611475
425297450.0 0.9959641494 -0.1231777775
430297420.0 0.9956499204 -0.1242265868
435297390.0 0.9959716832 -0.1254044189
440297360.0 0.9954443739 -0.1268798565
445297330.0 0.9959622993 -0.1283175202
450297300.0 0.9945751205 -0.129393982
455297270.0 0.9949163612 -0.1309277248
460297240.0 0.9946552971 -0.1327179261
465297210.0 0.9945226171 -0.1337462884
470297180.0 0.9950122078 -0.1350727431
475297150.0 0.9937035931 -0.1372310443
480297120.0 0.9935376902 -0.1378992596
485297090.0 0.9940611913 -0.139651413
490297060.0 0.9936573936 -0.1408452002
495297030.0 0.9935623266 -0.1420648413
500297000.0 0.9932295482 -0.1436188821
505296970.0 0.9931419865 -0.145205751
510296940.0 0.9932182227 -0.1467220132
515296910.0 0.9921905445 -0.1479848047
520296880.0 0.9920912811 -0.1496815488
525296850.0 0.9915827282 -0.1505739332
530296820.0 0.9911650964 -0.1522807654
535296790.0 0.9913943562 -0.154297205
540296760.0 0.9904461221 -0.1557224981
545296730.0 0.9908347565 -0.1564463105
550296700.0 0.9906065194 -0.1580268416
555296670.0 0.9901873681 -0.1595863734
560296640.0 0.990183273 -0.1606462171
565296610.0 0.9898319632 -0.1620432223
570296580.0 0.9894666279 -0.1635791803
575296550.0 0.9890243525 -0.1650144183
580296520.0 0.9891424848 -0.1665684523
585296490.0 0.9885825857 -0.1674735846
590296460.0 0.9885600052 -0.16922132
595296430.0 0.9886626592 -0.1703641527
600296400.0 0.9879104462 -0.1719884178
605296370.0 0.9878293455 -0.1732834361
610296340.0 0.9877606967 -0.1741415749
615296310.0 0.9871887427 -0.175369313
620296280.0 0.9871056794 -0.1767716556
625296250.0 0.9870663226 -0.1783344752
630296220.0 0.9863412161 -0.1803527408
635296190.0 0.986671285 -0.1817352093
640296160.0 0.9857883516 -0.1826664335
645296130.0 0.9859357312 -0.183930553
650296100.0 0.9853360453 -0.1854622695
655296070.0 0.9849736914 -0.1869101529
660296040.0 0.9845483718 -0.1882500884
665296010.0 0.9849552908 -0.1894018573
670295980.0 0.984753788 -0.1909387017
675295950.0 0.9836644899 -0.1928570516
680295920.0 0.9839981162 -0.1944199821
685295890.0 0.983277977 -0.1956933149
690295860.0 0.9833764991 -0.1966972085
695295830.0 0.9829118574 -0.1980653367
700295800.0 0.9830398337 -0.1997774393
705295770.0 0.982277654 -0.201127011
710295740.0 0.9821708106 -0.202508162
715295710.0 0.9819075636 -0.2039830407
720295680.0 0.9815216203 -0.2051317761
725295650.0 0.9812221982 -0.2070497374
730295620.0 0.9811161172 -0.2080052182
735295590.0 0.9811444738 -0.2089894379
740295560.0 0.9802938805 -0.2106276486
745295530.0 0.9802473926 -0.2122493998
750295500.0 0.9796630422 -0.2136305857
755295470.0 0.9793515237 -0.2149230744
760295440.0 0.9795888858 -0.2167003902
765295410.0 0.9784977551 -0.2179489577
770295380.0 0.9783860024 -0.2193844776
775295350.0 0.9780748946 -0.2208051598
780295320.0 0.9779619695 -0.2222430934
785295290.0 0.9774880229 -0.2227706057
790295260.0 0.9771056115 -0.2253404222
795295230.0 0.9769097673 -0.2260491112
800295200.0 0.9762553409 -0.2275254831
805295170.0 0.9761321475 -0.2289854782
810295140.0 0.9757009063 -0.2303447068
815295110.0 0.9754254788 -0.2314922493
820295080.0 0.9757699774 -0.2329888335
825295050.0 0.9754932647 -0.2344703679
830295020.0 0.9743182605 -0.2362435936
835294990.0 0.9738886591 -0.2371224245
840294960.0 0.9741118923 -0.2389172982
845294930.0 0.9736143839 -0.2403439643
850294900.0 0.9736951894 -0.2410388243
855294870.0 0.9726324684 -0.2427696775
860294840.0 0.9724689884 -0.2443432231
865294810.0 0.9718545825 -0.2457871453
870294780.0 0.9713161236 -0.2472131864
875294750.0 0.9719072256 -0.2484654462
880294720.0 0.9710167243 -0.2495722408
885294690.0 0.9708045292 -0.2515931696
890294660.0 0.970111463 -0.2523361793
895294630.0 0.9700535594 -0.2536059421
900294600.0 0.9696000921 -0.2550111826
905294570.0 0.9694948648 -0.2565771583
910294540.0 0.9694680571 -0.2576645697
915294510.0 0.9684306877 -0.2591269057
920294480.0 0.9680103787 -0.2608922542
925294450.0 0.9677419466 -0.2623971928
930294420.0 0.9676714683 -0.2631031463
935294390.0 0.9670257293 -0.2646212599
940294360.0 0.9668211853 -0.2661388713
945294330.0 0.9667271325 -0.2673255859
950294300.0 0.9660174975 -0.2689296651
955294270.0 0.9656332004 -0.270564499
960294240.0 0.9656308176 -0.272252595
965294210.0 0.9644321722 -0.2739432589
970294180.0 0.9644353888 -0.2748724945
975294150.0 0.964367756 -0.2764060926
980294120.0 0.9638362586 -0.2775179059
985294090.0 0.9632924424 -0.2780274484
990294060.0 0.9627217434 -0.280646382
995294030.0 0.9623357361 -0.2814551739
1000294000.0 0.9618956641 -0.2828772116
1005293970.0 0.9611180733 -0.2846427524
1010293940.0 0.960934253 -0.2858007737
1015293910.0 0.9608127251 -0.2870973396
1020293880.0 0.9605610919 -0.2880945641
1025293850.0 0.960259391 -0.2894310724
1030293820.0 0.959401869 -0.2911722699
1035293790.0 0.9592924006 -0.292179716
1040293760.0 0.959058457 -0.2936513861
1045293730.0 0.9580668254 -0.2955263303
1050293700.0 0.9583813058 -0.2967867343
1055293670.0 0.9577763328 -0.2983737434
1060293640.0 0.9575263332 -0.2995316437
1065293610.0 0.956747404 -0.3007233535
1070293580.0 0.9568775584 -0.3024792034
1075293550.0 0.9558075836 -0.3029003734
1080293520.0 0.9557269405 -0.305004876
1085293490.0 0.9555459794 -0.3065453039
1090293460.0 0.9543968129 -0.3080945961
1095293430.0 0.95405405 -0.3093294621
1100293400.0 0.9536464599 -0.3115204077
1105293370.0 0.952919211 -0.3125483916
1110293340.0 0.9526227303 -0.3134965455
1115293310.0 0.9518233849 -0.3148888979
1120293280.0 0.9515411309 -0.3158508574
1125293250.0 0.9515933917 -0.3171485236
1130293220.0 0.950986571 -0.3175344596
1135293190.0 0.9510297274 -0.3199292673
1140293160.0 0.9503166084 -0.3211309629
1145293130.0 0.9499252815 -0.3227412903
1150293100.0 0.9489731536 -0.3238190918
1155293070.0 0.9482495303 -0.3259467251
1160293040.0 0.9482269574 -0.3269618639
1165293010.0 0.9476294435 -0.3282397866
1170292980.0 0.9470291444 -0.3293942692
1175292950.0 0.9466865201 -0.3312631673
1180292920.0 0.9459829403 -0.3328082578
1185292890.0 0.9459949488 -0.3334386814
1190292860.0 0.9447905916 -0.3348046055
1195292830.0 0.9445730381 -0.3358727906
1200292800.0 0.9444820781 -0.3374159664
1205292770.0 0.944248252 -0.3382272347
1210292740.0 0.943482206 -0.3402615855
1215292710.0 0.9430235396 -0.3415030946
1220292680.0 0.9427652243 -0.3425879354
1225292650.0 0.9421453492 -0.3444091155
1230292620.0 0.9419245389 -0.3457175717
1235292590.0 0.9410211419 -0.3473184148
1240292560.0 0.9408905044 -0.3483763335
1245292530.0 0.9397587004 -0.3500464979
1250292500.0 0.9401954627 -0.350730431
1255292470.0 0.9386090409 -0.3527610844
1260292440.0 0.9389310087 -0.3541721309
1265292410.0 0.9381058305 -0.3551424981
1270292380.0 0.9378966963 -0.3565568835
1275292350.0 0.9369398774 -0.3578498214
1280292320.0 0.9365758674 -0.3596060629
1285292290.0 0.9358045554 -0.3609356389
1290292260.0 0.935413056 -0.3627813657
1295292230.0 0.9353408961 -0.3636775771
1300292200.0 0.9341760317 -0.3647449241
1305292170.0 0.9341414491 -0.365530497
1310292140.0 0.9330918891 -0.3678015976
1315292110.0 0.9334774879 -0.3688672957
1320292080.0 0.9330318923 -0.3700741397
1325292050.0 0.9318762796 -0.3716694351
1330292020.0 0.9313631404 -0.373487399
1335291990.0 0.9308768534 -0.3753153689
1340291960.0 0.9303951897 -0.3756878194
1345291930.0 0.929671241 -0.3771321607
1350291900.0 0.9291797202 -0.3786077603
1355291870.0 0.9283096987 -0.3797131696
1360291840.0 0.9280118486 -0.3809994296
1365291810.0 0.927879082 -0.3824145743
1370291780.0 0.9266618959 -0.3831447543
1375291750.0 0.9268573087 -0.3847681299
1380291720.0 0.9256678744 -0.3861181749
1385291690.0 0.9260813818 -0.3881319535
1390291660.0 0.9245124585 -0.3889585819
1395291630.0 0.9242074972 -0.390534556
1400291600.0 0.9236428216 -0.3917149232
1405291570.0 0.9235018113 -0.3930310281
1410291540.0 0.922271732 -0.3946420721
1415291510.0 0.9223994178 -0.3961574599
1420291480.0 0.9216116226 -0.3975316391
1425291450.0 0.9218565169 -0.3984273843
1430291420.0 0.9210449164 -0.3998271692
1435291390.0 0.920255464 -0.4006072776
1440291360.0 0.9194580996 -0.401807464
1445291330.0 0.9189346055 -0.403127236
1450291300.0 0.9188330385 -0.4046136322
1455291270.0 0.9175268564 -0.4056536971
1460291240.0 0.9172567037 -0.4072930049
1465291210.0 0.9169695883 -0.4082083681
1470291180.0 0.9158933818 -0.410162236
1475291150.0 0.9155343909 -0.4112964039
1480291120.0 0.9146676947 -0.4124938492
1485291090.0 0.913853079 -0.4142196119
1490291060.0 0.9136079249 -0.4153637526
1495291030.0 0.91293147 -0.4166361344
1500291000.0 0.9128823662 -0.4179907548
1505290970.0 0.9116891762 -0.4189730213
1510290940.0 0.911579257 -0.4200302796
1515290910.0 0.9111134098 -0.4218361222
1520290880.0 0.9104103555 -0.4229966029
1525290850.0 0.909553092 -0.4246766155
1530290820.0 0.9091454928 -0.4249401418
1535290790.0 0.9088974758 -0.427452966
1540290760.0 0.9072132543 -0.4282695602
1545290730.0 0.9070524508 -0.4297273516
1550290700.0 0.906290479 -0.4309831591
1555290670.0 0.9058023061 -0.432586831
1560290640.0 0.9054305688 -0.4336971611
1565290610.0 0.9050159874 -0.435024319
1570290580.0 0.9040379039 -0.4357882185
1575290550.0 0.9040353277 -0.4372394892
1580290520.0 0.9026456109 -0.439215278
1585290490.0 0.9020703571 -0.4404224705
1590290460.0 0.9019679985 -0.4415474192
1595290430.0 0.9013842153 -0.4432037411
1600290400.0 0.9007915564 -0.4435999671
1605290370.0 0.9000895995 -0.445362486
1610290340.0 0.8990794081 -0.4468083613
1615290310.0 0.8986312751 -0.4478928688
1620290280.0 0.8976693902 -0.4496947967
1625290250.0 0.8975219009 -0.4501144375
1630290220.0 0.8967709904 -0.4514039459
1635290190.0 0.896268807 -0.4527065644
1640290160.0 0.8954396673 -0.4533789266
1645290130.0 0.8948695282 -0.4550473339
1650290100.0 0.8941794139 -0.456661848
1655290070.0 0.8935476475 -0.4576560594
1660290040.0 0.8929020327 -0.4590214407
1665290010.0 0.892109074 -0.4599047772
1670289980.0 0.8916595093 -0.4611883347
1675289950.0 0.8906188503 -0.462519729
1680289920.0 0.8905654916 -0.4636522296
1685289890.0 0.889391015 -0.4655402022
1690289860.0 0.8883968248 -0.4673920189
1695289830.0 0.8882354441 -0.4679901872
1700289800.0 0.8873338267 -0.4694460081
1705289770.0 0.8867387126 -0.4708585177
1710289740.0 0.8857980924 -0.4724510227
1715289710.0 0.8854377192 -0.4735176969
1720289680.0 0.884814065 -0.474872579
1725289650.0 0.8840864117 -0.4762232471
1730289620.0 0.8835840068 -0.4771674332
1735289590.0 0.8829684396 -0.4785703877
1740289560.0 0.882186645 -0.4794131186
1745289530.0 0.8813962882 -0.4809338384
1750289500.0 0.8802735823 -0.4823907079
1755289470.0 0.8800316401 -0.4833451618
1760289440.0 0.8794019154 -0.4842142023
1765289410.0 0.8790442403 -0.4858490105
1770289380.0 0.8782791729 -0.4865179654
1775289350.0 0.8781160172 -0.4876412811
1780289320.0 0.8771701162 -0.4895336887
1785289290.0 0.8763289104 -0.4907861825
1790289260.0 0.8756732481 -0.4920618801
1795289230.0 0.8741458281 -0.4933851846
1800289200.0 0.8738838548 -0.4946657008
1805289170.0 0.8733117024 -0.4956466551
1810289140.0 0.8724273598 -0.4970897449
1815289110.0 0.8718836398 -0.4981102389
1820289080.0 0.871605492 -0.499028475
1825289050.0 0.870883683 -0.4999610829
1830289020.0 0.8701807834 -0.5010038546
1835288990.0 0.8702238273 -0.5022932946
1840288960.0 0.8686574555 -0.503730501
1845288930.0 0.8683866249 -0.5049394036
1850288900.0 0.8672389994 -0.5059664533
1855288870.0 0.8666954383 -0.5072444066
1860288840.0 0.8662838801 -0.5086221351
1865288810.0 0.8646436536 -0.5104089124
1870288780.0 0.864154223 -0.5114465718
1875288750.0 0.8637510737 -0.5127974548
1880288720.0 0.8625481605 -0.514197225
1885288690.0 0.8615582852 -0.5154307991
1890288660.0 0.8606147719 -0.5169461462
1895288630.0 0.8599400132 -0.5178780599
1900288600.0 0.8596206261 -0.5190809883
1905288570.0 0.8592006214 -0.5206917956
1910288540.0 0.8579680246 -0.5216568448
1915288510.0 0.8566472571 -0.5226400386
1920288480.0 0.8566823327 -0.5238700285
1925288450.0 0.8556337258 -0.5253360588
1930288420.0 0.854887423 -0.5265108871
1935288390.0 0.8539906368 -0.527145369
1940288360.0 0.8535435812 -0.5291601113
1945288330.0 0.8525294531 -0.5300688556
1950288300.0 0.851321055 -0.5317387874
1955288270.0 0.8504518053 -0.5330872815
1960288240.0 0.8496222738 -0.5351293927
1965288210.0 0.8487214493 -0.5364711338
1970288180.0 0.847574698 -0.5373377084
1975288150.0 0.8466836076 -0.5383148266
1980288120.0 0.8472213567 -0.538950592
1985288090.0 0.8462531584 -0.5396820384
1990288060.0 0.8451572165 -0.5409399274
1995288030.0 0.8451970032 -0.5416958461
2000288000.0 0.8450238106 -0.5430205168
2005287970.0 0.8436544709 -0.5443097549
2010287940.0 0.8427820262 -0.5454356865
2015287910.0 0.8422367547 -0.5467078005
2020287880.0 0.841023303 -0.5482738154
2025287850.0 0.8399091672 -0.5493069951
2030287820.0 0.8394957109 -0.550408163
2035287790.0 0.8384240372 -0.5517879447
2040287760.0 0.838330758 -0.5528373653
2045287730.0 0.8372157531 -0.5538355613
2050287700.0 0.8367233077 -0.5556098215
2055287670.0 0.8353782532 -0.5562996451
2060287640.0 0.8351280267 -0.5575897369
2065287610.0 0.834019083 -0.5585982686
2070287580.0 0.8332676232 -0.5598319367
2075287550.0 0.8324857806 -0.5609793792
2080287520.0 0.832050977 -0.5624452126
2085287490.0 0.8312692008 -0.5635603084
2090287460.0 0.8299254344 -0.564762208
2095287430.0 0.8291317305 -0.5659808202
2100287400.0 0.8282270169 -0.5671751038
2105287370.0 0.8273307953 -0.5686800214
2110287340.0 0.8269762838 -0.5689314819
2115287310.0 0.8256195535 -0.5703885905
2120287280.0 0.8249479707 -0.5716838543
2125287250.0 0.8240604844 -0.5730482459
2130287220.0 0.8231179623 -0.5746010602
2135287190.0 0.8223699623 -0.5760512004
2140287160.0 0.8215222044 -0.5766753964
2145287130.0 0.8210130428 -0.5779436606
2150287100.0 0.8197844935 -0.5796896963
2155287070.0 0.8188396534 -0.5797208706
2160287040.0 0.8188395284 -0.5809960773
2165287010.0 0.8175311822 -0.5818682259
2170286980.0 0.8166765273 -0.5833557226
2175286950.0 0.8161781658 -0.5844213947
2180286920.0 0.8155103579 -0.585802066
2185286890.0 0.8144569811 -0.5867110724
2190286860.0 0.8141295467 -0.5871047651
2195286830.0 0.8133707628 -0.5882002224
2200286800.0 0.8124459308 -0.5895093907
2205286770.0 0.8114666948 -0.5905971665
2210286740.0 0.8106604012 -0.5917007066
2215286710.0 0.8096918269 -0.5931510128
2220286680.0 0.8090320386 -0.5942062615
2225286650.0 0.8081335189 -0.5953556319
2230286620.0 0.8070033319 -0.5963354128
2235286590.0 0.8063992602 -0.5980217227
2240286560.0 0.8056152763 -0.5986796954
2245286530.0 0.8048192519 -0.5998145523
2250286500.0 0.8040853944 -0.6016611405
2255286470.0 0.802859847 -0.6027704463
2260286440.0 0.8018923929 -0.6036584916
2265286410.0 0.8000419814 -0.6049600225
2270286380.0 0.799831022 -0.6060943123
2275286350.0 0.7996564249 -0.6072776455
2280286320.0 0.7979006209 -0.6086592615
2285286290.0 0.7973514125 -0.6096152545
2290286260.0 0.7965201434 -0.6110158008
2295286230.0 0.7951719217 -0.6120288589
2300286200.0 0.7942452628 -0.6129146322
2305286170.0 0.7933915864 -0.6137650255
2310286140.0 0.7924872748 -0.6158506167
2315286110.0 0.7916119702 -0.6164535199
2320286080.0 0.7907057337 -0.6179843843
2325286050.0 0.7901887687 -0.6184982234
2330286020.0 0.7890718257 -0.6198024407
2335285990.0 0.7881706507 -0.6210727865
2340285960.0 0.7874934649 -0.622530786
2345285930.0 0.7869000615 -0.623373744
2350285900.0 0.7854821312 -0.6242858472
2355285870.0 0.784443574 -0.6257285235
2360285840.0 0.7836459795 -0.6265373445
2365285810.0 0.7824562424 -0.6272952332
2370285780.0 0.7818989519 -0.6284522988
2375285750.0 0.7806882229 -0.6299826958
2380285720.0 0.7800932445 -0.6307958031
2385285690.0 0.7792032851 -0.6317594888
2390285660.0 0.7782905928 -0.6328816333
2395285630.0 0.7774356986 -0.6341571122
2400285600.0 0.7764674018 -0.6346322061
2405285570.0 0.7755742895 -0.635835818
2410285540.0 0.7751690782 -0.6363837762
2415285510.0 0.7738523458 -0.6376630771
2420285480.0 0.7733542613 -0.6386420834
2425285450.0 0.7721293122 -0.6398287163
2430285420.0 0.7713129534 -0.6411447591
2435285390.0 0.7703474493 -0.6418471653
2440285360.0 0.7696498729 -0.6433317702
2445285330.0 0.7686979522 -0.6440844367
2450285300.0 0.7671354455 -0.6456437094
2455285270.0 0.7663519284 -0.6464873652
2460285240.0 0.765400015 -0.6480352
2465285210.0 0.7642124488 -0.6490476641
2470285180.0 0.7633670294 -0.6499470281
2475285150.0 0.7627580006 -0.6508140659
2480285120.0 0.7615403029 -0.6524845758
2485285090.0 0.7601216329 -0.6535211911
2490285060.0 0.759265515 -0.654480775
2495285030.0 0.7587404625 -0.655322864
2500285000.0 0.7574567605 -0.6571314402
2505284970.0 0.7560807531 -0.6580786992
2510284940.0 0.7552698984 -0.659186609
2515284910.0 0.7541592046 -0.6602753178
2520284880.0 0.7534613393 -0.6612122
2525284850.0 0.7525333103 -0.6624078734
2530284820.0 0.7515445196 -0.663316751
2535284790.0 0.7503814378 -0.664646886
