!Created with skrf (http://scikit-rf.org).
# Hz S RI R 50.0 
!freq ReS11 ImS11
45000000.0 -0.07688522338867188 -0.09691619873046875
49995500.0 -0.0971832275390625 -0.09428024291992188
54991000.0 -0.11782455444335938 -0.08784103393554688
59986500.0 -0.1358489990234375 -0.08762359619140625
64982000.0 -0.1546783447265625 -0.08014678955078125
69977500.0 -0.1737213134765625 -0.06781005859375
74973000.0 -0.19207763671875 -0.05237579345703125
79968500.0 -0.208892822265625 -0.03369903564453125
84964000.0 -0.22402191162109375 -0.01198577880859375
89959500.0 -0.2371368408203125 0.01253509521484375
94955000.0 -0.24669647216796875 0.0401763916015625
99950500.0 -0.2532501220703125 0.07049560546875
104946000.0 -0.2557373046875 0.1028289794921875
109941500.0 -0.25384521484375 0.1364288330078125
114937000.0 -0.24739837646484375 0.17121124267578125
119932500.0 -0.23603057861328125 0.206390380859375
124928000.0 -0.2200469970703125 0.24114990234375
129923500.0 -0.1985931396484375 0.2744598388671875
134919000.0 -0.172027587890625 0.3061676025390625
139914500.0 -0.140716552734375 0.335601806640625
144910000.0 -0.10491943359375 0.3613128662109375
149905500.0 -0.064788818359375 0.3831329345703125
154901000.0 -0.0216522216796875 0.399810791015625
159896500.0 0.02447509765625 0.411590576171875
164892000.0 0.0728759765625 0.41766357421875
169887500.0 0.122467041015625 0.4179229736328125
174883000.0 0.17303466796875 0.412261962890625
179878500.0 0.223480224609375 0.4002227783203125
184874000.0 0.2730712890625 0.3817291259765625
189869500.0 0.3215484619140625 0.357635498046875
194865000.0 0.367919921875 0.3277740478515625
199860500.0 0.410980224609375 0.2919769287109375
204856000.0 0.450347900390625 0.2504730224609375
209851500.0 0.4858245849609375 0.204193115234375
214847000.0 0.51666259765625 0.1531982421875
219842500.0 0.542236328125 0.09771728515625
224838000.0 0.561920166015625 0.03851318359375
229833500.0 0.575225830078125 -0.023895263671875
234829000.0 0.581512451171875 -0.088592529296875
239824500.0 0.580352783203125 -0.155364990234375
244820000.0 0.571533203125 -0.2230224609375
249815500.0 0.55438232421875 -0.290679931640625
254811000.0 0.548187255859375 -0.337921142578125
259806500.0 0.518463134765625 -0.40380859375
264802000.0 0.480499267578125 -0.4671630859375
269797500.0 0.434173583984375 -0.52716064453125
274793000.0 0.379913330078125 -0.58197021484375
279788500.0 0.318603515625 -0.630706787109375
284784000.0 0.25079345703125 -0.673004150390625
289779500.0 0.1778564453125 -0.707000732421875
294775000.0 0.100311279296875 -0.732513427734375
299770500.0 0.01934814453125 -0.74951171875
304766000.0 -0.06365966796875 -0.75689697265625
309761500.0 -0.147613525390625 -0.75469970703125
314757000.0 -0.231475830078125 -0.742584228515625
319752500.0 -0.3140869140625 -0.72100830078125
324748000.0 -0.394378662109375 -0.69085693359375
329743500.0 -0.471893310546875 -0.652069091796875
334739000.0 -0.545318603515625 -0.604400634765625
339734500.0 -0.614166259765625 -0.548583984375
344730000.0 -0.677215576171875 -0.4857177734375
349725500.0 -0.7340087890625 -0.415802001953125
354721000.0 -0.78399658203125 -0.339447021484375
359716500.0 -0.8265380859375 -0.257476806640625
364712000.0 -0.86029052734375 -0.169219970703125
369707500.0 -0.88555908203125 -0.0765380859375
374703000.0 -0.9010009765625 0.020294189453125
379698500.0 -0.905731201171875 0.120391845703125
384694000.0 -0.8995361328125 0.22210693359375
389689500.0 -0.881011962890625 0.32440185546875
394685000.0 -0.8507080078125 0.425811767578125
399680500.0 -0.808197021484375 0.525390625
404676000.0 -0.753021240234375 0.620758056640625
409671500.0 -0.68634033203125 0.70977783203125
414667000.0 -0.60809326171875 0.791656494140625
419662500.0 -0.519622802734375 0.86553955078125
424658000.0 -0.42156982421875 0.925506591796875
429653500.0 -0.31500244140625 0.97479248046875
434649000.0 -0.20220947265625 1.00982666015625
439644500.0 -0.0875244140625 1.0303955078125
444640000.0 0.02764892578125 1.037841796875
449635500.0 0.14202880859375 1.03277587890625
454631000.0 0.2557373046875 1.01605224609375
459626500.0 0.367401123046875 0.986053466796875
464622000.0 0.4742431640625 0.943145751953125
469617500.0 0.57525634765625 0.889739990234375
474613000.0 0.66943359375 0.826416015625
479608500.0 0.756256103515625 0.754058837890625
484604000.0 0.835418701171875 0.67388916015625
489599500.0 0.90625 0.58612060546875
494595000.0 0.968841552734375 0.49188232421875
499590500.0 1.0220947265625 0.39166259765625
504586000.0 1.06634521484375 0.2862548828125
509581500.0 1.10040283203125 0.1759033203125
514577000.0 1.12445068359375 0.0609130859375
519572500.0 1.13726806640625 -0.05780029296875
524568000.0 1.138427734375 -0.17999267578125
529563500.0 1.12640380859375 -0.304931640625
534559000.0 1.10113525390625 -0.43035888671875
539554500.0 1.06109619140625 -0.555419921875
544550000.0 1.00537109375 -0.6773681640625
549545500.0 0.934417724609375 -0.79461669921875
554541000.0 0.847930908203125 -0.904815673828125
559536500.0 0.747314453125 -1.004638671875
564532000.0 0.63348388671875 -1.09295654296875
569527500.0 0.50836181640625 -1.1668701171875
574523000.0 0.3743896484375 -1.2254638671875
579518500.0 0.23291015625 -1.2666015625
584514000.0 0.08746337890625 -1.2900390625
589509500.0 -0.059326171875 -1.29571533203125
594505000.0 -0.20562744140625 -1.282958984375
599500500.0 -0.34814453125 -1.25311279296875
604496000.0 -0.485107421875 -1.2071533203125
609491500.0 -0.6143798828125 -1.14715576171875
614487000.0 -0.73504638671875 -1.073486328125
619482500.0 -0.8458251953125 -0.988739013671875
624478000.0 -0.946044921875 -0.89404296875
629473500.0 -1.035400390625 -0.79083251953125
634469000.0 -1.11328125 -0.680419921875
639464500.0 -1.18017578125 -0.563720703125
644460000.0 -1.23590087890625 -0.44146728515625
649455500.0 -1.2802734375 -0.3145751953125
654451000.0 -1.31341552734375 -0.1832275390625
659446500.0 -1.334716796875 -0.04840087890625
664442000.0 -1.34393310546875 0.0897216796875
669437500.0 -1.34051513671875 0.23016357421875
674433000.0 -1.3231201171875 0.37286376953125
679428500.0 -1.29107666015625 0.51593017578125
684424000.0 -1.24407958984375 0.658203125
689419500.0 -1.18017578125 0.79840087890625
694415000.0 -1.09912109375 0.93414306640625
699410500.0 -1.00115966796875 1.063232421875
704406000.0 -0.8857421875 1.182373046875
709401500.0 -0.75421142578125 1.28936767578125
714397000.0 -0.6068115234375 1.38104248046875
719392500.0 -0.44647216796875 1.45452880859375
724388000.0 -0.27642822265625 1.5074462890625
729383500.0 -0.09869384765625 1.5380859375
734379000.0 0.08245849609375 1.5435791015625
739374500.0 0.26263427734375 1.52618408203125
744370000.0 0.43829345703125 1.48583984375
749365500.0 0.60546875 1.42279052734375
754361000.0 0.76190185546875 1.34112548828125
759356500.0 0.9049072265625 1.24224853515625
764352000.0 1.032958984375 1.12908935546875
769347500.0 1.14532470703125 1.00445556640625
774343000.0 1.24139404296875 0.870849609375
779338500.0 1.32080078125 0.72955322265625
784334000.0 1.385009765625 0.58477783203125
789329500.0 1.4337158203125 0.43585205078125
794325000.0 1.4678955078125 0.28558349609375
799320500.0 1.48779296875 0.1341552734375
804316000.0 1.49310302734375 -0.01776123046875
809311500.0 1.4857177734375 -0.16864013671875
814307000.0 1.46490478515625 -0.31854248046875
819302500.0 1.429443359375 -0.46649169921875
824298000.0 1.3822021484375 -0.6121826171875
829293500.0 1.321533203125 -0.75433349609375
834289000.0 1.24505615234375 -0.8924560546875
839284500.0 1.1556396484375 -1.0244140625
844280000.0 1.11383056640625 -1.114501953125
849275500.0 0.99871826171875 -1.2366943359375
854271000.0 0.86871337890625 -1.34765625
859266500.0 0.72418212890625 -1.44580078125
864262000.0 0.56597900390625 -1.52874755859375
869257500.0 0.39605712890625 -1.59228515625
874253000.0 0.22003173828125 -1.63787841796875
879248500.0 0.037109375 -1.6612548828125
884244000.0 -0.14898681640625 -1.66302490234375
889239500.0 -0.3349609375 -1.6419677734375
894235000.0 -0.517333984375 -1.59918212890625
899230500.0 -0.69427490234375 -1.53521728515625
904226000.0 -0.86248779296875 -1.449462890625
909221500.0 -1.01934814453125 -1.34405517578125
914217000.0 -1.161376953125 -1.2205810546875
919212500.0 -1.28594970703125 -1.0821533203125
924208000.0 -1.392333984375 -0.932373046875
929203500.0 -1.47869873046875 -0.77374267578125
934199000.0 -1.54736328125 -0.610107421875
939194500.0 -1.597412109375 -0.44317626953125
944190000.0 -1.63092041015625 -0.27459716796875
949185500.0 -1.6473388671875 -0.1051025390625
954181000.0 -1.64849853515625 0.0634765625
959176500.0 -1.6336669921875 0.23028564453125
964172000.0 -1.6046142578125 0.3953857421875
969167500.0 -1.5604248046875 0.55694580078125
974163000.0 -1.501220703125 0.7147216796875
979158500.0 -1.4281005859375 0.868408203125
984154000.0 -1.33880615234375 1.0164794921875
989149500.0 -1.2344970703125 1.15667724609375
994145000.0 -1.11456298828125 1.28887939453125
999140500.0 -0.97918701171875 1.4102783203125
1004136000.0 -0.829833984375 1.51873779296875
1009131500.0 -0.66558837890625 1.611572265625
1014127000.0 -0.48828125 1.68792724609375
1019122500.0 -0.30059814453125 1.74395751953125
1024118000.0 -0.104736328125 1.77691650390625
1029113500.0 0.095947265625 1.7862548828125
1034109000.0 0.2987060546875 1.7703857421875
1039104500.0 0.4991455078125 1.72930908203125
1044100000.0 0.6925048828125 1.66351318359375
1049095500.0 0.87689208984375 1.57464599609375
1054091000.0 1.0469970703125 1.46307373046875
1059086500.0 1.20220947265625 1.332763671875
1064082000.0 1.33770751953125 1.18621826171875
1069077500.0 1.455078125 1.02764892578125
1074073000.0 1.55181884765625 0.85882568359375
1079068500.0 1.62786865234375 0.68328857421875
1084064000.0 1.6839599609375 0.5032958984375
1089059500.0 1.72027587890625 0.32110595703125
1094055000.0 1.7379150390625 0.13861083984375
1099050500.0 1.737548828125 -0.04254150390625
1104046000.0 1.7203369140625 -0.2213134765625
1109041500.0 1.68597412109375 -0.3961181640625
1114037000.0 1.6357421875 -0.5667724609375
1119032500.0 1.56964111328125 -0.73095703125
1124028000.0 1.4886474609375 -0.88922119140625
1129023500.0 1.39227294921875 -1.039794921875
1134019000.0 1.28192138671875 -1.18121337890625
1139014500.0 1.15606689453125 -1.31280517578125
1144010000.0 1.017333984375 -1.4339599609375
1149005500.0 0.86456298828125 -1.54034423828125
1154001000.0 0.6990966796875 -1.631591796875
1158996500.0 0.5224609375 -1.706298828125
1163992000.0 0.3358154296875 -1.761474609375
1168987500.0 0.14202880859375 -1.79632568359375
1173983000.0 -0.056640625 -1.8082275390625
1178978500.0 -0.2576904296875 -1.797119140625
1183974000.0 -0.4571533203125 -1.76226806640625
1188969500.0 -0.65252685546875 -1.70257568359375
1193965000.0 -0.84039306640625 -1.62017822265625
1198960500.0 -1.01641845703125 -1.51531982421875
1203956000.0 -1.17852783203125 -1.38995361328125
1208951500.0 -1.32366943359375 -1.246826171875
1213947000.0 -1.44989013671875 -1.0885009765625
1218942500.0 -1.5556640625 -0.91790771484375
1223938000.0 -1.63995361328125 -0.7376708984375
1228933500.0 -1.70263671875 -0.55169677734375
1233929000.0 -1.74395751953125 -0.3616943359375
1238924500.0 -1.76348876953125 -0.1717529296875
1243920000.0 -1.76287841796875 0.017578125
1248915500.0 -1.742431640625 0.20245361328125
1253911000.0 -1.70428466796875 0.38330078125
1258906500.0 -1.64801025390625 0.55657958984375
1263902000.0 -1.5758056640625 0.72174072265625
1268897500.0 -1.488525390625 0.87841796875
1273893000.0 -1.38641357421875 1.02447509765625
1278888500.0 -1.27105712890625 1.16009521484375
1283884000.0 -1.1435546875 1.28289794921875
1288879500.0 -1.004638671875 1.393310546875
1293875000.0 -0.85516357421875 1.4892578125
1298870500.0 -0.69580078125 1.572021484375
1303866000.0 -0.529541015625 1.63360595703125
1308861500.0 -0.3577880859375 1.68035888671875
1313857000.0 -0.180419921875 1.70916748046875
1318852500.0 -0.000732421875 1.72003173828125
1323848000.0 0.1790771484375 1.7113037109375
1328843500.0 0.35809326171875 1.684814453125
1333839000.0 0.53326416015625 1.63934326171875
1338834500.0 0.703857421875 1.57550048828125
1343830000.0 0.86663818359375 1.49432373046875
1348825500.0 1.021240234375 1.3961181640625
1353821000.0 1.164794921875 1.28179931640625
1358816500.0 1.2958984375 1.15264892578125
1363812000.0 1.4136962890625 1.009765625
1368807500.0 1.514892578125 0.85504150390625
1373803000.0 1.60040283203125 0.6890869140625
1378798500.0 1.6668701171875 0.51458740234375
1383794000.0 1.7156982421875 0.332275390625
1388789500.0 1.7437744140625 0.14544677734375
1393785000.0 1.75177001953125 -0.04443359375
1398780500.0 1.73724365234375 -0.23486328125
1403776000.0 1.7020263671875 -0.4228515625
1408771500.0 1.64532470703125 -0.6063232421875
1413767000.0 1.5673828125 -0.78173828125
1418762500.0 1.470703125 -0.947998046875
1423758000.0 1.3548583984375 -1.10150146484375
1428753500.0 1.2230224609375 -1.23944091796875
1433749000.0 1.0762939453125 -1.36114501953125
1438744500.0 0.91827392578125 -1.464111328125
1443740000.0 0.7506103515625 -1.548095703125
1448735500.0 0.57647705078125 -1.6112060546875
1453731000.0 0.39910888671875 -1.65423583984375
1458726500.0 0.2197265625 -1.6778564453125
1463722000.0 0.04168701171875 -1.68115234375
1468717500.0 -0.13330078125 -1.666748046875
1473713000.0 -0.30352783203125 -1.63482666015625
1478708500.0 -0.46710205078125 -1.58599853515625
1483704000.0 -0.62371826171875 -1.523193359375
1488699500.0 -0.771240234375 -1.4456787109375
1493695000.0 -0.91021728515625 -1.3560791015625
1498690500.0 -1.03936767578125 -1.25457763671875
1503686000.0 -1.158447265625 -1.14239501953125
1508681500.0 -1.265869140625 -1.0198974609375
1513677000.0 -1.36224365234375 -0.8880615234375
1518672500.0 -1.4468994140625 -0.747314453125
1523668000.0 -1.51837158203125 -0.59832763671875
1528663500.0 -1.5758056640625 -0.442138671875
1533659000.0 -1.61834716796875 -0.27935791015625
1538654500.0 -1.64532470703125 -0.1109619140625
1543650000.0 -1.655029296875 0.061767578125
1548645500.0 -1.6463623046875 0.23724365234375
1553641000.0 -1.61859130859375 0.41302490234375
1558636500.0 -1.5704345703125 0.5875244140625
1563632000.0 -1.5018310546875 0.7567138671875
1568627500.0 -1.41290283203125 0.91845703125
1573623000.0 -1.30523681640625 1.070068359375
1578618500.0 -1.178466796875 1.20697021484375
1583614000.0 -1.03704833984375 1.3294677734375
1588609500.0 -0.88153076171875 1.4322509765625
1593605000.0 -0.71514892578125 1.515625
1598600500.0 -0.54229736328125 1.57745361328125
1603596000.0 -0.3656005859375 1.6175537109375
1608591500.0 -0.1878662109375 1.63714599609375
1613587000.0 -0.0115966796875 1.63641357421875
1618582500.0 0.159912109375 1.616455078125
1623578000.0 0.32562255859375 1.57958984375
1628573500.0 0.48345947265625 1.52679443359375
1633569000.0 0.63311767578125 1.4599609375
1638564500.0 0.772705078125 1.38006591796875
1643560000.0 0.90203857421875 1.2889404296875
1648555500.0 1.02166748046875 1.18804931640625
1653551000.0 1.13055419921875 1.07757568359375
1658546500.0 1.22955322265625 0.95892333984375
1663542000.0 1.3167724609375 0.83233642578125
1668537500.0 1.39337158203125 0.69842529296875
1673533000.0 1.45849609375 0.55804443359375
1678528500.0 1.51080322265625 0.41009521484375
1683524000.0 1.55010986328125 0.2567138671875
1688519500.0 1.5751953125 0.09814453125
1693515000.0 1.58453369140625 -0.0654296875
1698510500.0 1.577392578125 -0.23175048828125
1703506000.0 1.5517578125 -0.39892578125
1708501500.0 1.5072021484375 -0.5657958984375
1713497000.0 1.44256591796875 -0.72900390625
1718492500.0 1.3583984375 -0.88482666015625
1723488000.0 1.25482177734375 -1.03155517578125
1728483500.0 1.13299560546875 -1.16534423828125
1733479000.0 0.9951171875 -1.2825927734375
1738474500.0 0.8438720703125 -1.3817138671875
1743470000.0 0.6824951171875 -1.4605712890625
1748465500.0 0.51422119140625 -1.5184326171875
1753461000.0 0.34228515625 -1.55487060546875
1758456500.0 0.17083740234375 -1.57025146484375
1763452000.0 0.00390625 -1.56634521484375
1768447500.0 -0.1591796875 -1.54437255859375
1773443000.0 -0.3153076171875 -1.50640869140625
1778438500.0 -0.46356201171875 -1.453857421875
1783434000.0 -0.60260009765625 -1.38897705078125
1788429500.0 -0.73211669921875 -1.31298828125
1793425000.0 -0.85296630859375 -1.2274169921875
1798420500.0 -0.9637451171875 -1.13287353515625
1803416000.0 -1.06524658203125 -1.030517578125
1808411500.0 -1.1580810546875 -0.9212646484375
1813407000.0 -1.24041748046875 -0.80419921875
1818402500.0 -1.31353759765625 -0.68115234375
1823398000.0 -1.37744140625 -0.5509033203125
1828393500.0 -1.42938232421875 -0.41436767578125
1833389000.0 -1.47021484375 -0.2713623046875
1838384500.0 -1.49822998046875 -0.1226806640625
1843380000.0 -1.5118408203125 0.03125
1848375500.0 -1.509765625 0.18902587890625
1853371000.0 -1.490234375 0.348876953125
1858366500.0 -1.4525146484375 0.50872802734375
1863362000.0 -1.3961181640625 0.66571044921875
1868357500.0 -1.31951904296875 0.81719970703125
1873353000.0 -1.22454833984375 0.9599609375
1878348500.0 -1.111572265625 1.09088134765625
1883344000.0 -0.982666015625 1.20684814453125
1888339500.0 -0.84027099609375 1.30560302734375
1893335000.0 -0.68829345703125 1.38458251953125
1898330500.0 -0.52947998046875 1.44378662109375
1903326000.0 -0.36669921875 1.4827880859375
1908321500.0 -0.20330810546875 1.50238037109375
1913317000.0 -0.04241943359375 1.5028076171875
1918312500.0 0.1138916015625 1.48553466796875
1923308000.0 0.26397705078125 1.4534912109375
1928303500.0 0.4063720703125 1.406982421875
1933299000.0 0.54119873046875 1.3486328125
1938294500.0 0.66717529296875 1.2791748046875
1943290000.0 0.78387451171875 1.20037841796875
1948285500.0 0.8924560546875 1.1131591796875
1953281000.0 0.9920654296875 1.01788330078125
1958276500.0 1.082763671875 0.915283203125
1963272000.0 1.16400146484375 0.8060302734375
1968267500.0 1.23614501953125 0.68988037109375
1973263000.0 1.29864501953125 0.56732177734375
1978258500.0 1.35089111328125 0.4388427734375
1983254000.0 1.39141845703125 0.30499267578125
1988249500.0 1.4207763671875 0.1658935546875
1993245000.0 1.43548583984375 0.02252197265625
1998240500.0 1.436767578125 -0.12353515625
2003236000.0 1.42291259765625 -0.27099609375
2008231500.0 1.3927001953125 -0.41851806640625
2013227000.0 1.34588623046875 -0.56390380859375
2018222500.0 1.28314208984375 -0.7042236328125
2023218000.0 1.2039794921875 -0.8372802734375
2028213500.0 1.1099853515625 -0.9617919921875
2033209000.0 1.0020751953125 -1.07403564453125
2038204500.0 0.882080078125 -1.17340087890625
2043200000.0 0.75201416015625 -1.25848388671875
2048195500.0 0.61456298828125 -1.32818603515625
2053191000.0 0.47100830078125 -1.38128662109375
2058186500.0 0.32440185546875 -1.4180908203125
2063182000.0 0.17645263671875 -1.43914794921875
2068177500.0 0.0284423828125 -1.4451904296875
2073173000.0 -0.11749267578125 -1.43701171875
2078168500.0 -0.26043701171875 -1.4139404296875
2083164000.0 -0.3995361328125 -1.37835693359375
2088159500.0 -0.5340576171875 -1.3306884765625
2093155000.0 -0.66253662109375 -1.271240234375
2098150500.0 -0.78546142578125 -1.20013427734375
2103146000.0 -0.90203857421875 -1.11834716796875
2108141500.0 -1.0103759765625 -1.02593994140625
2113137000.0 -1.1109619140625 -0.92315673828125
2118132500.0 -1.20263671875 -0.81011962890625
2123128000.0 -1.2841796875 -0.68829345703125
2128123500.0 -1.35369873046875 -0.55706787109375
2133119000.0 -1.41180419921875 -0.4178466796875
2138114500.0 -1.4549560546875 -0.2703857421875
2143110000.0 -1.48291015625 -0.1175537109375
2148105500.0 -1.494384765625 0.03997802734375
2153101000.0 -1.487548828125 0.20001220703125
2158096500.0 -1.4630126953125 0.35931396484375
2163092000.0 -1.41912841796875 0.51568603515625
2168087500.0 -1.35723876953125 0.6671142578125
2173083000.0 -1.27789306640625 0.81036376953125
2178078500.0 -1.18218994140625 0.94317626953125
2183074000.0 -1.07171630859375 1.0631103515625
2188069500.0 -0.94964599609375 1.1690673828125
