!Created with skrf (http://scikit-rf.org).
# Hz S RI R 50.0 
!freq ReS11 ImS11
300000.0 -1.020879992 -0.169058375
5299970.0 -1.0037235 0.001847925
10299940.0 -1.002601167 0.001447731
15299910.0 -1.002210209 0.0077269599
20299880.0 -1.002383734 0.0061343417
25299850.0 -1.00186942 0.0097581203
30299820.0 -1.002220746 0.012395167
35299790.0 -1.001812257 0.0115460589
40299760.0 -1.001673576 0.0134172943
45299730.0 -1.001481312 0.0145076072
50299700.0 -1.001462822 0.0164415515
55299670.0 -1.001407364 0.0185375897
60299640.0 -1.00143052 0.019637805
65299610.0 -1.001240688 0.021269088
70299580.0 -1.000779817 0.0222423876
75299550.0 -1.001186358 0.0242609821
80299520.0 -1.000792476 0.0255338635
85299490.0 -1.00098398 0.0269703792
90299460.0 -1.000862398 0.0286440202
95299430.0 -1.000528748 0.03094797
100299400.0 -1.000476873 0.0318149317
105299370.0 -1.000266315 0.0338419609
110299340.0 -1.000124312 0.0352519585
115299310.0 -1.000123596 0.036479407
120299280.0 -1.000314969 0.0380533731
125299250.0 -1.000396553 0.0393594693
130299220.0 -1.000270168 0.0411243514
135299190.0 -1.000278201 0.0422633068
140299160.0 -1.000296059 0.0440978079
145299130.0 -0.9998745972 0.0455886417
150299100.0 -1.000240664 0.0471741803
155299070.0 -0.9997287854 0.0484602364
160299040.0 -0.9999068823 0.0501778693
165299010.0 -0.999440271 0.0515625226
170298980.0 -0.9997075912 0.0530093545
175298950.0 -0.997525904 0.0540415352
180298920.0 -0.996686211 0.0551639866
185298890.0 -0.9981047456 0.0567692178
190298860.0 -0.9994720863 0.0590249439
195298830.0 -0.9995312111 0.0606842022
200298800.0 -0.9993873296 0.0621697941
205298770.0 -0.9991230795 0.0639972327
210298740.0 -0.9991818695 0.0652680698
215298710.0 -0.9994623819 0.0673236227
220298680.0 -0.9989824521 0.0687925878
225298650.0 -0.9988869528 0.0698547632
230298620.0 -0.9985843821 0.0717306864
235298590.0 -0.9988089445 0.0730030329
240298560.0 -0.999159373 0.0741123512
245298530.0 -0.9985846199 0.0758837667
250298500.0 -0.9984057058 0.0768592105
255298470.0 -0.9982809957 0.0790926645
260298440.0 -0.9985614485 0.0805838611
265298410.0 -0.998258377 0.0819921622
270298380.0 -0.9980094012 0.0832235407
275298350.0 -0.9980656136 0.0848899561
280298320.0 -0.997792963 0.086361088
285298290.0 -0.9977912689 0.0879729721
290298260.0 -0.9974603314 0.0896425551
295298230.0 -0.9979796154 0.0912826404
300298200.0 -0.9975438084 0.0922033416
305298170.0 -0.9969826652 0.0940956027
310298140.0 -0.99732363 0.0953996906
315298110.0 -0.9970572153 0.0967138536
320298080.0 -0.9967316103 0.0986223948
325298050.0 -0.9971883003 0.0997994403
330298020.0 -0.9967414045 0.1017610189
335297990.0 -0.9965016148 0.1029695942
340297960.0 -0.996446598 0.1046562498
345297930.0 -0.9966326565 0.1059650108
350297900.0 -0.9965988745 0.1081998757
355297870.0 -0.9973232745 0.1094244774
360297840.0 -0.9970096882 0.1109784767
365297810.0 -0.9963863646 0.1124350667
370297780.0 -0.9959194675 0.1137690439
375297750.0 -0.9955338788 0.1152661233
380297720.0 -0.9953278935 0.116977325
385297690.0 -0.9946167479 0.1184343227
390297660.0 -0.9944897437 0.1203577806
395297630.0 -0.9941835458 0.121773776
400297600.0 -0.9948493007 0.1233452769
405297570.0 -0.9941374627 0.1245443794
410297540.0 -0.9947419396 0.1259300028
415297510.0 -0.9942186612 0.1279480722
420297480.0 -0.9944052336 0.1298540569
425297450.0 -0.9940061739 0.13076313
430297420.0 -0.9936881676 0.1321426012
435297390.0 -0.9938439991 0.1338767702
440297360.0 -0.9933593367 0.1351944206
445297330.0 -0.9931244426 0.1370781685
450297300.0 -0.9927220844 0.1385270272
455297270.0 -0.9929593557 0.1398098919
460297240.0 -0.9924571757 0.1417971061
465297210.0 -0.9914262531 0.1426419503
470297180.0 -0.9921895051 0.1441057661
475297150.0 -0.9916704409 0.1464741477
480297120.0 -0.9912477851 0.1472310277
485297090.0 -0.9916929539 0.1491029842
490297060.0 -0.9912483945 0.1511416515
495297030.0 -0.9909242436 0.1520481189
500297000.0 -0.9912445137 0.153885055
505296970.0 -0.9910024747 0.1545393916
510296940.0 -0.9914392275 0.1563605813
515296910.0 -0.9912675692 0.1580610556
520296880.0 -0.9904860163 0.1597455179
525296850.0 -0.991001876 0.1606527326
530296820.0 -0.9905822733 0.1616735315
535296790.0 -0.9902939662 0.1639431018
540296760.0 -0.9897711209 0.1654087604
545296730.0 -0.9897558603 0.1671204317
550296700.0 -0.9894598189 0.1686170185
555296670.0 -0.988938529 0.1702515007
560296640.0 -0.9887166699 0.1716436
565296610.0 -0.988321051 0.1732154166
570296580.0 -0.9878672217 0.1744190497
575296550.0 -0.9873076493 0.1764503299
580296520.0 -0.9872764809 0.1787477799
585296490.0 -0.9870956801 0.1800572979
590296460.0 -0.9868759956 0.180874432
595296430.0 -0.9867209274 0.1826778201
600296400.0 -0.985920973 0.1842018502
605296370.0 -0.9857598946 0.1859773264
610296340.0 -0.9853010597 0.1873431759
615296310.0 -0.9855653497 0.1883284438
620296280.0 -0.9847983198 0.1897655156
625296250.0 -0.9845201366 0.1906499091
630296220.0 -0.9844328842 0.1922917827
635296190.0 -0.9838799744 0.1947009286
640296160.0 -0.9838754152 0.1956118513
645296130.0 -0.9834669465 0.1968712823
650296100.0 -0.9833265306 0.1990636392
655296070.0 -0.9825672227 0.2003324874
660296040.0 -0.9826539955 0.2020968777
665296010.0 -0.9820994595 0.2027966527
670295980.0 -0.981704876 0.2049735183
675295950.0 -0.9821037191 0.2062541655
680295920.0 -0.9816967017 0.208191523
685295890.0 -0.9811783022 0.2096771201
690295860.0 -0.9812040387 0.2110137815
695295830.0 -0.9807202051 0.2123615136
700295800.0 -0.9804706593 0.2136300894
705295770.0 -0.9803317894 0.2156602913
710295740.0 -0.9799198883 0.21715907
715295710.0 -0.979812601 0.2179624657
720295680.0 -0.9793588592 0.220558338
725295650.0 -0.9789567826 0.2218423848
730295620.0 -0.9783746174 0.2231411185
735295590.0 -0.9784300648 0.223987808
740295560.0 -0.9782119636 0.2254187155
745295530.0 -0.9773230924 0.2273728884
750295500.0 -0.977292084 0.2288144151
755295470.0 -0.9769049008 0.2302625483
760295440.0 -0.9757130738 0.2320165323
765295410.0 -0.9759268817 0.2333019809
770295380.0 -0.9756547116 0.2348386055
775295350.0 -0.9753426924 0.2366986332
780295320.0 -0.9750302982 0.2380321661
785295290.0 -0.9747101892 0.2396493039
790295260.0 -0.9740890416 0.2408294895
795295230.0 -0.9738701821 0.2432223392
800295200.0 -0.9736274265 0.2443564517
805295170.0 -0.973235447 0.2460518435
810295140.0 -0.9728121081 0.2468837847
815295110.0 -0.9718522042 0.2483494905
820295080.0 -0.9719465162 0.2500466808
825295050.0 -0.9721294992 0.2513610119
830295020.0 -0.9709765705 0.2529387788
835294990.0 -0.9712675407 0.2548668863
840294960.0 -0.9706256174 0.2559767115
845294930.0 -0.9705435181 0.257409205
850294900.0 -0.9696368147 0.2589695414
855294870.0 -0.9695444397 0.2605334222
860294840.0 -0.9690917962 0.2620378251
865294810.0 -0.9682106802 0.2635010563
870294780.0 -0.9689636761 0.2645437374
875294750.0 -0.9681491199 0.2661087997
880294720.0 -0.967090252 0.2673379303
885294690.0 -0.9672910374 0.2688214819
890294660.0 -0.9663235279 0.2706738766
895294630.0 -0.9659281792 0.2720084689
900294600.0 -0.9653823072 0.2736088392
905294570.0 -0.9649819515 0.2753610232
910294540.0 -0.9648591703 0.2766422392
915294510.0 -0.9638443312 0.2777401072
920294480.0 -0.9630222391 0.2796845117
925294450.0 -0.9629792196 0.2811884155
930294420.0 -0.9626469163 0.2824916785
935294390.0 -0.9623524163 0.2836813989
940294360.0 -0.9619889107 0.2853875219
945294330.0 -0.9610386916 0.2866643123
950294300.0 -0.9611657248 0.2880987781
955294270.0 -0.9604316358 0.2896569915
960294240.0 -0.9596738411 0.2913764629
965294210.0 -0.9599494553 0.2928894719
970294180.0 -0.9596611815 0.2943437513
975294150.0 -0.959044683 0.2966560758
980294120.0 -0.958874289 0.2968001612
985294090.0 -0.9578458135 0.2986192594
990294060.0 -0.9572977465 0.2996050907
995294030.0 -0.9573060258 0.3016710296
1000294000.0 -0.9564267239 0.3028388714
1005293970.0 -0.9558421542 0.3041061805
1010293940.0 -0.9555896412 0.3054089812
1015293910.0 -0.9549168007 0.3069460804
1020293880.0 -0.9548006942 0.3081046057
1025293850.0 -0.9541263942 0.309744005
1030293820.0 -0.9533781843 0.3109776815
1035293790.0 -0.9531674615 0.3129030877
1040293760.0 -0.9525312122 0.3138620927
1045293730.0 -0.9519234674 0.3157240382
1050293700.0 -0.9513814448 0.3172498716
1055293670.0 -0.9509373731 0.318793609
1060293640.0 -0.9507472347 0.3198735846
1065293610.0 -0.9501450227 0.3213772711
1070293580.0 -0.9494787481 0.3223910556
1075293550.0 -0.9492074335 0.3242109224
1080293520.0 -0.948241998 0.3253653897
1085293490.0 -0.9476857363 0.327086322
1090293460.0 -0.9470155796 0.3281296731
1095293430.0 -0.9468999309 0.330381708
1100293400.0 -0.9463447428 0.3321733158
1105293370.0 -0.9459907368 0.3334803616
1110293340.0 -0.9452853698 0.3345113543
1115293310.0 -0.9450605664 0.3358544413
1120293280.0 -0.9442777617 0.3371765038
1125293250.0 -0.9439477574 0.3383654314
1130293220.0 -0.9432122571 0.3403153249
1135293190.0 -0.9426806786 0.341758683
1140293160.0 -0.9420853753 0.3430831992
1145293130.0 -0.9415195639 0.3449284105
1150293100.0 -0.9412384296 0.3466783008
1155293070.0 -0.9403812502 0.3480470669
1160293040.0 -0.9395210996 0.3497778341
1165293010.0 -0.9396283073 0.3510565061
1170292980.0 -0.9390952219 0.3517637785
1175292950.0 -0.9385199771 0.3535583896
1180292920.0 -0.9377197694 0.3545040434
1185292890.0 -0.9372568632 0.3555909917
1190292860.0 -0.9370041728 0.3572851925
1195292830.0 -0.9366136476 0.3582364593
1200292800.0 -0.9358863527 0.3598977377
1205292770.0 -0.9351742909 0.3608415243
1210292740.0 -0.934711824 0.3629006477
1215292710.0 -0.9340391979 0.3636809971
1220292680.0 -0.9333859093 0.3656919513
1225292650.0 -0.9328560412 0.3668265164
1230292620.0 -0.9323020201 0.3686145077
1235292590.0 -0.9316405297 0.3694913215
1240292560.0 -0.9309537136 0.3708131521
1245292530.0 -0.9306289687 0.3724327691
1250292500.0 -0.9299370919 0.3740405176
1255292470.0 -0.9296439975 0.3747801606
1260292440.0 -0.9287433794 0.377237072
1265292410.0 -0.928837847 0.3776953829
1270292380.0 -0.9275515025 0.3794462476
1275292350.0 -0.9270653308 0.3809556567
1280292320.0 -0.9262378685 0.3824401299
1285292290.0 -0.9256513489 0.383923683
1290292260.0 -0.9252309441 0.3853321658
1295292230.0 -0.9245738716 0.3863450088
1300292200.0 -0.9237578806 0.3876079547
1305292170.0 -0.923630364 0.388788714
1310292140.0 -0.9226673024 0.3907197645
1315292110.0 -0.9224464733 0.3916755238
1320292080.0 -0.9211843354 0.3931498772
1325292050.0 -0.9205900281 0.3947675475
1330292020.0 -0.9198508833 0.3959796228
1335291990.0 -0.9195177881 0.3979149603
1340291960.0 -0.9188894888 0.399581849
1345291930.0 -0.9182219336 0.4004611466
1350291900.0 -0.9177193517 0.4021756833
1355291870.0 -0.9172416813 0.4028835942
1360291840.0 -0.9167485342 0.4041685846
1365291810.0 -0.9162411162 0.4054279269
1370291780.0 -0.9149297282 0.4066753556
1375291750.0 -0.914736457 0.4084903023
1380291720.0 -0.9142205487 0.4100397001
1385291690.0 -0.9136847279 0.4110103004
1390291660.0 -0.9130907424 0.4130579389
1395291630.0 -0.9117539583 0.4145894105
1400291600.0 -0.9120611228 0.4154859038
1405291570.0 -0.9105069566 0.416751081
1410291540.0 -0.9103191372 0.4188409022
1415291510.0 -0.9094272224 0.4192267521
1420291480.0 -0.9094765326 0.4207587829
1425291450.0 -0.908168717 0.4222560228
1430291420.0 -0.9076740096 0.4235914097
1435291390.0 -0.9067574333 0.4250586447
1440291360.0 -0.9063656389 0.4263373223
1445291330.0 -0.9060174731 0.4273278544
1450291300.0 -0.9054159587 0.428633471
1455291270.0 -0.9050305645 0.4294780919
1460291240.0 -0.9039036939 0.4308688348
1465291210.0 -0.9025495011 0.4327182175
1470291180.0 -0.9024470687 0.4341460913
1475291150.0 -0.9013281532 0.4357263563
1480291120.0 -0.9008894196 0.4367195729
1485291090.0 -0.9003610166 0.43824922
1490291060.0 -0.8997220561 0.4404051865
1495291030.0 -0.8987772675 0.4410112414
1500291000.0 -0.8980837784 0.441893348
1505290970.0 -0.8974897615 0.4436577561
1510290940.0 -0.8970156779 0.4449264764
1515290910.0 -0.8959687067 0.4466775642
1520290880.0 -0.8955648219 0.4474641063
1525290850.0 -0.8949779353 0.4490481394
1530290820.0 -0.894195929 0.4506187325
1535290790.0 -0.8938797278 0.4522433411
1540290760.0 -0.8924260146 0.4537233282
1545290730.0 -0.8923766258 0.4546781882
1550290700.0 -0.8906956884 0.4564157443
1555290670.0 -0.8905602767 0.4574098398
1560290640.0 -0.8895930711 0.4590989019
1565290610.0 -0.8890191466 0.4600259918
1570290580.0 -0.8883910975 0.4608262997
1575290550.0 -0.8877306526 0.4625494848
1580290520.0 -0.8867322741 0.4643552921
1585290490.0 -0.8859249053 0.4665082735
1590290460.0 -0.8857746427 0.4669991573
1595290430.0 -0.8845775772 0.468355775
1600290400.0 -0.8838573949 0.4698746593
1605290370.0 -0.8828778894 0.4703688978
1610290340.0 -0.8826713375 0.4718223594
1615290310.0 -0.881841182 0.473019966
1620290280.0 -0.8815084728 0.474406488
1625290250.0 -0.8806485563 0.4762903686
1630290220.0 -0.8797682043 0.477856041
1635290190.0 -0.8792696563 0.4787726196
1640290160.0 -0.8781687428 0.480043913
1645290130.0 -0.8783841411 0.4810310501
1650290100.0 -0.8768886202 0.4821566332
1655290070.0 -0.8755773894 0.484285325
1660290040.0 -0.8753345234 0.4847531734
1665290010.0 -0.8744396555 0.4863381384
1670289980.0 -0.8739941669 0.4877701245
1675289950.0 -0.8730345219 0.488549211
1680289920.0 -0.8723467924 0.4899764094
1685289890.0 -0.8710600767 0.49177889
1690289860.0 -0.8704991416 0.4938702856
1695289830.0 -0.8699517643 0.4948706715
1700289800.0 -0.8690721941 0.4954480793
1705289770.0 -0.8681212196 0.4972506247
1710289740.0 -0.8678690129 0.4987763558
1715289710.0 -0.8666639902 0.4997880825
1720289680.0 -0.8658810729 0.500882723
1725289650.0 -0.8651048856 0.502668748
1730289620.0 -0.8643260892 0.5038277506
1735289590.0 -0.8631998996 0.5046952321
1740289560.0 -0.8624384142 0.5059767922
1745289530.0 -0.8616600588 0.5080274003
1750289500.0 -0.8611522544 0.5089484096
1755289470.0 -0.8601484445 0.5105654057
1760289440.0 -0.8600877115 0.5114992981
1765289410.0 -0.8593029172 0.5124965494
1770289380.0 -0.8583313892 0.5138472
1775289350.0 -0.8577794617 0.5150457603
1780289320.0 -0.8568638344 0.5167777288
1785289290.0 -0.8556889898 0.5184300903
1790289260.0 -0.8552578419 0.5192424271
1795289230.0 -0.8542323926 0.5203934336
1800289200.0 -0.8534284988 0.521932226
1805289170.0 -0.852934702 0.5231642428
1810289140.0 -0.8517651591 0.5242116091
1815289110.0 -0.8508156897 0.5248647638
1820289080.0 -0.850490477 0.5266461631
1825289050.0 -0.8497364435 0.5280025227
1830289020.0 -0.8487395572 0.5286841935
1835288990.0 -0.8477906908 0.530535212
1840288960.0 -0.8473263917 0.5313579333
1845288930.0 -0.8465716137 0.5323632982
1850288900.0 -0.8456596907 0.5346829671
1855288870.0 -0.844890797 0.5354601577
1860288840.0 -0.8435736213 0.5368268055
1865288810.0 -0.8430061242 0.538461345
1870288780.0 -0.8423261196 0.5401455326
1875288750.0 -0.8419023124 0.5410482795
1880288720.0 -0.8403096938 0.5423644126
1885288690.0 -0.8389078506 0.5439386956
1890288660.0 -0.8383023599 0.5448254107
1895288630.0 -0.8375164209 0.5461705997
1900288600.0 -0.8369333072 0.5476646802
1905288570.0 -0.8361057356 0.5487026675
1910288540.0 -0.8348687035 0.5499462303
1915288510.0 -0.8344960043 0.551195556
1920288480.0 -0.8337498629 0.5524749549
1925288450.0 -0.8324903081 0.5538101633
1930288420.0 -0.8314508972 0.5552960912
1935288390.0 -0.8303556619 0.5565103257
1940288360.0 -0.8294101518 0.5577481311
1945288330.0 -0.8288760376 0.5590715239
1950288300.0 -0.827600226 0.560735868
1955288270.0 -0.8265898819 0.5618127059
1960288240.0 -0.8255076406 0.5637014912
1965288210.0 -0.8247130733 0.5643076515
1970288180.0 -0.8237238598 0.566039313
1975288150.0 -0.8231943298 0.5672762493
1980288120.0 -0.8226530615 0.5680305378
1985288090.0 -0.8219980656 0.5693307429
1990288060.0 -0.820846808 0.56994594
1995288030.0 -0.8205991498 0.5713451583
2000288000.0 -0.8199833805 0.5723951424
2005287970.0 -0.8189241555 0.5730651611
2010287940.0 -0.8180372187 0.5748878994
2015287910.0 -0.8169092233 0.5761179423
2020287880.0 -0.8160553773 0.5776660759
2025287850.0 -0.8144815091 0.5779646626
2030287820.0 -0.8141534051 0.5799146682
2035287790.0 -0.8129487906 0.5814975119
2040287760.0 -0.811819983 0.5835829163
2045287730.0 -0.8103217101 0.583386834
2050287700.0 -0.8101868843 0.5853906978
2055287670.0 -0.809635487 0.5860754825
2060287640.0 -0.8085446216 0.5872661309
2065287610.0 -0.8074464149 0.588800614
2070287580.0 -0.8070417786 0.5902270455
2075287550.0 -0.8057690844 0.591292401
2080287520.0 -0.8047485245 0.5924425516
2085287490.0 -0.8036059992 0.5937458465
2090287460.0 -0.8034869218 0.5947427954
2095287430.0 -0.8019500341 0.5960190997
2100287400.0 -0.8009614975 0.5974576278
2105287370.0 -0.800140844 0.5986091203
2110287340.0 -0.7990171318 0.6001962505
2115287310.0 -0.7985821661 0.601605492
2120287280.0 -0.7976827498 0.6019226936
2125287250.0 -0.7963581439 0.6038707315
2130287220.0 -0.7952072568 0.6051502923
2135287190.0 -0.7946010163 0.606357076
2140287160.0 -0.7935255324 0.6082185251
2145287130.0 -0.7923000528 0.6090150581
2150287100.0 -0.7915152893 0.6095597493
2155287070.0 -0.7904792271 0.6113114804
2160287040.0 -0.7901464698 0.611943244
2165287010.0 -0.7892836154 0.6135459518
2170286980.0 -0.7878824177 0.614475953
2175286950.0 -0.7874097646 0.6155049195
2180286920.0 -0.7861794475 0.6166316063
2185286890.0 -0.7857193842 0.6173487037
2190286860.0 -0.784630294 0.6185557862
2195286830.0 -0.783775954 0.6194255167
2200286800.0 -0.7829467683 0.6206639061
2205286770.0 -0.7822907427 0.6217942144
2210286740.0 -0.7808571279 0.6229615686
2215286710.0 -0.7799735958 0.624553659
2220286680.0 -0.7792005832 0.6260107231
2225286650.0 -0.7781489153 0.6271894286
2230286620.0 -0.7768831082 0.6281469777
2235286590.0 -0.7761951774 0.6297666521
2240286560.0 -0.7750929995 0.6303802661
2245286530.0 -0.7740782007 0.6320012057
2250286500.0 -0.7728416661 0.6328990341
2255286470.0 -0.7720599719 0.6347122627
2260286440.0 -0.7711728756 0.6359442758
2265286410.0 -0.7697502491 0.6367581597
2270286380.0 -0.7688372372 0.6382318061
2275286350.0 -0.7676988734 0.6397775771
2280286320.0 -0.7670873535 0.6405874304
2285286290.0 -0.7660409079 0.6422087495
2290286260.0 -0.7649404383 0.6435561143
2295286230.0 -0.7634630329 0.6442637224
2300286200.0 -0.7629433152 0.6459663928
2305286170.0 -0.7619399466 0.6469936948
2310286140.0 -0.7607313257 0.6477432139
2315286110.0 -0.7594741564 0.6488732242
2320286080.0 -0.7583961972 0.650451709
2325286050.0 -0.757627309 0.6516440939
2330286020.0 -0.7567322752 0.652666102
2335285990.0 -0.7561767586 0.6539637894
2340285960.0 -0.7549859827 0.6546216342
2345285930.0 -0.7536718308 0.6559196458
2350285900.0 -0.7531688381 0.6571946552
2355285870.0 -0.751696036 0.6584057846
2360285840.0 -0.7503959359 0.6593642283
2365285810.0 -0.7495768116 0.6604810132
2370285780.0 -0.7489428007 0.6617153801
2375285750.0 -0.7482133966 0.6631176671
2380285720.0 -0.7469891057 0.6641562894
2385285690.0 -0.7464303613 0.6650497371
2390285660.0 -0.7455085656 0.6659598227
2395285630.0 -0.7449480064 0.6664267921
2400285600.0 -0.7430610194 0.6680176604
2405285570.0 -0.7422420838 0.6687535981
2410285540.0 -0.7413298098 0.6702200157
2415285510.0 -0.740937719 0.6710590028
2420285480.0 -0.7398407004 0.6718966266
2425285450.0 -0.7385075096 0.6726965678
2430285420.0 -0.7375500297 0.6743279822
2435285390.0 -0.7363094252 0.6759023236
2440285360.0 -0.7355489931 0.6766341093
2445285330.0 -0.7343440636 0.6773998686
2450285300.0 -0.7332690428 0.6785947215
2455285270.0 -0.732359055 0.6796154796
2460285240.0 -0.7309102148 0.6812972392
2465285210.0 -0.7304571591 0.6820055998
2470285180.0 -0.7295751702 0.6835212393
2475285150.0 -0.728021937 0.6845581089
2480285120.0 -0.7271828642 0.6854302197
2485285090.0 -0.725661083 0.6870003619
2490285060.0 -0.7248498561 0.687880901
2495285030.0 -0.7235695884 0.6890147699
2500285000.0 -0.7222125942 0.690856251
2505284970.0 -0.721091535 0.6915645238
2510284940.0 -0.7198040495 0.6924764025
2515284910.0 -0.7187084664 0.6937616578
2520284880.0 -0.7183417786 0.6944327221
2525284850.0 -0.7170302616 0.6957938176
2530284820.0 -0.715518271 0.6966660246
