!Created with skrf (http://scikit-rf.org).
# Hz S RI R 50.0 
!freq ReS11 ImS11
45000000.0 0.06480789184570312 0.09009170532226562
49995500.0 0.08315277099609375 0.091339111328125
54991000.0 0.10306167602539062 0.08914947509765625
59986500.0 0.12108993530273438 0.0924224853515625
64982000.0 0.141510009765625 0.08791351318359375
69977500.0 0.1630096435546875 0.078338623046875
74973000.0 0.184326171875 0.06479644775390625
79968500.0 0.20417022705078125 0.046875
84964000.0 0.22223663330078125 0.0251617431640625
89959500.0 0.23787689208984375 -0.00023651123046875
94955000.0 0.24930572509765625 -0.02944183349609375
99950500.0 0.2570037841796875 -0.06158447265625
104946000.0 0.2601318359375 -0.0952301025390625
109941500.0 0.257965087890625 -0.1303253173828125
114937000.0 0.2508544921875 -0.1663665771484375
119932500.0 0.2388916015625 -0.20169830322265625
124928000.0 0.22210693359375 -0.23625946044921875
129923500.0 0.200347900390625 -0.2691802978515625
134919000.0 0.1739959716796875 -0.29986572265625
139914500.0 0.1433868408203125 -0.328399658203125
144910000.0 0.1086883544921875 -0.353424072265625
149905500.0 0.0705413818359375 -0.3747406005859375
154901000.0 0.0292205810546875 -0.3917999267578125
159896500.0 -0.01495361328125 -0.4042205810546875
164892000.0 -0.0615386962890625 -0.41168212890625
169887500.0 -0.10992431640625 -0.4139251708984375
174883000.0 -0.159393310546875 -0.41033935546875
179878500.0 -0.2098846435546875 -0.400634765625
184874000.0 -0.2598114013671875 -0.384552001953125
189869500.0 -0.309051513671875 -0.3620147705078125
194865000.0 -0.3566131591796875 -0.3336334228515625
199860500.0 -0.40118408203125 -0.29888916015625
204856000.0 -0.4417572021484375 -0.257659912109375
209851500.0 -0.478179931640625 -0.21124267578125
214847000.0 -0.509429931640625 -0.159942626953125
219842500.0 -0.534942626953125 -0.103973388671875
224838000.0 -0.5538330078125 -0.044677734375
229833500.0 -0.566070556640625 0.01739501953125
234829000.0 -0.57098388671875 0.08087158203125
239824500.0 -0.568603515625 0.1455078125
244820000.0 -0.558990478515625 0.21026611328125
249815500.0 -0.5418701171875 0.27410888671875
254811000.0 -0.536468505859375 0.317535400390625
259806500.0 -0.5087890625 0.379150390625
264802000.0 -0.4745330810546875 0.4385528564453125
269797500.0 -0.43328857421875 0.4949798583984375
274793000.0 -0.385894775390625 0.547515869140625
279788500.0 -0.331817626953125 0.5955810546875
284784000.0 -0.27215576171875 0.638824462890625
289779500.0 -0.206634521484375 0.676300048828125
294775000.0 -0.13604736328125 0.707489013671875
299770500.0 -0.06060791015625 0.7318115234375
304766000.0 0.018585205078125 0.74786376953125
309761500.0 0.101104736328125 0.7550048828125
314757000.0 0.18603515625 0.75262451171875
319752500.0 0.272247314453125 0.7398681640625
324748000.0 0.35809326171875 0.71746826171875
329743500.0 0.442779541015625 0.6842041015625
334739000.0 0.52496337890625 0.640289306640625
339734500.0 0.602203369140625 0.58538818359375
344730000.0 0.673583984375 0.521148681640625
349725500.0 0.73773193359375 0.447601318359375
354721000.0 0.792755126953125 0.36590576171875
359716500.0 0.83770751953125 0.277252197265625
364712000.0 0.872406005859375 0.1832275390625
369707500.0 0.895416259765625 0.084991455078125
374703000.0 0.907257080078125 -0.01593017578125
379698500.0 0.906982421875 -0.117889404296875
384694000.0 0.8951416015625 -0.219085693359375
389689500.0 0.871856689453125 -0.318328857421875
394685000.0 0.838043212890625 -0.414520263671875
399680500.0 0.793914794921875 -0.50677490234375
404676000.0 0.7408447265625 -0.5941162109375
409671500.0 0.678619384765625 -0.67559814453125
414667000.0 0.608428955078125 -0.750762939453125
419662500.0 0.530029296875 -0.820526123046875
424658000.0 0.443878173828125 -0.879486083984375
429653500.0 0.350128173828125 -0.931884765625
434649000.0 0.249664306640625 -0.97357177734375
439644500.0 0.14532470703125 -1.0048828125
444640000.0 0.03717041015625 -1.0263671875
449635500.0 -0.073974609375 -1.03717041015625
454631000.0 -0.18939208984375 -1.03759765625
459626500.0 -0.30755615234375 -1.02386474609375
464622000.0 -0.42608642578125 -0.995391845703125
469617500.0 -0.5428466796875 -0.952545166015625
474613000.0 -0.655242919921875 -0.894378662109375
479608500.0 -0.76202392578125 -0.822174072265625
484604000.0 -0.860015869140625 -0.735137939453125
489599500.0 -0.947540283203125 -0.63555908203125
494595000.0 -1.0218505859375 -0.5240478515625
499590500.0 -1.0811767578125 -0.40350341796875
504586000.0 -1.12432861328125 -0.2762451171875
509581500.0 -1.1497802734375 -0.145263671875
514577000.0 -1.15802001953125 -0.01312255859375
519572500.0 -1.14971923828125 0.11663818359375
524568000.0 -1.12664794921875 0.24212646484375
529563500.0 -1.0899658203125 0.36065673828125
534559000.0 -1.04296875 0.47198486328125
539554500.0 -0.9871826171875 0.57574462890625
544550000.0 -0.92425537109375 0.6727294921875
549545500.0 -0.854156494140625 0.763580322265625
554541000.0 -0.777099609375 0.849334716796875
559536500.0 -0.6923828125 0.928924560546875
564532000.0 -0.59912109375 1.00201416015625
569527500.0 -0.49786376953125 1.0670166015625
574523000.0 -0.3887939453125 1.1229248046875
579518500.0 -0.2734375 1.1683349609375
584514000.0 -0.152099609375 1.20269775390625
589509500.0 -0.025390625 1.2252197265625
594505000.0 0.10546875 1.2344970703125
599500500.0 0.23883056640625 1.23065185546875
604496000.0 0.37420654296875 1.21270751953125
609491500.0 0.509521484375 1.17913818359375
614487000.0 0.6436767578125 1.1302490234375
619482500.0 0.77459716796875 1.0650634765625
624478000.0 0.899383544921875 0.983734130859375
629473500.0 1.0159912109375 0.88519287109375
634469000.0 1.12164306640625 0.77178955078125
639464500.0 1.2132568359375 0.64337158203125
644460000.0 1.2891845703125 0.50238037109375
649455500.0 1.34674072265625 0.351318359375
654451000.0 1.3843994140625 0.19305419921875
659446500.0 1.4013671875 0.03106689453125
664442000.0 1.39752197265625 -0.13128662109375
669437500.0 1.37310791015625 -0.29168701171875
674433000.0 1.329345703125 -0.4456787109375
679428500.0 1.26751708984375 -0.59124755859375
684424000.0 1.1900634765625 -0.72637939453125
689419500.0 1.099365234375 -0.84942626953125
694415000.0 0.9970703125 -0.959930419921875
699410500.0 0.88604736328125 -1.05694580078125
704406000.0 0.767578125 -1.14068603515625
709401500.0 0.64349365234375 -1.2113037109375
714397000.0 0.514892578125 -1.26934814453125
719392500.0 0.38287353515625 -1.31488037109375
724388000.0 0.24853515625 -1.34881591796875
729383500.0 0.11181640625 -1.37060546875
734379000.0 -0.0269775390625 -1.37945556640625
739374500.0 -0.16705322265625 -1.37689208984375
744370000.0 -0.3074951171875 -1.36187744140625
749365500.0 -0.44805908203125 -1.333251953125
754361000.0 -0.58782958984375 -1.2919921875
759356500.0 -0.72589111328125 -1.2357177734375
764352000.0 -0.86077880859375 -1.164794921875
769347500.0 -0.99078369140625 -1.0780029296875
774343000.0 -1.1138916015625 -0.9749755859375
779338500.0 -1.2269287109375 -0.8564453125
784334000.0 -1.3280029296875 -0.7227783203125
789329500.0 -1.41412353515625 -0.5740966796875
794325000.0 -1.4822998046875 -0.41351318359375
799320500.0 -1.53021240234375 -0.24273681640625
804316000.0 -1.55609130859375 -0.0654296875
809311500.0 -1.5596923828125 0.1151123046875
814307000.0 -1.53961181640625 0.294677734375
819302500.0 -1.4979248046875 0.4691162109375
824298000.0 -1.43121337890625 0.6370849609375
829293500.0 -1.34765625 0.79290771484375
834289000.0 -1.24517822265625 0.9356689453125
839284500.0 -1.12982177734375 1.06268310546875
844280000.0 -1.06549072265625 1.14227294921875
849275500.0 -0.93218994140625 1.2442626953125
854271000.0 -0.791748046875 1.32940673828125
859266500.0 -0.64599609375 1.39886474609375
864262000.0 -0.49615478515625 1.45269775390625
869257500.0 -0.34210205078125 1.49102783203125
874253000.0 -0.19091796875 1.5152587890625
879248500.0 -0.03826904296875 1.52484130859375
884244000.0 0.1143798828125 1.5218505859375
889239500.0 0.2646484375 1.5059814453125
894235000.0 0.41412353515625 1.47747802734375
899230500.0 0.56158447265625 1.43634033203125
904226000.0 0.70684814453125 1.3818359375
909221500.0 0.850341796875 1.3135986328125
914217000.0 0.98895263671875 1.22955322265625
919212500.0 1.12249755859375 1.130859375
924208000.0 1.2462158203125 1.01605224609375
929203500.0 1.3603515625 0.88604736328125
934199000.0 1.4625244140625 0.74078369140625
939194500.0 1.54833984375 0.58251953125
944190000.0 1.6171875 0.41168212890625
949185500.0 1.66607666015625 0.23016357421875
954181000.0 1.69281005859375 0.0408935546875
959176500.0 1.69580078125 -0.15240478515625
964172000.0 1.67279052734375 -0.3458251953125
969167500.0 1.62591552734375 -0.53515625
974163000.0 1.555419921875 -0.7177734375
979158500.0 1.46209716796875 -0.88885498046875
984154000.0 1.349609375 -1.0457763671875
989149500.0 1.22039794921875 -1.1861572265625
994145000.0 1.07684326171875 -1.30828857421875
999140500.0 0.92327880859375 -1.4117431640625
1004136000.0 0.76190185546875 -1.495849609375
1009131500.0 0.59539794921875 -1.56146240234375
1014127000.0 0.4251708984375 -1.609130859375
1019122500.0 0.253662109375 -1.638427734375
1024118000.0 0.0823974609375 -1.6514892578125
1029113500.0 -0.0875244140625 -1.647705078125
1034109000.0 -0.25543212890625 -1.62847900390625
1039104500.0 -0.4202880859375 -1.5943603515625
1044100000.0 -0.58148193359375 -1.54498291015625
1049095500.0 -0.73773193359375 -1.48052978515625
1054091000.0 -0.888671875 -1.40167236328125
1059086500.0 -1.032470703125 -1.3082275390625
1064082000.0 -1.16876220703125 -1.19940185546875
1069077500.0 -1.29498291015625 -1.07659912109375
1074073000.0 -1.4100341796875 -0.939453125
1079068500.0 -1.51116943359375 -0.7880859375
1084064000.0 -1.59783935546875 -0.6241455078125
1089059500.0 -1.66583251953125 -0.44879150390625
1094055000.0 -1.71429443359375 -0.26416015625
1099050500.0 -1.7410888671875 -0.07293701171875
1104046000.0 -1.74456787109375 0.12249755859375
1109041500.0 -1.724609375 0.318603515625
1114037000.0 -1.6798095703125 0.51129150390625
1119032500.0 -1.6119384765625 0.697021484375
1124028000.0 -1.52166748046875 0.87347412109375
1129023500.0 -1.41070556640625 1.03704833984375
1134019000.0 -1.28192138671875 1.1842041015625
1139014500.0 -1.13787841796875 1.314208984375
1144010000.0 -0.9808349609375 1.42510986328125
1149005500.0 -0.81494140625 1.51580810546875
1154001000.0 -0.64215087890625 1.586669921875
1158996500.0 -0.465576171875 1.63677978515625
1163992000.0 -0.28668212890625 1.6680908203125
1168987500.0 -0.10858154296875 1.6800537109375
1173983000.0 0.0673828125 1.67352294921875
1178978500.0 0.2393798828125 1.65045166015625
1183974000.0 0.406494140625 1.6097412109375
1188969500.0 0.56768798828125 1.554443359375
1193965000.0 0.72186279296875 1.4840087890625
1198960500.0 0.86773681640625 1.400390625
1203956000.0 1.0042724609375 1.30322265625
1208951500.0 1.131103515625 1.1934814453125
1213947000.0 1.24725341796875 1.072509765625
1218942500.0 1.3511962890625 0.9407958984375
1223938000.0 1.44281005859375 0.799072265625
1228933500.0 1.520263671875 0.64764404296875
1233929000.0 1.582763671875 0.48870849609375
1238924500.0 1.6302490234375 0.3233642578125
1243920000.0 1.66058349609375 0.15264892578125
1248915500.0 1.67254638671875 -0.02166748046875
1253911000.0 1.6668701171875 -0.198486328125
1258906500.0 1.64276123046875 -0.37445068359375
1263902000.0 1.5989990234375 -0.5489501953125
1268897500.0 1.53594970703125 -0.71893310546875
1273893000.0 1.4547119140625 -0.88165283203125
1278888500.0 1.3551025390625 -1.03509521484375
1283884000.0 1.23773193359375 -1.17852783203125
1288879500.0 1.10552978515625 -1.3070068359375
1293875000.0 0.958740234375 -1.42138671875
1298870500.0 0.7998046875 -1.521240234375
1303866000.0 0.631103515625 -1.5975341796875
1308861500.0 0.45513916015625 -1.65557861328125
1313857000.0 0.2730712890625 -1.695068359375
1318852500.0 0.08837890625 -1.7139892578125
1323848000.0 -0.09722900390625 -1.7122802734375
1328843500.0 -0.28131103515625 -1.6910400390625
1333839000.0 -0.46099853515625 -1.64898681640625
1338834500.0 -0.6358642578125 -1.587890625
1343830000.0 -0.8016357421875 -1.5086669921875
1348825500.0 -0.95782470703125 -1.41192626953125
1353821000.0 -1.10205078125 -1.29864501953125
1358816500.0 -1.232177734375 -1.17169189453125
1363812000.0 -1.3482666015625 -1.031005859375
1368807500.0 -1.44671630859375 -0.87945556640625
1373803000.0 -1.529296875 -0.7193603515625
1378798500.0 -1.59344482421875 -0.5517578125
1383794000.0 -1.63897705078125 -0.37939453125
1388789500.0 -1.66583251953125 -0.2047119140625
1393785000.0 -1.67431640625 -0.02886962890625
1398780500.0 -1.6649169921875 0.1463623046875
1403776000.0 -1.63726806640625 0.31829833984375
1408771500.0 -1.59295654296875 0.485595703125
1413767000.0 -1.5322265625 0.6474609375
1418762500.0 -1.455810546875 0.8017578125
1423758000.0 -1.3648681640625 0.947265625
1428753500.0 -1.26068115234375 1.08416748046875
1433749000.0 -1.1427001953125 1.20947265625
1438744500.0 -1.0128173828125 1.32373046875
1443740000.0 -0.87164306640625 1.42413330078125
1448735500.0 -0.71978759765625 1.51165771484375
1453731000.0 -0.55865478515625 1.5833740234375
1458726500.0 -0.38946533203125 1.6392822265625
1463722000.0 -0.21307373046875 1.67742919921875
1468717500.0 -0.0321044921875 1.69659423828125
1473713000.0 0.15264892578125 1.69549560546875
1478708500.0 0.3372802734375 1.674072265625
1483704000.0 0.5216064453125 1.63079833984375
1488699500.0 0.69970703125 1.5660400390625
1493695000.0 0.87054443359375 1.479248046875
1498690500.0 1.0301513671875 1.3724365234375
1503686000.0 1.1759033203125 1.2469482421875
1508681500.0 1.3048095703125 1.1046142578125
1513677000.0 1.4149169921875 0.948486328125
1518672500.0 1.5032958984375 0.781494140625
1523668000.0 1.57177734375 0.60614013671875
1528663500.0 1.61700439453125 0.427490234375
1533659000.0 1.6416015625 0.2469482421875
1538654500.0 1.64495849609375 0.06842041015625
1543650000.0 1.62896728515625 -0.1055908203125
1548645500.0 1.5950927734375 -0.27392578125
1553641000.0 1.545166015625 -0.43438720703125
1558636500.0 1.48004150390625 -0.5853271484375
1563632000.0 1.402099609375 -0.72772216796875
1568627500.0 1.31243896484375 -0.8594970703125
1573623000.0 1.21234130859375 -0.9803466796875
1578618500.0 1.1036376953125 -1.0902099609375
1583614000.0 0.98590087890625 -1.1890869140625
1588609500.0 0.86077880859375 -1.27691650390625
1593605000.0 0.72906494140625 -1.35235595703125
1598600500.0 0.59088134765625 -1.4166259765625
1603596000.0 0.447509765625 -1.4681396484375
1608591500.0 0.29949951171875 -1.505615234375
1613587000.0 0.14739990234375 -1.5301513671875
1618582500.0 -0.0078125 -1.5401611328125
1623578000.0 -0.1644287109375 -1.53472900390625
1628573500.0 -0.32171630859375 -1.514404296875
1633569000.0 -0.4781494140625 -1.47674560546875
1638564500.0 -0.63055419921875 -1.42236328125
1643560000.0 -0.7783203125 -1.3511962890625
1648555500.0 -0.9189453125 -1.26385498046875
1653551000.0 -1.0489501953125 -1.1597900390625
1658546500.0 -1.1671142578125 -1.0411376953125
1663542000.0 -1.27117919921875 -0.90997314453125
1668537500.0 -1.35888671875 -0.7677001953125
1673533000.0 -1.4296875 -0.61676025390625
1678528500.0 -1.48193359375 -0.45916748046875
1683524000.0 -1.515869140625 -0.29888916015625
1688519500.0 -1.53167724609375 -0.13751220703125
1693515000.0 -1.52911376953125 0.0224609375
1698510500.0 -1.5103759765625 0.17864990234375
1703506000.0 -1.47650146484375 0.330078125
1708501500.0 -1.42816162109375 0.474853515625
1713497000.0 -1.36724853515625 0.61175537109375
1718492500.0 -1.294921875 0.7413330078125
1723488000.0 -1.21240234375 0.8626708984375
1728483500.0 -1.120361328125 0.9747314453125
1733479000.0 -1.01953125 1.07794189453125
1738474500.0 -0.9107666015625 1.1724853515625
1743470000.0 -0.7938232421875 1.25811767578125
1748465500.0 -0.66937255859375 1.33392333984375
1753461000.0 -0.53692626953125 1.3990478515625
1758456500.0 -0.396728515625 1.4530029296875
1763452000.0 -0.25152587890625 1.4947509765625
1768447500.0 -0.099609375 1.52294921875
1773443000.0 0.058349609375 1.53668212890625
1778438500.0 0.2198486328125 1.53302001953125
1783434000.0 0.3839111328125 1.51226806640625
1788429500.0 0.54803466796875 1.4720458984375
1793425000.0 0.7086181640625 1.41204833984375
1798420500.0 0.8636474609375 1.33123779296875
1803416000.0 1.00860595703125 1.2313232421875
1808411500.0 1.1414794921875 1.11322021484375
1813407000.0 1.25836181640625 0.97882080078125
1818402500.0 1.356689453125 0.83099365234375
1823398000.0 1.4354248046875 0.672607421875
1828393500.0 1.49346923828125 0.50799560546875
1833389000.0 1.5302734375 0.3406982421875
1838384500.0 1.54730224609375 0.17315673828125
1843380000.0 1.544921875 0.00775146484375
1848375500.0 1.52496337890625 -0.1522216796875
1853371000.0 1.48974609375 -0.3062744140625
1858366500.0 1.44024658203125 -0.45196533203125
1863362000.0 1.37890625 -0.58978271484375
1868357500.0 1.3062744140625 -0.71923828125
1873353000.0 1.22412109375 -0.83935546875
1878348500.0 1.13287353515625 -0.9510498046875
1883344000.0 1.0340576171875 -1.05401611328125
1888339500.0 0.9271240234375 -1.14874267578125
1893335000.0 0.81280517578125 -1.23382568359375
1898330500.0 0.69097900390625 -1.3095703125
1903326000.0 0.5623779296875 -1.37567138671875
1908321500.0 0.42657470703125 -1.431640625
1913317000.0 0.28350830078125 -1.47601318359375
1918312500.0 0.134521484375 -1.50640869140625
1923308000.0 -0.020751953125 -1.52349853515625
1928303500.0 -0.17999267578125 -1.52398681640625
1933299000.0 -0.34112548828125 -1.50701904296875
1938294500.0 -0.50299072265625 -1.47161865234375
1943290000.0 -0.6622314453125 -1.41656494140625
1948285500.0 -0.81671142578125 -1.34210205078125
1953281000.0 -0.962890625 -1.24847412109375
1958276500.0 -1.09674072265625 -1.1363525390625
1963272000.0 -1.2158203125 -1.0084228515625
1968267500.0 -1.3184814453125 -0.86712646484375
1973263000.0 -1.40191650390625 -0.7142333984375
1978258500.0 -1.46612548828125 -0.55413818359375
1983254000.0 -1.50958251953125 -0.38958740234375
1988249500.0 -1.53350830078125 -0.22381591796875
1993245000.0 -1.53863525390625 -0.05859375
1998240500.0 -1.52587890625 0.1025390625
2003236000.0 -1.496337890625 0.25762939453125
2008231500.0 -1.4522705078125 0.4073486328125
2013227000.0 -1.3953857421875 0.5491943359375
2018222500.0 -1.32598876953125 0.68255615234375
2023218000.0 -1.24530029296875 0.80718994140625
2028213500.0 -1.155029296875 0.92291259765625
2033209000.0 -1.055419921875 1.029296875
2038204500.0 -0.9471435546875 1.1265869140625
2043200000.0 -0.8310546875 1.21356201171875
2048195500.0 -0.707275390625 1.28961181640625
2053191000.0 -0.57611083984375 1.35455322265625
2058186500.0 -0.43914794921875 1.40740966796875
2063182000.0 -0.2965087890625 1.44696044921875
2068177500.0 -0.1488037109375 1.473388671875
2073173000.0 0.00152587890625 1.484619140625
2078168500.0 0.154541015625 1.47998046875
2083164000.0 0.30694580078125 1.45953369140625
2088159500.0 0.45733642578125 1.422119140625
2093155000.0 0.6038818359375 1.3685302734375
2098150500.0 0.74420166015625 1.29864501953125
2103146000.0 0.87646484375 1.2139892578125
2108141500.0 0.9981689453125 1.11456298828125
2113137000.0 1.10772705078125 1.0029296875
2118132500.0 1.203369140625 0.88031005859375
2123128000.0 1.2847900390625 0.74908447265625
2128123500.0 1.35113525390625 0.61083984375
2133119000.0 1.4019775390625 0.46875
2138114500.0 1.43780517578125 0.32281494140625
2143110000.0 1.4588623046875 0.17608642578125
2148105500.0 1.4652099609375 0.029541015625
2153101000.0 1.45758056640625 -0.11480712890625
2158096500.0 1.4373779296875 -0.2579345703125
2163092000.0 1.40411376953125 -0.39691162109375
2168087500.0 1.35931396484375 -0.53228759765625
2173083000.0 1.302001953125 -0.66351318359375
2178078500.0 1.23394775390625 -0.78900146484375
2183074000.0 1.153564453125 -0.9090576171875
2188069500.0 1.06304931640625 -1.02203369140625
2193065000.0 0.96124267578125 -1.1279296875
2198060500.0 0.84820556640625 -1.22515869140625
