!Created with skrf (http://scikit-rf.org).
# Hz S RI R 50.0 
!freq ReS11 ImS11
45000000.0 -0.0769805908203125 -0.09695053100585938
76221875.0 -0.19623565673828125 -0.0476226806640625
107443750.0 -0.25482177734375 0.1195068359375
138665625.0 -0.1482391357421875 0.3280792236328125
169887500.0 0.1233062744140625 0.4171600341796875
201109375.0 0.4214935302734375 0.2808685302734375
232331250.0 0.578369140625 -0.057464599609375
263553125.0 0.4892425537109375 -0.452301025390625
294775000.0 0.0987548828125 -0.73187255859375
325996875.0 -0.414642333984375 -0.679931640625
357218750.0 -0.805389404296875 -0.2969970703125
388440625.0 -0.8848876953125 0.29998779296875
419662500.0 -0.516876220703125 0.865234375
450884375.0 0.17279052734375 1.02789306640625
482106250.0 0.797576904296875 0.712127685546875
513328125.0 1.11822509765625 0.08740234375
544550000.0 1.0030517578125 -0.6788330078125
575771875.0 0.33642578125 -1.23687744140625
606993750.0 -0.5528564453125 -1.17626953125
638215625.0 -1.16455078125 -0.59002685546875
669437500.0 -1.33868408203125 0.233154296875
700659375.0 -0.97021484375 1.09503173828125
731881250.0 -0.0040283203125 1.54150390625
763103125.0 1.00433349609375 1.15478515625
794325000.0 1.46697998046875 0.281982421875
825546875.0 1.365966796875 -0.65057373046875
856768750.0 0.79412841796875 -1.398681640625
887990625.0 -0.29193115234375 -1.6466064453125
919212500.0 -1.28631591796875 -1.07763671875
950434375.0 -1.6463623046875 -0.05938720703125
981656250.0 -1.38104248046875 0.94342041015625
1012878125.0 -0.52947998046875 1.66912841796875
1044100000.0 0.6956787109375 1.65972900390625
1075321875.0 1.57220458984375 0.811279296875
1106543750.0 1.702392578125 -0.31195068359375
1137765625.0 1.1856689453125 -1.28173828125
1168987500.0 0.1383056640625 -1.79425048828125
1200209375.0 -1.0599365234375 -1.481689453125
1231431250.0 -1.7244873046875 -0.4534912109375
1262653125.0 -1.59234619140625 0.68304443359375
1293875000.0 -0.85125732421875 1.48895263671875
1325096875.0 0.22723388671875 1.704345703125
1356318750.0 1.23297119140625 1.21502685546875
1387540625.0 1.7374267578125 0.1890869140625
1418762500.0 1.46746826171875 -0.9500732421875
1449984375.0 0.529052734375 -1.62335205078125
1481206250.0 -0.54833984375 -1.553955078125
1512428125.0 -1.33953857421875 -0.918701171875
1543650000.0 -1.65301513671875 0.06500244140625
1574871875.0 -1.27191162109375 1.10662841796875
1606093750.0 -0.27313232421875 1.6287841796875
1637315625.0 0.7410888671875 1.39892578125
1668537500.0 1.39404296875 0.695068359375
1699759375.0 1.571044921875 -0.27667236328125
1730981250.0 1.0631103515625 -1.227783203125
1762203125.0 0.04254150390625 -1.56817626953125
1793425000.0 -0.85430908203125 -1.22479248046875
1824646875.0 -1.3916015625 -0.5145263671875
1855868750.0 -1.4718017578125 0.4312744140625
1887090625.0 -0.87384033203125 1.28314208984375
1918312500.0 0.11627197265625 1.48431396484375
1949534375.0 0.91973876953125 1.0877685546875
1980756250.0 1.37249755859375 0.36993408203125
2011978125.0 1.35784912109375 -0.53082275390625
2043200000.0 0.749267578125 -1.259765625
2074421875.0 -0.15631103515625 -1.43157958984375
2105643750.0 -0.95892333984375 -1.07147216796875
2136865625.0 -1.44512939453125 -0.30474853515625
2168087500.0 -1.355224609375 0.669921875
2199309375.0 -0.63848876953125 1.3492431640625
2230531250.0 0.28118896484375 1.43414306640625
2261753125.0 1.07080078125 1.01263427734375
2292975000.0 1.51202392578125 0.17071533203125
2324196875.0 1.303955078125 -0.8173828125
2355418750.0 0.524658203125 -1.41748046875
2386640625.0 -0.4033203125 -1.44659423828125
2417862500.0 -1.1785888671875 -1.02276611328125
2449084375.0 -1.60205078125 -0.08441162109375
2480306250.0 -1.30975341796875 0.92462158203125
2511528125.0 -0.4932861328125 1.5045166015625
2542750000.0 0.487060546875 1.53387451171875
2573971875.0 1.36749267578125 0.96685791015625
2605193750.0 1.7135009765625 -0.1114501953125
2636415625.0 1.25982666015625 -1.14910888671875
2667637500.0 0.3062744140625 -1.6640625
2698859375.0 -0.76727294921875 -1.531494140625
2730081250.0 -1.56964111328125 -0.739990234375
2761303125.0 -1.67822265625 0.3873291015625
2792525000.0 -1.09783935546875 1.30364990234375
2823746875.0 -0.10345458984375 1.725341796875
2854968750.0 1.0103759765625 1.45343017578125
2886190625.0 1.68780517578125 0.49114990234375
2917412500.0 1.5965576171875 -0.61553955078125
2948634375.0 0.93841552734375 -1.4305419921875
2979856250.0 -0.10699462890625 -1.77191162109375
3011078125.0 -1.244140625 -1.340087890625
3042300000.0 -1.77105712890625 -0.23553466796875
3073521875.0 -1.50604248046875 0.8359375
3104743750.0 -0.76214599609375 1.56451416015625
3135965625.0 0.361572265625 1.80645751953125
3167187500.0 1.49652099609375 1.16265869140625
3198409375.0 1.812744140625 -0.07525634765625
3229631250.0 1.34649658203125 -1.07940673828125
3260853125.0 0.48876953125 -1.6649169921875
3292075000.0 -0.6527099609375 -1.694580078125
3323296875.0 -1.6170654296875 -0.87860107421875
3354518750.0 -1.7275390625 0.3270263671875
3385740625.0 -1.15435791015625 1.2293701171875
3416962500.0 -0.23175048828125 1.6781005859375
3448184375.0 0.85772705078125 1.5191650390625
3479406250.0 1.63250732421875 0.64385986328125
3510628125.0 1.640625 -0.49188232421875
3541850000.0 0.99871826171875 -1.35198974609375
3573071875.0 -0.0069580078125 -1.678955078125
3604293750.0 -1.02587890625 -1.33563232421875
3635515625.0 -1.62432861328125 -0.43817138671875
3666737500.0 -1.55877685546875 0.6436767578125
3697959375.0 -0.82391357421875 1.47247314453125
3729181250.0 0.26654052734375 1.62713623046875
3760403125.0 1.15045166015625 1.09661865234375
3791625000.0 1.54876708984375 0.21881103515625
3822846875.0 1.3997802734375 -0.7591552734375
3854068750.0 0.61981201171875 -1.47772216796875
3885290625.0 -0.41949462890625 -1.4783935546875
3916512500.0 -1.1392822265625 -0.90972900390625
3947734375.0 -1.44525146484375 -0.12017822265625
3978956250.0 -1.295166015625 0.776123046875
4010178125.0 -0.531005859375 1.451171875
4041400000.0 0.47125244140625 1.41253662109375
4072621875.0 1.1494140625 0.8465576171875
4103843750.0 1.44134521484375 0.06317138671875
4135065625.0 1.26568603515625 -0.843017578125
4166287500.0 0.4576416015625 -1.4935302734375
4197509375.0 -0.55615234375 -1.4124755859375
4228731250.0 -1.24407958984375 -0.80218505859375
4259953125.0 -1.50653076171875 0.07000732421875
4291175000.0 -1.1866455078125 1.00830078125
4322396875.0 -0.29034423828125 1.52239990234375
4353618750.0 0.6707763671875 1.34808349609375
4384840625.0 1.3189697265625 0.69708251953125
4416062500.0 1.49822998046875 -0.2264404296875
4447284375.0 1.0537109375 -1.10113525390625
4478506250.0 0.17315673828125 -1.49169921875
4509728125.0 -0.73101806640625 -1.3055419921875
4540950000.0 -1.39129638671875 -0.6348876953125
4572171875.0 -1.520263671875 0.3585205078125
4603393750.0 -0.9716796875 1.210693359375
4634615625.0 -0.06182861328125 1.5350341796875
4665837500.0 0.86968994140625 1.302978515625
4697059375.0 1.53759765625 0.515380859375
4728281250.0 1.5269775390625 -0.5809326171875
4759503125.0 0.82220458984375 -1.36480712890625
4790725000.0 -0.14447021484375 -1.57049560546875
4821946875.0 -1.0804443359375 -1.192626953125
4853168750.0 -1.610107421875 -0.2518310546875
4884390625.0 -1.37652587890625 0.791748046875
4915612500.0 -0.61285400390625 1.40997314453125
4946834375.0 0.3272705078125 1.50762939453125
4978056250.0 1.203369140625 1.01611328125
5009278125.0 1.55963134765625 0.0394287109375
5040500000.0 1.227783203125 -0.87451171875
5071721875.0 0.501708984375 -1.41156005859375
5102943750.0 -0.44488525390625 -1.494140625
5134165625.0 -1.33441162109375 -0.9041748046875
5165387500.0 -1.5654296875 0.145263671875
5196609375.0 -1.134765625 1.0072021484375
5227831250.0 -0.35791015625 1.5028076171875
5259053125.0 0.68597412109375 1.4898681640625
5290275000.0 1.51934814453125 0.66265869140625
5321496875.0 1.49029541015625 -0.42919921875
5352718750.0 0.91973876953125 -1.1510009765625
5383940625.0 0.09783935546875 -1.4962158203125
5415162500.0 -0.898681640625 -1.28192138671875
5446384375.0 -1.4803466796875 -0.37115478515625
5477606250.0 -1.2974853515625 0.56494140625
5508828125.0 -0.7308349609375 1.1495361328125
5540050000.0 0.05328369140625 1.39666748046875
5571271875.0 0.93634033203125 1.10748291015625
5602493750.0 1.40618896484375 0.2603759765625
5633715625.0 1.2305908203125 -0.61083984375
5664937500.0 0.64813232421875 -1.1981201171875
5696159375.0 -0.19659423828125 -1.38189697265625
5727381250.0 -1.02069091796875 -0.97747802734375
5758603125.0 -1.38958740234375 -0.145263671875
5789825000.0 -1.1927490234375 0.7164306640625
5821046875.0 -0.506103515625 1.305419921875
5852268750.0 0.41033935546875 1.31097412109375
5883490625.0 1.0692138671875 0.7716064453125
5914712500.0 1.3006591796875 0.01995849609375
5945934375.0 1.0953369140625 -0.77435302734375
5977156250.0 0.361328125 -1.30987548828125
6008378125.0 -0.5086669921875 -1.1810302734375
6039600000.0 -1.02044677734375 -0.6485595703125
6070821875.0 -1.221435546875 -0.00579833984375
6102043750.0 -1.0819091796875 0.7608642578125
6133265625.0 -0.34210205078125 1.34344482421875
6164487500.0 0.5623779296875 1.18658447265625
6195709375.0 1.06890869140625 0.629638671875
6226931250.0 1.27789306640625 -0.042236328125
6258153125.0 1.103515625 -0.86871337890625
6289375000.0 0.25616455078125 -1.4444580078125
6320596875.0 -0.688720703125 -1.20501708984375
6351818750.0 -1.1982421875 -0.572021484375
6383040625.0 -1.352783203125 0.2054443359375
6414262500.0 -0.99884033203125 1.05548095703125
6445484375.0 -0.07843017578125 1.45526123046875
6476706250.0 0.7933349609375 1.146728515625
6507928125.0 1.28955078125 0.46929931640625
6539150000.0 1.34576416015625 -0.38507080078125
6570371875.0 0.84088134765625 -1.14141845703125
6601593750.0 -0.0174560546875 -1.403564453125
6632815625.0 -0.837646484375 -1.13531494140625
6664037500.0 -1.399169921875 -0.420166015625
6695259375.0 -1.3721923828125 0.56536865234375
6726481250.0 -0.709716796875 1.25042724609375
6757703125.0 0.1300048828125 1.40509033203125
6788925000.0 0.9537353515625 1.12945556640625
6820146875.0 1.55828857421875 0.2886962890625
6851368750.0 1.3240966796875 -0.81707763671875
6882590625.0 0.50616455078125 -1.33697509765625
6913812500.0 -0.2911376953125 -1.35467529296875
6945034375.0 -1.06939697265625 -1.02117919921875
6976256250.0 -1.5902099609375 -0.09381103515625
7007478125.0 -1.234619140625 0.93011474609375
7038700000.0 -0.40283203125 1.33837890625
7069921875.0 0.35931396484375 1.32159423828125
7101143750.0 1.1163330078125 0.96697998046875
7132365625.0 1.59674072265625 0.0155029296875
7163587500.0 1.15576171875 -1.02032470703125
7194809375.0 0.30352783203125 -1.39337158203125
7226031250.0 -0.510986328125 -1.323486328125
7257253125.0 -1.2659912109375 -0.82440185546875
7288475000.0 -1.55596923828125 0.19659423828125
7319696875.0 -1.028076171875 1.1068115234375
7350918750.0 -0.1634521484375 1.44195556640625
7382140625.0 0.71368408203125 1.27496337890625
7413362500.0 1.37506103515625 0.57611083984375
7444584375.0 1.41015625 -0.405029296875
7475806250.0 0.857177734375 -1.1416015625
7507028125.0 0.0048828125 -1.4293212890625
7538250000.0 -0.8846435546875 -1.12286376953125
7569471875.0 -1.3348388671875 -0.31060791015625
7600693750.0 -1.20123291015625 0.495361328125
7631915625.0 -0.71759033203125 1.083740234375
7663137500.0 0.07989501953125 1.3560791015625
7694359375.0 0.938323974609375 0.979095458984375
7725581250.0 1.24139404296875 0.1817626953125
7756803125.0 1.08197021484375 -0.49761962890625
7788025000.0 0.66998291015625 -1.04095458984375
7819246875.0 -0.11895751953125 -1.34552001953125
7850468750.0 -0.990447998046875 -0.91522216796875
7881690625.0 -1.230712890625 -0.10491943359375
7912912500.0 -1.05364990234375 0.5521240234375
7944134375.0 -0.6043701171875 1.11138916015625
7975356250.0 0.27008056640625 1.3330078125
8006578125.0 1.0460205078125 0.77850341796875
8037800000.0 1.1922607421875 0.01654052734375
8069021875.0 1.0067138671875 -0.61676025390625
8100243750.0 0.50067138671875 -1.16033935546875
8131465625.0 -0.3853759765625 -1.25274658203125
8162687500.0 -1.0302734375 -0.68658447265625
8193909375.0 -1.18048095703125 0.00872802734375
8225131250.0 -1.01654052734375 0.67547607421875
8256353125.0 -0.4215087890625 1.24609375
8287575000.0 0.500244140625 1.2239990234375
8318796875.0 1.0797119140625 0.63629150390625
8350018750.0 1.24188232421875 -0.07342529296875
8381240625.0 1.0306396484375 -0.837158203125
8412462500.0 0.25445556640625 -1.3707275390625
8443684375.0 -0.66754150390625 -1.1695556640625
8474906250.0 -1.17254638671875 -0.53253173828125
8506128125.0 -1.29638671875 0.2366943359375
8537350000.0 -0.9244384765625 1.04339599609375
8568571875.0 -0.01739501953125 1.39215087890625
8599793750.0 0.80047607421875 1.05206298828125
8631015625.0 1.2388916015625 0.39886474609375
8662237500.0 1.2845458984375 -0.42877197265625
8693459375.0 0.73529052734375 -1.17889404296875
8724681250.0 -0.16107177734375 -1.32940673828125
8755903125.0 -0.879119873046875 -0.956939697265625
8787125000.0 -1.30230712890625 -0.28192138671875
8818346875.0 -1.25048828125 0.6146240234375
8849568750.0 -0.55682373046875 1.25830078125
8880790625.0 0.2977294921875 1.28387451171875
8912012500.0 0.97869873046875 0.89215087890625
8943234375.0 1.39654541015625 0.13031005859375
8974456250.0 1.16644287109375 -0.8365478515625
9005678125.0 0.3494873046875 -1.310302734375
9036900000.0 -0.443115234375 -1.2236328125
9068121875.0 -1.099609375 -0.7852783203125
9099343750.0 -1.43817138671875 0.0958251953125
9130565625.0 -0.9798583984375 1.01116943359375
9161787500.0 -0.1561279296875 1.2816162109375
9193009375.0 0.55279541015625 1.13330078125
9224231250.0 1.17877197265625 0.6544189453125
9255453125.0 1.39678955078125 -0.2940673828125
9286675000.0 0.8057861328125 -1.08404541015625
9317896875.0 0.0279541015625 -1.245849609375
9349118750.0 -0.65313720703125 -1.0699462890625
9380340625.0 -1.25494384765625 -0.5098876953125
9411562500.0 -1.3106689453125 0.476806640625
9442784375.0 -0.6470947265625 1.1162109375
9474006250.0 0.0894775390625 1.21240234375
9505228125.0 0.7645263671875 0.98016357421875
9536450000.0 1.27398681640625 0.31292724609375
9567671875.0 1.144287109375 -0.57952880859375
9598893750.0 0.52960205078125 -1.06781005859375
9630115625.0 -0.14154052734375 -1.15576171875
9661337500.0 -0.815765380859375 -0.90106201171875
9692559375.0 -1.23834228515625 -0.18963623046875
9723781250.0 -1.04327392578125 0.6031494140625
9755003125.0 -0.48577880859375 1.048828125
9786225000.0 0.19757080078125 1.158203125
9817446875.0 0.893890380859375 0.827606201171875
9848668750.0 1.1978759765625 0.07781982421875
9879890625.0 0.968109130859375 -0.6156005859375
9911112500.0 0.4542236328125 -1.048583984375
9942334375.0 -0.266357421875 -1.15863037109375
9973556250.0 -0.943634033203125 -0.7384033203125
10004778125.0 -1.14569091796875 -0.0179443359375
10036000000.0 -0.943115234375 0.61529541015625
10067221875.0 -0.44232177734375 1.094482421875
10098443750.0 0.36798095703125 1.180419921875
10129665625.0 1.001220703125 0.64288330078125
10160887500.0 1.119140625 -0.05078125
10192109375.0 0.91650390625 -0.661651611328125
10223331250.0 0.3607177734375 -1.15252685546875
10254553125.0 -0.4847412109375 -1.11334228515625
10285775000.0 -0.985015869140625 -0.535552978515625
10316996875.0 -1.06719970703125 0.07684326171875
10348218750.0 -0.90008544921875 0.668914794921875
10379440625.0 -0.32269287109375 1.174072265625
10410662500.0 0.52532958984375 1.08514404296875
10441884375.0 0.990203857421875 0.521331787109375
10473106250.0 1.107421875 -0.082763671875
10504328125.0 0.94830322265625 -0.7552490234375
10535550000.0 0.24017333984375 -1.29266357421875
10566771875.0 -0.6561279296875 -1.07672119140625
10597993750.0 -1.0792236328125 -0.459228515625
10629215625.0 -1.1732177734375 0.20355224609375
10660437500.0 -0.886749267578125 0.951080322265625
10691659375.0 -0.0089111328125 1.33575439453125
10722881250.0 0.783050537109375 0.95196533203125
10754103125.0 1.1187744140625 0.32476806640625
10785325000.0 1.13787841796875 -0.36529541015625
10816546875.0 0.70111083984375 -1.04644775390625
10847768750.0 -0.14373779296875 -1.228759765625
10878990625.0 -0.8018798828125 -0.844146728515625
10910212500.0 -1.1212158203125 -0.2457275390625
10941434375.0 -1.096923828125 0.4764404296875
10972656250.0 -0.568603515625 1.08209228515625
11003878125.0 0.21783447265625 1.17364501953125
11035100000.0 0.845550537109375 0.82159423828125
11066321875.0 1.21966552734375 0.173828125
11097543750.0 1.09783935546875 -0.6761474609375
11128765625.0 0.38604736328125 -1.1968994140625
11159987500.0 -0.39508056640625 -1.13983154296875
11191209375.0 -0.998626708984375 -0.702606201171875
11222431250.0 -1.2703857421875 0.0919189453125
11253653125.0 -0.85870361328125 0.894439697265625
11284875000.0 -0.11505126953125 1.1263427734375
11316096875.0 0.509979248046875 0.956024169921875
11347318750.0 1.00177001953125 0.502197265625
11378540625.0 1.1165771484375 -0.268310546875
11409762500.0 0.63482666015625 -0.8592529296875
11440984375.0 0.036285400390625 -0.977752685546875
11472206250.0 -0.47979736328125 -0.8497314453125
11503428125.0 -0.9515380859375 -0.4560546875
11534650000.0 -1.0677490234375 0.28759765625
11565871875.0 -0.60211181640625 0.854339599609375
11597093750.0 -0.0191650390625 0.9908447265625
11628315625.0 0.54400634765625 0.875
11659537500.0 1.05767822265625 0.39288330078125
11690759375.0 1.06402587890625 -0.4326171875
11721981250.0 0.516510009765625 -0.9407958984375
11753203125.0 -0.1053466796875 -1.03546142578125
11784425000.0 -0.723480224609375 -0.80828857421875
11815646875.0 -1.1002197265625 -0.15106201171875
11846868750.0 -0.89117431640625 0.549468994140625
11878090625.0 -0.391265869140625 0.907745361328125
11909312500.0 0.18603515625 0.983734130859375
11940534375.0 0.77911376953125 0.695648193359375
11971756250.0 1.024169921875 0.03955078125
12002978125.0 0.806060791015625 -0.53692626953125
12034200000.0 0.381744384765625 -0.8890380859375
12065421875.0 -0.21453857421875 -1.009033203125
12096643750.0 -0.846649169921875 -0.664794921875
12127865625.0 -1.03289794921875 0.0150146484375
12159087500.0 -0.815765380859375 0.5750732421875
12190309375.0 -0.3775634765625 0.975250244140625
12221531250.0 0.33770751953125 1.08673095703125
12252753125.0 0.978912353515625 0.5811767578125
12283975000.0 1.0543212890625 -0.12744140625
12315196875.0 0.80023193359375 -0.67498779296875
12346418750.0 0.28125 -1.0911865234375
12377640625.0 -0.5357666015625 -1.05853271484375
12408862500.0 -1.0316162109375 -0.41998291015625
12440084375.0 -1.0067138671875 0.22296142578125
12471306250.0 -0.74212646484375 0.737548828125
12502528125.0 -0.18023681640625 1.119140625
12533750000.0 0.62139892578125 0.99407958984375
12564971875.0 1.0399169921875 0.3651123046875
12596193750.0 1.03009033203125 -0.26422119140625
12627415625.0 0.747406005859375 -0.827667236328125
12658637500.0 0.08013916015625 -1.20574951171875
12689859375.0 -0.735076904296875 -0.964630126953125
12721081250.0 -1.11468505859375 -0.306884765625
12752303125.0 -1.0985107421875 0.3828125
12783525000.0 -0.68682861328125 1.02899169921875
12814746875.0 0.16357421875 1.2489013671875
12845968750.0 0.86151123046875 0.811126708984375
12877190625.0 1.11669921875 0.17156982421875
12908412500.0 1.05535888671875 -0.501953125
12939634375.0 0.542236328125 -1.11737060546875
12970856250.0 -0.3194580078125 -1.1744384765625
13002078125.0 -0.891876220703125 -0.694610595703125
13033300000.0 -1.103515625 -0.08734130859375
13064521875.0 -1.00933837890625 0.5931396484375
13095743750.0 -0.420654296875 1.15185546875
13126965625.0 0.40966796875 1.119140625
13158187500.0 0.945098876953125 0.63232421875
13189409375.0 1.1475830078125 -0.02117919921875
13220631250.0 0.936553955078125 -0.74798583984375
13251853125.0 0.23565673828125 -1.17047119140625
13283075000.0 -0.50543212890625 -1.0186767578125
13314296875.0 -0.9862060546875 -0.529144287109375
13345518750.0 -1.13336181640625 0.17669677734375
