!Created with skrf (http://scikit-rf.org).
# Hz S RI R 50.0 
!freq ReS11 ImS11
45000000.0 -0.07694625854492188 -0.09688568115234375
76221875.0 -0.1961822509765625 -0.047607421875
107443750.0 -0.2548370361328125 0.1193695068359375
138665625.0 -0.1482086181640625 0.3283538818359375
169887500.0 0.1234130859375 0.41693115234375
201109375.0 0.4214324951171875 0.2806396484375
232331250.0 0.578460693359375 -0.057342529296875
263553125.0 0.489227294921875 -0.452606201171875
294775000.0 0.098602294921875 -0.73193359375
325996875.0 -0.41485595703125 -0.67987060546875
357218750.0 -0.805328369140625 -0.29693603515625
388440625.0 -0.884552001953125 0.300048828125
419662500.0 -0.5167236328125 0.86529541015625
450884375.0 0.17279052734375 1.027587890625
482106250.0 0.797515869140625 0.71197509765625
513328125.0 1.1180419921875 0.0872802734375
544550000.0 1.00286865234375 -0.67913818359375
575771875.0 0.33648681640625 -1.2369384765625
606993750.0 -0.55322265625 -1.17626953125
638215625.0 -1.1644287109375 -0.59002685546875
669437500.0 -1.33837890625 0.2333984375
700659375.0 -0.97003173828125 1.09503173828125
731881250.0 -0.00372314453125 1.5413818359375
763103125.0 1.00433349609375 1.15460205078125
794325000.0 1.46728515625 0.28131103515625
825546875.0 1.36541748046875 -0.6505126953125
856768750.0 0.7938232421875 -1.3988037109375
887990625.0 -0.2918701171875 -1.64617919921875
919212500.0 -1.2860107421875 -1.077392578125
950434375.0 -1.64581298828125 -0.059326171875
981656250.0 -1.38067626953125 0.944091796875
1012878125.0 -0.52947998046875 1.66900634765625
1044100000.0 0.69525146484375 1.65924072265625
1075321875.0 1.57208251953125 0.81097412109375
1106543750.0 1.70159912109375 -0.31158447265625
1137765625.0 1.18487548828125 -1.28179931640625
1168987500.0 0.1385498046875 -1.793701171875
1200209375.0 -1.05987548828125 -1.48150634765625
1231431250.0 -1.7247314453125 -0.452880859375
1262653125.0 -1.59185791015625 0.68365478515625
1293875000.0 -0.850830078125 1.48870849609375
1325096875.0 0.2276611328125 1.7041015625
1356318750.0 1.2335205078125 1.21466064453125
1387540625.0 1.73724365234375 0.188720703125
1418762500.0 1.4669189453125 -0.94976806640625
1449984375.0 0.528564453125 -1.62322998046875
1481206250.0 -0.5489501953125 -1.553466796875
1512428125.0 -1.3397216796875 -0.9183349609375
1543650000.0 -1.65301513671875 0.06475830078125
1574871875.0 -1.27142333984375 1.1068115234375
1606093750.0 -0.27264404296875 1.62908935546875
1637315625.0 0.74078369140625 1.39801025390625
1668537500.0 1.3939208984375 0.69488525390625
1699759375.0 1.5709228515625 -0.27679443359375
1730981250.0 1.0623779296875 -1.22711181640625
1762203125.0 0.04229736328125 -1.56817626953125
1793425000.0 -0.85394287109375 -1.224609375
1824646875.0 -1.39093017578125 -0.5147705078125
1855868750.0 -1.471923828125 0.43145751953125
1887090625.0 -0.87353515625 1.282958984375
1918312500.0 0.11712646484375 1.48455810546875
1949534375.0 0.92034912109375 1.08746337890625
1980756250.0 1.37261962890625 0.3697509765625
2011978125.0 1.35760498046875 -0.53033447265625
2043200000.0 0.74884033203125 -1.25933837890625
2074421875.0 -0.1563720703125 -1.43084716796875
2105643750.0 -0.95855712890625 -1.07080078125
2136865625.0 -1.4447021484375 -0.30487060546875
2168087500.0 -1.35516357421875 0.670166015625
2199309375.0 -0.63824462890625 1.34869384765625
2230531250.0 0.28131103515625 1.4342041015625
2261753125.0 1.07086181640625 1.01214599609375
2292975000.0 1.51214599609375 0.16973876953125
2324196875.0 1.3038330078125 -0.8179931640625
2355418750.0 0.52447509765625 -1.4178466796875
2386640625.0 -0.40362548828125 -1.4466552734375
2417862500.0 -1.17816162109375 -1.0228271484375
2449084375.0 -1.60247802734375 -0.08404541015625
2480306250.0 -1.309326171875 0.92291259765625
2511528125.0 -0.49359130859375 1.5045166015625
2542750000.0 0.48675537109375 1.53350830078125
2573971875.0 1.3673095703125 0.96649169921875
2605193750.0 1.71343994140625 -0.11163330078125
2636415625.0 1.259033203125 -1.15081787109375
2667637500.0 0.30621337890625 -1.6639404296875
2698859375.0 -0.76751708984375 -1.53125
2730081250.0 -1.57049560546875 -0.73944091796875
2761303125.0 -1.67730712890625 0.38616943359375
2792525000.0 -1.09735107421875 1.3037109375
2823746875.0 -0.1029052734375 1.72515869140625
2854968750.0 1.0103759765625 1.453369140625
2886190625.0 1.68780517578125 0.4912109375
2917412500.0 1.59710693359375 -0.6165771484375
2948634375.0 0.93768310546875 -1.42919921875
2979856250.0 -0.10675048828125 -1.77166748046875
3011078125.0 -1.24560546875 -1.339599609375
3042300000.0 -1.7713623046875 -0.2347412109375
3073521875.0 -1.50555419921875 0.83563232421875
3104743750.0 -0.7628173828125 1.56494140625
3135965625.0 0.36041259765625 1.80609130859375
3167187500.0 1.4949951171875 1.16253662109375
3198409375.0 1.81158447265625 -0.0740966796875
3229631250.0 1.34576416015625 -1.07891845703125
3260853125.0 0.488525390625 -1.66455078125
3292075000.0 -0.65380859375 -1.69476318359375
3323296875.0 -1.61578369140625 -0.878173828125
3354518750.0 -1.7265625 0.32708740234375
3385740625.0 -1.154052734375 1.22869873046875
3416962500.0 -0.23162841796875 1.67755126953125
3448184375.0 0.85784912109375 1.51849365234375
3479406250.0 1.63116455078125 0.6431884765625
3510628125.0 1.64019775390625 -0.4927978515625
3541850000.0 0.9984130859375 -1.3524169921875
3573071875.0 -0.007080078125 -1.67950439453125
3604293750.0 -1.02447509765625 -1.33465576171875
3635515625.0 -1.6243896484375 -0.43798828125
3666737500.0 -1.5582275390625 0.64434814453125
3697959375.0 -0.8240966796875 1.47149658203125
3729181250.0 0.26708984375 1.627685546875
3760403125.0 1.14947509765625 1.09637451171875
3791625000.0 1.5496826171875 0.21728515625
3822846875.0 1.39910888671875 -0.7584228515625
3854068750.0 0.619873046875 -1.477294921875
3885290625.0 -0.4197998046875 -1.47845458984375
3916512500.0 -1.138916015625 -0.90948486328125
3947734375.0 -1.44439697265625 -0.1202392578125
3978956250.0 -1.295166015625 0.77740478515625
4010178125.0 -0.531494140625 1.450927734375
4041400000.0 0.47149658203125 1.412353515625
4072621875.0 1.1502685546875 0.846923828125
4103843750.0 1.4423828125 0.06292724609375
4135065625.0 1.2657470703125 -0.8436279296875
4166287500.0 0.457275390625 -1.492919921875
4197509375.0 -0.5548095703125 -1.4119873046875
4228731250.0 -1.2452392578125 -0.80224609375
4259953125.0 -1.50567626953125 0.0692138671875
4291175000.0 -1.1866455078125 1.00811767578125
4322396875.0 -0.289794921875 1.523193359375
4353618750.0 0.67144775390625 1.347900390625
4384840625.0 1.318115234375 0.69610595703125
4416062500.0 1.498046875 -0.22576904296875
4447284375.0 1.05352783203125 -1.100830078125
4478506250.0 0.1728515625 -1.49200439453125
4509728125.0 -0.729736328125 -1.30535888671875
4540950000.0 -1.39202880859375 -0.63525390625
4572171875.0 -1.51959228515625 0.35821533203125
4603393750.0 -0.97149658203125 1.209716796875
4634615625.0 -0.06109619140625 1.534912109375
4665837500.0 0.867919921875 1.30224609375
4697059375.0 1.53875732421875 0.51568603515625
4728281250.0 1.5267333984375 -0.58050537109375
4759503125.0 0.82208251953125 -1.3646240234375
4790725000.0 -0.145263671875 -1.5699462890625
4821946875.0 -1.0826416015625 -1.19219970703125
4853168750.0 -1.61041259765625 -0.2509765625
4884390625.0 -1.37554931640625 0.79052734375
4915612500.0 -0.61279296875 1.40985107421875
4946834375.0 0.32708740234375 1.50677490234375
4978056250.0 1.20208740234375 1.015869140625
5009278125.0 1.5589599609375 0.03961181640625
5040500000.0 1.22747802734375 -0.87371826171875
5071721875.0 0.5015869140625 -1.41162109375
5102943750.0 -0.44598388671875 -1.4951171875
5134165625.0 -1.3331298828125 -0.90478515625
5165387500.0 -1.5660400390625 0.14532470703125
5196609375.0 -1.13482666015625 1.00762939453125
5227831250.0 -0.35748291015625 1.50384521484375
5259053125.0 0.685791015625 1.49041748046875
5290275000.0 1.51885986328125 0.66265869140625
5321496875.0 1.490234375 -0.429931640625
5352718750.0 0.9197998046875 -1.1510009765625
5383940625.0 0.09765625 -1.49676513671875
5415162500.0 -0.8983154296875 -1.28240966796875
5446384375.0 -1.4814453125 -0.370361328125
5477606250.0 -1.297607421875 0.56500244140625
5508828125.0 -0.73016357421875 1.14947509765625
5540050000.0 0.05316162109375 1.39593505859375
5571271875.0 0.9364013671875 1.10711669921875
5602493750.0 1.40655517578125 0.25970458984375
5633715625.0 1.2301025390625 -0.60992431640625
5664937500.0 0.64752197265625 -1.19927978515625
5696159375.0 -0.195556640625 -1.3812255859375
5727381250.0 -1.02008056640625 -0.97747802734375
5758603125.0 -1.38916015625 -0.1455078125
5789825000.0 -1.1925048828125 0.7158203125
5821046875.0 -0.50604248046875 1.30548095703125
5852268750.0 0.40997314453125 1.3109130859375
5883490625.0 1.07012939453125 0.77130126953125
5914712500.0 1.29949951171875 0.02093505859375
5945934375.0 1.09490966796875 -0.7738037109375
5977156250.0 0.36163330078125 -1.3095703125
6008378125.0 -0.50750732421875 -1.18084716796875
6039600000.0 -1.01959228515625 -0.64874267578125
6070821875.0 -1.22210693359375 -0.00543212890625
6102043750.0 -1.0816650390625 0.760009765625
6133265625.0 -0.34210205078125 1.3419189453125
6164487500.0 0.5616455078125 1.18585205078125
6195709375.0 1.06915283203125 0.6298828125
6226931250.0 1.27789306640625 -0.0421142578125
6258153125.0 1.10321044921875 -0.86962890625
6289375000.0 0.25677490234375 -1.4429931640625
6320596875.0 -0.688232421875 -1.2047119140625
6351818750.0 -1.1976318359375 -0.57196044921875
6383040625.0 -1.3526611328125 0.206298828125
6414262500.0 -0.9989013671875 1.05511474609375
6445484375.0 -0.0794677734375 1.45391845703125
6476706250.0 0.79364013671875 1.14666748046875
6507928125.0 1.289306640625 0.46966552734375
6539150000.0 1.3460693359375 -0.38519287109375
6570371875.0 0.84063720703125 -1.14117431640625
6601593750.0 -0.01690673828125 -1.40277099609375
6632815625.0 -0.83782958984375 -1.135009765625
6664037500.0 -1.3994140625 -0.42010498046875
6695259375.0 -1.371826171875 0.56524658203125
6726481250.0 -0.7098388671875 1.2486572265625
6757703125.0 0.1297607421875 1.40472412109375
6788925000.0 0.95330810546875 1.12982177734375
6820146875.0 1.5574951171875 0.28790283203125
6851368750.0 1.32415771484375 -0.8177490234375
6882590625.0 0.50579833984375 -1.33642578125
6913812500.0 -0.29132080078125 -1.3544921875
6945034375.0 -1.06781005859375 -1.020263671875
6976256250.0 -1.59088134765625 -0.09405517578125
7007478125.0 -1.235595703125 0.93011474609375
7038700000.0 -0.4014892578125 1.341552734375
7069921875.0 0.3572998046875 1.321044921875
7101143750.0 1.1170654296875 0.9676513671875
7132365625.0 1.59759521484375 0.01580810546875
7163587500.0 1.15618896484375 -1.0166015625
7194809375.0 0.30303955078125 -1.395263671875
7226031250.0 -0.51104736328125 -1.32513427734375
7257253125.0 -1.262939453125 -0.82354736328125
7288475000.0 -1.55645751953125 0.19610595703125
7319696875.0 -1.0291748046875 1.10693359375
7350918750.0 -0.164794921875 1.441650390625
7382140625.0 0.71533203125 1.2745361328125
7413362500.0 1.37518310546875 0.5758056640625
7444584375.0 1.4083251953125 -0.40545654296875
7475806250.0 0.85711669921875 -1.1416015625
7507028125.0 0.0069580078125 -1.42681884765625
7538250000.0 -0.883544921875 -1.12188720703125
7569471875.0 -1.33380126953125 -0.3115234375
7600693750.0 -1.2005615234375 0.4947509765625
7631915625.0 -0.7161865234375 1.08380126953125
7663137500.0 0.07965087890625 1.35595703125
7694359375.0 0.936676025390625 0.979888916015625
7725581250.0 1.2410888671875 0.1817626953125
7756803125.0 1.08258056640625 -0.49755859375
7788025000.0 0.6695556640625 -1.0433349609375
7819246875.0 -0.1190185546875 -1.34515380859375
7850468750.0 -0.992218017578125 -0.91558837890625
7881690625.0 -1.230224609375 -0.1046142578125
7912912500.0 -1.05352783203125 0.55364990234375
7944134375.0 -0.605712890625 1.1099853515625
7975356250.0 0.26837158203125 1.3311767578125
8006578125.0 1.04302978515625 0.77783203125
8037800000.0 1.192626953125 0.01611328125
8069021875.0 1.0054931640625 -0.6158447265625
8100243750.0 0.499755859375 -1.16015625
8131465625.0 -0.3856201171875 -1.25225830078125
8162687500.0 -1.0303955078125 -0.686767578125
8193909375.0 -1.17974853515625 0.00830078125
8225131250.0 -1.0164794921875 0.6763916015625
8256353125.0 -0.42108154296875 1.2467041015625
8287575000.0 0.49945068359375 1.22503662109375
8318796875.0 1.08148193359375 0.63531494140625
8350018750.0 1.24420166015625 -0.0762939453125
8381240625.0 1.0308837890625 -0.83856201171875
8412462500.0 0.25537109375 -1.37109375
8443684375.0 -0.6656494140625 -1.16796875
8474906250.0 -1.17218017578125 -0.53143310546875
8506128125.0 -1.2952880859375 0.23541259765625
8537350000.0 -0.9234619140625 1.0457763671875
8568571875.0 -0.01617431640625 1.39251708984375
8599793750.0 0.79925537109375 1.05206298828125
8631015625.0 1.23895263671875 0.399658203125
8662237500.0 1.2841796875 -0.42706298828125
8693459375.0 0.73583984375 -1.176025390625
8724681250.0 -0.16265869140625 -1.33062744140625
8755903125.0 -0.87823486328125 -0.956817626953125
8787125000.0 -1.30072021484375 -0.28228759765625
8818346875.0 -1.25115966796875 0.61328125
8849568750.0 -0.5565185546875 1.25927734375
8880790625.0 0.29852294921875 1.28472900390625
8912012500.0 0.97955322265625 0.891357421875
8943234375.0 1.3978271484375 0.12872314453125
8974456250.0 1.1650390625 -0.83563232421875
9005678125.0 0.34912109375 -1.3111572265625
9036900000.0 -0.4447021484375 -1.223876953125
9068121875.0 -1.1002197265625 -0.7847900390625
9099343750.0 -1.43817138671875 0.09576416015625
9130565625.0 -0.97930908203125 1.00970458984375
9161787500.0 -0.156494140625 1.278564453125
9193009375.0 0.55255126953125 1.132080078125
9224231250.0 1.17889404296875 0.65435791015625
9255453125.0 1.3970947265625 -0.2950439453125
9286675000.0 0.8065185546875 -1.08367919921875
9317896875.0 0.02923583984375 -1.2440185546875
9349118750.0 -0.65374755859375 -1.0693359375
9380340625.0 -1.2569580078125 -0.5101318359375
9411562500.0 -1.30999755859375 0.474365234375
9442784375.0 -0.6478271484375 1.1131591796875
9474006250.0 0.08734130859375 1.20916748046875
9505228125.0 0.763702392578125 0.97918701171875
9536450000.0 1.27099609375 0.314697265625
9567671875.0 1.1429443359375 -0.5787353515625
9598893750.0 0.52996826171875 -1.06756591796875
9630115625.0 -0.1416015625 -1.1556396484375
9661337500.0 -0.81427001953125 -0.901336669921875
9692559375.0 -1.2364501953125 -0.19110107421875
9723781250.0 -1.0433349609375 0.603515625
9755003125.0 -0.48553466796875 1.04864501953125
9786225000.0 0.197021484375 1.15655517578125
9817446875.0 0.893463134765625 0.828155517578125
9848668750.0 1.19635009765625 0.0789794921875
9879890625.0 0.9676513671875 -0.615692138671875
9911112500.0 0.45306396484375 -1.04901123046875
9942334375.0 -0.26580810546875 -1.15716552734375
9973556250.0 -0.941925048828125 -0.73883056640625
10004778125.0 -1.14398193359375 -0.019287109375
10036000000.0 -0.943206787109375 0.613616943359375
10067221875.0 -0.4417724609375 1.09405517578125
10098443750.0 0.3682861328125 1.17999267578125
10129665625.0 1.0001220703125 0.6435546875
10160887500.0 1.11846923828125 -0.05059814453125
10192109375.0 0.9171142578125 -0.661468505859375
10223331250.0 0.36181640625 -1.1510009765625
10254553125.0 -0.4833984375 -1.113037109375
10285775000.0 -0.98236083984375 -0.535858154296875
10316996875.0 -1.06610107421875 0.07623291015625
10348218750.0 -0.89990234375 0.668701171875
10379440625.0 -0.32257080078125 1.17376708984375
10410662500.0 0.5262451171875 1.08465576171875
10441884375.0 0.988494873046875 0.52154541015625
10473106250.0 1.10736083984375 -0.0831298828125
10504328125.0 0.948394775390625 -0.754150390625
10535550000.0 0.24005126953125 -1.29345703125
10566771875.0 -0.65692138671875 -1.0762939453125
10597993750.0 -1.078369140625 -0.459716796875
10629215625.0 -1.175048828125 0.2054443359375
10660437500.0 -0.88720703125 0.951629638671875
10691659375.0 -0.0101318359375 1.334228515625
10722881250.0 0.783294677734375 0.952056884765625
10754103125.0 1.1177978515625 0.32476806640625
10785325000.0 1.1375732421875 -0.36578369140625
10816546875.0 0.70025634765625 -1.0462646484375
10847768750.0 -0.1429443359375 -1.22747802734375
10878990625.0 -0.80126953125 -0.8433837890625
10910212500.0 -1.12188720703125 -0.246337890625
10941434375.0 -1.0965576171875 0.4749755859375
10972656250.0 -0.5684814453125 1.0836181640625
11003878125.0 0.2159423828125 1.17401123046875
11035100000.0 0.84490966796875 0.8214111328125
11066321875.0 1.2197265625 0.174072265625
11097543750.0 1.09820556640625 -0.6766357421875
11128765625.0 0.38629150390625 -1.1964111328125
11159987500.0 -0.3955078125 -1.139404296875
11191209375.0 -0.99774169921875 -0.702301025390625
11222431250.0 -1.2708740234375 0.09185791015625
11253653125.0 -0.8590087890625 0.891387939453125
11284875000.0 -0.11553955078125 1.12554931640625
11316096875.0 0.51055908203125 0.95587158203125
11347318750.0 1.0006103515625 0.50225830078125
11378540625.0 1.11572265625 -0.26739501953125
11409762500.0 0.634918212890625 -0.857696533203125
11440984375.0 0.0364990234375 -0.976531982421875
11472206250.0 -0.480621337890625 -0.85003662109375
11503428125.0 -0.9522705078125 -0.456390380859375
11534650000.0 -1.06829833984375 0.28790283203125
11565871875.0 -0.602935791015625 0.854156494140625
11597093750.0 -0.01885986328125 0.99017333984375
11628315625.0 0.542327880859375 0.874176025390625
11659537500.0 1.05755615234375 0.393798828125
11690759375.0 1.0638427734375 -0.43115234375
11721981250.0 0.517181396484375 -0.941314697265625
11753203125.0 -0.104736328125 -1.0357666015625
11784425000.0 -0.723114013671875 -0.808013916015625
11815646875.0 -1.1002197265625 -0.15155029296875
11846868750.0 -0.89068603515625 0.550384521484375
11878090625.0 -0.391326904296875 0.9073486328125
11909312500.0 0.186859130859375 0.983734130859375
11940534375.0 0.779571533203125 0.6949462890625
11971756250.0 1.0238037109375 0.04168701171875
12002978125.0 0.805877685546875 -0.5374755859375
12034200000.0 0.38360595703125 -0.88653564453125
12065421875.0 -0.21319580078125 -1.00811767578125
12096643750.0 -0.845489501953125 -0.665557861328125
12127865625.0 -1.03265380859375 0.01641845703125
12159087500.0 -0.814483642578125 0.573699951171875
12190309375.0 -0.3773193359375 0.9732666015625
12221531250.0 0.33782958984375 1.0865478515625
12252753125.0 0.97857666015625 0.581268310546875
12283975000.0 1.052978515625 -0.1259765625
12315196875.0 0.800933837890625 -0.674896240234375
12346418750.0 0.28131103515625 -1.0914306640625
12377640625.0 -0.5352783203125 -1.05975341796875
12408862500.0 -1.03326416015625 -0.42034912109375
12440084375.0 -1.00775146484375 0.2244873046875
12471306250.0 -0.74127197265625 0.736419677734375
12502528125.0 -0.18072509765625 1.1175537109375
12533750000.0 0.618255615234375 0.993743896484375
12564971875.0 1.04022216796875 0.364501953125
12596193750.0 1.0291748046875 -0.263916015625
12627415625.0 0.74761962890625 -0.82568359375
12658637500.0 0.07904052734375 -1.206787109375
12689859375.0 -0.73486328125 -0.96612548828125
12721081250.0 -1.11639404296875 -0.30645751953125
12752303125.0 -1.09588623046875 0.37994384765625
12783525000.0 -0.68707275390625 1.0255126953125
12814746875.0 0.16357421875 1.25042724609375
12845968750.0 0.861846923828125 0.810394287109375
12877190625.0 1.116455078125 0.17144775390625
12908412500.0 1.0543212890625 -0.50048828125
12939634375.0 0.5426025390625 -1.115478515625
12970856250.0 -0.32025146484375 -1.17425537109375
13002078125.0 -0.89337158203125 -0.69390869140625
13033300000.0 -1.10540771484375 -0.08734130859375
13064521875.0 -1.00921630859375 0.59112548828125
13095743750.0 -0.42144775390625 1.15252685546875
13126965625.0 0.406982421875 1.12005615234375
13158187500.0 0.9453125 0.6319580078125
13189409375.0 1.14813232421875 -0.02056884765625
13220631250.0 0.93603515625 -0.7470703125
13251853125.0 0.23455810546875 -1.16973876953125
13283075000.0 -0.50628662109375 -1.01934814453125
13314296875.0 -0.986083984375 -0.528778076171875
13345518750.0 -1.1339111328125 0.1754150390625
