!Created with skrf (http://scikit-rf.org).
# Hz S RI R 50.0 
!freq ReS11 ImS11
45000000.0 -0.0771942138671875 -0.09670639038085938
76221875.0 -0.1966400146484375 -0.04730987548828125
107443750.0 -0.2550506591796875 0.1201934814453125
138665625.0 -0.1479644775390625 0.3288421630859375
169887500.0 0.1240234375 0.4177093505859375
201109375.0 0.4222869873046875 0.2805938720703125
232331250.0 0.5791015625 -0.058135986328125
263553125.0 0.489410400390625 -0.4535064697265625
294775000.0 0.097808837890625 -0.733154296875
325996875.0 -0.41632080078125 -0.6806640625
357218750.0 -0.80718994140625 -0.296478271484375
388440625.0 -0.885986328125 0.301788330078125
419662500.0 -0.516632080078125 0.86724853515625
450884375.0 0.17431640625 1.02923583984375
482106250.0 0.79949951171875 0.712005615234375
513328125.0 1.11981201171875 0.086181640625
544550000.0 1.00341796875 -0.6807861328125
575771875.0 0.33544921875 -1.23895263671875
606993750.0 -0.55487060546875 -1.17724609375
638215625.0 -1.1666259765625 -0.58953857421875
669437500.0 -1.33984375 0.23480224609375
700659375.0 -0.9703369140625 1.097412109375
731881250.0 -0.00244140625 1.5430908203125
763103125.0 1.00665283203125 1.155029296875
794325000.0 1.46917724609375 0.28070068359375
825546875.0 1.3671875 -0.65283203125
856768750.0 0.79351806640625 -1.40191650390625
887990625.0 -0.2943115234375 -1.648193359375
919212500.0 -1.28936767578125 -1.07806396484375
950434375.0 -1.6490478515625 -0.05767822265625
981656250.0 -1.3819580078125 0.94769287109375
1012878125.0 -0.5283203125 1.6729736328125
1044100000.0 0.69873046875 1.66168212890625
1075321875.0 1.5758056640625 0.8106689453125
1106543750.0 1.70458984375 -0.31451416015625
1137765625.0 1.18603515625 -1.28594970703125
1168987500.0 0.13653564453125 -1.7977294921875
1200209375.0 -1.0633544921875 -1.48297119140625
1231431250.0 -1.72802734375 -0.4521484375
1262653125.0 -1.5936279296875 0.68572998046875
1293875000.0 -0.85064697265625 1.49212646484375
1325096875.0 0.22955322265625 1.7061767578125
1356318750.0 1.2359619140625 1.2156982421875
1387540625.0 1.739990234375 0.18743896484375
1418762500.0 1.46868896484375 -0.9525146484375
1449984375.0 0.52813720703125 -1.626708984375
1481206250.0 -0.55084228515625 -1.55548095703125
1512428125.0 -1.3426513671875 -0.91839599609375
1543650000.0 -1.65545654296875 0.06671142578125
1574871875.0 -1.2725830078125 1.110107421875
1606093750.0 -0.27178955078125 1.63128662109375
1637315625.0 0.74322509765625 1.39984130859375
1668537500.0 1.39617919921875 0.6947021484375
1699759375.0 1.57275390625 -0.27862548828125
1730981250.0 1.06268310546875 -1.23040771484375
1762203125.0 0.04058837890625 -1.5704345703125
1793425000.0 -0.8565673828125 -1.2257080078125
1824646875.0 -1.39337158203125 -0.51416015625
1855868750.0 -1.47308349609375 0.43280029296875
1887090625.0 -0.8741455078125 1.2855224609375
1918312500.0 0.11822509765625 1.486572265625
1949534375.0 0.92218017578125 1.08856201171875
1980756250.0 1.37548828125 0.36883544921875
2011978125.0 1.35906982421875 -0.53265380859375
2043200000.0 0.74859619140625 -1.26171875
2074421875.0 -0.1580810546875 -1.43255615234375
2105643750.0 -0.96087646484375 -1.07171630859375
2136865625.0 -1.44720458984375 -0.3037109375
2168087500.0 -1.35614013671875 0.67205810546875
2199309375.0 -0.637939453125 1.35174560546875
2230531250.0 0.28289794921875 1.43572998046875
2261753125.0 1.0728759765625 1.01263427734375
2292975000.0 1.51361083984375 0.16949462890625
2324196875.0 1.3046875 -0.81951904296875
2355418750.0 0.52392578125 -1.41986083984375
2386640625.0 -0.405029296875 -1.44818115234375
2417862500.0 -1.181396484375 -1.02362060546875
2449084375.0 -1.60498046875 -0.082275390625
2480306250.0 -1.31072998046875 0.9266357421875
2511528125.0 -0.4927978515625 1.50775146484375
2542750000.0 0.49005126953125 1.53582763671875
2573971875.0 1.37158203125 0.96728515625
2605193750.0 1.71685791015625 -0.11346435546875
2636415625.0 1.26031494140625 -1.15252685546875
2667637500.0 0.30517578125 -1.66729736328125
2698859375.0 -0.771484375 -1.53350830078125
2730081250.0 -1.5740966796875 -0.7393798828125
2761303125.0 -1.6806640625 0.3897705078125
2792525000.0 -1.09808349609375 1.30743408203125
2823746875.0 -0.10064697265625 1.72906494140625
2854968750.0 1.01214599609375 1.453857421875
2886190625.0 1.69085693359375 0.49066162109375
2917412500.0 1.59918212890625 -0.61834716796875
2948634375.0 0.938232421875 -1.43304443359375
2979856250.0 -0.1094970703125 -1.776123046875
3011078125.0 -1.24798583984375 -1.3409423828125
3042300000.0 -1.7745361328125 -0.23370361328125
3073521875.0 -1.5074462890625 0.839111328125
3104743750.0 -0.761962890625 1.56890869140625
3135965625.0 0.362548828125 1.80804443359375
3167187500.0 1.49847412109375 1.1632080078125
3198409375.0 1.81439208984375 -0.07568359375
3229631250.0 1.3465576171875 -1.081787109375
3260853125.0 0.48785400390625 -1.66937255859375
3292075000.0 -0.65618896484375 -1.69696044921875
3323296875.0 -1.61932373046875 -0.87786865234375
3354518750.0 -1.72906494140625 0.33001708984375
3385740625.0 -1.15447998046875 1.2315673828125
3416962500.0 -0.23040771484375 1.6810302734375
3448184375.0 0.86041259765625 1.5201416015625
3479406250.0 1.63653564453125 0.64306640625
3510628125.0 1.643310546875 -0.495361328125
3541850000.0 0.99884033203125 -1.35552978515625
3573071875.0 -0.0093994140625 -1.6824951171875
3604293750.0 -1.0284423828125 -1.33612060546875
3635515625.0 -1.6282958984375 -0.43719482421875
3666737500.0 -1.56121826171875 0.64666748046875
3697959375.0 -0.823974609375 1.47662353515625
3729181250.0 0.2691650390625 1.62982177734375
3760403125.0 1.15338134765625 1.0968017578125
3791625000.0 1.55169677734375 0.217529296875
3822846875.0 1.40087890625 -0.76171875
3854068750.0 0.61907958984375 -1.480224609375
3885290625.0 -0.42144775390625 -1.47930908203125
3916512500.0 -1.142333984375 -0.90997314453125
3947734375.0 -1.44732666015625 -0.11883544921875
3978956250.0 -1.29608154296875 0.77862548828125
4010178125.0 -0.53045654296875 1.45343017578125
4041400000.0 0.472900390625 1.41400146484375
4072621875.0 1.15179443359375 0.8470458984375
4103843750.0 1.44378662109375 0.062744140625
4135065625.0 1.26708984375 -0.84698486328125
4166287500.0 0.45751953125 -1.49505615234375
4197509375.0 -0.55780029296875 -1.41448974609375
4228731250.0 -1.247802734375 -0.802490234375
4259953125.0 -1.50823974609375 0.07098388671875
4291175000.0 -1.187744140625 1.01025390625
4322396875.0 -0.28826904296875 1.5260009765625
4353618750.0 0.6734619140625 1.3487548828125
4384840625.0 1.32147216796875 0.69598388671875
4416062500.0 1.5 -0.22796630859375
4447284375.0 1.05401611328125 -1.102783203125
4478506250.0 0.17218017578125 -1.49432373046875
4509728125.0 -0.73284912109375 -1.30718994140625
4540950000.0 -1.393310546875 -0.6348876953125
4572171875.0 -1.521484375 0.3599853515625
4603393750.0 -0.9715576171875 1.21258544921875
4634615625.0 -0.06036376953125 1.53704833984375
4665837500.0 0.8709716796875 1.30401611328125
4697059375.0 1.54010009765625 0.515380859375
4728281250.0 1.52825927734375 -0.5816650390625
4759503125.0 0.82257080078125 -1.36737060546875
4790725000.0 -0.14605712890625 -1.57208251953125
4821946875.0 -1.084228515625 -1.1927490234375
4853168750.0 -1.61236572265625 -0.2509765625
4884390625.0 -1.376953125 0.79327392578125
4915612500.0 -0.61297607421875 1.412109375
4946834375.0 0.330078125 1.50872802734375
4978056250.0 1.2056884765625 1.01611328125
5009278125.0 1.5614013671875 0.03851318359375
5040500000.0 1.2283935546875 -0.87646484375
5071721875.0 0.50091552734375 -1.41412353515625
5102943750.0 -0.44696044921875 -1.49578857421875
5134165625.0 -1.33544921875 -0.90484619140625
5165387500.0 -1.56732177734375 0.1458740234375
5196609375.0 -1.13568115234375 1.00897216796875
5227831250.0 -0.35693359375 1.50579833984375
5259053125.0 0.6873779296875 1.49114990234375
5290275000.0 1.52069091796875 0.6627197265625
5321496875.0 1.49212646484375 -0.431884765625
5352718750.0 0.92041015625 -1.15338134765625
5383940625.0 0.09588623046875 -1.50054931640625
5415162500.0 -0.90106201171875 -1.28326416015625
5446384375.0 -1.484375 -0.36944580078125
5477606250.0 -1.29852294921875 0.56610107421875
5508828125.0 -0.73040771484375 1.15032958984375
5540050000.0 0.05413818359375 1.39794921875
5571271875.0 0.93927001953125 1.10845947265625
5602493750.0 1.40789794921875 0.2598876953125
5633715625.0 1.231201171875 -0.6124267578125
5664937500.0 0.64813232421875 -1.200439453125
5696159375.0 -0.1968994140625 -1.38311767578125
5727381250.0 -1.0213623046875 -0.97833251953125
5758603125.0 -1.390625 -0.14495849609375
5789825000.0 -1.19366455078125 0.718017578125
5821046875.0 -0.50653076171875 1.30584716796875
5852268750.0 0.412109375 1.31304931640625
5883490625.0 1.0711669921875 0.77154541015625
5914712500.0 1.30267333984375 0.0194091796875
5945934375.0 1.09613037109375 -0.7760009765625
5977156250.0 0.36090087890625 -1.312255859375
6008378125.0 -0.509765625 -1.1820068359375
6039600000.0 -1.0213623046875 -0.6485595703125
6070821875.0 -1.22332763671875 -0.00396728515625
6102043750.0 -1.08282470703125 0.7623291015625
6133265625.0 -0.34228515625 1.34393310546875
6164487500.0 0.562744140625 1.1868896484375
6195709375.0 1.06890869140625 0.63006591796875
6226931250.0 1.2794189453125 -0.0428466796875
6258153125.0 1.10455322265625 -0.871337890625
6289375000.0 0.2568359375 -1.4454345703125
6320596875.0 -0.689697265625 -1.2061767578125
6351818750.0 -1.20062255859375 -0.57208251953125
6383040625.0 -1.3544921875 0.20654296875
6414262500.0 -0.9998779296875 1.05767822265625
6445484375.0 -0.0780029296875 1.45697021484375
6476706250.0 0.79547119140625 1.14794921875
6507928125.0 1.29034423828125 0.4696044921875
6539150000.0 1.347900390625 -0.3878173828125
6570371875.0 0.8408203125 -1.1436767578125
6601593750.0 -0.018310546875 -1.4052734375
6632815625.0 -0.83941650390625 -1.1353759765625
6664037500.0 -1.40167236328125 -0.41961669921875
6695259375.0 -1.3741455078125 0.56634521484375
6726481250.0 -0.7099609375 1.25164794921875
6757703125.0 0.130126953125 1.4063720703125
6788925000.0 0.95556640625 1.1302490234375
6820146875.0 1.5595703125 0.2880859375
6851368750.0 1.3260498046875 -0.81982421875
6882590625.0 0.50616455078125 -1.3389892578125
6913812500.0 -0.29296875 -1.35650634765625
6945034375.0 -1.06964111328125 -1.021728515625
6976256250.0 -1.593017578125 -0.09332275390625
7007478125.0 -1.23577880859375 0.9344482421875
7038700000.0 -0.40203857421875 1.34295654296875
7069921875.0 0.35784912109375 1.32257080078125
7101143750.0 1.1158447265625 0.96795654296875
7132365625.0 1.598388671875 0.01507568359375
7163587500.0 1.156982421875 -1.02166748046875
7194809375.0 0.30072021484375 -1.39666748046875
7226031250.0 -0.5123291015625 -1.32464599609375
7257253125.0 -1.26788330078125 -0.82354736328125
7288475000.0 -1.55743408203125 0.19769287109375
7319696875.0 -1.03009033203125 1.11016845703125
7350918750.0 -0.16412353515625 1.4459228515625
7382140625.0 0.71795654296875 1.277099609375
7413362500.0 1.376953125 0.5767822265625
7444584375.0 1.410888671875 -0.40673828125
7475806250.0 0.857666015625 -1.14300537109375
7507028125.0 0.00555419921875 -1.4290771484375
7538250000.0 -0.888671875 -1.12420654296875
7569471875.0 -1.3369140625 -0.310791015625
7600693750.0 -1.2032470703125 0.498779296875
7631915625.0 -0.7181396484375 1.087158203125
7663137500.0 0.07989501953125 1.35791015625
7694359375.0 0.939605712890625 0.980316162109375
7725581250.0 1.24310302734375 0.18017578125
7756803125.0 1.0826416015625 -0.50018310546875
7788025000.0 0.670166015625 -1.04461669921875
7819246875.0 -0.1202392578125 -1.3475341796875
7850468750.0 -0.99267578125 -0.91558837890625
7881690625.0 -1.2318115234375 -0.10614013671875
7912912500.0 -1.0546875 0.55322265625
7944134375.0 -0.6065673828125 1.11309814453125
7975356250.0 0.2718505859375 1.33673095703125
8006578125.0 1.0469970703125 0.77935791015625
8037800000.0 1.1951904296875 0.0157470703125
8069021875.0 1.0072021484375 -0.61883544921875
8100243750.0 0.4990234375 -1.16217041015625
8131465625.0 -0.38720703125 -1.25372314453125
8162687500.0 -1.03240966796875 -0.685791015625
8193909375.0 -1.180908203125 0.00933837890625
8225131250.0 -1.01788330078125 0.67901611328125
8256353125.0 -0.4215087890625 1.247802734375
8287575000.0 0.50238037109375 1.226806640625
8318796875.0 1.082275390625 0.63525390625
8350018750.0 1.24505615234375 -0.0750732421875
8381240625.0 1.03143310546875 -0.8392333984375
8412462500.0 0.25311279296875 -1.37469482421875
8443684375.0 -0.66900634765625 -1.16986083984375
8474906250.0 -1.17584228515625 -0.53289794921875
8506128125.0 -1.298583984375 0.238037109375
8537350000.0 -0.92474365234375 1.04583740234375
8568571875.0 -0.01580810546875 1.39373779296875
8599793750.0 0.80267333984375 1.0537109375
8631015625.0 1.2421875 0.39727783203125
8662237500.0 1.28594970703125 -0.42913818359375
8693459375.0 0.73638916015625 -1.17694091796875
8724681250.0 -0.162353515625 -1.3323974609375
8755903125.0 -0.879425048828125 -0.957305908203125
8787125000.0 -1.30303955078125 -0.2821044921875
8818346875.0 -1.25128173828125 0.616455078125
8849568750.0 -0.55755615234375 1.26007080078125
8880790625.0 0.29833984375 1.28558349609375
8912012500.0 0.978790283203125 0.8934326171875
8943234375.0 1.3994140625 0.12890625
8974456250.0 1.1669921875 -0.8389892578125
9005678125.0 0.34991455078125 -1.31280517578125
9036900000.0 -0.44598388671875 -1.22540283203125
9068121875.0 -1.101318359375 -0.78680419921875
9099343750.0 -1.4422607421875 0.09912109375
9130565625.0 -0.980224609375 1.01226806640625
9161787500.0 -0.1524658203125 1.28515625
9193009375.0 0.5546875 1.134033203125
9224231250.0 1.1793212890625 0.65478515625
9255453125.0 1.398681640625 -0.29559326171875
9286675000.0 0.8067626953125 -1.0885009765625
9317896875.0 0.02642822265625 -1.2471923828125
9349118750.0 -0.65423583984375 -1.06964111328125
9380340625.0 -1.25787353515625 -0.51007080078125
9411562500.0 -1.3111572265625 0.4761962890625
9442784375.0 -0.64794921875 1.11883544921875
9474006250.0 0.0889892578125 1.21051025390625
9505228125.0 0.766265869140625 0.980255126953125
9536450000.0 1.27423095703125 0.31414794921875
9567671875.0 1.1439208984375 -0.57965087890625
9598893750.0 0.5301513671875 -1.0693359375
9630115625.0 -0.14227294921875 -1.15826416015625
9661337500.0 -0.817657470703125 -0.90240478515625
9692559375.0 -1.2401123046875 -0.189208984375
9723781250.0 -1.04339599609375 0.6024169921875
9755003125.0 -0.48529052734375 1.05230712890625
9786225000.0 0.19940185546875 1.16033935546875
9817446875.0 0.895904541015625 0.827239990234375
9848668750.0 1.19793701171875 0.0789794921875
9879890625.0 0.969207763671875 -0.618072509765625
9911112500.0 0.451171875 -1.05267333984375
9942334375.0 -0.26690673828125 -1.15838623046875
9973556250.0 -0.945220947265625 -0.738067626953125
10004778125.0 -1.1461181640625 -0.0172119140625
10036000000.0 -0.944244384765625 0.61590576171875
10067221875.0 -0.44317626953125 1.0966796875
10098443750.0 0.368896484375 1.1817626953125
10129665625.0 1.0042724609375 0.64361572265625
10160887500.0 1.1204833984375 -0.05078125
10192109375.0 0.918212890625 -0.6636962890625
10223331250.0 0.3609619140625 -1.15301513671875
10254553125.0 -0.485107421875 -1.11376953125
10285775000.0 -0.986663818359375 -0.535491943359375
10316996875.0 -1.0672607421875 0.0771484375
10348218750.0 -0.900146484375 0.6710205078125
10379440625.0 -0.32244873046875 1.17523193359375
10410662500.0 0.52899169921875 1.0859375
10441884375.0 0.992279052734375 0.521881103515625
10473106250.0 1.10919189453125 -0.0838623046875
10504328125.0 0.94921875 -0.756317138671875
10535550000.0 0.239990234375 -1.2938232421875
10566771875.0 -0.65850830078125 -1.077880859375
10597993750.0 -1.07891845703125 -0.4591064453125
10629215625.0 -1.176025390625 0.20709228515625
10660437500.0 -0.88818359375 0.95074462890625
10691659375.0 -0.0103759765625 1.33636474609375
10722881250.0 0.785186767578125 0.95318603515625
10754103125.0 1.11981201171875 0.32489013671875
10785325000.0 1.14068603515625 -0.36712646484375
10816546875.0 0.70098876953125 -1.04998779296875
10847768750.0 -0.145263671875 -1.23114013671875
10878990625.0 -0.80389404296875 -0.844085693359375
10910212500.0 -1.1226806640625 -0.244873046875
10941434375.0 -1.0977783203125 0.478271484375
10972656250.0 -0.56768798828125 1.0870361328125
11003878125.0 0.21746826171875 1.1751708984375
11035100000.0 0.84710693359375 0.821441650390625
11066321875.0 1.22088623046875 0.173828125
11097543750.0 1.09906005859375 -0.6773681640625
11128765625.0 0.3861083984375 -1.19879150390625
11159987500.0 -0.39459228515625 -1.1385498046875
11191209375.0 -0.998260498046875 -0.702392578125
11222431250.0 -1.272705078125 0.0926513671875
11253653125.0 -0.859344482421875 0.894561767578125
11284875000.0 -0.1142578125 1.12738037109375
11316096875.0 0.5118408203125 0.95751953125
11347318750.0 1.0023193359375 0.5028076171875
11378540625.0 1.1173095703125 -0.269287109375
11409762500.0 0.634796142578125 -0.859405517578125
11440984375.0 0.034912109375 -0.97857666015625
11472206250.0 -0.481170654296875 -0.850677490234375
11503428125.0 -0.953155517578125 -0.456390380859375
11534650000.0 -1.0689697265625 0.2880859375
11565871875.0 -0.602142333984375 0.855010986328125
11597093750.0 -0.017913818359375 0.991943359375
11628315625.0 0.542877197265625 0.87548828125
11659537500.0 1.06085205078125 0.39251708984375
11690759375.0 1.06591796875 -0.4346923828125
11721981250.0 0.517486572265625 -0.941497802734375
11753203125.0 -0.10528564453125 -1.03643798828125
11784425000.0 -0.726104736328125 -0.809356689453125
11815646875.0 -1.10296630859375 -0.14947509765625
11846868750.0 -0.89080810546875 0.55023193359375
11878090625.0 -0.391143798828125 0.910003662109375
11909312500.0 0.187347412109375 0.985595703125
11940534375.0 0.781768798828125 0.6949462890625
11971756250.0 1.02606201171875 0.039306640625
12002978125.0 0.8067626953125 -0.53802490234375
12034200000.0 0.381103515625 -0.88946533203125
12065421875.0 -0.21697998046875 -1.0108642578125
12096643750.0 -0.8475341796875 -0.665557861328125
12127865625.0 -1.03509521484375 0.01739501953125
12159087500.0 -0.815338134765625 0.57666015625
12190309375.0 -0.37774658203125 0.974884033203125
12221531250.0 0.3385009765625 1.0889892578125
12252753125.0 0.981201171875 0.58184814453125
12283975000.0 1.05535888671875 -0.12762451171875
12315196875.0 0.800750732421875 -0.677734375
12346418750.0 0.28173828125 -1.0924072265625
12377640625.0 -0.5367431640625 -1.06109619140625
12408862500.0 -1.0343017578125 -0.419921875
12440084375.0 -1.0084228515625 0.22430419921875
12471306250.0 -0.742584228515625 0.737823486328125
12502528125.0 -0.17889404296875 1.12127685546875
12533750000.0 0.62030029296875 0.994232177734375
12564971875.0 1.040283203125 0.364501953125
12596193750.0 1.029541015625 -0.26495361328125
12627415625.0 0.74737548828125 -0.8277587890625
12658637500.0 0.0809326171875 -1.2081298828125
12689859375.0 -0.735626220703125 -0.966278076171875
12721081250.0 -1.1160888671875 -0.30645751953125
12752303125.0 -1.0975341796875 0.3814697265625
12783525000.0 -0.6876220703125 1.0262451171875
12814746875.0 0.16387939453125 1.25140380859375
12845968750.0 0.861724853515625 0.811431884765625
12877190625.0 1.11883544921875 0.17218017578125
12908412500.0 1.05615234375 -0.500732421875
12939634375.0 0.542724609375 -1.117919921875
12970856250.0 -0.32183837890625 -1.175537109375
13002078125.0 -0.893890380859375 -0.693756103515625
13033300000.0 -1.1044921875 -0.08660888671875
13064521875.0 -1.0089111328125 0.5938720703125
13095743750.0 -0.42132568359375 1.15338134765625
13126965625.0 0.410400390625 1.12109375
13158187500.0 0.94580078125 0.63189697265625
13189409375.0 1.14703369140625 -0.02020263671875
13220631250.0 0.936431884765625 -0.74700927734375
13251853125.0 0.23577880859375 -1.171875
13283075000.0 -0.5076904296875 -1.01995849609375
13314296875.0 -0.9881591796875 -0.53033447265625
13345518750.0 -1.135986328125 0.17626953125
13376740625.0 -0.75390625 0.85784912109375
13407962500.0 -0.05963134765625 1.0682373046875
