!Created with skrf (http://scikit-rf.org).
# Hz S RI R 50.0 
!freq ReS11 ImS11
45000000.0 -0.0766754150390625 -0.09710693359375
76221875.0 -0.19675445556640625 -0.0481719970703125
107443750.0 -0.255859375 0.1194305419921875
138665625.0 -0.1492767333984375 0.3289794921875
169887500.0 0.12261962890625 0.4187469482421875
201109375.0 0.422027587890625 0.2827911376953125
232331250.0 0.580413818359375 -0.056182861328125
263553125.0 0.491729736328125 -0.4524383544921875
294775000.0 0.10040283203125 -0.7340087890625
325996875.0 -0.414825439453125 -0.68359375
357218750.0 -0.807952880859375 -0.300048828125
388440625.0 -0.888916015625 0.299346923828125
419662500.0 -0.52093505859375 0.867034912109375
450884375.0 0.170654296875 1.0321044921875
482106250.0 0.798614501953125 0.71661376953125
513328125.0 1.12200927734375 0.09014892578125
544550000.0 1.00750732421875 -0.6787109375
575771875.0 0.340087890625 -1.2396240234375
606993750.0 -0.55181884765625 -1.18145751953125
638215625.0 -1.16693115234375 -0.59478759765625
669437500.0 -1.3431396484375 0.23077392578125
700659375.0 -0.97576904296875 1.095947265625
731881250.0 -0.008056640625 1.54620361328125
763103125.0 1.00457763671875 1.1612548828125
794325000.0 1.47137451171875 0.28619384765625
825546875.0 1.3719482421875 -0.64935302734375
856768750.0 0.7994384765625 -1.40252685546875
887990625.0 -0.28900146484375 -1.65264892578125
919212500.0 -1.2886962890625 -1.084716796875
950434375.0 -1.653076171875 -0.06304931640625
981656250.0 -1.3883056640625 0.94549560546875
1012878125.0 -0.53497314453125 1.67510986328125
1044100000.0 0.69512939453125 1.6685791015625
1075321875.0 1.57763671875 0.81817626953125
1106543750.0 1.71051025390625 -0.3096923828125
1137765625.0 1.193115234375 -1.28485107421875
1168987500.0 0.14349365234375 -1.80169677734375
1200209375.0 -1.06085205078125 -1.49053955078125
1231431250.0 -1.73114013671875 -0.45843505859375
1262653125.0 -1.59930419921875 0.68243408203125
1293875000.0 -0.85772705078125 1.493408203125
1325096875.0 0.2244873046875 1.7117919921875
1356318750.0 1.2353515625 1.22314453125
1387540625.0 1.74420166015625 0.19384765625
1418762500.0 1.4755859375 -0.9503173828125
1449984375.0 0.53460693359375 -1.6285400390625
1481206250.0 -0.54766845703125 -1.56121826171875
1512428125.0 -1.34283447265625 -0.92510986328125
1543650000.0 -1.65948486328125 0.06219482421875
1574871875.0 -1.27862548828125 1.1080322265625
1606093750.0 -0.2772216796875 1.634521484375
1637315625.0 0.74066162109375 1.40521240234375
1668537500.0 1.39764404296875 0.70074462890625
1699759375.0 1.57708740234375 -0.27410888671875
1730981250.0 1.06915283203125 -1.229736328125
1762203125.0 0.04620361328125 -1.5736083984375
1793425000.0 -0.8546142578125 -1.230712890625
1824646875.0 -1.3953857421875 -0.51947021484375
1855868750.0 -1.4783935546875 0.4300537109375
1887090625.0 -0.87969970703125 1.2860107421875
1918312500.0 0.1141357421875 1.4901123046875
1949534375.0 0.921142578125 1.093505859375
1980756250.0 1.37750244140625 0.373779296875
2011978125.0 1.36376953125 -0.52984619140625
2043200000.0 0.75433349609375 -1.2628173828125
2074421875.0 -0.1541748046875 -1.43634033203125
2105643750.0 -0.9599609375 -1.07666015625
2136865625.0 -1.44970703125 -0.3084716796875
2168087500.0 -1.361328125 0.66986083984375
2199309375.0 -0.64324951171875 1.35302734375
2230531250.0 0.27996826171875 1.43994140625
2261753125.0 1.0732421875 1.017822265625
2292975000.0 1.51708984375 0.17376708984375
2324196875.0 1.309814453125 -0.81805419921875
2355418750.0 0.5289306640625 -1.42156982421875
2386640625.0 -0.4024658203125 -1.45245361328125
2417862500.0 -1.18218994140625 -1.02874755859375
2449084375.0 -1.60797119140625 -0.087158203125
2480306250.0 -1.31585693359375 0.92425537109375
2511528125.0 -0.4976806640625 1.5098876953125
2542750000.0 0.48626708984375 1.540771484375
2573971875.0 1.3721923828125 0.97265625
2605193750.0 1.72271728515625 -0.110595703125
2636415625.0 1.26629638671875 -1.1531982421875
2667637500.0 0.30975341796875 -1.6705322265625
2698859375.0 -0.76922607421875 -1.538818359375
2730081250.0 -1.5762939453125 -0.7454833984375
2761303125.0 -1.68548583984375 0.38580322265625
2792525000.0 -1.10430908203125 1.30908203125
2823746875.0 -0.10516357421875 1.7340087890625
2854968750.0 1.011962890625 1.46124267578125
2886190625.0 1.69537353515625 0.49560546875
2917412500.0 1.60516357421875 -0.61712646484375
2948634375.0 0.944091796875 -1.4346923828125
2979856250.0 -0.10467529296875 -1.78009033203125
3011078125.0 -1.248046875 -1.34796142578125
3042300000.0 -1.7784423828125 -0.2391357421875
3073521875.0 -1.51361083984375 0.8375244140625
3104743750.0 -0.767333984375 1.57177734375
3135965625.0 0.36090087890625 1.814697265625
3167187500.0 1.5003662109375 1.1695556640625
3198409375.0 1.8201904296875 -0.07220458984375
3229631250.0 1.35321044921875 -1.08154296875
3260853125.0 0.4931640625 -1.6724853515625
3292075000.0 -0.65228271484375 -1.702880859375
3323296875.0 -1.62286376953125 -0.884765625
3354518750.0 -1.73553466796875 0.326904296875
3385740625.0 -1.16058349609375 1.23193359375
3416962500.0 -0.23553466796875 1.68450927734375
3448184375.0 0.86053466796875 1.52734375
3479406250.0 1.6385498046875 0.648681640625
3510628125.0 1.648681640625 -0.49383544921875
3541850000.0 1.00390625 -1.35614013671875
3573071875.0 -0.00543212890625 -1.68585205078125
3604293750.0 -1.028076171875 -1.34185791015625
3635515625.0 -1.63006591796875 -0.4417724609375
3666737500.0 -1.56640625 0.6451416015625
3697959375.0 -0.829345703125 1.477294921875
3729181250.0 0.266357421875 1.63446044921875
3760403125.0 1.153076171875 1.1024169921875
3791625000.0 1.5552978515625 0.221435546875
3822846875.0 1.4068603515625 -0.76043701171875
3854068750.0 0.62451171875 -1.48187255859375
3885290625.0 -0.4202880859375 -1.4849853515625
3916512500.0 -1.1429443359375 -0.91485595703125
3947734375.0 -1.4508056640625 -0.12261962890625
3978956250.0 -1.30181884765625 0.77984619140625
4010178125.0 -0.5345458984375 1.4573974609375
4041400000.0 0.47308349609375 1.4189453125
4072621875.0 1.15374755859375 0.85040283203125
4103843750.0 1.4478759765625 0.0648193359375
4135065625.0 1.2718505859375 -0.84619140625
4166287500.0 0.45989990234375 -1.49884033203125
4197509375.0 -0.556884765625 -1.41790771484375
4228731250.0 -1.24847412109375 -0.80535888671875
4259953125.0 -1.51129150390625 0.06805419921875
4291175000.0 -1.1922607421875 1.0107421875
4322396875.0 -0.291748046875 1.5299072265625
4353618750.0 0.67205810546875 1.3538818359375
4384840625.0 1.3240966796875 0.70068359375
4416062500.0 1.50396728515625 -0.2255859375
4447284375.0 1.0592041015625 -1.10552978515625
4478506250.0 0.17431640625 -1.4990234375
4509728125.0 -0.7325439453125 -1.31195068359375
4540950000.0 -1.39678955078125 -0.63848876953125
4572171875.0 -1.5262451171875 0.359619140625
4603393750.0 -0.9754638671875 1.2144775390625
4634615625.0 -0.062744140625 1.5404052734375
4665837500.0 0.8699951171875 1.3077392578125
4697059375.0 1.5447998046875 0.51763916015625
4728281250.0 1.53289794921875 -0.5828857421875
4759503125.0 0.8260498046875 -1.36895751953125
4790725000.0 -0.14398193359375 -1.57568359375
4821946875.0 -1.08538818359375 -1.19769287109375
4853168750.0 -1.6158447265625 -0.2540283203125
4884390625.0 -1.3819580078125 0.79339599609375
4915612500.0 -0.61590576171875 1.4146728515625
4946834375.0 0.32818603515625 1.51336669921875
4978056250.0 1.20733642578125 1.02069091796875
5009278125.0 1.56439208984375 0.04205322265625
5040500000.0 1.23248291015625 -0.87640380859375
5071721875.0 0.50421142578125 -1.41851806640625
5102943750.0 -0.446533203125 -1.5008544921875
5134165625.0 -1.3385009765625 -0.90826416015625
5165387500.0 -1.57147216796875 0.14508056640625
5196609375.0 -1.13897705078125 1.01055908203125
5227831250.0 -0.359130859375 1.5091552734375
5259053125.0 0.68743896484375 1.49542236328125
5290275000.0 1.5233154296875 0.6658935546875
5321496875.0 1.49560546875 -0.4306640625
5352718750.0 0.9239501953125 -1.154296875
5383940625.0 0.0986328125 -1.50250244140625
5415162500.0 -0.9017333984375 -1.28759765625
5446384375.0 -1.48785400390625 -0.3720703125
5477606250.0 -1.30267333984375 0.56658935546875
5508828125.0 -0.73419189453125 1.15374755859375
5540050000.0 0.052978515625 1.40179443359375
5571271875.0 0.939697265625 1.11212158203125
5602493750.0 1.41241455078125 0.2611083984375
5633715625.0 1.2352294921875 -0.61260986328125
5664937500.0 0.65020751953125 -1.20367431640625
5696159375.0 -0.1978759765625 -1.38818359375
5727381250.0 -1.02423095703125 -0.981201171875
5758603125.0 -1.394287109375 -0.14593505859375
5789825000.0 -1.1976318359375 0.719970703125
5821046875.0 -0.50762939453125 1.310546875
5852268750.0 0.41143798828125 1.3155517578125
5883490625.0 1.07275390625 0.77423095703125
5914712500.0 1.30499267578125 0.02117919921875
5945934375.0 1.0994873046875 -0.7764892578125
5977156250.0 0.36224365234375 -1.3154296875
6008378125.0 -0.51031494140625 -1.18487548828125
6039600000.0 -1.023681640625 -0.65106201171875
6070821875.0 -1.2265625 -0.005615234375
6102043750.0 -1.08636474609375 0.76409912109375
6133265625.0 -0.34320068359375 1.34783935546875
6164487500.0 0.56439208984375 1.1900634765625
6195709375.0 1.07269287109375 0.6317138671875
6226931250.0 1.2822265625 -0.04150390625
6258153125.0 1.1070556640625 -0.87237548828125
6289375000.0 0.255859375 -1.45001220703125
6320596875.0 -0.69158935546875 -1.20819091796875
6351818750.0 -1.2022705078125 -0.5733642578125
6383040625.0 -1.3568115234375 0.2069091796875
6414262500.0 -1.00140380859375 1.06060791015625
6445484375.0 -0.07769775390625 1.46051025390625
6476706250.0 0.7967529296875 1.150146484375
6507928125.0 1.292236328125 0.47216796875
6539150000.0 1.350830078125 -0.38665771484375
6570371875.0 0.84326171875 -1.145751953125
6601593750.0 -0.017822265625 -1.40899658203125
6632815625.0 -0.84173583984375 -1.13946533203125
6664037500.0 -1.40411376953125 -0.42138671875
6695259375.0 -1.376953125 0.56768798828125
6726481250.0 -0.71197509765625 1.2542724609375
6757703125.0 0.13055419921875 1.4102783203125
6788925000.0 0.95709228515625 1.13360595703125
6820146875.0 1.56396484375 0.28802490234375
6851368750.0 1.32830810546875 -0.8214111328125
6882590625.0 0.5069580078125 -1.341064453125
6913812500.0 -0.2923583984375 -1.3590087890625
6945034375.0 -1.07171630859375 -1.02374267578125
6976256250.0 -1.595947265625 -0.0928955078125
7007478125.0 -1.23919677734375 0.9356689453125
7038700000.0 -0.40362548828125 1.3466796875
7069921875.0 0.35858154296875 1.32623291015625
7101143750.0 1.1202392578125 0.9727783203125
7132365625.0 1.60394287109375 0.01416015625
7163587500.0 1.160400390625 -1.02197265625
7194809375.0 0.30364990234375 -1.39923095703125
7226031250.0 -0.51287841796875 -1.33013916015625
7257253125.0 -1.27093505859375 -0.82611083984375
7288475000.0 -1.5621337890625 0.19879150390625
7319696875.0 -1.0321044921875 1.1123046875
7350918750.0 -0.16448974609375 1.4478759765625
7382140625.0 0.718994140625 1.27960205078125
7413362500.0 1.37750244140625 0.577880859375
7444584375.0 1.41461181640625 -0.40679931640625
7475806250.0 0.85992431640625 -1.14617919921875
7507028125.0 0.00732421875 -1.43145751953125
7538250000.0 -0.88885498046875 -1.12701416015625
7569471875.0 -1.3388671875 -0.312255859375
7600693750.0 -1.20574951171875 0.49871826171875
7631915625.0 -0.7198486328125 1.088134765625
7663137500.0 0.07977294921875 1.3621826171875
7694359375.0 0.941925048828125 0.983184814453125
7725581250.0 1.248291015625 0.18023681640625
7756803125.0 1.0867919921875 -0.50128173828125
7788025000.0 0.672607421875 -1.046142578125
7819246875.0 -0.12261962890625 -1.351806640625
7850468750.0 -0.99822998046875 -0.918426513671875
7881690625.0 -1.2359619140625 -0.104248046875
7912912500.0 -1.05841064453125 0.55645751953125
7944134375.0 -0.6060791015625 1.1175537109375
7975356250.0 0.2713623046875 1.337158203125
8006578125.0 1.04913330078125 0.7791748046875
8037800000.0 1.1956787109375 0.0172119140625
8069021875.0 1.00933837890625 -0.618896484375
8100243750.0 0.50091552734375 -1.166015625
8131465625.0 -0.38787841796875 -1.25634765625
8162687500.0 -1.03436279296875 -0.68756103515625
8193909375.0 -1.18341064453125 0.0084228515625
8225131250.0 -1.0208740234375 0.67962646484375
8256353125.0 -0.42236328125 1.2528076171875
8287575000.0 0.50164794921875 1.22845458984375
8318796875.0 1.0867919921875 0.63677978515625
8350018750.0 1.248291015625 -0.075439453125
8381240625.0 1.03448486328125 -0.84295654296875
8412462500.0 0.2550048828125 -1.37548828125
8443684375.0 -0.671875 -1.17181396484375
8474906250.0 -1.17669677734375 -0.5328369140625
8506128125.0 -1.300048828125 0.23712158203125
8537350000.0 -0.92620849609375 1.048095703125
8568571875.0 -0.01397705078125 1.3980712890625
8599793750.0 0.80389404296875 1.05523681640625
8631015625.0 1.24383544921875 0.40008544921875
8662237500.0 1.28948974609375 -0.4312744140625
8693459375.0 0.7379150390625 -1.180908203125
8724681250.0 -0.16351318359375 -1.3360595703125
8755903125.0 -0.88262939453125 -0.96051025390625
8787125000.0 -1.307861328125 -0.283447265625
8818346875.0 -1.25537109375 0.61846923828125
8849568750.0 -0.55767822265625 1.2645263671875
8880790625.0 0.30072021484375 1.2890625
8912012500.0 0.98468017578125 0.89532470703125
8943234375.0 1.40545654296875 0.12799072265625
8974456250.0 1.168701171875 -0.842529296875
9005678125.0 0.34710693359375 -1.31610107421875
9036900000.0 -0.44830322265625 -1.2274169921875
9068121875.0 -1.10589599609375 -0.78662109375
9099343750.0 -1.4444580078125 0.10052490234375
9130565625.0 -0.9798583984375 1.0145263671875
9161787500.0 -0.15386962890625 1.28570556640625
9193009375.0 0.55615234375 1.13653564453125
9224231250.0 1.18243408203125 0.656982421875
9255453125.0 1.40118408203125 -0.2945556640625
9286675000.0 0.80950927734375 -1.08734130859375
9317896875.0 0.0262451171875 -1.24981689453125
9349118750.0 -0.65814208984375 -1.07342529296875
9380340625.0 -1.26409912109375 -0.50982666015625
9411562500.0 -1.31475830078125 0.47900390625
9442784375.0 -0.64898681640625 1.12030029296875
9474006250.0 0.08966064453125 1.21441650390625
9505228125.0 0.7677001953125 0.9820556640625
9536450000.0 1.27825927734375 0.311767578125
9567671875.0 1.1466064453125 -0.5841064453125
9598893750.0 0.5301513671875 -1.0716552734375
9630115625.0 -0.145263671875 -1.1614990234375
9661337500.0 -0.82196044921875 -0.9036865234375
9692559375.0 -1.24078369140625 -0.18878173828125
9723781250.0 -1.0455322265625 0.60589599609375
9755003125.0 -0.4873046875 1.05291748046875
9786225000.0 0.2001953125 1.1624755859375
9817446875.0 0.899322509765625 0.829193115234375
9848668750.0 1.20166015625 0.07684326171875
9879890625.0 0.970977783203125 -0.6199951171875
9911112500.0 0.452880859375 -1.05535888671875
9942334375.0 -0.26922607421875 -1.1624755859375
9973556250.0 -0.94781494140625 -0.739227294921875
10004778125.0 -1.14849853515625 -0.0174560546875
10036000000.0 -0.94580078125 0.619354248046875
10067221875.0 -0.4417724609375 1.10150146484375
10098443750.0 0.3719482421875 1.18377685546875
10129665625.0 1.00506591796875 0.64306640625
10160887500.0 1.12249755859375 -0.0540771484375
10192109375.0 0.917449951171875 -0.66485595703125
10223331250.0 0.36065673828125 -1.15576171875
10254553125.0 -0.48779296875 -1.11566162109375
10285775000.0 -0.98687744140625 -0.535888671875
10316996875.0 -1.07012939453125 0.0782470703125
10348218750.0 -0.90142822265625 0.67449951171875
10379440625.0 -0.32208251953125 1.1788330078125
10410662500.0 0.5313720703125 1.08892822265625
10441884375.0 0.99462890625 0.521820068359375
10473106250.0 1.11126708984375 -0.08416748046875
10504328125.0 0.950897216796875 -0.760284423828125
10535550000.0 0.23736572265625 -1.29937744140625
10566771875.0 -0.6611328125 -1.07867431640625
10597993750.0 -1.08404541015625 -0.45831298828125
10629215625.0 -1.17889404296875 0.20660400390625
10660437500.0 -0.88812255859375 0.9564208984375
10691659375.0 -0.00567626953125 1.340087890625
10722881250.0 0.787139892578125 0.95294189453125
10754103125.0 1.123779296875 0.323486328125
10785325000.0 1.1424560546875 -0.36785888671875
10816546875.0 0.70196533203125 -1.0546875
10847768750.0 -0.14788818359375 -1.23150634765625
10878990625.0 -0.806243896484375 -0.84466552734375
10910212500.0 -1.1258544921875 -0.24609375
10941434375.0 -1.10076904296875 0.48052978515625
10972656250.0 -0.56793212890625 1.08941650390625
11003878125.0 0.21942138671875 1.1768798828125
11035100000.0 0.851776123046875 0.823211669921875
11066321875.0 1.2249755859375 0.17388916015625
11097543750.0 1.100830078125 -0.68011474609375
11128765625.0 0.38507080078125 -1.2032470703125
11159987500.0 -0.398681640625 -1.1417236328125
11191209375.0 -1.00518798828125 -0.7022705078125
11222431250.0 -1.27508544921875 0.0943603515625
11253653125.0 -0.859283447265625 0.89971923828125
11284875000.0 -0.1138916015625 1.1295166015625
11316096875.0 0.5147705078125 0.9593505859375
11347318750.0 1.00750732421875 0.50189208984375
11378540625.0 1.11956787109375 -0.27154541015625
11409762500.0 0.63555908203125 -0.862945556640625
11440984375.0 0.033843994140625 -0.9822998046875
11472206250.0 -0.48272705078125 -0.852630615234375
11503428125.0 -0.95684814453125 -0.455780029296875
11534650000.0 -1.0714111328125 0.29119873046875
11565871875.0 -0.602569580078125 0.85791015625
11597093750.0 -0.016998291015625 0.994873046875
11628315625.0 0.5472412109375 0.877532958984375
11659537500.0 1.06427001953125 0.3916015625
11690759375.0 1.06781005859375 -0.4390869140625
11721981250.0 0.5172119140625 -0.94573974609375
11753203125.0 -0.10784912109375 -1.0386962890625
11784425000.0 -0.727447509765625 -0.810394287109375
11815646875.0 -1.1058349609375 -0.14874267578125
11846868750.0 -0.89190673828125 0.5548095703125
11878090625.0 -0.39044189453125 0.91229248046875
11909312500.0 0.189544677734375 0.98834228515625
11940534375.0 0.783447265625 0.6959228515625
11971756250.0 1.02783203125 0.03790283203125
12002978125.0 0.80743408203125 -0.541015625
12034200000.0 0.381744384765625 -0.8924560546875
12065421875.0 -0.21856689453125 -1.012939453125
12096643750.0 -0.850830078125 -0.665496826171875
12127865625.0 -1.03570556640625 0.0189208984375
12159087500.0 -0.81573486328125 0.5780029296875
12190309375.0 -0.377166748046875 0.978729248046875
12221531250.0 0.3433837890625 1.0904541015625
12252753125.0 0.9852294921875 0.58172607421875
12283975000.0 1.05584716796875 -0.1302490234375
12315196875.0 0.801727294921875 -0.679168701171875
12346418750.0 0.2811279296875 -1.09429931640625
12377640625.0 -0.5428466796875 -1.0626220703125
12408862500.0 -1.0369873046875 -0.4183349609375
12440084375.0 -1.01019287109375 0.226318359375
12471306250.0 -0.742156982421875 0.74078369140625
12502528125.0 -0.17779541015625 1.1240234375
12533750000.0 0.62384033203125 0.995361328125
12564971875.0 1.04449462890625 0.36407470703125
12596193750.0 1.03192138671875 -0.265625
12627415625.0 0.7491455078125 -0.832916259765625
12658637500.0 0.07769775390625 -1.21148681640625
12689859375.0 -0.740875244140625 -0.96697998046875
12721081250.0 -1.12078857421875 -0.3045654296875
12752303125.0 -1.0999755859375 0.3853759765625
12783525000.0 -0.68707275390625 1.0335693359375
12814746875.0 0.16888427734375 1.25439453125
12845968750.0 0.868408203125 0.811859130859375
12877190625.0 1.11981201171875 0.17108154296875
12908412500.0 1.05889892578125 -0.505615234375
12939634375.0 0.5421142578125 -1.1220703125
12970856250.0 -0.32403564453125 -1.1761474609375
13002078125.0 -0.897308349609375 -0.693328857421875
13033300000.0 -1.10906982421875 -0.08538818359375
13064521875.0 -1.01123046875 0.59783935546875
13095743750.0 -0.41754150390625 1.15802001953125
13126965625.0 0.411865234375 1.1246337890625
13158187500.0 0.9512939453125 0.631744384765625
13189409375.0 1.15264892578125 -0.02386474609375
13220631250.0 0.9371337890625 -0.75244140625
13251853125.0 0.2322998046875 -1.1759033203125
13283075000.0 -0.51055908203125 -1.02105712890625
13314296875.0 -0.9912109375 -0.527435302734375
13345518750.0 -1.13946533203125 0.18096923828125
13376740625.0 -0.752349853515625 0.861602783203125
