!Created with skrf (http://scikit-rf.org).
# Hz S RI R 50.0 
!freq ReS11 ImS11
45000000.0 -0.076751708984375 -0.09722518920898438
76221875.0 -0.196685791015625 -0.04798126220703125
107443750.0 -0.25567626953125 0.1195220947265625
138665625.0 -0.1491546630859375 0.3289337158203125
169887500.0 0.1229705810546875 0.418365478515625
201109375.0 0.4221038818359375 0.2822265625
232331250.0 0.580047607421875 -0.056610107421875
263553125.0 0.491241455078125 -0.452850341796875
294775000.0 0.10009765625 -0.733642578125
325996875.0 -0.41497802734375 -0.6829833984375
357218750.0 -0.807525634765625 -0.299346923828125
388440625.0 -0.888336181640625 0.300140380859375
419662500.0 -0.52001953125 0.8668212890625
450884375.0 0.17132568359375 1.0311279296875
482106250.0 0.79876708984375 0.715728759765625
513328125.0 1.12158203125 0.08917236328125
544550000.0 1.0064697265625 -0.67938232421875
575771875.0 0.3392333984375 -1.239501953125
606993750.0 -0.552490234375 -1.18048095703125
638215625.0 -1.1668701171875 -0.59368896484375
669437500.0 -1.342529296875 0.231689453125
700659375.0 -0.97442626953125 1.09625244140625
731881250.0 -0.0069580078125 1.54571533203125
763103125.0 1.005126953125 1.15972900390625
794325000.0 1.47100830078125 0.2847900390625
825546875.0 1.37060546875 -0.65032958984375
856768750.0 0.79815673828125 -1.40191650390625
887990625.0 -0.2901611328125 -1.6519775390625
919212500.0 -1.289306640625 -1.083251953125
950434375.0 -1.65179443359375 -0.06201171875
981656250.0 -1.3870849609375 0.9461669921875
1012878125.0 -0.53369140625 1.67437744140625
1044100000.0 0.6956787109375 1.6666259765625
1075321875.0 1.57647705078125 0.8165283203125
1106543750.0 1.70904541015625 -0.31103515625
1137765625.0 1.19122314453125 -1.284423828125
1168987500.0 0.1417236328125 -1.80059814453125
1200209375.0 -1.0616455078125 -1.48870849609375
1231431250.0 -1.73046875 -0.456787109375
1262653125.0 -1.59832763671875 0.68377685546875
1293875000.0 -0.85650634765625 1.49267578125
1325096875.0 0.2254638671875 1.71051025390625
1356318750.0 1.235595703125 1.2213134765625
1387540625.0 1.7421875 0.192138671875
1418762500.0 1.4736328125 -0.95037841796875
1449984375.0 0.533447265625 -1.62774658203125
1481206250.0 -0.54833984375 -1.55987548828125
1512428125.0 -1.34332275390625 -0.92327880859375
1543650000.0 -1.65838623046875 0.06298828125
1574871875.0 -1.2772216796875 1.10888671875
1606093750.0 -0.275634765625 1.634033203125
1637315625.0 0.74151611328125 1.40411376953125
1668537500.0 1.39739990234375 0.69915771484375
1699759375.0 1.57611083984375 -0.27520751953125
1730981250.0 1.0677490234375 -1.22943115234375
1762203125.0 0.0445556640625 -1.57342529296875
1793425000.0 -0.85565185546875 -1.2301025390625
1824646875.0 -1.39495849609375 -0.51776123046875
1855868750.0 -1.477294921875 0.43121337890625
1887090625.0 -0.87847900390625 1.2867431640625
1918312500.0 0.11553955078125 1.48968505859375
1949534375.0 0.92144775390625 1.0919189453125
1980756250.0 1.37652587890625 0.37255859375
2011978125.0 1.36236572265625 -0.5308837890625
2043200000.0 0.753173828125 -1.2623291015625
2074421875.0 -0.15521240234375 -1.43609619140625
2105643750.0 -0.96014404296875 -1.0755615234375
2136865625.0 -1.44927978515625 -0.30731201171875
2168087500.0 -1.3604736328125 0.67095947265625
2199309375.0 -0.64178466796875 1.352783203125
2230531250.0 0.28076171875 1.4390869140625
2261753125.0 1.0728759765625 1.0169677734375
2292975000.0 1.5164794921875 0.17205810546875
2324196875.0 1.3084716796875 -0.8184814453125
2355418750.0 0.52764892578125 -1.42144775390625
2386640625.0 -0.4036865234375 -1.45135498046875
2417862500.0 -1.1817626953125 -1.02752685546875
2449084375.0 -1.60736083984375 -0.0859375
2480306250.0 -1.31494140625 0.924560546875
2511528125.0 -0.4967041015625 1.50994873046875
2542750000.0 0.48822021484375 1.5401611328125
2573971875.0 1.3720703125 0.971435546875
2605193750.0 1.71942138671875 -0.11029052734375
2636415625.0 1.26458740234375 -1.15325927734375
2667637500.0 0.30908203125 -1.66900634765625
2698859375.0 -0.7686767578125 -1.537353515625
2730081250.0 -1.576416015625 -0.7435302734375
2761303125.0 -1.6842041015625 0.38665771484375
2792525000.0 -1.1025390625 1.30926513671875
2823746875.0 -0.104248046875 1.73272705078125
2854968750.0 1.0125732421875 1.45965576171875
2886190625.0 1.69464111328125 0.49407958984375
2917412500.0 1.60321044921875 -0.61688232421875
2948634375.0 0.942626953125 -1.43438720703125
2979856250.0 -0.10552978515625 -1.77947998046875
3011078125.0 -1.24810791015625 -1.34600830078125
3042300000.0 -1.77642822265625 -0.23785400390625
3073521875.0 -1.5118408203125 0.837158203125
3104743750.0 -0.76611328125 1.5706787109375
3135965625.0 0.3604736328125 1.812255859375
3167187500.0 1.5009765625 1.16766357421875
3198409375.0 1.81787109375 -0.07269287109375
3229631250.0 1.3524169921875 -1.08074951171875
3260853125.0 0.4923095703125 -1.66998291015625
3292075000.0 -0.65472412109375 -1.70208740234375
3323296875.0 -1.62347412109375 -0.883056640625
3354518750.0 -1.73297119140625 0.32666015625
3385740625.0 -1.1590576171875 1.23175048828125
3416962500.0 -0.23358154296875 1.68475341796875
3448184375.0 0.86004638671875 1.52508544921875
3479406250.0 1.63824462890625 0.64642333984375
3510628125.0 1.6480712890625 -0.49481201171875
3541850000.0 1.0030517578125 -1.356689453125
3573071875.0 -0.0062255859375 -1.68426513671875
3604293750.0 -1.02801513671875 -1.3404541015625
3635515625.0 -1.62908935546875 -0.44097900390625
3666737500.0 -1.56463623046875 0.6458740234375
3697959375.0 -0.828125 1.47772216796875
3729181250.0 0.26776123046875 1.63311767578125
3760403125.0 1.1533203125 1.10089111328125
3791625000.0 1.55474853515625 0.22039794921875
3822846875.0 1.405517578125 -0.76080322265625
3854068750.0 0.623046875 -1.48291015625
3885290625.0 -0.42034912109375 -1.48394775390625
3916512500.0 -1.14288330078125 -0.91339111328125
3947734375.0 -1.45050048828125 -0.1209716796875
3978956250.0 -1.30029296875 0.77789306640625
4010178125.0 -0.533203125 1.456787109375
4041400000.0 0.47418212890625 1.41778564453125
4072621875.0 1.153564453125 0.84906005859375
4103843750.0 1.44647216796875 0.0643310546875
4135065625.0 1.269775390625 -0.84637451171875
4166287500.0 0.4586181640625 -1.4984130859375
4197509375.0 -0.55694580078125 -1.417236328125
4228731250.0 -1.24853515625 -0.8048095703125
4259953125.0 -1.510498046875 0.0689697265625
4291175000.0 -1.19049072265625 1.01055908203125
4322396875.0 -0.2908935546875 1.52862548828125
4353618750.0 0.67333984375 1.35235595703125
4384840625.0 1.32305908203125 0.70025634765625
4416062500.0 1.5032958984375 -0.226806640625
4447284375.0 1.0579833984375 -1.1053466796875
4478506250.0 0.17291259765625 -1.49786376953125
4509728125.0 -0.7333984375 -1.310546875
4540950000.0 -1.3953857421875 -0.6378173828125
4572171875.0 -1.5250244140625 0.36083984375
4603393750.0 -0.97393798828125 1.2144775390625
4634615625.0 -0.06201171875 1.5394287109375
4665837500.0 0.8724365234375 1.30657958984375
4697059375.0 1.54388427734375 0.51629638671875
4728281250.0 1.53155517578125 -0.5831298828125
4759503125.0 0.8240966796875 -1.36944580078125
4790725000.0 -0.14471435546875 -1.57415771484375
4821946875.0 -1.08502197265625 -1.196044921875
4853168750.0 -1.615966796875 -0.25189208984375
4884390625.0 -1.3807373046875 0.79364013671875
4915612500.0 -0.61517333984375 1.41412353515625
4946834375.0 0.32904052734375 1.5126953125
4978056250.0 1.207275390625 1.01953125
5009278125.0 1.56427001953125 0.04010009765625
5040500000.0 1.23199462890625 -0.8778076171875
5071721875.0 0.50274658203125 -1.41802978515625
5102943750.0 -0.447265625 -1.4998779296875
5134165625.0 -1.337890625 -0.9072265625
5165387500.0 -1.5704345703125 0.147216796875
5196609375.0 -1.137939453125 1.01025390625
5227831250.0 -0.35858154296875 1.508056640625
5259053125.0 0.6883544921875 1.494873046875
5290275000.0 1.52337646484375 0.66357421875
5321496875.0 1.49432373046875 -0.43170166015625
5352718750.0 0.92266845703125 -1.15484619140625
5383940625.0 0.0977783203125 -1.50140380859375
5415162500.0 -0.901611328125 -1.2861328125
5446384375.0 -1.48602294921875 -0.37158203125
5477606250.0 -1.3016357421875 0.56707763671875
5508828125.0 -0.73272705078125 1.1536865234375
5540050000.0 0.05389404296875 1.40155029296875
5571271875.0 0.94000244140625 1.11138916015625
5602493750.0 1.41046142578125 0.26055908203125
5633715625.0 1.234375 -0.613525390625
5664937500.0 0.64959716796875 -1.203857421875
5696159375.0 -0.19677734375 -1.385009765625
5727381250.0 -1.02301025390625 -0.9796142578125
5758603125.0 -1.393798828125 -0.1441650390625
5789825000.0 -1.19598388671875 0.71917724609375
5821046875.0 -0.50677490234375 1.3094482421875
5852268750.0 0.4127197265625 1.31463623046875
5883490625.0 1.0733642578125 0.77294921875
5914712500.0 1.30511474609375 0.01910400390625
5945934375.0 1.097900390625 -0.77691650390625
5977156250.0 0.3616943359375 -1.31463623046875
6008378125.0 -0.5107421875 -1.18426513671875
6039600000.0 -1.0230712890625 -0.65008544921875
6070821875.0 -1.226318359375 -0.004638671875
6102043750.0 -1.08538818359375 0.7655029296875
6133265625.0 -0.34149169921875 1.34765625
6164487500.0 0.56500244140625 1.18927001953125
6195709375.0 1.07293701171875 0.6304931640625
6226931250.0 1.281982421875 -0.04327392578125
6258153125.0 1.1060791015625 -0.87457275390625
6289375000.0 0.25567626953125 -1.4486083984375
6320596875.0 -0.6922607421875 -1.20770263671875
6351818750.0 -1.2017822265625 -0.57208251953125
6383040625.0 -1.35589599609375 0.20709228515625
6414262500.0 -1.00054931640625 1.05908203125
6445484375.0 -0.0772705078125 1.45904541015625
6476706250.0 0.7967529296875 1.14862060546875
6507928125.0 1.29248046875 0.47076416015625
6539150000.0 1.349853515625 -0.38848876953125
6570371875.0 0.84173583984375 -1.146240234375
6601593750.0 -0.01812744140625 -1.40765380859375
6632815625.0 -0.84185791015625 -1.13885498046875
6664037500.0 -1.40399169921875 -0.420654296875
6695259375.0 -1.3765869140625 0.56842041015625
6726481250.0 -0.71087646484375 1.2542724609375
6757703125.0 0.13226318359375 1.40972900390625
6788925000.0 0.95782470703125 1.1324462890625
6820146875.0 1.56341552734375 0.28717041015625
6851368750.0 1.327392578125 -0.82232666015625
6882590625.0 0.5062255859375 -1.3402099609375
6913812500.0 -0.2940673828125 -1.359130859375
6945034375.0 -1.07293701171875 -1.02288818359375
6976256250.0 -1.59429931640625 -0.09228515625
7007478125.0 -1.2371826171875 0.9371337890625
7038700000.0 -0.40362548828125 1.3436279296875
7069921875.0 0.35906982421875 1.32574462890625
7101143750.0 1.12054443359375 0.97100830078125
7132365625.0 1.60223388671875 0.014404296875
7163587500.0 1.158935546875 -1.0220947265625
7194809375.0 0.303466796875 -1.39996337890625
7226031250.0 -0.51300048828125 -1.32781982421875
7257253125.0 -1.27178955078125 -0.8245849609375
7288475000.0 -1.55987548828125 0.19970703125
7319696875.0 -1.03143310546875 1.111083984375
7350918750.0 -0.16278076171875 1.44781494140625
7382140625.0 0.7158203125 1.2789306640625
7413362500.0 1.381103515625 0.5760498046875
7444584375.0 1.41412353515625 -0.40936279296875
7475806250.0 0.85888671875 -1.14630126953125
7507028125.0 0.00579833984375 -1.4320068359375
7538250000.0 -0.8896484375 -1.12530517578125
7569471875.0 -1.33587646484375 -0.3115234375
7600693750.0 -1.2044677734375 0.49859619140625
7631915625.0 -0.71844482421875 1.08831787109375
7663137500.0 0.0816650390625 1.36126708984375
7694359375.0 0.94140625 0.98236083984375
7725581250.0 1.24755859375 0.1800537109375
7756803125.0 1.08599853515625 -0.50115966796875
7788025000.0 0.6712646484375 -1.04638671875
7819246875.0 -0.1202392578125 -1.34991455078125
7850468750.0 -0.996612548828125 -0.917236328125
7881690625.0 -1.23468017578125 -0.10418701171875
7912912500.0 -1.05743408203125 0.55889892578125
7944134375.0 -0.6055908203125 1.11700439453125
7975356250.0 0.27423095703125 1.337158203125
8006578125.0 1.04864501953125 0.77813720703125
8037800000.0 1.1956787109375 0.0147705078125
8069021875.0 1.00836181640625 -0.61865234375
8100243750.0 0.4993896484375 -1.165771484375
8131465625.0 -0.38909912109375 -1.2554931640625
8162687500.0 -1.0335693359375 -0.68658447265625
8193909375.0 -1.18206787109375 0.00799560546875
8225131250.0 -1.0201416015625 0.679931640625
8256353125.0 -0.42144775390625 1.25140380859375
8287575000.0 0.50518798828125 1.22900390625
8318796875.0 1.08447265625 0.6365966796875
8350018750.0 1.2481689453125 -0.07623291015625
8381240625.0 1.03387451171875 -0.84515380859375
8412462500.0 0.25201416015625 -1.37872314453125
8443684375.0 -0.6728515625 -1.1715087890625
8474906250.0 -1.179443359375 -0.53082275390625
8506128125.0 -1.298583984375 0.23797607421875
8537350000.0 -0.92510986328125 1.04986572265625
8568571875.0 -0.0145263671875 1.396240234375
8599793750.0 0.80535888671875 1.05517578125
8631015625.0 1.24346923828125 0.39794921875
8662237500.0 1.2869873046875 -0.43084716796875
8693459375.0 0.7371826171875 -1.17919921875
8724681250.0 -0.16351318359375 -1.334716796875
8755903125.0 -0.883697509765625 -0.959686279296875
8787125000.0 -1.30889892578125 -0.28131103515625
8818346875.0 -1.2529296875 0.61712646484375
8849568750.0 -0.55731201171875 1.263916015625
8880790625.0 0.30194091796875 1.28851318359375
8912012500.0 0.985015869140625 0.89324951171875
8943234375.0 1.4046630859375 0.1265869140625
8974456250.0 1.16827392578125 -0.84466552734375
9005678125.0 0.3465576171875 -1.3170166015625
9036900000.0 -0.44927978515625 -1.22705078125
9068121875.0 -1.10565185546875 -0.7861328125
9099343750.0 -1.44390869140625 0.1011962890625
9130565625.0 -0.97882080078125 1.013916015625
9161787500.0 -0.152587890625 1.28485107421875
9193009375.0 0.55615234375 1.13604736328125
9224231250.0 1.18121337890625 0.65509033203125
9255453125.0 1.4010009765625 -0.297119140625
9286675000.0 0.80712890625 -1.08905029296875
9317896875.0 0.02545166015625 -1.25091552734375
9349118750.0 -0.65802001953125 -1.0723876953125
9380340625.0 -1.2625732421875 -0.50982666015625
9411562500.0 -1.31341552734375 0.47906494140625
9442784375.0 -0.64752197265625 1.12042236328125
9474006250.0 0.09149169921875 1.21453857421875
9505228125.0 0.76922607421875 0.980804443359375
9536450000.0 1.27679443359375 0.31195068359375
9567671875.0 1.1455078125 -0.58563232421875
9598893750.0 0.52899169921875 -1.070556640625
9630115625.0 -0.1468505859375 -1.16021728515625
9661337500.0 -0.821014404296875 -0.903167724609375
9692559375.0 -1.24127197265625 -0.18878173828125
9723781250.0 -1.04345703125 0.60504150390625
9755003125.0 -0.48699951171875 1.0516357421875
9786225000.0 0.2000732421875 1.16168212890625
9817446875.0 0.8994140625 0.827880859375
9848668750.0 1.2008056640625 0.075439453125
9879890625.0 0.9691162109375 -0.619903564453125
9911112500.0 0.45159912109375 -1.0560302734375
9942334375.0 -0.2689208984375 -1.162841796875
9973556250.0 -0.94708251953125 -0.7381591796875
10004778125.0 -1.14764404296875 -0.01531982421875
10036000000.0 -0.945526123046875 0.62042236328125
10067221875.0 -0.44097900390625 1.10089111328125
10098443750.0 0.37408447265625 1.183349609375
10129665625.0 1.007080078125 0.6414794921875
10160887500.0 1.121826171875 -0.05474853515625
10192109375.0 0.918121337890625 -0.667724609375
10223331250.0 0.35986328125 -1.15545654296875
10254553125.0 -0.48907470703125 -1.11480712890625
10285775000.0 -0.9859619140625 -0.533843994140625
10316996875.0 -1.0684814453125 0.078125
10348218750.0 -0.901031494140625 0.671905517578125
10379440625.0 -0.32073974609375 1.1790771484375
10410662500.0 0.53009033203125 1.08612060546875
10441884375.0 0.99444580078125 0.521636962890625
10473106250.0 1.11181640625 -0.08660888671875
10504328125.0 0.950531005859375 -0.76123046875
10535550000.0 0.2362060546875 -1.29931640625
10566771875.0 -0.66253662109375 -1.0775146484375
10597993750.0 -1.0845947265625 -0.45782470703125
10629215625.0 -1.178466796875 0.2088623046875
10660437500.0 -0.888580322265625 0.956207275390625
10691659375.0 -0.00616455078125 1.33758544921875
10722881250.0 0.78826904296875 0.9521484375
10754103125.0 1.12237548828125 0.32293701171875
10785325000.0 1.1417236328125 -0.37109375
10816546875.0 0.700439453125 -1.053955078125
10847768750.0 -0.1485595703125 -1.23101806640625
10878990625.0 -0.80743408203125 -0.84381103515625
10910212500.0 -1.12481689453125 -0.24493408203125
10941434375.0 -1.0997314453125 0.480224609375
10972656250.0 -0.567626953125 1.090087890625
11003878125.0 0.21929931640625 1.17608642578125
11035100000.0 0.850189208984375 0.82244873046875
11066321875.0 1.22442626953125 0.17138671875
11097543750.0 1.09893798828125 -0.68023681640625
11128765625.0 0.3846435546875 -1.2025146484375
11159987500.0 -0.400146484375 -1.14141845703125
11191209375.0 -1.00439453125 -0.7020263671875
11222431250.0 -1.27581787109375 0.0970458984375
11253653125.0 -0.858428955078125 0.89959716796875
11284875000.0 -0.1123046875 1.12945556640625
11316096875.0 0.512481689453125 0.956787109375
11347318750.0 1.00531005859375 0.50067138671875
11378540625.0 1.11810302734375 -0.27325439453125
11409762500.0 0.63427734375 -0.861541748046875
11440984375.0 0.033172607421875 -0.9815673828125
11472206250.0 -0.4847412109375 -0.8525390625
11503428125.0 -0.956817626953125 -0.455535888671875
11534650000.0 -1.07073974609375 0.29150390625
11565871875.0 -0.6015625 0.85809326171875
11597093750.0 -0.016876220703125 0.99444580078125
11628315625.0 0.545684814453125 0.876800537109375
11659537500.0 1.0635986328125 0.39080810546875
11690759375.0 1.066162109375 -0.43841552734375
11721981250.0 0.515655517578125 -0.943023681640625
11753203125.0 -0.10931396484375 -1.0396728515625
11784425000.0 -0.728118896484375 -0.809356689453125
11815646875.0 -1.1043701171875 -0.1483154296875
11846868750.0 -0.8917236328125 0.556396484375
11878090625.0 -0.39080810546875 0.911712646484375
11909312500.0 0.18841552734375 0.9859619140625
11940534375.0 0.78509521484375 0.69500732421875
11971756250.0 1.02783203125 0.03619384765625
12002978125.0 0.806976318359375 -0.540924072265625
12034200000.0 0.380096435546875 -0.892822265625
12065421875.0 -0.2181396484375 -1.01202392578125
12096643750.0 -0.8507080078125 -0.6646728515625
12127865625.0 -1.03619384765625 0.02069091796875
12159087500.0 -0.8154296875 0.578155517578125
12190309375.0 -0.375762939453125 0.979339599609375
12221531250.0 0.343994140625 1.09039306640625
12252753125.0 0.984375 0.579071044921875
12283975000.0 1.0550537109375 -0.1298828125
12315196875.0 0.801025390625 -0.68048095703125
12346418750.0 0.27899169921875 -1.095458984375
12377640625.0 -0.5435791015625 -1.06072998046875
12408862500.0 -1.035888671875 -0.41790771484375
12440084375.0 -1.00970458984375 0.22723388671875
12471306250.0 -0.742095947265625 0.7408447265625
12502528125.0 -0.1773681640625 1.124267578125
12533750000.0 0.6241455078125 0.99395751953125
12564971875.0 1.0435791015625 0.36175537109375
12596193750.0 1.0313720703125 -0.26708984375
12627415625.0 0.74798583984375 -0.8321533203125
12658637500.0 0.07568359375 -1.21258544921875
12689859375.0 -0.74041748046875 -0.967254638671875
12721081250.0 -1.12237548828125 -0.302490234375
12752303125.0 -1.100341796875 0.38623046875
12783525000.0 -0.6868896484375 1.033447265625
12814746875.0 0.16912841796875 1.25323486328125
12845968750.0 0.8658447265625 0.8101806640625
12877190625.0 1.120361328125 0.16827392578125
12908412500.0 1.0572509765625 -0.505615234375
12939634375.0 0.54046630859375 -1.12115478515625
12970856250.0 -0.32391357421875 -1.17510986328125
13002078125.0 -0.8973388671875 -0.69183349609375
13033300000.0 -1.1080322265625 -0.08465576171875
13064521875.0 -1.01202392578125 0.59893798828125
13095743750.0 -0.4173583984375 1.1600341796875
13126965625.0 0.41448974609375 1.121826171875
13158187500.0 0.949462890625 0.631256103515625
13189409375.0 1.15228271484375 -0.025146484375
13220631250.0 0.936859130859375 -0.75445556640625
13251853125.0 0.23052978515625 -1.1761474609375
13283075000.0 -0.51190185546875 -1.02008056640625
13314296875.0 -0.9901123046875 -0.527618408203125
13345518750.0 -1.13818359375 0.181640625
13376740625.0 -0.751373291015625 0.86248779296875
