!Created with skrf (http://scikit-rf.org).
# Hz S RI R 50.0 
!freq ReS11 ImS11
45000000.0 -0.07668304443359375 -0.09706497192382812
76221875.0 -0.19675445556640625 -0.04785919189453125
107443750.0 -0.255828857421875 0.119476318359375
138665625.0 -0.1493377685546875 0.3289794921875
169887500.0 0.12286376953125 0.4185943603515625
201109375.0 0.4220733642578125 0.2826080322265625
232331250.0 0.580322265625 -0.05633544921875
263553125.0 0.4915771484375 -0.4529571533203125
294775000.0 0.1002197265625 -0.7337646484375
325996875.0 -0.415069580078125 -0.683380126953125
357218750.0 -0.80780029296875 -0.29962158203125
388440625.0 -0.8885498046875 0.299774169921875
419662500.0 -0.520660400390625 0.866851806640625
450884375.0 0.17083740234375 1.0316162109375
482106250.0 0.79876708984375 0.71612548828125
513328125.0 1.121826171875 0.08966064453125
544550000.0 1.00726318359375 -0.6793212890625
575771875.0 0.33984375 -1.23968505859375
606993750.0 -0.5518798828125 -1.1810302734375
638215625.0 -1.16705322265625 -0.59429931640625
669437500.0 -1.34295654296875 0.23150634765625
700659375.0 -0.975341796875 1.0960693359375
731881250.0 -0.00750732421875 1.5460205078125
763103125.0 1.0050048828125 1.16082763671875
794325000.0 1.47137451171875 0.2857666015625
825546875.0 1.37164306640625 -0.64990234375
856768750.0 0.798828125 -1.40216064453125
887990625.0 -0.28985595703125 -1.652587890625
919212500.0 -1.28924560546875 -1.08416748046875
950434375.0 -1.65277099609375 -0.06201171875
981656250.0 -1.38763427734375 0.9461669921875
1012878125.0 -0.5341796875 1.67474365234375
1044100000.0 0.69580078125 1.66766357421875
1075321875.0 1.5775146484375 0.81732177734375
1106543750.0 1.70928955078125 -0.310302734375
1137765625.0 1.1923828125 -1.28472900390625
1168987500.0 0.14251708984375 -1.80133056640625
1200209375.0 -1.06158447265625 -1.4896240234375
1231431250.0 -1.7305908203125 -0.45733642578125
1262653125.0 -1.59881591796875 0.68310546875
1293875000.0 -0.8572998046875 1.4930419921875
1325096875.0 0.224609375 1.711181640625
1356318750.0 1.2362060546875 1.22216796875
1387540625.0 1.74383544921875 0.1927490234375
1418762500.0 1.47430419921875 -0.95068359375
1449984375.0 0.53338623046875 -1.628662109375
1481206250.0 -0.5482177734375 -1.56085205078125
1512428125.0 -1.34381103515625 -0.92388916015625
1543650000.0 -1.65899658203125 0.06280517578125
1574871875.0 -1.278076171875 1.109130859375
1606093750.0 -0.2764892578125 1.63446044921875
1637315625.0 0.74102783203125 1.40472412109375
1668537500.0 1.397705078125 0.69976806640625
1699759375.0 1.57672119140625 -0.27496337890625
1730981250.0 1.0684814453125 -1.23004150390625
1762203125.0 0.045166015625 -1.57366943359375
1793425000.0 -0.8555908203125 -1.2305908203125
1824646875.0 -1.3956298828125 -0.51806640625
1855868750.0 -1.47796630859375 0.4306640625
1887090625.0 -0.87908935546875 1.2869873046875
1918312500.0 0.11505126953125 1.4901123046875
1949534375.0 0.9215087890625 1.09283447265625
1980756250.0 1.37713623046875 0.37286376953125
2011978125.0 1.36376953125 -0.5306396484375
2043200000.0 0.75384521484375 -1.26300048828125
2074421875.0 -0.15472412109375 -1.436279296875
2105643750.0 -0.960693359375 -1.07611083984375
2136865625.0 -1.45001220703125 -0.307373046875
2168087500.0 -1.36090087890625 0.6700439453125
2199309375.0 -0.6424560546875 1.353271484375
2230531250.0 0.280517578125 1.43939208984375
2261753125.0 1.073486328125 1.01776123046875
2292975000.0 1.51727294921875 0.172607421875
2324196875.0 1.30926513671875 -0.81817626953125
2355418750.0 0.52825927734375 -1.42205810546875
2386640625.0 -0.40289306640625 -1.4517822265625
2417862500.0 -1.18157958984375 -1.02783203125
2449084375.0 -1.60784912109375 -0.08612060546875
2480306250.0 -1.31524658203125 0.92626953125
2511528125.0 -0.49658203125 1.51092529296875
2542750000.0 0.4884033203125 1.54034423828125
2573971875.0 1.37457275390625 0.97216796875
2605193750.0 1.7203369140625 -0.10992431640625
2636415625.0 1.265380859375 -1.15301513671875
2667637500.0 0.31048583984375 -1.66864013671875
2698859375.0 -0.769775390625 -1.53851318359375
2730081250.0 -1.57513427734375 -0.74456787109375
2761303125.0 -1.6849365234375 0.38616943359375
2792525000.0 -1.10321044921875 1.309326171875
2823746875.0 -0.105712890625 1.73260498046875
2854968750.0 1.01300048828125 1.46038818359375
2886190625.0 1.69549560546875 0.494384765625
2917412500.0 1.60467529296875 -0.617431640625
2948634375.0 0.9432373046875 -1.434814453125
2979856250.0 -0.10589599609375 -1.78009033203125
3011078125.0 -1.249267578125 -1.34674072265625
3042300000.0 -1.7791748046875 -0.23681640625
3073521875.0 -1.5135498046875 0.839111328125
3104743750.0 -0.76678466796875 1.5699462890625
3135965625.0 0.36212158203125 1.81494140625
3167187500.0 1.500244140625 1.1688232421875
3198409375.0 1.8201904296875 -0.07342529296875
3229631250.0 1.35308837890625 -1.0806884765625
3260853125.0 0.49273681640625 -1.67169189453125
3292075000.0 -0.654296875 -1.70233154296875
3323296875.0 -1.62261962890625 -0.88323974609375
3354518750.0 -1.73504638671875 0.32745361328125
3385740625.0 -1.15997314453125 1.233154296875
3416962500.0 -0.23370361328125 1.684814453125
3448184375.0 0.86114501953125 1.52593994140625
3479406250.0 1.6387939453125 0.64727783203125
3510628125.0 1.64794921875 -0.49517822265625
3541850000.0 1.003662109375 -1.35528564453125
3573071875.0 -0.0062255859375 -1.6851806640625
3604293750.0 -1.02813720703125 -1.34088134765625
3635515625.0 -1.6295166015625 -0.44146728515625
3666737500.0 -1.56597900390625 0.64605712890625
3697959375.0 -0.82818603515625 1.4781494140625
3729181250.0 0.267333984375 1.634033203125
3760403125.0 1.15313720703125 1.101318359375
3791625000.0 1.5552978515625 0.22113037109375
3822846875.0 1.40570068359375 -0.76043701171875
3854068750.0 0.62371826171875 -1.48406982421875
3885290625.0 -0.41937255859375 -1.48431396484375
3916512500.0 -1.1431884765625 -0.914306640625
3947734375.0 -1.45098876953125 -0.12127685546875
3978956250.0 -1.301025390625 0.7796630859375
4010178125.0 -0.53338623046875 1.45770263671875
4041400000.0 0.4735107421875 1.4189453125
4072621875.0 1.1533203125 0.84979248046875
4103843750.0 1.44635009765625 0.06439208984375
4135065625.0 1.27081298828125 -0.84625244140625
4166287500.0 0.45941162109375 -1.49761962890625
4197509375.0 -0.55767822265625 -1.4173583984375
4228731250.0 -1.24957275390625 -0.80413818359375
4259953125.0 -1.51202392578125 0.06976318359375
4291175000.0 -1.1912841796875 1.01019287109375
4322396875.0 -0.2908935546875 1.529541015625
4353618750.0 0.6729736328125 1.352783203125
4384840625.0 1.323486328125 0.7000732421875
4416062500.0 1.50445556640625 -0.22674560546875
4447284375.0 1.05810546875 -1.1068115234375
4478506250.0 0.17333984375 -1.49847412109375
4509728125.0 -0.73345947265625 -1.31085205078125
4540950000.0 -1.39691162109375 -0.6375732421875
4572171875.0 -1.52587890625 0.3607177734375
4603393750.0 -0.974609375 1.21575927734375
4634615625.0 -0.06207275390625 1.53961181640625
4665837500.0 0.87030029296875 1.3076171875
4697059375.0 1.54400634765625 0.51715087890625
4728281250.0 1.53204345703125 -0.58465576171875
4759503125.0 0.82501220703125 -1.36846923828125
4790725000.0 -0.14495849609375 -1.5750732421875
4821946875.0 -1.08441162109375 -1.19647216796875
4853168750.0 -1.61688232421875 -0.2520751953125
4884390625.0 -1.38177490234375 0.794189453125
4915612500.0 -0.615478515625 1.4144287109375
4946834375.0 0.32843017578125 1.512939453125
4978056250.0 1.20782470703125 1.01983642578125
5009278125.0 1.5655517578125 0.0401611328125
5040500000.0 1.232421875 -0.87835693359375
5071721875.0 0.50360107421875 -1.41754150390625
5102943750.0 -0.448486328125 -1.5013427734375
5134165625.0 -1.3382568359375 -0.9078369140625
5165387500.0 -1.5714111328125 0.1468505859375
5196609375.0 -1.13861083984375 1.010498046875
5227831250.0 -0.35845947265625 1.510009765625
5259053125.0 0.6898193359375 1.4951171875
5290275000.0 1.52484130859375 0.6636962890625
5321496875.0 1.49456787109375 -0.4305419921875
5352718750.0 0.9232177734375 -1.15484619140625
5383940625.0 0.09735107421875 -1.50347900390625
5415162500.0 -0.90081787109375 -1.28662109375
5446384375.0 -1.48822021484375 -0.37091064453125
5477606250.0 -1.3023681640625 0.5673828125
5508828125.0 -0.73333740234375 1.15380859375
5540050000.0 0.05377197265625 1.4024658203125
5571271875.0 0.9412841796875 1.1116943359375
5602493750.0 1.41180419921875 0.26031494140625
5633715625.0 1.234619140625 -0.61456298828125
5664937500.0 0.64984130859375 -1.20416259765625
5696159375.0 -0.19793701171875 -1.3868408203125
5727381250.0 -1.02532958984375 -0.980224609375
5758603125.0 -1.394287109375 -0.14520263671875
5789825000.0 -1.1961669921875 0.71978759765625
5821046875.0 -0.506591796875 1.31109619140625
5852268750.0 0.413330078125 1.315673828125
5883490625.0 1.0736083984375 0.77337646484375
5914712500.0 1.30517578125 0.019775390625
5945934375.0 1.09893798828125 -0.7772216796875
5977156250.0 0.36187744140625 -1.315673828125
6008378125.0 -0.50933837890625 -1.18414306640625
6039600000.0 -1.0235595703125 -0.6502685546875
6070821875.0 -1.22674560546875 -0.004638671875
6102043750.0 -1.0853271484375 0.7630615234375
6133265625.0 -0.3421630859375 1.3486328125
6164487500.0 0.565185546875 1.18951416015625
6195709375.0 1.07281494140625 0.63067626953125
6226931250.0 1.28265380859375 -0.0428466796875
6258153125.0 1.1065673828125 -0.87347412109375
6289375000.0 0.25531005859375 -1.4493408203125
6320596875.0 -0.6910400390625 -1.20758056640625
6351818750.0 -1.20281982421875 -0.5716552734375
6383040625.0 -1.35723876953125 0.20758056640625
6414262500.0 -1.001220703125 1.0596923828125
6445484375.0 -0.07666015625 1.45989990234375
6476706250.0 0.79852294921875 1.14984130859375
6507928125.0 1.292724609375 0.4703369140625
6539150000.0 1.349853515625 -0.38720703125
6570371875.0 0.84228515625 -1.14703369140625
6601593750.0 -0.017333984375 -1.40679931640625
6632815625.0 -0.84185791015625 -1.138427734375
6664037500.0 -1.404541015625 -0.4205322265625
6695259375.0 -1.37640380859375 0.5677490234375
6726481250.0 -0.71148681640625 1.25439453125
6757703125.0 0.13092041015625 1.4097900390625
6788925000.0 0.95849609375 1.132568359375
6820146875.0 1.564208984375 0.28729248046875
6851368750.0 1.32733154296875 -0.82171630859375
6882590625.0 0.50665283203125 -1.3399658203125
6913812500.0 -0.292724609375 -1.35858154296875
6945034375.0 -1.0728759765625 -1.0233154296875
6976256250.0 -1.5960693359375 -0.092529296875
7007478125.0 -1.23828125 0.9361572265625
7038700000.0 -0.40362548828125 1.3448486328125
7069921875.0 0.36016845703125 1.32696533203125
7101143750.0 1.119873046875 0.9716796875
7132365625.0 1.60174560546875 0.01434326171875
7163587500.0 1.15966796875 -1.02398681640625
7194809375.0 0.302978515625 -1.4017333984375
7226031250.0 -0.513916015625 -1.32891845703125
7257253125.0 -1.27252197265625 -0.82440185546875
7288475000.0 -1.5606689453125 0.2000732421875
7319696875.0 -1.031982421875 1.11328125
7350918750.0 -0.1640625 1.44757080078125
7382140625.0 0.7177734375 1.279052734375
7413362500.0 1.378662109375 0.57684326171875
7444584375.0 1.413330078125 -0.40679931640625
7475806250.0 0.8583984375 -1.14813232421875
7507028125.0 0.004638671875 -1.4337158203125
7538250000.0 -0.8883056640625 -1.125732421875
7569471875.0 -1.338134765625 -0.31146240234375
7600693750.0 -1.20526123046875 0.500244140625
7631915625.0 -0.71929931640625 1.0865478515625
7663137500.0 0.08099365234375 1.36090087890625
7694359375.0 0.943603515625 0.98284912109375
7725581250.0 1.24859619140625 0.17919921875
7756803125.0 1.08599853515625 -0.50006103515625
7788025000.0 0.6717529296875 -1.04754638671875
7819246875.0 -0.12188720703125 -1.3505859375
7850468750.0 -0.998260498046875 -0.917633056640625
7881690625.0 -1.23583984375 -0.1031494140625
7912912500.0 -1.0570068359375 0.55572509765625
7944134375.0 -0.60614013671875 1.1170654296875
7975356250.0 0.2762451171875 1.33868408203125
8006578125.0 1.04925537109375 0.77911376953125
8037800000.0 1.19580078125 0.01495361328125
8069021875.0 1.0093994140625 -0.619140625
8100243750.0 0.49993896484375 -1.16436767578125
8131465625.0 -0.39093017578125 -1.257080078125
8162687500.0 -1.03338623046875 -0.68756103515625
8193909375.0 -1.184814453125 0.00982666015625
8225131250.0 -1.02117919921875 0.680419921875
8256353125.0 -0.4215087890625 1.253173828125
8287575000.0 0.5042724609375 1.2294921875
8318796875.0 1.08575439453125 0.63665771484375
8350018750.0 1.24951171875 -0.07708740234375
8381240625.0 1.03363037109375 -0.84454345703125
8412462500.0 0.25213623046875 -1.377197265625
8443684375.0 -0.67242431640625 -1.1712646484375
8474906250.0 -1.17852783203125 -0.5318603515625
8506128125.0 -1.29949951171875 0.2381591796875
8537350000.0 -0.9251708984375 1.0496826171875
8568571875.0 -0.01263427734375 1.39935302734375
8599793750.0 0.80328369140625 1.05450439453125
8631015625.0 1.244140625 0.39886474609375
8662237500.0 1.28759765625 -0.42974853515625
8693459375.0 0.737060546875 -1.1817626953125
8724681250.0 -0.16204833984375 -1.33380126953125
8755903125.0 -0.883758544921875 -0.959686279296875
8787125000.0 -1.310791015625 -0.28070068359375
8818346875.0 -1.25408935546875 0.61822509765625
8849568750.0 -0.5562744140625 1.26568603515625
8880790625.0 0.30206298828125 1.28961181640625
8912012500.0 0.984771728515625 0.894134521484375
8943234375.0 1.4051513671875 0.12579345703125
8974456250.0 1.16796875 -0.84344482421875
9005678125.0 0.34686279296875 -1.31610107421875
9036900000.0 -0.448974609375 -1.22698974609375
9068121875.0 -1.1068115234375 -0.7861328125
9099343750.0 -1.446044921875 0.1019287109375
9130565625.0 -0.9788818359375 1.01507568359375
9161787500.0 -0.15380859375 1.28570556640625
9193009375.0 0.55657958984375 1.1357421875
9224231250.0 1.18328857421875 0.65570068359375
9255453125.0 1.40289306640625 -0.297119140625
9286675000.0 0.80743408203125 -1.08984375
9317896875.0 0.02618408203125 -1.25030517578125
9349118750.0 -0.65716552734375 -1.07257080078125
9380340625.0 -1.26287841796875 -0.51068115234375
9411562500.0 -1.31512451171875 0.48175048828125
9442784375.0 -0.647705078125 1.1207275390625
9474006250.0 0.09033203125 1.21392822265625
9505228125.0 0.769683837890625 0.98345947265625
9536450000.0 1.2774658203125 0.31134033203125
9567671875.0 1.14599609375 -0.58551025390625
9598893750.0 0.52911376953125 -1.0716552734375
9630115625.0 -0.14495849609375 -1.161376953125
9661337500.0 -0.822601318359375 -0.9034423828125
9692559375.0 -1.24322509765625 -0.1866455078125
9723781250.0 -1.04443359375 0.606201171875
9755003125.0 -0.4853515625 1.052001953125
9786225000.0 0.2000732421875 1.1622314453125
9817446875.0 0.89874267578125 0.8282470703125
9848668750.0 1.201416015625 0.07568359375
9879890625.0 0.970703125 -0.620513916015625
9911112500.0 0.451904296875 -1.056640625
9942334375.0 -0.270751953125 -1.1627197265625
9973556250.0 -0.947998046875 -0.73876953125
10004778125.0 -1.1490478515625 -0.01397705078125
10036000000.0 -0.945281982421875 0.618499755859375
10067221875.0 -0.4404296875 1.102294921875
10098443750.0 0.37359619140625 1.18365478515625
10129665625.0 1.0057373046875 0.6416015625
10160887500.0 1.12213134765625 -0.05389404296875
10192109375.0 0.9183349609375 -0.66754150390625
10223331250.0 0.35968017578125 -1.15582275390625
10254553125.0 -0.4908447265625 -1.11517333984375
10285775000.0 -0.98681640625 -0.53436279296875
10316996875.0 -1.07049560546875 0.07958984375
10348218750.0 -0.90142822265625 0.67291259765625
10379440625.0 -0.3211669921875 1.178466796875
10410662500.0 0.53045654296875 1.08795166015625
10441884375.0 0.9962158203125 0.520904541015625
10473106250.0 1.1123046875 -0.08551025390625
10504328125.0 0.951690673828125 -0.760467529296875
10535550000.0 0.23590087890625 -1.30023193359375
10566771875.0 -0.66229248046875 -1.07733154296875
10597993750.0 -1.08636474609375 -0.4573974609375
10629215625.0 -1.1781005859375 0.20880126953125
10660437500.0 -0.888153076171875 0.957794189453125
10691659375.0 -0.0042724609375 1.33831787109375
10722881250.0 0.787109375 0.9520263671875
10754103125.0 1.1201171875 0.3243408203125
10785325000.0 1.14239501953125 -0.370849609375
10816546875.0 0.7000732421875 -1.0543212890625
10847768750.0 -0.14886474609375 -1.232177734375
10878990625.0 -0.80718994140625 -0.844573974609375
10910212500.0 -1.12640380859375 -0.24346923828125
10941434375.0 -1.10009765625 0.4794921875
10972656250.0 -0.5673828125 1.09112548828125
11003878125.0 0.2215576171875 1.1766357421875
11035100000.0 0.852630615234375 0.8231201171875
11066321875.0 1.22418212890625 0.17242431640625
11097543750.0 1.10003662109375 -0.680908203125
11128765625.0 0.38311767578125 -1.2032470703125
11159987500.0 -0.40045166015625 -1.1417236328125
11191209375.0 -1.00518798828125 -0.7015380859375
11222431250.0 -1.2763671875 0.09808349609375
11253653125.0 -0.858123779296875 0.89837646484375
11284875000.0 -0.11273193359375 1.12969970703125
11316096875.0 0.514617919921875 0.958587646484375
11347318750.0 1.00762939453125 0.50146484375
11378540625.0 1.119140625 -0.27276611328125
11409762500.0 0.635162353515625 -0.862945556640625
11440984375.0 0.03399658203125 -0.98095703125
11472206250.0 -0.483734130859375 -0.85205078125
11503428125.0 -0.956756591796875 -0.455596923828125
11534650000.0 -1.07220458984375 0.2943115234375
11565871875.0 -0.601898193359375 0.857421875
11597093750.0 -0.01666259765625 0.99468994140625
11628315625.0 0.547607421875 0.8773193359375
11659537500.0 1.0638427734375 0.3912353515625
11690759375.0 1.06634521484375 -0.43817138671875
11721981250.0 0.5155029296875 -0.94476318359375
11753203125.0 -0.10791015625 -1.0390625
11784425000.0 -0.72845458984375 -0.809234619140625
11815646875.0 -1.10455322265625 -0.14776611328125
11846868750.0 -0.89208984375 0.5565185546875
11878090625.0 -0.38995361328125 0.91156005859375
11909312500.0 0.18988037109375 0.987030029296875
11940534375.0 0.783203125 0.69482421875
11971756250.0 1.027099609375 0.03704833984375
12002978125.0 0.807525634765625 -0.541259765625
12034200000.0 0.38055419921875 -0.892669677734375
12065421875.0 -0.2188720703125 -1.0128173828125
12096643750.0 -0.8529052734375 -0.664215087890625
12127865625.0 -1.0357666015625 0.01922607421875
12159087500.0 -0.8150634765625 0.57861328125
12190309375.0 -0.376373291015625 0.97943115234375
12221531250.0 0.34368896484375 1.09014892578125
12252753125.0 0.985137939453125 0.580322265625
12283975000.0 1.055908203125 -0.13043212890625
12315196875.0 0.8017578125 -0.6806640625
12346418750.0 0.27911376953125 -1.09356689453125
12377640625.0 -0.5439453125 -1.06121826171875
12408862500.0 -1.036865234375 -0.41754150390625
12440084375.0 -1.01031494140625 0.2279052734375
12471306250.0 -0.742401123046875 0.74072265625
12502528125.0 -0.1776123046875 1.12384033203125
12533750000.0 0.623748779296875 0.99468994140625
12564971875.0 1.04388427734375 0.3626708984375
12596193750.0 1.03173828125 -0.2681884765625
12627415625.0 0.748321533203125 -0.833770751953125
12658637500.0 0.0762939453125 -1.21063232421875
12689859375.0 -0.742401123046875 -0.967010498046875
12721081250.0 -1.1236572265625 -0.30078125
12752303125.0 -1.09954833984375 0.3868408203125
12783525000.0 -0.68670654296875 1.0328369140625
12814746875.0 0.1708984375 1.25445556640625
12845968750.0 0.868408203125 0.810394287109375
12877190625.0 1.12091064453125 0.169189453125
12908412500.0 1.05865478515625 -0.5079345703125
12939634375.0 0.53955078125 -1.124755859375
12970856250.0 -0.32421875 -1.176025390625
13002078125.0 -0.899139404296875 -0.69171142578125
13033300000.0 -1.1092529296875 -0.0845947265625
13064521875.0 -1.01104736328125 0.59930419921875
13095743750.0 -0.4161376953125 1.16119384765625
13126965625.0 0.41259765625 1.12158203125
13158187500.0 0.95159912109375 0.63092041015625
13189409375.0 1.152587890625 -0.0263671875
13220631250.0 0.937408447265625 -0.754241943359375
13251853125.0 0.231201171875 -1.175537109375
13283075000.0 -0.51226806640625 -1.02093505859375
13314296875.0 -0.993560791015625 -0.5281982421875
13345518750.0 -1.13800048828125 0.18182373046875
13376740625.0 -0.75091552734375 0.865386962890625
