!Created with skrf (http://scikit-rf.org).
# Hz S RI R 50.0 
!freq ReS11 ImS11
45000000.0 -0.07706832885742188 -0.09670257568359375
76221875.0 -0.19632720947265625 -0.04747772216796875
107443750.0 -0.2548980712890625 0.1197509765625
138665625.0 -0.14801025390625 0.3284454345703125
169887500.0 0.1235809326171875 0.4171295166015625
201109375.0 0.421722412109375 0.2805633544921875
232331250.0 0.578582763671875 -0.0577392578125
263553125.0 0.489105224609375 -0.45263671875
294775000.0 0.0982666015625 -0.732421875
325996875.0 -0.41546630859375 -0.680023193359375
357218750.0 -0.80609130859375 -0.296600341796875
388440625.0 -0.885009765625 0.30096435546875
419662500.0 -0.51666259765625 0.865936279296875
450884375.0 0.17315673828125 1.028076171875
482106250.0 0.798187255859375 0.711883544921875
513328125.0 1.11865234375 0.0867919921875
544550000.0 1.002685546875 -0.679931640625
575771875.0 0.335693359375 -1.2376708984375
606993750.0 -0.5538330078125 -1.17633056640625
638215625.0 -1.1650390625 -0.5894775390625
669437500.0 -1.3387451171875 0.23406982421875
700659375.0 -0.969970703125 1.0958251953125
731881250.0 -0.00323486328125 1.54180908203125
763103125.0 1.0052490234375 1.1544189453125
794325000.0 1.46771240234375 0.28125
825546875.0 1.365966796875 -0.651123046875
856768750.0 0.79351806640625 -1.39971923828125
887990625.0 -0.29278564453125 -1.64666748046875
919212500.0 -1.287353515625 -1.07720947265625
950434375.0 -1.6466064453125 -0.05889892578125
981656250.0 -1.38104248046875 0.9451904296875
1012878125.0 -0.52874755859375 1.66998291015625
1044100000.0 0.69708251953125 1.65966796875
1075321875.0 1.572998046875 0.81085205078125
1106543750.0 1.70281982421875 -0.31304931640625
1137765625.0 1.184814453125 -1.28302001953125
1168987500.0 0.13739013671875 -1.7952880859375
1200209375.0 -1.06085205078125 -1.48162841796875
1231431250.0 -1.7254638671875 -0.45263671875
1262653125.0 -1.59222412109375 0.6844482421875
1293875000.0 -0.85052490234375 1.489990234375
1325096875.0 0.22833251953125 1.70440673828125
1356318750.0 1.23388671875 1.2147216796875
1387540625.0 1.73785400390625 0.188232421875
1418762500.0 1.46728515625 -0.95025634765625
1449984375.0 0.52886962890625 -1.623779296875
1481206250.0 -0.5496826171875 -1.5540771484375
1512428125.0 -1.34033203125 -0.91802978515625
1543650000.0 -1.65380859375 0.0655517578125
1574871875.0 -1.2716064453125 1.10760498046875
1606093750.0 -0.2718505859375 1.6298828125
1637315625.0 0.74169921875 1.3985595703125
1668537500.0 1.39453125 0.69476318359375
1699759375.0 1.57147216796875 -0.27777099609375
1730981250.0 1.0625 -1.22802734375
1762203125.0 0.0418701171875 -1.56854248046875
1793425000.0 -0.85504150390625 -1.2247314453125
1824646875.0 -1.39178466796875 -0.51416015625
1855868750.0 -1.472412109375 0.43212890625
1887090625.0 -0.8736572265625 1.28350830078125
1918312500.0 0.11712646484375 1.48468017578125
1949534375.0 0.92034912109375 1.08770751953125
1980756250.0 1.3736572265625 0.3695068359375
2011978125.0 1.35784912109375 -0.531982421875
2043200000.0 0.74871826171875 -1.2603759765625
2074421875.0 -0.1571044921875 -1.43145751953125
2105643750.0 -0.9593505859375 -1.07098388671875
2136865625.0 -1.44549560546875 -0.30462646484375
2168087500.0 -1.35540771484375 0.67047119140625
2199309375.0 -0.63787841796875 1.3494873046875
2230531250.0 0.28192138671875 1.43408203125
2261753125.0 1.0718994140625 1.01263427734375
2292975000.0 1.51239013671875 0.16998291015625
2324196875.0 1.3037109375 -0.81781005859375
2355418750.0 0.5245361328125 -1.41796875
2386640625.0 -0.40399169921875 -1.44732666015625
2417862500.0 -1.1778564453125 -1.02294921875
2449084375.0 -1.60198974609375 -0.0838623046875
2480306250.0 -1.309326171875 0.924072265625
2511528125.0 -0.4927978515625 1.50640869140625
2542750000.0 0.48858642578125 1.5343017578125
2573971875.0 1.3692626953125 0.96697998046875
2605193750.0 1.7147216796875 -0.11309814453125
2636415625.0 1.2593994140625 -1.1502685546875
2667637500.0 0.30517578125 -1.66558837890625
2698859375.0 -0.76898193359375 -1.5318603515625
2730081250.0 -1.57073974609375 -0.7393798828125
2761303125.0 -1.678466796875 0.38775634765625
2792525000.0 -1.0972900390625 1.3046875
2823746875.0 -0.1016845703125 1.72686767578125
2854968750.0 1.010986328125 1.45343017578125
2886190625.0 1.68914794921875 0.49029541015625
2917412500.0 1.59686279296875 -0.6168212890625
2948634375.0 0.93817138671875 -1.43194580078125
2979856250.0 -0.1070556640625 -1.77276611328125
3011078125.0 -1.24517822265625 -1.3399658203125
3042300000.0 -1.77203369140625 -0.23443603515625
3073521875.0 -1.5059814453125 0.8367919921875
3104743750.0 -0.76202392578125 1.56597900390625
3135965625.0 0.362060546875 1.80615234375
3167187500.0 1.49591064453125 1.16259765625
3198409375.0 1.81268310546875 -0.07598876953125
3229631250.0 1.346435546875 -1.0784912109375
3260853125.0 0.48834228515625 -1.666259765625
3292075000.0 -0.6536865234375 -1.694580078125
3323296875.0 -1.61871337890625 -0.87744140625
3354518750.0 -1.72735595703125 0.32867431640625
3385740625.0 -1.154296875 1.22979736328125
3416962500.0 -0.23089599609375 1.67919921875
3448184375.0 0.8582763671875 1.518798828125
3479406250.0 1.63421630859375 0.6429443359375
3510628125.0 1.64129638671875 -0.493896484375
3541850000.0 0.99853515625 -1.3521728515625
3573071875.0 -0.00830078125 -1.6807861328125
3604293750.0 -1.02593994140625 -1.33526611328125
3635515625.0 -1.62530517578125 -0.4378662109375
3666737500.0 -1.55938720703125 0.6451416015625
3697959375.0 -0.82421875 1.4730224609375
3729181250.0 0.26763916015625 1.6279296875
3760403125.0 1.15087890625 1.09625244140625
3791625000.0 1.54925537109375 0.21783447265625
3822846875.0 1.39947509765625 -0.7598876953125
3854068750.0 0.61895751953125 -1.47857666015625
3885290625.0 -0.4200439453125 -1.47882080078125
3916512500.0 -1.13916015625 -0.909423828125
3947734375.0 -1.4451904296875 -0.1195068359375
3978956250.0 -1.295654296875 0.77777099609375
4010178125.0 -0.5313720703125 1.45123291015625
4041400000.0 0.47174072265625 1.41253662109375
4072621875.0 1.15130615234375 0.8468017578125
4103843750.0 1.44232177734375 0.06341552734375
4135065625.0 1.26593017578125 -0.84356689453125
4166287500.0 0.45733642578125 -1.4940185546875
4197509375.0 -0.5577392578125 -1.41375732421875
4228731250.0 -1.2452392578125 -0.80218505859375
4259953125.0 -1.5069580078125 0.07025146484375
4291175000.0 -1.1865234375 1.007568359375
4322396875.0 -0.2889404296875 1.5245361328125
4353618750.0 0.672607421875 1.3480224609375
4384840625.0 1.319091796875 0.69635009765625
4416062500.0 1.49859619140625 -0.22735595703125
4447284375.0 1.05352783203125 -1.10125732421875
4478506250.0 0.1715087890625 -1.494384765625
4509728125.0 -0.7313232421875 -1.30609130859375
4540950000.0 -1.39154052734375 -0.6353759765625
4572171875.0 -1.52008056640625 0.35888671875
4603393750.0 -0.97119140625 1.2108154296875
4634615625.0 -0.0616455078125 1.53497314453125
4665837500.0 0.8680419921875 1.30328369140625
4697059375.0 1.538818359375 0.5145263671875
4728281250.0 1.52685546875 -0.58099365234375
4759503125.0 0.822265625 -1.365478515625
4790725000.0 -0.146240234375 -1.571533203125
4821946875.0 -1.08203125 -1.19287109375
4853168750.0 -1.611083984375 -0.25042724609375
4884390625.0 -1.37677001953125 0.79180908203125
4915612500.0 -0.613037109375 1.40936279296875
4946834375.0 0.3280029296875 1.50677490234375
4978056250.0 1.20318603515625 1.0159912109375
5009278125.0 1.560546875 0.03887939453125
5040500000.0 1.22735595703125 -0.8739013671875
5071721875.0 0.50067138671875 -1.41326904296875
5102943750.0 -0.44580078125 -1.494140625
5134165625.0 -1.3349609375 -0.9046630859375
5165387500.0 -1.5662841796875 0.145751953125
5196609375.0 -1.13458251953125 1.00750732421875
5227831250.0 -0.3572998046875 1.50457763671875
5259053125.0 0.68756103515625 1.490478515625
5290275000.0 1.5198974609375 0.66229248046875
5321496875.0 1.49005126953125 -0.42938232421875
5352718750.0 0.9197998046875 -1.15264892578125
5383940625.0 0.09637451171875 -1.49853515625
5415162500.0 -0.89923095703125 -1.2822265625
5446384375.0 -1.48297119140625 -0.36962890625
5477606250.0 -1.29779052734375 0.5654296875
5508828125.0 -0.730712890625 1.1488037109375
5540050000.0 0.05389404296875 1.3966064453125
5571271875.0 0.9365234375 1.10809326171875
5602493750.0 1.40576171875 0.26043701171875
5633715625.0 1.23089599609375 -0.61163330078125
5664937500.0 0.64794921875 -1.1998291015625
5696159375.0 -0.1961669921875 -1.3822021484375
5727381250.0 -1.02001953125 -0.97772216796875
5758603125.0 -1.3902587890625 -0.14501953125
5789825000.0 -1.19329833984375 0.71697998046875
5821046875.0 -0.5059814453125 1.305908203125
5852268750.0 0.41119384765625 1.31182861328125
5883490625.0 1.07061767578125 0.77069091796875
5914712500.0 1.3016357421875 0.01953125
5945934375.0 1.095458984375 -0.77484130859375
5977156250.0 0.3616943359375 -1.30999755859375
6008378125.0 -0.5087890625 -1.18145751953125
6039600000.0 -1.02001953125 -0.6484375
6070821875.0 -1.22247314453125 -0.00457763671875
6102043750.0 -1.081787109375 0.76116943359375
6133265625.0 -0.34173583984375 1.3433837890625
6164487500.0 0.56146240234375 1.1861572265625
6195709375.0 1.0694580078125 0.62945556640625
6226931250.0 1.27874755859375 -0.042724609375
6258153125.0 1.10345458984375 -0.86993408203125
6289375000.0 0.2557373046875 -1.4449462890625
6320596875.0 -0.687255859375 -1.204833984375
6351818750.0 -1.19775390625 -0.572021484375
6383040625.0 -1.35321044921875 0.20611572265625
6414262500.0 -0.99957275390625 1.05596923828125
6445484375.0 -0.078857421875 1.45526123046875
6476706250.0 0.79437255859375 1.14727783203125
6507928125.0 1.28863525390625 0.47021484375
6539150000.0 1.3458251953125 -0.38580322265625
6570371875.0 0.84002685546875 -1.142578125
6601593750.0 -0.01776123046875 -1.404052734375
6632815625.0 -0.83807373046875 -1.13519287109375
6664037500.0 -1.3995361328125 -0.42041015625
6695259375.0 -1.37298583984375 0.5643310546875
6726481250.0 -0.7098388671875 1.24945068359375
6757703125.0 0.1300048828125 1.40472412109375
6788925000.0 0.95306396484375 1.1295166015625
6820146875.0 1.5592041015625 0.2882080078125
6851368750.0 1.324462890625 -0.81732177734375
6882590625.0 0.50628662109375 -1.33685302734375
6913812500.0 -0.29083251953125 -1.3546142578125
6945034375.0 -1.0684814453125 -1.02081298828125
6976256250.0 -1.59161376953125 -0.0931396484375
7007478125.0 -1.236083984375 0.93048095703125
7038700000.0 -0.4024658203125 1.34075927734375
7069921875.0 0.35626220703125 1.32159423828125
7101143750.0 1.11651611328125 0.9678955078125
7132365625.0 1.59637451171875 0.01727294921875
7163587500.0 1.15582275390625 -1.0162353515625
7194809375.0 0.30194091796875 -1.39459228515625
7226031250.0 -0.5113525390625 -1.3245849609375
7257253125.0 -1.26397705078125 -0.82421875
7288475000.0 -1.556884765625 0.19732666015625
7319696875.0 -1.02947998046875 1.1085205078125
7350918750.0 -0.1636962890625 1.4442138671875
7382140625.0 0.7138671875 1.27490234375
7413362500.0 1.373291015625 0.57666015625
7444584375.0 1.41021728515625 -0.40570068359375
7475806250.0 0.85821533203125 -1.1405029296875
7507028125.0 0.00634765625 -1.42633056640625
7538250000.0 -0.88720703125 -1.12396240234375
7569471875.0 -1.3343505859375 -0.310791015625
7600693750.0 -1.20037841796875 0.4940185546875
7631915625.0 -0.7169189453125 1.08349609375
7663137500.0 0.08013916015625 1.35723876953125
7694359375.0 0.93707275390625 0.979461669921875
7725581250.0 1.24249267578125 0.18035888671875
7756803125.0 1.08203125 -0.49822998046875
7788025000.0 0.669189453125 -1.0416259765625
7819246875.0 -0.12066650390625 -1.34613037109375
7850468750.0 -0.9891357421875 -0.91632080078125
7881690625.0 -1.22991943359375 -0.10565185546875
7912912500.0 -1.054443359375 0.55487060546875
7944134375.0 -0.60504150390625 1.11114501953125
7975356250.0 0.2708740234375 1.3343505859375
8006578125.0 1.04736328125 0.77880859375
8037800000.0 1.1929931640625 0.01629638671875
8069021875.0 1.0052490234375 -0.615966796875
8100243750.0 0.500244140625 -1.15985107421875
8131465625.0 -0.38690185546875 -1.2529296875
8162687500.0 -1.03118896484375 -0.68597412109375
8193909375.0 -1.17938232421875 0.00860595703125
8225131250.0 -1.01690673828125 0.6776123046875
8256353125.0 -0.421142578125 1.24798583984375
8287575000.0 0.49993896484375 1.2254638671875
8318796875.0 1.082763671875 0.63525390625
8350018750.0 1.2437744140625 -0.073974609375
8381240625.0 1.0301513671875 -0.83673095703125
8412462500.0 0.2547607421875 -1.371337890625
8443684375.0 -0.66680908203125 -1.17022705078125
8474906250.0 -1.17596435546875 -0.53216552734375
8506128125.0 -1.2977294921875 0.23858642578125
8537350000.0 -0.92462158203125 1.04388427734375
8568571875.0 -0.0164794921875 1.39410400390625
8599793750.0 0.798828125 1.05279541015625
8631015625.0 1.24041748046875 0.39776611328125
8662237500.0 1.28387451171875 -0.4273681640625
8693459375.0 0.7362060546875 -1.1766357421875
8724681250.0 -0.16168212890625 -1.3310546875
8755903125.0 -0.878875732421875 -0.957244873046875
8787125000.0 -1.3016357421875 -0.2813720703125
8818346875.0 -1.25091552734375 0.61578369140625
8849568750.0 -0.556640625 1.25982666015625
8880790625.0 0.29638671875 1.28240966796875
8912012500.0 0.980316162109375 0.8916015625
8943234375.0 1.396240234375 0.130615234375
8974456250.0 1.16668701171875 -0.83770751953125
9005678125.0 0.348876953125 -1.31201171875
9036900000.0 -0.44549560546875 -1.22509765625
9068121875.0 -1.09942626953125 -0.78570556640625
9099343750.0 -1.441162109375 0.09857177734375
9130565625.0 -0.97943115234375 1.01214599609375
9161787500.0 -0.155517578125 1.28057861328125
9193009375.0 0.55230712890625 1.13372802734375
9224231250.0 1.17901611328125 0.6546630859375
9255453125.0 1.39788818359375 -0.29351806640625
9286675000.0 0.806640625 -1.0826416015625
9317896875.0 0.02752685546875 -1.246826171875
9349118750.0 -0.6513671875 -1.06842041015625
9380340625.0 -1.2562255859375 -0.509033203125
9411562500.0 -1.31048583984375 0.47607421875
9442784375.0 -0.64801025390625 1.11444091796875
9474006250.0 0.09033203125 1.2109375
9505228125.0 0.762908935546875 0.979949951171875
9536450000.0 1.2725830078125 0.31329345703125
9567671875.0 1.1427001953125 -0.577880859375
9598893750.0 0.53045654296875 -1.067138671875
9630115625.0 -0.1429443359375 -1.156982421875
9661337500.0 -0.818695068359375 -0.902374267578125
9692559375.0 -1.23681640625 -0.19219970703125
9723781250.0 -1.0445556640625 0.60504150390625
9755003125.0 -0.486328125 1.04998779296875
9786225000.0 0.19677734375 1.158203125
9817446875.0 0.893768310546875 0.827484130859375
9848668750.0 1.1971435546875 0.07855224609375
9879890625.0 0.968170166015625 -0.61492919921875
9911112500.0 0.45208740234375 -1.05035400390625
9942334375.0 -0.264892578125 -1.15716552734375
9973556250.0 -0.94329833984375 -0.73883056640625
10004778125.0 -1.14617919921875 -0.016845703125
10036000000.0 -0.94378662109375 0.613128662109375
10067221875.0 -0.441650390625 1.0955810546875
10098443750.0 0.369384765625 1.1812744140625
10129665625.0 1.00177001953125 0.64337158203125
10160887500.0 1.1175537109375 -0.05035400390625
10192109375.0 0.917083740234375 -0.66290283203125
10223331250.0 0.36114501953125 -1.150634765625
10254553125.0 -0.4862060546875 -1.11395263671875
10285775000.0 -0.983673095703125 -0.536102294921875
10316996875.0 -1.06732177734375 0.07708740234375
10348218750.0 -0.899688720703125 0.66839599609375
10379440625.0 -0.32257080078125 1.174560546875
10410662500.0 0.522705078125 1.08428955078125
10441884375.0 0.992279052734375 0.521484375
10473106250.0 1.10821533203125 -0.0836181640625
10504328125.0 0.947998046875 -0.754669189453125
10535550000.0 0.2410888671875 -1.29345703125
10566771875.0 -0.65509033203125 -1.07684326171875
10597993750.0 -1.08050537109375 -0.45880126953125
10629215625.0 -1.1751708984375 0.20599365234375
10660437500.0 -0.8878173828125 0.950164794921875
10691659375.0 -0.01055908203125 1.33544921875
10722881250.0 0.784393310546875 0.9527587890625
10754103125.0 1.117919921875 0.32489013671875
10785325000.0 1.1400146484375 -0.36663818359375
10816546875.0 0.70135498046875 -1.04669189453125
10847768750.0 -0.14276123046875 -1.22784423828125
10878990625.0 -0.8035888671875 -0.84393310546875
10910212500.0 -1.1226806640625 -0.24456787109375
10941434375.0 -1.0966796875 0.4759521484375
10972656250.0 -0.568359375 1.0841064453125
11003878125.0 0.21533203125 1.1728515625
11035100000.0 0.84674072265625 0.821807861328125
11066321875.0 1.21954345703125 0.1749267578125
11097543750.0 1.097412109375 -0.6749267578125
11128765625.0 0.385986328125 -1.1971435546875
11159987500.0 -0.39666748046875 -1.13885498046875
11191209375.0 -0.99798583984375 -0.70294189453125
11222431250.0 -1.271484375 0.09185791015625
11253653125.0 -0.8580322265625 0.8916015625
11284875000.0 -0.11517333984375 1.126220703125
11316096875.0 0.510498046875 0.9561767578125
11347318750.0 1.00299072265625 0.50225830078125
11378540625.0 1.1165771484375 -0.26898193359375
11409762500.0 0.63433837890625 -0.85931396484375
11440984375.0 0.036376953125 -0.97686767578125
11472206250.0 -0.4794921875 -0.849761962890625
11503428125.0 -0.951202392578125 -0.45697021484375
11534650000.0 -1.0684814453125 0.2877197265625
11565871875.0 -0.602813720703125 0.8538818359375
11597093750.0 -0.019561767578125 0.991058349609375
11628315625.0 0.542755126953125 0.874755859375
11659537500.0 1.059326171875 0.39251708984375
11690759375.0 1.064453125 -0.4332275390625
11721981250.0 0.517181396484375 -0.939697265625
11753203125.0 -0.1048583984375 -1.03558349609375
11784425000.0 -0.724639892578125 -0.809356689453125
11815646875.0 -1.0994873046875 -0.15142822265625
11846868750.0 -0.890899658203125 0.551025390625
11878090625.0 -0.391998291015625 0.908203125
11909312500.0 0.18609619140625 0.984375
11940534375.0 0.77911376953125 0.69488525390625
11971756250.0 1.0240478515625 0.03936767578125
12002978125.0 0.806640625 -0.537689208984375
12034200000.0 0.381011962890625 -0.889678955078125
12065421875.0 -0.21392822265625 -1.00811767578125
12096643750.0 -0.84661865234375 -0.665283203125
12127865625.0 -1.03350830078125 0.015625
12159087500.0 -0.81512451171875 0.574188232421875
12190309375.0 -0.37774658203125 0.974578857421875
12221531250.0 0.33905029296875 1.08819580078125
12252753125.0 0.979736328125 0.581329345703125
12283975000.0 1.05364990234375 -0.12664794921875
12315196875.0 0.7998046875 -0.6759033203125
12346418750.0 0.28204345703125 -1.0897216796875
12377640625.0 -0.537109375 -1.0604248046875
12408862500.0 -1.0328369140625 -0.42095947265625
12440084375.0 -1.00897216796875 0.22509765625
12471306250.0 -0.741302490234375 0.73602294921875
12502528125.0 -0.1793212890625 1.12078857421875
12533750000.0 0.61993408203125 0.993377685546875
12564971875.0 1.0413818359375 0.36358642578125
12596193750.0 1.029296875 -0.2630615234375
12627415625.0 0.748046875 -0.82794189453125
12658637500.0 0.07989501953125 -1.20648193359375
12689859375.0 -0.734710693359375 -0.966156005859375
12721081250.0 -1.1163330078125 -0.3067626953125
12752303125.0 -1.096923828125 0.38232421875
12783525000.0 -0.6884765625 1.025634765625
12814746875.0 0.163330078125 1.24993896484375
12845968750.0 0.86309814453125 0.81072998046875
12877190625.0 1.11663818359375 0.17181396484375
12908412500.0 1.055908203125 -0.50140380859375
12939634375.0 0.54266357421875 -1.11627197265625
12970856250.0 -0.32037353515625 -1.1744384765625
13002078125.0 -0.8924560546875 -0.6939697265625
13033300000.0 -1.10467529296875 -0.08758544921875
13064521875.0 -1.00897216796875 0.59088134765625
13095743750.0 -0.4202880859375 1.15362548828125
13126965625.0 0.40826416015625 1.120361328125
13158187500.0 0.945709228515625 0.6319580078125
13189409375.0 1.1470947265625 -0.02105712890625
13220631250.0 0.93621826171875 -0.7452392578125
13251853125.0 0.23455810546875 -1.17218017578125
13283075000.0 -0.5068359375 -1.01953125
13314296875.0 -0.98651123046875 -0.529693603515625
13345518750.0 -1.13385009765625 0.1756591796875
13376740625.0 -0.753753662109375 0.857391357421875
13407962500.0 -0.06036376953125 1.06573486328125
