!Created with skrf (http://scikit-rf.org).
# Hz S RI R 50.0 
!freq ReS11 ImS11
45000000.0 -0.07722091674804688 -0.09665679931640625
76221875.0 -0.196563720703125 -0.04740142822265625
107443750.0 -0.2547149658203125 0.1201019287109375
138665625.0 -0.1476898193359375 0.3290557861328125
169887500.0 0.1242218017578125 0.417236328125
201109375.0 0.422271728515625 0.2802276611328125
232331250.0 0.578704833984375 -0.058319091796875
263553125.0 0.488800048828125 -0.4536285400390625
294775000.0 0.097259521484375 -0.732696533203125
325996875.0 -0.41656494140625 -0.680084228515625
357218750.0 -0.806732177734375 -0.295562744140625
388440625.0 -0.885101318359375 0.301910400390625
419662500.0 -0.5159912109375 0.867095947265625
450884375.0 0.17462158203125 1.02813720703125
482106250.0 0.799407958984375 0.711273193359375
513328125.0 1.119140625 0.08575439453125
544550000.0 1.00262451171875 -0.68121337890625
575771875.0 0.334716796875 -1.2384033203125
606993750.0 -0.55560302734375 -1.1761474609375
638215625.0 -1.16644287109375 -0.5882568359375
669437500.0 -1.3388671875 0.23565673828125
700659375.0 -0.96905517578125 1.09716796875
731881250.0 -0.0013427734375 1.54241943359375
763103125.0 1.00701904296875 1.154052734375
794325000.0 1.468505859375 0.27972412109375
825546875.0 1.36602783203125 -0.6533203125
856768750.0 0.79217529296875 -1.40167236328125
887990625.0 -0.2950439453125 -1.6474609375
919212500.0 -1.28948974609375 -1.07623291015625
950434375.0 -1.64794921875 -0.05682373046875
981656250.0 -1.38031005859375 0.947021484375
1012878125.0 -0.52734375 1.671630859375
1044100000.0 0.69940185546875 1.6597900390625
1075321875.0 1.57452392578125 0.80926513671875
1106543750.0 1.703125 -0.31536865234375
1137765625.0 1.1839599609375 -1.28594970703125
1168987500.0 0.13525390625 -1.79644775390625
1200209375.0 -1.0635986328125 -1.481201171875
1231431250.0 -1.7271728515625 -0.45074462890625
1262653125.0 -1.59228515625 0.68658447265625
1293875000.0 -0.8492431640625 1.4920654296875
1325096875.0 0.23089599609375 1.7049560546875
1356318750.0 1.23583984375 1.2142333984375
1387540625.0 1.7388916015625 0.18609619140625
1418762500.0 1.46697998046875 -0.95294189453125
1449984375.0 0.5267333984375 -1.625732421875
1481206250.0 -0.55169677734375 -1.55426025390625
1512428125.0 -1.3424072265625 -0.917236328125
1543650000.0 -1.654296875 0.06756591796875
1574871875.0 -1.271240234375 1.11004638671875
1606093750.0 -0.27001953125 1.631103515625
1637315625.0 0.74371337890625 1.39837646484375
1668537500.0 1.39593505859375 0.69305419921875
1699759375.0 1.5716552734375 -0.27923583984375
1730981250.0 1.0615234375 -1.2301025390625
1762203125.0 0.03961181640625 -1.5694580078125
1793425000.0 -0.856201171875 -1.224365234375
1824646875.0 -1.39312744140625 -0.51287841796875
1855868750.0 -1.4722900390625 0.43377685546875
1887090625.0 -0.8729248046875 1.2852783203125
1918312500.0 0.1187744140625 1.4852294921875
1949534375.0 0.92236328125 1.08734130859375
1980756250.0 1.37469482421875 0.3680419921875
2011978125.0 1.3580322265625 -0.533447265625
2043200000.0 0.74774169921875 -1.26129150390625
2074421875.0 -0.1585693359375 -1.43218994140625
2105643750.0 -0.9605712890625 -1.07037353515625
2136865625.0 -1.44635009765625 -0.302978515625
2168087500.0 -1.35516357421875 0.67230224609375
2199309375.0 -0.63665771484375 1.35101318359375
2230531250.0 0.2833251953125 1.43450927734375
2261753125.0 1.0728759765625 1.01165771484375
2292975000.0 1.51312255859375 0.16815185546875
2324196875.0 1.3035888671875 -0.82012939453125
2355418750.0 0.52325439453125 -1.4193115234375
2386640625.0 -0.40606689453125 -1.44732666015625
2417862500.0 -1.18035888671875 -1.02203369140625
2449084375.0 -1.60369873046875 -0.0816650390625
2480306250.0 -1.30902099609375 0.92620849609375
2511528125.0 -0.49169921875 1.50653076171875
2542750000.0 0.490234375 1.53448486328125
2573971875.0 1.37005615234375 0.9659423828125
2605193750.0 1.7156982421875 -0.11444091796875
2636415625.0 1.25836181640625 -1.153076171875
2667637500.0 0.3046875 -1.66552734375
2698859375.0 -0.77142333984375 -1.5323486328125
2730081250.0 -1.5738525390625 -0.73785400390625
2761303125.0 -1.67901611328125 0.38983154296875
2792525000.0 -1.095947265625 1.30810546875
2823746875.0 -0.0992431640625 1.7281494140625
2854968750.0 1.01263427734375 1.452392578125
2886190625.0 1.69024658203125 0.4893798828125
2917412500.0 1.59716796875 -0.61907958984375
2948634375.0 0.93695068359375 -1.4327392578125
2979856250.0 -0.109130859375 -1.77313232421875
3011078125.0 -1.24749755859375 -1.33905029296875
3042300000.0 -1.77239990234375 -0.2325439453125
3073521875.0 -1.5057373046875 0.839111328125
3104743750.0 -0.7607421875 1.56842041015625
3135965625.0 0.3642578125 1.80694580078125
3167187500.0 1.4976806640625 1.16094970703125
3198409375.0 1.8133544921875 -0.07684326171875
3229631250.0 1.34625244140625 -1.0816650390625
3260853125.0 0.48681640625 -1.66741943359375
3292075000.0 -0.6551513671875 -1.69439697265625
3323296875.0 -1.6197509765625 -0.87628173828125
3354518750.0 -1.72735595703125 0.330810546875
3385740625.0 -1.1531982421875 1.2333984375
3416962500.0 -0.229736328125 1.67974853515625
3448184375.0 0.86102294921875 1.51837158203125
3479406250.0 1.63421630859375 0.641845703125
3510628125.0 1.64178466796875 -0.49609375
3541850000.0 0.99688720703125 -1.35382080078125
3573071875.0 -0.01031494140625 -1.6810302734375
3604293750.0 -1.029541015625 -1.3350830078125
3635515625.0 -1.6253662109375 -0.4364013671875
3666737500.0 -1.56036376953125 0.64862060546875
3697959375.0 -0.822265625 1.47564697265625
3729181250.0 0.27001953125 1.6287841796875
3760403125.0 1.1524658203125 1.09539794921875
3791625000.0 1.550537109375 0.21630859375
3822846875.0 1.39862060546875 -0.761474609375
3854068750.0 0.61737060546875 -1.479736328125
3885290625.0 -0.4219970703125 -1.478515625
3916512500.0 -1.1416015625 -0.90850830078125
3947734375.0 -1.44598388671875 -0.11767578125
3978956250.0 -1.294677734375 0.778564453125
4010178125.0 -0.52935791015625 1.4539794921875
4041400000.0 0.4737548828125 1.4130859375
4072621875.0 1.15130615234375 0.84539794921875
4103843750.0 1.4439697265625 0.06121826171875
4135065625.0 1.26556396484375 -0.84710693359375
4166287500.0 0.455810546875 -1.494384765625
4197509375.0 -0.55706787109375 -1.41265869140625
4228731250.0 -1.24700927734375 -0.80084228515625
4259953125.0 -1.507568359375 0.07232666015625
4291175000.0 -1.18609619140625 1.010986328125
4322396875.0 -0.28704833984375 1.52557373046875
4353618750.0 0.67327880859375 1.34716796875
4384840625.0 1.3211669921875 0.69476318359375
4416062500.0 1.49853515625 -0.2286376953125
4447284375.0 1.05316162109375 -1.10430908203125
4478506250.0 0.1707763671875 -1.49365234375
4509728125.0 -0.73284912109375 -1.30560302734375
4540950000.0 -1.39190673828125 -0.634765625
4572171875.0 -1.5205078125 0.3614501953125
4603393750.0 -0.97064208984375 1.2117919921875
4634615625.0 -0.060791015625 1.5341796875
4665837500.0 0.86981201171875 1.3021240234375
4697059375.0 1.54083251953125 0.5128173828125
4728281250.0 1.52679443359375 -0.58306884765625
4759503125.0 0.82110595703125 -1.3668212890625
4790725000.0 -0.1466064453125 -1.57135009765625
4821946875.0 -1.08331298828125 -1.19171142578125
4853168750.0 -1.612060546875 -0.24908447265625
4884390625.0 -1.3760986328125 0.79425048828125
4915612500.0 -0.6112060546875 1.4119873046875
4946834375.0 0.33026123046875 1.50799560546875
4978056250.0 1.2049560546875 1.01483154296875
5009278125.0 1.5601806640625 0.0374755859375
5040500000.0 1.22698974609375 -0.87518310546875
5071721875.0 0.5001220703125 -1.41357421875
5102943750.0 -0.4476318359375 -1.495361328125
5134165625.0 -1.33502197265625 -0.90338134765625
5165387500.0 -1.56610107421875 0.14678955078125
5196609375.0 -1.134521484375 1.0101318359375
5227831250.0 -0.3558349609375 1.504638671875
5259053125.0 0.68927001953125 1.4903564453125
5290275000.0 1.52203369140625 0.66070556640625
5321496875.0 1.49090576171875 -0.4315185546875
5352718750.0 0.91949462890625 -1.15338134765625
5383940625.0 0.09417724609375 -1.5001220703125
5415162500.0 -0.900634765625 -1.28240966796875
5446384375.0 -1.4835205078125 -0.367919921875
5477606250.0 -1.2974853515625 0.5675048828125
5508828125.0 -0.72930908203125 1.15069580078125
5540050000.0 0.0550537109375 1.39678955078125
5571271875.0 0.9388427734375 1.10675048828125
5602493750.0 1.407470703125 0.25823974609375
5633715625.0 1.23016357421875 -0.61279296875
5664937500.0 0.646484375 -1.201416015625
5696159375.0 -0.19775390625 -1.38250732421875
5727381250.0 -1.02130126953125 -0.9766845703125
5758603125.0 -1.390869140625 -0.14373779296875
5789825000.0 -1.1925048828125 0.7181396484375
5821046875.0 -0.505859375 1.30517578125
5852268750.0 0.412353515625 1.3114013671875
5883490625.0 1.07000732421875 0.77081298828125
5914712500.0 1.30181884765625 0.01873779296875
5945934375.0 1.094482421875 -0.776123046875
5977156250.0 0.3602294921875 -1.3104248046875
6008378125.0 -0.509765625 -1.1810302734375
6039600000.0 -1.021728515625 -0.64752197265625
6070821875.0 -1.2232666015625 -0.00286865234375
6102043750.0 -1.0819091796875 0.763916015625
6133265625.0 -0.34100341796875 1.3428955078125
6164487500.0 0.56304931640625 1.18603515625
6195709375.0 1.069580078125 0.6290283203125
6226931250.0 1.2786865234375 -0.0433349609375
6258153125.0 1.10296630859375 -0.87109375
6289375000.0 0.2552490234375 -1.44500732421875
6320596875.0 -0.68963623046875 -1.205078125
6351818750.0 -1.20037841796875 -0.57061767578125
6383040625.0 -1.35321044921875 0.20770263671875
6414262500.0 -0.998046875 1.05877685546875
6445484375.0 -0.07659912109375 1.45660400390625
6476706250.0 0.7957763671875 1.146728515625
6507928125.0 1.28973388671875 0.46868896484375
6539150000.0 1.3463134765625 -0.3868408203125
6570371875.0 0.8397216796875 -1.1439208984375
6601593750.0 -0.0189208984375 -1.40380859375
6632815625.0 -0.8397216796875 -1.1341552734375
6664037500.0 -1.40081787109375 -0.4185791015625
6695259375.0 -1.3720703125 0.56646728515625
6726481250.0 -0.7086181640625 1.2510986328125
6757703125.0 0.13214111328125 1.40667724609375
6788925000.0 0.9554443359375 1.12908935546875
6820146875.0 1.55938720703125 0.28656005859375
6851368750.0 1.324951171875 -0.82012939453125
6882590625.0 0.505126953125 -1.33770751953125
6913812500.0 -0.2930908203125 -1.35540771484375
6945034375.0 -1.07012939453125 -1.02069091796875
6976256250.0 -1.59173583984375 -0.09197998046875
7007478125.0 -1.23358154296875 0.93328857421875
7038700000.0 -0.4005126953125 1.34271240234375
7069921875.0 0.35986328125 1.32196044921875
7101143750.0 1.1175537109375 0.9666748046875
7132365625.0 1.59771728515625 0.0146484375
7163587500.0 1.15521240234375 -1.0181884765625
7194809375.0 0.3006591796875 -1.39703369140625
7226031250.0 -0.50982666015625 -1.3232421875
7257253125.0 -1.26580810546875 -0.8221435546875
7288475000.0 -1.5577392578125 0.20111083984375
7319696875.0 -1.02978515625 1.1112060546875
7350918750.0 -0.16326904296875 1.443603515625
7382140625.0 0.71734619140625 1.27447509765625
7413362500.0 1.37451171875 0.5743408203125
7444584375.0 1.4105224609375 -0.40765380859375
7475806250.0 0.85675048828125 -1.1429443359375
7507028125.0 0.00396728515625 -1.429931640625
7538250000.0 -0.88702392578125 -1.123046875
7569471875.0 -1.3358154296875 -0.30926513671875
7600693750.0 -1.20184326171875 0.49859619140625
7631915625.0 -0.71630859375 1.0855712890625
7663137500.0 0.0819091796875 1.35845947265625
7694359375.0 0.9420166015625 0.979949951171875
7725581250.0 1.2427978515625 0.17974853515625
7756803125.0 1.08221435546875 -0.49945068359375
7788025000.0 0.66900634765625 -1.0435791015625
7819246875.0 -0.12158203125 -1.3472900390625
7850468750.0 -0.992523193359375 -0.91455078125
7881690625.0 -1.2325439453125 -0.103759765625
7912912500.0 -1.05413818359375 0.5548095703125
7944134375.0 -0.60382080078125 1.11175537109375
7975356250.0 0.27056884765625 1.33380126953125
8006578125.0 1.0484619140625 0.77783203125
8037800000.0 1.19146728515625 0.01617431640625
8069021875.0 1.00531005859375 -0.6153564453125
8100243750.0 0.499755859375 -1.16058349609375
8131465625.0 -0.385986328125 -1.25152587890625
8162687500.0 -1.032470703125 -0.68487548828125
8193909375.0 -1.18017578125 0.0098876953125
8225131250.0 -1.0166015625 0.67767333984375
8256353125.0 -0.41949462890625 1.250244140625
8287575000.0 0.4996337890625 1.223876953125
8318796875.0 1.08258056640625 0.63427734375
8350018750.0 1.24456787109375 -0.0775146484375
8381240625.0 1.03009033203125 -0.840576171875
8412462500.0 0.2540283203125 -1.372314453125
8443684375.0 -0.66998291015625 -1.169921875
8474906250.0 -1.17425537109375 -0.53192138671875
8506128125.0 -1.2965087890625 0.23699951171875
8537350000.0 -0.92340087890625 1.0477294921875
8568571875.0 -0.01513671875 1.3931884765625
8599793750.0 0.80291748046875 1.0517578125
8631015625.0 1.2413330078125 0.39788818359375
8662237500.0 1.283935546875 -0.4300537109375
8693459375.0 0.7347412109375 -1.17919921875
8724681250.0 -0.1650390625 -1.3316650390625
8755903125.0 -0.88104248046875 -0.9569091796875
8787125000.0 -1.3026123046875 -0.28143310546875
8818346875.0 -1.24945068359375 0.616455078125
8849568750.0 -0.555908203125 1.2608642578125
8880790625.0 0.29815673828125 1.2833251953125
8912012500.0 0.9813232421875 0.891571044921875
8943234375.0 1.39825439453125 0.12762451171875
8974456250.0 1.1673583984375 -0.83966064453125
9005678125.0 0.34765625 -1.31268310546875
9036900000.0 -0.44525146484375 -1.22442626953125
9068121875.0 -1.1005859375 -0.78497314453125
9099343750.0 -1.44061279296875 0.0980224609375
9130565625.0 -0.97833251953125 1.010986328125
9161787500.0 -0.1533203125 1.28277587890625
9193009375.0 0.55535888671875 1.132568359375
9224231250.0 1.17864990234375 0.654052734375
9255453125.0 1.398193359375 -0.29571533203125
9286675000.0 0.8048095703125 -1.08746337890625
9317896875.0 0.0260009765625 -1.24615478515625
9349118750.0 -0.65362548828125 -1.06829833984375
9380340625.0 -1.25738525390625 -0.50830078125
9411562500.0 -1.310791015625 0.478271484375
9442784375.0 -0.646728515625 1.1181640625
9474006250.0 0.08978271484375 1.21124267578125
9505228125.0 0.767608642578125 0.979522705078125
9536450000.0 1.27435302734375 0.3115234375
9567671875.0 1.14324951171875 -0.580810546875
9598893750.0 0.5289306640625 -1.06854248046875
9630115625.0 -0.143798828125 -1.15777587890625
9661337500.0 -0.81939697265625 -0.901824951171875
9692559375.0 -1.239013671875 -0.18896484375
9723781250.0 -1.04345703125 0.60369873046875
9755003125.0 -0.48480224609375 1.05047607421875
9786225000.0 0.19842529296875 1.1593017578125
9817446875.0 0.89508056640625 0.826934814453125
9848668750.0 1.1973876953125 0.077880859375
9879890625.0 0.9671630859375 -0.615692138671875
9911112500.0 0.45172119140625 -1.05145263671875
9942334375.0 -0.26751708984375 -1.158447265625
9973556250.0 -0.944610595703125 -0.737701416015625
10004778125.0 -1.14569091796875 -0.01715087890625
10036000000.0 -0.94281005859375 0.615142822265625
10067221875.0 -0.44049072265625 1.09796142578125
10098443750.0 0.36932373046875 1.18206787109375
10129665625.0 1.0028076171875 0.64288330078125
10160887500.0 1.12005615234375 -0.05340576171875
10192109375.0 0.9171142578125 -0.662384033203125
10223331250.0 0.361328125 -1.1527099609375
10254553125.0 -0.48516845703125 -1.11297607421875
10285775000.0 -0.983673095703125 -0.535614013671875
10316996875.0 -1.06683349609375 0.0771484375
10348218750.0 -0.898956298828125 0.669830322265625
10379440625.0 -0.32086181640625 1.17401123046875
10410662500.0 0.52886962890625 1.08544921875
10441884375.0 0.992279052734375 0.520721435546875
10473106250.0 1.10821533203125 -0.08453369140625
10504328125.0 0.948272705078125 -0.756072998046875
10535550000.0 0.2381591796875 -1.2952880859375
10566771875.0 -0.65814208984375 -1.07720947265625
10597993750.0 -1.08148193359375 -0.457763671875
10629215625.0 -1.17425537109375 0.20574951171875
10660437500.0 -0.88623046875 0.9515380859375
10691659375.0 -0.0091552734375 1.33502197265625
10722881250.0 0.785491943359375 0.952178955078125
10754103125.0 1.118896484375 0.32452392578125
10785325000.0 1.13848876953125 -0.367431640625
10816546875.0 0.700439453125 -1.049072265625
10847768750.0 -0.14617919921875 -1.228759765625
10878990625.0 -0.8035888671875 -0.843170166015625
10910212500.0 -1.12237548828125 -0.24371337890625
10941434375.0 -1.0965576171875 0.4775390625
10972656250.0 -0.5667724609375 1.08642578125
11003878125.0 0.21734619140625 1.17333984375
11035100000.0 0.847869873046875 0.82177734375
11066321875.0 1.2198486328125 0.1739501953125
11097543750.0 1.09759521484375 -0.677001953125
11128765625.0 0.38629150390625 -1.19842529296875
11159987500.0 -0.39678955078125 -1.138671875
11191209375.0 -0.998748779296875 -0.701568603515625
11222431250.0 -1.27130126953125 0.09185791015625
11253653125.0 -0.857666015625 0.895599365234375
11284875000.0 -0.11346435546875 1.12713623046875
11316096875.0 0.511444091796875 0.954864501953125
11347318750.0 1.002197265625 0.50213623046875
11378540625.0 1.11663818359375 -0.2698974609375
11409762500.0 0.633880615234375 -0.860076904296875
11440984375.0 0.034454345703125 -0.97808837890625
11472206250.0 -0.4832763671875 -0.849945068359375
11503428125.0 -0.952392578125 -0.455841064453125
11534650000.0 -1.0673828125 0.287841796875
11565871875.0 -0.6015625 0.856689453125
11597093750.0 -0.017974853515625 0.98968505859375
11628315625.0 0.544189453125 0.87432861328125
11659537500.0 1.0595703125 0.39202880859375
11690759375.0 1.064697265625 -0.433349609375
11721981250.0 0.515869140625 -0.94171142578125
11753203125.0 -0.10821533203125 -1.0369873046875
11784425000.0 -0.724578857421875 -0.808074951171875
11815646875.0 -1.1002197265625 -0.150634765625
11846868750.0 -0.89056396484375 0.55059814453125
11878090625.0 -0.390655517578125 0.9097900390625
11909312500.0 0.189117431640625 0.984588623046875
11940534375.0 0.7801513671875 0.695037841796875
11971756250.0 1.02398681640625 0.03900146484375
12002978125.0 0.80548095703125 -0.537567138671875
12034200000.0 0.380462646484375 -0.889984130859375
12065421875.0 -0.21527099609375 -1.0098876953125
12096643750.0 -0.84783935546875 -0.664306640625
12127865625.0 -1.03350830078125 0.01666259765625
12159087500.0 -0.814483642578125 0.57501220703125
12190309375.0 -0.37591552734375 0.9754638671875
12221531250.0 0.3402099609375 1.087646484375
12252753125.0 0.981109619140625 0.580657958984375
12283975000.0 1.0533447265625 -0.12799072265625
12315196875.0 0.7994384765625 -0.677459716796875
12346418750.0 0.2808837890625 -1.09161376953125
12377640625.0 -0.53778076171875 -1.06036376953125
12408862500.0 -1.03338623046875 -0.4200439453125
12440084375.0 -1.00714111328125 0.2242431640625
12471306250.0 -0.7408447265625 0.7379150390625
12502528125.0 -0.17864990234375 1.1202392578125
12533750000.0 0.62115478515625 0.992706298828125
12564971875.0 1.0419921875 0.36285400390625
12596193750.0 1.029541015625 -0.26611328125
12627415625.0 0.746826171875 -0.828369140625
12658637500.0 0.0791015625 -1.207763671875
12689859375.0 -0.736053466796875 -0.965423583984375
12721081250.0 -1.11712646484375 -0.30511474609375
12752303125.0 -1.0975341796875 0.38311767578125
12783525000.0 -0.68695068359375 1.0262451171875
12814746875.0 0.16522216796875 1.25164794921875
12845968750.0 0.860809326171875 0.81072998046875
12877190625.0 1.1175537109375 0.17095947265625
12908412500.0 1.05511474609375 -0.5028076171875
12939634375.0 0.5416259765625 -1.11724853515625
12970856250.0 -0.32208251953125 -1.1754150390625
13002078125.0 -0.895782470703125 -0.692901611328125
13033300000.0 -1.10443115234375 -0.08660888671875
13064521875.0 -1.0086669921875 0.59393310546875
13095743750.0 -0.42010498046875 1.15545654296875
13126965625.0 0.4080810546875 1.120361328125
13158187500.0 0.948028564453125 0.63201904296875
13189409375.0 1.14849853515625 -0.021728515625
13220631250.0 0.935333251953125 -0.746246337890625
13251853125.0 0.23358154296875 -1.1710205078125
13283075000.0 -0.5072021484375 -1.0189208984375
13314296875.0 -0.98712158203125 -0.528411865234375
13345518750.0 -1.134765625 0.17669677734375
