!Created with skrf (http://scikit-rf.org).
# Hz S RI R 50.0 
!freq ReS11 ImS11
45000000.0 -0.07728195190429688 -0.09671401977539062
76221875.0 -0.1966552734375 -0.04714202880859375
107443750.0 -0.2549285888671875 0.1201629638671875
138665625.0 -0.14776611328125 0.3288726806640625
169887500.0 0.1242828369140625 0.41748046875
201109375.0 0.422393798828125 0.280517578125
232331250.0 0.5791015625 -0.058258056640625
263553125.0 0.489349365234375 -0.4537811279296875
294775000.0 0.097625732421875 -0.73291015625
325996875.0 -0.41656494140625 -0.680419921875
357218750.0 -0.80718994140625 -0.29620361328125
388440625.0 -0.885711669921875 0.301910400390625
419662500.0 -0.51611328125 0.867340087890625
450884375.0 0.1746826171875 1.029052734375
482106250.0 0.799652099609375 0.711883544921875
513328125.0 1.11993408203125 0.08563232421875
544550000.0 1.0032958984375 -0.681396484375
575771875.0 0.33477783203125 -1.23883056640625
606993750.0 -0.55560302734375 -1.1768798828125
638215625.0 -1.16693115234375 -0.58892822265625
669437500.0 -1.3397216796875 0.23529052734375
700659375.0 -0.96990966796875 1.09759521484375
731881250.0 -0.0018310546875 1.54302978515625
763103125.0 1.007080078125 1.154541015625
794325000.0 1.46917724609375 0.280029296875
825546875.0 1.3668212890625 -0.65301513671875
856768750.0 0.79296875 -1.402099609375
887990625.0 -0.29498291015625 -1.64825439453125
919212500.0 -1.2894287109375 -1.07708740234375
950434375.0 -1.64910888671875 -0.0567626953125
981656250.0 -1.38128662109375 0.94781494140625
1012878125.0 -0.5274658203125 1.67333984375
1044100000.0 0.699462890625 1.66131591796875
1075321875.0 1.57550048828125 0.80987548828125
1106543750.0 1.70416259765625 -0.3153076171875
1137765625.0 1.1849365234375 -1.28594970703125
1168987500.0 0.13592529296875 -1.79742431640625
1200209375.0 -1.06396484375 -1.4825439453125
1231431250.0 -1.72796630859375 -0.45159912109375
1262653125.0 -1.59326171875 0.68682861328125
1293875000.0 -0.8494873046875 1.492431640625
1325096875.0 0.22991943359375 1.7056884765625
1356318750.0 1.236572265625 1.21527099609375
1387540625.0 1.7398681640625 0.18670654296875
1418762500.0 1.46820068359375 -0.9532470703125
1449984375.0 0.52740478515625 -1.6260986328125
1481206250.0 -0.5517578125 -1.555419921875
1512428125.0 -1.34295654296875 -0.9180908203125
1543650000.0 -1.65576171875 0.06744384765625
1574871875.0 -1.2720947265625 1.1104736328125
1606093750.0 -0.270751953125 1.63140869140625
1637315625.0 0.74359130859375 1.39910888671875
1668537500.0 1.39678955078125 0.69390869140625
1699759375.0 1.57232666015625 -0.2791748046875
1730981250.0 1.0621337890625 -1.2303466796875
1762203125.0 0.04071044921875 -1.56939697265625
1793425000.0 -0.8568115234375 -1.22503662109375
1824646875.0 -1.39324951171875 -0.513671875
1855868750.0 -1.4730224609375 0.43341064453125
1887090625.0 -0.87347412109375 1.28564453125
1918312500.0 0.11846923828125 1.4862060546875
1949534375.0 0.922607421875 1.088134765625
1980756250.0 1.37542724609375 0.36822509765625
2011978125.0 1.3583984375 -0.532958984375
2043200000.0 0.74835205078125 -1.26220703125
2074421875.0 -0.15838623046875 -1.43218994140625
2105643750.0 -0.961181640625 -1.07061767578125
2136865625.0 -1.44696044921875 -0.30316162109375
2168087500.0 -1.35589599609375 0.6719970703125
2199309375.0 -0.637451171875 1.3515625
2230531250.0 0.282958984375 1.43499755859375
2261753125.0 1.072998046875 1.01226806640625
2292975000.0 1.51416015625 0.16839599609375
2324196875.0 1.30413818359375 -0.8197021484375
2355418750.0 0.52374267578125 -1.41998291015625
2386640625.0 -0.40521240234375 -1.44775390625
2417862500.0 -1.1815185546875 -1.02301025390625
2449084375.0 -1.6044921875 -0.082763671875
2480306250.0 -1.31011962890625 0.926025390625
2511528125.0 -0.49188232421875 1.5074462890625
2542750000.0 0.4892578125 1.53485107421875
2573971875.0 1.37109375 0.96636962890625
2605193750.0 1.7169189453125 -0.11468505859375
2636415625.0 1.26019287109375 -1.15277099609375
2667637500.0 0.30487060546875 -1.6669921875
2698859375.0 -0.7711181640625 -1.5335693359375
2730081250.0 -1.57293701171875 -0.73846435546875
2761303125.0 -1.67987060546875 0.3887939453125
2792525000.0 -1.09735107421875 1.3074951171875
2823746875.0 -0.0997314453125 1.72930908203125
2854968750.0 1.0126953125 1.45379638671875
2886190625.0 1.69134521484375 0.48931884765625
2917412500.0 1.598876953125 -0.6187744140625
2948634375.0 0.9373779296875 -1.43365478515625
2979856250.0 -0.109619140625 -1.77630615234375
3011078125.0 -1.24822998046875 -1.34033203125
3042300000.0 -1.77484130859375 -0.232421875
3073521875.0 -1.50677490234375 0.838134765625
3104743750.0 -0.761474609375 1.568359375
3135965625.0 0.36370849609375 1.808837890625
3167187500.0 1.50115966796875 1.16168212890625
3198409375.0 1.8160400390625 -0.07769775390625
3229631250.0 1.3472900390625 -1.08331298828125
3260853125.0 0.48773193359375 -1.66802978515625
3292075000.0 -0.65509033203125 -1.6959228515625
3323296875.0 -1.6190185546875 -0.87786865234375
3354518750.0 -1.72943115234375 0.33074951171875
3385740625.0 -1.15411376953125 1.23187255859375
3416962500.0 -0.2296142578125 1.68035888671875
3448184375.0 0.86029052734375 1.51922607421875
3479406250.0 1.63616943359375 0.6427001953125
3510628125.0 1.6424560546875 -0.4957275390625
3541850000.0 0.9990234375 -1.35577392578125
3573071875.0 -0.00946044921875 -1.68145751953125
3604293750.0 -1.0286865234375 -1.3358154296875
3635515625.0 -1.62860107421875 -0.43603515625
3666737500.0 -1.56085205078125 0.64813232421875
3697959375.0 -0.82318115234375 1.47650146484375
3729181250.0 0.2694091796875 1.6298828125
3760403125.0 1.15283203125 1.09619140625
3791625000.0 1.55133056640625 0.2166748046875
3822846875.0 1.39996337890625 -0.7615966796875
3854068750.0 0.618408203125 -1.47998046875
3885290625.0 -0.42236328125 -1.4793701171875
3916512500.0 -1.1412353515625 -0.90911865234375
3947734375.0 -1.4468994140625 -0.11798095703125
3978956250.0 -1.2952880859375 0.7779541015625
4010178125.0 -0.53009033203125 1.453857421875
4041400000.0 0.473388671875 1.41436767578125
4072621875.0 1.15240478515625 0.84613037109375
4103843750.0 1.4442138671875 0.06201171875
4135065625.0 1.2664794921875 -0.8470458984375
4166287500.0 0.4560546875 -1.49566650390625
4197509375.0 -0.558349609375 -1.41412353515625
4228731250.0 -1.24737548828125 -0.80126953125
4259953125.0 -1.50830078125 0.072021484375
4291175000.0 -1.18695068359375 1.01116943359375
4322396875.0 -0.2884521484375 1.525146484375
4353618750.0 0.673828125 1.34893798828125
4384840625.0 1.322021484375 0.69549560546875
4416062500.0 1.49920654296875 -0.22821044921875
4447284375.0 1.0535888671875 -1.10504150390625
4478506250.0 0.17144775390625 -1.4940185546875
4509728125.0 -0.73297119140625 -1.3065185546875
4540950000.0 -1.39300537109375 -0.6346435546875
4572171875.0 -1.52117919921875 0.360595703125
4603393750.0 -0.97119140625 1.2127685546875
4634615625.0 -0.06103515625 1.535888671875
4665837500.0 0.8720703125 1.303955078125
4697059375.0 1.54095458984375 0.5140380859375
4728281250.0 1.5283203125 -0.58428955078125
4759503125.0 0.8221435546875 -1.3656005859375
4790725000.0 -0.1473388671875 -1.5721435546875
4821946875.0 -1.0853271484375 -1.19268798828125
4853168750.0 -1.6124267578125 -0.2503662109375
4884390625.0 -1.37677001953125 0.79327392578125
4915612500.0 -0.61181640625 1.4124755859375
4946834375.0 0.32928466796875 1.50750732421875
4978056250.0 1.20416259765625 1.01580810546875
5009278125.0 1.56146240234375 0.03814697265625
5040500000.0 1.228271484375 -0.87640380859375
5071721875.0 0.5 -1.4146728515625
5102943750.0 -0.44677734375 -1.49530029296875
5134165625.0 -1.335693359375 -0.90411376953125
5165387500.0 -1.56756591796875 0.14666748046875
5196609375.0 -1.13519287109375 1.00970458984375
5227831250.0 -0.35626220703125 1.5059814453125
5259053125.0 0.68853759765625 1.49114990234375
5290275000.0 1.52081298828125 0.66253662109375
5321496875.0 1.49169921875 -0.43182373046875
5352718750.0 0.91998291015625 -1.15289306640625
5383940625.0 0.09576416015625 -1.4991455078125
5415162500.0 -0.8992919921875 -1.2825927734375
5446384375.0 -1.48321533203125 -0.3692626953125
5477606250.0 -1.29803466796875 0.5667724609375
5508828125.0 -0.72979736328125 1.150146484375
5540050000.0 0.0550537109375 1.3974609375
5571271875.0 0.939208984375 1.1080322265625
5602493750.0 1.40753173828125 0.25909423828125
5633715625.0 1.231201171875 -0.6129150390625
5664937500.0 0.64776611328125 -1.200927734375
5696159375.0 -0.197265625 -1.383056640625
5727381250.0 -1.02239990234375 -0.97802734375
5758603125.0 -1.39105224609375 -0.14453125
5789825000.0 -1.19354248046875 0.7178955078125
5821046875.0 -0.5059814453125 1.30682373046875
5852268750.0 0.4117431640625 1.3125
5883490625.0 1.07171630859375 0.771484375
5914712500.0 1.30230712890625 0.01885986328125
5945934375.0 1.0950927734375 -0.775634765625
5977156250.0 0.36077880859375 -1.311767578125
6008378125.0 -0.510009765625 -1.18218994140625
6039600000.0 -1.02215576171875 -0.64862060546875
6070821875.0 -1.22430419921875 -0.00335693359375
6102043750.0 -1.0821533203125 0.76220703125
6133265625.0 -0.34124755859375 1.3436279296875
6164487500.0 0.56304931640625 1.186279296875
6195709375.0 1.070556640625 0.62957763671875
6226931250.0 1.2789306640625 -0.04290771484375
6258153125.0 1.1038818359375 -0.87127685546875
6289375000.0 0.25555419921875 -1.44512939453125
6320596875.0 -0.68988037109375 -1.20538330078125
6351818750.0 -1.19976806640625 -0.57147216796875
6383040625.0 -1.3546142578125 0.207275390625
6414262500.0 -0.99945068359375 1.05712890625
6445484375.0 -0.07733154296875 1.45697021484375
6476706250.0 0.79608154296875 1.1480712890625
6507928125.0 1.2896728515625 0.46966552734375
6539150000.0 1.34759521484375 -0.38836669921875
6570371875.0 0.84027099609375 -1.14459228515625
6601593750.0 -0.01861572265625 -1.4044189453125
6632815625.0 -0.84033203125 -1.13531494140625
6664037500.0 -1.4007568359375 -0.41912841796875
6695259375.0 -1.37371826171875 0.56658935546875
6726481250.0 -0.70953369140625 1.2508544921875
6757703125.0 0.131591796875 1.4063720703125
6788925000.0 0.95501708984375 1.12994384765625
6820146875.0 1.55975341796875 0.2874755859375
6851368750.0 1.32647705078125 -0.82061767578125
6882590625.0 0.506103515625 -1.33917236328125
6913812500.0 -0.29345703125 -1.35650634765625
6945034375.0 -1.07073974609375 -1.02081298828125
6976256250.0 -1.59332275390625 -0.09149169921875
7007478125.0 -1.23565673828125 0.93377685546875
7038700000.0 -0.4014892578125 1.3441162109375
7069921875.0 0.3602294921875 1.32318115234375
7101143750.0 1.11920166015625 0.967529296875
7132365625.0 1.59881591796875 0.01318359375
7163587500.0 1.15618896484375 -1.02215576171875
7194809375.0 0.302001953125 -1.3973388671875
7226031250.0 -0.513671875 -1.3245849609375
7257253125.0 -1.26666259765625 -0.82373046875
7288475000.0 -1.55816650390625 0.19891357421875
7319696875.0 -1.02880859375 1.110595703125
7350918750.0 -0.1632080078125 1.44561767578125
7382140625.0 0.71533203125 1.275390625
7413362500.0 1.37847900390625 0.575439453125
7444584375.0 1.41259765625 -0.40875244140625
7475806250.0 0.85760498046875 -1.14410400390625
7507028125.0 0.006103515625 -1.4281005859375
7538250000.0 -0.888427734375 -1.124755859375
7569471875.0 -1.33526611328125 -0.311279296875
7600693750.0 -1.2030029296875 0.49871826171875
7631915625.0 -0.71710205078125 1.0843505859375
7663137500.0 0.08087158203125 1.35772705078125
7694359375.0 0.941680908203125 0.980133056640625
7725581250.0 1.2430419921875 0.1790771484375
7756803125.0 1.08172607421875 -0.4991455078125
7788025000.0 0.66925048828125 -1.04376220703125
7819246875.0 -0.1197509765625 -1.345947265625
7850468750.0 -0.993194580078125 -0.915496826171875
7881690625.0 -1.22930908203125 -0.10662841796875
7912912500.0 -1.05340576171875 0.554443359375
7944134375.0 -0.60467529296875 1.11309814453125
7975356250.0 0.271484375 1.3349609375
8006578125.0 1.04779052734375 0.77838134765625
8037800000.0 1.1929931640625 0.01593017578125
8069021875.0 1.00701904296875 -0.61865234375
8100243750.0 0.49896240234375 -1.1627197265625
8131465625.0 -0.38775634765625 -1.25384521484375
8162687500.0 -1.0328369140625 -0.68634033203125
8193909375.0 -1.18017578125 0.00927734375
8225131250.0 -1.01690673828125 0.67950439453125
8256353125.0 -0.42034912109375 1.2486572265625
8287575000.0 0.50042724609375 1.226318359375
8318796875.0 1.08233642578125 0.6351318359375
8350018750.0 1.24517822265625 -0.0767822265625
8381240625.0 1.030517578125 -0.83978271484375
8412462500.0 0.25445556640625 -1.37286376953125
8443684375.0 -0.67108154296875 -1.17108154296875
8474906250.0 -1.17425537109375 -0.5311279296875
8506128125.0 -1.298828125 0.2391357421875
8537350000.0 -0.9232177734375 1.048095703125
8568571875.0 -0.0152587890625 1.395263671875
8599793750.0 0.8037109375 1.05328369140625
8631015625.0 1.24066162109375 0.39862060546875
8662237500.0 1.28485107421875 -0.42822265625
8693459375.0 0.73687744140625 -1.177490234375
8724681250.0 -0.1634521484375 -1.33233642578125
8755903125.0 -0.8792724609375 -0.956634521484375
8787125000.0 -1.30419921875 -0.2813720703125
8818346875.0 -1.2501220703125 0.61566162109375
8849568750.0 -0.556884765625 1.26025390625
8880790625.0 0.29937744140625 1.28515625
8912012500.0 0.982513427734375 0.890869140625
8943234375.0 1.39910888671875 0.12939453125
8974456250.0 1.166748046875 -0.83880615234375
9005678125.0 0.34832763671875 -1.314208984375
9036900000.0 -0.4454345703125 -1.22509765625
9068121875.0 -1.10205078125 -0.785400390625
9099343750.0 -1.43988037109375 0.0966796875
9130565625.0 -0.97955322265625 1.01416015625
9161787500.0 -0.154052734375 1.28326416015625
9193009375.0 0.5555419921875 1.13372802734375
9224231250.0 1.181884765625 0.6534423828125
9255453125.0 1.3994140625 -0.296875
9286675000.0 0.80682373046875 -1.085693359375
9317896875.0 0.026123046875 -1.24676513671875
9349118750.0 -0.6544189453125 -1.0693359375
9380340625.0 -1.2568359375 -0.50958251953125
9411562500.0 -1.31158447265625 0.47564697265625
9442784375.0 -0.64825439453125 1.11627197265625
9474006250.0 0.089599609375 1.2110595703125
9505228125.0 0.765411376953125 0.98016357421875
9536450000.0 1.27337646484375 0.31378173828125
9567671875.0 1.145263671875 -0.58355712890625
9598893750.0 0.52923583984375 -1.06927490234375
9630115625.0 -0.1439208984375 -1.15869140625
9661337500.0 -0.817962646484375 -0.902008056640625
9692559375.0 -1.23828125 -0.191162109375
9723781250.0 -1.0438232421875 0.604248046875
9755003125.0 -0.4854736328125 1.052001953125
9786225000.0 0.19989013671875 1.1600341796875
9817446875.0 0.89569091796875 0.82745361328125
9848668750.0 1.198486328125 0.07843017578125
9879890625.0 0.968109130859375 -0.61737060546875
9911112500.0 0.45269775390625 -1.05206298828125
9942334375.0 -0.2662353515625 -1.1575927734375
9973556250.0 -0.943084716796875 -0.738250732421875
10004778125.0 -1.14666748046875 -0.01806640625
10036000000.0 -0.944244384765625 0.61761474609375
10067221875.0 -0.4415283203125 1.098388671875
10098443750.0 0.3712158203125 1.18243408203125
10129665625.0 1.004150390625 0.6439208984375
10160887500.0 1.12152099609375 -0.0523681640625
10192109375.0 0.91705322265625 -0.663787841796875
10223331250.0 0.3612060546875 -1.15350341796875
10254553125.0 -0.48590087890625 -1.114013671875
10285775000.0 -0.986663818359375 -0.5350341796875
10316996875.0 -1.067626953125 0.0772705078125
10348218750.0 -0.8994140625 0.66986083984375
10379440625.0 -0.32098388671875 1.176513671875
10410662500.0 0.52911376953125 1.0855712890625
10441884375.0 0.992767333984375 0.52099609375
10473106250.0 1.10906982421875 -0.0843505859375
10504328125.0 0.948760986328125 -0.757598876953125
10535550000.0 0.239501953125 -1.2957763671875
10566771875.0 -0.6573486328125 -1.078369140625
10597993750.0 -1.08209228515625 -0.45880126953125
10629215625.0 -1.17559814453125 0.2049560546875
10660437500.0 -0.888031005859375 0.95294189453125
10691659375.0 -0.010498046875 1.3359375
10722881250.0 0.786102294921875 0.952545166015625
10754103125.0 1.11883544921875 0.3258056640625
10785325000.0 1.13934326171875 -0.3687744140625
10816546875.0 0.701171875 -1.05023193359375
10847768750.0 -0.14569091796875 -1.2298583984375
10878990625.0 -0.803619384765625 -0.844329833984375
10910212500.0 -1.12139892578125 -0.244384765625
10941434375.0 -1.09686279296875 0.47674560546875
10972656250.0 -0.56805419921875 1.0855712890625
11003878125.0 0.2176513671875 1.1739501953125
11035100000.0 0.848785400390625 0.821807861328125
11066321875.0 1.22015380859375 0.1746826171875
11097543750.0 1.09906005859375 -0.67596435546875
11128765625.0 0.38592529296875 -1.19989013671875
11159987500.0 -0.39654541015625 -1.1392822265625
11191209375.0 -0.99993896484375 -0.702178955078125
11222431250.0 -1.27166748046875 0.09271240234375
11253653125.0 -0.859344482421875 0.893157958984375
11284875000.0 -0.1142578125 1.1273193359375
11316096875.0 0.51202392578125 0.957061767578125
11347318750.0 1.0029296875 0.50213623046875
11378540625.0 1.11688232421875 -0.2696533203125
11409762500.0 0.634765625 -0.861846923828125
11440984375.0 0.03558349609375 -0.977935791015625
11472206250.0 -0.482940673828125 -0.850311279296875
11503428125.0 -0.95257568359375 -0.456634521484375
11534650000.0 -1.06854248046875 0.28912353515625
11565871875.0 -0.601776123046875 0.855072021484375
11597093750.0 -0.018524169921875 0.99078369140625
11628315625.0 0.545013427734375 0.87451171875
11659537500.0 1.05999755859375 0.39306640625
11690759375.0 1.06591796875 -0.43341064453125
11721981250.0 0.516510009765625 -0.939697265625
11753203125.0 -0.10601806640625 -1.03533935546875
11784425000.0 -0.7247314453125 -0.808868408203125
11815646875.0 -1.102294921875 -0.15179443359375
11846868750.0 -0.890869140625 0.552764892578125
11878090625.0 -0.390960693359375 0.90960693359375
11909312500.0 0.187164306640625 0.98406982421875
11940534375.0 0.781463623046875 0.694732666015625
11971756250.0 1.0257568359375 0.038818359375
12002978125.0 0.8065185546875 -0.5386962890625
12034200000.0 0.38134765625 -0.89019775390625
12065421875.0 -0.21490478515625 -1.01007080078125
12096643750.0 -0.847808837890625 -0.665924072265625
12127865625.0 -1.0338134765625 0.0162353515625
12159087500.0 -0.8154296875 0.575897216796875
12190309375.0 -0.377197265625 0.9771728515625
12221531250.0 0.33929443359375 1.08892822265625
12252753125.0 0.979461669921875 0.581787109375
12283975000.0 1.05511474609375 -0.12835693359375
12315196875.0 0.800079345703125 -0.67596435546875
12346418750.0 0.28143310546875 -1.09326171875
12377640625.0 -0.53631591796875 -1.0596923828125
12408862500.0 -1.03338623046875 -0.41986083984375
12440084375.0 -1.00909423828125 0.2255859375
12471306250.0 -0.741729736328125 0.73883056640625
12502528125.0 -0.17926025390625 1.12060546875
12533750000.0 0.620697021484375 0.99407958984375
12564971875.0 1.04168701171875 0.3641357421875
12596193750.0 1.02947998046875 -0.26458740234375
12627415625.0 0.748199462890625 -0.829437255859375
12658637500.0 0.0792236328125 -1.20745849609375
12689859375.0 -0.736968994140625 -0.966888427734375
12721081250.0 -1.1177978515625 -0.30462646484375
12752303125.0 -1.09765625 0.38128662109375
12783525000.0 -0.68743896484375 1.0274658203125
12814746875.0 0.16632080078125 1.252685546875
12845968750.0 0.862213134765625 0.81109619140625
12877190625.0 1.117919921875 0.17138671875
12908412500.0 1.0556640625 -0.5009765625
12939634375.0 0.5439453125 -1.11602783203125
12970856250.0 -0.3221435546875 -1.17718505859375
13002078125.0 -0.896240234375 -0.692901611328125
13033300000.0 -1.1072998046875 -0.08587646484375
13064521875.0 -1.00982666015625 0.59393310546875
13095743750.0 -0.4202880859375 1.1558837890625
13126965625.0 0.40966796875 1.12042236328125
13158187500.0 0.9471435546875 0.631927490234375
13189409375.0 1.1494140625 -0.02313232421875
13220631250.0 0.936676025390625 -0.751556396484375
13251853125.0 0.23358154296875 -1.17205810546875
13283075000.0 -0.50640869140625 -1.0194091796875
13314296875.0 -0.9866943359375 -0.52947998046875
13345518750.0 -1.1368408203125 0.17822265625
13376740625.0 -0.75347900390625 0.859100341796875
