!Created with skrf (http://scikit-rf.org).
# Hz S RI R 50.0 
!freq ReS11 ImS11
45000000.0 -0.07707977294921875 -0.096771240234375
76221875.0 -0.1969451904296875 -0.04752349853515625
107443750.0 -0.2556915283203125 0.1201629638671875
138665625.0 -0.1483612060546875 0.329376220703125
169887500.0 0.123809814453125 0.41827392578125
201109375.0 0.4226837158203125 0.28155517578125
232331250.0 0.5802001953125 -0.05767822265625
263553125.0 0.4908294677734375 -0.4540252685546875
294775000.0 0.0987548828125 -0.73492431640625
325996875.0 -0.416595458984375 -0.6827392578125
357218750.0 -0.80889892578125 -0.297943115234375
388440625.0 -0.88836669921875 0.30157470703125
419662500.0 -0.5185546875 0.8690185546875
450884375.0 0.17364501953125 1.03143310546875
482106250.0 0.800537109375 0.714447021484375
513328125.0 1.12213134765625 0.0872802734375
544550000.0 1.00616455078125 -0.6817626953125
575771875.0 0.3370361328125 -1.24090576171875
606993750.0 -0.5548095703125 -1.17987060546875
638215625.0 -1.16827392578125 -0.591796875
669437500.0 -1.34259033203125 0.23370361328125
700659375.0 -0.9730224609375 1.09808349609375
731881250.0 -0.0042724609375 1.54595947265625
763103125.0 1.00726318359375 1.15863037109375
794325000.0 1.47186279296875 0.28271484375
825546875.0 1.3704833984375 -0.65264892578125
856768750.0 0.79608154296875 -1.40460205078125
887990625.0 -0.2938232421875 -1.6527099609375
919212500.0 -1.2919921875 -1.0814208984375
950434375.0 -1.653076171875 -0.05877685546875
981656250.0 -1.3863525390625 0.94927978515625
1012878125.0 -0.53076171875 1.67706298828125
1044100000.0 0.69873046875 1.66595458984375
1075321875.0 1.57916259765625 0.81402587890625
1106543750.0 1.7095947265625 -0.314453125
1137765625.0 1.18939208984375 -1.2880859375
1168987500.0 0.138427734375 -1.80218505859375
1200209375.0 -1.064453125 -1.488037109375
1231431250.0 -1.73223876953125 -0.4544677734375
1262653125.0 -1.59783935546875 0.68743896484375
1293875000.0 -0.85357666015625 1.49517822265625
1325096875.0 0.22821044921875 1.71038818359375
1356318750.0 1.2379150390625 1.2196044921875
1387540625.0 1.74383544921875 0.18951416015625
1418762500.0 1.47308349609375 -0.9537353515625
1449984375.0 0.531005859375 -1.6297607421875
1481206250.0 -0.55133056640625 -1.55987548828125
1512428125.0 -1.3453369140625 -0.9217529296875
1543650000.0 -1.6591796875 0.06536865234375
1574871875.0 -1.2755126953125 1.111572265625
1606093750.0 -0.273193359375 1.634765625
1637315625.0 0.7437744140625 1.40325927734375
1668537500.0 1.3992919921875 0.69696044921875
1699759375.0 1.5762939453125 -0.2783203125
1730981250.0 1.06573486328125 -1.23199462890625
1762203125.0 0.04248046875 -1.5732421875
1793425000.0 -0.85723876953125 -1.2288818359375
1824646875.0 -1.39569091796875 -0.5162353515625
1855868750.0 -1.47698974609375 0.4326171875
1887090625.0 -0.87738037109375 1.2877197265625
1918312500.0 0.11676025390625 1.4898681640625
1949534375.0 0.92340087890625 1.0916748046875
1980756250.0 1.37835693359375 0.3702392578125
2011978125.0 1.36279296875 -0.53277587890625
2043200000.0 0.7513427734375 -1.26416015625
2074421875.0 -0.1573486328125 -1.435791015625
2105643750.0 -0.96148681640625 -1.074462890625
2136865625.0 -1.4503173828125 -0.3056640625
2168087500.0 -1.35943603515625 0.67218017578125
2199309375.0 -0.64013671875 1.3536376953125
2230531250.0 0.2822265625 1.43829345703125
2261753125.0 1.0748291015625 1.0155029296875
2292975000.0 1.5167236328125 0.17071533203125
2324196875.0 1.307861328125 -0.81982421875
2355418750.0 0.5262451171875 -1.422607421875
2386640625.0 -0.40484619140625 -1.451904296875
2417862500.0 -1.1845703125 -1.026611328125
2449084375.0 -1.6087646484375 -0.08367919921875
2480306250.0 -1.31365966796875 0.92828369140625
2511528125.0 -0.49432373046875 1.51116943359375
2542750000.0 0.49029541015625 1.5394287109375
2573971875.0 1.37481689453125 0.97003173828125
2605193750.0 1.7210693359375 -0.1129150390625
2636415625.0 1.26416015625 -1.15570068359375
2667637500.0 0.3065185546875 -1.67132568359375
2698859375.0 -0.77264404296875 -1.5380859375
2730081250.0 -1.577880859375 -0.74169921875
2761303125.0 -1.68463134765625 0.3890380859375
2792525000.0 -1.10107421875 1.31085205078125
2823746875.0 -0.10162353515625 1.734130859375
2854968750.0 1.014892578125 1.458984375
2886190625.0 1.6959228515625 0.492431640625
2917412500.0 1.6038818359375 -0.62005615234375
2948634375.0 0.94158935546875 -1.43719482421875
2979856250.0 -0.1077880859375 -1.77960205078125
3011078125.0 -1.2503662109375 -1.34552001953125
3042300000.0 -1.77880859375 -0.23480224609375
3073521875.0 -1.511962890625 0.8406982421875
3104743750.0 -0.76483154296875 1.572509765625
3135965625.0 0.36322021484375 1.81365966796875
3167187500.0 1.5032958984375 1.16668701171875
3198409375.0 1.8201904296875 -0.07586669921875
3229631250.0 1.35150146484375 -1.0836181640625
3260853125.0 0.49029541015625 -1.671630859375
3292075000.0 -0.65655517578125 -1.70135498046875
3323296875.0 -1.62310791015625 -0.88104248046875
3354518750.0 -1.73406982421875 0.330078125
3385740625.0 -1.15753173828125 1.23468017578125
3416962500.0 -0.231689453125 1.68438720703125
3448184375.0 0.86273193359375 1.52447509765625
3479406250.0 1.6392822265625 0.64501953125
3510628125.0 1.6474609375 -0.4959716796875
3541850000.0 1.002197265625 -1.358154296875
3573071875.0 -0.00836181640625 -1.68658447265625
3604293750.0 -1.03076171875 -1.34027099609375
3635515625.0 -1.63018798828125 -0.43988037109375
3666737500.0 -1.56475830078125 0.64788818359375
3697959375.0 -0.82666015625 1.47979736328125
3729181250.0 0.270263671875 1.6346435546875
3760403125.0 1.15582275390625 1.0997314453125
3791625000.0 1.55560302734375 0.21832275390625
3822846875.0 1.40435791015625 -0.76336669921875
3854068750.0 0.620849609375 -1.484619140625
3885290625.0 -0.42340087890625 -1.48419189453125
3916512500.0 -1.14410400390625 -0.912109375
3947734375.0 -1.4500732421875 -0.12005615234375
3978956250.0 -1.29974365234375 0.7802734375
4010178125.0 -0.53265380859375 1.4571533203125
4041400000.0 0.47467041015625 1.41790771484375
4072621875.0 1.15472412109375 0.84832763671875
4103843750.0 1.44781494140625 0.06231689453125
4135065625.0 1.26971435546875 -0.8477783203125
4166287500.0 0.45843505859375 -1.49810791015625
4197509375.0 -0.55889892578125 -1.41717529296875
4228731250.0 -1.24969482421875 -0.8038330078125
4259953125.0 -1.5113525390625 0.0706787109375
4291175000.0 -1.19049072265625 1.0128173828125
4322396875.0 -0.2890625 1.52978515625
4353618750.0 0.67401123046875 1.35223388671875
4384840625.0 1.3253173828125 0.69781494140625
4416062500.0 1.5035400390625 -0.22882080078125
4447284375.0 1.05670166015625 -1.10614013671875
4478506250.0 0.1724853515625 -1.498291015625
4509728125.0 -0.7342529296875 -1.31011962890625
4540950000.0 -1.39617919921875 -0.6373291015625
4572171875.0 -1.5257568359375 0.3626708984375
4603393750.0 -0.9736328125 1.2154541015625
4634615625.0 -0.06103515625 1.53985595703125
4665837500.0 0.8720703125 1.306884765625
4697059375.0 1.54473876953125 0.5157470703125
4728281250.0 1.53228759765625 -0.5843505859375
4759503125.0 0.8243408203125 -1.369140625
4790725000.0 -0.14593505859375 -1.575927734375
4821946875.0 -1.08502197265625 -1.19635009765625
4853168750.0 -1.6168212890625 -0.25115966796875
4884390625.0 -1.38067626953125 0.7950439453125
4915612500.0 -0.61346435546875 1.41644287109375
4946834375.0 0.3282470703125 1.5106201171875
4978056250.0 1.20892333984375 1.01898193359375
5009278125.0 1.56494140625 0.0389404296875
5040500000.0 1.231201171875 -0.87701416015625
5071721875.0 0.50201416015625 -1.41705322265625
5102943750.0 -0.4468994140625 -1.49920654296875
5134165625.0 -1.337890625 -0.907470703125
5165387500.0 -1.57086181640625 0.14666748046875
5196609375.0 -1.1376953125 1.01190185546875
5227831250.0 -0.35760498046875 1.51025390625
5259053125.0 0.69012451171875 1.4952392578125
5290275000.0 1.52435302734375 0.66424560546875
5321496875.0 1.49505615234375 -0.4317626953125
5352718750.0 0.9228515625 -1.1552734375
5383940625.0 0.09637451171875 -1.50323486328125
5415162500.0 -0.90234375 -1.28619384765625
5446384375.0 -1.48699951171875 -0.3714599609375
5477606250.0 -1.30194091796875 0.5684814453125
5508828125.0 -0.73211669921875 1.1529541015625
5540050000.0 0.05535888671875 1.40234375
5571271875.0 0.9410400390625 1.1109619140625
5602493750.0 1.410888671875 0.26043701171875
5633715625.0 1.23455810546875 -0.6143798828125
5664937500.0 0.6492919921875 -1.20343017578125
5696159375.0 -0.1968994140625 -1.38604736328125
5727381250.0 -1.0242919921875 -0.98089599609375
5758603125.0 -1.39422607421875 -0.14501953125
5789825000.0 -1.1964111328125 0.71875
5821046875.0 -0.5069580078125 1.310546875
5852268750.0 0.4127197265625 1.31634521484375
5883490625.0 1.0743408203125 0.77349853515625
5914712500.0 1.3052978515625 0.01947021484375
5945934375.0 1.09832763671875 -0.77728271484375
5977156250.0 0.3616943359375 -1.314697265625
6008378125.0 -0.51019287109375 -1.1839599609375
6039600000.0 -1.0238037109375 -0.6497802734375
6070821875.0 -1.22515869140625 -0.004638671875
6102043750.0 -1.085205078125 0.7642822265625
6133265625.0 -0.34185791015625 1.34674072265625
6164487500.0 0.564208984375 1.18902587890625
6195709375.0 1.07220458984375 0.6309814453125
6226931250.0 1.28228759765625 -0.04266357421875
6258153125.0 1.1065673828125 -0.87322998046875
6289375000.0 0.2567138671875 -1.44873046875
6320596875.0 -0.69207763671875 -1.2083740234375
6351818750.0 -1.2021484375 -0.5731201171875
6383040625.0 -1.3577880859375 0.207763671875
6414262500.0 -1.00201416015625 1.05975341796875
6445484375.0 -0.0775146484375 1.4605712890625
6476706250.0 0.79791259765625 1.15020751953125
6507928125.0 1.2935791015625 0.47027587890625
6539150000.0 1.35003662109375 -0.38787841796875
6570371875.0 0.84234619140625 -1.14599609375
6601593750.0 -0.01824951171875 -1.4073486328125
6632815625.0 -0.84228515625 -1.13775634765625
6664037500.0 -1.40435791015625 -0.42071533203125
6695259375.0 -1.3763427734375 0.56756591796875
6726481250.0 -0.71112060546875 1.254150390625
6757703125.0 0.1318359375 1.40985107421875
6788925000.0 0.95648193359375 1.13262939453125
6820146875.0 1.56268310546875 0.28839111328125
6851368750.0 1.3287353515625 -0.8221435546875
6882590625.0 0.507080078125 -1.3416748046875
6913812500.0 -0.29302978515625 -1.3592529296875
6945034375.0 -1.0733642578125 -1.02386474609375
6976256250.0 -1.5963134765625 -0.0933837890625
7007478125.0 -1.23785400390625 0.93402099609375
7038700000.0 -0.4046630859375 1.34600830078125
7069921875.0 0.36175537109375 1.3272705078125
7101143750.0 1.12274169921875 0.9705810546875
7132365625.0 1.60345458984375 0.0140380859375
7163587500.0 1.15924072265625 -1.02313232421875
7194809375.0 0.30157470703125 -1.4000244140625
7226031250.0 -0.51416015625 -1.3289794921875
7257253125.0 -1.26983642578125 -0.8258056640625
7288475000.0 -1.562255859375 0.2003173828125
7319696875.0 -1.03265380859375 1.11468505859375
7350918750.0 -0.1634521484375 1.4495849609375
7382140625.0 0.71832275390625 1.2794189453125
7413362500.0 1.37713623046875 0.57830810546875
7444584375.0 1.414794921875 -0.40789794921875
7475806250.0 0.859375 -1.14599609375
7507028125.0 0.0054931640625 -1.43426513671875
7538250000.0 -0.8919677734375 -1.1258544921875
7569471875.0 -1.33819580078125 -0.31195068359375
7600693750.0 -1.20562744140625 0.49945068359375
7631915625.0 -0.71893310546875 1.08721923828125
7663137500.0 0.08160400390625 1.3612060546875
7694359375.0 0.944183349609375 0.9827880859375
7725581250.0 1.24749755859375 0.17987060546875
7756803125.0 1.0860595703125 -0.50128173828125
7788025000.0 0.671142578125 -1.0479736328125
7819246875.0 -0.12225341796875 -1.350341796875
7850468750.0 -0.99481201171875 -0.917694091796875
7881690625.0 -1.23504638671875 -0.10504150390625
7912912500.0 -1.05731201171875 0.55596923828125
7944134375.0 -0.60748291015625 1.11651611328125
7975356250.0 0.273193359375 1.33929443359375
8006578125.0 1.05023193359375 0.78021240234375
8037800000.0 1.197021484375 0.01568603515625
8069021875.0 1.009521484375 -0.6195068359375
8100243750.0 0.49981689453125 -1.16485595703125
8131465625.0 -0.38946533203125 -1.2574462890625
8162687500.0 -1.03436279296875 -0.68658447265625
8193909375.0 -1.18505859375 0.009033203125
8225131250.0 -1.02001953125 0.68017578125
8256353125.0 -0.42138671875 1.25323486328125
8287575000.0 0.5037841796875 1.2283935546875
8318796875.0 1.08404541015625 0.6363525390625
8350018750.0 1.2489013671875 -0.0762939453125
8381240625.0 1.03314208984375 -0.84246826171875
8412462500.0 0.25286865234375 -1.37762451171875
8443684375.0 -0.67230224609375 -1.17327880859375
8474906250.0 -1.1805419921875 -0.53216552734375
8506128125.0 -1.30078125 0.2373046875
8537350000.0 -0.92559814453125 1.05078125
8568571875.0 -0.01556396484375 1.39739990234375
8599793750.0 0.802490234375 1.05572509765625
8631015625.0 1.2457275390625 0.398193359375
8662237500.0 1.288818359375 -0.4312744140625
8693459375.0 0.7376708984375 -1.1810302734375
8724681250.0 -0.16375732421875 -1.334716796875
8755903125.0 -0.883636474609375 -0.960113525390625
8787125000.0 -1.30780029296875 -0.28192138671875
8818346875.0 -1.254638671875 0.6195068359375
8849568750.0 -0.55718994140625 1.26336669921875
8880790625.0 0.30072021484375 1.2884521484375
8912012500.0 0.9833984375 0.8941650390625
8943234375.0 1.40228271484375 0.12860107421875
8974456250.0 1.16925048828125 -0.8416748046875
9005678125.0 0.34869384765625 -1.3165283203125
9036900000.0 -0.4471435546875 -1.2291259765625
9068121875.0 -1.10546875 -0.7880859375
9099343750.0 -1.4447021484375 0.10009765625
9130565625.0 -0.9818115234375 1.01544189453125
9161787500.0 -0.1536865234375 1.2847900390625
9193009375.0 0.556640625 1.135986328125
9224231250.0 1.18292236328125 0.65576171875
9255453125.0 1.403564453125 -0.29742431640625
9286675000.0 0.808837890625 -1.08880615234375
9317896875.0 0.02642822265625 -1.2503662109375
9349118750.0 -0.654296875 -1.0723876953125
9380340625.0 -1.262939453125 -0.50970458984375
9411562500.0 -1.31427001953125 0.47918701171875
9442784375.0 -0.6490478515625 1.1197509765625
9474006250.0 0.08935546875 1.2138671875
9505228125.0 0.766876220703125 0.98291015625
9536450000.0 1.277099609375 0.31396484375
9567671875.0 1.14617919921875 -0.5838623046875
9598893750.0 0.53070068359375 -1.0706787109375
9630115625.0 -0.1455078125 -1.1614990234375
9661337500.0 -0.822540283203125 -0.90478515625
9692559375.0 -1.24334716796875 -0.18902587890625
9723781250.0 -1.04522705078125 0.60467529296875
9755003125.0 -0.4857177734375 1.05322265625
9786225000.0 0.19879150390625 1.16107177734375
9817446875.0 0.89813232421875 0.82977294921875
9848668750.0 1.19989013671875 0.07696533203125
9879890625.0 0.9703369140625 -0.6187744140625
9911112500.0 0.4539794921875 -1.05401611328125
9942334375.0 -0.26934814453125 -1.1624755859375
9973556250.0 -0.947021484375 -0.739044189453125
10004778125.0 -1.1495361328125 -0.0164794921875
10036000000.0 -0.9461669921875 0.618682861328125
10067221875.0 -0.44232177734375 1.0999755859375
10098443750.0 0.37249755859375 1.1845703125
10129665625.0 1.00714111328125 0.6436767578125
10160887500.0 1.12249755859375 -0.052978515625
10192109375.0 0.919158935546875 -0.665374755859375
10223331250.0 0.36065673828125 -1.1556396484375
10254553125.0 -0.48834228515625 -1.1163330078125
10285775000.0 -0.989898681640625 -0.535797119140625
10316996875.0 -1.06951904296875 0.07794189453125
10348218750.0 -0.90155029296875 0.6734619140625
10379440625.0 -0.32098388671875 1.18017578125
10410662500.0 0.53125 1.08746337890625
10441884375.0 0.994903564453125 0.522064208984375
10473106250.0 1.11163330078125 -0.0850830078125
10504328125.0 0.951446533203125 -0.759674072265625
10535550000.0 0.23870849609375 -1.29962158203125
10566771875.0 -0.660888671875 -1.07989501953125
10597993750.0 -1.08282470703125 -0.4598388671875
10629215625.0 -1.17901611328125 0.2071533203125
10660437500.0 -0.889556884765625 0.956268310546875
10691659375.0 -0.0081787109375 1.34002685546875
10722881250.0 0.787200927734375 0.9542236328125
10754103125.0 1.1229248046875 0.32489013671875
10785325000.0 1.14312744140625 -0.369140625
10816546875.0 0.70098876953125 -1.05279541015625
10847768750.0 -0.1484375 -1.23382568359375
10878990625.0 -0.806365966796875 -0.845489501953125
10910212500.0 -1.12603759765625 -0.24456787109375
10941434375.0 -1.099609375 0.47991943359375
10972656250.0 -0.5687255859375 1.0889892578125
11003878125.0 0.2188720703125 1.1766357421875
11035100000.0 0.8507080078125 0.824005126953125
11066321875.0 1.22283935546875 0.17510986328125
11097543750.0 1.10003662109375 -0.67767333984375
11128765625.0 0.3857421875 -1.2020263671875
11159987500.0 -0.39862060546875 -1.14215087890625
11191209375.0 -1.002197265625 -0.703857421875
11222431250.0 -1.27801513671875 0.09527587890625
11253653125.0 -0.860076904296875 0.89825439453125
11284875000.0 -0.1141357421875 1.1297607421875
11316096875.0 0.5142822265625 0.95806884765625
11347318750.0 1.00372314453125 0.50360107421875
11378540625.0 1.119384765625 -0.27166748046875
11409762500.0 0.635498046875 -0.86407470703125
11440984375.0 0.034942626953125 -0.981597900390625
11472206250.0 -0.48333740234375 -0.852508544921875
11503428125.0 -0.95623779296875 -0.456146240234375
11534650000.0 -1.07147216796875 0.29052734375
11565871875.0 -0.603240966796875 0.85662841796875
11597093750.0 -0.0184326171875 0.99365234375
11628315625.0 0.545745849609375 0.87713623046875
11659537500.0 1.063232421875 0.3934326171875
11690759375.0 1.0675048828125 -0.43695068359375
11721981250.0 0.517913818359375 -0.943267822265625
11753203125.0 -0.10650634765625 -1.03955078125
11784425000.0 -0.726531982421875 -0.810638427734375
11815646875.0 -1.1036376953125 -0.15045166015625
11846868750.0 -0.89306640625 0.553741455078125
11878090625.0 -0.390472412109375 0.91241455078125
11909312500.0 0.18853759765625 0.9874267578125
11940534375.0 0.78424072265625 0.696624755859375
11971756250.0 1.02911376953125 0.03778076171875
12002978125.0 0.807708740234375 -0.5396728515625
12034200000.0 0.3814697265625 -0.891845703125
12065421875.0 -0.21759033203125 -1.0126953125
12096643750.0 -0.85052490234375 -0.66619873046875
12127865625.0 -1.0360107421875 0.0174560546875
12159087500.0 -0.816619873046875 0.577178955078125
12190309375.0 -0.377593994140625 0.977142333984375
12221531250.0 0.3414306640625 1.0916748046875
12252753125.0 0.985626220703125 0.581512451171875
12283975000.0 1.05584716796875 -0.12786865234375
12315196875.0 0.801849365234375 -0.68048095703125
12346418750.0 0.2818603515625 -1.09429931640625
12377640625.0 -0.5399169921875 -1.0625
12408862500.0 -1.03692626953125 -0.41949462890625
12440084375.0 -1.01031494140625 0.22503662109375
12471306250.0 -0.743316650390625 0.739593505859375
12502528125.0 -0.17822265625 1.12445068359375
12533750000.0 0.626068115234375 0.99603271484375
12564971875.0 1.04339599609375 0.36297607421875
12596193750.0 1.03155517578125 -0.26617431640625
12627415625.0 0.749786376953125 -0.830780029296875
12658637500.0 0.078369140625 -1.210693359375
12689859375.0 -0.7381591796875 -0.968597412109375
12721081250.0 -1.12115478515625 -0.3046875
12752303125.0 -1.09906005859375 0.38336181640625
12783525000.0 -0.68829345703125 1.0301513671875
12814746875.0 0.16546630859375 1.25384521484375
12845968750.0 0.8668212890625 0.81243896484375
12877190625.0 1.12152099609375 0.17108154296875
12908412500.0 1.0579833984375 -0.50518798828125
12939634375.0 0.5428466796875 -1.11932373046875
12970856250.0 -0.32171630859375 -1.17822265625
13002078125.0 -0.89825439453125 -0.69427490234375
13033300000.0 -1.10894775390625 -0.08526611328125
13064521875.0 -1.0125732421875 0.59832763671875
13095743750.0 -0.41973876953125 1.15936279296875
13126965625.0 0.41107177734375 1.12261962890625
13158187500.0 0.9493408203125 0.632232666015625
13189409375.0 1.14996337890625 -0.02166748046875
13220631250.0 0.938232421875 -0.751495361328125
13251853125.0 0.2322998046875 -1.1771240234375
13283075000.0 -0.508056640625 -1.02191162109375
13314296875.0 -0.99139404296875 -0.529449462890625
13345518750.0 -1.139892578125 0.17926025390625
