!Created with skrf (http://scikit-rf.org).
# Hz S RI R 50.0 
!freq ReS11 ImS11
45000000.0 -0.0767059326171875 -0.09700775146484375
76221875.0 -0.19684600830078125 -0.04796600341796875
107443750.0 -0.2558135986328125 0.119659423828125
138665625.0 -0.1490325927734375 0.3289642333984375
169887500.0 0.123046875 0.4185028076171875
201109375.0 0.422119140625 0.282470703125
232331250.0 0.5802001953125 -0.0565185546875
263553125.0 0.4913330078125 -0.45281982421875
294775000.0 0.10015869140625 -0.733917236328125
325996875.0 -0.4149169921875 -0.683349609375
357218750.0 -0.80780029296875 -0.299407958984375
388440625.0 -0.88861083984375 0.299713134765625
419662500.0 -0.5201416015625 0.867218017578125
450884375.0 0.171142578125 1.03143310546875
482106250.0 0.798858642578125 0.7159423828125
513328125.0 1.1217041015625 0.08984375
544550000.0 1.00701904296875 -0.6796875
575771875.0 0.33935546875 -1.23968505859375
606993750.0 -0.55230712890625 -1.18096923828125
638215625.0 -1.1671142578125 -0.5941162109375
669437500.0 -1.3428955078125 0.23175048828125
700659375.0 -0.974853515625 1.09649658203125
731881250.0 -0.00677490234375 1.546142578125
763103125.0 1.005126953125 1.1605224609375
794325000.0 1.471435546875 0.28509521484375
825546875.0 1.37127685546875 -0.65069580078125
856768750.0 0.79840087890625 -1.4027099609375
887990625.0 -0.2904052734375 -1.65277099609375
919212500.0 -1.288818359375 -1.08404541015625
950434375.0 -1.652587890625 -0.06207275390625
981656250.0 -1.38787841796875 0.94647216796875
1012878125.0 -0.53369140625 1.6749267578125
1044100000.0 0.69598388671875 1.66748046875
1075321875.0 1.5771484375 0.81689453125
1106543750.0 1.70941162109375 -0.31024169921875
1137765625.0 1.19207763671875 -1.28533935546875
1168987500.0 0.14178466796875 -1.80108642578125
1200209375.0 -1.0614013671875 -1.48956298828125
1231431250.0 -1.7305908203125 -0.45770263671875
1262653125.0 -1.59857177734375 0.68365478515625
1293875000.0 -0.8565673828125 1.4935302734375
1325096875.0 0.2255859375 1.71136474609375
1356318750.0 1.23553466796875 1.221923828125
1387540625.0 1.7435302734375 0.19219970703125
1418762500.0 1.47393798828125 -0.9512939453125
1449984375.0 0.53326416015625 -1.62841796875
1481206250.0 -0.5487060546875 -1.560546875
1512428125.0 -1.34344482421875 -0.924072265625
1543650000.0 -1.6593017578125 0.063232421875
1574871875.0 -1.27752685546875 1.108642578125
1606093750.0 -0.2760009765625 1.6343994140625
1637315625.0 0.7412109375 1.404541015625
1668537500.0 1.39801025390625 0.69952392578125
1699759375.0 1.57720947265625 -0.275146484375
1730981250.0 1.06866455078125 -1.23016357421875
1762203125.0 0.04498291015625 -1.5733642578125
1793425000.0 -0.855712890625 -1.2303466796875
1824646875.0 -1.3955078125 -0.5185546875
1855868750.0 -1.477783203125 0.4315185546875
1887090625.0 -0.87884521484375 1.28717041015625
1918312500.0 0.11492919921875 1.49005126953125
1949534375.0 0.92181396484375 1.09271240234375
1980756250.0 1.377197265625 0.37249755859375
2011978125.0 1.363525390625 -0.53106689453125
2043200000.0 0.75335693359375 -1.26348876953125
2074421875.0 -0.1551513671875 -1.4364013671875
2105643750.0 -0.96051025390625 -1.075927734375
2136865625.0 -1.4498291015625 -0.30743408203125
2168087500.0 -1.36077880859375 0.67041015625
2199309375.0 -0.642333984375 1.35382080078125
2230531250.0 0.28076171875 1.43994140625
2261753125.0 1.073486328125 1.0172119140625
2292975000.0 1.517333984375 0.1722412109375
2324196875.0 1.30908203125 -0.818603515625
2355418750.0 0.52764892578125 -1.42218017578125
2386640625.0 -0.40386962890625 -1.45208740234375
2417862500.0 -1.18170166015625 -1.02740478515625
2449084375.0 -1.60797119140625 -0.0858154296875
2480306250.0 -1.3148193359375 0.92620849609375
2511528125.0 -0.4976806640625 1.5091552734375
2542750000.0 0.488037109375 1.540771484375
2573971875.0 1.37359619140625 0.97119140625
2605193750.0 1.72064208984375 -0.11029052734375
2636415625.0 1.2652587890625 -1.1529541015625
2667637500.0 0.3082275390625 -1.6707763671875
2698859375.0 -0.769775390625 -1.53887939453125
2730081250.0 -1.57720947265625 -0.7435302734375
2761303125.0 -1.6846923828125 0.3865966796875
2792525000.0 -1.10284423828125 1.30938720703125
2823746875.0 -0.10504150390625 1.7337646484375
2854968750.0 1.01318359375 1.45989990234375
2886190625.0 1.69647216796875 0.4927978515625
2917412500.0 1.6036376953125 -0.61737060546875
2948634375.0 0.942626953125 -1.43475341796875
2979856250.0 -0.10662841796875 -1.7802734375
3011078125.0 -1.2493896484375 -1.34619140625
3042300000.0 -1.77850341796875 -0.23724365234375
3073521875.0 -1.51287841796875 0.83953857421875
3104743750.0 -0.766357421875 1.5712890625
3135965625.0 0.36053466796875 1.813232421875
3167187500.0 1.50140380859375 1.16796875
3198409375.0 1.8193359375 -0.0731201171875
3229631250.0 1.35284423828125 -1.082275390625
3260853125.0 0.49188232421875 -1.67120361328125
3292075000.0 -0.65472412109375 -1.7025146484375
3323296875.0 -1.6224365234375 -0.8829345703125
3354518750.0 -1.734619140625 0.3287353515625
3385740625.0 -1.1593017578125 1.23345947265625
3416962500.0 -0.23248291015625 1.685791015625
3448184375.0 0.8614501953125 1.5252685546875
3479406250.0 1.638916015625 0.6463623046875
3510628125.0 1.6474609375 -0.4947509765625
3541850000.0 1.0030517578125 -1.35760498046875
3573071875.0 -0.007568359375 -1.68585205078125
3604293750.0 -1.030517578125 -1.34088134765625
3635515625.0 -1.62982177734375 -0.44073486328125
3666737500.0 -1.564453125 0.64544677734375
3697959375.0 -0.82794189453125 1.47802734375
3729181250.0 0.2684326171875 1.63482666015625
3760403125.0 1.155029296875 1.10107421875
3791625000.0 1.55633544921875 0.2193603515625
3822846875.0 1.4056396484375 -0.7607421875
3854068750.0 0.62274169921875 -1.48370361328125
3885290625.0 -0.4208984375 -1.4844970703125
3916512500.0 -1.14483642578125 -0.913818359375
3947734375.0 -1.44970703125 -0.12109375
3978956250.0 -1.3013916015625 0.78082275390625
4010178125.0 -0.5325927734375 1.45819091796875
4041400000.0 0.47430419921875 1.41790771484375
4072621875.0 1.154296875 0.8492431640625
4103843750.0 1.44696044921875 0.06414794921875
4135065625.0 1.27044677734375 -0.84716796875
4166287500.0 0.458984375 -1.49835205078125
4197509375.0 -0.55810546875 -1.4171142578125
4228731250.0 -1.2490234375 -0.80377197265625
4259953125.0 -1.5118408203125 0.070068359375
4291175000.0 -1.1903076171875 1.0126953125
4322396875.0 -0.29022216796875 1.5294189453125
4353618750.0 0.67303466796875 1.35211181640625
4384840625.0 1.32513427734375 0.69903564453125
4416062500.0 1.5047607421875 -0.2281494140625
4447284375.0 1.05706787109375 -1.10736083984375
4478506250.0 0.17218017578125 -1.4989013671875
4509728125.0 -0.73382568359375 -1.3101806640625
4540950000.0 -1.39666748046875 -0.6373291015625
4572171875.0 -1.5260009765625 0.3619384765625
4603393750.0 -0.9735107421875 1.215087890625
4634615625.0 -0.06134033203125 1.53973388671875
4665837500.0 0.87255859375 1.30657958984375
4697059375.0 1.543701171875 0.51611328125
4728281250.0 1.5308837890625 -0.5821533203125
4759503125.0 0.8250732421875 -1.36944580078125
4790725000.0 -0.145751953125 -1.57537841796875
4821946875.0 -1.0860595703125 -1.19622802734375
4853168750.0 -1.61724853515625 -0.25140380859375
4884390625.0 -1.380615234375 0.79522705078125
4915612500.0 -0.614990234375 1.41558837890625
4946834375.0 0.32952880859375 1.5126953125
4978056250.0 1.20831298828125 1.01910400390625
5009278125.0 1.56585693359375 0.03863525390625
5040500000.0 1.23187255859375 -0.878173828125
5071721875.0 0.5020751953125 -1.418701171875
5102943750.0 -0.447998046875 -1.5001220703125
5134165625.0 -1.339599609375 -0.9071044921875
5165387500.0 -1.57122802734375 0.1480712890625
5196609375.0 -1.1376953125 1.01190185546875
5227831250.0 -0.3572998046875 1.5103759765625
5259053125.0 0.69134521484375 1.49517822265625
5290275000.0 1.5238037109375 0.6636962890625
5321496875.0 1.49554443359375 -0.43310546875
5352718750.0 0.92218017578125 -1.15509033203125
5383940625.0 0.0965576171875 -1.503173828125
5415162500.0 -0.90240478515625 -1.2860107421875
5446384375.0 -1.48760986328125 -0.370361328125
5477606250.0 -1.30120849609375 0.56689453125
5508828125.0 -0.7327880859375 1.15313720703125
5540050000.0 0.05328369140625 1.40130615234375
5571271875.0 0.9415283203125 1.11065673828125
5602493750.0 1.411376953125 0.2598876953125
5633715625.0 1.23431396484375 -0.61407470703125
5664937500.0 0.6484375 -1.20477294921875
5696159375.0 -0.19781494140625 -1.3861083984375
5727381250.0 -1.02557373046875 -0.979248046875
5758603125.0 -1.3946533203125 -0.1444091796875
5789825000.0 -1.19622802734375 0.72027587890625
5821046875.0 -0.506103515625 1.31024169921875
5852268750.0 0.41461181640625 1.31597900390625
5883490625.0 1.0726318359375 0.77276611328125
5914712500.0 1.30499267578125 0.01947021484375
5945934375.0 1.09869384765625 -0.77850341796875
5977156250.0 0.361328125 -1.31549072265625
6008378125.0 -0.511962890625 -1.184326171875
6039600000.0 -1.0234375 -0.64984130859375
6070821875.0 -1.22601318359375 -0.00445556640625
6102043750.0 -1.08526611328125 0.76495361328125
6133265625.0 -0.340576171875 1.34954833984375
6164487500.0 0.56561279296875 1.18927001953125
6195709375.0 1.0736083984375 0.630615234375
6226931250.0 1.28314208984375 -0.0443115234375
6258153125.0 1.10577392578125 -0.87493896484375
6289375000.0 0.2535400390625 -1.449462890625
6320596875.0 -0.69256591796875 -1.206787109375
6351818750.0 -1.20294189453125 -0.5711669921875
6383040625.0 -1.356689453125 0.20867919921875
6414262500.0 -1.0003662109375 1.06103515625
6445484375.0 -0.076416015625 1.45953369140625
6476706250.0 0.7978515625 1.148681640625
6507928125.0 1.292724609375 0.47003173828125
6539150000.0 1.34912109375 -0.38800048828125
6570371875.0 0.84149169921875 -1.1468505859375
6601593750.0 -0.01849365234375 -1.40771484375
6632815625.0 -0.8421630859375 -1.13848876953125
6664037500.0 -1.40472412109375 -0.41876220703125
6695259375.0 -1.37640380859375 0.5693359375
6726481250.0 -0.7105712890625 1.255126953125
6757703125.0 0.13232421875 1.4097900390625
6788925000.0 0.9591064453125 1.13238525390625
6820146875.0 1.56451416015625 0.28546142578125
6851368750.0 1.3272705078125 -0.82464599609375
6882590625.0 0.5048828125 -1.34197998046875
6913812500.0 -0.29473876953125 -1.359130859375
6945034375.0 -1.07305908203125 -1.02227783203125
6976256250.0 -1.59576416015625 -0.09075927734375
7007478125.0 -1.2374267578125 0.935546875
7038700000.0 -0.4029541015625 1.34539794921875
7069921875.0 0.3607177734375 1.326416015625
7101143750.0 1.120849609375 0.96954345703125
7132365625.0 1.603759765625 0.013671875
7163587500.0 1.15869140625 -1.023681640625
7194809375.0 0.30224609375 -1.40045166015625
7226031250.0 -0.51251220703125 -1.32879638671875
7257253125.0 -1.27056884765625 -0.8243408203125
7288475000.0 -1.56158447265625 0.20111083984375
7319696875.0 -1.0311279296875 1.11138916015625
7350918750.0 -0.16265869140625 1.4482421875
7382140625.0 0.720947265625 1.27947998046875
7413362500.0 1.38116455078125 0.57427978515625
7444584375.0 1.41314697265625 -0.4097900390625
7475806250.0 0.85797119140625 -1.1455078125
7507028125.0 0.0028076171875 -1.43475341796875
7538250000.0 -0.8927001953125 -1.1243896484375
7569471875.0 -1.34136962890625 -0.3089599609375
7600693750.0 -1.2042236328125 0.49951171875
7631915625.0 -0.718994140625 1.0885009765625
7663137500.0 0.08123779296875 1.361328125
7694359375.0 0.94482421875 0.9832763671875
7725581250.0 1.2471923828125 0.17913818359375
7756803125.0 1.0858154296875 -0.50146484375
7788025000.0 0.67083740234375 -1.0489501953125
7819246875.0 -0.12347412109375 -1.3516845703125
7850468750.0 -0.998687744140625 -0.91558837890625
7881690625.0 -1.235107421875 -0.1024169921875
7912912500.0 -1.0572509765625 0.5582275390625
7944134375.0 -0.604736328125 1.11883544921875
7975356250.0 0.27691650390625 1.33782958984375
8006578125.0 1.04913330078125 0.77825927734375
8037800000.0 1.196533203125 0.01385498046875
8069021875.0 1.00836181640625 -0.62109375
8100243750.0 0.4984130859375 -1.16607666015625
8131465625.0 -0.39111328125 -1.2564697265625
8162687500.0 -1.03424072265625 -0.68695068359375
8193909375.0 -1.18359375 0.010498046875
8225131250.0 -1.02032470703125 0.682373046875
8256353125.0 -0.41986083984375 1.25494384765625
8287575000.0 0.504638671875 1.22760009765625
8318796875.0 1.08721923828125 0.634765625
8350018750.0 1.247314453125 -0.076416015625
8381240625.0 1.0330810546875 -0.84344482421875
8412462500.0 0.252685546875 -1.37652587890625
8443684375.0 -0.67144775390625 -1.16998291015625
8474906250.0 -1.1785888671875 -0.5311279296875
8506128125.0 -1.30133056640625 0.2406005859375
8537350000.0 -0.92437744140625 1.0517578125
8568571875.0 -0.0130615234375 1.39727783203125
8599793750.0 0.80621337890625 1.0546875
8631015625.0 1.2457275390625 0.39703369140625
8662237500.0 1.2877197265625 -0.43292236328125
8693459375.0 0.73626708984375 -1.1802978515625
8724681250.0 -0.16436767578125 -1.33428955078125
8755903125.0 -0.88372802734375 -0.9600830078125
8787125000.0 -1.3089599609375 -0.27978515625
8818346875.0 -1.25360107421875 0.61944580078125
8849568750.0 -0.55548095703125 1.26580810546875
8880790625.0 0.30181884765625 1.28778076171875
8912012500.0 0.9874267578125 0.892669677734375
8943234375.0 1.4041748046875 0.12640380859375
8974456250.0 1.1676025390625 -0.8463134765625
9005678125.0 0.3458251953125 -1.31744384765625
9036900000.0 -0.44970703125 -1.22705078125
9068121875.0 -1.10882568359375 -0.784912109375
9099343750.0 -1.44488525390625 0.102294921875
9130565625.0 -0.97882080078125 1.01617431640625
9161787500.0 -0.15362548828125 1.28485107421875
9193009375.0 0.55657958984375 1.13458251953125
9224231250.0 1.18359375 0.655029296875
9255453125.0 1.40313720703125 -0.2991943359375
9286675000.0 0.80621337890625 -1.08746337890625
9317896875.0 0.0245361328125 -1.2513427734375
9349118750.0 -0.6580810546875 -1.0714111328125
9380340625.0 -1.263916015625 -0.5084228515625
9411562500.0 -1.31390380859375 0.481201171875
9442784375.0 -0.6470947265625 1.1221923828125
9474006250.0 0.0909423828125 1.2144775390625
9505228125.0 0.770111083984375 0.98089599609375
9536450000.0 1.2777099609375 0.31024169921875
9567671875.0 1.1455078125 -0.58489990234375
9598893750.0 0.528564453125 -1.07171630859375
9630115625.0 -0.147216796875 -1.1595458984375
9661337500.0 -0.82171630859375 -0.902496337890625
9692559375.0 -1.24102783203125 -0.18670654296875
9723781250.0 -1.0435791015625 0.60675048828125
9755003125.0 -0.484130859375 1.0550537109375
9786225000.0 0.20220947265625 1.1630859375
9817446875.0 0.900146484375 0.82684326171875
9848668750.0 1.201171875 0.07501220703125
9879890625.0 0.96868896484375 -0.61993408203125
9911112500.0 0.45147705078125 -1.0546875
9942334375.0 -0.27191162109375 -1.1629638671875
9973556250.0 -0.948638916015625 -0.736480712890625
10004778125.0 -1.1492919921875 -0.01275634765625
10036000000.0 -0.944244384765625 0.620635986328125
10067221875.0 -0.44012451171875 1.100341796875
10098443750.0 0.37689208984375 1.18414306640625
10129665625.0 1.008544921875 0.64068603515625
10160887500.0 1.12109375 -0.0546875
10192109375.0 0.9178466796875 -0.66851806640625
10223331250.0 0.358154296875 -1.15576171875
10254553125.0 -0.49139404296875 -1.1153564453125
10285775000.0 -0.98846435546875 -0.53448486328125
10316996875.0 -1.06915283203125 0.079833984375
10348218750.0 -0.900421142578125 0.67333984375
10379440625.0 -0.3189697265625 1.17950439453125
10410662500.0 0.531494140625 1.0865478515625
10441884375.0 0.9959716796875 0.5203857421875
10473106250.0 1.11236572265625 -0.08819580078125
10504328125.0 0.950653076171875 -0.761810302734375
10535550000.0 0.23626708984375 -1.298583984375
10566771875.0 -0.66357421875 -1.07659912109375
10597993750.0 -1.0853271484375 -0.45709228515625
10629215625.0 -1.1783447265625 0.20977783203125
10660437500.0 -0.887359619140625 0.957305908203125
10691659375.0 -0.0047607421875 1.33782958984375
10722881250.0 0.791107177734375 0.951202392578125
10754103125.0 1.12335205078125 0.32220458984375
10785325000.0 1.14080810546875 -0.3702392578125
10816546875.0 0.69976806640625 -1.05389404296875
10847768750.0 -0.1495361328125 -1.2308349609375
10878990625.0 -0.80615234375 -0.84307861328125
10910212500.0 -1.12640380859375 -0.24188232421875
10941434375.0 -1.09967041015625 0.4818115234375
10972656250.0 -0.5665283203125 1.0916748046875
11003878125.0 0.22076416015625 1.1761474609375
11035100000.0 0.851226806640625 0.821380615234375
11066321875.0 1.22357177734375 0.17144775390625
11097543750.0 1.0997314453125 -0.68243408203125
11128765625.0 0.3828125 -1.20263671875
11159987500.0 -0.402587890625 -1.14215087890625
11191209375.0 -1.00347900390625 -0.70196533203125
11222431250.0 -1.2752685546875 0.0980224609375
11253653125.0 -0.857391357421875 0.900970458984375
11284875000.0 -0.11126708984375 1.1292724609375
11316096875.0 0.514801025390625 0.956787109375
11347318750.0 1.00860595703125 0.50067138671875
11378540625.0 1.11944580078125 -0.27545166015625
11409762500.0 0.633636474609375 -0.863037109375
11440984375.0 0.03363037109375 -0.980377197265625
11472206250.0 -0.48431396484375 -0.851806640625
11503428125.0 -0.957672119140625 -0.4542236328125
11534650000.0 -1.0711669921875 0.29376220703125
11565871875.0 -0.60052490234375 0.8597412109375
11597093750.0 -0.0147705078125 0.994903564453125
11628315625.0 0.5496826171875 0.87762451171875
11659537500.0 1.0660400390625 0.3895263671875
11690759375.0 1.064453125 -0.4398193359375
11721981250.0 0.515167236328125 -0.94451904296875
11753203125.0 -0.1090087890625 -1.0386962890625
11784425000.0 -0.72857666015625 -0.8092041015625
11815646875.0 -1.1041259765625 -0.14691162109375
11846868750.0 -0.891326904296875 0.554840087890625
11878090625.0 -0.388946533203125 0.9117431640625
11909312500.0 0.190582275390625 0.98663330078125
11940534375.0 0.786285400390625 0.6943359375
11971756250.0 1.02752685546875 0.035888671875
12002978125.0 0.806610107421875 -0.542144775390625
12034200000.0 0.380859375 -0.890838623046875
12065421875.0 -0.2210693359375 -1.012939453125
12096643750.0 -0.852996826171875 -0.663360595703125
12127865625.0 -1.03533935546875 0.0205078125
12159087500.0 -0.815032958984375 0.580169677734375
12190309375.0 -0.3759765625 0.978607177734375
12221531250.0 0.3448486328125 1.09033203125
12252753125.0 0.98583984375 0.577880859375
12283975000.0 1.05523681640625 -0.13104248046875
12315196875.0 0.80029296875 -0.680816650390625
12346418750.0 0.27789306640625 -1.095703125
12377640625.0 -0.5435791015625 -1.06121826171875
12408862500.0 -1.03765869140625 -0.41583251953125
12440084375.0 -1.00927734375 0.22747802734375
12471306250.0 -0.742279052734375 0.742340087890625
12502528125.0 -0.1766357421875 1.12432861328125
12533750000.0 0.626129150390625 0.99334716796875
12564971875.0 1.04443359375 0.36175537109375
12596193750.0 1.03155517578125 -0.269287109375
12627415625.0 0.7474365234375 -0.833892822265625
12658637500.0 0.07586669921875 -1.21051025390625
12689859375.0 -0.741912841796875 -0.96710205078125
12721081250.0 -1.12176513671875 -0.3026123046875
12752303125.0 -1.1002197265625 0.38934326171875
12783525000.0 -0.6845703125 1.033203125
12814746875.0 0.17218017578125 1.2535400390625
12845968750.0 0.868011474609375 0.809234619140625
12877190625.0 1.1209716796875 0.16827392578125
12908412500.0 1.0582275390625 -0.5093994140625
12939634375.0 0.5391845703125 -1.12420654296875
12970856250.0 -0.32781982421875 -1.17657470703125
13002078125.0 -0.900665283203125 -0.69122314453125
13033300000.0 -1.10882568359375 -0.0836181640625
13064521875.0 -1.01031494140625 0.60186767578125
13095743750.0 -0.4150390625 1.16070556640625
13126965625.0 0.41558837890625 1.12109375
13158187500.0 0.95159912109375 0.630767822265625
13189409375.0 1.15283203125 -0.02508544921875
13220631250.0 0.93505859375 -0.756622314453125
13251853125.0 0.22991943359375 -1.17584228515625
13283075000.0 -0.51171875 -1.01959228515625
13314296875.0 -0.99395751953125 -0.52557373046875
13345518750.0 -1.138671875 0.18408203125
13376740625.0 -0.750396728515625 0.8626708984375
13407962500.0 -0.05328369140625 1.06982421875
