!Created with skrf (http://scikit-rf.org).
# Hz S RI R 50.0 
!freq ReS11 ImS11
45000000.0 -0.0768890380859375 -0.096832275390625
76221875.0 -0.19721221923828125 -0.047149658203125
107443750.0 -0.2558135986328125 0.1207733154296875
138665625.0 -0.1480712890625 0.330322265625
169887500.0 0.1244049072265625 0.4190826416015625
201109375.0 0.4237518310546875 0.28179931640625
232331250.0 0.581207275390625 -0.058349609375
263553125.0 0.4907989501953125 -0.4554443359375
294775000.0 0.097686767578125 -0.73583984375
325996875.0 -0.418060302734375 -0.68316650390625
357218750.0 -0.81085205078125 -0.297271728515625
388440625.0 -0.889373779296875 0.30340576171875
419662500.0 -0.518280029296875 0.870849609375
450884375.0 0.17474365234375 1.03338623046875
482106250.0 0.80291748046875 0.715240478515625
513328125.0 1.12445068359375 0.08624267578125
544550000.0 1.0067138671875 -0.68365478515625
575771875.0 0.3363037109375 -1.24298095703125
606993750.0 -0.556884765625 -1.181396484375
638215625.0 -1.17132568359375 -0.59112548828125
669437500.0 -1.344970703125 0.2369384765625
700659375.0 -0.97283935546875 1.10186767578125
731881250.0 -0.00201416015625 1.549072265625
763103125.0 1.01055908203125 1.15966796875
794325000.0 1.4754638671875 0.281005859375
825546875.0 1.37176513671875 -0.65618896484375
856768750.0 0.79486083984375 -1.40875244140625
887990625.0 -0.29656982421875 -1.65478515625
919212500.0 -1.296142578125 -1.08148193359375
950434375.0 -1.65704345703125 -0.05487060546875
981656250.0 -1.38702392578125 0.9537353515625
1012878125.0 -0.5286865234375 1.68109130859375
1044100000.0 0.703369140625 1.669189453125
1075321875.0 1.5845947265625 0.813232421875
1106543750.0 1.712646484375 -0.317138671875
1137765625.0 1.1903076171875 -1.29229736328125
1168987500.0 0.13604736328125 -1.80615234375
1200209375.0 -1.0694580078125 -1.48895263671875
1231431250.0 -1.73651123046875 -0.4522705078125
1262653125.0 -1.60015869140625 0.691162109375
1293875000.0 -0.85369873046875 1.49920654296875
1325096875.0 0.2318115234375 1.71514892578125
1356318750.0 1.242919921875 1.220703125
1387540625.0 1.74908447265625 0.18670654296875
1418762500.0 1.4742431640625 -0.95843505859375
1449984375.0 0.52880859375 -1.63348388671875
1481206250.0 -0.5548095703125 -1.56170654296875
1512428125.0 -1.34979248046875 -0.92071533203125
1543650000.0 -1.6624755859375 0.06927490234375
1574871875.0 -1.27642822265625 1.11578369140625
1606093750.0 -0.2711181640625 1.63916015625
1637315625.0 0.74774169921875 1.4051513671875
1668537500.0 1.403076171875 0.6966552734375
1699759375.0 1.579345703125 -0.28082275390625
1730981250.0 1.0667724609375 -1.2369384765625
1762203125.0 0.03955078125 -1.57733154296875
1793425000.0 -0.86236572265625 -1.2298583984375
1824646875.0 -1.4007568359375 -0.51416015625
1855868750.0 -1.47979736328125 0.43756103515625
1887090625.0 -0.8759765625 1.2933349609375
1918312500.0 0.12127685546875 1.49285888671875
1949534375.0 0.92791748046875 1.09130859375
1980756250.0 1.3814697265625 0.36846923828125
2011978125.0 1.36407470703125 -0.5357666015625
2043200000.0 0.75128173828125 -1.26806640625
2074421875.0 -0.1600341796875 -1.43878173828125
2105643750.0 -0.967041015625 -1.07452392578125
2136865625.0 -1.45391845703125 -0.3023681640625
2168087500.0 -1.3614501953125 0.67718505859375
2199309375.0 -0.638916015625 1.3590087890625
2230531250.0 0.28656005859375 1.44219970703125
2261753125.0 1.080078125 1.015625
2292975000.0 1.5211181640625 0.16693115234375
2324196875.0 1.3089599609375 -0.82562255859375
2355418750.0 0.52362060546875 -1.42706298828125
2386640625.0 -0.40985107421875 -1.4532470703125
2417862500.0 -1.1898193359375 -1.024658203125
2449084375.0 -1.61138916015625 -0.0802001953125
2480306250.0 -1.314208984375 0.93353271484375
2511528125.0 -0.49188232421875 1.51666259765625
2542750000.0 0.49530029296875 1.5423583984375
2573971875.0 1.38067626953125 0.96868896484375
2605193750.0 1.7247314453125 -0.11773681640625
2636415625.0 1.26361083984375 -1.1622314453125
2667637500.0 0.30352783203125 -1.6748046875
2698859375.0 -0.77789306640625 -1.5389404296875
2730081250.0 -1.5828857421875 -0.7393798828125
2761303125.0 -1.68804931640625 0.39508056640625
2792525000.0 -1.10064697265625 1.31866455078125
2823746875.0 -0.09747314453125 1.738525390625
2854968750.0 1.0224609375 1.4595947265625
2886190625.0 1.701171875 0.48895263671875
2917412500.0 1.60626220703125 -0.625732421875
2948634375.0 0.9390869140625 -1.4429931640625
2979856250.0 -0.11260986328125 -1.7830810546875
3011078125.0 -1.25787353515625 -1.34442138671875
3042300000.0 -1.78399658203125 -0.22991943359375
3073521875.0 -1.51300048828125 0.84722900390625
3104743750.0 -0.761962890625 1.57855224609375
3135965625.0 0.36962890625 1.81719970703125
3167187500.0 1.50872802734375 1.16497802734375
3198409375.0 1.8238525390625 -0.08099365234375
3229631250.0 1.35205078125 -1.09051513671875
3260853125.0 0.48748779296875 -1.67669677734375
3292075000.0 -0.662353515625 -1.70355224609375
3323296875.0 -1.62908935546875 -0.87860107421875
3354518750.0 -1.73785400390625 0.3363037109375
3385740625.0 -1.15765380859375 1.2410888671875
3416962500.0 -0.22650146484375 1.69195556640625
3448184375.0 0.86993408203125 1.5263671875
3479406250.0 1.64630126953125 0.640869140625
3510628125.0 1.65045166015625 -0.5047607421875
3541850000.0 0.99969482421875 -1.3638916015625
3573071875.0 -0.0142822265625 -1.6903076171875
3604293750.0 -1.0377197265625 -1.339599609375
3635515625.0 -1.636474609375 -0.43487548828125
3666737500.0 -1.5665283203125 0.65533447265625
3697959375.0 -0.823974609375 1.48602294921875
3729181250.0 0.27545166015625 1.63739013671875
3760403125.0 1.16192626953125 1.09881591796875
3791625000.0 1.5599365234375 0.21441650390625
3822846875.0 1.40582275390625 -0.7681884765625
3854068750.0 0.6190185546875 -1.49139404296875
3885290625.0 -0.42828369140625 -1.4866943359375
3916512500.0 -1.15106201171875 -0.910888671875
3947734375.0 -1.45489501953125 -0.1148681640625
3978956250.0 -1.30133056640625 0.78924560546875
4010178125.0 -0.52734375 1.46539306640625
4041400000.0 0.48187255859375 1.4197998046875
4072621875.0 1.15924072265625 0.846435546875
4103843750.0 1.45159912109375 0.05755615234375
4135065625.0 1.27020263671875 -0.85540771484375
4166287500.0 0.45263671875 -1.5047607421875
4197509375.0 -0.56622314453125 -1.41839599609375
4228731250.0 -1.25555419921875 -0.7996826171875
4259953125.0 -1.51416015625 0.07659912109375
4291175000.0 -1.18902587890625 1.0189208984375
4322396875.0 -0.28533935546875 1.5335693359375
4353618750.0 0.681640625 1.3536376953125
4384840625.0 1.3316650390625 0.6954345703125
4416062500.0 1.5068359375 -0.23443603515625
4447284375.0 1.05560302734375 -1.11309814453125
4478506250.0 0.166748046875 -1.50299072265625
4509728125.0 -0.74066162109375 -1.31011962890625
4540950000.0 -1.402587890625 -0.63262939453125
4572171875.0 -1.52703857421875 0.36810302734375
4603393750.0 -0.970458984375 1.2227783203125
4634615625.0 -0.05499267578125 1.54290771484375
4665837500.0 0.87872314453125 1.306396484375
4697059375.0 1.5501708984375 0.51068115234375
4728281250.0 1.53253173828125 -0.59228515625
4759503125.0 0.8197021484375 -1.37554931640625
4790725000.0 -0.15252685546875 -1.5772705078125
4821946875.0 -1.0926513671875 -1.19439697265625
4853168750.0 -1.6212158203125 -0.24493408203125
4884390625.0 -1.38031005859375 0.8021240234375
4915612500.0 -0.6099853515625 1.42138671875
4946834375.0 0.3365478515625 1.5145263671875
4978056250.0 1.21490478515625 1.01641845703125
5009278125.0 1.569091796875 0.03302001953125
5040500000.0 1.23114013671875 -0.88519287109375
5071721875.0 0.49749755859375 -1.4234619140625
5102943750.0 -0.45562744140625 -1.50164794921875
5134165625.0 -1.34716796875 -0.90252685546875
5165387500.0 -1.5740966796875 0.1552734375
5196609375.0 -1.13531494140625 1.018798828125
5227831250.0 -0.350830078125 1.515380859375
5259053125.0 0.69854736328125 1.495361328125
5290275000.0 1.53076171875 0.65777587890625
5321496875.0 1.49578857421875 -0.44061279296875
5352718750.0 0.91864013671875 -1.16070556640625
5383940625.0 0.090087890625 -1.50750732421875
5415162500.0 -0.909423828125 -1.285400390625
5446384375.0 -1.4918212890625 -0.365234375
5477606250.0 -1.302734375 0.5753173828125
5508828125.0 -0.72918701171875 1.15966796875
5540050000.0 0.05963134765625 1.40496826171875
5571271875.0 0.9493408203125 1.1099853515625
5602493750.0 1.416748046875 0.25390625
5633715625.0 1.2344970703125 -0.62139892578125
5664937500.0 0.64508056640625 -1.2110595703125
5696159375.0 -0.2052001953125 -1.3885498046875
5727381250.0 -1.03143310546875 -0.976806640625
5758603125.0 -1.39776611328125 -0.1380615234375
5789825000.0 -1.19525146484375 0.72760009765625
5821046875.0 -0.5013427734375 1.31536865234375
5852268750.0 0.4208984375 1.31573486328125
5883490625.0 1.0792236328125 0.76953125
5914712500.0 1.3089599609375 0.013427734375
5945934375.0 1.09783935546875 -0.78466796875
5977156250.0 0.3555908203125 -1.3199462890625
6008378125.0 -0.51788330078125 -1.18414306640625
6039600000.0 -1.02801513671875 -0.647216796875
6070821875.0 -1.22943115234375 0.0010986328125
6102043750.0 -1.08441162109375 0.77197265625
6133265625.0 -0.33575439453125 1.35357666015625
6164487500.0 0.57366943359375 1.18951416015625
6195709375.0 1.07867431640625 0.6268310546875
6226931250.0 1.28570556640625 -0.04937744140625
6258153125.0 1.1048583984375 -0.8826904296875
6289375000.0 0.2467041015625 -1.45477294921875
6320596875.0 -0.69964599609375 -1.20556640625
6351818750.0 -1.20794677734375 -0.56640625
6383040625.0 -1.35784912109375 0.2152099609375
6414262500.0 -0.997314453125 1.06854248046875
6445484375.0 -0.0703125 1.46221923828125
6476706250.0 0.80462646484375 1.14727783203125
6507928125.0 1.2977294921875 0.46435546875
6539150000.0 1.3509521484375 -0.39581298828125
6570371875.0 0.83843994140625 -1.153564453125
6601593750.0 -0.02435302734375 -1.41015625
6632815625.0 -0.8504638671875 -1.136962890625
6664037500.0 -1.41119384765625 -0.4130859375
6695259375.0 -1.3759765625 0.576904296875
6726481250.0 -0.70574951171875 1.2603759765625
6757703125.0 0.1385498046875 1.41156005859375
6788925000.0 0.96673583984375 1.13037109375
6820146875.0 1.56884765625 0.279052734375
6851368750.0 1.32537841796875 -0.83148193359375
6882590625.0 0.500244140625 -1.34619140625
6913812500.0 -0.30096435546875 -1.3590087890625
6945034375.0 -1.07958984375 -1.0191650390625
6976256250.0 -1.5986328125 -0.08355712890625
7007478125.0 -1.2344970703125 0.94317626953125
7038700000.0 -0.3970947265625 1.351318359375
7069921875.0 0.36761474609375 1.32781982421875
7101143750.0 1.1282958984375 0.96795654296875
7132365625.0 1.60772705078125 0.0040283203125
7163587500.0 1.15618896484375 -1.03155517578125
7194809375.0 0.29522705078125 -1.40765380859375
7226031250.0 -0.52093505859375 -1.32958984375
7257253125.0 -1.27972412109375 -0.8203125
7288475000.0 -1.5650634765625 0.21044921875
7319696875.0 -1.0272216796875 1.121826171875
7350918750.0 -0.15594482421875 1.453369140625
7382140625.0 0.7305908203125 1.28021240234375
7413362500.0 1.38494873046875 0.57025146484375
7444584375.0 1.41375732421875 -0.41766357421875
7475806250.0 0.8551025390625 -1.15472412109375
7507028125.0 -0.0035400390625 -1.435302734375
7538250000.0 -0.90069580078125 -1.12347412109375
7569471875.0 -1.34332275390625 -0.30364990234375
7600693750.0 -1.20391845703125 0.50579833984375
7631915625.0 -0.71453857421875 1.093017578125
7663137500.0 0.0882568359375 1.3653564453125
7694359375.0 0.95098876953125 0.98004150390625
7725581250.0 1.251220703125 0.17449951171875
7756803125.0 1.08624267578125 -0.5084228515625
7788025000.0 0.66766357421875 -1.055419921875
7819246875.0 -0.130126953125 -1.35284423828125
7850468750.0 -1.00518798828125 -0.913330078125
7881690625.0 -1.23858642578125 -0.09649658203125
7912912500.0 -1.05645751953125 0.5643310546875
7944134375.0 -0.6004638671875 1.12445068359375
7975356250.0 0.28460693359375 1.3404541015625
8006578125.0 1.0567626953125 0.7738037109375
8037800000.0 1.198486328125 0.00830078125
8069021875.0 1.0076904296875 -0.6258544921875
8100243750.0 0.494140625 -1.17034912109375
8131465625.0 -0.3994140625 -1.25738525390625
8162687500.0 -1.04052734375 -0.68194580078125
8193909375.0 -1.18548583984375 0.01422119140625
8225131250.0 -1.01953125 0.68731689453125
8256353125.0 -0.41436767578125 1.25897216796875
8287575000.0 0.512451171875 1.228515625
8318796875.0 1.09259033203125 0.631103515625
8350018750.0 1.25152587890625 -0.084716796875
8381240625.0 1.03118896484375 -0.85125732421875
8412462500.0 0.24420166015625 -1.3824462890625
8443684375.0 -0.68182373046875 -1.17010498046875
8474906250.0 -1.1856689453125 -0.52435302734375
8506128125.0 -1.30267333984375 0.24871826171875
8537350000.0 -0.92120361328125 1.05841064453125
8568571875.0 -0.00634765625 1.39959716796875
8599793750.0 0.8123779296875 1.05108642578125
8631015625.0 1.24822998046875 0.39215087890625
8662237500.0 1.2894287109375 -0.44000244140625
8693459375.0 0.73223876953125 -1.18756103515625
8724681250.0 -0.17138671875 -1.33660888671875
8755903125.0 -0.8905029296875 -0.9571533203125
8787125000.0 -1.31170654296875 -0.2750244140625
8818346875.0 -1.2540283203125 0.62823486328125
8849568750.0 -0.54986572265625 1.27191162109375
8880790625.0 0.310302734375 1.291259765625
8912012500.0 0.9949951171875 0.89044189453125
8943234375.0 1.4097900390625 0.11834716796875
8974456250.0 1.1646728515625 -0.8553466796875
9005678125.0 0.33770751953125 -1.32183837890625
9036900000.0 -0.456298828125 -1.226806640625
9068121875.0 -1.115234375 -0.77996826171875
9099343750.0 -1.44671630859375 0.1097412109375
9130565625.0 -0.97369384765625 1.0220947265625
9161787500.0 -0.14703369140625 1.28826904296875
9193009375.0 0.56219482421875 1.13482666015625
9224231250.0 1.18994140625 0.650634765625
9255453125.0 1.40472412109375 -0.30609130859375
9286675000.0 0.8026123046875 -1.09747314453125
9317896875.0 0.01812744140625 -1.2528076171875
9349118750.0 -0.6650390625 -1.072265625
9380340625.0 -1.27130126953125 -0.5015869140625
9411562500.0 -1.31524658203125 0.48980712890625
9442784375.0 -0.6414794921875 1.12896728515625
9474006250.0 0.09869384765625 1.21746826171875
9505228125.0 0.7777099609375 0.979827880859375
9536450000.0 1.2838134765625 0.3031005859375
9567671875.0 1.14385986328125 -0.593505859375
9598893750.0 0.52288818359375 -1.07879638671875
9630115625.0 -0.15313720703125 -1.1622314453125
9661337500.0 -0.829986572265625 -0.89923095703125
9692559375.0 -1.246337890625 -0.17999267578125
9723781250.0 -1.04278564453125 0.614990234375
9755003125.0 -0.48028564453125 1.05975341796875
9786225000.0 0.20672607421875 1.1632080078125
9817446875.0 0.904815673828125 0.82537841796875
9848668750.0 1.20440673828125 0.07012939453125
9879890625.0 0.968048095703125 -0.626953125
9911112500.0 0.44720458984375 -1.06060791015625
9942334375.0 -0.2802734375 -1.16522216796875
9973556250.0 -0.955413818359375 -0.734100341796875
10004778125.0 -1.15130615234375 -0.00775146484375
10036000000.0 -0.944549560546875 0.628753662109375
10067221875.0 -0.43310546875 1.1087646484375
10098443750.0 0.38134765625 1.18218994140625
10129665625.0 1.01446533203125 0.6356201171875
10160887500.0 1.123046875 -0.0611572265625
10192109375.0 0.91619873046875 -0.6728515625
10223331250.0 0.35296630859375 -1.16064453125
10254553125.0 -0.498291015625 -1.11322021484375
10285775000.0 -0.992706298828125 -0.5291748046875
10316996875.0 -1.0703125 0.0850830078125
10348218750.0 -0.899810791015625 0.680572509765625
10379440625.0 -0.31280517578125 1.18511962890625
10410662500.0 0.539794921875 1.08648681640625
10441884375.0 1.00018310546875 0.5166015625
10473106250.0 1.114013671875 -0.09161376953125
10504328125.0 0.9490966796875 -0.768768310546875
10535550000.0 0.22735595703125 -1.3055419921875
10566771875.0 -0.66778564453125 -1.075439453125
10597993750.0 -1.0894775390625 -0.4503173828125
10629215625.0 -1.179443359375 0.21502685546875
10660437500.0 -0.88427734375 0.964752197265625
10691659375.0 0.00286865234375 1.341552734375
10722881250.0 0.79644775390625 0.94879150390625
10754103125.0 1.1265869140625 0.31787109375
10785325000.0 1.142822265625 -0.380126953125
10816546875.0 0.69580078125 -1.05865478515625
10847768750.0 -0.1573486328125 -1.233642578125
10878990625.0 -0.812744140625 -0.840972900390625
10910212500.0 -1.13043212890625 -0.23638916015625
10941434375.0 -1.09881591796875 0.488525390625
10972656250.0 -0.56146240234375 1.09661865234375
11003878125.0 0.22821044921875 1.177978515625
11035100000.0 0.8585205078125 0.819793701171875
11066321875.0 1.22900390625 0.16522216796875
11097543750.0 1.09759521484375 -0.6890869140625
11128765625.0 0.37811279296875 -1.20782470703125
11159987500.0 -0.40802001953125 -1.14129638671875
11191209375.0 -1.010986328125 -0.69732666015625
11222431250.0 -1.277587890625 0.10638427734375
11253653125.0 -0.853759765625 0.9080810546875
11284875000.0 -0.10400390625 1.133056640625
11316096875.0 0.519805908203125 0.95574951171875
11347318750.0 1.0123291015625 0.4959716796875
11378540625.0 1.1199951171875 -0.27996826171875
11409762500.0 0.6300048828125 -0.869354248046875
11440984375.0 0.029815673828125 -0.982513427734375
11472206250.0 -0.489471435546875 -0.850860595703125
11503428125.0 -0.9630126953125 -0.45001220703125
11534650000.0 -1.0709228515625 0.30010986328125
11565871875.0 -0.598114013671875 0.86322021484375
11597093750.0 -0.010406494140625 0.996978759765625
11628315625.0 0.55401611328125 0.875701904296875
11659537500.0 1.07037353515625 0.38458251953125
11690759375.0 1.06591796875 -0.44635009765625
11721981250.0 0.510009765625 -0.9482421875
11753203125.0 -0.11541748046875 -1.040283203125
11784425000.0 -0.73486328125 -0.8072509765625
11815646875.0 -1.109375 -0.13970947265625
11846868750.0 -0.88922119140625 0.562042236328125
11878090625.0 -0.38433837890625 0.916168212890625
11909312500.0 0.197418212890625 0.989166259765625
11940534375.0 0.79248046875 0.691558837890625
11971756250.0 1.029541015625 0.0301513671875
12002978125.0 0.805084228515625 -0.54595947265625
12034200000.0 0.376220703125 -0.896636962890625
12065421875.0 -0.2266845703125 -1.01446533203125
12096643750.0 -0.8577880859375 -0.658905029296875
12127865625.0 -1.0382080078125 0.02618408203125
12159087500.0 -0.81304931640625 0.5858154296875
12190309375.0 -0.370361328125 0.9842529296875
12221531250.0 0.352294921875 1.09039306640625
12252753125.0 0.99224853515625 0.573089599609375
12283975000.0 1.057861328125 -0.1383056640625
12315196875.0 0.798980712890625 -0.6868896484375
12346418750.0 0.27362060546875 -1.09820556640625
12377640625.0 -0.551025390625 -1.05902099609375
12408862500.0 -1.041748046875 -0.41033935546875
12440084375.0 -1.01007080078125 0.23455810546875
12471306250.0 -0.739166259765625 0.748260498046875
12502528125.0 -0.17010498046875 1.13006591796875
12533750000.0 0.633819580078125 0.992401123046875
12564971875.0 1.04937744140625 0.35577392578125
12596193750.0 1.03240966796875 -0.27490234375
12627415625.0 0.744232177734375 -0.841796875
12658637500.0 0.06878662109375 -1.21441650390625
12689859375.0 -0.747894287109375 -0.963470458984375
12721081250.0 -1.125732421875 -0.29571533203125
12752303125.0 -1.1004638671875 0.39447021484375
12783525000.0 -0.67999267578125 1.04071044921875
12814746875.0 0.178955078125 1.2550048828125
12845968750.0 0.87542724609375 0.805755615234375
12877190625.0 1.12396240234375 0.16278076171875
12908412500.0 1.05712890625 -0.51507568359375
12939634375.0 0.53302001953125 -1.13006591796875
12970856250.0 -0.33367919921875 -1.17572021484375
13002078125.0 -0.90643310546875 -0.686798095703125
13033300000.0 -1.11322021484375 -0.0772705078125
13064521875.0 -1.00927734375 0.606201171875
13095743750.0 -0.40924072265625 1.1669921875
13126965625.0 0.4232177734375 1.1214599609375
13158187500.0 0.958099365234375 0.626220703125
13189409375.0 1.1553955078125 -0.0328369140625
13220631250.0 0.9342041015625 -0.7615966796875
13251853125.0 0.22125244140625 -1.18157958984375
13283075000.0 -0.52099609375 -1.01983642578125
13314296875.0 -0.99798583984375 -0.5213623046875
13345518750.0 -1.140380859375 0.19110107421875
