!Created with skrf (http://scikit-rf.org).
# Hz S RI R 50.0 
!freq ReS11 ImS11
45000000.0 -0.0766754150390625 -0.09706497192382812
76221875.0 -0.196990966796875 -0.0474700927734375
107443750.0 -0.255615234375 0.1198272705078125
138665625.0 -0.1486968994140625 0.3294219970703125
169887500.0 0.1233062744140625 0.418609619140625
201109375.0 0.422607421875 0.2822265625
232331250.0 0.580413818359375 -0.0570068359375
263553125.0 0.49078369140625 -0.4536590576171875
294775000.0 0.0992431640625 -0.733673095703125
325996875.0 -0.416168212890625 -0.6829833984375
357218750.0 -0.8084716796875 -0.2984619140625
388440625.0 -0.888275146484375 0.301177978515625
419662500.0 -0.519012451171875 0.86822509765625
450884375.0 0.17230224609375 1.03155517578125
482106250.0 0.799896240234375 0.71539306640625
513328125.0 1.122314453125 0.08837890625
544550000.0 1.00640869140625 -0.6806640625
575771875.0 0.33831787109375 -1.2403564453125
606993750.0 -0.55377197265625 -1.1805419921875
638215625.0 -1.1680908203125 -0.59295654296875
669437500.0 -1.3428955078125 0.23321533203125
700659375.0 -0.97369384765625 1.09783935546875
731881250.0 -0.00537109375 1.546630859375
763103125.0 1.00701904296875 1.15960693359375
794325000.0 1.4720458984375 0.2835693359375
825546875.0 1.37078857421875 -0.652099609375
856768750.0 0.7969970703125 -1.4036865234375
887990625.0 -0.29254150390625 -1.6519775390625
919212500.0 -1.2911376953125 -1.0821533203125
950434375.0 -1.65325927734375 -0.05975341796875
981656250.0 -1.38665771484375 0.94854736328125
1012878125.0 -0.53155517578125 1.67608642578125
1044100000.0 0.698486328125 1.66705322265625
1075321875.0 1.57867431640625 0.81488037109375
1106543750.0 1.70977783203125 -0.3125
1137765625.0 1.1905517578125 -1.28680419921875
1168987500.0 0.139404296875 -1.80255126953125
1200209375.0 -1.06402587890625 -1.4888916015625
1231431250.0 -1.732177734375 -0.45501708984375
1262653125.0 -1.59808349609375 0.6856689453125
1293875000.0 -0.855224609375 1.4949951171875
1325096875.0 0.2276611328125 1.7119140625
1356318750.0 1.2381591796875 1.22113037109375
1387540625.0 1.7447509765625 0.1900634765625
1418762500.0 1.4732666015625 -0.9532470703125
1449984375.0 0.531494140625 -1.6297607421875
1481206250.0 -0.5509033203125 -1.56024169921875
1512428125.0 -1.34515380859375 -0.9222412109375
1543650000.0 -1.65966796875 0.065185546875
1574871875.0 -1.2769775390625 1.1109619140625
1606093750.0 -0.274169921875 1.635009765625
1637315625.0 0.74346923828125 1.40460205078125
1668537500.0 1.39947509765625 0.6981201171875
1699759375.0 1.57696533203125 -0.27667236328125
1730981250.0 1.0672607421875 -1.23193359375
1762203125.0 0.04278564453125 -1.574462890625
1793425000.0 -0.8577880859375 -1.2296142578125
1824646875.0 -1.396728515625 -0.5166015625
1855868750.0 -1.47747802734375 0.43328857421875
1887090625.0 -0.87725830078125 1.28857421875
1918312500.0 0.1175537109375 1.490478515625
1949534375.0 0.92327880859375 1.09130859375
1980756250.0 1.37799072265625 0.371337890625
2011978125.0 1.36309814453125 -0.5323486328125
2043200000.0 0.7525634765625 -1.263916015625
2074421875.0 -0.15667724609375 -1.43682861328125
2105643750.0 -0.962646484375 -1.07513427734375
2136865625.0 -1.45098876953125 -0.3056640625
2168087500.0 -1.36041259765625 0.6724853515625
2199309375.0 -0.64068603515625 1.354736328125
2230531250.0 0.2828369140625 1.44012451171875
2261753125.0 1.07537841796875 1.0162353515625
2292975000.0 1.51806640625 0.170654296875
2324196875.0 1.30841064453125 -0.82086181640625
2355418750.0 0.52630615234375 -1.42279052734375
2386640625.0 -0.40576171875 -1.45166015625
2417862500.0 -1.18310546875 -1.0262451171875
2449084375.0 -1.608642578125 -0.08331298828125
2480306250.0 -1.3138427734375 0.92681884765625
2511528125.0 -0.49432373046875 1.51141357421875
2542750000.0 0.4903564453125 1.5401611328125
2573971875.0 1.37371826171875 0.9696044921875
2605193750.0 1.72161865234375 -0.1136474609375
2636415625.0 1.263916015625 -1.155029296875
2667637500.0 0.30621337890625 -1.671630859375
2698859375.0 -0.77423095703125 -1.53826904296875
2730081250.0 -1.5782470703125 -0.74176025390625
2761303125.0 -1.68511962890625 0.39019775390625
2792525000.0 -1.10101318359375 1.3115234375
2823746875.0 -0.1015625 1.73486328125
2854968750.0 1.01531982421875 1.4588623046875
2886190625.0 1.69610595703125 0.49237060546875
2917412500.0 1.6044921875 -0.6202392578125
2948634375.0 0.940673828125 -1.43756103515625
2979856250.0 -0.10955810546875 -1.78125
3011078125.0 -1.25164794921875 -1.34442138671875
3042300000.0 -1.7794189453125 -0.2344970703125
3073521875.0 -1.5118408203125 0.841796875
3104743750.0 -0.7645263671875 1.571533203125
3135965625.0 0.36444091796875 1.81414794921875
3167187500.0 1.5030517578125 1.16619873046875
3198409375.0 1.82080078125 -0.076171875
3229631250.0 1.35223388671875 -1.08514404296875
3260853125.0 0.4906005859375 -1.672607421875
3292075000.0 -0.6568603515625 -1.70166015625
3323296875.0 -1.62359619140625 -0.88104248046875
3354518750.0 -1.73443603515625 0.33026123046875
3385740625.0 -1.1585693359375 1.23553466796875
3416962500.0 -0.2310791015625 1.68670654296875
3448184375.0 0.86431884765625 1.5245361328125
3479406250.0 1.6414794921875 0.64398193359375
3510628125.0 1.64788818359375 -0.49761962890625
3541850000.0 1.00128173828125 -1.35888671875
3573071875.0 -0.00848388671875 -1.685791015625
3604293750.0 -1.03131103515625 -1.34002685546875
3635515625.0 -1.63079833984375 -0.43804931640625
3666737500.0 -1.56427001953125 0.6484375
3697959375.0 -0.82562255859375 1.4794921875
3729181250.0 0.26995849609375 1.63385009765625
3760403125.0 1.15557861328125 1.09967041015625
3791625000.0 1.5565185546875 0.2176513671875
3822846875.0 1.405029296875 -0.76263427734375
3854068750.0 0.62127685546875 -1.48419189453125
3885290625.0 -0.4227294921875 -1.4844970703125
3916512500.0 -1.14569091796875 -0.9122314453125
3947734375.0 -1.45147705078125 -0.11907958984375
3978956250.0 -1.2998046875 0.7816162109375
4010178125.0 -0.53094482421875 1.458251953125
4041400000.0 0.4766845703125 1.4180908203125
4072621875.0 1.155517578125 0.8480224609375
4103843750.0 1.4482421875 0.0614013671875
4135065625.0 1.2698974609375 -0.849609375
4166287500.0 0.4571533203125 -1.49951171875
4197509375.0 -0.56146240234375 -1.41680908203125
4228731250.0 -1.2508544921875 -0.80218505859375
4259953125.0 -1.5123291015625 0.07281494140625
4291175000.0 -1.18939208984375 1.01177978515625
4322396875.0 -0.28839111328125 1.53076171875
4353618750.0 0.6759033203125 1.352783203125
4384840625.0 1.32562255859375 0.6973876953125
4416062500.0 1.50421142578125 -0.229736328125
4447284375.0 1.05657958984375 -1.10699462890625
4478506250.0 0.1707763671875 -1.499267578125
4509728125.0 -0.73651123046875 -1.3096923828125
4540950000.0 -1.398193359375 -0.63531494140625
4572171875.0 -1.525634765625 0.3634033203125
4603393750.0 -0.97271728515625 1.21728515625
4634615625.0 -0.05975341796875 1.539794921875
4665837500.0 0.8743896484375 1.30621337890625
4697059375.0 1.54730224609375 0.51385498046875
4728281250.0 1.53155517578125 -0.58636474609375
4759503125.0 0.8226318359375 -1.37158203125
4790725000.0 -0.14801025390625 -1.575439453125
4821946875.0 -1.08746337890625 -1.19537353515625
4853168750.0 -1.61724853515625 -0.25006103515625
4884390625.0 -1.37969970703125 0.796875
4915612500.0 -0.61328125 1.41607666015625
4946834375.0 0.33135986328125 1.51312255859375
4978056250.0 1.20880126953125 1.01849365234375
5009278125.0 1.56640625 0.03729248046875
5040500000.0 1.23138427734375 -0.88092041015625
5071721875.0 0.50091552734375 -1.4189453125
5102943750.0 -0.45001220703125 -1.500244140625
5134165625.0 -1.341552734375 -0.90509033203125
5165387500.0 -1.57196044921875 0.15008544921875
5196609375.0 -1.136962890625 1.01385498046875
5227831250.0 -0.35552978515625 1.50982666015625
5259053125.0 0.69219970703125 1.494140625
5290275000.0 1.52532958984375 0.66156005859375
5321496875.0 1.49456787109375 -0.4344482421875
5352718750.0 0.9212646484375 -1.15667724609375
5383940625.0 0.0948486328125 -1.5028076171875
5415162500.0 -0.9041748046875 -1.2855224609375
5446384375.0 -1.48822021484375 -0.36956787109375
5477606250.0 -1.30157470703125 0.56976318359375
5508828125.0 -0.73077392578125 1.15557861328125
5540050000.0 0.0555419921875 1.40216064453125
5571271875.0 0.9439697265625 1.110595703125
5602493750.0 1.41265869140625 0.258056640625
5633715625.0 1.23394775390625 -0.61651611328125
5664937500.0 0.6473388671875 -1.2056884765625
5696159375.0 -0.20068359375 -1.386962890625
5727381250.0 -1.02728271484375 -0.97821044921875
5758603125.0 -1.3955078125 -0.14178466796875
5789825000.0 -1.1953125 0.72174072265625
5821046875.0 -0.5042724609375 1.3115234375
5852268750.0 0.41473388671875 1.31512451171875
5883490625.0 1.07421875 0.771240234375
5914712500.0 1.305908203125 0.01702880859375
5945934375.0 1.097900390625 -0.7789306640625
5977156250.0 0.35980224609375 -1.3160400390625
6008378125.0 -0.5137939453125 -1.1842041015625
6039600000.0 -1.024169921875 -0.64910888671875
6070821875.0 -1.22674560546875 -0.00274658203125
6102043750.0 -1.08502197265625 0.76751708984375
6133265625.0 -0.33905029296875 1.35028076171875
6164487500.0 0.567626953125 1.18902587890625
6195709375.0 1.07427978515625 0.629150390625
6226931250.0 1.28387451171875 -0.04595947265625
6258153125.0 1.10546875 -0.87725830078125
6289375000.0 0.25140380859375 -1.45166015625
6320596875.0 -0.6944580078125 -1.206298828125
6351818750.0 -1.2039794921875 -0.5697021484375
6383040625.0 -1.356689453125 0.2105712890625
6414262500.0 -0.999267578125 1.061767578125
6445484375.0 -0.074951171875 1.45953369140625
6476706250.0 0.79962158203125 1.14776611328125
6507928125.0 1.29327392578125 0.4683837890625
6539150000.0 1.3494873046875 -0.3900146484375
6570371875.0 0.8406982421875 -1.1484375
6601593750.0 -0.0206298828125 -1.4085693359375
6632815625.0 -0.8436279296875 -1.13720703125
6664037500.0 -1.40631103515625 -0.417236328125
6695259375.0 -1.37603759765625 0.571533203125
6726481250.0 -0.7091064453125 1.2564697265625
6757703125.0 0.13470458984375 1.41015625
6788925000.0 0.9609375 1.13134765625
6820146875.0 1.56494140625 0.28424072265625
6851368750.0 1.32598876953125 -0.82574462890625
6882590625.0 0.50421142578125 -1.34075927734375
6913812500.0 -0.29541015625 -1.35858154296875
6945034375.0 -1.07586669921875 -1.02130126953125
6976256250.0 -1.59600830078125 -0.08935546875
7007478125.0 -1.23638916015625 0.9368896484375
7038700000.0 -0.39971923828125 1.34942626953125
7069921875.0 0.36309814453125 1.32757568359375
7101143750.0 1.1239013671875 0.96923828125
7132365625.0 1.603515625 0.0107421875
7163587500.0 1.15765380859375 -1.02740478515625
7194809375.0 0.301025390625 -1.40069580078125
7226031250.0 -0.515869140625 -1.328857421875
7257253125.0 -1.2713623046875 -0.8240966796875
7288475000.0 -1.5626220703125 0.20361328125
7319696875.0 -1.0291748046875 1.11553955078125
7350918750.0 -0.1614990234375 1.4481201171875
7382140625.0 0.72216796875 1.2784423828125
7413362500.0 1.38330078125 0.5726318359375
7444584375.0 1.4144287109375 -0.41314697265625
7475806250.0 0.85699462890625 -1.1497802734375
7507028125.0 0.0023193359375 -1.43292236328125
7538250000.0 -0.8929443359375 -1.12451171875
7569471875.0 -1.33935546875 -0.30914306640625
7600693750.0 -1.2039794921875 0.5009765625
7631915625.0 -0.7174072265625 1.0909423828125
7663137500.0 0.08355712890625 1.36126708984375
7694359375.0 0.9454345703125 0.9818115234375
7725581250.0 1.2476806640625 0.1787109375
7756803125.0 1.0855712890625 -0.50286865234375
7788025000.0 0.6710205078125 -1.0479736328125
7819246875.0 -0.12530517578125 -1.35260009765625
7850468750.0 -0.99884033203125 -0.915374755859375
7881690625.0 -1.23486328125 -0.10198974609375
7912912500.0 -1.05682373046875 0.56005859375
7944134375.0 -0.60333251953125 1.11907958984375
7975356250.0 0.27789306640625 1.33709716796875
8006578125.0 1.05169677734375 0.7767333984375
8037800000.0 1.1961669921875 0.01361083984375
8069021875.0 1.0084228515625 -0.6219482421875
8100243750.0 0.49774169921875 -1.16656494140625
8131465625.0 -0.3909912109375 -1.25494384765625
8162687500.0 -1.0367431640625 -0.6849365234375
8193909375.0 -1.1834716796875 0.011474609375
8225131250.0 -1.0196533203125 0.68304443359375
8256353125.0 -0.41912841796875 1.2554931640625
8287575000.0 0.50482177734375 1.2276611328125
8318796875.0 1.0863037109375 0.6339111328125
8350018750.0 1.24871826171875 -0.078857421875
8381240625.0 1.03228759765625 -0.84600830078125
8412462500.0 0.2501220703125 -1.37841796875
8443684375.0 -0.67559814453125 -1.1705322265625
8474906250.0 -1.18023681640625 -0.5281982421875
8506128125.0 -1.300537109375 0.240966796875
8537350000.0 -0.92303466796875 1.054443359375
8568571875.0 -0.010009765625 1.3980712890625
8599793750.0 0.80816650390625 1.0526123046875
8631015625.0 1.2462158203125 0.39599609375
8662237500.0 1.28753662109375 -0.433349609375
8693459375.0 0.73553466796875 -1.18170166015625
8724681250.0 -0.16656494140625 -1.33404541015625
8755903125.0 -0.885498046875 -0.95880126953125
8787125000.0 -1.30987548828125 -0.279541015625
8818346875.0 -1.25341796875 0.6212158203125
8849568750.0 -0.55364990234375 1.26739501953125
8880790625.0 0.30401611328125 1.28826904296875
8912012500.0 0.98980712890625 0.893096923828125
8943234375.0 1.4051513671875 0.12432861328125
8974456250.0 1.16693115234375 -0.84844970703125
9005678125.0 0.343994140625 -1.3167724609375
9036900000.0 -0.45184326171875 -1.2266845703125
9068121875.0 -1.109619140625 -0.78363037109375
9099343750.0 -1.44451904296875 0.103515625
9130565625.0 -0.9769287109375 1.018310546875
9161787500.0 -0.15057373046875 1.28594970703125
9193009375.0 0.55987548828125 1.1351318359375
9224231250.0 1.18426513671875 0.65338134765625
9255453125.0 1.40289306640625 -0.30120849609375
9286675000.0 0.8062744140625 -1.0904541015625
9317896875.0 0.02398681640625 -1.2509765625
9349118750.0 -0.66058349609375 -1.072021484375
9380340625.0 -1.2637939453125 -0.5078125
9411562500.0 -1.3138427734375 0.48333740234375
9442784375.0 -0.64495849609375 1.123779296875
9474006250.0 0.09375 1.2164306640625
9505228125.0 0.77215576171875 0.980499267578125
9536450000.0 1.27978515625 0.30810546875
9567671875.0 1.1444091796875 -0.58734130859375
9598893750.0 0.5262451171875 -1.07379150390625
9630115625.0 -0.14715576171875 -1.15960693359375
9661337500.0 -0.82696533203125 -0.901641845703125
9692559375.0 -1.24298095703125 -0.184814453125
9723781250.0 -1.0430908203125 0.6080322265625
9755003125.0 -0.482421875 1.056396484375
9786225000.0 0.20379638671875 1.162841796875
9817446875.0 0.902557373046875 0.82708740234375
9848668750.0 1.20263671875 0.0723876953125
9879890625.0 0.96905517578125 -0.62164306640625
9911112500.0 0.45068359375 -1.05816650390625
9942334375.0 -0.2750244140625 -1.1646728515625
9973556250.0 -0.9512939453125 -0.73565673828125
10004778125.0 -1.15081787109375 -0.011474609375
10036000000.0 -0.944366455078125 0.622406005859375
10067221875.0 -0.43817138671875 1.10284423828125
10098443750.0 0.38031005859375 1.1842041015625
10129665625.0 1.0084228515625 0.6397705078125
10160887500.0 1.12152099609375 -0.05694580078125
10192109375.0 0.916748046875 -0.6690673828125
10223331250.0 0.35662841796875 -1.15594482421875
10254553125.0 -0.491943359375 -1.1138916015625
10285775000.0 -0.989990234375 -0.531494140625
10316996875.0 -1.0687255859375 0.0802001953125
10348218750.0 -0.900543212890625 0.67578125
10379440625.0 -0.31805419921875 1.18182373046875
10410662500.0 0.533447265625 1.08599853515625
10441884375.0 0.99786376953125 0.519989013671875
10473106250.0 1.1129150390625 -0.08856201171875
10504328125.0 0.95025634765625 -0.763916015625
10535550000.0 0.23443603515625 -1.30126953125
10566771875.0 -0.6658935546875 -1.07611083984375
10597993750.0 -1.08551025390625 -0.45465087890625
10629215625.0 -1.17828369140625 0.2119140625
10660437500.0 -0.88568115234375 0.959808349609375
10691659375.0 -0.00238037109375 1.33880615234375
10722881250.0 0.79150390625 0.9508056640625
10754103125.0 1.1226806640625 0.32098388671875
10785325000.0 1.14178466796875 -0.37359619140625
10816546875.0 0.69903564453125 -1.0546875
10847768750.0 -0.1505126953125 -1.23101806640625
10878990625.0 -0.80914306640625 -0.84259033203125
10910212500.0 -1.125732421875 -0.24169921875
10941434375.0 -1.09912109375 0.4822998046875
10972656250.0 -0.56536865234375 1.09124755859375
11003878125.0 0.22314453125 1.1771240234375
11035100000.0 0.85272216796875 0.82135009765625
11066321875.0 1.2249755859375 0.1695556640625
11097543750.0 1.09942626953125 -0.68310546875
11128765625.0 0.38140869140625 -1.20330810546875
11159987500.0 -0.40167236328125 -1.1407470703125
11191209375.0 -1.00732421875 -0.700439453125
11222431250.0 -1.2774658203125 0.1015625
11253653125.0 -0.856170654296875 0.901458740234375
11284875000.0 -0.10992431640625 1.1297607421875
11316096875.0 0.515869140625 0.95709228515625
11347318750.0 1.00762939453125 0.4993896484375
11378540625.0 1.119873046875 -0.27728271484375
11409762500.0 0.632171630859375 -0.865814208984375
11440984375.0 0.0318603515625 -0.9815673828125
11472206250.0 -0.485809326171875 -0.851715087890625
11503428125.0 -0.958740234375 -0.454071044921875
11534650000.0 -1.07012939453125 0.2938232421875
11565871875.0 -0.60015869140625 0.859375
11597093750.0 -0.01483154296875 0.99456787109375
11628315625.0 0.55072021484375 0.87677001953125
11659537500.0 1.06512451171875 0.38909912109375
11690759375.0 1.06488037109375 -0.43988037109375
11721981250.0 0.51348876953125 -0.945343017578125
11753203125.0 -0.11065673828125 -1.03900146484375
11784425000.0 -0.7314453125 -0.807891845703125
11815646875.0 -1.104248046875 -0.14569091796875
11846868750.0 -0.890869140625 0.55694580078125
11878090625.0 -0.38702392578125 0.9141845703125
11909312500.0 0.191314697265625 0.986968994140625
11940534375.0 0.78564453125 0.69390869140625
11971756250.0 1.02783203125 0.03466796875
12002978125.0 0.80615234375 -0.54339599609375
12034200000.0 0.379302978515625 -0.894073486328125
12065421875.0 -0.2208251953125 -1.01220703125
12096643750.0 -0.85345458984375 -0.66265869140625
12127865625.0 -1.03546142578125 0.02197265625
12159087500.0 -0.81512451171875 0.58111572265625
12190309375.0 -0.374053955078125 0.982147216796875
12221531250.0 0.34625244140625 1.08917236328125
12252753125.0 0.986358642578125 0.5765380859375
12283975000.0 1.0562744140625 -0.1329345703125
12315196875.0 0.79888916015625 -0.68310546875
12346418750.0 0.27691650390625 -1.09716796875
12377640625.0 -0.5469970703125 -1.060546875
12408862500.0 -1.03826904296875 -0.4154052734375
12440084375.0 -1.0101318359375 0.229248046875
12471306250.0 -0.741180419921875 0.742919921875
12502528125.0 -0.17510986328125 1.12554931640625
12533750000.0 0.62664794921875 0.992919921875
12564971875.0 1.04583740234375 0.35931396484375
12596193750.0 1.03167724609375 -0.2698974609375
12627415625.0 0.747528076171875 -0.83367919921875
12658637500.0 0.07293701171875 -1.21185302734375
12689859375.0 -0.743408203125 -0.96636962890625
12721081250.0 -1.1221923828125 -0.30096435546875
12752303125.0 -1.099609375 0.3895263671875
12783525000.0 -0.6829833984375 1.03533935546875
12814746875.0 0.1717529296875 1.25189208984375
12845968750.0 0.87005615234375 0.808837890625
12877190625.0 1.1214599609375 0.16680908203125
12908412500.0 1.05731201171875 -0.5101318359375
12939634375.0 0.53753662109375 -1.12420654296875
12970856250.0 -0.32867431640625 -1.1756591796875
13002078125.0 -0.9002685546875 -0.69049072265625
13033300000.0 -1.10980224609375 -0.0819091796875
13064521875.0 -1.01031494140625 0.60284423828125
13095743750.0 -0.4136962890625 1.161376953125
13126965625.0 0.41546630859375 1.12005615234375
13158187500.0 0.953338623046875 0.628631591796875
13189409375.0 1.15325927734375 -0.027099609375
13220631250.0 0.93524169921875 -0.756805419921875
13251853125.0 0.227294921875 -1.17913818359375
13283075000.0 -0.5172119140625 -1.02008056640625
13314296875.0 -0.993011474609375 -0.525726318359375
13345518750.0 -1.1397705078125 0.1871337890625
13376740625.0 -0.74810791015625 0.866546630859375
13407962500.0 -0.05340576171875 1.06842041015625
