!Created with skrf (http://scikit-rf.org).
# Hz S RI R 50.0 
!freq ReS11 ImS11
45000000.0 -0.07696533203125 -0.09673309326171875
76221875.0 -0.1963653564453125 -0.047607421875
107443750.0 -0.254669189453125 0.1197509765625
138665625.0 -0.1480255126953125 0.3282928466796875
169887500.0 0.123443603515625 0.4170989990234375
201109375.0 0.4216461181640625 0.2806854248046875
232331250.0 0.57843017578125 -0.05743408203125
263553125.0 0.4891815185546875 -0.452178955078125
294775000.0 0.098419189453125 -0.731842041015625
325996875.0 -0.4149169921875 -0.679931640625
357218750.0 -0.80535888671875 -0.296966552734375
388440625.0 -0.884735107421875 0.30023193359375
419662500.0 -0.516845703125 0.865478515625
450884375.0 0.1728515625 1.0277099609375
482106250.0 0.797637939453125 0.712005615234375
513328125.0 1.1182861328125 0.0872802734375
544550000.0 1.00274658203125 -0.67913818359375
575771875.0 0.3363037109375 -1.23687744140625
606993750.0 -0.552978515625 -1.17608642578125
638215625.0 -1.1646728515625 -0.5897216796875
669437500.0 -1.33837890625 0.2335205078125
700659375.0 -0.97003173828125 1.0950927734375
731881250.0 -0.003662109375 1.54132080078125
763103125.0 1.00439453125 1.15472412109375
794325000.0 1.4669189453125 0.28155517578125
825546875.0 1.36578369140625 -0.6507568359375
856768750.0 0.7939453125 -1.3983154296875
887990625.0 -0.29217529296875 -1.6463623046875
919212500.0 -1.2861328125 -1.0767822265625
950434375.0 -1.646240234375 -0.05902099609375
981656250.0 -1.380859375 0.94439697265625
1012878125.0 -0.529541015625 1.66851806640625
1044100000.0 0.695556640625 1.65924072265625
1075321875.0 1.57269287109375 0.81109619140625
1106543750.0 1.7022705078125 -0.3125
1137765625.0 1.184814453125 -1.28143310546875
1168987500.0 0.13775634765625 -1.7943115234375
1200209375.0 -1.0596923828125 -1.4813232421875
1231431250.0 -1.72430419921875 -0.45343017578125
1262653125.0 -1.591552734375 0.68310546875
1293875000.0 -0.8505859375 1.4892578125
1325096875.0 0.22772216796875 1.70404052734375
1356318750.0 1.23345947265625 1.21484375
1387540625.0 1.7374267578125 0.1888427734375
1418762500.0 1.467041015625 -0.9498291015625
1449984375.0 0.5284423828125 -1.623291015625
1481206250.0 -0.5489501953125 -1.5537109375
1512428125.0 -1.3397216796875 -0.91827392578125
1543650000.0 -1.653076171875 0.06494140625
1574871875.0 -1.271728515625 1.10687255859375
1606093750.0 -0.2728271484375 1.6287841796875
1637315625.0 0.74053955078125 1.39837646484375
1668537500.0 1.3939208984375 0.6949462890625
1699759375.0 1.57122802734375 -0.27679443359375
1730981250.0 1.06280517578125 -1.22760009765625
1762203125.0 0.04217529296875 -1.56817626953125
1793425000.0 -0.8544921875 -1.22467041015625
1824646875.0 -1.39141845703125 -0.51446533203125
1855868750.0 -1.4716796875 0.43133544921875
1887090625.0 -0.87359619140625 1.282958984375
1918312500.0 0.11669921875 1.4842529296875
1949534375.0 0.91998291015625 1.08740234375
1980756250.0 1.37310791015625 0.36968994140625
2011978125.0 1.3575439453125 -0.5303955078125
2043200000.0 0.7489013671875 -1.25927734375
2074421875.0 -0.15643310546875 -1.43096923828125
2105643750.0 -0.95867919921875 -1.07110595703125
2136865625.0 -1.445068359375 -0.304931640625
2168087500.0 -1.35491943359375 0.669677734375
2199309375.0 -0.63818359375 1.34942626953125
2230531250.0 0.28125 1.433837890625
2261753125.0 1.07073974609375 1.0125732421875
2292975000.0 1.51239013671875 0.17022705078125
2324196875.0 1.3037109375 -0.8177490234375
2355418750.0 0.52435302734375 -1.4178466796875
2386640625.0 -0.40362548828125 -1.44671630859375
2417862500.0 -1.17767333984375 -1.02252197265625
2449084375.0 -1.60296630859375 -0.0838623046875
2480306250.0 -1.3095703125 0.92333984375
2511528125.0 -0.49383544921875 1.50396728515625
2542750000.0 0.48712158203125 1.533935546875
2573971875.0 1.367919921875 0.9664306640625
2605193750.0 1.7135009765625 -0.112060546875
2636415625.0 1.2593994140625 -1.149658203125
2667637500.0 0.3077392578125 -1.662353515625
2698859375.0 -0.76763916015625 -1.531494140625
2730081250.0 -1.57037353515625 -0.73931884765625
2761303125.0 -1.6778564453125 0.38653564453125
2792525000.0 -1.09783935546875 1.30328369140625
2823746875.0 -0.103271484375 1.7257080078125
2854968750.0 1.00958251953125 1.45281982421875
2886190625.0 1.68804931640625 0.49078369140625
2917412500.0 1.596435546875 -0.61566162109375
2948634375.0 0.93792724609375 -1.4300537109375
2979856250.0 -0.10748291015625 -1.77252197265625
3011078125.0 -1.24627685546875 -1.3406982421875
3042300000.0 -1.77117919921875 -0.2344970703125
3073521875.0 -1.50592041015625 0.83551025390625
3104743750.0 -0.76263427734375 1.5650634765625
3135965625.0 0.361328125 1.805908203125
3167187500.0 1.4959716796875 1.16192626953125
3198409375.0 1.81256103515625 -0.0753173828125
3229631250.0 1.34649658203125 -1.0797119140625
3260853125.0 0.48858642578125 -1.66522216796875
3292075000.0 -0.65234375 -1.6942138671875
3323296875.0 -1.615478515625 -0.87860107421875
3354518750.0 -1.726318359375 0.32745361328125
3385740625.0 -1.1536865234375 1.2286376953125
3416962500.0 -0.230712890625 1.67816162109375
3448184375.0 0.85791015625 1.5186767578125
3479406250.0 1.631591796875 0.6436767578125
3510628125.0 1.64105224609375 -0.4945068359375
3541850000.0 0.99810791015625 -1.35205078125
3573071875.0 -0.00714111328125 -1.678466796875
3604293750.0 -1.02471923828125 -1.3341064453125
3635515625.0 -1.62481689453125 -0.4375
3666737500.0 -1.55853271484375 0.643798828125
3697959375.0 -0.82342529296875 1.47271728515625
3729181250.0 0.26666259765625 1.626953125
3760403125.0 1.14898681640625 1.095703125
3791625000.0 1.5496826171875 0.21746826171875
3822846875.0 1.3985595703125 -0.75946044921875
3854068750.0 0.61993408203125 -1.47723388671875
3885290625.0 -0.42059326171875 -1.47900390625
3916512500.0 -1.138671875 -0.9095458984375
3947734375.0 -1.4432373046875 -0.12158203125
3978956250.0 -1.295166015625 0.77703857421875
4010178125.0 -0.53009033203125 1.45233154296875
4041400000.0 0.471435546875 1.41265869140625
4072621875.0 1.15057373046875 0.84674072265625
4103843750.0 1.44110107421875 0.063720703125
4135065625.0 1.26544189453125 -0.8431396484375
4166287500.0 0.4573974609375 -1.4927978515625
4197509375.0 -0.5567626953125 -1.41326904296875
4228731250.0 -1.245849609375 -0.8016357421875
4259953125.0 -1.5062255859375 0.0699462890625
4291175000.0 -1.18670654296875 1.00714111328125
4322396875.0 -0.28948974609375 1.5238037109375
4353618750.0 0.67181396484375 1.34783935546875
4384840625.0 1.31976318359375 0.69598388671875
4416062500.0 1.4979248046875 -0.2269287109375
4447284375.0 1.0537109375 -1.10247802734375
4478506250.0 0.17291259765625 -1.49273681640625
4509728125.0 -0.72930908203125 -1.3056640625
4540950000.0 -1.3914794921875 -0.63555908203125
4572171875.0 -1.5191650390625 0.3580322265625
4603393750.0 -0.97119140625 1.21044921875
4634615625.0 -0.0621337890625 1.53424072265625
4665837500.0 0.86865234375 1.30224609375
4697059375.0 1.53790283203125 0.51483154296875
4728281250.0 1.52685546875 -0.5814208984375
4759503125.0 0.822021484375 -1.36346435546875
4790725000.0 -0.14410400390625 -1.5693359375
4821946875.0 -1.0814208984375 -1.19244384765625
4853168750.0 -1.61102294921875 -0.25103759765625
4884390625.0 -1.3756103515625 0.79034423828125
4915612500.0 -0.6123046875 1.41046142578125
4946834375.0 0.32708740234375 1.50592041015625
4978056250.0 1.203369140625 1.01593017578125
5009278125.0 1.55908203125 0.03948974609375
5040500000.0 1.2269287109375 -0.8731689453125
5071721875.0 0.501220703125 -1.4122314453125
5102943750.0 -0.445068359375 -1.4942626953125
5134165625.0 -1.33282470703125 -0.904541015625
5165387500.0 -1.5648193359375 0.1446533203125
5196609375.0 -1.134521484375 1.007568359375
5227831250.0 -0.35748291015625 1.50311279296875
5259053125.0 0.686767578125 1.48992919921875
5290275000.0 1.519287109375 0.66204833984375
5321496875.0 1.48974609375 -0.4296875
5352718750.0 0.91973876953125 -1.15081787109375
5383940625.0 0.09710693359375 -1.4981689453125
5415162500.0 -0.8974609375 -1.28204345703125
5446384375.0 -1.4813232421875 -0.37060546875
5477606250.0 -1.2969970703125 0.56427001953125
5508828125.0 -0.73040771484375 1.14794921875
5540050000.0 0.05322265625 1.396240234375
5571271875.0 0.935791015625 1.107177734375
5602493750.0 1.40625 0.260009765625
5633715625.0 1.23016357421875 -0.6103515625
5664937500.0 0.6470947265625 -1.2005615234375
5696159375.0 -0.19635009765625 -1.3812255859375
5727381250.0 -1.0203857421875 -0.9771728515625
5758603125.0 -1.389404296875 -0.14501953125
5789825000.0 -1.1923828125 0.71588134765625
5821046875.0 -0.5059814453125 1.3043212890625
5852268750.0 0.4107666015625 1.31134033203125
5883490625.0 1.06829833984375 0.77142333984375
5914712500.0 1.3006591796875 0.02001953125
5945934375.0 1.09466552734375 -0.77386474609375
5977156250.0 0.36126708984375 -1.31060791015625
6008378125.0 -0.50799560546875 -1.18109130859375
6039600000.0 -1.01959228515625 -0.64862060546875
6070821875.0 -1.2215576171875 -0.00457763671875
6102043750.0 -1.0821533203125 0.7601318359375
6133265625.0 -0.34161376953125 1.3428955078125
6164487500.0 0.56134033203125 1.18572998046875
6195709375.0 1.06854248046875 0.62896728515625
6226931250.0 1.27862548828125 -0.0426025390625
6258153125.0 1.10296630859375 -0.86956787109375
6289375000.0 0.255859375 -1.44451904296875
6320596875.0 -0.6873779296875 -1.20489501953125
6351818750.0 -1.1981201171875 -0.57171630859375
6383040625.0 -1.35284423828125 0.20672607421875
6414262500.0 -0.99908447265625 1.0543212890625
6445484375.0 -0.0782470703125 1.45501708984375
6476706250.0 0.7930908203125 1.14630126953125
6507928125.0 1.2889404296875 0.470458984375
6539150000.0 1.345947265625 -0.38525390625
6570371875.0 0.84027099609375 -1.14141845703125
6601593750.0 -0.0174560546875 -1.40350341796875
6632815625.0 -0.836669921875 -1.13433837890625
6664037500.0 -1.39996337890625 -0.41986083984375
6695259375.0 -1.3729248046875 0.5653076171875
6726481250.0 -0.71002197265625 1.24835205078125
6757703125.0 0.1297607421875 1.4049072265625
6788925000.0 0.9530029296875 1.1297607421875
6820146875.0 1.55816650390625 0.287841796875
6851368750.0 1.3243408203125 -0.8179931640625
6882590625.0 0.50689697265625 -1.33575439453125
6913812500.0 -0.29193115234375 -1.35479736328125
6945034375.0 -1.06829833984375 -1.0205078125
6976256250.0 -1.5897216796875 -0.09442138671875
7007478125.0 -1.234130859375 0.92974853515625
7038700000.0 -0.4007568359375 1.34088134765625
7069921875.0 0.35723876953125 1.3214111328125
7101143750.0 1.11578369140625 0.968017578125
7132365625.0 1.596923828125 0.01739501953125
7163587500.0 1.15692138671875 -1.0201416015625
7194809375.0 0.30303955078125 -1.392822265625
7226031250.0 -0.51123046875 -1.32440185546875
7257253125.0 -1.26519775390625 -0.82330322265625
7288475000.0 -1.55645751953125 0.19744873046875
7319696875.0 -1.0291748046875 1.10870361328125
7350918750.0 -0.16400146484375 1.4427490234375
7382140625.0 0.7158203125 1.27545166015625
7413362500.0 1.37384033203125 0.5758056640625
7444584375.0 1.410400390625 -0.40631103515625
7475806250.0 0.856689453125 -1.14141845703125
7507028125.0 0.005615234375 -1.42718505859375
7538250000.0 -0.88360595703125 -1.12286376953125
7569471875.0 -1.333984375 -0.3115234375
7600693750.0 -1.2005615234375 0.49591064453125
7631915625.0 -0.71795654296875 1.0828857421875
7663137500.0 0.0789794921875 1.3555908203125
7694359375.0 0.938385009765625 0.979248046875
7725581250.0 1.241455078125 0.1806640625
7756803125.0 1.0816650390625 -0.49859619140625
7788025000.0 0.66949462890625 -1.04254150390625
7819246875.0 -0.11883544921875 -1.34619140625
7850468750.0 -0.9918212890625 -0.915618896484375
7881690625.0 -1.23028564453125 -0.10369873046875
7912912500.0 -1.05242919921875 0.55096435546875
7944134375.0 -0.6046142578125 1.11138916015625
7975356250.0 0.27142333984375 1.3343505859375
8006578125.0 1.043701171875 0.7783203125
8037800000.0 1.1910400390625 0.01763916015625
8069021875.0 1.00537109375 -0.6162109375
8100243750.0 0.49945068359375 -1.15966796875
8131465625.0 -0.38653564453125 -1.25323486328125
8162687500.0 -1.03118896484375 -0.68548583984375
8193909375.0 -1.17864990234375 0.00787353515625
8225131250.0 -1.01690673828125 0.67620849609375
8256353125.0 -0.4217529296875 1.24652099609375
8287575000.0 0.49920654296875 1.22491455078125
8318796875.0 1.08074951171875 0.63604736328125
8350018750.0 1.2442626953125 -0.0758056640625
8381240625.0 1.03082275390625 -0.83856201171875
8412462500.0 0.2557373046875 -1.37103271484375
8443684375.0 -0.6676025390625 -1.16851806640625
8474906250.0 -1.17254638671875 -0.5333251953125
8506128125.0 -1.2967529296875 0.23602294921875
8537350000.0 -0.92291259765625 1.04217529296875
8568571875.0 -0.016845703125 1.392578125
8599793750.0 0.79913330078125 1.0516357421875
8631015625.0 1.241455078125 0.39801025390625
8662237500.0 1.284912109375 -0.42816162109375
8693459375.0 0.7362060546875 -1.17431640625
8724681250.0 -0.16143798828125 -1.32965087890625
8755903125.0 -0.8782958984375 -0.9569091796875
8787125000.0 -1.3013916015625 -0.28240966796875
8818346875.0 -1.25103759765625 0.61444091796875
8849568750.0 -0.5557861328125 1.2587890625
8880790625.0 0.29644775390625 1.282958984375
8912012500.0 0.977996826171875 0.890716552734375
8943234375.0 1.39703369140625 0.1290283203125
8974456250.0 1.16644287109375 -0.83929443359375
9005678125.0 0.3487548828125 -1.31109619140625
9036900000.0 -0.4437255859375 -1.22332763671875
9068121875.0 -1.100830078125 -0.78509521484375
9099343750.0 -1.43878173828125 0.09619140625
9130565625.0 -0.97894287109375 1.00811767578125
9161787500.0 -0.1546630859375 1.28106689453125
9193009375.0 0.55377197265625 1.13250732421875
9224231250.0 1.17767333984375 0.65496826171875
9255453125.0 1.39862060546875 -0.295166015625
9286675000.0 0.806396484375 -1.08294677734375
9317896875.0 0.0269775390625 -1.245849609375
9349118750.0 -0.65234375 -1.06890869140625
9380340625.0 -1.25421142578125 -0.5098876953125
9411562500.0 -1.3101806640625 0.474853515625
9442784375.0 -0.64727783203125 1.11492919921875
9474006250.0 0.088134765625 1.20953369140625
9505228125.0 0.762054443359375 0.979400634765625
9536450000.0 1.27301025390625 0.31268310546875
9567671875.0 1.14300537109375 -0.58001708984375
9598893750.0 0.53009033203125 -1.0682373046875
9630115625.0 -0.1431884765625 -1.15643310546875
9661337500.0 -0.81756591796875 -0.90191650390625
9692559375.0 -1.2376708984375 -0.19140625
9723781250.0 -1.04205322265625 0.60089111328125
9755003125.0 -0.486083984375 1.04974365234375
9786225000.0 0.19744873046875 1.1583251953125
9817446875.0 0.89410400390625 0.82666015625
9848668750.0 1.1961669921875 0.07843017578125
9879890625.0 0.968017578125 -0.614593505859375
9911112500.0 0.4522705078125 -1.05029296875
9942334375.0 -0.26751708984375 -1.15789794921875
9973556250.0 -0.94195556640625 -0.737335205078125
10004778125.0 -1.14544677734375 -0.01910400390625
10036000000.0 -0.943572998046875 0.6153564453125
10067221875.0 -0.4422607421875 1.09381103515625
10098443750.0 0.367919921875 1.17950439453125
10129665625.0 1.0008544921875 0.64361572265625
10160887500.0 1.1192626953125 -0.0513916015625
10192109375.0 0.916595458984375 -0.66180419921875
10223331250.0 0.36248779296875 -1.14910888671875
10254553125.0 -0.4844970703125 -1.11431884765625
10285775000.0 -0.9842529296875 -0.5361328125
10316996875.0 -1.066162109375 0.0760498046875
10348218750.0 -0.899505615234375 0.667816162109375
10379440625.0 -0.3232421875 1.1734619140625
10410662500.0 0.52630615234375 1.08502197265625
10441884375.0 0.990203857421875 0.52166748046875
10473106250.0 1.10797119140625 -0.08331298828125
10504328125.0 0.9486083984375 -0.755340576171875
10535550000.0 0.24127197265625 -1.293212890625
10566771875.0 -0.65484619140625 -1.07635498046875
10597993750.0 -1.079833984375 -0.458984375
10629215625.0 -1.173583984375 0.2044677734375
10660437500.0 -0.886383056640625 0.949737548828125
10691659375.0 -0.00946044921875 1.33392333984375
10722881250.0 0.783966064453125 0.951904296875
10754103125.0 1.1168212890625 0.32415771484375
10785325000.0 1.13671875 -0.36419677734375
10816546875.0 0.69989013671875 -1.04779052734375
10847768750.0 -0.144775390625 -1.2283935546875
10878990625.0 -0.80126953125 -0.843353271484375
10910212500.0 -1.1219482421875 -0.24700927734375
10941434375.0 -1.09588623046875 0.47430419921875
10972656250.0 -0.5679931640625 1.0828857421875
11003878125.0 0.2171630859375 1.17376708984375
11035100000.0 0.84619140625 0.821624755859375
11066321875.0 1.22076416015625 0.17364501953125
11097543750.0 1.09771728515625 -0.6741943359375
11128765625.0 0.38580322265625 -1.19873046875
11159987500.0 -0.3941650390625 -1.13787841796875
11191209375.0 -0.99658203125 -0.7022705078125
11222431250.0 -1.2706298828125 0.0924072265625
11253653125.0 -0.8585205078125 0.89312744140625
11284875000.0 -0.11419677734375 1.12591552734375
11316096875.0 0.510223388671875 0.9552001953125
11347318750.0 1.001953125 0.5018310546875
11378540625.0 1.115966796875 -0.26806640625
11409762500.0 0.63507080078125 -0.8580322265625
11440984375.0 0.035614013671875 -0.977203369140625
11472206250.0 -0.4796142578125 -0.849517822265625
11503428125.0 -0.953521728515625 -0.45599365234375
11534650000.0 -1.06744384765625 0.2862548828125
11565871875.0 -0.601898193359375 0.8533935546875
11597093750.0 -0.018707275390625 0.98974609375
11628315625.0 0.54327392578125 0.87457275390625
11659537500.0 1.059814453125 0.3917236328125
11690759375.0 1.0634765625 -0.432373046875
11721981250.0 0.516815185546875 -0.941070556640625
11753203125.0 -0.10540771484375 -1.035400390625
11784425000.0 -0.7235107421875 -0.808624267578125
11815646875.0 -1.0989990234375 -0.1522216796875
11846868750.0 -0.890899658203125 0.550567626953125
11878090625.0 -0.390899658203125 0.90972900390625
11909312500.0 0.186065673828125 0.983856201171875
11940534375.0 0.778594970703125 0.69451904296875
11971756250.0 1.02362060546875 0.040771484375
12002978125.0 0.805938720703125 -0.5364990234375
12034200000.0 0.38226318359375 -0.887603759765625
12065421875.0 -0.214111328125 -1.00933837890625
12096643750.0 -0.847930908203125 -0.66485595703125
12127865625.0 -1.03302001953125 0.0155029296875
12159087500.0 -0.814910888671875 0.574462890625
12190309375.0 -0.377655029296875 0.974456787109375
12221531250.0 0.3388671875 1.08758544921875
12252753125.0 0.979827880859375 0.580810546875
12283975000.0 1.05462646484375 -0.128662109375
12315196875.0 0.79962158203125 -0.67535400390625
12346418750.0 0.28070068359375 -1.09124755859375
12377640625.0 -0.53692626953125 -1.05987548828125
12408862500.0 -1.032958984375 -0.4195556640625
12440084375.0 -1.00762939453125 0.223388671875
12471306250.0 -0.74090576171875 0.735626220703125
12502528125.0 -0.1796875 1.11962890625
12533750000.0 0.61981201171875 0.993133544921875
12564971875.0 1.03948974609375 0.36370849609375
12596193750.0 1.0291748046875 -0.2642822265625
12627415625.0 0.748291015625 -0.82684326171875
12658637500.0 0.08148193359375 -1.20574951171875
12689859375.0 -0.73297119140625 -0.965087890625
12721081250.0 -1.1171875 -0.30548095703125
12752303125.0 -1.0963134765625 0.38043212890625
12783525000.0 -0.6868896484375 1.02752685546875
12814746875.0 0.164306640625 1.24993896484375
12845968750.0 0.8607177734375 0.81005859375
12877190625.0 1.116455078125 0.17181396484375
12908412500.0 1.05499267578125 -0.5013427734375
12939634375.0 0.54302978515625 -1.11602783203125
12970856250.0 -0.3209228515625 -1.17498779296875
13002078125.0 -0.894805908203125 -0.692474365234375
13033300000.0 -1.10394287109375 -0.087646484375
13064521875.0 -1.00830078125 0.59033203125
13095743750.0 -0.42138671875 1.15234375
13126965625.0 0.408447265625 1.12030029296875
13158187500.0 0.946075439453125 0.631927490234375
13189409375.0 1.14581298828125 -0.0201416015625
13220631250.0 0.935333251953125 -0.7469482421875
13251853125.0 0.234619140625 -1.171875
13283075000.0 -0.505859375 -1.01837158203125
13314296875.0 -0.9864501953125 -0.529052734375
13345518750.0 -1.1341552734375 0.1756591796875
13376740625.0 -0.752593994140625 0.857177734375
