!Created with skrf (http://scikit-rf.org).
# Hz S RI R 50.0 
!freq ReS11 ImS11
45000000.0 -0.0770111083984375 -0.09669113159179688
76221875.0 -0.196197509765625 -0.0474853515625
107443750.0 -0.2547149658203125 0.11962890625
138665625.0 -0.1479949951171875 0.3282318115234375
169887500.0 0.12359619140625 0.4170989990234375
201109375.0 0.4215087890625 0.2806243896484375
232331250.0 0.578399658203125 -0.0576171875
263553125.0 0.489044189453125 -0.452392578125
294775000.0 0.098419189453125 -0.73193359375
325996875.0 -0.41497802734375 -0.679901123046875
357218750.0 -0.805419921875 -0.296630859375
388440625.0 -0.884521484375 0.300201416015625
419662500.0 -0.516815185546875 0.865264892578125
450884375.0 0.17315673828125 1.02752685546875
482106250.0 0.797698974609375 0.711822509765625
513328125.0 1.11822509765625 0.08697509765625
544550000.0 1.0025634765625 -0.67926025390625
575771875.0 0.3359375 -1.237060546875
606993750.0 -0.5533447265625 -1.1759033203125
638215625.0 -1.16448974609375 -0.5897216796875
669437500.0 -1.3385009765625 0.23358154296875
700659375.0 -0.96978759765625 1.095458984375
731881250.0 -0.00323486328125 1.5413818359375
763103125.0 1.00482177734375 1.154296875
794325000.0 1.46722412109375 0.2811279296875
825546875.0 1.365966796875 -0.6507568359375
856768750.0 0.79345703125 -1.398681640625
887990625.0 -0.29248046875 -1.646240234375
919212500.0 -1.28656005859375 -1.07672119140625
950434375.0 -1.646484375 -0.05908203125
981656250.0 -1.38079833984375 0.94464111328125
1012878125.0 -0.52880859375 1.66912841796875
1044100000.0 0.69573974609375 1.65924072265625
1075321875.0 1.57177734375 0.810791015625
1106543750.0 1.70257568359375 -0.31292724609375
1137765625.0 1.18511962890625 -1.28253173828125
1168987500.0 0.13818359375 -1.7943115234375
1200209375.0 -1.05999755859375 -1.48138427734375
1231431250.0 -1.724609375 -0.45269775390625
1262653125.0 -1.591796875 0.68359375
1293875000.0 -0.8502197265625 1.48974609375
1325096875.0 0.2281494140625 1.70416259765625
1356318750.0 1.233642578125 1.21484375
1387540625.0 1.737060546875 0.188232421875
1418762500.0 1.4669189453125 -0.95025634765625
1449984375.0 0.5284423828125 -1.62322998046875
1481206250.0 -0.549072265625 -1.5535888671875
1512428125.0 -1.3397216796875 -0.9180908203125
1543650000.0 -1.65325927734375 0.0653076171875
1574871875.0 -1.271728515625 1.1070556640625
1606093750.0 -0.2728271484375 1.6287841796875
1637315625.0 0.7412109375 1.39813232421875
1668537500.0 1.393798828125 0.69500732421875
1699759375.0 1.57061767578125 -0.27691650390625
1730981250.0 1.0625 -1.22760009765625
1762203125.0 0.04217529296875 -1.568115234375
1793425000.0 -0.8543701171875 -1.2247314453125
1824646875.0 -1.3912353515625 -0.51446533203125
1855868750.0 -1.4716796875 0.43133544921875
1887090625.0 -0.87359619140625 1.2833251953125
1918312500.0 0.11688232421875 1.48468017578125
1949534375.0 0.91986083984375 1.0872802734375
1980756250.0 1.37261962890625 0.36981201171875
2011978125.0 1.357421875 -0.53076171875
2043200000.0 0.74884033203125 -1.25933837890625
2074421875.0 -0.15692138671875 -1.430908203125
2105643750.0 -0.95843505859375 -1.0706787109375
2136865625.0 -1.44476318359375 -0.30450439453125
2168087500.0 -1.3551025390625 0.669921875
2199309375.0 -0.63787841796875 1.34912109375
2230531250.0 0.28106689453125 1.43402099609375
2261753125.0 1.07049560546875 1.01239013671875
2292975000.0 1.51202392578125 0.17041015625
2324196875.0 1.3033447265625 -0.8177490234375
2355418750.0 0.5245361328125 -1.41754150390625
2386640625.0 -0.4039306640625 -1.44677734375
2417862500.0 -1.17852783203125 -1.0223388671875
2449084375.0 -1.60205078125 -0.084228515625
2480306250.0 -1.309326171875 0.9227294921875
2511528125.0 -0.4932861328125 1.50531005859375
2542750000.0 0.48797607421875 1.533203125
2573971875.0 1.3681640625 0.96600341796875
2605193750.0 1.71307373046875 -0.11163330078125
2636415625.0 1.25872802734375 -1.150146484375
2667637500.0 0.3060302734375 -1.6641845703125
2698859375.0 -0.767822265625 -1.5311279296875
2730081250.0 -1.570556640625 -0.7391357421875
2761303125.0 -1.6781005859375 0.38665771484375
2792525000.0 -1.09765625 1.3052978515625
2823746875.0 -0.1026611328125 1.72540283203125
2854968750.0 1.0101318359375 1.45208740234375
2886190625.0 1.687255859375 0.49114990234375
2917412500.0 1.59625244140625 -0.61651611328125
2948634375.0 0.93792724609375 -1.42962646484375
2979856250.0 -0.107177734375 -1.772705078125
3011078125.0 -1.24505615234375 -1.33978271484375
3042300000.0 -1.77154541015625 -0.234375
3073521875.0 -1.50592041015625 0.83660888671875
3104743750.0 -0.76226806640625 1.56561279296875
3135965625.0 0.3614501953125 1.80523681640625
3167187500.0 1.4954833984375 1.16180419921875
3198409375.0 1.81195068359375 -0.07513427734375
3229631250.0 1.34625244140625 -1.07867431640625
3260853125.0 0.48895263671875 -1.664306640625
3292075000.0 -0.65301513671875 -1.69464111328125
3323296875.0 -1.6143798828125 -0.87872314453125
3354518750.0 -1.72662353515625 0.327392578125
3385740625.0 -1.15411376953125 1.22833251953125
3416962500.0 -0.231201171875 1.677978515625
3448184375.0 0.85791015625 1.5184326171875
3479406250.0 1.631103515625 0.64373779296875
3510628125.0 1.640869140625 -0.49267578125
3541850000.0 0.99822998046875 -1.35247802734375
3573071875.0 -0.00860595703125 -1.68035888671875
3604293750.0 -1.0264892578125 -1.33502197265625
3635515625.0 -1.6239013671875 -0.43804931640625
3666737500.0 -1.55853271484375 0.64453125
3697959375.0 -0.82342529296875 1.47308349609375
3729181250.0 0.26739501953125 1.6270751953125
3760403125.0 1.1494140625 1.09619140625
3791625000.0 1.5494384765625 0.21795654296875
3822846875.0 1.39910888671875 -0.758544921875
3854068750.0 0.619384765625 -1.47723388671875
3885290625.0 -0.4202880859375 -1.47796630859375
3916512500.0 -1.139404296875 -0.909423828125
3947734375.0 -1.44500732421875 -0.11962890625
3978956250.0 -1.29461669921875 0.77801513671875
4010178125.0 -0.53082275390625 1.45098876953125
4041400000.0 0.47161865234375 1.412841796875
4072621875.0 1.14886474609375 0.84649658203125
4103843750.0 1.44171142578125 0.06353759765625
4135065625.0 1.2655029296875 -0.8438720703125
4166287500.0 0.4576416015625 -1.4923095703125
4197509375.0 -0.55517578125 -1.412353515625
4228731250.0 -1.24517822265625 -0.801513671875
4259953125.0 -1.5047607421875 0.06842041015625
4291175000.0 -1.186279296875 1.0074462890625
4322396875.0 -0.28912353515625 1.5238037109375
4353618750.0 0.67132568359375 1.34735107421875
4384840625.0 1.31939697265625 0.6962890625
4416062500.0 1.4981689453125 -0.22705078125
4447284375.0 1.0537109375 -1.1016845703125
4478506250.0 0.1727294921875 -1.4923095703125
4509728125.0 -0.730224609375 -1.3048095703125
4540950000.0 -1.3907470703125 -0.6351318359375
4572171875.0 -1.51934814453125 0.3580322265625
4603393750.0 -0.97119140625 1.21014404296875
4634615625.0 -0.0611572265625 1.535400390625
4665837500.0 0.86846923828125 1.3023681640625
4697059375.0 1.53839111328125 0.5146484375
4728281250.0 1.52630615234375 -0.581298828125
4759503125.0 0.82177734375 -1.36407470703125
4790725000.0 -0.14447021484375 -1.57000732421875
4821946875.0 -1.0816650390625 -1.19232177734375
4853168750.0 -1.60955810546875 -0.25201416015625
4884390625.0 -1.37579345703125 0.79034423828125
4915612500.0 -0.61297607421875 1.409912109375
4946834375.0 0.32781982421875 1.5068359375
4978056250.0 1.2022705078125 1.01617431640625
5009278125.0 1.55828857421875 0.04046630859375
5040500000.0 1.2269287109375 -0.87347412109375
5071721875.0 0.50103759765625 -1.411376953125
5102943750.0 -0.44512939453125 -1.49383544921875
5134165625.0 -1.33447265625 -0.90411376953125
5165387500.0 -1.56536865234375 0.14556884765625
5196609375.0 -1.1346435546875 1.00701904296875
5227831250.0 -0.3572998046875 1.50390625
5259053125.0 0.68634033203125 1.48974609375
5290275000.0 1.51837158203125 0.66217041015625
5321496875.0 1.49005126953125 -0.42926025390625
5352718750.0 0.9197998046875 -1.15167236328125
5383940625.0 0.0968017578125 -1.49749755859375
5415162500.0 -0.8984375 -1.2821044921875
5446384375.0 -1.481689453125 -0.37060546875
5477606250.0 -1.297607421875 0.5655517578125
5508828125.0 -0.73052978515625 1.14862060546875
5540050000.0 0.0538330078125 1.39593505859375
5571271875.0 0.9371337890625 1.10748291015625
5602493750.0 1.40606689453125 0.259765625
5633715625.0 1.2305908203125 -0.611572265625
5664937500.0 0.64813232421875 -1.1983642578125
5696159375.0 -0.196533203125 -1.381591796875
5727381250.0 -1.01995849609375 -0.97747802734375
5758603125.0 -1.38848876953125 -0.14593505859375
5789825000.0 -1.19232177734375 0.716552734375
5821046875.0 -0.506103515625 1.30419921875
5852268750.0 0.4110107421875 1.31134033203125
5883490625.0 1.06927490234375 0.77117919921875
5914712500.0 1.30072021484375 0.0198974609375
5945934375.0 1.0946044921875 -0.7734375
5977156250.0 0.361083984375 -1.31048583984375
6008378125.0 -0.5076904296875 -1.18048095703125
6039600000.0 -1.020263671875 -0.64849853515625
6070821875.0 -1.22186279296875 -0.00543212890625
6102043750.0 -1.08135986328125 0.7598876953125
6133265625.0 -0.342529296875 1.3419189453125
6164487500.0 0.56158447265625 1.185791015625
6195709375.0 1.0694580078125 0.62945556640625
6226931250.0 1.27734375 -0.04205322265625
6258153125.0 1.10308837890625 -0.868408203125
6289375000.0 0.25640869140625 -1.4439697265625
6320596875.0 -0.68707275390625 -1.2044677734375
6351818750.0 -1.199951171875 -0.5712890625
6383040625.0 -1.353271484375 0.20611572265625
6414262500.0 -0.99859619140625 1.0543212890625
6445484375.0 -0.079345703125 1.45501708984375
6476706250.0 0.7945556640625 1.1468505859375
6507928125.0 1.28936767578125 0.46954345703125
6539150000.0 1.34600830078125 -0.3857421875
6570371875.0 0.84033203125 -1.1422119140625
6601593750.0 -0.01678466796875 -1.40277099609375
6632815625.0 -0.837890625 -1.135498046875
6664037500.0 -1.39947509765625 -0.419921875
6695259375.0 -1.37286376953125 0.56549072265625
6726481250.0 -0.70941162109375 1.250244140625
6757703125.0 0.130126953125 1.40484619140625
6788925000.0 0.95233154296875 1.12945556640625
6820146875.0 1.55755615234375 0.2877197265625
6851368750.0 1.32464599609375 -0.81842041015625
6882590625.0 0.50604248046875 -1.33673095703125
6913812500.0 -0.29156494140625 -1.3546142578125
6945034375.0 -1.066650390625 -1.02069091796875
6976256250.0 -1.59124755859375 -0.0928955078125
7007478125.0 -1.23419189453125 0.93231201171875
7038700000.0 -0.40179443359375 1.34039306640625
7069921875.0 0.35614013671875 1.3212890625
7101143750.0 1.11553955078125 0.96734619140625
7132365625.0 1.59783935546875 0.0159912109375
7163587500.0 1.15704345703125 -1.019775390625
7194809375.0 0.30242919921875 -1.39654541015625
7226031250.0 -0.5096435546875 -1.3243408203125
7257253125.0 -1.263671875 -0.82452392578125
7288475000.0 -1.55670166015625 0.1988525390625
7319696875.0 -1.02996826171875 1.1072998046875
7350918750.0 -0.1627197265625 1.44268798828125
7382140625.0 0.712646484375 1.2742919921875
7413362500.0 1.3726806640625 0.5771484375
7444584375.0 1.4105224609375 -0.4053955078125
7475806250.0 0.857177734375 -1.13995361328125
7507028125.0 0.006103515625 -1.4271240234375
7538250000.0 -0.88543701171875 -1.12335205078125
7569471875.0 -1.335205078125 -0.310791015625
7600693750.0 -1.20062255859375 0.494140625
7631915625.0 -0.71832275390625 1.08380126953125
7663137500.0 0.07879638671875 1.35699462890625
7694359375.0 0.93768310546875 0.9793701171875
7725581250.0 1.24188232421875 0.18017578125
7756803125.0 1.08087158203125 -0.4971923828125
7788025000.0 0.66998291015625 -1.04351806640625
7819246875.0 -0.1171875 -1.3450927734375
7850468750.0 -0.98980712890625 -0.91546630859375
7881690625.0 -1.22869873046875 -0.10595703125
7912912500.0 -1.05322265625 0.55157470703125
7944134375.0 -0.60479736328125 1.1090087890625
7975356250.0 0.2706298828125 1.33380126953125
8006578125.0 1.04461669921875 0.77886962890625
8037800000.0 1.19207763671875 0.01641845703125
8069021875.0 1.00604248046875 -0.61614990234375
8100243750.0 0.5001220703125 -1.1588134765625
8131465625.0 -0.3848876953125 -1.25201416015625
8162687500.0 -1.0308837890625 -0.68670654296875
8193909375.0 -1.18023681640625 0.010009765625
8225131250.0 -1.0169677734375 0.677001953125
8256353125.0 -0.421875 1.2459716796875
8287575000.0 0.498779296875 1.2252197265625
8318796875.0 1.0804443359375 0.6358642578125
8350018750.0 1.244140625 -0.074951171875
8381240625.0 1.0302734375 -0.8372802734375
8412462500.0 0.25439453125 -1.37115478515625
8443684375.0 -0.6671142578125 -1.16912841796875
8474906250.0 -1.17529296875 -0.5316162109375
8506128125.0 -1.29656982421875 0.23651123046875
8537350000.0 -0.923583984375 1.0435791015625
8568571875.0 -0.01690673828125 1.39239501953125
8599793750.0 0.80047607421875 1.052490234375
8631015625.0 1.23883056640625 0.39959716796875
8662237500.0 1.2845458984375 -0.42816162109375
8693459375.0 0.73602294921875 -1.17779541015625
8724681250.0 -0.1617431640625 -1.32952880859375
8755903125.0 -0.87945556640625 -0.956817626953125
8787125000.0 -1.3026123046875 -0.281494140625
8818346875.0 -1.24981689453125 0.614501953125
8849568750.0 -0.55621337890625 1.25933837890625
8880790625.0 0.29669189453125 1.283203125
8912012500.0 0.978363037109375 0.8922119140625
8943234375.0 1.396484375 0.12933349609375
8974456250.0 1.16619873046875 -0.8359375
9005678125.0 0.3485107421875 -1.31146240234375
9036900000.0 -0.4447021484375 -1.22320556640625
9068121875.0 -1.09967041015625 -0.784912109375
9099343750.0 -1.439697265625 0.09820556640625
9130565625.0 -0.97894287109375 1.00897216796875
9161787500.0 -0.1546630859375 1.2816162109375
9193009375.0 0.55230712890625 1.13189697265625
9224231250.0 1.17645263671875 0.6558837890625
9255453125.0 1.396728515625 -0.2930908203125
9286675000.0 0.80633544921875 -1.086181640625
9317896875.0 0.0262451171875 -1.24615478515625
9349118750.0 -0.65264892578125 -1.06915283203125
9380340625.0 -1.25494384765625 -0.51055908203125
9411562500.0 -1.31024169921875 0.47393798828125
9442784375.0 -0.6485595703125 1.11370849609375
9474006250.0 0.088623046875 1.21044921875
9505228125.0 0.7633056640625 0.9793701171875
9536450000.0 1.27239990234375 0.31341552734375
9567671875.0 1.14324951171875 -0.57958984375
9598893750.0 0.529541015625 -1.0684814453125
9630115625.0 -0.1429443359375 -1.15692138671875
9661337500.0 -0.81707763671875 -0.9014892578125
9692559375.0 -1.23541259765625 -0.1925048828125
9723781250.0 -1.04351806640625 0.60076904296875
9755003125.0 -0.48651123046875 1.0484619140625
9786225000.0 0.19793701171875 1.1591796875
9817446875.0 0.893157958984375 0.82794189453125
9848668750.0 1.19598388671875 0.07879638671875
9879890625.0 0.967315673828125 -0.613983154296875
9911112500.0 0.45245361328125 -1.05072021484375
9942334375.0 -0.26617431640625 -1.157958984375
9973556250.0 -0.94171142578125 -0.738128662109375
10004778125.0 -1.14501953125 -0.01873779296875
10036000000.0 -0.94287109375 0.614654541015625
10067221875.0 -0.4422607421875 1.0958251953125
10098443750.0 0.3682861328125 1.1795654296875
10129665625.0 1.00091552734375 0.6427001953125
10160887500.0 1.11846923828125 -0.05072021484375
10192109375.0 0.91656494140625 -0.660003662109375
10223331250.0 0.3619384765625 -1.15008544921875
10254553125.0 -0.4842529296875 -1.11285400390625
10285775000.0 -0.985107421875 -0.535064697265625
10316996875.0 -1.0660400390625 0.07501220703125
10348218750.0 -0.898712158203125 0.6673583984375
10379440625.0 -0.322021484375 1.1749267578125
10410662500.0 0.52703857421875 1.08587646484375
10441884375.0 0.990264892578125 0.52142333984375
10473106250.0 1.10675048828125 -0.08258056640625
10504328125.0 0.948089599609375 -0.755859375
10535550000.0 0.24053955078125 -1.2940673828125
10566771875.0 -0.6553955078125 -1.07684326171875
10597993750.0 -1.07916259765625 -0.458984375
10629215625.0 -1.1734619140625 0.20379638671875
10660437500.0 -0.88726806640625 0.9505615234375
10691659375.0 -0.010498046875 1.33355712890625
10722881250.0 0.784088134765625 0.952484130859375
10754103125.0 1.1170654296875 0.3248291015625
10785325000.0 1.13848876953125 -0.3646240234375
10816546875.0 0.701904296875 -1.0477294921875
10847768750.0 -0.14593505859375 -1.2288818359375
10878990625.0 -0.8018798828125 -0.843475341796875
10910212500.0 -1.1224365234375 -0.24468994140625
10941434375.0 -1.0966796875 0.475830078125
10972656250.0 -0.568115234375 1.08380126953125
11003878125.0 0.21502685546875 1.1717529296875
11035100000.0 0.847137451171875 0.8212890625
11066321875.0 1.21881103515625 0.175537109375
11097543750.0 1.09765625 -0.6741943359375
11128765625.0 0.386962890625 -1.1968994140625
11159987500.0 -0.3966064453125 -1.13885498046875
11191209375.0 -0.9979248046875 -0.70257568359375
11222431250.0 -1.27099609375 0.093017578125
11253653125.0 -0.8587646484375 0.89459228515625
11284875000.0 -0.1148681640625 1.1260986328125
11316096875.0 0.510101318359375 0.95526123046875
11347318750.0 1.00128173828125 0.5015869140625
11378540625.0 1.11590576171875 -0.26812744140625
11409762500.0 0.63482666015625 -0.85894775390625
11440984375.0 0.036346435546875 -0.978240966796875
11472206250.0 -0.48065185546875 -0.849945068359375
11503428125.0 -0.950653076171875 -0.456787109375
11534650000.0 -1.06768798828125 0.28704833984375
11565871875.0 -0.602386474609375 0.853790283203125
11597093750.0 -0.01959228515625 0.990478515625
11628315625.0 0.543670654296875 0.8753662109375
11659537500.0 1.058837890625 0.3927001953125
11690759375.0 1.06427001953125 -0.43292236328125
11721981250.0 0.517425537109375 -0.939697265625
11753203125.0 -0.10540771484375 -1.0355224609375
11784425000.0 -0.724151611328125 -0.807891845703125
11815646875.0 -1.09893798828125 -0.152099609375
11846868750.0 -0.890472412109375 0.549591064453125
11878090625.0 -0.39068603515625 0.90850830078125
11909312500.0 0.18634033203125 0.983062744140625
11940534375.0 0.77880859375 0.69476318359375
11971756250.0 1.02197265625 0.0411376953125
12002978125.0 0.8052978515625 -0.536041259765625
12034200000.0 0.38226318359375 -0.8873291015625
12065421875.0 -0.2147216796875 -1.00970458984375
12096643750.0 -0.845458984375 -0.664764404296875
12127865625.0 -1.03363037109375 0.0157470703125
12159087500.0 -0.81500244140625 0.57476806640625
12190309375.0 -0.377685546875 0.975067138671875
12221531250.0 0.3382568359375 1.08685302734375
12252753125.0 0.9805908203125 0.581298828125
12283975000.0 1.05450439453125 -0.126953125
12315196875.0 0.7999267578125 -0.673736572265625
12346418750.0 0.281494140625 -1.09063720703125
12377640625.0 -0.536376953125 -1.06024169921875
12408862500.0 -1.0311279296875 -0.42108154296875
12440084375.0 -1.007080078125 0.22308349609375
12471306250.0 -0.741424560546875 0.737274169921875
12502528125.0 -0.18060302734375 1.117431640625
12533750000.0 0.618438720703125 0.99224853515625
12564971875.0 1.0391845703125 0.3651123046875
12596193750.0 1.02972412109375 -0.26483154296875
12627415625.0 0.7476806640625 -0.827667236328125
12658637500.0 0.08099365234375 -1.205078125
12689859375.0 -0.734283447265625 -0.96551513671875
12721081250.0 -1.11749267578125 -0.3062744140625
12752303125.0 -1.0970458984375 0.3817138671875
12783525000.0 -0.68743896484375 1.02685546875
12814746875.0 0.1654052734375 1.25079345703125
12845968750.0 0.860137939453125 0.810577392578125
12877190625.0 1.11614990234375 0.1719970703125
12908412500.0 1.0550537109375 -0.49981689453125
12939634375.0 0.54266357421875 -1.1171875
12970856250.0 -0.31878662109375 -1.173583984375
13002078125.0 -0.892303466796875 -0.69305419921875
13033300000.0 -1.104736328125 -0.08673095703125
13064521875.0 -1.00848388671875 0.5924072265625
13095743750.0 -0.42047119140625 1.152587890625
13126965625.0 0.40814208984375 1.11956787109375
13158187500.0 0.944732666015625 0.632415771484375
13189409375.0 1.1473388671875 -0.02105712890625
13220631250.0 0.936279296875 -0.7471923828125
13251853125.0 0.233154296875 -1.172607421875
13283075000.0 -0.50555419921875 -1.01995849609375
13314296875.0 -0.986785888671875 -0.528564453125
13345518750.0 -1.13427734375 0.176025390625
13376740625.0 -0.753143310546875 0.855987548828125
13407962500.0 -0.06011962890625 1.0657958984375
