!Created with skrf (http://scikit-rf.org).
# Hz S RI R 50.0 
!freq ReS11 ImS11
45000000.0 -0.07684326171875 -0.09696197509765625
76221875.0 -0.196136474609375 -0.0476226806640625
107443750.0 -0.2548980712890625 0.1193695068359375
138665625.0 -0.14849853515625 0.3284912109375
169887500.0 0.1231689453125 0.4174652099609375
201109375.0 0.4214019775390625 0.2810516357421875
232331250.0 0.57855224609375 -0.057281494140625
263553125.0 0.4896240234375 -0.4520416259765625
294775000.0 0.099090576171875 -0.73193359375
325996875.0 -0.4144287109375 -0.68035888671875
357218750.0 -0.805419921875 -0.2974853515625
388440625.0 -0.88519287109375 0.29974365234375
419662500.0 -0.51751708984375 0.865234375
450884375.0 0.17218017578125 1.0284423828125
482106250.0 0.79736328125 0.712646484375
513328125.0 1.11846923828125 0.087890625
544550000.0 1.00347900390625 -0.678466796875
575771875.0 0.33721923828125 -1.23687744140625
606993750.0 -0.552734375 -1.17681884765625
638215625.0 -1.16448974609375 -0.5906982421875
669437500.0 -1.33868408203125 0.23248291015625
700659375.0 -0.9710693359375 1.09478759765625
731881250.0 -0.00457763671875 1.54168701171875
763103125.0 1.004150390625 1.15557861328125
794325000.0 1.46734619140625 0.28253173828125
825546875.0 1.3663330078125 -0.6500244140625
856768750.0 0.79486083984375 -1.39886474609375
887990625.0 -0.2913818359375 -1.6470947265625
919212500.0 -1.28564453125 -1.07830810546875
950434375.0 -1.646240234375 -0.06036376953125
981656250.0 -1.3814697265625 0.943359375
1012878125.0 -0.53070068359375 1.66943359375
1044100000.0 0.69488525390625 1.6605224609375
1075321875.0 1.5718994140625 0.8123779296875
1106543750.0 1.70318603515625 -0.3115234375
1137765625.0 1.1865234375 -1.28167724609375
1168987500.0 0.13946533203125 -1.79473876953125
1200209375.0 -1.058837890625 -1.4820556640625
1231431250.0 -1.72442626953125 -0.454345703125
1262653125.0 -1.59326171875 0.68231201171875
1293875000.0 -0.85223388671875 1.489013671875
1325096875.0 0.2265625 1.70501708984375
1356318750.0 1.23291015625 1.21612548828125
1387540625.0 1.7376708984375 0.1898193359375
1418762500.0 1.4681396484375 -0.94903564453125
1449984375.0 0.5299072265625 -1.6229248046875
1481206250.0 -0.54791259765625 -1.554443359375
1512428125.0 -1.33941650390625 -0.9195556640625
1543650000.0 -1.6534423828125 0.0640869140625
1574871875.0 -1.27288818359375 1.1065673828125
1606093750.0 -0.27349853515625 1.62921142578125
1637315625.0 0.740234375 1.3994140625
1668537500.0 1.39404296875 0.69622802734375
1699759375.0 1.57122802734375 -0.275390625
1730981250.0 1.0638427734375 -1.22705078125
1762203125.0 0.04327392578125 -1.56878662109375
1793425000.0 -0.85394287109375 -1.22540283203125
1824646875.0 -1.391357421875 -0.515380859375
1855868750.0 -1.47247314453125 0.43084716796875
1887090625.0 -0.874755859375 1.283203125
1918312500.0 0.11614990234375 1.48480224609375
1949534375.0 0.919677734375 1.08807373046875
1980756250.0 1.37335205078125 0.3701171875
2011978125.0 1.35833740234375 -0.53033447265625
2043200000.0 0.7501220703125 -1.2596435546875
2074421875.0 -0.15557861328125 -1.4317626953125
2105643750.0 -0.95849609375 -1.072265625
2136865625.0 -1.44525146484375 -0.30584716796875
2168087500.0 -1.355712890625 0.6690673828125
2199309375.0 -0.63916015625 1.34918212890625
2230531250.0 0.2803955078125 1.434326171875
2261753125.0 1.0709228515625 1.01348876953125
2292975000.0 1.5128173828125 0.170654296875
2324196875.0 1.30450439453125 -0.81719970703125
2355418750.0 0.525634765625 -1.41790771484375
2386640625.0 -0.40289306640625 -1.44708251953125
2417862500.0 -1.17767333984375 -1.02325439453125
2449084375.0 -1.60247802734375 -0.08551025390625
2480306250.0 -1.310302734375 0.9229736328125
2511528125.0 -0.4942626953125 1.50531005859375
2542750000.0 0.48736572265625 1.5345458984375
2573971875.0 1.36907958984375 0.9677734375
2605193750.0 1.71429443359375 -0.11077880859375
2636415625.0 1.2606201171875 -1.150390625
2667637500.0 0.3079833984375 -1.66436767578125
2698859375.0 -0.76715087890625 -1.53253173828125
2730081250.0 -1.56927490234375 -0.74090576171875
2761303125.0 -1.678466796875 0.38592529296875
2792525000.0 -1.098876953125 1.30450439453125
2823746875.0 -0.10418701171875 1.72515869140625
2854968750.0 1.0107421875 1.45404052734375
2886190625.0 1.68841552734375 0.49212646484375
2917412500.0 1.5965576171875 -0.6148681640625
2948634375.0 0.93853759765625 -1.43017578125
2979856250.0 -0.10650634765625 -1.7723388671875
3011078125.0 -1.24517822265625 -1.3414306640625
3042300000.0 -1.7725830078125 -0.23504638671875
3073521875.0 -1.5067138671875 0.834716796875
3104743750.0 -0.7630615234375 1.56536865234375
3135965625.0 0.360595703125 1.80615234375
3167187500.0 1.49444580078125 1.16387939453125
3198409375.0 1.8134765625 -0.07470703125
3229631250.0 1.347412109375 -1.079345703125
3260853125.0 0.49005126953125 -1.66485595703125
3292075000.0 -0.65191650390625 -1.69512939453125
3323296875.0 -1.6163330078125 -0.8795166015625
3354518750.0 -1.7274169921875 0.326416015625
3385740625.0 -1.15496826171875 1.22772216796875
3416962500.0 -0.2330322265625 1.677978515625
3448184375.0 0.85791015625 1.51995849609375
3479406250.0 1.63201904296875 0.64459228515625
3510628125.0 1.64166259765625 -0.49322509765625
3541850000.0 0.999267578125 -1.35308837890625
3573071875.0 -0.00677490234375 -1.67950439453125
3604293750.0 -1.02508544921875 -1.33587646484375
3635515625.0 -1.6229248046875 -0.4398193359375
3666737500.0 -1.55926513671875 0.6435546875
3697959375.0 -0.8245849609375 1.47393798828125
3729181250.0 0.2672119140625 1.62823486328125
3760403125.0 1.15045166015625 1.09716796875
3791625000.0 1.54901123046875 0.219482421875
3822846875.0 1.400390625 -0.7593994140625
3854068750.0 0.62066650390625 -1.478271484375
3885290625.0 -0.41876220703125 -1.47882080078125
3916512500.0 -1.13916015625 -0.91064453125
3947734375.0 -1.44561767578125 -0.12005615234375
3978956250.0 -1.29583740234375 0.7760009765625
4010178125.0 -0.53131103515625 1.4521484375
4041400000.0 0.47027587890625 1.4124755859375
4072621875.0 1.1494140625 0.84686279296875
4103843750.0 1.44219970703125 0.064453125
4135065625.0 1.26654052734375 -0.84375
4166287500.0 0.4583740234375 -1.49298095703125
4197509375.0 -0.55548095703125 -1.413330078125
4228731250.0 -1.24493408203125 -0.802734375
4259953125.0 -1.5062255859375 0.06884765625
4291175000.0 -1.187255859375 1.007568359375
4322396875.0 -0.28985595703125 1.52313232421875
4353618750.0 0.670654296875 1.34844970703125
4384840625.0 1.3189697265625 0.69732666015625
4416062500.0 1.49920654296875 -0.22607421875
4447284375.0 1.0543212890625 -1.10089111328125
4478506250.0 0.1729736328125 -1.49383544921875
4509728125.0 -0.73016357421875 -1.3062744140625
4540950000.0 -1.39154052734375 -0.63641357421875
4572171875.0 -1.51983642578125 0.3580322265625
4603393750.0 -0.9718017578125 1.21099853515625
4634615625.0 -0.06207275390625 1.53509521484375
4665837500.0 0.869140625 1.302978515625
4697059375.0 1.53814697265625 0.515625
4728281250.0 1.52734375 -0.58026123046875
4759503125.0 0.82293701171875 -1.36444091796875
4790725000.0 -0.1441650390625 -1.570556640625
4821946875.0 -1.081298828125 -1.1929931640625
4853168750.0 -1.60919189453125 -0.2529296875
4884390625.0 -1.37677001953125 0.790771484375
4915612500.0 -0.613525390625 1.41046142578125
4946834375.0 0.32757568359375 1.5078125
4978056250.0 1.2025146484375 1.0169677734375
5009278125.0 1.56024169921875 0.03961181640625
5040500000.0 1.2286376953125 -0.874267578125
5071721875.0 0.50140380859375 -1.41314697265625
5102943750.0 -0.4454345703125 -1.4957275390625
5134165625.0 -1.334228515625 -0.90484619140625
5165387500.0 -1.56597900390625 0.14495849609375
5196609375.0 -1.13519287109375 1.0074462890625
5227831250.0 -0.3583984375 1.50323486328125
5259053125.0 0.6865234375 1.49053955078125
5290275000.0 1.519775390625 0.66259765625
5321496875.0 1.49029541015625 -0.429443359375
5352718750.0 0.92022705078125 -1.15069580078125
5383940625.0 0.097412109375 -1.498046875
5415162500.0 -0.898681640625 -1.28314208984375
5446384375.0 -1.48175048828125 -0.3712158203125
5477606250.0 -1.2982177734375 0.56475830078125
5508828125.0 -0.73077392578125 1.14898681640625
5540050000.0 0.05328369140625 1.39654541015625
5571271875.0 0.9383544921875 1.10858154296875
5602493750.0 1.40625 0.26055908203125
5633715625.0 1.23101806640625 -0.6109619140625
5664937500.0 0.648193359375 -1.19970703125
5696159375.0 -0.1954345703125 -1.3818359375
5727381250.0 -1.0201416015625 -0.977783203125
5758603125.0 -1.38909912109375 -0.14599609375
5789825000.0 -1.19317626953125 0.71673583984375
5821046875.0 -0.50653076171875 1.30517578125
5852268750.0 0.41046142578125 1.31158447265625
5883490625.0 1.0704345703125 0.771484375
5914712500.0 1.30072021484375 0.020751953125
5945934375.0 1.09539794921875 -0.77392578125
5977156250.0 0.36181640625 -1.31036376953125
6008378125.0 -0.50830078125 -1.18145751953125
6039600000.0 -1.0201416015625 -0.649169921875
6070821875.0 -1.22320556640625 -0.004638671875
6102043750.0 -1.08270263671875 0.76116943359375
6133265625.0 -0.3427734375 1.34283447265625
6164487500.0 0.56219482421875 1.1866455078125
6195709375.0 1.069580078125 0.6298828125
6226931250.0 1.2784423828125 -0.04254150390625
6258153125.0 1.103515625 -0.86993408203125
6289375000.0 0.25677490234375 -1.444091796875
6320596875.0 -0.6868896484375 -1.20452880859375
6351818750.0 -1.19830322265625 -0.572265625
6383040625.0 -1.35296630859375 0.20599365234375
6414262500.0 -0.99945068359375 1.05523681640625
6445484375.0 -0.07904052734375 1.4547119140625
6476706250.0 0.7939453125 1.14752197265625
6507928125.0 1.28857421875 0.47039794921875
6539150000.0 1.345947265625 -0.38482666015625
6570371875.0 0.84124755859375 -1.14263916015625
6601593750.0 -0.01678466796875 -1.4034423828125
6632815625.0 -0.83746337890625 -1.13507080078125
6664037500.0 -1.40093994140625 -0.42034912109375
6695259375.0 -1.372314453125 0.56500244140625
6726481250.0 -0.71014404296875 1.24908447265625
6757703125.0 0.1304931640625 1.4052734375
6788925000.0 0.9542236328125 1.12994384765625
6820146875.0 1.5576171875 0.2890625
6851368750.0 1.32464599609375 -0.81781005859375
6882590625.0 0.50579833984375 -1.33721923828125
6913812500.0 -0.2913818359375 -1.35491943359375
6945034375.0 -1.06878662109375 -1.02099609375
6976256250.0 -1.59033203125 -0.09442138671875
7007478125.0 -1.23541259765625 0.9312744140625
7038700000.0 -0.40142822265625 1.340576171875
7069921875.0 0.3570556640625 1.3218994140625
7101143750.0 1.11566162109375 0.9696044921875
7132365625.0 1.59906005859375 0.0146484375
7163587500.0 1.156005859375 -1.01812744140625
7194809375.0 0.30364990234375 -1.39508056640625
7226031250.0 -0.5107421875 -1.3245849609375
7257253125.0 -1.26458740234375 -0.8245849609375
7288475000.0 -1.5572509765625 0.1978759765625
7319696875.0 -1.0294189453125 1.10736083984375
7350918750.0 -0.16424560546875 1.44287109375
7382140625.0 0.71478271484375 1.2755126953125
7413362500.0 1.37353515625 0.57696533203125
7444584375.0 1.40826416015625 -0.4044189453125
7475806250.0 0.85809326171875 -1.139892578125
7507028125.0 0.00634765625 -1.4271240234375
7538250000.0 -0.8856201171875 -1.122802734375
7569471875.0 -1.33551025390625 -0.31121826171875
7600693750.0 -1.20086669921875 0.49700927734375
7631915625.0 -0.7181396484375 1.0838623046875
7663137500.0 0.07958984375 1.356689453125
7694359375.0 0.936676025390625 0.98095703125
7725581250.0 1.24139404296875 0.18157958984375
7756803125.0 1.0814208984375 -0.4981689453125
7788025000.0 0.67047119140625 -1.04217529296875
7819246875.0 -0.1190185546875 -1.3453369140625
7850468750.0 -0.99188232421875 -0.91522216796875
7881690625.0 -1.2303466796875 -0.1051025390625
7912912500.0 -1.05377197265625 0.5538330078125
7944134375.0 -0.60430908203125 1.112060546875
7975356250.0 0.26959228515625 1.33355712890625
8006578125.0 1.0457763671875 0.7777099609375
8037800000.0 1.19140625 0.01763916015625
8069021875.0 1.00634765625 -0.61639404296875
8100243750.0 0.49951171875 -1.160888671875
8131465625.0 -0.38543701171875 -1.251953125
8162687500.0 -1.03009033203125 -0.68646240234375
8193909375.0 -1.1796875 0.00750732421875
8225131250.0 -1.016845703125 0.67584228515625
8256353125.0 -0.42156982421875 1.24658203125
8287575000.0 0.50018310546875 1.22540283203125
8318796875.0 1.08123779296875 0.63482666015625
8350018750.0 1.24420166015625 -0.074951171875
8381240625.0 1.0301513671875 -0.83856201171875
8412462500.0 0.256103515625 -1.37103271484375
8443684375.0 -0.66815185546875 -1.16949462890625
8474906250.0 -1.172119140625 -0.53338623046875
8506128125.0 -1.29632568359375 0.23590087890625
8537350000.0 -0.9237060546875 1.0435791015625
8568571875.0 -0.0172119140625 1.3922119140625
8599793750.0 0.80108642578125 1.0523681640625
8631015625.0 1.2396240234375 0.3988037109375
8662237500.0 1.28460693359375 -0.427734375
8693459375.0 0.735595703125 -1.17694091796875
8724681250.0 -0.16162109375 -1.33148193359375
8755903125.0 -0.87957763671875 -0.95733642578125
8787125000.0 -1.3013916015625 -0.2843017578125
8818346875.0 -1.25042724609375 0.61376953125
8849568750.0 -0.55621337890625 1.260498046875
8880790625.0 0.296142578125 1.28375244140625
8912012500.0 0.978912353515625 0.89117431640625
8943234375.0 1.39935302734375 0.1285400390625
8974456250.0 1.165283203125 -0.83868408203125
9005678125.0 0.34808349609375 -1.31402587890625
9036900000.0 -0.444091796875 -1.22381591796875
9068121875.0 -1.10028076171875 -0.78533935546875
9099343750.0 -1.43756103515625 0.09375
9130565625.0 -0.97930908203125 1.009033203125
9161787500.0 -0.15460205078125 1.28125
9193009375.0 0.552001953125 1.13262939453125
9224231250.0 1.17755126953125 0.65521240234375
9255453125.0 1.39910888671875 -0.2958984375
9286675000.0 0.8067626953125 -1.08306884765625
9317896875.0 0.027587890625 -1.24652099609375
9349118750.0 -0.65289306640625 -1.0704345703125
9380340625.0 -1.256591796875 -0.50982666015625
9411562500.0 -1.3115234375 0.47412109375
9442784375.0 -0.6485595703125 1.11456298828125
9474006250.0 0.08819580078125 1.2095947265625
9505228125.0 0.764129638671875 0.9794921875
9536450000.0 1.27227783203125 0.31494140625
9567671875.0 1.1441650390625 -0.58087158203125
9598893750.0 0.5301513671875 -1.06658935546875
9630115625.0 -0.1424560546875 -1.15557861328125
9661337500.0 -0.81842041015625 -0.902191162109375
9692559375.0 -1.2376708984375 -0.18951416015625
9723781250.0 -1.04302978515625 0.6021728515625
9755003125.0 -0.48583984375 1.05078125
9786225000.0 0.19683837890625 1.15869140625
9817446875.0 0.894561767578125 0.827362060546875
9848668750.0 1.196533203125 0.07977294921875
9879890625.0 0.96795654296875 -0.61492919921875
9911112500.0 0.453125 -1.05072021484375
9942334375.0 -0.26702880859375 -1.15936279296875
9973556250.0 -0.94287109375 -0.737884521484375
10004778125.0 -1.145751953125 -0.0172119140625
10036000000.0 -0.944061279296875 0.6160888671875
10067221875.0 -0.44232177734375 1.095947265625
10098443750.0 0.3695068359375 1.18035888671875
10129665625.0 1.000732421875 0.64300537109375
10160887500.0 1.11944580078125 -0.05126953125
10192109375.0 0.916717529296875 -0.660614013671875
10223331250.0 0.3616943359375 -1.15118408203125
10254553125.0 -0.4847412109375 -1.1124267578125
10285775000.0 -0.985382080078125 -0.535614013671875
10316996875.0 -1.0653076171875 0.07525634765625
10348218750.0 -0.900360107421875 0.66802978515625
10379440625.0 -0.32177734375 1.1754150390625
10410662500.0 0.525634765625 1.08544921875
10441884375.0 0.990997314453125 0.522308349609375
10473106250.0 1.1077880859375 -0.08282470703125
10504328125.0 0.949188232421875 -0.75732421875
10535550000.0 0.2406005859375 -1.29376220703125
10566771875.0 -0.6575927734375 -1.07666015625
10597993750.0 -1.079345703125 -0.45941162109375
10629215625.0 -1.1744384765625 0.20477294921875
10660437500.0 -0.8870849609375 0.95245361328125
10691659375.0 -0.01043701171875 1.334228515625
10722881250.0 0.784698486328125 0.951812744140625
10754103125.0 1.11773681640625 0.3251953125
10785325000.0 1.13983154296875 -0.3670654296875
10816546875.0 0.70062255859375 -1.0474853515625
10847768750.0 -0.14434814453125 -1.22784423828125
10878990625.0 -0.802001953125 -0.84320068359375
10910212500.0 -1.12139892578125 -0.24566650390625
10941434375.0 -1.096923828125 0.4749755859375
10972656250.0 -0.569091796875 1.08282470703125
11003878125.0 0.21783447265625 1.1739501953125
11035100000.0 0.846282958984375 0.821197509765625
11066321875.0 1.2197265625 0.174560546875
11097543750.0 1.09716796875 -0.674560546875
11128765625.0 0.387451171875 -1.1971435546875
11159987500.0 -0.3956298828125 -1.13873291015625
11191209375.0 -0.9986572265625 -0.702545166015625
11222431250.0 -1.27032470703125 0.09246826171875
11253653125.0 -0.8582763671875 0.893341064453125
11284875000.0 -0.11572265625 1.12530517578125
11316096875.0 0.5115966796875 0.956085205078125
11347318750.0 1.00030517578125 0.5030517578125
11378540625.0 1.11566162109375 -0.267822265625
11409762500.0 0.635284423828125 -0.85894775390625
11440984375.0 0.036102294921875 -0.977813720703125
11472206250.0 -0.480438232421875 -0.850494384765625
11503428125.0 -0.950836181640625 -0.457305908203125
11534650000.0 -1.06854248046875 0.2862548828125
11565871875.0 -0.601776123046875 0.85455322265625
11597093750.0 -0.0194091796875 0.98992919921875
11628315625.0 0.543792724609375 0.874481201171875
11659537500.0 1.0589599609375 0.3927001953125
11690759375.0 1.065185546875 -0.43463134765625
11721981250.0 0.517181396484375 -0.939117431640625
11753203125.0 -0.10552978515625 -1.03662109375
11784425000.0 -0.724334716796875 -0.80865478515625
11815646875.0 -1.10089111328125 -0.15020751953125
11846868750.0 -0.89031982421875 0.5494384765625
11878090625.0 -0.39154052734375 0.90771484375
11909312500.0 0.1866455078125 0.983978271484375
11940534375.0 0.778839111328125 0.6943359375
11971756250.0 1.0242919921875 0.0404052734375
12002978125.0 0.806365966796875 -0.536773681640625
12034200000.0 0.38226318359375 -0.889068603515625
12065421875.0 -0.21478271484375 -1.00921630859375
12096643750.0 -0.847412109375 -0.66455078125
12127865625.0 -1.0325927734375 0.0164794921875
12159087500.0 -0.814605712890625 0.5750732421875
12190309375.0 -0.377960205078125 0.9742431640625
12221531250.0 0.33831787109375 1.08746337890625
12252753125.0 0.978729248046875 0.58154296875
12283975000.0 1.0545654296875 -0.12896728515625
12315196875.0 0.800262451171875 -0.67486572265625
12346418750.0 0.28125 -1.09063720703125
12377640625.0 -0.53802490234375 -1.0601806640625
12408862500.0 -1.03265380859375 -0.4205322265625
12440084375.0 -1.00848388671875 0.22381591796875
12471306250.0 -0.742034912109375 0.7373046875
12502528125.0 -0.1805419921875 1.11907958984375
12533750000.0 0.621002197265625 0.993988037109375
12564971875.0 1.04095458984375 0.36474609375
12596193750.0 1.0289306640625 -0.263916015625
12627415625.0 0.748016357421875 -0.825439453125
12658637500.0 0.07989501953125 -1.20611572265625
12689859375.0 -0.734405517578125 -0.965667724609375
12721081250.0 -1.11676025390625 -0.30615234375
12752303125.0 -1.09759521484375 0.3829345703125
12783525000.0 -0.68621826171875 1.0277099609375
12814746875.0 0.1640625 1.251708984375
12845968750.0 0.86212158203125 0.810516357421875
12877190625.0 1.11749267578125 0.17266845703125
12908412500.0 1.05548095703125 -0.50238037109375
12939634375.0 0.54266357421875 -1.11614990234375
12970856250.0 -0.3199462890625 -1.17401123046875
13002078125.0 -0.89447021484375 -0.69354248046875
13033300000.0 -1.10552978515625 -0.0865478515625
13064521875.0 -1.00836181640625 0.59283447265625
13095743750.0 -0.4205322265625 1.15374755859375
13126965625.0 0.40740966796875 1.1199951171875
13158187500.0 0.946533203125 0.631195068359375
13189409375.0 1.14801025390625 -0.02252197265625
13220631250.0 0.936065673828125 -0.747467041015625
13251853125.0 0.23455810546875 -1.17034912109375
13283075000.0 -0.50665283203125 -1.01898193359375
13314296875.0 -0.986236572265625 -0.529266357421875
13345518750.0 -1.13458251953125 0.17730712890625
13376740625.0 -0.751739501953125 0.858367919921875
13407962500.0 -0.059814453125 1.06463623046875
