!Created with skrf (http://scikit-rf.org).
# Hz S RI R 50.0 
!freq ReS11 ImS11
45000000.0 -0.07701873779296875 -0.09669113159179688
76221875.0 -0.19637298583984375 -0.0475616455078125
107443750.0 -0.25469970703125 0.1196441650390625
138665625.0 -0.1481475830078125 0.3282928466796875
169887500.0 0.1234588623046875 0.417327880859375
201109375.0 0.421539306640625 0.280517578125
232331250.0 0.578460693359375 -0.057647705078125
263553125.0 0.489227294921875 -0.45263671875
294775000.0 0.09844970703125 -0.731781005859375
325996875.0 -0.4151611328125 -0.6800537109375
357218750.0 -0.80560302734375 -0.29638671875
388440625.0 -0.88470458984375 0.300384521484375
419662500.0 -0.5167236328125 0.865570068359375
450884375.0 0.1729736328125 1.02764892578125
482106250.0 0.797698974609375 0.712188720703125
513328125.0 1.1181640625 0.08721923828125
544550000.0 1.0028076171875 -0.67926025390625
575771875.0 0.33612060546875 -1.23663330078125
606993750.0 -0.5535888671875 -1.1759033203125
638215625.0 -1.16473388671875 -0.58953857421875
669437500.0 -1.33856201171875 0.2335205078125
700659375.0 -0.97003173828125 1.09521484375
731881250.0 -0.00335693359375 1.54132080078125
763103125.0 1.00457763671875 1.1544189453125
794325000.0 1.46697998046875 0.2816162109375
825546875.0 1.36578369140625 -0.650634765625
856768750.0 0.79351806640625 -1.39886474609375
887990625.0 -0.29205322265625 -1.64630126953125
919212500.0 -1.28631591796875 -1.07708740234375
950434375.0 -1.64630126953125 -0.058837890625
981656250.0 -1.38043212890625 0.9442138671875
1012878125.0 -0.52886962890625 1.66961669921875
1044100000.0 0.69598388671875 1.6595458984375
1075321875.0 1.57220458984375 0.81121826171875
1106543750.0 1.7020263671875 -0.3123779296875
1137765625.0 1.1846923828125 -1.28277587890625
1168987500.0 0.13787841796875 -1.79425048828125
1200209375.0 -1.0601806640625 -1.48162841796875
1231431250.0 -1.7247314453125 -0.45294189453125
1262653125.0 -1.59234619140625 0.68359375
1293875000.0 -0.8507080078125 1.48895263671875
1325096875.0 0.22808837890625 1.70440673828125
1356318750.0 1.23333740234375 1.21484375
1387540625.0 1.73736572265625 0.1885986328125
1418762500.0 1.46697998046875 -0.95001220703125
1449984375.0 0.52874755859375 -1.62353515625
1481206250.0 -0.54888916015625 -1.5537109375
1512428125.0 -1.340087890625 -0.91815185546875
1543650000.0 -1.653076171875 0.06488037109375
1574871875.0 -1.2718505859375 1.107666015625
1606093750.0 -0.2723388671875 1.629150390625
1637315625.0 0.7412109375 1.3984375
1668537500.0 1.3941650390625 0.694580078125
1699759375.0 1.571044921875 -0.27667236328125
1730981250.0 1.06243896484375 -1.22772216796875
1762203125.0 0.0421142578125 -1.56805419921875
1793425000.0 -0.8546142578125 -1.2247314453125
1824646875.0 -1.3914794921875 -0.51446533203125
1855868750.0 -1.47174072265625 0.431640625
1887090625.0 -0.8734130859375 1.28314208984375
1918312500.0 0.1173095703125 1.48480224609375
1949534375.0 0.91973876953125 1.08758544921875
1980756250.0 1.3731689453125 0.3699951171875
2011978125.0 1.3577880859375 -0.53057861328125
2043200000.0 0.7489013671875 -1.25994873046875
2074421875.0 -0.1563720703125 -1.43072509765625
2105643750.0 -0.95855712890625 -1.07110595703125
2136865625.0 -1.44512939453125 -0.30462646484375
2168087500.0 -1.355224609375 0.670166015625
2199309375.0 -0.63848876953125 1.34881591796875
2230531250.0 0.28106689453125 1.433837890625
2261753125.0 1.07110595703125 1.0125732421875
2292975000.0 1.51220703125 0.17041015625
2324196875.0 1.3037109375 -0.81707763671875
2355418750.0 0.52471923828125 -1.4173583984375
2386640625.0 -0.40374755859375 -1.44671630859375
2417862500.0 -1.1778564453125 -1.02288818359375
2449084375.0 -1.6015625 -0.0843505859375
2480306250.0 -1.30914306640625 0.92340087890625
2511528125.0 -0.493896484375 1.504638671875
2542750000.0 0.4871826171875 1.53375244140625
2573971875.0 1.3687744140625 0.96600341796875
2605193750.0 1.7135009765625 -0.11187744140625
2636415625.0 1.25921630859375 -1.1497802734375
2667637500.0 0.30718994140625 -1.6639404296875
2698859375.0 -0.76800537109375 -1.53173828125
2730081250.0 -1.56976318359375 -0.73944091796875
2761303125.0 -1.67791748046875 0.3865966796875
2792525000.0 -1.0975341796875 1.30462646484375
2823746875.0 -0.101318359375 1.72662353515625
2854968750.0 1.00994873046875 1.45269775390625
2886190625.0 1.6876220703125 0.49078369140625
2917412500.0 1.596435546875 -0.6153564453125
2948634375.0 0.93780517578125 -1.4287109375
2979856250.0 -0.10711669921875 -1.772705078125
3011078125.0 -1.2442626953125 -1.34002685546875
3042300000.0 -1.77044677734375 -0.235107421875
3073521875.0 -1.50604248046875 0.835205078125
3104743750.0 -0.7628173828125 1.56402587890625
3135965625.0 0.36102294921875 1.80621337890625
3167187500.0 1.4957275390625 1.16229248046875
3198409375.0 1.812744140625 -0.074462890625
3229631250.0 1.3463134765625 -1.077880859375
3260853125.0 0.48876953125 -1.66485595703125
3292075000.0 -0.65380859375 -1.69512939453125
3323296875.0 -1.615478515625 -0.8782958984375
3354518750.0 -1.72705078125 0.32769775390625
3385740625.0 -1.15399169921875 1.22857666015625
3416962500.0 -0.23199462890625 1.677490234375
3448184375.0 0.85784912109375 1.5191650390625
3479406250.0 1.63250732421875 0.64337158203125
3510628125.0 1.641357421875 -0.49407958984375
3541850000.0 0.998291015625 -1.35296630859375
3573071875.0 -0.00799560546875 -1.6795654296875
3604293750.0 -1.02667236328125 -1.33514404296875
3635515625.0 -1.625 -0.4381103515625
3666737500.0 -1.559326171875 0.6446533203125
3697959375.0 -0.8236083984375 1.47308349609375
3729181250.0 0.2674560546875 1.62799072265625
3760403125.0 1.15020751953125 1.09625244140625
3791625000.0 1.54925537109375 0.21807861328125
3822846875.0 1.39910888671875 -0.7586669921875
3854068750.0 0.61932373046875 -1.47869873046875
3885290625.0 -0.4195556640625 -1.478271484375
3916512500.0 -1.13934326171875 -0.90997314453125
3947734375.0 -1.44378662109375 -0.12078857421875
3978956250.0 -1.29461669921875 0.7763671875
4010178125.0 -0.53167724609375 1.4501953125
4041400000.0 0.4718017578125 1.41253662109375
4072621875.0 1.14862060546875 0.8466796875
4103843750.0 1.44097900390625 0.06451416015625
4135065625.0 1.2657470703125 -0.84405517578125
4166287500.0 0.45697021484375 -1.49365234375
4197509375.0 -0.5557861328125 -1.412841796875
4228731250.0 -1.244140625 -0.8021240234375
4259953125.0 -1.50592041015625 0.06951904296875
4291175000.0 -1.18670654296875 1.009033203125
4322396875.0 -0.289794921875 1.52337646484375
4353618750.0 0.6708984375 1.34771728515625
4384840625.0 1.3189697265625 0.69659423828125
4416062500.0 1.497802734375 -0.225830078125
4447284375.0 1.05364990234375 -1.1009521484375
4478506250.0 0.1728515625 -1.49285888671875
4509728125.0 -0.7296142578125 -1.30487060546875
4540950000.0 -1.39117431640625 -0.63531494140625
4572171875.0 -1.5198974609375 0.358154296875
4603393750.0 -0.97186279296875 1.20892333984375
4634615625.0 -0.06243896484375 1.53375244140625
4665837500.0 0.868896484375 1.30230712890625
4697059375.0 1.5390625 0.5147705078125
4728281250.0 1.52630615234375 -0.5806884765625
4759503125.0 0.822021484375 -1.3642578125
4790725000.0 -0.14453125 -1.57012939453125
4821946875.0 -1.0809326171875 -1.19183349609375
4853168750.0 -1.61041259765625 -0.25128173828125
4884390625.0 -1.3765869140625 0.79144287109375
4915612500.0 -0.6131591796875 1.40887451171875
4946834375.0 0.32708740234375 1.50604248046875
4978056250.0 1.20269775390625 1.01580810546875
5009278125.0 1.55914306640625 0.0400390625
5040500000.0 1.22747802734375 -0.8748779296875
5071721875.0 0.50152587890625 -1.41107177734375
5102943750.0 -0.44500732421875 -1.49517822265625
5134165625.0 -1.33160400390625 -0.9046630859375
5165387500.0 -1.56536865234375 0.14459228515625
5196609375.0 -1.13458251953125 1.00750732421875
5227831250.0 -0.35772705078125 1.50335693359375
5259053125.0 0.6873779296875 1.490234375
5290275000.0 1.5198974609375 0.66259765625
5321496875.0 1.4901123046875 -0.42913818359375
5352718750.0 0.91986083984375 -1.151123046875
5383940625.0 0.0966796875 -1.4979248046875
5415162500.0 -0.89776611328125 -1.281982421875
5446384375.0 -1.4822998046875 -0.36981201171875
5477606250.0 -1.29718017578125 0.56427001953125
5508828125.0 -0.73046875 1.1488037109375
5540050000.0 0.05340576171875 1.3968505859375
5571271875.0 0.93585205078125 1.10748291015625
5602493750.0 1.40606689453125 0.26025390625
5633715625.0 1.231201171875 -0.61126708984375
5664937500.0 0.647705078125 -1.1988525390625
5696159375.0 -0.19586181640625 -1.3812255859375
5727381250.0 -1.01947021484375 -0.977294921875
5758603125.0 -1.38897705078125 -0.146240234375
5789825000.0 -1.19256591796875 0.71588134765625
5821046875.0 -0.5062255859375 1.30572509765625
5852268750.0 0.41033935546875 1.3106689453125
5883490625.0 1.06915283203125 0.77154541015625
5914712500.0 1.30023193359375 0.020263671875
5945934375.0 1.0947265625 -0.775146484375
5977156250.0 0.36181640625 -1.309326171875
6008378125.0 -0.5078125 -1.18072509765625
6039600000.0 -1.01995849609375 -0.64874267578125
6070821875.0 -1.22161865234375 -0.00518798828125
6102043750.0 -1.081787109375 0.76165771484375
6133265625.0 -0.342529296875 1.342041015625
6164487500.0 0.5623779296875 1.1865234375
6195709375.0 1.06805419921875 0.63018798828125
6226931250.0 1.2781982421875 -0.0419921875
6258153125.0 1.10321044921875 -0.86920166015625
6289375000.0 0.2568359375 -1.4442138671875
6320596875.0 -0.6878662109375 -1.20465087890625
6351818750.0 -1.1986083984375 -0.572021484375
6383040625.0 -1.35333251953125 0.20611572265625
6414262500.0 -0.99920654296875 1.055908203125
6445484375.0 -0.07916259765625 1.45452880859375
6476706250.0 0.7945556640625 1.14697265625
6507928125.0 1.2884521484375 0.47015380859375
6539150000.0 1.345947265625 -0.3851318359375
6570371875.0 0.84051513671875 -1.14154052734375
6601593750.0 -0.01641845703125 -1.40264892578125
6632815625.0 -0.83856201171875 -1.13525390625
6664037500.0 -1.4002685546875 -0.41973876953125
6695259375.0 -1.37261962890625 0.5650634765625
6726481250.0 -0.7099609375 1.249267578125
6757703125.0 0.1300048828125 1.40570068359375
6788925000.0 0.95318603515625 1.1295166015625
6820146875.0 1.5582275390625 0.288330078125
6851368750.0 1.3240966796875 -0.8173828125
6882590625.0 0.50604248046875 -1.3372802734375
6913812500.0 -0.291259765625 -1.35498046875
6945034375.0 -1.0672607421875 -1.02056884765625
6976256250.0 -1.5911865234375 -0.093505859375
7007478125.0 -1.23455810546875 0.93023681640625
7038700000.0 -0.40289306640625 1.34149169921875
7069921875.0 0.3558349609375 1.3211669921875
7101143750.0 1.114990234375 0.9676513671875
7132365625.0 1.5963134765625 0.01678466796875
7163587500.0 1.156982421875 -1.01715087890625
7194809375.0 0.3016357421875 -1.395751953125
7226031250.0 -0.50909423828125 -1.3232421875
7257253125.0 -1.26666259765625 -0.8236083984375
7288475000.0 -1.5560302734375 0.197021484375
7319696875.0 -1.029541015625 1.10760498046875
7350918750.0 -0.16571044921875 1.4412841796875
7382140625.0 0.71783447265625 1.277099609375
7413362500.0 1.37469482421875 0.57598876953125
7444584375.0 1.40948486328125 -0.4053955078125
7475806250.0 0.85693359375 -1.14208984375
7507028125.0 0.0059814453125 -1.42779541015625
7538250000.0 -0.8839111328125 -1.1226806640625
7569471875.0 -1.3355712890625 -0.3106689453125
7600693750.0 -1.201416015625 0.4969482421875
7631915625.0 -0.71746826171875 1.083251953125
7663137500.0 0.080078125 1.356201171875
7694359375.0 0.937835693359375 0.979248046875
7725581250.0 1.24127197265625 0.1817626953125
7756803125.0 1.08056640625 -0.49554443359375
7788025000.0 0.66925048828125 -1.0408935546875
7819246875.0 -0.11920166015625 -1.34552001953125
7850468750.0 -0.989105224609375 -0.915679931640625
7881690625.0 -1.227783203125 -0.10699462890625
7912912500.0 -1.05322265625 0.55181884765625
7944134375.0 -0.60516357421875 1.1123046875
7975356250.0 0.27081298828125 1.33428955078125
8006578125.0 1.0438232421875 0.7786865234375
8037800000.0 1.19171142578125 0.01678466796875
8069021875.0 1.0057373046875 -0.61614990234375
8100243750.0 0.5 -1.15960693359375
8131465625.0 -0.387451171875 -1.2537841796875
8162687500.0 -1.030029296875 -0.68621826171875
8193909375.0 -1.17950439453125 0.0084228515625
8225131250.0 -1.0162353515625 0.677001953125
8256353125.0 -0.4219970703125 1.248291015625
8287575000.0 0.49993896484375 1.2244873046875
8318796875.0 1.08062744140625 0.635498046875
8350018750.0 1.244140625 -0.07568359375
8381240625.0 1.03070068359375 -0.8377685546875
8412462500.0 0.2542724609375 -1.37200927734375
8443684375.0 -0.66876220703125 -1.1697998046875
8474906250.0 -1.17193603515625 -0.532958984375
8506128125.0 -1.296142578125 0.23504638671875
8537350000.0 -0.92303466796875 1.04534912109375
8568571875.0 -0.01629638671875 1.39385986328125
8599793750.0 0.80145263671875 1.05303955078125
8631015625.0 1.2391357421875 0.3988037109375
8662237500.0 1.2847900390625 -0.4261474609375
8693459375.0 0.73626708984375 -1.1759033203125
8724681250.0 -0.161865234375 -1.33074951171875
8755903125.0 -0.879058837890625 -0.95660400390625
8787125000.0 -1.301513671875 -0.28302001953125
8818346875.0 -1.2490234375 0.61309814453125
8849568750.0 -0.55682373046875 1.2591552734375
8880790625.0 0.298095703125 1.28326416015625
8912012500.0 0.97955322265625 0.892608642578125
8943234375.0 1.3992919921875 0.1280517578125
8974456250.0 1.16693115234375 -0.8375244140625
9005678125.0 0.3482666015625 -1.31463623046875
9036900000.0 -0.444091796875 -1.22320556640625
9068121875.0 -1.10064697265625 -0.7857666015625
9099343750.0 -1.43902587890625 0.0965576171875
9130565625.0 -0.97918701171875 1.0103759765625
9161787500.0 -0.15570068359375 1.28076171875
9193009375.0 0.55413818359375 1.13360595703125
9224231250.0 1.17779541015625 0.65447998046875
9255453125.0 1.398193359375 -0.2938232421875
9286675000.0 0.80706787109375 -1.08349609375
9317896875.0 0.026611328125 -1.24658203125
9349118750.0 -0.6529541015625 -1.06884765625
9380340625.0 -1.2567138671875 -0.5096435546875
9411562500.0 -1.310791015625 0.47613525390625
9442784375.0 -0.64849853515625 1.1141357421875
9474006250.0 0.08782958984375 1.20916748046875
9505228125.0 0.761199951171875 0.97900390625
9536450000.0 1.2698974609375 0.31500244140625
9567671875.0 1.14385986328125 -0.579345703125
9598893750.0 0.52978515625 -1.06707763671875
9630115625.0 -0.14227294921875 -1.1552734375
9661337500.0 -0.8140869140625 -0.90228271484375
9692559375.0 -1.2374267578125 -0.1905517578125
9723781250.0 -1.042724609375 0.6033935546875
9755003125.0 -0.48529052734375 1.050048828125
9786225000.0 0.195556640625 1.1578369140625
9817446875.0 0.89398193359375 0.82745361328125
9848668750.0 1.19482421875 0.08123779296875
9879890625.0 0.967376708984375 -0.614776611328125
9911112500.0 0.45257568359375 -1.050537109375
9942334375.0 -0.2657470703125 -1.15679931640625
9973556250.0 -0.94012451171875 -0.738372802734375
10004778125.0 -1.14471435546875 -0.01904296875
10036000000.0 -0.943817138671875 0.613677978515625
10067221875.0 -0.44244384765625 1.09442138671875
10098443750.0 0.36859130859375 1.1806640625
10129665625.0 1.0006103515625 0.6436767578125
10160887500.0 1.1197509765625 -0.05078125
10192109375.0 0.9169921875 -0.66265869140625
10223331250.0 0.3604736328125 -1.15277099609375
10254553125.0 -0.4853515625 -1.114501953125
10285775000.0 -0.983245849609375 -0.536376953125
10316996875.0 -1.0655517578125 0.0755615234375
10348218750.0 -0.899505615234375 0.667022705078125
10379440625.0 -0.3212890625 1.17437744140625
10410662500.0 0.525634765625 1.08441162109375
10441884375.0 0.99017333984375 0.522125244140625
10473106250.0 1.1087646484375 -0.08355712890625
10504328125.0 0.948822021484375 -0.755035400390625
10535550000.0 0.24139404296875 -1.2940673828125
10566771875.0 -0.657470703125 -1.0771484375
10597993750.0 -1.080322265625 -0.4588623046875
10629215625.0 -1.1739501953125 0.20263671875
10660437500.0 -0.887451171875 0.950164794921875
10691659375.0 -0.01129150390625 1.33392333984375
10722881250.0 0.78350830078125 0.952667236328125
10754103125.0 1.1199951171875 0.324462890625
10785325000.0 1.1387939453125 -0.366943359375
10816546875.0 0.70062255859375 -1.04705810546875
10847768750.0 -0.1453857421875 -1.2283935546875
10878990625.0 -0.80120849609375 -0.84393310546875
10910212500.0 -1.1220703125 -0.2459716796875
10941434375.0 -1.09649658203125 0.4764404296875
10972656250.0 -0.56915283203125 1.08258056640625
11003878125.0 0.217041015625 1.17376708984375
11035100000.0 0.847015380859375 0.821563720703125
11066321875.0 1.2178955078125 0.1759033203125
11097543750.0 1.09722900390625 -0.67364501953125
11128765625.0 0.3878173828125 -1.1953125
11159987500.0 -0.39501953125 -1.13824462890625
11191209375.0 -1.0 -0.701995849609375
11222431250.0 -1.270751953125 0.0924072265625
11253653125.0 -0.8585205078125 0.892913818359375
11284875000.0 -0.11627197265625 1.12554931640625
11316096875.0 0.509796142578125 0.956878662109375
11347318750.0 1.00140380859375 0.50225830078125
11378540625.0 1.11517333984375 -0.2667236328125
11409762500.0 0.635284423828125 -0.860076904296875
11440984375.0 0.03668212890625 -0.9775390625
11472206250.0 -0.480621337890625 -0.84967041015625
11503428125.0 -0.951751708984375 -0.456024169921875
11534650000.0 -1.06719970703125 0.2879638671875
11565871875.0 -0.60284423828125 0.854705810546875
11597093750.0 -0.01910400390625 0.989990234375
11628315625.0 0.5413818359375 0.87396240234375
11659537500.0 1.05816650390625 0.3927001953125
11690759375.0 1.06512451171875 -0.4322509765625
11721981250.0 0.51727294921875 -0.939239501953125
11753203125.0 -0.1046142578125 -1.03399658203125
11784425000.0 -0.72479248046875 -0.808807373046875
11815646875.0 -1.0997314453125 -0.1513671875
11846868750.0 -0.8905029296875 0.549835205078125
11878090625.0 -0.39044189453125 0.9088134765625
11909312500.0 0.18572998046875 0.98321533203125
11940534375.0 0.77911376953125 0.695068359375
11971756250.0 1.023681640625 0.04010009765625
12002978125.0 0.80615234375 -0.537139892578125
12034200000.0 0.38189697265625 -0.887451171875
12065421875.0 -0.21453857421875 -1.00897216796875
12096643750.0 -0.845489501953125 -0.66522216796875
12127865625.0 -1.03302001953125 0.01708984375
12159087500.0 -0.8145751953125 0.575103759765625
12190309375.0 -0.377716064453125 0.9732666015625
12221531250.0 0.33892822265625 1.08721923828125
12252753125.0 0.979766845703125 0.5819091796875
12283975000.0 1.0538330078125 -0.12725830078125
12315196875.0 0.800384521484375 -0.675994873046875
12346418750.0 0.2816162109375 -1.09039306640625
12377640625.0 -0.53680419921875 -1.06036376953125
12408862500.0 -1.0318603515625 -0.421142578125
12440084375.0 -1.00775146484375 0.22430419921875
12471306250.0 -0.74114990234375 0.73468017578125
12502528125.0 -0.180908203125 1.1192626953125
12533750000.0 0.616485595703125 0.993316650390625
12564971875.0 1.04046630859375 0.3646240234375
12596193750.0 1.0294189453125 -0.26409912109375
12627415625.0 0.74798583984375 -0.82666015625
12658637500.0 0.0804443359375 -1.2061767578125
12689859375.0 -0.73553466796875 -0.9656982421875
12721081250.0 -1.1177978515625 -0.3062744140625
12752303125.0 -1.0968017578125 0.38037109375
12783525000.0 -0.68756103515625 1.02801513671875
12814746875.0 0.16357421875 1.249267578125
12845968750.0 0.8616943359375 0.81048583984375
12877190625.0 1.11676025390625 0.1715087890625
12908412500.0 1.05511474609375 -0.500732421875
12939634375.0 0.54278564453125 -1.1158447265625
12970856250.0 -0.319580078125 -1.17486572265625
13002078125.0 -0.893310546875 -0.69268798828125
13033300000.0 -1.10650634765625 -0.08770751953125
13064521875.0 -1.00823974609375 0.59100341796875
13095743750.0 -0.42108154296875 1.15191650390625
13126965625.0 0.4053955078125 1.11883544921875
13158187500.0 0.94720458984375 0.6322021484375
13189409375.0 1.1483154296875 -0.021240234375
13220631250.0 0.93597412109375 -0.7481689453125
13251853125.0 0.2357177734375 -1.1697998046875
13283075000.0 -0.50537109375 -1.01861572265625
13314296875.0 -0.986572265625 -0.528778076171875
13345518750.0 -1.1329345703125 0.17498779296875
13376740625.0 -0.75372314453125 0.856842041015625
