!Created with skrf (http://scikit-rf.org).
# Hz S RI R 50.0 
!freq ReS11 ImS11
45000000.0 -0.0768585205078125 -0.0969085693359375
76221875.0 -0.19626617431640625 -0.04773712158203125
107443750.0 -0.2549285888671875 0.119354248046875
138665625.0 -0.14849853515625 0.3285369873046875
169887500.0 0.1232147216796875 0.4174652099609375
201109375.0 0.42138671875 0.2812347412109375
232331250.0 0.578643798828125 -0.056854248046875
263553125.0 0.4897003173828125 -0.451904296875
294775000.0 0.0992431640625 -0.732147216796875
325996875.0 -0.414306640625 -0.680755615234375
357218750.0 -0.805511474609375 -0.297576904296875
388440625.0 -0.8853759765625 0.29937744140625
419662500.0 -0.51763916015625 0.86541748046875
450884375.0 0.171875 1.0284423828125
482106250.0 0.797271728515625 0.713134765625
513328125.0 1.1185302734375 0.0882568359375
544550000.0 1.00384521484375 -0.67840576171875
575771875.0 0.33770751953125 -1.237060546875
606993750.0 -0.55206298828125 -1.1773681640625
638215625.0 -1.16455078125 -0.59112548828125
669437500.0 -1.33917236328125 0.2322998046875
700659375.0 -0.97113037109375 1.094482421875
731881250.0 -0.0052490234375 1.54205322265625
763103125.0 1.0040283203125 1.15594482421875
794325000.0 1.46734619140625 0.28277587890625
825546875.0 1.36676025390625 -0.6495361328125
856768750.0 0.79541015625 -1.3985595703125
887990625.0 -0.290771484375 -1.64727783203125
919212500.0 -1.28582763671875 -1.078857421875
950434375.0 -1.6466064453125 -0.0606689453125
981656250.0 -1.38214111328125 0.94329833984375
1012878125.0 -0.5308837890625 1.66937255859375
1044100000.0 0.6944580078125 1.66094970703125
1075321875.0 1.57220458984375 0.812744140625
1106543750.0 1.70306396484375 -0.31024169921875
1137765625.0 1.18670654296875 -1.28179931640625
1168987500.0 0.14019775390625 -1.7950439453125
1200209375.0 -1.05889892578125 -1.48297119140625
1231431250.0 -1.72479248046875 -0.45452880859375
1262653125.0 -1.59295654296875 0.68182373046875
1293875000.0 -0.852783203125 1.48883056640625
1325096875.0 0.22637939453125 1.70538330078125
1356318750.0 1.2327880859375 1.2164306640625
1387540625.0 1.73760986328125 0.1905517578125
1418762500.0 1.46832275390625 -0.94921875
1449984375.0 0.5302734375 -1.6234130859375
1481206250.0 -0.5477294921875 -1.554931640625
1512428125.0 -1.3397216796875 -0.91986083984375
1543650000.0 -1.65350341796875 0.06390380859375
1574871875.0 -1.2728271484375 1.10626220703125
1606093750.0 -0.2740478515625 1.6298828125
1637315625.0 0.7398681640625 1.3995361328125
1668537500.0 1.39385986328125 0.6966552734375
1699759375.0 1.57159423828125 -0.275634765625
1730981250.0 1.06414794921875 -1.226806640625
1762203125.0 0.043701171875 -1.56884765625
1793425000.0 -0.8538818359375 -1.22601318359375
1824646875.0 -1.39154052734375 -0.51544189453125
1855868750.0 -1.47265625 0.43072509765625
1887090625.0 -0.875 1.28302001953125
1918312500.0 0.11590576171875 1.4853515625
1949534375.0 0.91961669921875 1.08856201171875
1980756250.0 1.37310791015625 0.37078857421875
2011978125.0 1.35845947265625 -0.52996826171875
2043200000.0 0.75042724609375 -1.25946044921875
2074421875.0 -0.1556396484375 -1.4322509765625
2105643750.0 -0.95849609375 -1.072021484375
2136865625.0 -1.44512939453125 -0.305908203125
2168087500.0 -1.35589599609375 0.6689453125
2199309375.0 -0.6395263671875 1.3489990234375
2230531250.0 0.28021240234375 1.43463134765625
2261753125.0 1.0704345703125 1.01409912109375
2292975000.0 1.512939453125 0.17120361328125
2324196875.0 1.3048095703125 -0.8167724609375
2355418750.0 0.52557373046875 -1.41815185546875
2386640625.0 -0.40264892578125 -1.44757080078125
2417862500.0 -1.17803955078125 -1.02392578125
2449084375.0 -1.6019287109375 -0.08599853515625
2480306250.0 -1.31060791015625 0.92230224609375
2511528125.0 -0.49554443359375 1.50518798828125
2542750000.0 0.48638916015625 1.534423828125
2573971875.0 1.36865234375 0.96807861328125
2605193750.0 1.71380615234375 -0.10968017578125
2636415625.0 1.26043701171875 -1.1485595703125
2667637500.0 0.3070068359375 -1.66546630859375
2698859375.0 -0.76751708984375 -1.5325927734375
2730081250.0 -1.57037353515625 -0.7413330078125
2761303125.0 -1.6783447265625 0.38470458984375
2792525000.0 -1.09906005859375 1.30340576171875
2823746875.0 -0.1029052734375 1.72760009765625
2854968750.0 1.0086669921875 1.454345703125
2886190625.0 1.68768310546875 0.49298095703125
2917412500.0 1.59722900390625 -0.61468505859375
2948634375.0 0.93890380859375 -1.43182373046875
2979856250.0 -0.106201171875 -1.774169921875
3011078125.0 -1.2437744140625 -1.34063720703125
3042300000.0 -1.7725830078125 -0.23583984375
3073521875.0 -1.5074462890625 0.8355712890625
3104743750.0 -0.7635498046875 1.56500244140625
3135965625.0 0.35980224609375 1.80682373046875
3167187500.0 1.49530029296875 1.16400146484375
3198409375.0 1.8131103515625 -0.072998046875
3229631250.0 1.3482666015625 -1.07958984375
3260853125.0 0.49017333984375 -1.6658935546875
3292075000.0 -0.65185546875 -1.695556640625
3323296875.0 -1.615966796875 -0.87957763671875
3354518750.0 -1.728515625 0.32623291015625
3385740625.0 -1.1552734375 1.22930908203125
3416962500.0 -0.23236083984375 1.68023681640625
3448184375.0 0.85760498046875 1.51995849609375
3479406250.0 1.63385009765625 0.64453125
3510628125.0 1.6414794921875 -0.491943359375
3541850000.0 1.00006103515625 -1.35198974609375
3573071875.0 -0.00634765625 -1.6796875
3604293750.0 -1.025390625 -1.33660888671875
3635515625.0 -1.6256103515625 -0.43902587890625
3666737500.0 -1.5596923828125 0.6439208984375
3697959375.0 -0.825439453125 1.4730224609375
3729181250.0 0.265869140625 1.62774658203125
3760403125.0 1.15032958984375 1.0977783203125
3791625000.0 1.54937744140625 0.21929931640625
3822846875.0 1.39996337890625 -0.758544921875
3854068750.0 0.62066650390625 -1.4775390625
3885290625.0 -0.41943359375 -1.4794921875
3916512500.0 -1.13946533203125 -0.91064453125
3947734375.0 -1.44537353515625 -0.12078857421875
3978956250.0 -1.29608154296875 0.77691650390625
4010178125.0 -0.53173828125 1.4525146484375
4041400000.0 0.47137451171875 1.41400146484375
4072621875.0 1.14886474609375 0.84765625
4103843750.0 1.44195556640625 0.0640869140625
4135065625.0 1.26727294921875 -0.84423828125
4166287500.0 0.45855712890625 -1.493408203125
4197509375.0 -0.5543212890625 -1.41290283203125
4228731250.0 -1.245361328125 -0.80291748046875
4259953125.0 -1.50689697265625 0.06915283203125
4291175000.0 -1.1875 1.00689697265625
4322396875.0 -0.29034423828125 1.523681640625
4353618750.0 0.66986083984375 1.34844970703125
4384840625.0 1.31951904296875 0.69805908203125
4416062500.0 1.4991455078125 -0.2261962890625
4447284375.0 1.0546875 -1.1016845703125
4478506250.0 0.1737060546875 -1.4937744140625
4509728125.0 -0.7291259765625 -1.30615234375
4540950000.0 -1.390869140625 -0.6370849609375
4572171875.0 -1.5206298828125 0.35906982421875
4603393750.0 -0.97222900390625 1.21002197265625
4634615625.0 -0.06292724609375 1.5355224609375
4665837500.0 0.8685302734375 1.30340576171875
4697059375.0 1.5382080078125 0.51617431640625
4728281250.0 1.52728271484375 -0.57965087890625
4759503125.0 0.823486328125 -1.36395263671875
4790725000.0 -0.14459228515625 -1.57110595703125
4821946875.0 -1.08160400390625 -1.1939697265625
4853168750.0 -1.61016845703125 -0.25238037109375
4884390625.0 -1.37677001953125 0.79046630859375
4915612500.0 -0.614013671875 1.41064453125
4946834375.0 0.3271484375 1.5078125
4978056250.0 1.20306396484375 1.01727294921875
5009278125.0 1.55938720703125 0.04058837890625
5040500000.0 1.228271484375 -0.873779296875
5071721875.0 0.502197265625 -1.41278076171875
5102943750.0 -0.44561767578125 -1.49578857421875
5134165625.0 -1.33380126953125 -0.9052734375
5165387500.0 -1.565673828125 0.1446533203125
5196609375.0 -1.1356201171875 1.0072021484375
5227831250.0 -0.35809326171875 1.5050048828125
5259053125.0 0.685302734375 1.49090576171875
5290275000.0 1.51934814453125 0.66339111328125
5321496875.0 1.49041748046875 -0.4288330078125
5352718750.0 0.92059326171875 -1.15179443359375
5383940625.0 0.09844970703125 -1.49755859375
5415162500.0 -0.89892578125 -1.283447265625
5446384375.0 -1.4818115234375 -0.371337890625
5477606250.0 -1.2982177734375 0.5643310546875
5508828125.0 -0.731201171875 1.1495361328125
5540050000.0 0.05291748046875 1.39691162109375
5571271875.0 0.935791015625 1.10858154296875
5602493750.0 1.40716552734375 0.2606201171875
5633715625.0 1.23089599609375 -0.61090087890625
5664937500.0 0.6485595703125 -1.19970703125
5696159375.0 -0.19586181640625 -1.3824462890625
5727381250.0 -1.0196533203125 -0.977783203125
5758603125.0 -1.38897705078125 -0.1463623046875
5789825000.0 -1.19354248046875 0.71661376953125
5821046875.0 -0.50653076171875 1.3055419921875
5852268750.0 0.410400390625 1.31182861328125
5883490625.0 1.06927490234375 0.7718505859375
5914712500.0 1.30120849609375 0.0206298828125
5945934375.0 1.09576416015625 -0.7744140625
5977156250.0 0.36212158203125 -1.31036376953125
6008378125.0 -0.50714111328125 -1.1807861328125
6039600000.0 -1.02008056640625 -0.64910888671875
6070821875.0 -1.22296142578125 -0.0052490234375
6102043750.0 -1.08270263671875 0.7607421875
6133265625.0 -0.34295654296875 1.3427734375
6164487500.0 0.56231689453125 1.18646240234375
6195709375.0 1.069091796875 0.63037109375
6226931250.0 1.2784423828125 -0.042236328125
6258153125.0 1.103515625 -0.8702392578125
6289375000.0 0.25701904296875 -1.44378662109375
6320596875.0 -0.6888427734375 -1.205322265625
6351818750.0 -1.19842529296875 -0.57183837890625
6383040625.0 -1.35296630859375 0.2056884765625
6414262500.0 -0.998779296875 1.0557861328125
6445484375.0 -0.07891845703125 1.45556640625
6476706250.0 0.79205322265625 1.146728515625
6507928125.0 1.2886962890625 0.47076416015625
6539150000.0 1.3465576171875 -0.385498046875
6570371875.0 0.84100341796875 -1.141845703125
6601593750.0 -0.01678466796875 -1.40411376953125
6632815625.0 -0.83795166015625 -1.13592529296875
6664037500.0 -1.39947509765625 -0.42071533203125
6695259375.0 -1.3729248046875 0.5655517578125
6726481250.0 -0.71051025390625 1.25030517578125
6757703125.0 0.130126953125 1.40606689453125
6788925000.0 0.95428466796875 1.130126953125
6820146875.0 1.5592041015625 0.2877197265625
6851368750.0 1.32501220703125 -0.8173828125
6882590625.0 0.50634765625 -1.33642578125
6913812500.0 -0.29168701171875 -1.3551025390625
6945034375.0 -1.06793212890625 -1.02081298828125
6976256250.0 -1.59112548828125 -0.09356689453125
7007478125.0 -1.235107421875 0.931884765625
7038700000.0 -0.40264892578125 1.3416748046875
7069921875.0 0.35760498046875 1.3233642578125
7101143750.0 1.11663818359375 0.968505859375
7132365625.0 1.598388671875 0.0146484375
7163587500.0 1.15692138671875 -1.019775390625
7194809375.0 0.30322265625 -1.395263671875
7226031250.0 -0.5098876953125 -1.32501220703125
7257253125.0 -1.2647705078125 -0.823974609375
7288475000.0 -1.55645751953125 0.19696044921875
7319696875.0 -1.0291748046875 1.107177734375
7350918750.0 -0.16351318359375 1.44464111328125
7382140625.0 0.71441650390625 1.27581787109375
7413362500.0 1.37542724609375 0.576416015625
7444584375.0 1.41070556640625 -0.40570068359375
7475806250.0 0.85723876953125 -1.13983154296875
7507028125.0 0.00726318359375 -1.427734375
7538250000.0 -0.88372802734375 -1.12261962890625
7569471875.0 -1.3328857421875 -0.31231689453125
7600693750.0 -1.20166015625 0.49517822265625
7631915625.0 -0.71771240234375 1.0841064453125
7663137500.0 0.07867431640625 1.35675048828125
7694359375.0 0.93792724609375 0.97955322265625
7725581250.0 1.24200439453125 0.1826171875
7756803125.0 1.0816650390625 -0.4971923828125
7788025000.0 0.670166015625 -1.0413818359375
7819246875.0 -0.1201171875 -1.3465576171875
7850468750.0 -0.990447998046875 -0.915771484375
7881690625.0 -1.23046875 -0.10516357421875
7912912500.0 -1.05413818359375 0.55419921875
7944134375.0 -0.60577392578125 1.11181640625
7975356250.0 0.27056884765625 1.3343505859375
8006578125.0 1.04461669921875 0.77947998046875
8037800000.0 1.192626953125 0.01629638671875
8069021875.0 1.00640869140625 -0.615234375
8100243750.0 0.49993896484375 -1.15924072265625
8131465625.0 -0.38665771484375 -1.25347900390625
8162687500.0 -1.02886962890625 -0.6873779296875
8193909375.0 -1.17913818359375 0.00653076171875
8225131250.0 -1.01751708984375 0.67730712890625
8256353125.0 -0.42193603515625 1.24609375
8287575000.0 0.499755859375 1.22564697265625
8318796875.0 1.08160400390625 0.63507080078125
8350018750.0 1.24334716796875 -0.073974609375
8381240625.0 1.03082275390625 -0.83758544921875
8412462500.0 0.2547607421875 -1.37255859375
8443684375.0 -0.668212890625 -1.1689453125
8474906250.0 -1.17193603515625 -0.53204345703125
8506128125.0 -1.296875 0.236083984375
8537350000.0 -0.92333984375 1.0450439453125
8568571875.0 -0.016845703125 1.3936767578125
8599793750.0 0.80108642578125 1.0533447265625
8631015625.0 1.2425537109375 0.3983154296875
8662237500.0 1.283447265625 -0.42462158203125
8693459375.0 0.736083984375 -1.17633056640625
8724681250.0 -0.161865234375 -1.3304443359375
8755903125.0 -0.87896728515625 -0.957916259765625
8787125000.0 -1.301025390625 -0.2843017578125
8818346875.0 -1.25067138671875 0.6143798828125
8849568750.0 -0.5567626953125 1.25921630859375
8880790625.0 0.2978515625 1.28424072265625
8912012500.0 0.979705810546875 0.89312744140625
8943234375.0 1.40032958984375 0.129150390625
8974456250.0 1.165771484375 -0.83648681640625
9005678125.0 0.34954833984375 -1.30999755859375
9036900000.0 -0.442626953125 -1.22369384765625
9068121875.0 -1.0980224609375 -0.78594970703125
9099343750.0 -1.4390869140625 0.0970458984375
9130565625.0 -0.97979736328125 1.0087890625
9161787500.0 -0.15716552734375 1.27972412109375
9193009375.0 0.55279541015625 1.13287353515625
9224231250.0 1.1788330078125 0.654541015625
9255453125.0 1.39794921875 -0.29449462890625
9286675000.0 0.80645751953125 -1.0836181640625
9317896875.0 0.028076171875 -1.2454833984375
9349118750.0 -0.6539306640625 -1.0694580078125
9380340625.0 -1.257080078125 -0.509765625
9411562500.0 -1.310791015625 0.47698974609375
9442784375.0 -0.6478271484375 1.115966796875
9474006250.0 0.0880126953125 1.21075439453125
9505228125.0 0.764678955078125 0.9794921875
9536450000.0 1.27252197265625 0.31475830078125
9567671875.0 1.1439208984375 -0.58013916015625
9598893750.0 0.52947998046875 -1.06646728515625
9630115625.0 -0.1439208984375 -1.15655517578125
9661337500.0 -0.81805419921875 -0.902313232421875
9692559375.0 -1.2376708984375 -0.1900634765625
9723781250.0 -1.04302978515625 0.6033935546875
9755003125.0 -0.48675537109375 1.04815673828125
9786225000.0 0.196533203125 1.157958984375
9817446875.0 0.893402099609375 0.82720947265625
9848668750.0 1.19744873046875 0.07891845703125
9879890625.0 0.968109130859375 -0.614532470703125
9911112500.0 0.4522705078125 -1.0517578125
9942334375.0 -0.2669677734375 -1.15899658203125
9973556250.0 -0.942474365234375 -0.73858642578125
10004778125.0 -1.14605712890625 -0.017333984375
10036000000.0 -0.9434814453125 0.61474609375
10067221875.0 -0.4410400390625 1.09576416015625
10098443750.0 0.36962890625 1.18145751953125
10129665625.0 1.00103759765625 0.6435546875
10160887500.0 1.11932373046875 -0.0521240234375
10192109375.0 0.91729736328125 -0.66253662109375
10223331250.0 0.36083984375 -1.1531982421875
10254553125.0 -0.48638916015625 -1.11328125
10285775000.0 -0.9835205078125 -0.535858154296875
10316996875.0 -1.06671142578125 0.0762939453125
10348218750.0 -0.899810791015625 0.669769287109375
10379440625.0 -0.32244873046875 1.17437744140625
10410662500.0 0.52813720703125 1.0863037109375
10441884375.0 0.991119384765625 0.522216796875
10473106250.0 1.10882568359375 -0.08447265625
10504328125.0 0.9493408203125 -0.756866455078125
10535550000.0 0.23968505859375 -1.29412841796875
10566771875.0 -0.65570068359375 -1.0760498046875
10597993750.0 -1.08184814453125 -0.459228515625
10629215625.0 -1.1751708984375 0.2052001953125
10660437500.0 -0.886962890625 0.9530029296875
10691659375.0 -0.009521484375 1.33526611328125
10722881250.0 0.782928466796875 0.951080322265625
10754103125.0 1.11639404296875 0.324951171875
10785325000.0 1.1387939453125 -0.3658447265625
10816546875.0 0.70208740234375 -1.04815673828125
10847768750.0 -0.14471435546875 -1.22833251953125
10878990625.0 -0.803131103515625 -0.84423828125
10910212500.0 -1.1217041015625 -0.2462158203125
10941434375.0 -1.0972900390625 0.47674560546875
10972656250.0 -0.56927490234375 1.08331298828125
11003878125.0 0.21612548828125 1.17279052734375
11035100000.0 0.84716796875 0.822113037109375
11066321875.0 1.220947265625 0.174560546875
11097543750.0 1.0980224609375 -0.67559814453125
11128765625.0 0.3858642578125 -1.1988525390625
11159987500.0 -0.39422607421875 -1.139404296875
11191209375.0 -0.999114990234375 -0.702362060546875
11222431250.0 -1.2716064453125 0.09149169921875
11253653125.0 -0.858856201171875 0.8955078125
11284875000.0 -0.1148681640625 1.12615966796875
11316096875.0 0.51019287109375 0.95574951171875
11347318750.0 1.0010986328125 0.50201416015625
11378540625.0 1.11614990234375 -0.26727294921875
11409762500.0 0.635040283203125 -0.860260009765625
11440984375.0 0.036956787109375 -0.97772216796875
11472206250.0 -0.480377197265625 -0.850250244140625
11503428125.0 -0.951690673828125 -0.45684814453125
11534650000.0 -1.0689697265625 0.28704833984375
11565871875.0 -0.60150146484375 0.853271484375
11597093750.0 -0.019012451171875 0.990447998046875
11628315625.0 0.544403076171875 0.875457763671875
11659537500.0 1.05999755859375 0.3922119140625
11690759375.0 1.064208984375 -0.433349609375
11721981250.0 0.517120361328125 -0.9400634765625
11753203125.0 -0.10516357421875 -1.0355224609375
11784425000.0 -0.72283935546875 -0.808807373046875
11815646875.0 -1.09918212890625 -0.1517333984375
11846868750.0 -0.891204833984375 0.55023193359375
11878090625.0 -0.39093017578125 0.907806396484375
11909312500.0 0.18646240234375 0.983856201171875
11940534375.0 0.781494140625 0.69500732421875
11971756250.0 1.02496337890625 0.03997802734375
12002978125.0 0.807037353515625 -0.536895751953125
12034200000.0 0.38311767578125 -0.887420654296875
12065421875.0 -0.21307373046875 -1.0086669921875
12096643750.0 -0.847747802734375 -0.665557861328125
12127865625.0 -1.0330810546875 0.01666259765625
12159087500.0 -0.815185546875 0.574188232421875
12190309375.0 -0.37774658203125 0.974517822265625
12221531250.0 0.33978271484375 1.08831787109375
12252753125.0 0.97821044921875 0.58160400390625
12283975000.0 1.0538330078125 -0.12750244140625
12315196875.0 0.8004150390625 -0.674591064453125
12346418750.0 0.2816162109375 -1.0908203125
12377640625.0 -0.53753662109375 -1.0596923828125
12408862500.0 -1.03466796875 -0.4189453125
12440084375.0 -1.00762939453125 0.2244873046875
12471306250.0 -0.742095947265625 0.735626220703125
12502528125.0 -0.17987060546875 1.11920166015625
12533750000.0 0.620941162109375 0.99322509765625
12564971875.0 1.0406494140625 0.364501953125
12596193750.0 1.02899169921875 -0.2637939453125
12627415625.0 0.747528076171875 -0.83026123046875
12658637500.0 0.07928466796875 -1.207275390625
12689859375.0 -0.733978271484375 -0.966033935546875
12721081250.0 -1.11572265625 -0.306640625
12752303125.0 -1.09722900390625 0.38226318359375
12783525000.0 -0.68743896484375 1.02801513671875
12814746875.0 0.16485595703125 1.25079345703125
12845968750.0 0.862335205078125 0.810882568359375
12877190625.0 1.116943359375 0.1712646484375
12908412500.0 1.05517578125 -0.50225830078125
12939634375.0 0.5423583984375 -1.1160888671875
12970856250.0 -0.3201904296875 -1.17437744140625
13002078125.0 -0.892730712890625 -0.693572998046875
13033300000.0 -1.10491943359375 -0.08770751953125
13064521875.0 -1.0091552734375 0.59417724609375
13095743750.0 -0.4207763671875 1.1539306640625
13126965625.0 0.40863037109375 1.12115478515625
13158187500.0 0.946929931640625 0.63232421875
13189409375.0 1.14752197265625 -0.02227783203125
13220631250.0 0.9349365234375 -0.747711181640625
13251853125.0 0.234619140625 -1.17022705078125
13283075000.0 -0.50689697265625 -1.01953125
13314296875.0 -0.987518310546875 -0.529052734375
13345518750.0 -1.135986328125 0.1783447265625
