!Created with skrf (http://scikit-rf.org).
# Hz S RI R 50.0 
!freq ReS11 ImS11
45000000.0 -0.07733917236328125 -0.09675216674804688
76221875.0 -0.19732666015625 -0.04756927490234375
107443750.0 -0.255950927734375 0.1203765869140625
138665625.0 -0.1484222412109375 0.3298492431640625
169887500.0 0.1240234375 0.4187774658203125
201109375.0 0.4231719970703125 0.281982421875
232331250.0 0.58099365234375 -0.057769775390625
263553125.0 0.4912872314453125 -0.454803466796875
294775000.0 0.098388671875 -0.735565185546875
325996875.0 -0.417633056640625 -0.68353271484375
357218750.0 -0.810302734375 -0.29815673828125
388440625.0 -0.889678955078125 0.302703857421875
419662500.0 -0.518951416015625 0.8701171875
450884375.0 0.17401123046875 1.03265380859375
482106250.0 0.80169677734375 0.715118408203125
513328125.0 1.12371826171875 0.08709716796875
544550000.0 1.00689697265625 -0.68292236328125
575771875.0 0.337158203125 -1.2421875
606993750.0 -0.5556640625 -1.18115234375
638215625.0 -1.169921875 -0.59246826171875
669437500.0 -1.34417724609375 0.23443603515625
700659375.0 -0.97381591796875 1.09979248046875
731881250.0 -0.003662109375 1.54779052734375
763103125.0 1.00848388671875 1.1597900390625
794325000.0 1.47369384765625 0.282958984375
825546875.0 1.3719482421875 -0.654052734375
856768750.0 0.79669189453125 -1.40679931640625
887990625.0 -0.29449462890625 -1.65447998046875
919212500.0 -1.2939453125 -1.0828857421875
950434375.0 -1.65631103515625 -0.0582275390625
981656250.0 -1.387939453125 0.95050048828125
1012878125.0 -0.53131103515625 1.6793212890625
1044100000.0 0.70111083984375 1.66912841796875
1075321875.0 1.58258056640625 0.8145751953125
1106543750.0 1.7115478515625 -0.3153076171875
1137765625.0 1.1907958984375 -1.29022216796875
1168987500.0 0.13824462890625 -1.804443359375
1200209375.0 -1.06671142578125 -1.4898681640625
1231431250.0 -1.7353515625 -0.45458984375
1262653125.0 -1.60003662109375 0.6885986328125
1293875000.0 -0.8541259765625 1.4979248046875
1325096875.0 0.22918701171875 1.7130126953125
1356318750.0 1.2398681640625 1.22137451171875
1387540625.0 1.74658203125 0.18939208984375
1418762500.0 1.4749755859375 -0.955810546875
1449984375.0 0.53106689453125 -1.63226318359375
1481206250.0 -0.5526123046875 -1.56195068359375
1512428125.0 -1.34735107421875 -0.9227294921875
1543650000.0 -1.661865234375 0.06634521484375
1574871875.0 -1.2772216796875 1.11376953125
1606093750.0 -0.2730712890625 1.636962890625
1637315625.0 0.74578857421875 1.40496826171875
1668537500.0 1.4012451171875 0.697265625
1699759375.0 1.5780029296875 -0.2784423828125
1730981250.0 1.0670166015625 -1.23394775390625
1762203125.0 0.0416259765625 -1.5755615234375
1793425000.0 -0.85888671875 -1.2298583984375
1824646875.0 -1.39794921875 -0.51678466796875
1855868750.0 -1.479248046875 0.43341064453125
1887090625.0 -0.8782958984375 1.28948974609375
1918312500.0 0.11773681640625 1.49237060546875
1949534375.0 0.92523193359375 1.093017578125
1980756250.0 1.3798828125 0.3707275390625
2011978125.0 1.36419677734375 -0.5343017578125
2043200000.0 0.751953125 -1.266357421875
2074421875.0 -0.15826416015625 -1.43792724609375
2105643750.0 -0.96380615234375 -1.0758056640625
2136865625.0 -1.45196533203125 -0.30548095703125
2168087500.0 -1.36126708984375 0.67376708984375
2199309375.0 -0.6405029296875 1.35595703125
2230531250.0 0.28363037109375 1.4407958984375
2261753125.0 1.07598876953125 1.016357421875
2292975000.0 1.51873779296875 0.1700439453125
2324196875.0 1.30926513671875 -0.82208251953125
2355418750.0 0.52679443359375 -1.42413330078125
2386640625.0 -0.40606689453125 -1.45343017578125
2417862500.0 -1.18634033203125 -1.02783203125
2449084375.0 -1.611083984375 -0.082763671875
2480306250.0 -1.31591796875 0.93060302734375
2511528125.0 -0.494384765625 1.513916015625
2542750000.0 0.49102783203125 1.54150390625
2573971875.0 1.3775634765625 0.970458984375
2605193750.0 1.72418212890625 -0.11468505859375
2636415625.0 1.26544189453125 -1.1580810546875
2667637500.0 0.30731201171875 -1.6728515625
2698859375.0 -0.77276611328125 -1.5394287109375
2730081250.0 -1.58038330078125 -0.74212646484375
2761303125.0 -1.6865234375 0.39007568359375
2792525000.0 -1.1029052734375 1.3133544921875
2823746875.0 -0.10052490234375 1.73681640625
2854968750.0 1.01800537109375 1.46038818359375
2886190625.0 1.69891357421875 0.4925537109375
2917412500.0 1.606201171875 -0.622314453125
2948634375.0 0.9422607421875 -1.43963623046875
2979856250.0 -0.110595703125 -1.7835693359375
3011078125.0 -1.255615234375 -1.3463134765625
3042300000.0 -1.78289794921875 -0.23309326171875
3073521875.0 -1.51348876953125 0.84271240234375
3104743750.0 -0.765380859375 1.5743408203125
3135965625.0 0.3636474609375 1.81500244140625
3167187500.0 1.50518798828125 1.16766357421875
3198409375.0 1.8226318359375 -0.07659912109375
3229631250.0 1.3533935546875 -1.08758544921875
3260853125.0 0.4898681640625 -1.675537109375
3292075000.0 -0.66009521484375 -1.70416259765625
3323296875.0 -1.62713623046875 -0.88116455078125
3354518750.0 -1.73675537109375 0.3316650390625
3385740625.0 -1.15899658203125 1.23773193359375
3416962500.0 -0.23077392578125 1.6883544921875
3448184375.0 0.86541748046875 1.5269775390625
3479406250.0 1.642822265625 0.64508056640625
3510628125.0 1.64990234375 -0.497802734375
3541850000.0 1.0030517578125 -1.3619384765625
3573071875.0 -0.00897216796875 -1.68896484375
3604293750.0 -1.032958984375 -1.3411865234375
3635515625.0 -1.63458251953125 -0.43792724609375
3666737500.0 -1.56756591796875 0.64996337890625
3697959375.0 -0.8265380859375 1.4820556640625
3729181250.0 0.2718505859375 1.6370849609375
3760403125.0 1.1583251953125 1.1005859375
3791625000.0 1.55828857421875 0.21783447265625
3822846875.0 1.406494140625 -0.76629638671875
3854068750.0 0.620849609375 -1.486572265625
3885290625.0 -0.423828125 -1.48590087890625
3916512500.0 -1.1478271484375 -0.91314697265625
3947734375.0 -1.4527587890625 -0.11865234375
3978956250.0 -1.3016357421875 0.783447265625
4010178125.0 -0.53167724609375 1.46014404296875
4041400000.0 0.47674560546875 1.4193115234375
4072621875.0 1.15765380859375 0.84844970703125
4103843750.0 1.4501953125 0.061279296875
4135065625.0 1.27081298828125 -0.850830078125
4166287500.0 0.45770263671875 -1.5015869140625
4197509375.0 -0.5621337890625 -1.419921875
4228731250.0 -1.251953125 -0.8040771484375
4259953125.0 -1.5137939453125 0.07208251953125
4291175000.0 -1.19110107421875 1.0142822265625
4322396875.0 -0.28857421875 1.5323486328125
4353618750.0 0.67694091796875 1.3538818359375
4384840625.0 1.32781982421875 0.6973876953125
4416062500.0 1.505615234375 -0.23046875
4447284375.0 1.05712890625 -1.1083984375
4478506250.0 0.17132568359375 -1.50018310546875
4509728125.0 -0.73681640625 -1.31103515625
4540950000.0 -1.39849853515625 -0.63623046875
4572171875.0 -1.52734375 0.36407470703125
4603393750.0 -0.9739990234375 1.21832275390625
4634615625.0 -0.060302734375 1.5416259765625
4665837500.0 0.874755859375 1.30780029296875
4697059375.0 1.54705810546875 0.515625
4728281250.0 1.53350830078125 -0.58612060546875
4759503125.0 0.8240966796875 -1.37310791015625
4790725000.0 -0.14825439453125 -1.578125
4821946875.0 -1.08807373046875 -1.19647216796875
4853168750.0 -1.61962890625 -0.2501220703125
4884390625.0 -1.382080078125 0.7978515625
4915612500.0 -0.6138916015625 1.41766357421875
4946834375.0 0.33160400390625 1.513916015625
4978056250.0 1.21099853515625 1.01849365234375
5009278125.0 1.56732177734375 0.037109375
5040500000.0 1.23223876953125 -0.880126953125
5071721875.0 0.50103759765625 -1.41998291015625
5102943750.0 -0.45062255859375 -1.501220703125
5134165625.0 -1.3416748046875 -0.90679931640625
5165387500.0 -1.57244873046875 0.1478271484375
5196609375.0 -1.13836669921875 1.01470947265625
5227831250.0 -0.35723876953125 1.5115966796875
5259053125.0 0.69171142578125 1.4962158203125
5290275000.0 1.52679443359375 0.66387939453125
5321496875.0 1.49652099609375 -0.43359375
5352718750.0 0.92291259765625 -1.1585693359375
5383940625.0 0.09521484375 -1.50604248046875
5415162500.0 -0.90496826171875 -1.2869873046875
5446384375.0 -1.48870849609375 -0.3701171875
5477606250.0 -1.30242919921875 0.56927490234375
5508828125.0 -0.73236083984375 1.155029296875
5540050000.0 0.0550537109375 1.40289306640625
5571271875.0 0.94256591796875 1.111328125
5602493750.0 1.41278076171875 0.2596435546875
5633715625.0 1.2354736328125 -0.6160888671875
5664937500.0 0.648681640625 -1.2064208984375
5696159375.0 -0.198974609375 -1.387451171875
5727381250.0 -1.02587890625 -0.98095703125
5758603125.0 -1.3961181640625 -0.14434814453125
5789825000.0 -1.19744873046875 0.72149658203125
5821046875.0 -0.5064697265625 1.3125
5852268750.0 0.41534423828125 1.31732177734375
5883490625.0 1.07562255859375 0.7733154296875
5914712500.0 1.30706787109375 0.01788330078125
5945934375.0 1.09954833984375 -0.78045654296875
5977156250.0 0.3603515625 -1.31732177734375
6008378125.0 -0.5130615234375 -1.18536376953125
6039600000.0 -1.02593994140625 -0.650146484375
6070821875.0 -1.22705078125 -0.00323486328125
6102043750.0 -1.0858154296875 0.76593017578125
6133265625.0 -0.34112548828125 1.34912109375
6164487500.0 0.56610107421875 1.1903076171875
6195709375.0 1.07489013671875 0.630615234375
6226931250.0 1.28448486328125 -0.04534912109375
6258153125.0 1.107177734375 -0.87591552734375
6289375000.0 0.25439453125 -1.45220947265625
6320596875.0 -0.69305419921875 -1.20849609375
6351818750.0 -1.203857421875 -0.5718994140625
6383040625.0 -1.359130859375 0.2091064453125
6414262500.0 -1.0018310546875 1.06207275390625
6445484375.0 -0.07623291015625 1.46124267578125
6476706250.0 0.7996826171875 1.15045166015625
6507928125.0 1.29547119140625 0.46942138671875
6539150000.0 1.350830078125 -0.38970947265625
6570371875.0 0.84246826171875 -1.14862060546875
6601593750.0 -0.01959228515625 -1.4095458984375
6632815625.0 -0.84478759765625 -1.138671875
6664037500.0 -1.40679931640625 -0.4190673828125
6695259375.0 -1.37738037109375 0.57012939453125
6726481250.0 -0.71044921875 1.25592041015625
6757703125.0 0.13348388671875 1.41131591796875
6788925000.0 0.95965576171875 1.13311767578125
6820146875.0 1.5657958984375 0.28662109375
6851368750.0 1.329345703125 -0.824951171875
6882590625.0 0.50604248046875 -1.3436279296875
6913812500.0 -0.29510498046875 -1.36053466796875
6945034375.0 -1.0748291015625 -1.02374267578125
6976256250.0 -1.5986328125 -0.09033203125
7007478125.0 -1.23980712890625 0.9390869140625
7038700000.0 -0.40185546875 1.34844970703125
7069921875.0 0.364013671875 1.329833984375
7101143750.0 1.1258544921875 0.9700927734375
7132365625.0 1.60552978515625 0.0118408203125
7163587500.0 1.15887451171875 -1.02703857421875
7194809375.0 0.30120849609375 -1.40252685546875
7226031250.0 -0.51483154296875 -1.32958984375
7257253125.0 -1.2747802734375 -0.82501220703125
7288475000.0 -1.56536865234375 0.20367431640625
7319696875.0 -1.031982421875 1.11773681640625
7350918750.0 -0.16259765625 1.449951171875
7382140625.0 0.71893310546875 1.27886962890625
7413362500.0 1.38189697265625 0.576171875
7444584375.0 1.41668701171875 -0.41180419921875
7475806250.0 0.8599853515625 -1.14703369140625
7507028125.0 0.00347900390625 -1.435302734375
7538250000.0 -0.893798828125 -1.1265869140625
7569471875.0 -1.3419189453125 -0.309326171875
7600693750.0 -1.20556640625 0.5009765625
7631915625.0 -0.71844482421875 1.0919189453125
7663137500.0 0.0841064453125 1.36383056640625
7694359375.0 0.947357177734375 0.981964111328125
7725581250.0 1.247802734375 0.17987060546875
7756803125.0 1.08587646484375 -0.502685546875
7788025000.0 0.67132568359375 -1.047119140625
7819246875.0 -0.1226806640625 -1.352783203125
7850468750.0 -0.99957275390625 -0.917236328125
7881690625.0 -1.23687744140625 -0.10308837890625
7912912500.0 -1.05792236328125 0.55706787109375
7944134375.0 -0.6060791015625 1.11785888671875
7975356250.0 0.27593994140625 1.34100341796875
8006578125.0 1.0528564453125 0.77911376953125
8037800000.0 1.19915771484375 0.013427734375
8069021875.0 1.0098876953125 -0.6229248046875
8100243750.0 0.49847412109375 -1.16864013671875
8131465625.0 -0.392822265625 -1.25897216796875
8162687500.0 -1.0372314453125 -0.68597412109375
8193909375.0 -1.18505859375 0.0101318359375
8225131250.0 -1.02069091796875 0.682861328125
8256353125.0 -0.4212646484375 1.25537109375
8287575000.0 0.50469970703125 1.22955322265625
8318796875.0 1.08782958984375 0.63568115234375
8350018750.0 1.2490234375 -0.07806396484375
8381240625.0 1.03350830078125 -0.8455810546875
8412462500.0 0.25103759765625 -1.38104248046875
8443684375.0 -0.67578125 -1.17425537109375
8474906250.0 -1.18182373046875 -0.5318603515625
8506128125.0 -1.303466796875 0.24151611328125
8537350000.0 -0.92608642578125 1.05126953125
8568571875.0 -0.01312255859375 1.39862060546875
8599793750.0 0.8070068359375 1.0562744140625
8631015625.0 1.24908447265625 0.39678955078125
8662237500.0 1.29119873046875 -0.43475341796875
8693459375.0 0.73687744140625 -1.18463134765625
8724681250.0 -0.1663818359375 -1.33660888671875
8755903125.0 -0.884613037109375 -0.9600830078125
8787125000.0 -1.30950927734375 -0.2808837890625
8818346875.0 -1.255615234375 0.62237548828125
8849568750.0 -0.55645751953125 1.2666015625
8880790625.0 0.30255126953125 1.2896728515625
8912012500.0 0.9874267578125 0.893096923828125
8943234375.0 1.40643310546875 0.12567138671875
8974456250.0 1.16998291015625 -0.846923828125
9005678125.0 0.34619140625 -1.3211669921875
9036900000.0 -0.450927734375 -1.22967529296875
9068121875.0 -1.10858154296875 -0.78594970703125
9099343750.0 -1.44500732421875 0.1016845703125
9130565625.0 -0.9808349609375 1.01837158203125
9161787500.0 -0.15264892578125 1.287841796875
9193009375.0 0.5606689453125 1.13739013671875
9224231250.0 1.18585205078125 0.65557861328125
9255453125.0 1.404541015625 -0.3018798828125
9286675000.0 0.80694580078125 -1.0906982421875
9317896875.0 0.024658203125 -1.250732421875
9349118750.0 -0.6590576171875 -1.07373046875
9380340625.0 -1.2655029296875 -0.5079345703125
9411562500.0 -1.31500244140625 0.48284912109375
9442784375.0 -0.6473388671875 1.12261962890625
9474006250.0 0.09185791015625 1.2156982421875
9505228125.0 0.77056884765625 0.982635498046875
9536450000.0 1.27996826171875 0.31103515625
9567671875.0 1.1474609375 -0.586181640625
9598893750.0 0.529296875 -1.07391357421875
9630115625.0 -0.1473388671875 -1.1624755859375
9661337500.0 -0.8232421875 -0.903472900390625
9692559375.0 -1.24407958984375 -0.188232421875
9723781250.0 -1.046630859375 0.60711669921875
9755003125.0 -0.48419189453125 1.05596923828125
9786225000.0 0.2025146484375 1.1646728515625
9817446875.0 0.901031494140625 0.829681396484375
9848668750.0 1.203125 0.07415771484375
9879890625.0 0.970367431640625 -0.623199462890625
9911112500.0 0.45111083984375 -1.05731201171875
9942334375.0 -0.270751953125 -1.16290283203125
9973556250.0 -0.949859619140625 -0.738494873046875
10004778125.0 -1.151123046875 -0.013671875
10036000000.0 -0.94647216796875 0.62115478515625
10067221875.0 -0.44073486328125 1.100830078125
10098443750.0 0.37481689453125 1.18548583984375
10129665625.0 1.0098876953125 0.6419677734375
10160887500.0 1.1240234375 -0.05511474609375
10192109375.0 0.92034912109375 -0.667999267578125
10223331250.0 0.35968017578125 -1.15850830078125
10254553125.0 -0.4906005859375 -1.11651611328125
10285775000.0 -0.9913330078125 -0.533416748046875
10316996875.0 -1.07025146484375 0.07952880859375
10348218750.0 -0.9022216796875 0.676849365234375
10379440625.0 -0.31976318359375 1.18145751953125
10410662500.0 0.53204345703125 1.08782958984375
10441884375.0 0.99676513671875 0.5206298828125
10473106250.0 1.1124267578125 -0.08697509765625
10504328125.0 0.950836181640625 -0.76239013671875
10535550000.0 0.23614501953125 -1.30145263671875
10566771875.0 -0.6636962890625 -1.0791015625
10597993750.0 -1.0872802734375 -0.45709228515625
10629215625.0 -1.17828369140625 0.20806884765625
10660437500.0 -0.888641357421875 0.95648193359375
10691659375.0 -0.00640869140625 1.3406982421875
10722881250.0 0.79180908203125 0.953704833984375
10754103125.0 1.1256103515625 0.322021484375
10785325000.0 1.1427001953125 -0.3712158203125
10816546875.0 0.70062255859375 -1.05438232421875
10847768750.0 -0.14874267578125 -1.2333984375
10878990625.0 -0.809967041015625 -0.844451904296875
10910212500.0 -1.12554931640625 -0.24444580078125
10941434375.0 -1.1002197265625 0.48187255859375
10972656250.0 -0.56695556640625 1.092041015625
11003878125.0 0.22216796875 1.17840576171875
11035100000.0 0.85345458984375 0.823028564453125
11066321875.0 1.225830078125 0.1717529296875
11097543750.0 1.1005859375 -0.683349609375
11128765625.0 0.3829345703125 -1.20562744140625
11159987500.0 -0.4012451171875 -1.14300537109375
11191209375.0 -1.00634765625 -0.70269775390625
11222431250.0 -1.2774658203125 0.0960693359375
11253653125.0 -0.85919189453125 0.899993896484375
11284875000.0 -0.1123046875 1.13037109375
11316096875.0 0.516693115234375 0.95880126953125
11347318750.0 1.00860595703125 0.5013427734375
11378540625.0 1.119384765625 -0.272705078125
11409762500.0 0.6343994140625 -0.864715576171875
11440984375.0 0.032623291015625 -0.98370361328125
11472206250.0 -0.486328125 -0.852325439453125
11503428125.0 -0.959197998046875 -0.45538330078125
11534650000.0 -1.07080078125 0.29248046875
11565871875.0 -0.602203369140625 0.85931396484375
11597093750.0 -0.015716552734375 0.996063232421875
11628315625.0 0.5489501953125 0.878509521484375
11659537500.0 1.067138671875 0.39019775390625
11690759375.0 1.06671142578125 -0.4388427734375
11721981250.0 0.516510009765625 -0.9461669921875
11753203125.0 -0.10845947265625 -1.0406494140625
11784425000.0 -0.729766845703125 -0.81048583984375
11815646875.0 -1.1055908203125 -0.14813232421875
11846868750.0 -0.8931884765625 0.55682373046875
11878090625.0 -0.390960693359375 0.91351318359375
11909312500.0 0.19146728515625 0.98876953125
11940534375.0 0.786895751953125 0.6953125
11971756250.0 1.029052734375 0.0357666015625
12002978125.0 0.807525634765625 -0.54248046875
12034200000.0 0.380950927734375 -0.892547607421875
12065421875.0 -0.21929931640625 -1.01318359375
12096643750.0 -0.853179931640625 -0.664642333984375
12127865625.0 -1.03765869140625 0.019775390625
12159087500.0 -0.815765380859375 0.57916259765625
12190309375.0 -0.376739501953125 0.981109619140625
12221531250.0 0.34503173828125 1.0919189453125
12252753125.0 0.986297607421875 0.57989501953125
12283975000.0 1.0589599609375 -0.13262939453125
12315196875.0 0.80145263671875 -0.6805419921875
12346418750.0 0.28021240234375 -1.0965576171875
12377640625.0 -0.5439453125 -1.06304931640625
12408862500.0 -1.03863525390625 -0.41827392578125
12440084375.0 -1.01043701171875 0.2275390625
12471306250.0 -0.74249267578125 0.7431640625
12502528125.0 -0.17724609375 1.12554931640625
12533750000.0 0.6253662109375 0.99481201171875
12564971875.0 1.0478515625 0.3616943359375
12596193750.0 1.0323486328125 -0.268310546875
12627415625.0 0.748870849609375 -0.834197998046875
12658637500.0 0.07598876953125 -1.2132568359375
12689859375.0 -0.742950439453125 -0.9669189453125
12721081250.0 -1.122802734375 -0.30328369140625
12752303125.0 -1.10040283203125 0.3863525390625
12783525000.0 -0.68743896484375 1.033935546875
12814746875.0 0.16998291015625 1.255615234375
12845968750.0 0.869720458984375 0.811065673828125
12877190625.0 1.122314453125 0.1700439453125
12908412500.0 1.059326171875 -0.5079345703125
12939634375.0 0.54095458984375 -1.124755859375
12970856250.0 -0.328369140625 -1.1788330078125
13002078125.0 -0.90155029296875 -0.6925048828125
13033300000.0 -1.11041259765625 -0.08343505859375
13064521875.0 -1.01068115234375 0.599853515625
13095743750.0 -0.41741943359375 1.16217041015625
13126965625.0 0.4149169921875 1.12322998046875
13158187500.0 0.952423095703125 0.631072998046875
13189409375.0 1.15399169921875 -0.0250244140625
13220631250.0 0.937255859375 -0.7572021484375
13251853125.0 0.23150634765625 -1.17645263671875
13283075000.0 -0.51263427734375 -1.02166748046875
13314296875.0 -0.9937744140625 -0.527496337890625
13345518750.0 -1.1407470703125 0.182861328125
13376740625.0 -0.75311279296875 0.865234375
