!Created with skrf (http://scikit-rf.org).
# Hz S RI R 50.0 
!freq ReS11 ImS11
45000000.0 -0.07667160034179688 -0.097259521484375
76221875.0 -0.19692230224609375 -0.0482635498046875
107443750.0 -0.25604248046875 0.119415283203125
138665625.0 -0.1493988037109375 0.3292236328125
169887500.0 0.122711181640625 0.4190521240234375
201109375.0 0.422210693359375 0.28302001953125
232331250.0 0.580718994140625 -0.055999755859375
263553125.0 0.4921417236328125 -0.4527435302734375
294775000.0 0.100921630859375 -0.734344482421875
325996875.0 -0.414794921875 -0.684173583984375
357218750.0 -0.80828857421875 -0.300628662109375
388440625.0 -0.88958740234375 0.29925537109375
419662500.0 -0.521514892578125 0.86767578125
450884375.0 0.17034912109375 1.03240966796875
482106250.0 0.798736572265625 0.7171630859375
513328125.0 1.12249755859375 0.09075927734375
544550000.0 1.00830078125 -0.6788330078125
575771875.0 0.3408203125 -1.23992919921875
606993750.0 -0.55157470703125 -1.181884765625
638215625.0 -1.16717529296875 -0.5955810546875
669437500.0 -1.34375 0.2303466796875
700659375.0 -0.976318359375 1.0960693359375
731881250.0 -0.008544921875 1.54693603515625
763103125.0 1.0045166015625 1.16204833984375
794325000.0 1.47210693359375 0.287109375
825546875.0 1.37274169921875 -0.649169921875
856768750.0 0.80035400390625 -1.40264892578125
887990625.0 -0.2889404296875 -1.65411376953125
919212500.0 -1.28924560546875 -1.08575439453125
950434375.0 -1.65411376953125 -0.06353759765625
981656250.0 -1.38970947265625 0.94561767578125
1012878125.0 -0.535888671875 1.6761474609375
1044100000.0 0.69512939453125 1.66949462890625
1075321875.0 1.578125 0.819091796875
1106543750.0 1.7115478515625 -0.30975341796875
1137765625.0 1.194091796875 -1.28448486328125
1168987500.0 0.1439208984375 -1.802734375
1200209375.0 -1.06109619140625 -1.49176025390625
1231431250.0 -1.731689453125 -0.4595947265625
1262653125.0 -1.60052490234375 0.68243408203125
1293875000.0 -0.858642578125 1.4932861328125
1325096875.0 0.2235107421875 1.7122802734375
1356318750.0 1.23583984375 1.22412109375
1387540625.0 1.74462890625 0.19482421875
1418762500.0 1.4766845703125 -0.950439453125
1449984375.0 0.5357666015625 -1.62933349609375
1481206250.0 -0.54693603515625 -1.56231689453125
1512428125.0 -1.34393310546875 -0.92572021484375
1543650000.0 -1.6607666015625 0.06121826171875
1574871875.0 -1.27996826171875 1.10858154296875
1606093750.0 -0.2779541015625 1.63525390625
1637315625.0 0.74066162109375 1.40643310546875
1668537500.0 1.398193359375 0.701416015625
1699759375.0 1.57806396484375 -0.2734375
1730981250.0 1.07012939453125 -1.22979736328125
1762203125.0 0.04656982421875 -1.574462890625
1793425000.0 -0.8543701171875 -1.2318115234375
1824646875.0 -1.395751953125 -0.52001953125
1855868750.0 -1.47894287109375 0.42913818359375
1887090625.0 -0.88079833984375 1.28643798828125
1918312500.0 0.11383056640625 1.49139404296875
1949534375.0 0.921142578125 1.09454345703125
1980756250.0 1.37774658203125 0.3746337890625
2011978125.0 1.3648681640625 -0.52960205078125
2043200000.0 0.75506591796875 -1.2626953125
2074421875.0 -0.15380859375 -1.4376220703125
2105643750.0 -0.96002197265625 -1.07781982421875
2136865625.0 -1.4505615234375 -0.3089599609375
2168087500.0 -1.3621826171875 0.66937255859375
2199309375.0 -0.64404296875 1.35369873046875
2230531250.0 0.27923583984375 1.4405517578125
2261753125.0 1.07330322265625 1.01910400390625
2292975000.0 1.51788330078125 0.17437744140625
2324196875.0 1.31072998046875 -0.81744384765625
2355418750.0 0.5299072265625 -1.42218017578125
2386640625.0 -0.40155029296875 -1.45330810546875
2417862500.0 -1.181884765625 -1.03009033203125
2449084375.0 -1.6090087890625 -0.08746337890625
2480306250.0 -1.31707763671875 0.9246826171875
2511528125.0 -0.498779296875 1.50982666015625
2542750000.0 0.48681640625 1.54180908203125
2573971875.0 1.37261962890625 0.9742431640625
2605193750.0 1.72210693359375 -0.1085205078125
2636415625.0 1.26806640625 -1.1534423828125
2667637500.0 0.3106689453125 -1.67120361328125
2698859375.0 -0.768310546875 -1.539794921875
2730081250.0 -1.57733154296875 -0.74615478515625
2761303125.0 -1.686767578125 0.38555908203125
2792525000.0 -1.10546875 1.30859375
2823746875.0 -0.1065673828125 1.734375
2854968750.0 1.012451171875 1.46295166015625
2886190625.0 1.69696044921875 0.49658203125
2917412500.0 1.6058349609375 -0.61590576171875
2948634375.0 0.9454345703125 -1.4365234375
2979856250.0 -0.10406494140625 -1.7813720703125
3011078125.0 -1.2484130859375 -1.3482666015625
3042300000.0 -1.7794189453125 -0.23919677734375
3073521875.0 -1.51513671875 0.83819580078125
3104743750.0 -0.76849365234375 1.57061767578125
3135965625.0 0.35968017578125 1.815185546875
3167187500.0 1.5009765625 1.170654296875
3198409375.0 1.821044921875 -0.07122802734375
3229631250.0 1.35498046875 -1.0809326171875
3260853125.0 0.494873046875 -1.67108154296875
3292075000.0 -0.65313720703125 -1.70458984375
3323296875.0 -1.6212158203125 -0.8861083984375
3354518750.0 -1.7364501953125 0.3260498046875
3385740625.0 -1.1617431640625 1.23333740234375
3416962500.0 -0.236083984375 1.68560791015625
3448184375.0 0.8599853515625 1.5274658203125
3479406250.0 1.63946533203125 0.64971923828125
3510628125.0 1.6495361328125 -0.492431640625
3541850000.0 1.00543212890625 -1.3568115234375
3573071875.0 -0.0037841796875 -1.6868896484375
3604293750.0 -1.0284423828125 -1.3427734375
3635515625.0 -1.63140869140625 -0.442626953125
3666737500.0 -1.56732177734375 0.64520263671875
3697959375.0 -0.83087158203125 1.478271484375
3729181250.0 0.26544189453125 1.6353759765625
3760403125.0 1.15399169921875 1.1033935546875
3791625000.0 1.5562744140625 0.2225341796875
3822846875.0 1.407470703125 -0.75933837890625
3854068750.0 0.62548828125 -1.48419189453125
3885290625.0 -0.420166015625 -1.48638916015625
3916512500.0 -1.1429443359375 -0.9158935546875
3947734375.0 -1.45123291015625 -0.1236572265625
3978956250.0 -1.30267333984375 0.7789306640625
4010178125.0 -0.53546142578125 1.45819091796875
4041400000.0 0.4727783203125 1.41998291015625
4072621875.0 1.15313720703125 0.85101318359375
4103843750.0 1.44744873046875 0.06671142578125
4135065625.0 1.2723388671875 -0.84625244140625
4166287500.0 0.4610595703125 -1.49951171875
4197509375.0 -0.55792236328125 -1.41961669921875
4228731250.0 -1.24993896484375 -0.8065185546875
4259953125.0 -1.51220703125 0.06829833984375
4291175000.0 -1.19317626953125 1.009521484375
4322396875.0 -0.29315185546875 1.52899169921875
4353618750.0 0.6719970703125 1.35443115234375
4384840625.0 1.32342529296875 0.70135498046875
4416062500.0 1.505615234375 -0.22540283203125
4447284375.0 1.0599365234375 -1.1046142578125
4478506250.0 0.17529296875 -1.49884033203125
4509728125.0 -0.73284912109375 -1.31207275390625
4540950000.0 -1.395751953125 -0.64007568359375
4572171875.0 -1.5272216796875 0.3602294921875
4603393750.0 -0.9759521484375 1.2159423828125
4634615625.0 -0.06329345703125 1.54107666015625
4665837500.0 0.87066650390625 1.3089599609375
4697059375.0 1.5450439453125 0.51837158203125
4728281250.0 1.53326416015625 -0.5821533203125
4759503125.0 0.82696533203125 -1.36920166015625
4790725000.0 -0.14410400390625 -1.57696533203125
4821946875.0 -1.08392333984375 -1.1988525390625
4853168750.0 -1.6165771484375 -0.25482177734375
4884390625.0 -1.38330078125 0.7935791015625
4915612500.0 -0.6170654296875 1.41552734375
4946834375.0 0.32720947265625 1.51446533203125
4978056250.0 1.20654296875 1.021728515625
5009278125.0 1.56597900390625 0.0416259765625
5040500000.0 1.233154296875 -0.87591552734375
5071721875.0 0.50482177734375 -1.41815185546875
5102943750.0 -0.4462890625 -1.50189208984375
5134165625.0 -1.33831787109375 -0.90966796875
5165387500.0 -1.57257080078125 0.14495849609375
5196609375.0 -1.14044189453125 1.0107421875
5227831250.0 -0.36004638671875 1.509765625
5259053125.0 0.6876220703125 1.49652099609375
5290275000.0 1.52545166015625 0.6658935546875
5321496875.0 1.49591064453125 -0.4295654296875
5352718750.0 0.9249267578125 -1.1539306640625
5383940625.0 0.09918212890625 -1.50384521484375
5415162500.0 -0.90142822265625 -1.2884521484375
5446384375.0 -1.48760986328125 -0.37335205078125
5477606250.0 -1.302978515625 0.56585693359375
5508828125.0 -0.73516845703125 1.15313720703125
5540050000.0 0.05242919921875 1.40325927734375
5571271875.0 0.9388427734375 1.1129150390625
5602493750.0 1.41241455078125 0.2623291015625
5633715625.0 1.23651123046875 -0.61334228515625
5664937500.0 0.65093994140625 -1.20428466796875
5696159375.0 -0.19598388671875 -1.3876953125
5727381250.0 -1.0240478515625 -0.98199462890625
5758603125.0 -1.3956298828125 -0.1463623046875
5789825000.0 -1.197998046875 0.71893310546875
5821046875.0 -0.50885009765625 1.3099365234375
5852268750.0 0.4119873046875 1.31640625
5883490625.0 1.07354736328125 0.7750244140625
5914712500.0 1.30615234375 0.021240234375
5945934375.0 1.100341796875 -0.77703857421875
5977156250.0 0.36334228515625 -1.31585693359375
6008378125.0 -0.510009765625 -1.18609619140625
6039600000.0 -1.02288818359375 -0.65155029296875
6070821875.0 -1.22796630859375 -0.00579833984375
6102043750.0 -1.08734130859375 0.763671875
6133265625.0 -0.34381103515625 1.34912109375
6164487500.0 0.563720703125 1.19085693359375
6195709375.0 1.072265625 0.6324462890625
6226931250.0 1.28350830078125 -0.0411376953125
6258153125.0 1.1083984375 -0.87347412109375
6289375000.0 0.25677490234375 -1.45013427734375
6320596875.0 -0.69061279296875 -1.2088623046875
6351818750.0 -1.20245361328125 -0.57391357421875
6383040625.0 -1.3582763671875 0.20660400390625
6414262500.0 -1.00286865234375 1.05865478515625
6445484375.0 -0.07940673828125 1.46063232421875
6476706250.0 0.79730224609375 1.15130615234375
6507928125.0 1.29266357421875 0.472900390625
6539150000.0 1.3516845703125 -0.3868408203125
6570371875.0 0.84429931640625 -1.145263671875
6601593750.0 -0.0159912109375 -1.40838623046875
6632815625.0 -0.8406982421875 -1.1402587890625
6664037500.0 -1.40380859375 -0.42230224609375
6695259375.0 -1.37811279296875 0.5679931640625
6726481250.0 -0.71246337890625 1.25439453125
6757703125.0 0.12957763671875 1.41064453125
6788925000.0 0.95672607421875 1.1346435546875
6820146875.0 1.564697265625 0.289306640625
6851368750.0 1.32904052734375 -0.81982421875
6882590625.0 0.50823974609375 -1.3416748046875
6913812500.0 -0.29180908203125 -1.3599853515625
6945034375.0 -1.07232666015625 -1.02557373046875
6976256250.0 -1.5966796875 -0.0948486328125
7007478125.0 -1.24066162109375 0.93365478515625
7038700000.0 -0.40484619140625 1.3463134765625
7069921875.0 0.35797119140625 1.32720947265625
7101143750.0 1.119873046875 0.97259521484375
7132365625.0 1.60205078125 0.016845703125
7163587500.0 1.16192626953125 -1.0224609375
7194809375.0 0.3052978515625 -1.40234375
7226031250.0 -0.5113525390625 -1.3302001953125
7257253125.0 -1.27197265625 -0.82763671875
7288475000.0 -1.5626220703125 0.1986083984375
7319696875.0 -1.033447265625 1.11285400390625
7350918750.0 -0.16552734375 1.44989013671875
7382140625.0 0.71771240234375 1.28125
7413362500.0 1.382080078125 0.5775146484375
7444584375.0 1.41546630859375 -0.40740966796875
7475806250.0 0.8603515625 -1.1448974609375
7507028125.0 0.0072021484375 -1.43341064453125
7538250000.0 -0.8890380859375 -1.1275634765625
7569471875.0 -1.3399658203125 -0.312744140625
7600693750.0 -1.20587158203125 0.497314453125
7631915625.0 -0.72064208984375 1.0882568359375
7663137500.0 0.07958984375 1.36322021484375
7694359375.0 0.942108154296875 0.985137939453125
7725581250.0 1.24835205078125 0.18182373046875
7756803125.0 1.0867919921875 -0.49957275390625
7788025000.0 0.67364501953125 -1.04736328125
7819246875.0 -0.12030029296875 -1.3526611328125
7850468750.0 -0.995269775390625 -0.9190673828125
7881690625.0 -1.23516845703125 -0.10687255859375
7912912500.0 -1.05859375 0.556396484375
7944134375.0 -0.60772705078125 1.11627197265625
7975356250.0 0.2734375 1.33892822265625
8006578125.0 1.04925537109375 0.78070068359375
8037800000.0 1.19622802734375 0.017333984375
8069021875.0 1.00982666015625 -0.61712646484375
8100243750.0 0.501708984375 -1.16558837890625
8131465625.0 -0.39044189453125 -1.2589111328125
8162687500.0 -1.0340576171875 -0.68817138671875
8193909375.0 -1.18377685546875 0.007080078125
8225131250.0 -1.02239990234375 0.6793212890625
8256353125.0 -0.4224853515625 1.254150390625
8287575000.0 0.50177001953125 1.22930908203125
8318796875.0 1.08544921875 0.63751220703125
8350018750.0 1.2503662109375 -0.07586669921875
8381240625.0 1.03564453125 -0.84185791015625
8412462500.0 0.2545166015625 -1.37823486328125
8443684375.0 -0.67333984375 -1.1737060546875
8474906250.0 -1.17901611328125 -0.5333251953125
8506128125.0 -1.3033447265625 0.23919677734375
8537350000.0 -0.92669677734375 1.04986572265625
8568571875.0 -0.01605224609375 1.39886474609375
8599793750.0 0.8043212890625 1.05657958984375
8631015625.0 1.2471923828125 0.3992919921875
8662237500.0 1.28857421875 -0.4290771484375
8693459375.0 0.7391357421875 -1.17926025390625
8724681250.0 -0.16314697265625 -1.3360595703125
8755903125.0 -0.881378173828125 -0.962066650390625
8787125000.0 -1.30712890625 -0.2835693359375
8818346875.0 -1.2564697265625 0.61798095703125
8849568750.0 -0.5582275390625 1.26513671875
8880790625.0 0.29852294921875 1.28948974609375
8912012500.0 0.984710693359375 0.895111083984375
8943234375.0 1.40606689453125 0.1278076171875
8974456250.0 1.16986083984375 -0.8431396484375
9005678125.0 0.3487548828125 -1.31842041015625
9036900000.0 -0.4471435546875 -1.22821044921875
9068121875.0 -1.10748291015625 -0.78778076171875
9099343750.0 -1.44622802734375 0.10052490234375
9130565625.0 -0.9810791015625 1.014892578125
9161787500.0 -0.15478515625 1.286376953125
9193009375.0 0.55523681640625 1.13653564453125
9224231250.0 1.183837890625 0.65789794921875
9255453125.0 1.40509033203125 -0.29608154296875
9286675000.0 0.81146240234375 -1.087158203125
9317896875.0 0.02728271484375 -1.251220703125
9349118750.0 -0.65814208984375 -1.0736083984375
9380340625.0 -1.26275634765625 -0.5123291015625
9411562500.0 -1.31585693359375 0.479248046875
9442784375.0 -0.649658203125 1.1212158203125
9474006250.0 0.08953857421875 1.21551513671875
9505228125.0 0.769622802734375 0.98394775390625
9536450000.0 1.278564453125 0.31292724609375
9567671875.0 1.14678955078125 -0.58245849609375
9598893750.0 0.530517578125 -1.0721435546875
9630115625.0 -0.14501953125 -1.16168212890625
9661337500.0 -0.82244873046875 -0.90472412109375
9692559375.0 -1.2423095703125 -0.18994140625
9723781250.0 -1.04571533203125 0.60650634765625
9755003125.0 -0.48687744140625 1.0552978515625
9786225000.0 0.20037841796875 1.16357421875
9817446875.0 0.900360107421875 0.83074951171875
9848668750.0 1.2015380859375 0.07708740234375
9879890625.0 0.97137451171875 -0.618804931640625
9911112500.0 0.45343017578125 -1.05572509765625
9942334375.0 -0.26873779296875 -1.16314697265625
9973556250.0 -0.947052001953125 -0.73956298828125
10004778125.0 -1.14990234375 -0.0152587890625
10036000000.0 -0.94769287109375 0.620269775390625
10067221875.0 -0.44244384765625 1.10150146484375
10098443750.0 0.37493896484375 1.185546875
10129665625.0 1.0084228515625 0.6435546875
10160887500.0 1.12457275390625 -0.05438232421875
10192109375.0 0.918914794921875 -0.665740966796875
10223331250.0 0.36199951171875 -1.15625
10254553125.0 -0.48944091796875 -1.11572265625
10285775000.0 -0.987274169921875 -0.53631591796875
10316996875.0 -1.0703125 0.0775146484375
10348218750.0 -0.90228271484375 0.672760009765625
10379440625.0 -0.32135009765625 1.18023681640625
10410662500.0 0.528076171875 1.088623046875
10441884375.0 0.995208740234375 0.523284912109375
10473106250.0 1.11370849609375 -0.085693359375
10504328125.0 0.951568603515625 -0.759521484375
10535550000.0 0.23931884765625 -1.29949951171875
10566771875.0 -0.65924072265625 -1.079345703125
10597993750.0 -1.0830078125 -0.46014404296875
10629215625.0 -1.18011474609375 0.20733642578125
10660437500.0 -0.88897705078125 0.953948974609375
10691659375.0 -0.00762939453125 1.33892822265625
10722881250.0 0.7877197265625 0.954132080078125
10754103125.0 1.12274169921875 0.3253173828125
10785325000.0 1.14495849609375 -0.37103271484375
10816546875.0 0.7020263671875 -1.052001953125
10847768750.0 -0.14794921875 -1.23291015625
10878990625.0 -0.80645751953125 -0.845367431640625
10910212500.0 -1.12701416015625 -0.245849609375
10941434375.0 -1.1011962890625 0.48004150390625
10972656250.0 -0.5689697265625 1.090087890625
11003878125.0 0.2186279296875 1.17755126953125
11035100000.0 0.85125732421875 0.82427978515625
11066321875.0 1.22381591796875 0.1751708984375
11097543750.0 1.10137939453125 -0.6798095703125
11128765625.0 0.38616943359375 -1.20330810546875
11159987500.0 -0.39862060546875 -1.14312744140625
11191209375.0 -1.00482177734375 -0.70416259765625
11222431250.0 -1.27764892578125 0.0948486328125
11253653125.0 -0.859893798828125 0.897003173828125
11284875000.0 -0.11322021484375 1.1300048828125
11316096875.0 0.51324462890625 0.959075927734375
11347318750.0 1.00653076171875 0.5032958984375
11378540625.0 1.1214599609375 -0.27252197265625
11409762500.0 0.63555908203125 -0.863372802734375
11440984375.0 0.03680419921875 -0.97955322265625
11472206250.0 -0.482025146484375 -0.852630615234375
11503428125.0 -0.957611083984375 -0.4583740234375
11534650000.0 -1.0714111328125 0.29010009765625
11565871875.0 -0.602630615234375 0.858001708984375
11597093750.0 -0.017547607421875 0.99481201171875
11628315625.0 0.5478515625 0.878875732421875
11659537500.0 1.0648193359375 0.39312744140625
11690759375.0 1.06866455078125 -0.43798828125
11721981250.0 0.517333984375 -0.944183349609375
11753203125.0 -0.1064453125 -1.04010009765625
11784425000.0 -0.72821044921875 -0.810882568359375
11815646875.0 -1.1046142578125 -0.149658203125
11846868750.0 -0.893707275390625 0.55523681640625
11878090625.0 -0.391357421875 0.910369873046875
11909312500.0 0.188568115234375 0.987457275390625
11940534375.0 0.785186767578125 0.69598388671875
11971756250.0 1.028564453125 0.0377197265625
12002978125.0 0.80810546875 -0.5404052734375
12034200000.0 0.38201904296875 -0.893218994140625
12065421875.0 -0.21783447265625 -1.01361083984375
12096643750.0 -0.853271484375 -0.66558837890625
12127865625.0 -1.037109375 0.01837158203125
12159087500.0 -0.816650390625 0.57806396484375
12190309375.0 -0.37750244140625 0.979156494140625
12221531250.0 0.3421630859375 1.0914306640625
12252753125.0 0.983917236328125 0.5814208984375
12283975000.0 1.05596923828125 -0.12969970703125
12315196875.0 0.801849365234375 -0.678955078125
12346418750.0 0.2813720703125 -1.0963134765625
12377640625.0 -0.54302978515625 -1.06329345703125
12408862500.0 -1.03826904296875 -0.41937255859375
12440084375.0 -1.0113525390625 0.226806640625
12471306250.0 -0.74298095703125 0.73907470703125
12502528125.0 -0.17938232421875 1.1241455078125
12533750000.0 0.62481689453125 0.9957275390625
12564971875.0 1.04425048828125 0.36328125
12596193750.0 1.0322265625 -0.26678466796875
12627415625.0 0.750457763671875 -0.83270263671875
12658637500.0 0.0789794921875 -1.210693359375
12689859375.0 -0.740447998046875 -0.968353271484375
12721081250.0 -1.12188720703125 -0.30633544921875
12752303125.0 -1.1014404296875 0.38531494140625
12783525000.0 -0.6876220703125 1.031494140625
12814746875.0 0.168701171875 1.255126953125
12845968750.0 0.866546630859375 0.812530517578125
12877190625.0 1.121826171875 0.17041015625
12908412500.0 1.05908203125 -0.5052490234375
12939634375.0 0.5428466796875 -1.1202392578125
12970856250.0 -0.32379150390625 -1.1783447265625
13002078125.0 -0.898223876953125 -0.694122314453125
13033300000.0 -1.10931396484375 -0.08612060546875
13064521875.0 -1.0120849609375 0.598388671875
13095743750.0 -0.41912841796875 1.1591796875
13126965625.0 0.41314697265625 1.12322998046875
13158187500.0 0.951995849609375 0.632904052734375
13189409375.0 1.1524658203125 -0.023193359375
13220631250.0 0.938262939453125 -0.753082275390625
13251853125.0 0.2314453125 -1.177001953125
13283075000.0 -0.51202392578125 -1.0225830078125
13314296875.0 -0.99432373046875 -0.529296875
13345518750.0 -1.1392822265625 0.18084716796875
