!Created with skrf (http://scikit-rf.org).
# Hz S RI R 50.0 
!freq ReS11 ImS11
45000000.0 -0.07702255249023438 -0.09685897827148438
76221875.0 -0.1962890625 -0.04752349853515625
107443750.0 -0.2545928955078125 0.1197357177734375
138665625.0 -0.147918701171875 0.3283233642578125
169887500.0 0.1235504150390625 0.4171142578125
201109375.0 0.4216461181640625 0.280548095703125
232331250.0 0.57855224609375 -0.057647705078125
263553125.0 0.4889984130859375 -0.452484130859375
294775000.0 0.098236083984375 -0.73175048828125
325996875.0 -0.415313720703125 -0.679931640625
357218750.0 -0.805694580078125 -0.296600341796875
388440625.0 -0.884674072265625 0.300628662109375
419662500.0 -0.516693115234375 0.865753173828125
450884375.0 0.17340087890625 1.02813720703125
482106250.0 0.798065185546875 0.71173095703125
513328125.0 1.118408203125 0.086669921875
544550000.0 1.00262451171875 -0.6798095703125
575771875.0 0.33563232421875 -1.2373046875
606993750.0 -0.55389404296875 -1.17620849609375
638215625.0 -1.16497802734375 -0.58953857421875
669437500.0 -1.33880615234375 0.23394775390625
700659375.0 -0.9698486328125 1.09539794921875
731881250.0 -0.00323486328125 1.54180908203125
763103125.0 1.00506591796875 1.154296875
794325000.0 1.46728515625 0.28094482421875
825546875.0 1.3658447265625 -0.65106201171875
856768750.0 0.793212890625 -1.39947509765625
887990625.0 -0.29254150390625 -1.64630126953125
919212500.0 -1.287353515625 -1.0772705078125
950434375.0 -1.64666748046875 -0.05877685546875
981656250.0 -1.38055419921875 0.94476318359375
1012878125.0 -0.5286865234375 1.66973876953125
1044100000.0 0.696533203125 1.65960693359375
1075321875.0 1.57281494140625 0.81048583984375
1106543750.0 1.70245361328125 -0.31292724609375
1137765625.0 1.184814453125 -1.28314208984375
1168987500.0 0.13726806640625 -1.7950439453125
1200209375.0 -1.06072998046875 -1.4814453125
1231431250.0 -1.72528076171875 -0.45257568359375
1262653125.0 -1.592041015625 0.68402099609375
1293875000.0 -0.8502197265625 1.48956298828125
1325096875.0 0.22857666015625 1.70452880859375
1356318750.0 1.23382568359375 1.2147216796875
1387540625.0 1.7374267578125 0.1881103515625
1418762500.0 1.46728515625 -0.9503173828125
1449984375.0 0.52777099609375 -1.62396240234375
1481206250.0 -0.54962158203125 -1.5538330078125
1512428125.0 -1.3404541015625 -0.91839599609375
1543650000.0 -1.65313720703125 0.06549072265625
1574871875.0 -1.27142333984375 1.10797119140625
1606093750.0 -0.27203369140625 1.62939453125
1637315625.0 0.74151611328125 1.39837646484375
1668537500.0 1.39434814453125 0.69476318359375
1699759375.0 1.57098388671875 -0.27752685546875
1730981250.0 1.06268310546875 -1.22796630859375
1762203125.0 0.04180908203125 -1.56842041015625
1793425000.0 -0.8546142578125 -1.2247314453125
1824646875.0 -1.3919677734375 -0.5145263671875
1855868750.0 -1.47210693359375 0.431884765625
1887090625.0 -0.8736572265625 1.2840576171875
1918312500.0 0.11761474609375 1.48486328125
1949534375.0 0.9202880859375 1.08746337890625
1980756250.0 1.37359619140625 0.369384765625
2011978125.0 1.357421875 -0.53125
2043200000.0 0.74859619140625 -1.2596435546875
2074421875.0 -0.1572265625 -1.43133544921875
2105643750.0 -0.95904541015625 -1.07098388671875
2136865625.0 -1.44549560546875 -0.30401611328125
2168087500.0 -1.3551025390625 0.6700439453125
2199309375.0 -0.63818359375 1.34991455078125
2230531250.0 0.2818603515625 1.43414306640625
2261753125.0 1.071044921875 1.0125732421875
2292975000.0 1.512451171875 0.17022705078125
2324196875.0 1.30352783203125 -0.81768798828125
2355418750.0 0.524169921875 -1.41839599609375
2386640625.0 -0.40411376953125 -1.44708251953125
2417862500.0 -1.17816162109375 -1.0228271484375
2449084375.0 -1.60205078125 -0.0838623046875
2480306250.0 -1.3095703125 0.92449951171875
2511528125.0 -0.492431640625 1.505615234375
2542750000.0 0.48779296875 1.532958984375
2573971875.0 1.36907958984375 0.9659423828125
2605193750.0 1.7139892578125 -0.1119384765625
2636415625.0 1.259521484375 -1.1512451171875
2667637500.0 0.3057861328125 -1.66436767578125
2698859375.0 -0.76751708984375 -1.531005859375
2730081250.0 -1.57080078125 -0.739501953125
2761303125.0 -1.67791748046875 0.38671875
2792525000.0 -1.0977783203125 1.30377197265625
2823746875.0 -0.10198974609375 1.7265625
2854968750.0 1.0107421875 1.4520263671875
2886190625.0 1.68792724609375 0.49072265625
2917412500.0 1.59686279296875 -0.61627197265625
2948634375.0 0.937255859375 -1.43072509765625
2979856250.0 -0.1085205078125 -1.77447509765625
3011078125.0 -1.24530029296875 -1.34027099609375
3042300000.0 -1.77117919921875 -0.23419189453125
3073521875.0 -1.50567626953125 0.8353271484375
3104743750.0 -0.7608642578125 1.56695556640625
3135965625.0 0.3607177734375 1.80596923828125
3167187500.0 1.49737548828125 1.162353515625
3198409375.0 1.8125 -0.07470703125
3229631250.0 1.345947265625 -1.07952880859375
3260853125.0 0.48907470703125 -1.6649169921875
3292075000.0 -0.65350341796875 -1.6944580078125
3323296875.0 -1.61700439453125 -0.87738037109375
3354518750.0 -1.7265625 0.3280029296875
3385740625.0 -1.15386962890625 1.23052978515625
3416962500.0 -0.23052978515625 1.6776123046875
3448184375.0 0.85882568359375 1.51947021484375
3479406250.0 1.63250732421875 0.64349365234375
3510628125.0 1.64154052734375 -0.493896484375
3541850000.0 0.99822998046875 -1.3538818359375
3573071875.0 -0.007568359375 -1.6796875
3604293750.0 -1.025634765625 -1.3349609375
3635515625.0 -1.62451171875 -0.43780517578125
3666737500.0 -1.558837890625 0.64447021484375
3697959375.0 -0.82342529296875 1.47344970703125
3729181250.0 0.26837158203125 1.62786865234375
3760403125.0 1.15045166015625 1.09613037109375
3791625000.0 1.54962158203125 0.21759033203125
3822846875.0 1.39874267578125 -0.75811767578125
3854068750.0 0.6195068359375 -1.47735595703125
3885290625.0 -0.4200439453125 -1.47845458984375
3916512500.0 -1.138916015625 -0.9093017578125
3947734375.0 -1.4444580078125 -0.12017822265625
3978956250.0 -1.2947998046875 0.77716064453125
4010178125.0 -0.530517578125 1.451904296875
4041400000.0 0.4718017578125 1.4127197265625
4072621875.0 1.15045166015625 0.84625244140625
4103843750.0 1.44134521484375 0.06427001953125
4135065625.0 1.2657470703125 -0.8448486328125
4166287500.0 0.45709228515625 -1.49383544921875
4197509375.0 -0.55517578125 -1.41229248046875
4228731250.0 -1.24578857421875 -0.80169677734375
4259953125.0 -1.50653076171875 0.0703125
4291175000.0 -1.1864013671875 1.0093994140625
4322396875.0 -0.2896728515625 1.52301025390625
4353618750.0 0.67254638671875 1.348388671875
4384840625.0 1.3192138671875 0.69610595703125
4416062500.0 1.49786376953125 -0.22662353515625
4447284375.0 1.0537109375 -1.1011962890625
4478506250.0 0.1729736328125 -1.49212646484375
4509728125.0 -0.730712890625 -1.30584716796875
4540950000.0 -1.3917236328125 -0.63519287109375
4572171875.0 -1.51995849609375 0.35858154296875
4603393750.0 -0.97125244140625 1.21002197265625
4634615625.0 -0.06158447265625 1.53460693359375
4665837500.0 0.86767578125 1.3023681640625
4697059375.0 1.53887939453125 0.51434326171875
4728281250.0 1.52667236328125 -0.5811767578125
4759503125.0 0.82208251953125 -1.36517333984375
4790725000.0 -0.14495849609375 -1.570556640625
4821946875.0 -1.08197021484375 -1.193115234375
4853168750.0 -1.61138916015625 -0.25091552734375
4884390625.0 -1.3763427734375 0.7919921875
4915612500.0 -0.6131591796875 1.409912109375
4946834375.0 0.32843017578125 1.5069580078125
4978056250.0 1.2027587890625 1.01654052734375
5009278125.0 1.55987548828125 0.03961181640625
5040500000.0 1.2274169921875 -0.8724365234375
5071721875.0 0.50091552734375 -1.412841796875
5102943750.0 -0.44500732421875 -1.494384765625
5134165625.0 -1.33294677734375 -0.9051513671875
5165387500.0 -1.5653076171875 0.1448974609375
5196609375.0 -1.134521484375 1.0067138671875
5227831250.0 -0.35723876953125 1.5035400390625
5259053125.0 0.685302734375 1.48956298828125
5290275000.0 1.51959228515625 0.66217041015625
5321496875.0 1.490234375 -0.43011474609375
5352718750.0 0.920166015625 -1.151123046875
5383940625.0 0.0960693359375 -1.4984130859375
5415162500.0 -0.8983154296875 -1.28192138671875
5446384375.0 -1.48150634765625 -0.37005615234375
5477606250.0 -1.29742431640625 0.56524658203125
5508828125.0 -0.73004150390625 1.14971923828125
5540050000.0 0.05352783203125 1.39678955078125
5571271875.0 0.937255859375 1.10760498046875
5602493750.0 1.4063720703125 0.2598876953125
5633715625.0 1.23040771484375 -0.61102294921875
5664937500.0 0.64752197265625 -1.1988525390625
5696159375.0 -0.1964111328125 -1.3822021484375
5727381250.0 -1.0201416015625 -0.977783203125
5758603125.0 -1.388916015625 -0.14593505859375
5789825000.0 -1.19305419921875 0.716552734375
5821046875.0 -0.5064697265625 1.30377197265625
5852268750.0 0.40948486328125 1.3106689453125
5883490625.0 1.069091796875 0.77130126953125
5914712500.0 1.301513671875 0.01947021484375
5945934375.0 1.09490966796875 -0.77471923828125
5977156250.0 0.361083984375 -1.30999755859375
6008378125.0 -0.50933837890625 -1.18157958984375
6039600000.0 -1.02008056640625 -0.648681640625
6070821875.0 -1.22222900390625 -0.00494384765625
6102043750.0 -1.08203125 0.76153564453125
6133265625.0 -0.34222412109375 1.34210205078125
6164487500.0 0.56207275390625 1.18548583984375
6195709375.0 1.0693359375 0.62945556640625
6226931250.0 1.27764892578125 -0.042236328125
6258153125.0 1.1029052734375 -0.86932373046875
6289375000.0 0.2559814453125 -1.44464111328125
6320596875.0 -0.6890869140625 -1.20489501953125
6351818750.0 -1.197998046875 -0.572021484375
6383040625.0 -1.353271484375 0.206298828125
6414262500.0 -0.9993896484375 1.05462646484375
6445484375.0 -0.0794677734375 1.45391845703125
6476706250.0 0.794677734375 1.14678955078125
6507928125.0 1.288818359375 0.4697265625
6539150000.0 1.3465576171875 -0.3858642578125
6570371875.0 0.84063720703125 -1.14239501953125
6601593750.0 -0.0169677734375 -1.40283203125
6632815625.0 -0.83856201171875 -1.135498046875
6664037500.0 -1.3995361328125 -0.42047119140625
6695259375.0 -1.37213134765625 0.56378173828125
6726481250.0 -0.7099609375 1.24945068359375
6757703125.0 0.1307373046875 1.4051513671875
6788925000.0 0.95257568359375 1.12933349609375
6820146875.0 1.55755615234375 0.28857421875
6851368750.0 1.32427978515625 -0.81683349609375
6882590625.0 0.50567626953125 -1.33721923828125
6913812500.0 -0.29119873046875 -1.35467529296875
6945034375.0 -1.06805419921875 -1.02069091796875
6976256250.0 -1.589111328125 -0.09454345703125
7007478125.0 -1.2354736328125 0.9310302734375
7038700000.0 -0.40087890625 1.34002685546875
7069921875.0 0.35791015625 1.3211669921875
7101143750.0 1.11859130859375 0.967529296875
7132365625.0 1.59716796875 0.0152587890625
7163587500.0 1.15618896484375 -1.01873779296875
7194809375.0 0.3038330078125 -1.3939208984375
7226031250.0 -0.51190185546875 -1.32476806640625
7257253125.0 -1.26531982421875 -0.822998046875
7288475000.0 -1.55609130859375 0.19622802734375
7319696875.0 -1.0284423828125 1.11004638671875
7350918750.0 -0.16485595703125 1.44183349609375
7382140625.0 0.71429443359375 1.27496337890625
7413362500.0 1.37493896484375 0.57586669921875
7444584375.0 1.4110107421875 -0.40618896484375
7475806250.0 0.85833740234375 -1.1405029296875
7507028125.0 0.00537109375 -1.42791748046875
7538250000.0 -0.88580322265625 -1.12310791015625
7569471875.0 -1.33441162109375 -0.310791015625
7600693750.0 -1.20098876953125 0.4957275390625
7631915625.0 -0.71722412109375 1.08294677734375
7663137500.0 0.07843017578125 1.355712890625
7694359375.0 0.936920166015625 0.980133056640625
7725581250.0 1.24169921875 0.18145751953125
7756803125.0 1.08172607421875 -0.4974365234375
7788025000.0 0.66900634765625 -1.04144287109375
7819246875.0 -0.11932373046875 -1.34600830078125
7850468750.0 -0.991180419921875 -0.914947509765625
7881690625.0 -1.23077392578125 -0.10565185546875
7912912500.0 -1.05352783203125 0.55419921875
7944134375.0 -0.6046142578125 1.10992431640625
7975356250.0 0.272216796875 1.3345947265625
8006578125.0 1.04742431640625 0.777587890625
8037800000.0 1.191650390625 0.01690673828125
8069021875.0 1.00616455078125 -0.61712646484375
8100243750.0 0.49908447265625 -1.16143798828125
8131465625.0 -0.38665771484375 -1.2535400390625
8162687500.0 -1.0313720703125 -0.68585205078125
8193909375.0 -1.1800537109375 0.00811767578125
8225131250.0 -1.01715087890625 0.67755126953125
8256353125.0 -0.4224853515625 1.246826171875
8287575000.0 0.49920654296875 1.2239990234375
8318796875.0 1.08306884765625 0.63531494140625
8350018750.0 1.24420166015625 -0.07623291015625
8381240625.0 1.03033447265625 -0.83837890625
8412462500.0 0.2550048828125 -1.37127685546875
8443684375.0 -0.6693115234375 -1.16864013671875
8474906250.0 -1.1734619140625 -0.5322265625
8506128125.0 -1.2967529296875 0.23504638671875
8537350000.0 -0.92376708984375 1.04547119140625
8568571875.0 -0.016845703125 1.39398193359375
8599793750.0 0.80047607421875 1.0523681640625
8631015625.0 1.23870849609375 0.39849853515625
8662237500.0 1.2845458984375 -0.427978515625
8693459375.0 0.73590087890625 -1.1766357421875
8724681250.0 -0.16168212890625 -1.33013916015625
8755903125.0 -0.879119873046875 -0.957489013671875
8787125000.0 -1.30377197265625 -0.28094482421875
8818346875.0 -1.25030517578125 0.6141357421875
8849568750.0 -0.5562744140625 1.25958251953125
8880790625.0 0.29718017578125 1.28314208984375
8912012500.0 0.980072021484375 0.892669677734375
8943234375.0 1.3980712890625 0.13116455078125
8974456250.0 1.1661376953125 -0.83685302734375
9005678125.0 0.3499755859375 -1.310302734375
9036900000.0 -0.44476318359375 -1.224853515625
9068121875.0 -1.1016845703125 -0.78509521484375
9099343750.0 -1.43951416015625 0.09747314453125
9130565625.0 -0.97796630859375 1.01007080078125
9161787500.0 -0.1534423828125 1.2818603515625
9193009375.0 0.55426025390625 1.1334228515625
9224231250.0 1.17645263671875 0.65472412109375
9255453125.0 1.3970947265625 -0.29412841796875
9286675000.0 0.806640625 -1.08380126953125
9317896875.0 0.0299072265625 -1.24395751953125
9349118750.0 -0.653564453125 -1.0682373046875
9380340625.0 -1.25543212890625 -0.50958251953125
9411562500.0 -1.311279296875 0.47662353515625
9442784375.0 -0.64764404296875 1.1146240234375
9474006250.0 0.08770751953125 1.2088623046875
9505228125.0 0.76287841796875 0.9783935546875
9536450000.0 1.2730712890625 0.31317138671875
9567671875.0 1.14288330078125 -0.578369140625
9598893750.0 0.5299072265625 -1.06781005859375
9630115625.0 -0.14251708984375 -1.15728759765625
9661337500.0 -0.8148193359375 -0.902496337890625
9692559375.0 -1.23663330078125 -0.19140625
9723781250.0 -1.0433349609375 0.6029052734375
9755003125.0 -0.4862060546875 1.05010986328125
9786225000.0 0.1973876953125 1.15911865234375
9817446875.0 0.893585205078125 0.82745361328125
9848668750.0 1.19744873046875 0.07843017578125
9879890625.0 0.967926025390625 -0.61663818359375
9911112500.0 0.4522705078125 -1.050537109375
9942334375.0 -0.26678466796875 -1.15771484375
9973556250.0 -0.941253662109375 -0.738800048828125
10004778125.0 -1.1456298828125 -0.01806640625
10036000000.0 -0.943603515625 0.615386962890625
10067221875.0 -0.44256591796875 1.095703125
10098443750.0 0.36883544921875 1.1800537109375
10129665625.0 1.0006103515625 0.642822265625
10160887500.0 1.11968994140625 -0.05194091796875
10192109375.0 0.91705322265625 -0.66107177734375
10223331250.0 0.36126708984375 -1.1517333984375
10254553125.0 -0.48406982421875 -1.113037109375
10285775000.0 -0.984649658203125 -0.53558349609375
10316996875.0 -1.06695556640625 0.07611083984375
10348218750.0 -0.8992919921875 0.669281005859375
10379440625.0 -0.32421875 1.17279052734375
10410662500.0 0.526611328125 1.08514404296875
10441884375.0 0.99114990234375 0.521453857421875
10473106250.0 1.10638427734375 -0.08251953125
10504328125.0 0.94873046875 -0.756011962890625
10535550000.0 0.24151611328125 -1.29071044921875
10566771875.0 -0.65802001953125 -1.07745361328125
10597993750.0 -1.080810546875 -0.45849609375
10629215625.0 -1.17340087890625 0.20440673828125
10660437500.0 -0.88787841796875 0.95135498046875
10691659375.0 -0.0098876953125 1.33447265625
10722881250.0 0.784576416015625 0.9522705078125
10754103125.0 1.11773681640625 0.32611083984375
10785325000.0 1.1380615234375 -0.366943359375
10816546875.0 0.70037841796875 -1.04913330078125
10847768750.0 -0.145263671875 -1.2294921875
10878990625.0 -0.80181884765625 -0.84326171875
10910212500.0 -1.1217041015625 -0.2454833984375
10941434375.0 -1.09564208984375 0.47491455078125
10972656250.0 -0.56793212890625 1.0845947265625
11003878125.0 0.21563720703125 1.17291259765625
11035100000.0 0.846221923828125 0.821807861328125
11066321875.0 1.2188720703125 0.17535400390625
11097543750.0 1.09771728515625 -0.67645263671875
11128765625.0 0.38519287109375 -1.19781494140625
11159987500.0 -0.39361572265625 -1.13739013671875
11191209375.0 -0.9964599609375 -0.702484130859375
11222431250.0 -1.26971435546875 0.091796875
11253653125.0 -0.858856201171875 0.8927001953125
11284875000.0 -0.1151123046875 1.125732421875
11316096875.0 0.509307861328125 0.95526123046875
11347318750.0 1.001708984375 0.501953125
11378540625.0 1.11541748046875 -0.2679443359375
11409762500.0 0.633819580078125 -0.859466552734375
11440984375.0 0.036102294921875 -0.978057861328125
11472206250.0 -0.481597900390625 -0.85028076171875
11503428125.0 -0.95068359375 -0.456878662109375
11534650000.0 -1.06732177734375 0.28680419921875
11565871875.0 -0.602783203125 0.8536376953125
11597093750.0 -0.019134521484375 0.99053955078125
11628315625.0 0.54266357421875 0.874420166015625
11659537500.0 1.059814453125 0.39288330078125
11690759375.0 1.06524658203125 -0.43414306640625
11721981250.0 0.51678466796875 -0.9403076171875
11753203125.0 -0.10382080078125 -1.03515625
11784425000.0 -0.724212646484375 -0.80816650390625
11815646875.0 -1.10089111328125 -0.15130615234375
11846868750.0 -0.890106201171875 0.550079345703125
11878090625.0 -0.390838623046875 0.90667724609375
11909312500.0 0.186676025390625 0.984375
11940534375.0 0.77899169921875 0.69476318359375
11971756250.0 1.02294921875 0.04132080078125
12002978125.0 0.806427001953125 -0.536865234375
12034200000.0 0.381439208984375 -0.887847900390625
12065421875.0 -0.213134765625 -1.0086669921875
12096643750.0 -0.847900390625 -0.665283203125
12127865625.0 -1.03387451171875 0.0166015625
12159087500.0 -0.813720703125 0.573760986328125
12190309375.0 -0.37762451171875 0.97271728515625
12221531250.0 0.33990478515625 1.0872802734375
12252753125.0 0.980621337890625 0.58111572265625
12283975000.0 1.05413818359375 -0.12744140625
12315196875.0 0.7994384765625 -0.67401123046875
12346418750.0 0.28131103515625 -1.09112548828125
12377640625.0 -0.53668212890625 -1.0606689453125
12408862500.0 -1.03375244140625 -0.4202880859375
12440084375.0 -1.00830078125 0.2227783203125
12471306250.0 -0.741973876953125 0.73773193359375
12502528125.0 -0.1805419921875 1.11956787109375
12533750000.0 0.61962890625 0.993621826171875
12564971875.0 1.04058837890625 0.3646240234375
12596193750.0 1.0284423828125 -0.2635498046875
12627415625.0 0.747894287109375 -0.828094482421875
12658637500.0 0.0804443359375 -1.20635986328125
12689859375.0 -0.735870361328125 -0.966156005859375
12721081250.0 -1.1148681640625 -0.30633544921875
12752303125.0 -1.0965576171875 0.38092041015625
12783525000.0 -0.6888427734375 1.0257568359375
12814746875.0 0.16278076171875 1.24908447265625
12845968750.0 0.860260009765625 0.812103271484375
12877190625.0 1.11541748046875 0.1727294921875
12908412500.0 1.0556640625 -0.500244140625
12939634375.0 0.54351806640625 -1.11602783203125
12970856250.0 -0.31884765625 -1.17437744140625
13002078125.0 -0.89300537109375 -0.693603515625
13033300000.0 -1.1044921875 -0.08685302734375
13064521875.0 -1.00823974609375 0.592041015625
13095743750.0 -0.42132568359375 1.15240478515625
13126965625.0 0.4075927734375 1.1190185546875
13158187500.0 0.944122314453125 0.63226318359375
13189409375.0 1.14837646484375 -0.0203857421875
13220631250.0 0.935089111328125 -0.747650146484375
13251853125.0 0.23516845703125 -1.1708984375
13283075000.0 -0.50567626953125 -1.01934814453125
