!Created with skrf (http://scikit-rf.org).
# Hz S RI R 50.0 
!freq ReS11 ImS11
45000000.0 -0.07727813720703125 -0.09675979614257812
76221875.0 -0.196624755859375 -0.0472564697265625
107443750.0 -0.25494384765625 0.1201019287109375
138665625.0 -0.147705078125 0.3288116455078125
169887500.0 0.1243133544921875 0.4174957275390625
201109375.0 0.42242431640625 0.280426025390625
232331250.0 0.579071044921875 -0.058349609375
263553125.0 0.4891815185546875 -0.4538116455078125
294775000.0 0.097381591796875 -0.732696533203125
325996875.0 -0.416656494140625 -0.6802978515625
357218750.0 -0.80718994140625 -0.295928955078125
388440625.0 -0.885833740234375 0.30194091796875
419662500.0 -0.51611328125 0.867523193359375
450884375.0 0.1746826171875 1.02880859375
482106250.0 0.799774169921875 0.711944580078125
513328125.0 1.119873046875 0.08551025390625
544550000.0 1.00323486328125 -0.68115234375
575771875.0 0.33477783203125 -1.23895263671875
606993750.0 -0.55548095703125 -1.1766357421875
638215625.0 -1.166748046875 -0.5888671875
669437500.0 -1.33978271484375 0.2353515625
700659375.0 -0.96966552734375 1.09765625
731881250.0 -0.001708984375 1.543212890625
763103125.0 1.007080078125 1.154541015625
794325000.0 1.46917724609375 0.27996826171875
825546875.0 1.36669921875 -0.65313720703125
856768750.0 0.7930908203125 -1.40228271484375
887990625.0 -0.29534912109375 -1.64837646484375
919212500.0 -1.2899169921875 -1.0770263671875
950434375.0 -1.649169921875 -0.05670166015625
981656250.0 -1.38165283203125 0.9483642578125
1012878125.0 -0.52777099609375 1.67279052734375
1044100000.0 0.69940185546875 1.66107177734375
1075321875.0 1.57635498046875 0.8099365234375
1106543750.0 1.70452880859375 -0.3155517578125
1137765625.0 1.1846923828125 -1.28582763671875
1168987500.0 0.1356201171875 -1.7969970703125
1200209375.0 -1.063232421875 -1.48193359375
1231431250.0 -1.7275390625 -0.451416015625
1262653125.0 -1.5931396484375 0.68646240234375
1293875000.0 -0.84967041015625 1.492431640625
1325096875.0 0.230224609375 1.7059326171875
1356318750.0 1.23577880859375 1.21514892578125
1387540625.0 1.7398681640625 0.1865234375
1418762500.0 1.468017578125 -0.95318603515625
1449984375.0 0.52716064453125 -1.62628173828125
1481206250.0 -0.55181884765625 -1.55511474609375
1512428125.0 -1.34283447265625 -0.91802978515625
1543650000.0 -1.655517578125 0.067626953125
1574871875.0 -1.2718505859375 1.1109619140625
1606093750.0 -0.2703857421875 1.63153076171875
1637315625.0 0.7437744140625 1.3990478515625
1668537500.0 1.39654541015625 0.69366455078125
1699759375.0 1.572265625 -0.27911376953125
1730981250.0 1.062255859375 -1.2305908203125
1762203125.0 0.04034423828125 -1.56982421875
1793425000.0 -0.85675048828125 -1.22515869140625
1824646875.0 -1.39385986328125 -0.5133056640625
1855868750.0 -1.47332763671875 0.43377685546875
1887090625.0 -0.87335205078125 1.28594970703125
1918312500.0 0.11865234375 1.48614501953125
1949534375.0 0.9228515625 1.08807373046875
1980756250.0 1.37518310546875 0.36834716796875
2011978125.0 1.35845947265625 -0.53302001953125
2043200000.0 0.7481689453125 -1.26220703125
2074421875.0 -0.15869140625 -1.43255615234375
2105643750.0 -0.9610595703125 -1.07086181640625
2136865625.0 -1.44696044921875 -0.302978515625
2168087500.0 -1.3560791015625 0.672607421875
2199309375.0 -0.63739013671875 1.35174560546875
2230531250.0 0.28350830078125 1.43548583984375
2261753125.0 1.0732421875 1.0126953125
2292975000.0 1.5140380859375 0.16827392578125
2324196875.0 1.30413818359375 -0.8199462890625
2355418750.0 0.52337646484375 -1.41998291015625
2386640625.0 -0.40594482421875 -1.4481201171875
2417862500.0 -1.18133544921875 -1.02313232421875
2449084375.0 -1.60491943359375 -0.08197021484375
2480306250.0 -1.309814453125 0.92767333984375
2511528125.0 -0.49200439453125 1.50689697265625
2542750000.0 0.49005126953125 1.53515625
2573971875.0 1.3712158203125 0.9659423828125
2605193750.0 1.71710205078125 -0.115478515625
2636415625.0 1.25970458984375 -1.1529541015625
2667637500.0 0.303955078125 -1.6668701171875
2698859375.0 -0.77093505859375 -1.53240966796875
2730081250.0 -1.57373046875 -0.73834228515625
2761303125.0 -1.67950439453125 0.38946533203125
2792525000.0 -1.097412109375 1.30841064453125
2823746875.0 -0.10028076171875 1.7288818359375
2854968750.0 1.013916015625 1.4539794921875
2886190625.0 1.69232177734375 0.48907470703125
2917412500.0 1.59820556640625 -0.61846923828125
2948634375.0 0.9373779296875 -1.43353271484375
2979856250.0 -0.109375 -1.77410888671875
3011078125.0 -1.2476806640625 -1.34014892578125
3042300000.0 -1.775146484375 -0.23236083984375
3073521875.0 -1.50665283203125 0.83966064453125
3104743750.0 -0.7608642578125 1.57025146484375
3135965625.0 0.36480712890625 1.808837890625
3167187500.0 1.500244140625 1.1622314453125
3198409375.0 1.815185546875 -0.07733154296875
3229631250.0 1.346435546875 -1.0821533203125
3260853125.0 0.4866943359375 -1.66900634765625
3292075000.0 -0.65679931640625 -1.69635009765625
3323296875.0 -1.61944580078125 -0.87689208984375
3354518750.0 -1.7283935546875 0.3311767578125
3385740625.0 -1.15386962890625 1.2327880859375
3416962500.0 -0.2298583984375 1.68011474609375
3448184375.0 0.86053466796875 1.51983642578125
3479406250.0 1.63555908203125 0.642578125
3510628125.0 1.64178466796875 -0.49493408203125
3541850000.0 0.99835205078125 -1.35565185546875
3573071875.0 -0.0093994140625 -1.681396484375
3604293750.0 -1.0289306640625 -1.33477783203125
3635515625.0 -1.6275634765625 -0.4365234375
3666737500.0 -1.56097412109375 0.64788818359375
3697959375.0 -0.82305908203125 1.4759521484375
3729181250.0 0.26971435546875 1.6292724609375
3760403125.0 1.1534423828125 1.09600830078125
3791625000.0 1.5526123046875 0.21588134765625
3822846875.0 1.40008544921875 -0.761474609375
3854068750.0 0.61810302734375 -1.48199462890625
3885290625.0 -0.42218017578125 -1.4791259765625
3916512500.0 -1.1416015625 -0.90887451171875
3947734375.0 -1.4471435546875 -0.11737060546875
3978956250.0 -1.2960205078125 0.7794189453125
4010178125.0 -0.52947998046875 1.45489501953125
4041400000.0 0.4747314453125 1.41424560546875
4072621875.0 1.1524658203125 0.84600830078125
4103843750.0 1.44366455078125 0.06219482421875
4135065625.0 1.2664794921875 -0.84686279296875
4166287500.0 0.45654296875 -1.4954833984375
4197509375.0 -0.5582275390625 -1.41375732421875
4228731250.0 -1.24786376953125 -0.80126953125
4259953125.0 -1.5081787109375 0.07183837890625
4291175000.0 -1.18707275390625 1.01043701171875
4322396875.0 -0.287841796875 1.52618408203125
4353618750.0 0.6739501953125 1.34893798828125
4384840625.0 1.3214111328125 0.69598388671875
4416062500.0 1.499755859375 -0.22955322265625
4447284375.0 1.0535888671875 -1.1044921875
4478506250.0 0.17108154296875 -1.49456787109375
4509728125.0 -0.73248291015625 -1.30657958984375
4540950000.0 -1.3941650390625 -0.63433837890625
4572171875.0 -1.52191162109375 0.36138916015625
4603393750.0 -0.97119140625 1.212646484375
4634615625.0 -0.0606689453125 1.53533935546875
4665837500.0 0.87103271484375 1.3031005859375
4697059375.0 1.5408935546875 0.5142822265625
4728281250.0 1.5281982421875 -0.58331298828125
4759503125.0 0.82196044921875 -1.36669921875
4790725000.0 -0.1468505859375 -1.57159423828125
4821946875.0 -1.08294677734375 -1.19256591796875
4853168750.0 -1.612548828125 -0.25
4884390625.0 -1.3765869140625 0.79437255859375
4915612500.0 -0.61187744140625 1.41259765625
4946834375.0 0.32952880859375 1.5078125
4978056250.0 1.20648193359375 1.01513671875
5009278125.0 1.56103515625 0.037841796875
5040500000.0 1.22802734375 -0.8773193359375
5071721875.0 0.49993896484375 -1.4139404296875
5102943750.0 -0.44610595703125 -1.49517822265625
5134165625.0 -1.33544921875 -0.904296875
5165387500.0 -1.567138671875 0.14691162109375
5196609375.0 -1.13482666015625 1.0089111328125
5227831250.0 -0.3565673828125 1.506103515625
5259053125.0 0.68939208984375 1.49127197265625
5290275000.0 1.52099609375 0.66156005859375
5321496875.0 1.49200439453125 -0.43206787109375
5352718750.0 0.9200439453125 -1.15386962890625
5383940625.0 0.09515380859375 -1.50006103515625
5415162500.0 -0.90057373046875 -1.28265380859375
5446384375.0 -1.4840087890625 -0.36859130859375
5477606250.0 -1.2978515625 0.56658935546875
5508828125.0 -0.73004150390625 1.1510009765625
5540050000.0 0.05523681640625 1.39801025390625
5571271875.0 0.93798828125 1.10784912109375
5602493750.0 1.406982421875 0.2593994140625
5633715625.0 1.231201171875 -0.61328125
5664937500.0 0.6473388671875 -1.20068359375
5696159375.0 -0.19708251953125 -1.38287353515625
5727381250.0 -1.02191162109375 -0.977783203125
5758603125.0 -1.39178466796875 -0.14404296875
5789825000.0 -1.1927490234375 0.7171630859375
5821046875.0 -0.50592041015625 1.30596923828125
5852268750.0 0.4107666015625 1.3111572265625
5883490625.0 1.072509765625 0.770751953125
5914712500.0 1.3023681640625 0.0186767578125
5945934375.0 1.0948486328125 -0.7763671875
5977156250.0 0.35986328125 -1.31317138671875
6008378125.0 -0.50982666015625 -1.1810302734375
6039600000.0 -1.02197265625 -0.64837646484375
6070821875.0 -1.22381591796875 -0.00323486328125
6102043750.0 -1.08245849609375 0.7623291015625
6133265625.0 -0.34197998046875 1.34344482421875
6164487500.0 0.56329345703125 1.1871337890625
6195709375.0 1.070068359375 0.62957763671875
6226931250.0 1.2794189453125 -0.043701171875
6258153125.0 1.10394287109375 -0.87176513671875
6289375000.0 0.25567626953125 -1.445556640625
6320596875.0 -0.69024658203125 -1.2056884765625
6351818750.0 -1.2005615234375 -0.5712890625
6383040625.0 -1.35455322265625 0.20794677734375
6414262500.0 -0.99908447265625 1.05810546875
6445484375.0 -0.07672119140625 1.45684814453125
6476706250.0 0.79656982421875 1.147216796875
6507928125.0 1.2904052734375 0.46893310546875
6539150000.0 1.34698486328125 -0.3875732421875
6570371875.0 0.84002685546875 -1.14520263671875
6601593750.0 -0.01800537109375 -1.4041748046875
6632815625.0 -0.83978271484375 -1.13531494140625
6664037500.0 -1.399658203125 -0.4195556640625
6695259375.0 -1.37371826171875 0.56744384765625
6726481250.0 -0.70947265625 1.2515869140625
6757703125.0 0.13189697265625 1.4071044921875
6788925000.0 0.9556884765625 1.13006591796875
6820146875.0 1.56036376953125 0.2877197265625
6851368750.0 1.32525634765625 -0.8201904296875
6882590625.0 0.5062255859375 -1.3394775390625
6913812500.0 -0.2935791015625 -1.3560791015625
6945034375.0 -1.07086181640625 -1.021240234375
6976256250.0 -1.59320068359375 -0.09259033203125
7007478125.0 -1.23516845703125 0.934326171875
7038700000.0 -0.40093994140625 1.34417724609375
7069921875.0 0.35894775390625 1.32183837890625
7101143750.0 1.1207275390625 0.96630859375
7132365625.0 1.598388671875 0.0142822265625
7163587500.0 1.15704345703125 -1.019775390625
7194809375.0 0.300048828125 -1.39764404296875
7226031250.0 -0.51336669921875 -1.32513427734375
7257253125.0 -1.26739501953125 -0.822998046875
7288475000.0 -1.5589599609375 0.199951171875
7319696875.0 -1.02886962890625 1.10986328125
7350918750.0 -0.16387939453125 1.44354248046875
7382140625.0 0.71728515625 1.276123046875
7413362500.0 1.3760986328125 0.57611083984375
7444584375.0 1.41278076171875 -0.40960693359375
7475806250.0 0.85791015625 -1.14239501953125
7507028125.0 0.0048828125 -1.4298095703125
7538250000.0 -0.88873291015625 -1.1234130859375
7569471875.0 -1.33599853515625 -0.30963134765625
7600693750.0 -1.202392578125 0.498779296875
7631915625.0 -0.71685791015625 1.08544921875
7663137500.0 0.0789794921875 1.357666015625
7694359375.0 0.94000244140625 0.98077392578125
7725581250.0 1.244873046875 0.17919921875
7756803125.0 1.0814208984375 -0.5
7788025000.0 0.66949462890625 -1.04345703125
7819246875.0 -0.12103271484375 -1.34521484375
7850468750.0 -0.9935302734375 -0.9144287109375
7881690625.0 -1.230712890625 -0.10516357421875
7912912500.0 -1.0543212890625 0.5576171875
7944134375.0 -0.60491943359375 1.1131591796875
7975356250.0 0.27178955078125 1.33477783203125
8006578125.0 1.046875 0.7784423828125
8037800000.0 1.1944580078125 0.0152587890625
8069021875.0 1.0068359375 -0.617919921875
8100243750.0 0.49859619140625 -1.16241455078125
8131465625.0 -0.38787841796875 -1.25360107421875
8162687500.0 -1.033447265625 -0.68597412109375
8193909375.0 -1.1807861328125 0.009765625
8225131250.0 -1.01678466796875 0.6785888671875
8256353125.0 -0.42108154296875 1.24853515625
8287575000.0 0.502685546875 1.22686767578125
8318796875.0 1.08343505859375 0.63470458984375
8350018750.0 1.24560546875 -0.07794189453125
8381240625.0 1.031005859375 -0.84149169921875
8412462500.0 0.2532958984375 -1.3729248046875
8443684375.0 -0.66876220703125 -1.1700439453125
8474906250.0 -1.17431640625 -0.53167724609375
8506128125.0 -1.29998779296875 0.240234375
8537350000.0 -0.923583984375 1.04510498046875
8568571875.0 -0.01513671875 1.3948974609375
8599793750.0 0.80426025390625 1.0546875
8631015625.0 1.2425537109375 0.3975830078125
8662237500.0 1.2857666015625 -0.4298095703125
8693459375.0 0.736083984375 -1.1785888671875
8724681250.0 -0.16339111328125 -1.33154296875
8755903125.0 -0.88092041015625 -0.95684814453125
8787125000.0 -1.3050537109375 -0.2802734375
8818346875.0 -1.25 0.6168212890625
8849568750.0 -0.55560302734375 1.2613525390625
8880790625.0 0.29833984375 1.28399658203125
8912012500.0 0.98236083984375 0.891876220703125
8943234375.0 1.40045166015625 0.12811279296875
8974456250.0 1.16644287109375 -0.841064453125
9005678125.0 0.34832763671875 -1.31304931640625
9036900000.0 -0.44573974609375 -1.2242431640625
9068121875.0 -1.10504150390625 -0.78515625
9099343750.0 -1.4405517578125 0.0975341796875
9130565625.0 -0.9786376953125 1.011474609375
9161787500.0 -0.1546630859375 1.282958984375
9193009375.0 0.556884765625 1.13385009765625
9224231250.0 1.1795654296875 0.65447998046875
9255453125.0 1.398681640625 -0.2960205078125
9286675000.0 0.80615234375 -1.086669921875
9317896875.0 0.0263671875 -1.24664306640625
9349118750.0 -0.6539306640625 -1.06915283203125
9380340625.0 -1.25762939453125 -0.50860595703125
9411562500.0 -1.31097412109375 0.4776611328125
9442784375.0 -0.6478271484375 1.1153564453125
9474006250.0 0.0892333984375 1.2119140625
9505228125.0 0.764373779296875 0.97979736328125
9536450000.0 1.27593994140625 0.3131103515625
9567671875.0 1.14349365234375 -0.58001708984375
9598893750.0 0.529052734375 -1.0689697265625
9630115625.0 -0.14324951171875 -1.1578369140625
9661337500.0 -0.820526123046875 -0.902496337890625
9692559375.0 -1.2386474609375 -0.18902587890625
9723781250.0 -1.04278564453125 0.6021728515625
9755003125.0 -0.485595703125 1.052490234375
9786225000.0 0.1995849609375 1.15948486328125
9817446875.0 0.89678955078125 0.827606201171875
9848668750.0 1.19903564453125 0.07647705078125
9879890625.0 0.967132568359375 -0.615234375
9911112500.0 0.451171875 -1.05303955078125
9942334375.0 -0.26715087890625 -1.15924072265625
9973556250.0 -0.94317626953125 -0.7379150390625
10004778125.0 -1.14605712890625 -0.017333984375
10036000000.0 -0.944915771484375 0.6170654296875
10067221875.0 -0.44091796875 1.09759521484375
10098443750.0 0.36883544921875 1.18109130859375
10129665625.0 1.00323486328125 0.642822265625
10160887500.0 1.12017822265625 -0.0523681640625
10192109375.0 0.9173583984375 -0.66455078125
10223331250.0 0.36138916015625 -1.1519775390625
10254553125.0 -0.48553466796875 -1.11395263671875
10285775000.0 -0.98614501953125 -0.535125732421875
10316996875.0 -1.067138671875 0.07666015625
10348218750.0 -0.8992919921875 0.672515869140625
10379440625.0 -0.32177734375 1.1748046875
10410662500.0 0.52996826171875 1.0863037109375
10441884375.0 0.99322509765625 0.521392822265625
10473106250.0 1.10955810546875 -0.0853271484375
10504328125.0 0.948486328125 -0.757965087890625
10535550000.0 0.23931884765625 -1.29541015625
10566771875.0 -0.656982421875 -1.0771484375
10597993750.0 -1.08233642578125 -0.4583740234375
10629215625.0 -1.175537109375 0.205078125
10660437500.0 -0.88653564453125 0.952056884765625
10691659375.0 -0.00994873046875 1.3355712890625
10722881250.0 0.786773681640625 0.95257568359375
10754103125.0 1.1204833984375 0.32476806640625
10785325000.0 1.1396484375 -0.36859130859375
10816546875.0 0.70068359375 -1.04779052734375
10847768750.0 -0.146240234375 -1.23040771484375
10878990625.0 -0.80303955078125 -0.84295654296875
10910212500.0 -1.1251220703125 -0.2430419921875
10941434375.0 -1.09710693359375 0.4771728515625
10972656250.0 -0.5687255859375 1.0853271484375
11003878125.0 0.21929931640625 1.17559814453125
11035100000.0 0.848052978515625 0.82159423828125
11066321875.0 1.22100830078125 0.1741943359375
11097543750.0 1.098388671875 -0.67694091796875
11128765625.0 0.38519287109375 -1.19921875
11159987500.0 -0.3963623046875 -1.13916015625
11191209375.0 -1.0010986328125 -0.7021484375
11222431250.0 -1.27215576171875 0.0928955078125
11253653125.0 -0.85968017578125 0.89471435546875
11284875000.0 -0.1136474609375 1.12786865234375
11316096875.0 0.51116943359375 0.957244873046875
11347318750.0 1.0032958984375 0.5018310546875
11378540625.0 1.11724853515625 -0.270751953125
11409762500.0 0.63433837890625 -0.8614501953125
11440984375.0 0.035064697265625 -0.97955322265625
11472206250.0 -0.481597900390625 -0.84991455078125
11503428125.0 -0.953369140625 -0.455810546875
11534650000.0 -1.06842041015625 0.28955078125
11565871875.0 -0.602081298828125 0.855377197265625
11597093750.0 -0.01751708984375 0.991485595703125
11628315625.0 0.544677734375 0.874847412109375
11659537500.0 1.05950927734375 0.39202880859375
11690759375.0 1.0650634765625 -0.43463134765625
11721981250.0 0.516754150390625 -0.941375732421875
11753203125.0 -0.10565185546875 -1.03656005859375
11784425000.0 -0.72564697265625 -0.808502197265625
11815646875.0 -1.1025390625 -0.14923095703125
11846868750.0 -0.891357421875 0.55169677734375
11878090625.0 -0.39044189453125 0.90948486328125
11909312500.0 0.188446044921875 0.9862060546875
11940534375.0 0.78204345703125 0.6947021484375
11971756250.0 1.0245361328125 0.03900146484375
12002978125.0 0.805908203125 -0.53778076171875
12034200000.0 0.380645751953125 -0.8907470703125
12065421875.0 -0.216552734375 -1.00982666015625
12096643750.0 -0.847412109375 -0.665740966796875
12127865625.0 -1.03515625 0.01739501953125
12159087500.0 -0.815093994140625 0.576202392578125
12190309375.0 -0.377593994140625 0.974639892578125
12221531250.0 0.340576171875 1.08905029296875
12252753125.0 0.981719970703125 0.582366943359375
12283975000.0 1.0545654296875 -0.12835693359375
12315196875.0 0.800750732421875 -0.678131103515625
12346418750.0 0.2806396484375 -1.0924072265625
12377640625.0 -0.5394287109375 -1.06103515625
12408862500.0 -1.03509521484375 -0.41937255859375
12440084375.0 -1.0087890625 0.22528076171875
12471306250.0 -0.741180419921875 0.739532470703125
12502528125.0 -0.1796875 1.11932373046875
12533750000.0 0.6209716796875 0.9935302734375
12564971875.0 1.039306640625 0.36431884765625
12596193750.0 1.0294189453125 -0.265625
12627415625.0 0.747406005859375 -0.828704833984375
12658637500.0 0.07952880859375 -1.2080078125
12689859375.0 -0.735687255859375 -0.9656982421875
12721081250.0 -1.1190185546875 -0.3057861328125
12752303125.0 -1.0975341796875 0.3834228515625
12783525000.0 -0.68798828125 1.02801513671875
12814746875.0 0.1640625 1.25213623046875
12845968750.0 0.864288330078125 0.81109619140625
12877190625.0 1.11767578125 0.1717529296875
12908412500.0 1.0555419921875 -0.5018310546875
12939634375.0 0.54339599609375 -1.11669921875
12970856250.0 -0.32305908203125 -1.177001953125
13002078125.0 -0.89404296875 -0.694000244140625
13033300000.0 -1.10638427734375 -0.086669921875
13064521875.0 -1.0086669921875 0.5936279296875
13095743750.0 -0.42071533203125 1.15435791015625
13126965625.0 0.40899658203125 1.120849609375
13158187500.0 0.9466552734375 0.631744384765625
13189409375.0 1.146728515625 -0.02056884765625
13220631250.0 0.93603515625 -0.745941162109375
13251853125.0 0.234375 -1.17144775390625
13283075000.0 -0.50762939453125 -1.019775390625
13314296875.0 -0.98712158203125 -0.53033447265625
13345518750.0 -1.13580322265625 0.17791748046875
13376740625.0 -0.752410888671875 0.857177734375
13407962500.0 -0.05908203125 1.067138671875
