!Created with skrf (http://scikit-rf.org).
# Hz S RI R 50.0 
!freq ReS11 ImS11
45000000.0 -0.07675552368164062 -0.09714508056640625
76221875.0 -0.1968994140625 -0.0482177734375
107443750.0 -0.2561187744140625 0.1193389892578125
138665625.0 -0.149444580078125 0.3289642333984375
169887500.0 0.12261962890625 0.4185791015625
201109375.0 0.42218017578125 0.2828521728515625
232331250.0 0.58062744140625 -0.05609130859375
263553125.0 0.4921722412109375 -0.452728271484375
294775000.0 0.100738525390625 -0.73419189453125
325996875.0 -0.41485595703125 -0.683929443359375
357218750.0 -0.80828857421875 -0.300445556640625
388440625.0 -0.88934326171875 0.299346923828125
419662500.0 -0.52130126953125 0.8673095703125
450884375.0 0.1705322265625 1.0323486328125
482106250.0 0.798858642578125 0.71710205078125
513328125.0 1.122314453125 0.09063720703125
544550000.0 1.0081787109375 -0.6787109375
575771875.0 0.3406982421875 -1.23992919921875
606993750.0 -0.55157470703125 -1.18182373046875
638215625.0 -1.1671142578125 -0.5953369140625
669437500.0 -1.34375 0.23065185546875
700659375.0 -0.97625732421875 1.0960693359375
731881250.0 -0.00848388671875 1.54644775390625
763103125.0 1.00469970703125 1.1619873046875
794325000.0 1.47216796875 0.28656005859375
825546875.0 1.3724365234375 -0.64959716796875
856768750.0 0.80029296875 -1.4031982421875
887990625.0 -0.289306640625 -1.65399169921875
919212500.0 -1.28948974609375 -1.08563232421875
950434375.0 -1.65386962890625 -0.0634765625
981656250.0 -1.38922119140625 0.946533203125
1012878125.0 -0.53515625 1.67596435546875
1044100000.0 0.69549560546875 1.66943359375
1075321875.0 1.5780029296875 0.81866455078125
1106543750.0 1.7108154296875 -0.308837890625
1137765625.0 1.19366455078125 -1.2845458984375
1168987500.0 0.14361572265625 -1.80218505859375
1200209375.0 -1.06109619140625 -1.49114990234375
1231431250.0 -1.7314453125 -0.45928955078125
1262653125.0 -1.6002197265625 0.68267822265625
1293875000.0 -0.85809326171875 1.49334716796875
1325096875.0 0.22344970703125 1.712646484375
1356318750.0 1.23529052734375 1.22369384765625
1387540625.0 1.74420166015625 0.19451904296875
1418762500.0 1.4761962890625 -0.9503173828125
1449984375.0 0.5350341796875 -1.62908935546875
1481206250.0 -0.54736328125 -1.562255859375
1512428125.0 -1.34344482421875 -0.9254150390625
1543650000.0 -1.66033935546875 0.06158447265625
1574871875.0 -1.27960205078125 1.1082763671875
1606093750.0 -0.2777099609375 1.63507080078125
1637315625.0 0.740478515625 1.40576171875
1668537500.0 1.3978271484375 0.7010498046875
1699759375.0 1.57769775390625 -0.27386474609375
1730981250.0 1.07000732421875 -1.22991943359375
1762203125.0 0.0462646484375 -1.5743408203125
1793425000.0 -0.85479736328125 -1.2314453125
1824646875.0 -1.39599609375 -0.5194091796875
1855868750.0 -1.47894287109375 0.42999267578125
1887090625.0 -0.88043212890625 1.2867431640625
1918312500.0 0.1141357421875 1.49078369140625
1949534375.0 0.92156982421875 1.09381103515625
1980756250.0 1.37799072265625 0.3740234375
2011978125.0 1.3642578125 -0.52996826171875
2043200000.0 0.75494384765625 -1.26263427734375
2074421875.0 -0.153564453125 -1.43707275390625
2105643750.0 -0.9598388671875 -1.07708740234375
2136865625.0 -1.45025634765625 -0.30914306640625
2168087500.0 -1.36187744140625 0.66937255859375
2199309375.0 -0.6435546875 1.35333251953125
2230531250.0 0.279541015625 1.43994140625
2261753125.0 1.0731201171875 1.01861572265625
2292975000.0 1.51763916015625 0.1739501953125
2324196875.0 1.310546875 -0.81756591796875
2355418750.0 0.52960205078125 -1.4219970703125
2386640625.0 -0.402099609375 -1.453125
2417862500.0 -1.182861328125 -1.02911376953125
2449084375.0 -1.609619140625 -0.0867919921875
2480306250.0 -1.31707763671875 0.92596435546875
2511528125.0 -0.49798583984375 1.51129150390625
2542750000.0 0.485595703125 1.5411376953125
2573971875.0 1.373291015625 0.97344970703125
2605193750.0 1.72216796875 -0.10870361328125
2636415625.0 1.267333984375 -1.1544189453125
2667637500.0 0.31072998046875 -1.67083740234375
2698859375.0 -0.768310546875 -1.54022216796875
2730081250.0 -1.57720947265625 -0.74566650390625
2761303125.0 -1.68609619140625 0.38507080078125
2792525000.0 -1.10528564453125 1.308837890625
2823746875.0 -0.10614013671875 1.7344970703125
2854968750.0 1.0120849609375 1.4615478515625
2886190625.0 1.695556640625 0.49627685546875
2917412500.0 1.60595703125 -0.61676025390625
2948634375.0 0.945068359375 -1.43634033203125
2979856250.0 -0.10394287109375 -1.78045654296875
3011078125.0 -1.247802734375 -1.34844970703125
3042300000.0 -1.7796630859375 -0.23883056640625
3073521875.0 -1.51458740234375 0.83758544921875
3104743750.0 -0.76873779296875 1.57147216796875
3135965625.0 0.35882568359375 1.8138427734375
3167187500.0 1.5003662109375 1.1705322265625
3198409375.0 1.82025146484375 -0.0711669921875
3229631250.0 1.3551025390625 -1.08160400390625
3260853125.0 0.4942626953125 -1.67193603515625
3292075000.0 -0.65313720703125 -1.70416259765625
3323296875.0 -1.62249755859375 -0.8853759765625
3354518750.0 -1.7359619140625 0.32623291015625
3385740625.0 -1.16168212890625 1.2320556640625
3416962500.0 -0.2353515625 1.68560791015625
3448184375.0 0.8590087890625 1.52728271484375
3479406250.0 1.639404296875 0.64892578125
3510628125.0 1.64898681640625 -0.49224853515625
3541850000.0 1.00579833984375 -1.3563232421875
3573071875.0 -0.004150390625 -1.68609619140625
3604293750.0 -1.026611328125 -1.34271240234375
3635515625.0 -1.63153076171875 -0.4422607421875
3666737500.0 -1.56744384765625 0.6451416015625
3697959375.0 -0.82977294921875 1.47869873046875
3729181250.0 0.26568603515625 1.63482666015625
3760403125.0 1.1527099609375 1.10302734375
3791625000.0 1.55609130859375 0.221923828125
3822846875.0 1.4075927734375 -0.76031494140625
3854068750.0 0.6256103515625 -1.48382568359375
3885290625.0 -0.4197998046875 -1.48626708984375
3916512500.0 -1.14410400390625 -0.9149169921875
3947734375.0 -1.45147705078125 -0.122802734375
3978956250.0 -1.3026123046875 0.779296875
4010178125.0 -0.53515625 1.45806884765625
4041400000.0 0.47332763671875 1.41973876953125
4072621875.0 1.154052734375 0.851318359375
4103843750.0 1.4483642578125 0.06549072265625
4135065625.0 1.27191162109375 -0.84600830078125
4166287500.0 0.4605712890625 -1.49884033203125
4197509375.0 -0.5565185546875 -1.4188232421875
4228731250.0 -1.24884033203125 -0.80645751953125
4259953125.0 -1.51202392578125 0.0679931640625
4291175000.0 -1.1927490234375 1.0111083984375
4322396875.0 -0.29205322265625 1.53076171875
4353618750.0 0.6729736328125 1.35491943359375
4384840625.0 1.32373046875 0.70111083984375
4416062500.0 1.505126953125 -0.22589111328125
4447284375.0 1.0592041015625 -1.1046142578125
4478506250.0 0.1744384765625 -1.4996337890625
4509728125.0 -0.73211669921875 -1.31170654296875
4540950000.0 -1.3970947265625 -0.6392822265625
4572171875.0 -1.526611328125 0.35894775390625
4603393750.0 -0.9764404296875 1.21343994140625
4634615625.0 -0.06390380859375 1.54046630859375
4665837500.0 0.87127685546875 1.30865478515625
4697059375.0 1.54559326171875 0.5185546875
4728281250.0 1.53375244140625 -0.58258056640625
4759503125.0 0.8271484375 -1.367919921875
4790725000.0 -0.14349365234375 -1.57598876953125
4821946875.0 -1.083984375 -1.1983642578125
4853168750.0 -1.61749267578125 -0.25421142578125
4884390625.0 -1.38275146484375 0.7928466796875
4915612500.0 -0.616943359375 1.4144287109375
4946834375.0 0.326904296875 1.51324462890625
4978056250.0 1.2060546875 1.02166748046875
5009278125.0 1.56689453125 0.0406494140625
5040500000.0 1.2333984375 -0.87591552734375
5071721875.0 0.5047607421875 -1.41741943359375
5102943750.0 -0.44525146484375 -1.5006103515625
5134165625.0 -1.33917236328125 -0.909423828125
5165387500.0 -1.571533203125 0.14520263671875
5196609375.0 -1.13970947265625 1.0101318359375
5227831250.0 -0.35955810546875 1.5091552734375
5259053125.0 0.6875 1.49652099609375
5290275000.0 1.52532958984375 0.66571044921875
5321496875.0 1.4962158203125 -0.42938232421875
5352718750.0 0.92431640625 -1.15460205078125
5383940625.0 0.09857177734375 -1.50311279296875
5415162500.0 -0.901123046875 -1.28839111328125
5446384375.0 -1.487548828125 -0.3731689453125
5477606250.0 -1.30364990234375 0.56549072265625
5508828125.0 -0.73468017578125 1.153076171875
5540050000.0 0.0526123046875 1.402587890625
5571271875.0 0.94049072265625 1.1126708984375
5602493750.0 1.411376953125 0.26226806640625
5633715625.0 1.2364501953125 -0.61358642578125
5664937500.0 0.6512451171875 -1.20330810546875
5696159375.0 -0.1964111328125 -1.3875732421875
5727381250.0 -1.02325439453125 -0.9818115234375
5758603125.0 -1.39501953125 -0.146240234375
5789825000.0 -1.1983642578125 0.7186279296875
5821046875.0 -0.5086669921875 1.31048583984375
5852268750.0 0.41180419921875 1.316650390625
5883490625.0 1.07293701171875 0.77496337890625
5914712500.0 1.3070068359375 0.020263671875
5945934375.0 1.09954833984375 -0.7760009765625
5977156250.0 0.3634033203125 -1.315185546875
6008378125.0 -0.50958251953125 -1.18511962890625
6039600000.0 -1.02398681640625 -0.65155029296875
6070821875.0 -1.22735595703125 -0.0057373046875
6102043750.0 -1.0869140625 0.76348876953125
6133265625.0 -0.34344482421875 1.34881591796875
6164487500.0 0.5635986328125 1.190673828125
6195709375.0 1.07275390625 0.63287353515625
6226931250.0 1.28277587890625 -0.04083251953125
6258153125.0 1.108642578125 -0.873779296875
6289375000.0 0.256103515625 -1.45068359375
6320596875.0 -0.6905517578125 -1.209228515625
6351818750.0 -1.201904296875 -0.57391357421875
6383040625.0 -1.35797119140625 0.20635986328125
6414262500.0 -1.00274658203125 1.05877685546875
6445484375.0 -0.07843017578125 1.4613037109375
6476706250.0 0.79534912109375 1.15057373046875
6507928125.0 1.29229736328125 0.47222900390625
6539150000.0 1.350830078125 -0.38525390625
6570371875.0 0.84393310546875 -1.1456298828125
6601593750.0 -0.01629638671875 -1.4083251953125
6632815625.0 -0.8404541015625 -1.1397705078125
6664037500.0 -1.40625 -0.421630859375
6695259375.0 -1.37774658203125 0.56640625
6726481250.0 -0.713134765625 1.2535400390625
6757703125.0 0.12994384765625 1.4105224609375
6788925000.0 0.9571533203125 1.13470458984375
6820146875.0 1.56378173828125 0.28961181640625
6851368750.0 1.329833984375 -0.82049560546875
6882590625.0 0.50811767578125 -1.34124755859375
6913812500.0 -0.29150390625 -1.3594970703125
6945034375.0 -1.0712890625 -1.02496337890625
6976256250.0 -1.59710693359375 -0.09344482421875
7007478125.0 -1.2401123046875 0.93426513671875
7038700000.0 -0.4046630859375 1.34844970703125
7069921875.0 0.35882568359375 1.328369140625
7101143750.0 1.12164306640625 0.97357177734375
7132365625.0 1.60223388671875 0.017333984375
7163587500.0 1.1612548828125 -1.0235595703125
7194809375.0 0.30352783203125 -1.40234375
7226031250.0 -0.51416015625 -1.33038330078125
7257253125.0 -1.2706298828125 -0.82818603515625
7288475000.0 -1.5631103515625 0.1995849609375
7319696875.0 -1.03338623046875 1.11212158203125
7350918750.0 -0.16473388671875 1.44921875
7382140625.0 0.7176513671875 1.28070068359375
7413362500.0 1.38165283203125 0.57806396484375
7444584375.0 1.416015625 -0.40692138671875
7475806250.0 0.8612060546875 -1.1446533203125
7507028125.0 0.0076904296875 -1.43255615234375
7538250000.0 -0.88995361328125 -1.1273193359375
7569471875.0 -1.33990478515625 -0.31219482421875
7600693750.0 -1.206298828125 0.49853515625
7631915625.0 -0.72137451171875 1.08544921875
7663137500.0 0.07855224609375 1.3614501953125
7694359375.0 0.944091796875 0.985595703125
7725581250.0 1.247314453125 0.18231201171875
7756803125.0 1.0867919921875 -0.49993896484375
7788025000.0 0.672607421875 -1.0472412109375
7819246875.0 -0.12042236328125 -1.3521728515625
7850468750.0 -0.9951171875 -0.919097900390625
7881690625.0 -1.2364501953125 -0.10601806640625
7912912500.0 -1.05841064453125 0.55560302734375
7944134375.0 -0.60699462890625 1.11700439453125
7975356250.0 0.27301025390625 1.3387451171875
8006578125.0 1.04986572265625 0.7803955078125
8037800000.0 1.19677734375 0.01666259765625
8069021875.0 1.00958251953125 -0.61767578125
8100243750.0 0.5020751953125 -1.16351318359375
8131465625.0 -0.38690185546875 -1.257080078125
8162687500.0 -1.03472900390625 -0.6878662109375
8193909375.0 -1.18377685546875 0.0079345703125
8225131250.0 -1.02105712890625 0.67877197265625
8256353125.0 -0.42303466796875 1.25311279296875
8287575000.0 0.50201416015625 1.2301025390625
8318796875.0 1.0833740234375 0.638427734375
8350018750.0 1.249267578125 -0.074951171875
8381240625.0 1.035888671875 -0.84259033203125
8412462500.0 0.2542724609375 -1.377685546875
8443684375.0 -0.672607421875 -1.17340087890625
8474906250.0 -1.17803955078125 -0.5333251953125
8506128125.0 -1.30206298828125 0.23663330078125
8537350000.0 -0.92657470703125 1.04864501953125
8568571875.0 -0.01593017578125 1.39862060546875
8599793750.0 0.804931640625 1.055908203125
8631015625.0 1.24365234375 0.40069580078125
8662237500.0 1.28900146484375 -0.4296875
8693459375.0 0.73956298828125 -1.17974853515625
8724681250.0 -0.16253662109375 -1.33587646484375
8755903125.0 -0.88134765625 -0.96136474609375
8787125000.0 -1.3094482421875 -0.28277587890625
8818346875.0 -1.255859375 0.616943359375
8849568750.0 -0.55853271484375 1.26483154296875
8880790625.0 0.29998779296875 1.28875732421875
8912012500.0 0.985992431640625 0.895843505859375
8943234375.0 1.40557861328125 0.1279296875
8974456250.0 1.170166015625 -0.84271240234375
9005678125.0 0.3472900390625 -1.31939697265625
9036900000.0 -0.44720458984375 -1.22943115234375
9068121875.0 -1.10528564453125 -0.78759765625
9099343750.0 -1.44476318359375 0.0987548828125
9130565625.0 -0.9810791015625 1.01220703125
9161787500.0 -0.15380859375 1.28656005859375
9193009375.0 0.5550537109375 1.1370849609375
9224231250.0 1.18212890625 0.65771484375
9255453125.0 1.4046630859375 -0.29656982421875
9286675000.0 0.8094482421875 -1.08837890625
9317896875.0 0.0255126953125 -1.2513427734375
9349118750.0 -0.6551513671875 -1.07330322265625
9380340625.0 -1.2630615234375 -0.511474609375
9411562500.0 -1.31695556640625 0.4813232421875
9442784375.0 -0.64898681640625 1.1204833984375
9474006250.0 0.0889892578125 1.2161865234375
9505228125.0 0.76837158203125 0.98321533203125
9536450000.0 1.278076171875 0.31396484375
9567671875.0 1.14666748046875 -0.58172607421875
9598893750.0 0.531005859375 -1.072509765625
9630115625.0 -0.14453125 -1.16107177734375
9661337500.0 -0.822723388671875 -0.904632568359375
9692559375.0 -1.2423095703125 -0.189453125
9723781250.0 -1.04534912109375 0.60516357421875
9755003125.0 -0.4871826171875 1.05487060546875
9786225000.0 0.1981201171875 1.16229248046875
9817446875.0 0.89947509765625 0.8310546875
9848668750.0 1.202392578125 0.07696533203125
9879890625.0 0.971282958984375 -0.618499755859375
9911112500.0 0.4544677734375 -1.05487060546875
9942334375.0 -0.2684326171875 -1.16357421875
9973556250.0 -0.948333740234375 -0.73980712890625
10004778125.0 -1.15106201171875 -0.0157470703125
10036000000.0 -0.94677734375 0.61859130859375
10067221875.0 -0.44183349609375 1.10150146484375
10098443750.0 0.37286376953125 1.1844482421875
10129665625.0 1.00579833984375 0.644287109375
10160887500.0 1.12353515625 -0.0546875
10192109375.0 0.91925048828125 -0.66455078125
10223331250.0 0.361328125 -1.15606689453125
10254553125.0 -0.4898681640625 -1.11700439453125
10285775000.0 -0.98919677734375 -0.53485107421875
10316996875.0 -1.06939697265625 0.0765380859375
10348218750.0 -0.90301513671875 0.672454833984375
10379440625.0 -0.3218994140625 1.179931640625
10410662500.0 0.52886962890625 1.08837890625
10441884375.0 0.994293212890625 0.523895263671875
10473106250.0 1.11212158203125 -0.08447265625
10504328125.0 0.952789306640625 -0.76129150390625
10535550000.0 0.23919677734375 -1.2991943359375
10566771875.0 -0.65911865234375 -1.0791015625
10597993750.0 -1.08544921875 -0.4586181640625
10629215625.0 -1.17974853515625 0.20611572265625
10660437500.0 -0.889739990234375 0.954864501953125
10691659375.0 -0.00830078125 1.339111328125
10722881250.0 0.78680419921875 0.953582763671875
10754103125.0 1.1231689453125 0.32489013671875
10785325000.0 1.1429443359375 -0.36920166015625
10816546875.0 0.70208740234375 -1.0526123046875
10847768750.0 -0.14617919921875 -1.232177734375
10878990625.0 -0.806121826171875 -0.844757080078125
10910212500.0 -1.12640380859375 -0.24481201171875
10941434375.0 -1.10137939453125 0.47918701171875
10972656250.0 -0.56878662109375 1.0892333984375
11003878125.0 0.21929931640625 1.177490234375
11035100000.0 0.850738525390625 0.82427978515625
11066321875.0 1.22625732421875 0.17315673828125
11097543750.0 1.1016845703125 -0.68145751953125
11128765625.0 0.3858642578125 -1.2032470703125
11159987500.0 -0.39935302734375 -1.142578125
11191209375.0 -1.0015869140625 -0.7056884765625
11222431250.0 -1.27642822265625 0.09552001953125
11253653125.0 -0.86004638671875 0.899871826171875
11284875000.0 -0.113037109375 1.130615234375
11316096875.0 0.512603759765625 0.957550048828125
11347318750.0 1.00689697265625 0.50341796875
11378540625.0 1.11993408203125 -0.27197265625
11409762500.0 0.635955810546875 -0.8626708984375
11440984375.0 0.0355224609375 -0.9813232421875
11472206250.0 -0.482147216796875 -0.853424072265625
11503428125.0 -0.9559326171875 -0.458160400390625
11534650000.0 -1.072021484375 0.2901611328125
11565871875.0 -0.603515625 0.85797119140625
11597093750.0 -0.01861572265625 0.994354248046875
11628315625.0 0.546295166015625 0.878662109375
11659537500.0 1.0657958984375 0.392822265625
11690759375.0 1.06787109375 -0.43585205078125
11721981250.0 0.517303466796875 -0.9434814453125
11753203125.0 -0.10809326171875 -1.04132080078125
11784425000.0 -0.72869873046875 -0.811187744140625
11815646875.0 -1.10577392578125 -0.1492919921875
11846868750.0 -0.89324951171875 0.553558349609375
11878090625.0 -0.391754150390625 0.912353515625
11909312500.0 0.187957763671875 0.987030029296875
11940534375.0 0.78326416015625 0.6961669921875
11971756250.0 1.026611328125 0.03936767578125
12002978125.0 0.808349609375 -0.5401611328125
12034200000.0 0.38226318359375 -0.892364501953125
12065421875.0 -0.2186279296875 -1.0142822265625
12096643750.0 -0.851318359375 -0.665802001953125
12127865625.0 -1.03631591796875 0.017578125
12159087500.0 -0.816680908203125 0.577728271484375
12190309375.0 -0.37786865234375 0.979339599609375
12221531250.0 0.34344482421875 1.09173583984375
12252753125.0 0.984375 0.581756591796875
12283975000.0 1.05767822265625 -0.129150390625
12315196875.0 0.802520751953125 -0.679107666015625
12346418750.0 0.27984619140625 -1.096923828125
12377640625.0 -0.54290771484375 -1.062744140625
12408862500.0 -1.03704833984375 -0.41912841796875
12440084375.0 -1.01123046875 0.22552490234375
12471306250.0 -0.744537353515625 0.739288330078125
12502528125.0 -0.17950439453125 1.12353515625
12533750000.0 0.6239013671875 0.996429443359375
12564971875.0 1.04443359375 0.36322021484375
12596193750.0 1.032958984375 -0.267578125
12627415625.0 0.751312255859375 -0.83209228515625
12658637500.0 0.0784912109375 -1.21221923828125
12689859375.0 -0.738433837890625 -0.968170166015625
12721081250.0 -1.12042236328125 -0.30584716796875
12752303125.0 -1.1014404296875 0.3857421875
12783525000.0 -0.68853759765625 1.03070068359375
12814746875.0 0.16802978515625 1.25543212890625
12845968750.0 0.86669921875 0.811798095703125
12877190625.0 1.12109375 0.1710205078125
12908412500.0 1.05810546875 -0.50421142578125
12939634375.0 0.542236328125 -1.12152099609375
12970856250.0 -0.3231201171875 -1.17816162109375
13002078125.0 -0.897613525390625 -0.693756103515625
13033300000.0 -1.109130859375 -0.0858154296875
13064521875.0 -1.0126953125 0.59796142578125
13095743750.0 -0.41888427734375 1.1611328125
13126965625.0 0.4132080078125 1.1239013671875
13158187500.0 0.9517822265625 0.6326904296875
13189409375.0 1.15252685546875 -0.0233154296875
13220631250.0 0.938446044921875 -0.751007080078125
13251853125.0 0.23223876953125 -1.1763916015625
13283075000.0 -0.51153564453125 -1.02154541015625
13314296875.0 -0.99029541015625 -0.52960205078125
13345518750.0 -1.139404296875 0.1817626953125
13376740625.0 -0.7530517578125 0.86224365234375
