!Created with skrf (http://scikit-rf.org).
# Hz S RI R 50.0 
!freq ReS11 ImS11
45000000.0 -0.07714080810546875 -0.09695816040039062
76221875.0 -0.1962432861328125 -0.0475006103515625
107443750.0 -0.254730224609375 0.1196136474609375
138665625.0 -0.147918701171875 0.3284149169921875
169887500.0 0.1236419677734375 0.417083740234375
201109375.0 0.42169189453125 0.2805633544921875
232331250.0 0.578521728515625 -0.0577392578125
263553125.0 0.4889984130859375 -0.452606201171875
294775000.0 0.098175048828125 -0.731903076171875
325996875.0 -0.415283203125 -0.679901123046875
357218750.0 -0.805755615234375 -0.296539306640625
388440625.0 -0.8848876953125 0.300811767578125
419662500.0 -0.516632080078125 0.86578369140625
450884375.0 0.1734619140625 1.02783203125
482106250.0 0.79803466796875 0.711700439453125
513328125.0 1.11846923828125 0.08673095703125
544550000.0 1.0028076171875 -0.67962646484375
575771875.0 0.3358154296875 -1.23736572265625
606993750.0 -0.55389404296875 -1.17620849609375
638215625.0 -1.16485595703125 -0.58929443359375
669437500.0 -1.33868408203125 0.23382568359375
700659375.0 -0.9696044921875 1.09539794921875
731881250.0 -0.00311279296875 1.54168701171875
763103125.0 1.00518798828125 1.1541748046875
794325000.0 1.4671630859375 0.2808837890625
825546875.0 1.3653564453125 -0.6510009765625
856768750.0 0.79315185546875 -1.39923095703125
887990625.0 -0.29315185546875 -1.64666748046875
919212500.0 -1.2869873046875 -1.07696533203125
950434375.0 -1.6466064453125 -0.05865478515625
981656250.0 -1.3804931640625 0.9449462890625
1012878125.0 -0.52838134765625 1.66986083984375
1044100000.0 0.69659423828125 1.659423828125
1075321875.0 1.57281494140625 0.8106689453125
1106543750.0 1.70220947265625 -0.31280517578125
1137765625.0 1.184814453125 -1.283203125
1168987500.0 0.13726806640625 -1.79486083984375
1200209375.0 -1.06060791015625 -1.48150634765625
1231431250.0 -1.72515869140625 -0.45257568359375
1262653125.0 -1.5916748046875 0.68438720703125
1293875000.0 -0.85064697265625 1.49029541015625
1325096875.0 0.22845458984375 1.70391845703125
1356318750.0 1.2342529296875 1.21453857421875
1387540625.0 1.7374267578125 0.18804931640625
1418762500.0 1.46673583984375 -0.95050048828125
1449984375.0 0.52825927734375 -1.62347412109375
1481206250.0 -0.54962158203125 -1.5537109375
1512428125.0 -1.34051513671875 -0.91802978515625
1543650000.0 -1.6531982421875 0.0654296875
1574871875.0 -1.27130126953125 1.107666015625
1606093750.0 -0.2716064453125 1.62945556640625
1637315625.0 0.74151611328125 1.39813232421875
1668537500.0 1.3944091796875 0.694580078125
1699759375.0 1.571044921875 -0.277099609375
1730981250.0 1.06243896484375 -1.228271484375
1762203125.0 0.041748046875 -1.56817626953125
1793425000.0 -0.85516357421875 -1.22454833984375
1824646875.0 -1.39202880859375 -0.513916015625
1855868750.0 -1.4716796875 0.4320068359375
1887090625.0 -0.87359619140625 1.2833251953125
1918312500.0 0.117431640625 1.48480224609375
1949534375.0 0.92059326171875 1.08734130859375
1980756250.0 1.37347412109375 0.369140625
2011978125.0 1.35736083984375 -0.53118896484375
2043200000.0 0.74871826171875 -1.25994873046875
2074421875.0 -0.15704345703125 -1.43115234375
2105643750.0 -0.95892333984375 -1.07110595703125
2136865625.0 -1.4456787109375 -0.3043212890625
2168087500.0 -1.3553466796875 0.670654296875
2199309375.0 -0.6375732421875 1.3497314453125
2230531250.0 0.28173828125 1.43408203125
2261753125.0 1.07122802734375 1.01202392578125
2292975000.0 1.51263427734375 0.16937255859375
2324196875.0 1.3035888671875 -0.81787109375
2355418750.0 0.52410888671875 -1.4176025390625
2386640625.0 -0.40435791015625 -1.4466552734375
2417862500.0 -1.1798095703125 -1.02252197265625
2449084375.0 -1.60198974609375 -0.08447265625
2480306250.0 -1.30908203125 0.923583984375
2511528125.0 -0.49249267578125 1.507080078125
2542750000.0 0.48846435546875 1.53363037109375
2573971875.0 1.369384765625 0.96630859375
2605193750.0 1.71490478515625 -0.11328125
2636415625.0 1.25946044921875 -1.15020751953125
2667637500.0 0.30615234375 -1.66400146484375
2698859375.0 -0.768798828125 -1.5316162109375
2730081250.0 -1.57025146484375 -0.73974609375
2761303125.0 -1.67816162109375 0.3878173828125
2792525000.0 -1.0975341796875 1.304931640625
2823746875.0 -0.10174560546875 1.72552490234375
2854968750.0 1.0093994140625 1.4530029296875
2886190625.0 1.6883544921875 0.49072265625
2917412500.0 1.59747314453125 -0.61767578125
2948634375.0 0.9375 -1.43096923828125
2979856250.0 -0.10772705078125 -1.77239990234375
3011078125.0 -1.24609375 -1.34002685546875
3042300000.0 -1.77154541015625 -0.233642578125
3073521875.0 -1.5052490234375 0.8353271484375
3104743750.0 -0.76165771484375 1.56585693359375
3135965625.0 0.36126708984375 1.80523681640625
3167187500.0 1.4951171875 1.1617431640625
3198409375.0 1.81298828125 -0.0758056640625
3229631250.0 1.34588623046875 -1.07958984375
3260853125.0 0.4884033203125 -1.66522216796875
3292075000.0 -0.65289306640625 -1.69439697265625
3323296875.0 -1.61663818359375 -0.8778076171875
3354518750.0 -1.7264404296875 0.32635498046875
3385740625.0 -1.1534423828125 1.22918701171875
3416962500.0 -0.23095703125 1.6776123046875
3448184375.0 0.8583984375 1.518798828125
3479406250.0 1.634033203125 0.64227294921875
3510628125.0 1.64154052734375 -0.4954833984375
3541850000.0 0.99798583984375 -1.3525390625
3573071875.0 -0.0074462890625 -1.67852783203125
3604293750.0 -1.0255126953125 -1.33447265625
3635515625.0 -1.62384033203125 -0.4384765625
3666737500.0 -1.5596923828125 0.64617919921875
3697959375.0 -0.82391357421875 1.47259521484375
3729181250.0 0.26727294921875 1.62701416015625
3760403125.0 1.15106201171875 1.09564208984375
3791625000.0 1.5491943359375 0.2176513671875
3822846875.0 1.39910888671875 -0.7607421875
3854068750.0 0.6192626953125 -1.47784423828125
3885290625.0 -0.42071533203125 -1.478515625
3916512500.0 -1.1400146484375 -0.90960693359375
3947734375.0 -1.44549560546875 -0.11944580078125
3978956250.0 -1.2957763671875 0.77764892578125
4010178125.0 -0.530517578125 1.45220947265625
4041400000.0 0.47216796875 1.4124755859375
4072621875.0 1.14947509765625 0.84625244140625
4103843750.0 1.4415283203125 0.063720703125
4135065625.0 1.2655029296875 -0.84454345703125
4166287500.0 0.45721435546875 -1.492919921875
4197509375.0 -0.55670166015625 -1.4127197265625
4228731250.0 -1.24530029296875 -0.801513671875
4259953125.0 -1.506591796875 0.07049560546875
4291175000.0 -1.18621826171875 1.00811767578125
4322396875.0 -0.2890625 1.52374267578125
4353618750.0 0.67132568359375 1.34759521484375
4384840625.0 1.3194580078125 0.69635009765625
4416062500.0 1.49810791015625 -0.2269287109375
4447284375.0 1.05340576171875 -1.10333251953125
4478506250.0 0.17254638671875 -1.49267578125
4509728125.0 -0.73065185546875 -1.304931640625
4540950000.0 -1.39208984375 -0.63531494140625
4572171875.0 -1.52001953125 0.35870361328125
4603393750.0 -0.97125244140625 1.2108154296875
4634615625.0 -0.06085205078125 1.53558349609375
4665837500.0 0.8680419921875 1.30224609375
4697059375.0 1.53887939453125 0.51397705078125
4728281250.0 1.52642822265625 -0.5809326171875
4759503125.0 0.82220458984375 -1.364013671875
4790725000.0 -0.1456298828125 -1.5709228515625
4821946875.0 -1.08087158203125 -1.192138671875
4853168750.0 -1.610595703125 -0.2510986328125
4884390625.0 -1.37652587890625 0.7918701171875
4915612500.0 -0.612548828125 1.4088134765625
4946834375.0 0.32794189453125 1.5062255859375
4978056250.0 1.20245361328125 1.015869140625
5009278125.0 1.55914306640625 0.03961181640625
5040500000.0 1.22772216796875 -0.87445068359375
5071721875.0 0.501220703125 -1.413330078125
5102943750.0 -0.44482421875 -1.4945068359375
5134165625.0 -1.33282470703125 -0.90484619140625
5165387500.0 -1.56561279296875 0.1453857421875
5196609375.0 -1.13470458984375 1.006591796875
5227831250.0 -0.35736083984375 1.50323486328125
5259053125.0 0.68670654296875 1.48974609375
5290275000.0 1.519775390625 0.66204833984375
5321496875.0 1.49078369140625 -0.430419921875
5352718750.0 0.91961669921875 -1.1513671875
5383940625.0 0.09637451171875 -1.4979248046875
5415162500.0 -0.89825439453125 -1.28125
5446384375.0 -1.481201171875 -0.37054443359375
5477606250.0 -1.2969970703125 0.56524658203125
5508828125.0 -0.73052978515625 1.1485595703125
5540050000.0 0.0538330078125 1.39654541015625
5571271875.0 0.93695068359375 1.10699462890625
5602493750.0 1.40576171875 0.25994873046875
5633715625.0 1.2308349609375 -0.6123046875
5664937500.0 0.64715576171875 -1.199462890625
5696159375.0 -0.19647216796875 -1.38165283203125
5727381250.0 -1.01971435546875 -0.97711181640625
5758603125.0 -1.38970947265625 -0.14471435546875
5789825000.0 -1.19232177734375 0.716796875
5821046875.0 -0.5062255859375 1.30499267578125
5852268750.0 0.40997314453125 1.310791015625
5883490625.0 1.06890869140625 0.77117919921875
5914712500.0 1.30059814453125 0.02008056640625
5945934375.0 1.09454345703125 -0.77392578125
5977156250.0 0.36114501953125 -1.31103515625
6008378125.0 -0.50775146484375 -1.18048095703125
6039600000.0 -1.019775390625 -0.648681640625
6070821875.0 -1.22216796875 -0.00494384765625
6102043750.0 -1.08160400390625 0.7601318359375
6133265625.0 -0.341552734375 1.34271240234375
6164487500.0 0.5623779296875 1.185791015625
6195709375.0 1.06903076171875 0.62939453125
6226931250.0 1.2779541015625 -0.04205322265625
6258153125.0 1.10333251953125 -0.8704833984375
6289375000.0 0.25640869140625 -1.44476318359375
6320596875.0 -0.68768310546875 -1.205322265625
6351818750.0 -1.1990966796875 -0.5716552734375
6383040625.0 -1.35302734375 0.2061767578125
6414262500.0 -0.99908447265625 1.0560302734375
6445484375.0 -0.07843017578125 1.45538330078125
6476706250.0 0.79541015625 1.146728515625
6507928125.0 1.2884521484375 0.4696044921875
6539150000.0 1.34661865234375 -0.3865966796875
6570371875.0 0.8406982421875 -1.14208984375
6601593750.0 -0.01788330078125 -1.4041748046875
6632815625.0 -0.8377685546875 -1.13519287109375
6664037500.0 -1.3995361328125 -0.41961669921875
6695259375.0 -1.37152099609375 0.56439208984375
6726481250.0 -0.70977783203125 1.249267578125
6757703125.0 0.13037109375 1.40496826171875
6788925000.0 0.95343017578125 1.12939453125
6820146875.0 1.5576171875 0.28851318359375
6851368750.0 1.32476806640625 -0.8177490234375
6882590625.0 0.50604248046875 -1.3365478515625
6913812500.0 -0.29168701171875 -1.35455322265625
6945034375.0 -1.06744384765625 -1.0203857421875
6976256250.0 -1.59088134765625 -0.09405517578125
7007478125.0 -1.23590087890625 0.932373046875
7038700000.0 -0.4017333984375 1.3414306640625
7069921875.0 0.3577880859375 1.32122802734375
7101143750.0 1.115966796875 0.96728515625
7132365625.0 1.5975341796875 0.01483154296875
7163587500.0 1.1553955078125 -1.018310546875
7194809375.0 0.30206298828125 -1.3970947265625
7226031250.0 -0.50982666015625 -1.3233642578125
7257253125.0 -1.2669677734375 -0.8233642578125
7288475000.0 -1.5567626953125 0.197509765625
7319696875.0 -1.02960205078125 1.10748291015625
7350918750.0 -0.1646728515625 1.44195556640625
7382140625.0 0.71533203125 1.27471923828125
7413362500.0 1.37542724609375 0.57574462890625
7444584375.0 1.4097900390625 -0.4049072265625
7475806250.0 0.8570556640625 -1.13983154296875
7507028125.0 0.0062255859375 -1.4281005859375
7538250000.0 -0.8856201171875 -1.12286376953125
7569471875.0 -1.33563232421875 -0.31085205078125
7600693750.0 -1.20068359375 0.49639892578125
7631915625.0 -0.71734619140625 1.08331298828125
7663137500.0 0.080078125 1.35589599609375
7694359375.0 0.9390869140625 0.97882080078125
7725581250.0 1.2418212890625 0.17913818359375
7756803125.0 1.08099365234375 -0.496337890625
7788025000.0 0.669677734375 -1.04205322265625
7819246875.0 -0.11981201171875 -1.344970703125
7850468750.0 -0.9927978515625 -0.91552734375
7881690625.0 -1.22900390625 -0.1058349609375
7912912500.0 -1.05377197265625 0.55364990234375
7944134375.0 -0.60479736328125 1.111572265625
7975356250.0 0.2703857421875 1.334716796875
8006578125.0 1.04534912109375 0.7779541015625
8037800000.0 1.193603515625 0.01544189453125
8069021875.0 1.0062255859375 -0.6163330078125
8100243750.0 0.4991455078125 -1.16070556640625
8131465625.0 -0.38623046875 -1.25274658203125
8162687500.0 -1.03118896484375 -0.68609619140625
8193909375.0 -1.1795654296875 0.0091552734375
8225131250.0 -1.01678466796875 0.67620849609375
8256353125.0 -0.4205322265625 1.24853515625
8287575000.0 0.50079345703125 1.2252197265625
8318796875.0 1.0826416015625 0.6348876953125
8350018750.0 1.24298095703125 -0.0745849609375
8381240625.0 1.03057861328125 -0.83819580078125
8412462500.0 0.25543212890625 -1.36981201171875
8443684375.0 -0.66802978515625 -1.16949462890625
8474906250.0 -1.175537109375 -0.531494140625
8506128125.0 -1.296630859375 0.23614501953125
8537350000.0 -0.92376708984375 1.0465087890625
8568571875.0 -0.0157470703125 1.39276123046875
8599793750.0 0.80126953125 1.05303955078125
8631015625.0 1.240234375 0.39825439453125
8662237500.0 1.2840576171875 -0.42724609375
8693459375.0 0.7354736328125 -1.17474365234375
8724681250.0 -0.16192626953125 -1.3297119140625
8755903125.0 -0.87811279296875 -0.95654296875
8787125000.0 -1.30181884765625 -0.28173828125
8818346875.0 -1.25030517578125 0.61358642578125
8849568750.0 -0.55682373046875 1.258056640625
8880790625.0 0.298828125 1.2840576171875
8912012500.0 0.97833251953125 0.892120361328125
8943234375.0 1.39764404296875 0.12994384765625
8974456250.0 1.16522216796875 -0.83770751953125
9005678125.0 0.3485107421875 -1.3125
9036900000.0 -0.4447021484375 -1.22430419921875
9068121875.0 -1.10101318359375 -0.786376953125
9099343750.0 -1.44000244140625 0.09716796875
9130565625.0 -0.98040771484375 1.0081787109375
9161787500.0 -0.15435791015625 1.28204345703125
9193009375.0 0.5545654296875 1.13262939453125
9224231250.0 1.17926025390625 0.65411376953125
9255453125.0 1.398193359375 -0.29510498046875
9286675000.0 0.806640625 -1.08465576171875
9317896875.0 0.02685546875 -1.24578857421875
9349118750.0 -0.654541015625 -1.06988525390625
9380340625.0 -1.25579833984375 -0.509765625
9411562500.0 -1.310791015625 0.4754638671875
9442784375.0 -0.64727783203125 1.11541748046875
9474006250.0 0.08819580078125 1.2103271484375
9505228125.0 0.7623291015625 0.979400634765625
9536450000.0 1.2742919921875 0.31219482421875
9567671875.0 1.14251708984375 -0.57794189453125
9598893750.0 0.52911376953125 -1.06842041015625
9630115625.0 -0.1405029296875 -1.15484619140625
9661337500.0 -0.816070556640625 -0.902008056640625
9692559375.0 -1.238037109375 -0.19073486328125
9723781250.0 -1.0428466796875 0.60302734375
9755003125.0 -0.48590087890625 1.04888916015625
9786225000.0 0.19732666015625 1.15814208984375
9817446875.0 0.8953857421875 0.827728271484375
9848668750.0 1.19818115234375 0.07733154296875
9879890625.0 0.96734619140625 -0.616607666015625
9911112500.0 0.4525146484375 -1.05096435546875
9942334375.0 -0.26751708984375 -1.158203125
9973556250.0 -0.9410400390625 -0.73779296875
10004778125.0 -1.14654541015625 -0.0174560546875
10036000000.0 -0.943206787109375 0.6141357421875
10067221875.0 -0.44195556640625 1.0943603515625
10098443750.0 0.36895751953125 1.18096923828125
10129665625.0 1.00103759765625 0.64202880859375
10160887500.0 1.11859130859375 -0.0511474609375
10192109375.0 0.917022705078125 -0.66253662109375
10223331250.0 0.36212158203125 -1.15118408203125
10254553125.0 -0.4854736328125 -1.11395263671875
10285775000.0 -0.98443603515625 -0.536376953125
10316996875.0 -1.06622314453125 0.07611083984375
10348218750.0 -0.89971923828125 0.66925048828125
10379440625.0 -0.32220458984375 1.17510986328125
10410662500.0 0.5257568359375 1.085693359375
10441884375.0 0.9918212890625 0.521331787109375
10473106250.0 1.10760498046875 -0.08367919921875
10504328125.0 0.948699951171875 -0.75750732421875
10535550000.0 0.23974609375 -1.2945556640625
10566771875.0 -0.655517578125 -1.076904296875
10597993750.0 -1.08135986328125 -0.45904541015625
10629215625.0 -1.17364501953125 0.2042236328125
10660437500.0 -0.887115478515625 0.9490966796875
10691659375.0 -0.0107421875 1.3341064453125
10722881250.0 0.784027099609375 0.95220947265625
10754103125.0 1.1173095703125 0.3255615234375
10785325000.0 1.137451171875 -0.36614990234375
10816546875.0 0.7000732421875 -1.04852294921875
10847768750.0 -0.14501953125 -1.22802734375
10878990625.0 -0.804840087890625 -0.842864990234375
10910212500.0 -1.1217041015625 -0.24560546875
10941434375.0 -1.09637451171875 0.47509765625
10972656250.0 -0.569091796875 1.08551025390625
11003878125.0 0.2166748046875 1.173828125
11035100000.0 0.847625732421875 0.82086181640625
11066321875.0 1.21942138671875 0.1749267578125
11097543750.0 1.09735107421875 -0.67340087890625
11128765625.0 0.38616943359375 -1.198486328125
11159987500.0 -0.3958740234375 -1.13812255859375
11191209375.0 -0.997711181640625 -0.70196533203125
11222431250.0 -1.27008056640625 0.09228515625
11253653125.0 -0.858306884765625 0.89166259765625
11284875000.0 -0.11431884765625 1.12615966796875
11316096875.0 0.51123046875 0.95574951171875
11347318750.0 1.00396728515625 0.5013427734375
11378540625.0 1.11529541015625 -0.26702880859375
11409762500.0 0.63494873046875 -0.859588623046875
11440984375.0 0.035400390625 -0.977996826171875
11472206250.0 -0.480194091796875 -0.8497314453125
11503428125.0 -0.95037841796875 -0.456878662109375
11534650000.0 -1.06817626953125 0.28857421875
11565871875.0 -0.602508544921875 0.852996826171875
11597093750.0 -0.018646240234375 0.991119384765625
11628315625.0 0.54437255859375 0.875152587890625
11659537500.0 1.058837890625 0.39349365234375
11690759375.0 1.06439208984375 -0.432861328125
11721981250.0 0.516937255859375 -0.940155029296875
11753203125.0 -0.10400390625 -1.034423828125
11784425000.0 -0.72296142578125 -0.80902099609375
11815646875.0 -1.09967041015625 -0.15069580078125
11846868750.0 -0.8916015625 0.54931640625
11878090625.0 -0.391937255859375 0.907745361328125
11909312500.0 0.18756103515625 0.984222412109375
11940534375.0 0.7791748046875 0.694976806640625
11971756250.0 1.0250244140625 0.0399169921875
12002978125.0 0.805694580078125 -0.53570556640625
12034200000.0 0.382568359375 -0.888275146484375
12065421875.0 -0.21533203125 -1.00927734375
12096643750.0 -0.845794677734375 -0.66546630859375
12127865625.0 -1.03192138671875 0.01519775390625
12159087500.0 -0.814788818359375 0.5745849609375
12190309375.0 -0.377166748046875 0.97528076171875
12221531250.0 0.3382568359375 1.08697509765625
12252753125.0 0.978302001953125 0.581878662109375
12283975000.0 1.053955078125 -0.12689208984375
12315196875.0 0.800018310546875 -0.676727294921875
12346418750.0 0.28131103515625 -1.0906982421875
12377640625.0 -0.53814697265625 -1.0596923828125
12408862500.0 -1.0330810546875 -0.42022705078125
12440084375.0 -1.0074462890625 0.222412109375
12471306250.0 -0.74151611328125 0.73583984375
12502528125.0 -0.1795654296875 1.11962890625
12533750000.0 0.620147705078125 0.99346923828125
12564971875.0 1.04180908203125 0.36322021484375
12596193750.0 1.0283203125 -0.2642822265625
12627415625.0 0.747833251953125 -0.828369140625
12658637500.0 0.07952880859375 -1.2066650390625
12689859375.0 -0.733245849609375 -0.96514892578125
12721081250.0 -1.1168212890625 -0.3060302734375
12752303125.0 -1.09735107421875 0.37994384765625
12783525000.0 -0.68768310546875 1.02410888671875
12814746875.0 0.1649169921875 1.24920654296875
12845968750.0 0.86041259765625 0.810943603515625
12877190625.0 1.1163330078125 0.1722412109375
12908412500.0 1.05523681640625 -0.50006103515625
12939634375.0 0.54339599609375 -1.114990234375
12970856250.0 -0.3192138671875 -1.174560546875
13002078125.0 -0.895233154296875 -0.692901611328125
13033300000.0 -1.10577392578125 -0.0865478515625
13064521875.0 -1.009033203125 0.593505859375
13095743750.0 -0.41876220703125 1.15643310546875
13126965625.0 0.40887451171875 1.12030029296875
13158187500.0 0.945648193359375 0.63116455078125
13189409375.0 1.14691162109375 -0.021484375
13220631250.0 0.93499755859375 -0.746551513671875
13251853125.0 0.23370361328125 -1.1715087890625
13283075000.0 -0.5048828125 -1.0177001953125
13314296875.0 -0.986572265625 -0.529205322265625
