!Created with skrf (http://scikit-rf.org).
# Hz S RI R 50.0 
!freq ReS11 ImS11
45000000.0 -0.07721328735351562 -0.0967864990234375
76221875.0 -0.19661712646484375 -0.0472869873046875
107443750.0 -0.2550506591796875 0.1203460693359375
138665625.0 -0.1479644775390625 0.3290863037109375
169887500.0 0.12396240234375 0.4175262451171875
201109375.0 0.4223175048828125 0.2806854248046875
232331250.0 0.5791015625 -0.05828857421875
263553125.0 0.48944091796875 -0.45379638671875
294775000.0 0.097503662109375 -0.73297119140625
325996875.0 -0.416534423828125 -0.6805419921875
357218750.0 -0.80718994140625 -0.296356201171875
388440625.0 -0.8858642578125 0.30181884765625
419662500.0 -0.516448974609375 0.867706298828125
450884375.0 0.174560546875 1.02923583984375
482106250.0 0.799560546875 0.71209716796875
513328125.0 1.11993408203125 0.08599853515625
544550000.0 1.00341796875 -0.68121337890625
575771875.0 0.33502197265625 -1.23895263671875
606993750.0 -0.5552978515625 -1.17718505859375
638215625.0 -1.1668701171875 -0.5892333984375
669437500.0 -1.33984375 0.235107421875
700659375.0 -0.97003173828125 1.097412109375
731881250.0 -0.002197265625 1.54302978515625
763103125.0 1.00689697265625 1.15472412109375
794325000.0 1.4691162109375 0.28045654296875
825546875.0 1.3668212890625 -0.65283203125
856768750.0 0.79351806640625 -1.40216064453125
887990625.0 -0.294921875 -1.64837646484375
919212500.0 -1.2894287109375 -1.07757568359375
950434375.0 -1.64862060546875 -0.057373046875
981656250.0 -1.38177490234375 0.94757080078125
1012878125.0 -0.528076171875 1.67218017578125
1044100000.0 0.698974609375 1.66119384765625
1075321875.0 1.575439453125 0.81005859375
1106543750.0 1.70489501953125 -0.31524658203125
1137765625.0 1.18536376953125 -1.2862548828125
1168987500.0 0.1363525390625 -1.79705810546875
1200209375.0 -1.06341552734375 -1.48248291015625
1231431250.0 -1.72796630859375 -0.45147705078125
1262653125.0 -1.59375 0.6866455078125
1293875000.0 -0.85015869140625 1.4927978515625
1325096875.0 0.2298583984375 1.70611572265625
1356318750.0 1.23626708984375 1.2152099609375
1387540625.0 1.7398681640625 0.1871337890625
1418762500.0 1.46844482421875 -0.95318603515625
1449984375.0 0.52801513671875 -1.62615966796875
1481206250.0 -0.5513916015625 -1.55548095703125
1512428125.0 -1.34295654296875 -0.91778564453125
1543650000.0 -1.65576171875 0.06707763671875
1574871875.0 -1.27203369140625 1.1104736328125
1606093750.0 -0.27105712890625 1.63153076171875
1637315625.0 0.74371337890625 1.39923095703125
1668537500.0 1.39678955078125 0.69427490234375
1699759375.0 1.57244873046875 -0.2791748046875
1730981250.0 1.06256103515625 -1.2301025390625
1762203125.0 0.04052734375 -1.57025146484375
1793425000.0 -0.85650634765625 -1.22528076171875
1824646875.0 -1.393798828125 -0.51373291015625
1855868750.0 -1.4732666015625 0.433349609375
1887090625.0 -0.87359619140625 1.28607177734375
1918312500.0 0.11834716796875 1.48663330078125
1949534375.0 0.92218017578125 1.0882568359375
1980756250.0 1.3756103515625 0.36871337890625
2011978125.0 1.35882568359375 -0.53326416015625
2043200000.0 0.748291015625 -1.26190185546875
2074421875.0 -0.15838623046875 -1.43292236328125
2105643750.0 -0.9610595703125 -1.0716552734375
2136865625.0 -1.447265625 -0.3035888671875
2168087500.0 -1.35577392578125 0.6722412109375
2199309375.0 -0.637451171875 1.35162353515625
2230531250.0 0.2830810546875 1.43536376953125
2261753125.0 1.0732421875 1.01275634765625
2292975000.0 1.5142822265625 0.1690673828125
2324196875.0 1.30438232421875 -0.819580078125
2355418750.0 0.52398681640625 -1.42010498046875
2386640625.0 -0.405517578125 -1.4483642578125
2417862500.0 -1.179931640625 -1.02264404296875
2449084375.0 -1.6051025390625 -0.0823974609375
2480306250.0 -1.31060791015625 0.92633056640625
2511528125.0 -0.49237060546875 1.5079345703125
2542750000.0 0.48992919921875 1.53570556640625
2573971875.0 1.3726806640625 0.96636962890625
2605193750.0 1.71722412109375 -0.1138916015625
2636415625.0 1.26007080078125 -1.15264892578125
2667637500.0 0.3052978515625 -1.66656494140625
2698859375.0 -0.7701416015625 -1.53271484375
2730081250.0 -1.57379150390625 -0.7384033203125
2761303125.0 -1.68048095703125 0.39019775390625
2792525000.0 -1.09747314453125 1.3070068359375
2823746875.0 -0.10076904296875 1.7283935546875
2854968750.0 1.01287841796875 1.45391845703125
2886190625.0 1.69189453125 0.48968505859375
2917412500.0 1.59869384765625 -0.6197509765625
2948634375.0 0.93853759765625 -1.4329833984375
2979856250.0 -0.109619140625 -1.77569580078125
3011078125.0 -1.2506103515625 -1.3409423828125
3042300000.0 -1.77484130859375 -0.232666015625
3073521875.0 -1.50689697265625 0.84014892578125
3104743750.0 -0.7618408203125 1.56927490234375
3135965625.0 0.36285400390625 1.80755615234375
3167187500.0 1.500732421875 1.16241455078125
3198409375.0 1.81414794921875 -0.076416015625
3229631250.0 1.34735107421875 -1.08209228515625
3260853125.0 0.48736572265625 -1.66839599609375
3292075000.0 -0.65643310546875 -1.6964111328125
3323296875.0 -1.61932373046875 -0.87744140625
3354518750.0 -1.728515625 0.32965087890625
3385740625.0 -1.15399169921875 1.23175048828125
3416962500.0 -0.230224609375 1.68048095703125
3448184375.0 0.86083984375 1.5201416015625
3479406250.0 1.63470458984375 0.6429443359375
3510628125.0 1.642333984375 -0.4962158203125
3541850000.0 0.9993896484375 -1.35565185546875
3573071875.0 -0.0101318359375 -1.6827392578125
3604293750.0 -1.0286865234375 -1.33612060546875
3635515625.0 -1.62738037109375 -0.43658447265625
3666737500.0 -1.55963134765625 0.6456298828125
3697959375.0 -0.82354736328125 1.47625732421875
3729181250.0 0.2696533203125 1.63018798828125
3760403125.0 1.15264892578125 1.096435546875
3791625000.0 1.55242919921875 0.216064453125
3822846875.0 1.4000244140625 -0.7623291015625
3854068750.0 0.61846923828125 -1.48150634765625
3885290625.0 -0.42205810546875 -1.480224609375
3916512500.0 -1.14208984375 -0.90972900390625
3947734375.0 -1.44573974609375 -0.1195068359375
3978956250.0 -1.29669189453125 0.77911376953125
4010178125.0 -0.5301513671875 1.4539794921875
4041400000.0 0.47283935546875 1.41387939453125
4072621875.0 1.1517333984375 0.84625244140625
4103843750.0 1.44390869140625 0.062744140625
4135065625.0 1.266357421875 -0.8463134765625
4166287500.0 0.456298828125 -1.4949951171875
4197509375.0 -0.558349609375 -1.41455078125
4228731250.0 -1.24871826171875 -0.80194091796875
4259953125.0 -1.5086669921875 0.0716552734375
4291175000.0 -1.18682861328125 1.01043701171875
4322396875.0 -0.28802490234375 1.52587890625
4353618750.0 0.67388916015625 1.34881591796875
4384840625.0 1.32305908203125 0.69537353515625
4416062500.0 1.5 -0.22882080078125
4447284375.0 1.0538330078125 -1.10333251953125
4478506250.0 0.171142578125 -1.49456787109375
4509728125.0 -0.7330322265625 -1.30670166015625
4540950000.0 -1.39227294921875 -0.6353759765625
4572171875.0 -1.521728515625 0.36077880859375
4603393750.0 -0.97125244140625 1.21270751953125
4634615625.0 -0.0606689453125 1.53607177734375
4665837500.0 0.870849609375 1.303466796875
4697059375.0 1.54083251953125 0.514404296875
4728281250.0 1.52813720703125 -0.58233642578125
4759503125.0 0.822021484375 -1.366455078125
4790725000.0 -0.1468505859375 -1.57281494140625
4821946875.0 -1.0838623046875 -1.193115234375
4853168750.0 -1.613037109375 -0.2501220703125
4884390625.0 -1.37738037109375 0.794189453125
4915612500.0 -0.6123046875 1.411865234375
4946834375.0 0.3302001953125 1.50799560546875
4978056250.0 1.2056884765625 1.01617431640625
5009278125.0 1.56109619140625 0.0386962890625
5040500000.0 1.22796630859375 -0.8758544921875
5071721875.0 0.50128173828125 -1.41302490234375
5102943750.0 -0.447021484375 -1.49530029296875
5134165625.0 -1.33526611328125 -0.9041748046875
5165387500.0 -1.56805419921875 0.147705078125
5196609375.0 -1.135986328125 1.01068115234375
5227831250.0 -0.3565673828125 1.50592041015625
5259053125.0 0.6876220703125 1.49114990234375
5290275000.0 1.5220947265625 0.66241455078125
5321496875.0 1.491943359375 -0.431640625
5352718750.0 0.92010498046875 -1.15374755859375
5383940625.0 0.0955810546875 -1.49993896484375
5415162500.0 -0.90155029296875 -1.28265380859375
5446384375.0 -1.4830322265625 -0.36956787109375
5477606250.0 -1.298583984375 0.56732177734375
5508828125.0 -0.73028564453125 1.1513671875
5540050000.0 0.054931640625 1.39801025390625
5571271875.0 0.93939208984375 1.10809326171875
5602493750.0 1.4078369140625 0.25909423828125
5633715625.0 1.2315673828125 -0.6124267578125
5664937500.0 0.647705078125 -1.20074462890625
5696159375.0 -0.19647216796875 -1.383056640625
5727381250.0 -1.0223388671875 -0.97796630859375
5758603125.0 -1.390869140625 -0.14447021484375
5789825000.0 -1.19342041015625 0.71795654296875
5821046875.0 -0.5062255859375 1.30609130859375
5852268750.0 0.41253662109375 1.3134765625
5883490625.0 1.07073974609375 0.771728515625
5914712500.0 1.30303955078125 0.01849365234375
5945934375.0 1.09552001953125 -0.776123046875
5977156250.0 0.36041259765625 -1.312255859375
6008378125.0 -0.5096435546875 -1.18170166015625
6039600000.0 -1.02239990234375 -0.64837646484375
6070821875.0 -1.2239990234375 -0.0035400390625
6102043750.0 -1.0823974609375 0.76287841796875
6133265625.0 -0.3414306640625 1.344482421875
6164487500.0 0.5634765625 1.18701171875
6195709375.0 1.07049560546875 0.62939453125
6226931250.0 1.27880859375 -0.0430908203125
6258153125.0 1.10406494140625 -0.87109375
6289375000.0 0.25604248046875 -1.4453125
6320596875.0 -0.68896484375 -1.20611572265625
6351818750.0 -1.20086669921875 -0.57159423828125
6383040625.0 -1.3546142578125 0.20709228515625
6414262500.0 -0.99957275390625 1.05743408203125
6445484375.0 -0.077880859375 1.45635986328125
6476706250.0 0.79595947265625 1.14715576171875
6507928125.0 1.29071044921875 0.46954345703125
6539150000.0 1.34747314453125 -0.38739013671875
6570371875.0 0.84033203125 -1.1451416015625
6601593750.0 -0.0184326171875 -1.405029296875
6632815625.0 -0.839599609375 -1.1351318359375
6664037500.0 -1.4014892578125 -0.419189453125
6695259375.0 -1.373046875 0.565673828125
6726481250.0 -0.7098388671875 1.25079345703125
6757703125.0 0.131591796875 1.4068603515625
6788925000.0 0.95489501953125 1.1302490234375
6820146875.0 1.5596923828125 0.28753662109375
6851368750.0 1.32598876953125 -0.8201904296875
6882590625.0 0.50616455078125 -1.337646484375
6913812500.0 -0.29345703125 -1.35699462890625
6945034375.0 -1.0709228515625 -1.02117919921875
6976256250.0 -1.59417724609375 -0.091552734375
7007478125.0 -1.23638916015625 0.93463134765625
7038700000.0 -0.40130615234375 1.34490966796875
7069921875.0 0.35858154296875 1.3228759765625
7101143750.0 1.11871337890625 0.96881103515625
7132365625.0 1.5992431640625 0.0120849609375
7163587500.0 1.15753173828125 -1.02032470703125
7194809375.0 0.3021240234375 -1.39642333984375
7226031250.0 -0.51190185546875 -1.32470703125
7257253125.0 -1.26495361328125 -0.8233642578125
7288475000.0 -1.55645751953125 0.1978759765625
7319696875.0 -1.0294189453125 1.113037109375
7350918750.0 -0.16473388671875 1.44427490234375
7382140625.0 0.714599609375 1.2763671875
7413362500.0 1.3768310546875 0.5750732421875
7444584375.0 1.41162109375 -0.4051513671875
7475806250.0 0.85693359375 -1.142822265625
7507028125.0 0.003662109375 -1.42999267578125
7538250000.0 -0.88861083984375 -1.12371826171875
7569471875.0 -1.33636474609375 -0.3109130859375
7600693750.0 -1.20257568359375 0.498046875
7631915625.0 -0.7169189453125 1.0869140625
7663137500.0 0.08099365234375 1.35833740234375
7694359375.0 0.93829345703125 0.979827880859375
7725581250.0 1.24395751953125 0.17901611328125
7756803125.0 1.08160400390625 -0.49810791015625
7788025000.0 0.6693115234375 -1.043212890625
7819246875.0 -0.1195068359375 -1.34600830078125
7850468750.0 -0.990631103515625 -0.915679931640625
7881690625.0 -1.23199462890625 -0.10504150390625
7912912500.0 -1.0548095703125 0.55401611328125
7944134375.0 -0.6053466796875 1.11224365234375
7975356250.0 0.27264404296875 1.33526611328125
8006578125.0 1.04754638671875 0.7789306640625
8037800000.0 1.1932373046875 0.01654052734375
8069021875.0 1.0062255859375 -0.6197509765625
8100243750.0 0.4998779296875 -1.1607666015625
8131465625.0 -0.38775634765625 -1.2540283203125
8162687500.0 -1.0338134765625 -0.68560791015625
8193909375.0 -1.18072509765625 0.01019287109375
8225131250.0 -1.01800537109375 0.678466796875
8256353125.0 -0.42047119140625 1.2484130859375
8287575000.0 0.50164794921875 1.22467041015625
8318796875.0 1.0823974609375 0.6339111328125
8350018750.0 1.2445068359375 -0.0753173828125
8381240625.0 1.03070068359375 -0.83807373046875
8412462500.0 0.25445556640625 -1.37164306640625
8443684375.0 -0.67071533203125 -1.169921875
8474906250.0 -1.17535400390625 -0.53228759765625
8506128125.0 -1.29803466796875 0.23724365234375
8537350000.0 -0.92486572265625 1.04541015625
8568571875.0 -0.0162353515625 1.39398193359375
8599793750.0 0.80230712890625 1.0526123046875
8631015625.0 1.24334716796875 0.39715576171875
8662237500.0 1.28533935546875 -0.4300537109375
8693459375.0 0.73724365234375 -1.17791748046875
8724681250.0 -0.16217041015625 -1.33184814453125
8755903125.0 -0.88043212890625 -0.956787109375
8787125000.0 -1.30242919921875 -0.2818603515625
8818346875.0 -1.2503662109375 0.616943359375
8849568750.0 -0.55657958984375 1.2608642578125
8880790625.0 0.2989501953125 1.285400390625
8912012500.0 0.980316162109375 0.891082763671875
8943234375.0 1.399658203125 0.1279296875
8974456250.0 1.1669921875 -0.84088134765625
9005678125.0 0.3486328125 -1.31317138671875
9036900000.0 -0.445556640625 -1.22491455078125
9068121875.0 -1.1011962890625 -0.7869873046875
9099343750.0 -1.44281005859375 0.09771728515625
9130565625.0 -0.9801025390625 1.0107421875
9161787500.0 -0.1541748046875 1.2833251953125
9193009375.0 0.556640625 1.13348388671875
9224231250.0 1.179443359375 0.65570068359375
9255453125.0 1.3988037109375 -0.29638671875
9286675000.0 0.8060302734375 -1.086669921875
9317896875.0 0.0263671875 -1.245849609375
9349118750.0 -0.65576171875 -1.0693359375
9380340625.0 -1.25653076171875 -0.50958251953125
9411562500.0 -1.3106689453125 0.47637939453125
9442784375.0 -0.6485595703125 1.11444091796875
9474006250.0 0.08905029296875 1.2115478515625
9505228125.0 0.7650146484375 0.979766845703125
9536450000.0 1.27398681640625 0.31365966796875
9567671875.0 1.14556884765625 -0.58245849609375
9598893750.0 0.52886962890625 -1.06854248046875
9630115625.0 -0.14410400390625 -1.158203125
9661337500.0 -0.817962646484375 -0.9024658203125
9692559375.0 -1.23980712890625 -0.190185546875
9723781250.0 -1.044921875 0.60394287109375
9755003125.0 -0.48651123046875 1.0506591796875
9786225000.0 0.19793701171875 1.1585693359375
9817446875.0 0.89471435546875 0.828155517578125
9848668750.0 1.1981201171875 0.078125
9879890625.0 0.96905517578125 -0.6173095703125
9911112500.0 0.45172119140625 -1.05230712890625
9942334375.0 -0.26678466796875 -1.1585693359375
9973556250.0 -0.943603515625 -0.7386474609375
10004778125.0 -1.14520263671875 -0.01812744140625
10036000000.0 -0.944427490234375 0.61602783203125
10067221875.0 -0.44134521484375 1.09747314453125
10098443750.0 0.36944580078125 1.18182373046875
10129665625.0 1.0035400390625 0.64349365234375
10160887500.0 1.1207275390625 -0.0516357421875
10192109375.0 0.917755126953125 -0.66290283203125
10223331250.0 0.3616943359375 -1.153076171875
10254553125.0 -0.48565673828125 -1.113525390625
10285775000.0 -0.98675537109375 -0.53631591796875
10316996875.0 -1.06781005859375 0.076904296875
10348218750.0 -0.899749755859375 0.671051025390625
10379440625.0 -0.3223876953125 1.17535400390625
10410662500.0 0.5284423828125 1.085693359375
10441884375.0 0.992462158203125 0.521453857421875
10473106250.0 1.10943603515625 -0.08526611328125
10504328125.0 0.949432373046875 -0.759246826171875
10535550000.0 0.2410888671875 -1.29400634765625
10566771875.0 -0.6578369140625 -1.0775146484375
10597993750.0 -1.08074951171875 -0.45880126953125
10629215625.0 -1.17535400390625 0.20501708984375
10660437500.0 -0.887451171875 0.951904296875
10691659375.0 -0.01116943359375 1.33538818359375
10722881250.0 0.785491943359375 0.953033447265625
10754103125.0 1.11932373046875 0.324951171875
10785325000.0 1.1397705078125 -0.36810302734375
10816546875.0 0.70086669921875 -1.04937744140625
10847768750.0 -0.14630126953125 -1.23065185546875
10878990625.0 -0.8031005859375 -0.842926025390625
10910212500.0 -1.1221923828125 -0.24554443359375
10941434375.0 -1.09716796875 0.47735595703125
10972656250.0 -0.5679931640625 1.0849609375
11003878125.0 0.2174072265625 1.17376708984375
11035100000.0 0.846527099609375 0.82147216796875
11066321875.0 1.22137451171875 0.17431640625
11097543750.0 1.0982666015625 -0.67791748046875
11128765625.0 0.38482666015625 -1.19989013671875
11159987500.0 -0.39569091796875 -1.1402587890625
11191209375.0 -0.99969482421875 -0.70184326171875
11222431250.0 -1.27227783203125 0.09320068359375
11253653125.0 -0.8594970703125 0.894195556640625
11284875000.0 -0.1151123046875 1.126708984375
11316096875.0 0.51177978515625 0.957183837890625
11347318750.0 1.0037841796875 0.501708984375
11378540625.0 1.1171875 -0.26953125
11409762500.0 0.635162353515625 -0.860107421875
11440984375.0 0.0350341796875 -0.980010986328125
11472206250.0 -0.4825439453125 -0.85040283203125
11503428125.0 -0.9532470703125 -0.45599365234375
11534650000.0 -1.0684814453125 0.287841796875
11565871875.0 -0.602325439453125 0.852691650390625
11597093750.0 -0.017333984375 0.991790771484375
11628315625.0 0.544952392578125 0.8759765625
11659537500.0 1.05999755859375 0.39215087890625
11690759375.0 1.0650634765625 -0.43255615234375
11721981250.0 0.517303466796875 -0.939910888671875
11753203125.0 -0.10546875 -1.036376953125
11784425000.0 -0.72509765625 -0.808929443359375
11815646875.0 -1.10211181640625 -0.15057373046875
11846868750.0 -0.8916015625 0.55267333984375
11878090625.0 -0.39129638671875 0.908355712890625
11909312500.0 0.1871337890625 0.984710693359375
11940534375.0 0.779876708984375 0.695068359375
11971756250.0 1.02618408203125 0.0389404296875
12002978125.0 0.80615234375 -0.537200927734375
12034200000.0 0.3817138671875 -0.8880615234375
12065421875.0 -0.21453857421875 -1.01031494140625
12096643750.0 -0.84771728515625 -0.665496826171875
12127865625.0 -1.0345458984375 0.01708984375
12159087500.0 -0.8153076171875 0.57421875
12190309375.0 -0.378448486328125 0.973876953125
12221531250.0 0.3392333984375 1.0885009765625
12252753125.0 0.981048583984375 0.58197021484375
12283975000.0 1.05450439453125 -0.1278076171875
12315196875.0 0.80029296875 -0.677093505859375
12346418750.0 0.28155517578125 -1.09173583984375
12377640625.0 -0.5380859375 -1.06109619140625
12408862500.0 -1.0340576171875 -0.42071533203125
12440084375.0 -1.00909423828125 0.2252197265625
12471306250.0 -0.742095947265625 0.736175537109375
12502528125.0 -0.17901611328125 1.1202392578125
12533750000.0 0.621124267578125 0.99481201171875
12564971875.0 1.0423583984375 0.364013671875
12596193750.0 1.03033447265625 -0.265625
12627415625.0 0.747467041015625 -0.8289794921875
12658637500.0 0.07806396484375 -1.20941162109375
12689859375.0 -0.735565185546875 -0.96661376953125
12721081250.0 -1.1170654296875 -0.30596923828125
12752303125.0 -1.0986328125 0.38238525390625
12783525000.0 -0.68841552734375 1.0277099609375
12814746875.0 0.16455078125 1.251220703125
12845968750.0 0.862152099609375 0.812744140625
12877190625.0 1.120361328125 0.1715087890625
12908412500.0 1.0567626953125 -0.50189208984375
12939634375.0 0.54290771484375 -1.1175537109375
12970856250.0 -0.32122802734375 -1.1759033203125
13002078125.0 -0.8936767578125 -0.693572998046875
13033300000.0 -1.10540771484375 -0.0869140625
13064521875.0 -1.00958251953125 0.5928955078125
13095743750.0 -0.41961669921875 1.15570068359375
13126965625.0 0.409912109375 1.1212158203125
13158187500.0 0.946685791015625 0.631317138671875
13189409375.0 1.14910888671875 -0.02239990234375
13220631250.0 0.93572998046875 -0.746826171875
13251853125.0 0.23394775390625 -1.17333984375
13283075000.0 -0.50921630859375 -1.02056884765625
13314296875.0 -0.9874267578125 -0.5291748046875
