!Created with skrf (http://scikit-rf.org).
# Hz S RI R 50.0 
!freq ReS11 ImS11
45000000.0 -0.07708358764648438 -0.09678268432617188
76221875.0 -0.19641876220703125 -0.0472869873046875
107443750.0 -0.2547607421875 0.120086669921875
138665625.0 -0.1476898193359375 0.3289947509765625
169887500.0 0.1241912841796875 0.4172821044921875
201109375.0 0.422119140625 0.2802734375
232331250.0 0.578887939453125 -0.0579833984375
263553125.0 0.4889678955078125 -0.452972412109375
294775000.0 0.09759521484375 -0.73260498046875
325996875.0 -0.41619873046875 -0.67999267578125
357218750.0 -0.806488037109375 -0.29608154296875
388440625.0 -0.885101318359375 0.301666259765625
419662500.0 -0.51593017578125 0.86669921875
450884375.0 0.17437744140625 1.0283203125
482106250.0 0.79913330078125 0.711578369140625
513328125.0 1.1192626953125 0.0859375
544550000.0 1.00286865234375 -0.6807861328125
575771875.0 0.33502197265625 -1.23846435546875
606993750.0 -0.55499267578125 -1.17645263671875
638215625.0 -1.16595458984375 -0.58905029296875
669437500.0 -1.339111328125 0.23486328125
700659375.0 -0.9697265625 1.096923828125
731881250.0 -0.00225830078125 1.5426025390625
763103125.0 1.0064697265625 1.15435791015625
794325000.0 1.468505859375 0.2801513671875
825546875.0 1.36614990234375 -0.6524658203125
856768750.0 0.79248046875 -1.40106201171875
887990625.0 -0.2945556640625 -1.64727783203125
919212500.0 -1.28887939453125 -1.076904296875
950434375.0 -1.64794921875 -0.05718994140625
981656250.0 -1.38104248046875 0.94696044921875
1012878125.0 -0.52783203125 1.67132568359375
1044100000.0 0.698486328125 1.66009521484375
1075321875.0 1.57452392578125 0.8096923828125
1106543750.0 1.70318603515625 -0.31439208984375
1137765625.0 1.18450927734375 -1.2847900390625
1168987500.0 0.1361083984375 -1.79632568359375
1200209375.0 -1.06280517578125 -1.48162841796875
1231431250.0 -1.72662353515625 -0.45159912109375
1262653125.0 -1.59259033203125 0.68646240234375
1293875000.0 -0.84967041015625 1.4913330078125
1325096875.0 0.2296142578125 1.70489501953125
1356318750.0 1.23553466796875 1.2144775390625
1387540625.0 1.7388916015625 0.1873779296875
1418762500.0 1.46734619140625 -0.95220947265625
1449984375.0 0.52728271484375 -1.62542724609375
1481206250.0 -0.55133056640625 -1.5545654296875
1512428125.0 -1.3419189453125 -0.91802978515625
1543650000.0 -1.654052734375 0.0665283203125
1574871875.0 -1.27154541015625 1.1094970703125
1606093750.0 -0.271240234375 1.630615234375
1637315625.0 0.74322509765625 1.3985595703125
1668537500.0 1.395751953125 0.69384765625
1699759375.0 1.57171630859375 -0.27862548828125
1730981250.0 1.0618896484375 -1.2291259765625
1762203125.0 0.04046630859375 -1.56939697265625
1793425000.0 -0.856689453125 -1.224609375
1824646875.0 -1.392578125 -0.51348876953125
1855868750.0 -1.4727783203125 0.43328857421875
1887090625.0 -0.87335205078125 1.284912109375
1918312500.0 0.1182861328125 1.48577880859375
1949534375.0 0.9215087890625 1.08746337890625
1980756250.0 1.37451171875 0.36871337890625
2011978125.0 1.35809326171875 -0.53216552734375
2043200000.0 0.748291015625 -1.26123046875
2074421875.0 -0.15826416015625 -1.431884765625
2105643750.0 -0.9600830078125 -1.070556640625
2136865625.0 -1.44635009765625 -0.30377197265625
2168087500.0 -1.35540771484375 0.67169189453125
2199309375.0 -0.63726806640625 1.35064697265625
2230531250.0 0.28228759765625 1.4345703125
2261753125.0 1.0723876953125 1.01251220703125
2292975000.0 1.51318359375 0.16943359375
2324196875.0 1.3037109375 -0.81878662109375
2355418750.0 0.52374267578125 -1.4188232421875
2386640625.0 -0.40509033203125 -1.44769287109375
2417862500.0 -1.1800537109375 -1.022705078125
2449084375.0 -1.6041259765625 -0.08209228515625
2480306250.0 -1.30926513671875 0.9261474609375
2511528125.0 -0.4915771484375 1.5072021484375
2542750000.0 0.48883056640625 1.5343017578125
2573971875.0 1.370361328125 0.96612548828125
2605193750.0 1.71600341796875 -0.11444091796875
2636415625.0 1.2591552734375 -1.15252685546875
2667637500.0 0.304443359375 -1.66595458984375
2698859375.0 -0.77056884765625 -1.5318603515625
2730081250.0 -1.57220458984375 -0.73876953125
2761303125.0 -1.6787109375 0.3880615234375
2792525000.0 -1.09649658203125 1.3072509765625
2823746875.0 -0.09967041015625 1.7288818359375
2854968750.0 1.0115966796875 1.45294189453125
2886190625.0 1.6903076171875 0.48980712890625
2917412500.0 1.597412109375 -0.61810302734375
2948634375.0 0.9376220703125 -1.43218994140625
2979856250.0 -0.10931396484375 -1.77398681640625
3011078125.0 -1.248046875 -1.3394775390625
3042300000.0 -1.77313232421875 -0.2327880859375
3073521875.0 -1.50567626953125 0.83843994140625
3104743750.0 -0.76123046875 1.56744384765625
3135965625.0 0.36322021484375 1.8074951171875
3167187500.0 1.49835205078125 1.1614990234375
3198409375.0 1.81402587890625 -0.07696533203125
3229631250.0 1.34686279296875 -1.08087158203125
3260853125.0 0.4871826171875 -1.6669921875
3292075000.0 -0.65521240234375 -1.69525146484375
3323296875.0 -1.617919921875 -0.87738037109375
3354518750.0 -1.7274169921875 0.32977294921875
3385740625.0 -1.15362548828125 1.23150634765625
3416962500.0 -0.23028564453125 1.6788330078125
3448184375.0 0.85821533203125 1.51885986328125
3479406250.0 1.6343994140625 0.64215087890625
3510628125.0 1.642333984375 -0.49639892578125
3541850000.0 0.99786376953125 -1.3541259765625
3573071875.0 -0.0086669921875 -1.68084716796875
3604293750.0 -1.0272216796875 -1.3350830078125
3635515625.0 -1.62493896484375 -0.43701171875
3666737500.0 -1.55902099609375 0.6461181640625
3697959375.0 -0.82293701171875 1.4742431640625
3729181250.0 0.27001953125 1.62908935546875
3760403125.0 1.1522216796875 1.09576416015625
3791625000.0 1.55047607421875 0.216552734375
3822846875.0 1.39935302734375 -0.76171875
3854068750.0 0.618408203125 -1.4788818359375
3885290625.0 -0.4212646484375 -1.478515625
3916512500.0 -1.141845703125 -0.9091796875
3947734375.0 -1.44659423828125 -0.11810302734375
3978956250.0 -1.2947998046875 0.77978515625
4010178125.0 -0.52984619140625 1.45233154296875
4041400000.0 0.4736328125 1.41326904296875
4072621875.0 1.1512451171875 0.84619140625
4103843750.0 1.44256591796875 0.062744140625
4135065625.0 1.2657470703125 -0.8460693359375
4166287500.0 0.4566650390625 -1.49456787109375
4197509375.0 -0.55731201171875 -1.41278076171875
4228731250.0 -1.2462158203125 -0.801025390625
4259953125.0 -1.50726318359375 0.07061767578125
4291175000.0 -1.1865234375 1.00982666015625
4322396875.0 -0.2872314453125 1.5260009765625
4353618750.0 0.67340087890625 1.3482666015625
4384840625.0 1.32177734375 0.69549560546875
4416062500.0 1.49981689453125 -0.2293701171875
4447284375.0 1.0533447265625 -1.1031494140625
4478506250.0 0.171142578125 -1.49395751953125
4509728125.0 -0.73199462890625 -1.305908203125
4540950000.0 -1.3916015625 -0.6351318359375
4572171875.0 -1.52032470703125 0.36016845703125
4603393750.0 -0.9710693359375 1.2117919921875
4634615625.0 -0.0606689453125 1.535400390625
4665837500.0 0.86962890625 1.3026123046875
4697059375.0 1.54107666015625 0.513427734375
4728281250.0 1.52783203125 -0.58331298828125
4759503125.0 0.82147216796875 -1.36639404296875
4790725000.0 -0.146240234375 -1.570068359375
4821946875.0 -1.08367919921875 -1.19219970703125
4853168750.0 -1.61175537109375 -0.2501220703125
4884390625.0 -1.37628173828125 0.79339599609375
4915612500.0 -0.612060546875 1.41094970703125
4946834375.0 0.3280029296875 1.50701904296875
4978056250.0 1.20501708984375 1.0155029296875
5009278125.0 1.56036376953125 0.03875732421875
5040500000.0 1.2271728515625 -0.87420654296875
5071721875.0 0.50018310546875 -1.41278076171875
5102943750.0 -0.44659423828125 -1.4947509765625
5134165625.0 -1.3348388671875 -0.90411376953125
5165387500.0 -1.5660400390625 0.14666748046875
5196609375.0 -1.13458251953125 1.010009765625
5227831250.0 -0.3563232421875 1.50537109375
5259053125.0 0.68817138671875 1.4903564453125
5290275000.0 1.520751953125 0.66229248046875
5321496875.0 1.4903564453125 -0.4307861328125
5352718750.0 0.91943359375 -1.15289306640625
5383940625.0 0.0958251953125 -1.4989013671875
5415162500.0 -0.90093994140625 -1.28228759765625
5446384375.0 -1.483154296875 -0.368896484375
5477606250.0 -1.2974853515625 0.56683349609375
5508828125.0 -0.72998046875 1.1505126953125
5540050000.0 0.0555419921875 1.39886474609375
5571271875.0 0.93804931640625 1.1075439453125
5602493750.0 1.4075927734375 0.25860595703125
5633715625.0 1.23052978515625 -0.6121826171875
5664937500.0 0.647216796875 -1.2008056640625
5696159375.0 -0.197021484375 -1.3824462890625
5727381250.0 -1.02203369140625 -0.97723388671875
5758603125.0 -1.3907470703125 -0.14459228515625
5789825000.0 -1.19268798828125 0.7176513671875
5821046875.0 -0.5052490234375 1.3065185546875
5852268750.0 0.41241455078125 1.3126220703125
5883490625.0 1.069580078125 0.77154541015625
5914712500.0 1.30126953125 0.01947021484375
5945934375.0 1.09515380859375 -0.77593994140625
5977156250.0 0.3609619140625 -1.31072998046875
6008378125.0 -0.50927734375 -1.18145751953125
6039600000.0 -1.021240234375 -0.64813232421875
6070821875.0 -1.22308349609375 -0.00396728515625
6102043750.0 -1.08148193359375 0.7620849609375
6133265625.0 -0.34124755859375 1.344482421875
6164487500.0 0.56341552734375 1.18634033203125
6195709375.0 1.0694580078125 0.62933349609375
6226931250.0 1.27886962890625 -0.04278564453125
6258153125.0 1.103271484375 -0.87176513671875
6289375000.0 0.25616455078125 -1.44464111328125
6320596875.0 -0.69012451171875 -1.20501708984375
6351818750.0 -1.19873046875 -0.57147216796875
6383040625.0 -1.35394287109375 0.20721435546875
6414262500.0 -0.9990234375 1.056396484375
6445484375.0 -0.07763671875 1.4559326171875
6476706250.0 0.79547119140625 1.1466064453125
6507928125.0 1.29022216796875 0.46954345703125
6539150000.0 1.346435546875 -0.387451171875
6570371875.0 0.84039306640625 -1.14227294921875
6601593750.0 -0.0184326171875 -1.40435791015625
6632815625.0 -0.83819580078125 -1.1348876953125
6664037500.0 -1.4005126953125 -0.41943359375
6695259375.0 -1.37261962890625 0.565673828125
6726481250.0 -0.70947265625 1.250244140625
6757703125.0 0.1312255859375 1.405517578125
6788925000.0 0.95501708984375 1.12933349609375
6820146875.0 1.5587158203125 0.28802490234375
6851368750.0 1.3251953125 -0.819580078125
6882590625.0 0.50567626953125 -1.3385009765625
6913812500.0 -0.2921142578125 -1.3551025390625
6945034375.0 -1.06927490234375 -1.02093505859375
6976256250.0 -1.5909423828125 -0.0931396484375
7007478125.0 -1.23529052734375 0.933837890625
7038700000.0 -0.402587890625 1.34027099609375
7069921875.0 0.3585205078125 1.32183837890625
7101143750.0 1.11767578125 0.9677734375
7132365625.0 1.5966796875 0.01470947265625
7163587500.0 1.1571044921875 -1.02288818359375
7194809375.0 0.30084228515625 -1.3968505859375
7226031250.0 -0.51226806640625 -1.32330322265625
7257253125.0 -1.26641845703125 -0.82232666015625
7288475000.0 -1.55670166015625 0.19805908203125
7319696875.0 -1.02984619140625 1.108154296875
7350918750.0 -0.1641845703125 1.442626953125
7382140625.0 0.71673583984375 1.27557373046875
7413362500.0 1.3760986328125 0.576416015625
7444584375.0 1.40911865234375 -0.40533447265625
7475806250.0 0.8565673828125 -1.14306640625
7507028125.0 0.00555419921875 -1.42877197265625
7538250000.0 -0.8875732421875 -1.12384033203125
7569471875.0 -1.33575439453125 -0.3106689453125
7600693750.0 -1.2001953125 0.4974365234375
7631915625.0 -0.7166748046875 1.085693359375
7663137500.0 0.08111572265625 1.35711669921875
7694359375.0 0.939727783203125 0.97930908203125
7725581250.0 1.24359130859375 0.1793212890625
7756803125.0 1.08160400390625 -0.4991455078125
7788025000.0 0.66876220703125 -1.043212890625
7819246875.0 -0.1199951171875 -1.34600830078125
7850468750.0 -0.99310302734375 -0.91546630859375
7881690625.0 -1.23126220703125 -0.10467529296875
7912912500.0 -1.053955078125 0.55499267578125
7944134375.0 -0.60455322265625 1.11328125
7975356250.0 0.2713623046875 1.33428955078125
8006578125.0 1.0465087890625 0.77801513671875
8037800000.0 1.193359375 0.01531982421875
8069021875.0 1.00634765625 -0.61724853515625
8100243750.0 0.4993896484375 -1.15997314453125
8131465625.0 -0.38848876953125 -1.2545166015625
8162687500.0 -1.031982421875 -0.6854248046875
8193909375.0 -1.18084716796875 0.00958251953125
8225131250.0 -1.01690673828125 0.67730712890625
8256353125.0 -0.42108154296875 1.24755859375
8287575000.0 0.50079345703125 1.22662353515625
8318796875.0 1.0816650390625 0.63421630859375
8350018750.0 1.24468994140625 -0.0767822265625
8381240625.0 1.03021240234375 -0.83843994140625
8412462500.0 0.25372314453125 -1.3721923828125
8443684375.0 -0.66876220703125 -1.16961669921875
8474906250.0 -1.1749267578125 -0.53179931640625
8506128125.0 -1.29638671875 0.23828125
8537350000.0 -0.92364501953125 1.046142578125
8568571875.0 -0.01593017578125 1.39422607421875
8599793750.0 0.80108642578125 1.05242919921875
8631015625.0 1.24005126953125 0.39886474609375
8662237500.0 1.28472900390625 -0.429443359375
8693459375.0 0.7357177734375 -1.17718505859375
8724681250.0 -0.16217041015625 -1.3306884765625
8755903125.0 -0.87939453125 -0.95758056640625
8787125000.0 -1.30291748046875 -0.2811279296875
8818346875.0 -1.24993896484375 0.6148681640625
8849568750.0 -0.556396484375 1.260498046875
8880790625.0 0.29791259765625 1.28466796875
8912012500.0 0.98150634765625 0.89141845703125
8943234375.0 1.39837646484375 0.1290283203125
8974456250.0 1.1676025390625 -0.8388671875
9005678125.0 0.34735107421875 -1.313720703125
9036900000.0 -0.44647216796875 -1.22515869140625
9068121875.0 -1.10284423828125 -0.7845458984375
9099343750.0 -1.441162109375 0.09906005859375
9130565625.0 -0.98052978515625 1.01055908203125
9161787500.0 -0.1536865234375 1.2828369140625
9193009375.0 0.5560302734375 1.1331787109375
9224231250.0 1.181640625 0.6534423828125
9255453125.0 1.39959716796875 -0.2969970703125
9286675000.0 0.80584716796875 -1.0838623046875
9317896875.0 0.02764892578125 -1.24542236328125
9349118750.0 -0.65533447265625 -1.070068359375
9380340625.0 -1.2578125 -0.5084228515625
9411562500.0 -1.3106689453125 0.478759765625
9442784375.0 -0.64825439453125 1.1160888671875
9474006250.0 0.08929443359375 1.21063232421875
9505228125.0 0.76312255859375 0.979278564453125
9536450000.0 1.27105712890625 0.31451416015625
9567671875.0 1.1436767578125 -0.5797119140625
9598893750.0 0.52935791015625 -1.068359375
9630115625.0 -0.145263671875 -1.1580810546875
9661337500.0 -0.816925048828125 -0.902374267578125
9692559375.0 -1.23858642578125 -0.18994140625
9723781250.0 -1.04290771484375 0.60272216796875
9755003125.0 -0.486083984375 1.05078125
9786225000.0 0.19781494140625 1.15777587890625
9817446875.0 0.895660400390625 0.8272705078125
9848668750.0 1.1976318359375 0.0787353515625
9879890625.0 0.9674072265625 -0.617889404296875
9911112500.0 0.45166015625 -1.05108642578125
9942334375.0 -0.2659912109375 -1.15692138671875
9973556250.0 -0.942626953125 -0.738372802734375
10004778125.0 -1.14544677734375 -0.017822265625
10036000000.0 -0.944122314453125 0.61578369140625
10067221875.0 -0.4427490234375 1.09332275390625
10098443750.0 0.36871337890625 1.18072509765625
10129665625.0 1.0028076171875 0.64251708984375
10160887500.0 1.11895751953125 -0.051025390625
10192109375.0 0.91766357421875 -0.6636962890625
10223331250.0 0.36065673828125 -1.1529541015625
10254553125.0 -0.4862060546875 -1.1126708984375
10285775000.0 -0.986175537109375 -0.535247802734375
10316996875.0 -1.06622314453125 0.07672119140625
10348218750.0 -0.899505615234375 0.669921875
10379440625.0 -0.32177734375 1.174560546875
10410662500.0 0.5284423828125 1.08441162109375
10441884375.0 0.99285888671875 0.5208740234375
10473106250.0 1.109130859375 -0.084716796875
10504328125.0 0.9478759765625 -0.75628662109375
10535550000.0 0.24029541015625 -1.29461669921875
10566771875.0 -0.6588134765625 -1.07763671875
10597993750.0 -1.08135986328125 -0.45831298828125
10629215625.0 -1.1739501953125 0.20562744140625
10660437500.0 -0.887054443359375 0.951416015625
10691659375.0 -0.0103759765625 1.3349609375
10722881250.0 0.7857666015625 0.95294189453125
10754103125.0 1.1177978515625 0.32421875
10785325000.0 1.1385498046875 -0.36700439453125
10816546875.0 0.701171875 -1.04681396484375
10847768750.0 -0.14642333984375 -1.2291259765625
10878990625.0 -0.803558349609375 -0.843292236328125
10910212500.0 -1.1231689453125 -0.24481201171875
10941434375.0 -1.09783935546875 0.47796630859375
10972656250.0 -0.5673828125 1.08380126953125
11003878125.0 0.2161865234375 1.1727294921875
11035100000.0 0.847686767578125 0.8221435546875
11066321875.0 1.22119140625 0.17413330078125
11097543750.0 1.098876953125 -0.675537109375
11128765625.0 0.38641357421875 -1.19866943359375
11159987500.0 -0.3968505859375 -1.1397705078125
11191209375.0 -0.999542236328125 -0.70245361328125
11222431250.0 -1.27032470703125 0.0927734375
11253653125.0 -0.859100341796875 0.8934326171875
11284875000.0 -0.11358642578125 1.12774658203125
11316096875.0 0.510223388671875 0.95587158203125
11347318750.0 1.00396728515625 0.5013427734375
11378540625.0 1.11669921875 -0.26885986328125
11409762500.0 0.63433837890625 -0.859893798828125
11440984375.0 0.0357666015625 -0.977752685546875
11472206250.0 -0.479766845703125 -0.849456787109375
11503428125.0 -0.951019287109375 -0.45672607421875
11534650000.0 -1.06866455078125 0.2882080078125
11565871875.0 -0.60198974609375 0.853607177734375
11597093750.0 -0.017333984375 0.991455078125
11628315625.0 0.5438232421875 0.875518798828125
11659537500.0 1.05889892578125 0.392578125
11690759375.0 1.06500244140625 -0.43292236328125
11721981250.0 0.51727294921875 -0.939971923828125
11753203125.0 -0.104736328125 -1.03515625
11784425000.0 -0.72454833984375 -0.808929443359375
11815646875.0 -1.10107421875 -0.15106201171875
11846868750.0 -0.890594482421875 0.55023193359375
11878090625.0 -0.390594482421875 0.907958984375
11909312500.0 0.185516357421875 0.982513427734375
11940534375.0 0.782562255859375 0.69500732421875
11971756250.0 1.02349853515625 0.04034423828125
12002978125.0 0.80657958984375 -0.53765869140625
12034200000.0 0.380889892578125 -0.889404296875
12065421875.0 -0.2158203125 -1.0093994140625
12096643750.0 -0.848052978515625 -0.664886474609375
12127865625.0 -1.032958984375 0.01629638671875
12159087500.0 -0.814605712890625 0.57513427734375
12190309375.0 -0.378082275390625 0.973114013671875
12221531250.0 0.33929443359375 1.08782958984375
12252753125.0 0.981903076171875 0.58111572265625
12283975000.0 1.05401611328125 -0.1282958984375
12315196875.0 0.80035400390625 -0.67657470703125
12346418750.0 0.28070068359375 -1.0916748046875
12377640625.0 -0.537353515625 -1.0606689453125
12408862500.0 -1.03472900390625 -0.41973876953125
12440084375.0 -1.0084228515625 0.22564697265625
12471306250.0 -0.740875244140625 0.736328125
12502528125.0 -0.17877197265625 1.12005615234375
12533750000.0 0.620330810546875 0.99359130859375
12564971875.0 1.0421142578125 0.36358642578125
12596193750.0 1.02911376953125 -0.26519775390625
12627415625.0 0.7476806640625 -0.828521728515625
12658637500.0 0.07904052734375 -1.2083740234375
12689859375.0 -0.7353515625 -0.965301513671875
12721081250.0 -1.11834716796875 -0.30572509765625
12752303125.0 -1.09771728515625 0.38201904296875
12783525000.0 -0.68743896484375 1.0252685546875
12814746875.0 0.1636962890625 1.24969482421875
12845968750.0 0.86346435546875 0.810546875
12877190625.0 1.11767578125 0.171630859375
12908412500.0 1.05523681640625 -0.502197265625
12939634375.0 0.54351806640625 -1.116455078125
12970856250.0 -0.32122802734375 -1.17578125
13002078125.0 -0.895965576171875 -0.693389892578125
13033300000.0 -1.10662841796875 -0.08612060546875
13064521875.0 -1.01007080078125 0.5931396484375
13095743750.0 -0.42071533203125 1.1529541015625
13126965625.0 0.408203125 1.1197509765625
13158187500.0 0.9468994140625 0.632720947265625
13189409375.0 1.1473388671875 -0.020751953125
13220631250.0 0.93597412109375 -0.74859619140625
13251853125.0 0.234130859375 -1.172119140625
13283075000.0 -0.505615234375 -1.01983642578125
13314296875.0 -0.9874267578125 -0.528900146484375
13345518750.0 -1.13372802734375 0.17645263671875
