!Created with skrf (http://scikit-rf.org).
# Hz S RI R 50.0 
!freq ReS11 ImS11
45000000.0 -0.07689285278320312 -0.09679794311523438
76221875.0 -0.1963348388671875 -0.0476226806640625
107443750.0 -0.2549285888671875 0.11932373046875
138665625.0 -0.148406982421875 0.328338623046875
169887500.0 0.1231536865234375 0.417266845703125
201109375.0 0.42138671875 0.2809600830078125
232331250.0 0.578643798828125 -0.05712890625
263553125.0 0.4896697998046875 -0.4517822265625
294775000.0 0.09906005859375 -0.7318115234375
325996875.0 -0.414398193359375 -0.680511474609375
357218750.0 -0.80535888671875 -0.297454833984375
388440625.0 -0.8851318359375 0.29974365234375
419662500.0 -0.5177001953125 0.865020751953125
450884375.0 0.171875 1.028076171875
482106250.0 0.79730224609375 0.712921142578125
513328125.0 1.11846923828125 0.08782958984375
544550000.0 1.00341796875 -0.67864990234375
575771875.0 0.33709716796875 -1.23681640625
606993750.0 -0.55255126953125 -1.1768798828125
638215625.0 -1.16461181640625 -0.59100341796875
669437500.0 -1.33892822265625 0.23236083984375
700659375.0 -0.97088623046875 1.0946044921875
731881250.0 -0.00482177734375 1.54193115234375
763103125.0 1.00408935546875 1.1556396484375
794325000.0 1.4671630859375 0.28253173828125
825546875.0 1.36639404296875 -0.64971923828125
856768750.0 0.7947998046875 -1.39801025390625
887990625.0 -0.2906494140625 -1.64691162109375
919212500.0 -1.28582763671875 -1.0784912109375
950434375.0 -1.646484375 -0.06024169921875
981656250.0 -1.38177490234375 0.94384765625
1012878125.0 -0.53076171875 1.66925048828125
1044100000.0 0.69415283203125 1.660400390625
1075321875.0 1.572021484375 0.81243896484375
1106543750.0 1.70306396484375 -0.31109619140625
1137765625.0 1.1866455078125 -1.2808837890625
1168987500.0 0.1396484375 -1.79498291015625
1200209375.0 -1.05950927734375 -1.4830322265625
1231431250.0 -1.724853515625 -0.454345703125
1262653125.0 -1.59295654296875 0.68243408203125
1293875000.0 -0.85247802734375 1.489013671875
1325096875.0 0.2264404296875 1.7049560546875
1356318750.0 1.23248291015625 1.21612548828125
1387540625.0 1.73773193359375 0.1900634765625
1418762500.0 1.468017578125 -0.94854736328125
1449984375.0 0.52984619140625 -1.62335205078125
1481206250.0 -0.5477294921875 -1.5546875
1512428125.0 -1.3389892578125 -0.91943359375
1543650000.0 -1.6533203125 0.063720703125
1574871875.0 -1.2730712890625 1.1063232421875
1606093750.0 -0.27410888671875 1.6292724609375
1637315625.0 0.7401123046875 1.39935302734375
1668537500.0 1.3935546875 0.696533203125
1699759375.0 1.57159423828125 -0.27569580078125
1730981250.0 1.06378173828125 -1.22686767578125
1762203125.0 0.04345703125 -1.5687255859375
1793425000.0 -0.85400390625 -1.225830078125
1824646875.0 -1.39166259765625 -0.515625
1855868750.0 -1.4725341796875 0.430908203125
1887090625.0 -0.874755859375 1.282958984375
1918312500.0 0.1163330078125 1.48504638671875
1949534375.0 0.91949462890625 1.0885009765625
1980756250.0 1.37310791015625 0.37066650390625
2011978125.0 1.35821533203125 -0.5296630859375
2043200000.0 0.74993896484375 -1.25958251953125
2074421875.0 -0.15570068359375 -1.43157958984375
2105643750.0 -0.9583740234375 -1.07183837890625
2136865625.0 -1.445556640625 -0.30572509765625
2168087500.0 -1.35595703125 0.66949462890625
2199309375.0 -0.63922119140625 1.3492431640625
2230531250.0 0.28033447265625 1.43450927734375
2261753125.0 1.07049560546875 1.01348876953125
2292975000.0 1.51263427734375 0.1710205078125
2324196875.0 1.304443359375 -0.8167724609375
2355418750.0 0.5255126953125 -1.418212890625
2386640625.0 -0.402587890625 -1.44744873046875
2417862500.0 -1.17840576171875 -1.02398681640625
2449084375.0 -1.6015625 -0.08636474609375
2480306250.0 -1.31085205078125 0.92352294921875
2511528125.0 -0.49493408203125 1.504638671875
2542750000.0 0.48663330078125 1.53424072265625
2573971875.0 1.3682861328125 0.96807861328125
2605193750.0 1.71392822265625 -0.1103515625
2636415625.0 1.26055908203125 -1.150146484375
2667637500.0 0.307373046875 -1.66412353515625
2698859375.0 -0.76800537109375 -1.533203125
2730081250.0 -1.5704345703125 -0.74090576171875
2761303125.0 -1.6788330078125 0.38623046875
2792525000.0 -1.09893798828125 1.3033447265625
2823746875.0 -0.1044921875 1.72650146484375
2854968750.0 1.00933837890625 1.45379638671875
2886190625.0 1.68798828125 0.49267578125
2917412500.0 1.5980224609375 -0.6151123046875
2948634375.0 0.93914794921875 -1.43133544921875
2979856250.0 -0.10638427734375 -1.7735595703125
3011078125.0 -1.244384765625 -1.34112548828125
3042300000.0 -1.7713623046875 -0.23614501953125
3073521875.0 -1.5069580078125 0.83428955078125
3104743750.0 -0.76312255859375 1.5662841796875
3135965625.0 0.3597412109375 1.80706787109375
3167187500.0 1.49530029296875 1.16351318359375
3198409375.0 1.81219482421875 -0.07330322265625
3229631250.0 1.347900390625 -1.07806396484375
3260853125.0 0.48980712890625 -1.6651611328125
3292075000.0 -0.65264892578125 -1.69586181640625
3323296875.0 -1.61517333984375 -0.87994384765625
3354518750.0 -1.726806640625 0.32574462890625
3385740625.0 -1.1546630859375 1.2286376953125
3416962500.0 -0.23193359375 1.67901611328125
3448184375.0 0.85736083984375 1.5194091796875
3479406250.0 1.63214111328125 0.64453125
3510628125.0 1.64166259765625 -0.4925537109375
3541850000.0 0.9996337890625 -1.35186767578125
3573071875.0 -0.00701904296875 -1.68017578125
3604293750.0 -1.0247802734375 -1.33587646484375
3635515625.0 -1.62445068359375 -0.4393310546875
3666737500.0 -1.55963134765625 0.64410400390625
3697959375.0 -0.82501220703125 1.47259521484375
3729181250.0 0.26654052734375 1.62811279296875
3760403125.0 1.14947509765625 1.09722900390625
3791625000.0 1.54974365234375 0.21893310546875
3822846875.0 1.40020751953125 -0.7589111328125
3854068750.0 0.6209716796875 -1.4781494140625
3885290625.0 -0.418701171875 -1.47869873046875
3916512500.0 -1.13916015625 -0.9105224609375
3947734375.0 -1.444580078125 -0.12103271484375
3978956250.0 -1.2958984375 0.7767333984375
4010178125.0 -0.53155517578125 1.45068359375
4041400000.0 0.4716796875 1.4132080078125
4072621875.0 1.1495361328125 0.8470458984375
4103843750.0 1.44189453125 0.06439208984375
4135065625.0 1.266357421875 -0.843505859375
4166287500.0 0.4576416015625 -1.492919921875
4197509375.0 -0.555419921875 -1.413330078125
4228731250.0 -1.24432373046875 -0.80279541015625
4259953125.0 -1.50701904296875 0.07000732421875
4291175000.0 -1.18707275390625 1.008056640625
4322396875.0 -0.2894287109375 1.5247802734375
4353618750.0 0.67059326171875 1.34844970703125
4384840625.0 1.31854248046875 0.697509765625
4416062500.0 1.49993896484375 -0.2269287109375
4447284375.0 1.0545654296875 -1.10150146484375
4478506250.0 0.173095703125 -1.49322509765625
4509728125.0 -0.7308349609375 -1.3060302734375
4540950000.0 -1.39129638671875 -0.63604736328125
4572171875.0 -1.51971435546875 0.35711669921875
4603393750.0 -0.971923828125 1.2098388671875
4634615625.0 -0.06219482421875 1.5352783203125
4665837500.0 0.86761474609375 1.30322265625
4697059375.0 1.538330078125 0.51556396484375
4728281250.0 1.52716064453125 -0.58074951171875
4759503125.0 0.82293701171875 -1.36529541015625
4790725000.0 -0.14459228515625 -1.57061767578125
4821946875.0 -1.08197021484375 -1.193359375
4853168750.0 -1.6102294921875 -0.2520751953125
4884390625.0 -1.37646484375 0.790771484375
4915612500.0 -0.61334228515625 1.4097900390625
4946834375.0 0.32696533203125 1.5076904296875
4978056250.0 1.201171875 1.01727294921875
5009278125.0 1.5594482421875 0.040283203125
5040500000.0 1.227783203125 -0.87359619140625
5071721875.0 0.50262451171875 -1.412109375
5102943750.0 -0.44451904296875 -1.49481201171875
5134165625.0 -1.3338623046875 -0.90472412109375
5165387500.0 -1.56597900390625 0.14483642578125
5196609375.0 -1.13531494140625 1.00677490234375
5227831250.0 -0.3580322265625 1.5042724609375
5259053125.0 0.68609619140625 1.49114990234375
5290275000.0 1.51983642578125 0.66253662109375
5321496875.0 1.49053955078125 -0.42919921875
5352718750.0 0.9205322265625 -1.1512451171875
5383940625.0 0.09716796875 -1.4979248046875
5415162500.0 -0.89959716796875 -1.2830810546875
5446384375.0 -1.48199462890625 -0.37109375
5477606250.0 -1.29833984375 0.56475830078125
5508828125.0 -0.731201171875 1.14837646484375
5540050000.0 0.05267333984375 1.396728515625
5571271875.0 0.93634033203125 1.10784912109375
5602493750.0 1.40631103515625 0.26043701171875
5633715625.0 1.23095703125 -0.6114501953125
5664937500.0 0.6480712890625 -1.19989013671875
5696159375.0 -0.19598388671875 -1.38189697265625
5727381250.0 -1.021240234375 -0.9779052734375
5758603125.0 -1.38934326171875 -0.14556884765625
5789825000.0 -1.193359375 0.7171630859375
5821046875.0 -0.5057373046875 1.30615234375
5852268750.0 0.40972900390625 1.31109619140625
5883490625.0 1.06854248046875 0.77178955078125
5914712500.0 1.301513671875 0.02008056640625
5945934375.0 1.09564208984375 -0.77459716796875
5977156250.0 0.3619384765625 -1.30987548828125
6008378125.0 -0.50823974609375 -1.18133544921875
6039600000.0 -1.02044677734375 -0.6490478515625
6070821875.0 -1.22186279296875 -0.00579833984375
6102043750.0 -1.0828857421875 0.7606201171875
6133265625.0 -0.34228515625 1.3428955078125
6164487500.0 0.56207275390625 1.18646240234375
6195709375.0 1.068603515625 0.630615234375
6226931250.0 1.27850341796875 -0.04193115234375
6258153125.0 1.103515625 -0.86962890625
6289375000.0 0.2572021484375 -1.44390869140625
6320596875.0 -0.687255859375 -1.20452880859375
6351818750.0 -1.1978759765625 -0.5721435546875
6383040625.0 -1.35260009765625 0.20538330078125
6414262500.0 -0.9990234375 1.0546875
6445484375.0 -0.07928466796875 1.4552001953125
6476706250.0 0.79339599609375 1.14715576171875
6507928125.0 1.2886962890625 0.47027587890625
6539150000.0 1.34613037109375 -0.385009765625
6570371875.0 0.841064453125 -1.14154052734375
6601593750.0 -0.0159912109375 -1.40313720703125
6632815625.0 -0.8377685546875 -1.1356201171875
6664037500.0 -1.3990478515625 -0.42095947265625
6695259375.0 -1.37261962890625 0.56500244140625
6726481250.0 -0.7098388671875 1.249755859375
6757703125.0 0.12933349609375 1.40521240234375
6788925000.0 0.95343017578125 1.12982177734375
6820146875.0 1.55828857421875 0.2882080078125
6851368750.0 1.3245849609375 -0.8184814453125
6882590625.0 0.506103515625 -1.3370361328125
6913812500.0 -0.29168701171875 -1.355712890625
6945034375.0 -1.0675048828125 -1.02099609375
6976256250.0 -1.59051513671875 -0.09344482421875
7007478125.0 -1.235107421875 0.93096923828125
7038700000.0 -0.4013671875 1.34185791015625
7069921875.0 0.35736083984375 1.321533203125
7101143750.0 1.11602783203125 0.96893310546875
7132365625.0 1.59686279296875 0.0172119140625
7163587500.0 1.1572265625 -1.02117919921875
7194809375.0 0.3033447265625 -1.39520263671875
7226031250.0 -0.5074462890625 -1.32403564453125
7257253125.0 -1.263916015625 -0.8251953125
7288475000.0 -1.55517578125 0.196044921875
7319696875.0 -1.02911376953125 1.10650634765625
7350918750.0 -0.1646728515625 1.443115234375
7382140625.0 0.7144775390625 1.2745361328125
7413362500.0 1.37506103515625 0.57537841796875
7444584375.0 1.4107666015625 -0.406005859375
7475806250.0 0.85870361328125 -1.1397705078125
7507028125.0 0.00665283203125 -1.42730712890625
7538250000.0 -0.8843994140625 -1.12237548828125
7569471875.0 -1.33428955078125 -0.3123779296875
7600693750.0 -1.20025634765625 0.494384765625
7631915625.0 -0.7177734375 1.08404541015625
7663137500.0 0.08056640625 1.35821533203125
7694359375.0 0.93682861328125 0.980224609375
7725581250.0 1.24188232421875 0.18115234375
7756803125.0 1.08251953125 -0.498046875
7788025000.0 0.66961669921875 -1.0413818359375
7819246875.0 -0.1197509765625 -1.34515380859375
7850468750.0 -0.991607666015625 -0.915679931640625
7881690625.0 -1.2293701171875 -0.1065673828125
7912912500.0 -1.05389404296875 0.55413818359375
7944134375.0 -0.6058349609375 1.10986328125
7975356250.0 0.27020263671875 1.333740234375
8006578125.0 1.045654296875 0.7791748046875
8037800000.0 1.19134521484375 0.0179443359375
8069021875.0 1.00640869140625 -0.61663818359375
8100243750.0 0.5003662109375 -1.1591796875
8131465625.0 -0.3863525390625 -1.2532958984375
8162687500.0 -1.03057861328125 -0.68646240234375
8193909375.0 -1.17950439453125 0.0078125
8225131250.0 -1.0174560546875 0.67596435546875
8256353125.0 -0.42138671875 1.2479248046875
8287575000.0 0.4984130859375 1.2249755859375
8318796875.0 1.08074951171875 0.6356201171875
8350018750.0 1.2452392578125 -0.07415771484375
8381240625.0 1.03082275390625 -0.8382568359375
8412462500.0 0.2542724609375 -1.3709716796875
8443684375.0 -0.66607666015625 -1.1688232421875
8474906250.0 -1.17529296875 -0.53155517578125
8506128125.0 -1.2972412109375 0.236328125
8537350000.0 -0.92437744140625 1.0443115234375
8568571875.0 -0.015625 1.39349365234375
8599793750.0 0.80133056640625 1.0533447265625
8631015625.0 1.23919677734375 0.3990478515625
8662237500.0 1.28558349609375 -0.42828369140625
8693459375.0 0.73675537109375 -1.1741943359375
8724681250.0 -0.16094970703125 -1.3306884765625
8755903125.0 -0.877838134765625 -0.9569091796875
8787125000.0 -1.30279541015625 -0.28228759765625
8818346875.0 -1.25079345703125 0.61614990234375
8849568750.0 -0.5576171875 1.2589111328125
8880790625.0 0.2979736328125 1.28460693359375
8912012500.0 0.97991943359375 0.892364501953125
8943234375.0 1.39923095703125 0.1292724609375
8974456250.0 1.1658935546875 -0.839111328125
9005678125.0 0.34832763671875 -1.31201171875
9036900000.0 -0.44287109375 -1.22320556640625
9068121875.0 -1.1014404296875 -0.78619384765625
9099343750.0 -1.439453125 0.0977783203125
9130565625.0 -0.9793701171875 1.0106201171875
9161787500.0 -0.155517578125 1.28106689453125
9193009375.0 0.55450439453125 1.13323974609375
9224231250.0 1.1759033203125 0.65533447265625
9255453125.0 1.39849853515625 -0.29547119140625
9286675000.0 0.80712890625 -1.083740234375
9317896875.0 0.0283203125 -1.2437744140625
9349118750.0 -0.65386962890625 -1.0701904296875
9380340625.0 -1.25750732421875 -0.51116943359375
9411562500.0 -1.30987548828125 0.47406005859375
9442784375.0 -0.6483154296875 1.1148681640625
9474006250.0 0.08892822265625 1.210205078125
9505228125.0 0.76373291015625 0.979949951171875
9536450000.0 1.2734375 0.3143310546875
9567671875.0 1.1436767578125 -0.579345703125
9598893750.0 0.529296875 -1.06793212890625
9630115625.0 -0.14227294921875 -1.15625
9661337500.0 -0.8170166015625 -0.90167236328125
9692559375.0 -1.23712158203125 -0.19122314453125
9723781250.0 -1.04290771484375 0.60186767578125
9755003125.0 -0.4862060546875 1.04901123046875
9786225000.0 0.19744873046875 1.158935546875
9817446875.0 0.894561767578125 0.826873779296875
9848668750.0 1.1961669921875 0.08001708984375
9879890625.0 0.96795654296875 -0.6162109375
9911112500.0 0.45245361328125 -1.051025390625
9942334375.0 -0.26629638671875 -1.1590576171875
9973556250.0 -0.9425048828125 -0.73809814453125
10004778125.0 -1.14434814453125 -0.018310546875
10036000000.0 -0.943939208984375 0.615447998046875
10067221875.0 -0.442138671875 1.0946044921875
10098443750.0 0.37060546875 1.1820068359375
10129665625.0 1.00177001953125 0.64288330078125
10160887500.0 1.1197509765625 -0.05157470703125
10192109375.0 0.917144775390625 -0.663421630859375
10223331250.0 0.361572265625 -1.1512451171875
10254553125.0 -0.4830322265625 -1.11279296875
10285775000.0 -0.984619140625 -0.535736083984375
10316996875.0 -1.06640625 0.07550048828125
10348218750.0 -0.899383544921875 0.668548583984375
10379440625.0 -0.3223876953125 1.17376708984375
10410662500.0 0.52593994140625 1.0850830078125
10441884375.0 0.99041748046875 0.522369384765625
10473106250.0 1.1083984375 -0.08367919921875
10504328125.0 0.948516845703125 -0.75592041015625
10535550000.0 0.23968505859375 -1.2947998046875
10566771875.0 -0.656005859375 -1.0770263671875
10597993750.0 -1.07794189453125 -0.45941162109375
10629215625.0 -1.1739501953125 0.2049560546875
10660437500.0 -0.886749267578125 0.95123291015625
10691659375.0 -0.0101318359375 1.33367919921875
10722881250.0 0.78521728515625 0.952850341796875
10754103125.0 1.11822509765625 0.32470703125
10785325000.0 1.13818359375 -0.3665771484375
10816546875.0 0.70123291015625 -1.04534912109375
10847768750.0 -0.14501953125 -1.228759765625
10878990625.0 -0.79998779296875 -0.843963623046875
10910212500.0 -1.12158203125 -0.24542236328125
10941434375.0 -1.09722900390625 0.47515869140625
10972656250.0 -0.568359375 1.0845947265625
11003878125.0 0.2159423828125 1.173583984375
11035100000.0 0.848175048828125 0.8218994140625
11066321875.0 1.21881103515625 0.175048828125
11097543750.0 1.0985107421875 -0.67596435546875
11128765625.0 0.3868408203125 -1.19622802734375
11159987500.0 -0.39373779296875 -1.13818359375
11191209375.0 -0.997467041015625 -0.702789306640625
11222431250.0 -1.2708740234375 0.09295654296875
11253653125.0 -0.858184814453125 0.891937255859375
11284875000.0 -0.11376953125 1.12640380859375
11316096875.0 0.5107421875 0.95623779296875
11347318750.0 0.999786376953125 0.502410888671875
11378540625.0 1.1153564453125 -0.26806640625
11409762500.0 0.634765625 -0.859344482421875
11440984375.0 0.03594970703125 -0.9786376953125
11472206250.0 -0.478546142578125 -0.850128173828125
11503428125.0 -0.953155517578125 -0.456146240234375
11534650000.0 -1.068359375 0.287109375
11565871875.0 -0.6019287109375 0.855010986328125
11597093750.0 -0.01910400390625 0.989837646484375
11628315625.0 0.543853759765625 0.876068115234375
11659537500.0 1.05926513671875 0.3922119140625
11690759375.0 1.0645751953125 -0.433349609375
11721981250.0 0.51702880859375 -0.939697265625
11753203125.0 -0.10467529296875 -1.03594970703125
11784425000.0 -0.723297119140625 -0.807891845703125
11815646875.0 -1.1002197265625 -0.1512451171875
11846868750.0 -0.891510009765625 0.551605224609375
11878090625.0 -0.391876220703125 0.90789794921875
11909312500.0 0.186126708984375 0.98382568359375
11940534375.0 0.779388427734375 0.6954345703125
11971756250.0 1.0240478515625 0.040771484375
12002978125.0 0.806365966796875 -0.536163330078125
12034200000.0 0.3824462890625 -0.888427734375
12065421875.0 -0.21453857421875 -1.00946044921875
12096643750.0 -0.846923828125 -0.66455078125
12127865625.0 -1.03302001953125 0.01611328125
12159087500.0 -0.8145751953125 0.57269287109375
12190309375.0 -0.377197265625 0.97540283203125
12221531250.0 0.33795166015625 1.087158203125
12252753125.0 0.978973388671875 0.58135986328125
12283975000.0 1.052978515625 -0.126220703125
12315196875.0 0.800140380859375 -0.67608642578125
12346418750.0 0.281005859375 -1.090087890625
12377640625.0 -0.5372314453125 -1.0604248046875
12408862500.0 -1.03192138671875 -0.41937255859375
12440084375.0 -1.0062255859375 0.22271728515625
12471306250.0 -0.74224853515625 0.73779296875
12502528125.0 -0.17999267578125 1.1197509765625
12533750000.0 0.6195068359375 0.99346923828125
12564971875.0 1.04046630859375 0.36407470703125
12596193750.0 1.02899169921875 -0.26348876953125
12627415625.0 0.747406005859375 -0.8292236328125
12658637500.0 0.0792236328125 -1.20684814453125
12689859375.0 -0.735137939453125 -0.9656982421875
12721081250.0 -1.1170654296875 -0.3055419921875
12752303125.0 -1.09735107421875 0.38031005859375
12783525000.0 -0.68768310546875 1.02642822265625
12814746875.0 0.16546630859375 1.2509765625
12845968750.0 0.862335205078125 0.811065673828125
12877190625.0 1.11663818359375 0.17132568359375
12908412500.0 1.055419921875 -0.5006103515625
12939634375.0 0.543212890625 -1.115966796875
12970856250.0 -0.32000732421875 -1.173828125
13002078125.0 -0.8941650390625 -0.693389892578125
13033300000.0 -1.10516357421875 -0.0875244140625
13064521875.0 -1.00927734375 0.593505859375
13095743750.0 -0.4200439453125 1.1529541015625
13126965625.0 0.40838623046875 1.12066650390625
13158187500.0 0.94677734375 0.631500244140625
13189409375.0 1.147705078125 -0.02166748046875
13220631250.0 0.935943603515625 -0.74676513671875
13251853125.0 0.2332763671875 -1.17218017578125
13283075000.0 -0.50665283203125 -1.01898193359375
13314296875.0 -0.9862060546875 -0.52911376953125
13345518750.0 -1.1336669921875 0.1763916015625
13376740625.0 -0.75238037109375 0.857757568359375
