!Created with skrf (http://scikit-rf.org).
# Hz S RI R 50.0 
!freq ReS11 ImS11
45000000.0 -0.07698440551757812 -0.09691619873046875
76221875.0 -0.1962432861328125 -0.0474395751953125
107443750.0 -0.254730224609375 0.119384765625
138665625.0 -0.1481170654296875 0.3282012939453125
169887500.0 0.1234283447265625 0.4170684814453125
201109375.0 0.4215240478515625 0.2806854248046875
232331250.0 0.578369140625 -0.057373046875
263553125.0 0.4891510009765625 -0.4522552490234375
294775000.0 0.098541259765625 -0.73187255859375
325996875.0 -0.41497802734375 -0.6795654296875
357218750.0 -0.805267333984375 -0.29693603515625
388440625.0 -0.88458251953125 0.300201416015625
419662500.0 -0.516876220703125 0.865386962890625
450884375.0 0.1724853515625 1.02752685546875
482106250.0 0.79742431640625 0.7119140625
513328125.0 1.1180419921875 0.08721923828125
544550000.0 1.00286865234375 -0.6788330078125
575771875.0 0.3365478515625 -1.23675537109375
606993750.0 -0.55316162109375 -1.17633056640625
638215625.0 -1.16455078125 -0.58978271484375
669437500.0 -1.33843994140625 0.23321533203125
700659375.0 -0.9700927734375 1.094970703125
731881250.0 -0.0040283203125 1.541259765625
763103125.0 1.00433349609375 1.15460205078125
794325000.0 1.467041015625 0.28131103515625
825546875.0 1.3658447265625 -0.65045166015625
856768750.0 0.79364013671875 -1.3985595703125
887990625.0 -0.291748046875 -1.6461181640625
919212500.0 -1.285888671875 -1.0772705078125
950434375.0 -1.64605712890625 -0.05950927734375
981656250.0 -1.38079833984375 0.94451904296875
1012878125.0 -0.5291748046875 1.6693115234375
1044100000.0 0.69525146484375 1.659423828125
1075321875.0 1.5718994140625 0.81158447265625
1106543750.0 1.70184326171875 -0.3115234375
1137765625.0 1.1849365234375 -1.2816162109375
1168987500.0 0.13873291015625 -1.7939453125
1200209375.0 -1.0599365234375 -1.48175048828125
1231431250.0 -1.72454833984375 -0.453125
1262653125.0 -1.5919189453125 0.683349609375
1293875000.0 -0.851318359375 1.48895263671875
1325096875.0 0.2275390625 1.70440673828125
1356318750.0 1.23272705078125 1.2147216796875
1387540625.0 1.73681640625 0.189208984375
1418762500.0 1.46697998046875 -0.95001220703125
1449984375.0 0.52880859375 -1.623291015625
1481206250.0 -0.54815673828125 -1.55340576171875
1512428125.0 -1.3397216796875 -0.91845703125
1543650000.0 -1.653076171875 0.0650634765625
1574871875.0 -1.27142333984375 1.10675048828125
1606093750.0 -0.27301025390625 1.62835693359375
1637315625.0 0.74072265625 1.3983154296875
1668537500.0 1.39349365234375 0.69482421875
1699759375.0 1.57073974609375 -0.2763671875
1730981250.0 1.062744140625 -1.2274169921875
1762203125.0 0.042236328125 -1.56787109375
1793425000.0 -0.8543701171875 -1.22491455078125
1824646875.0 -1.3909912109375 -0.51470947265625
1855868750.0 -1.47174072265625 0.43145751953125
1887090625.0 -0.87384033203125 1.28314208984375
1918312500.0 0.116943359375 1.484375
1949534375.0 0.91937255859375 1.087646484375
1980756250.0 1.372802734375 0.36968994140625
2011978125.0 1.357421875 -0.53033447265625
2043200000.0 0.74908447265625 -1.259033203125
2074421875.0 -0.1563720703125 -1.43096923828125
2105643750.0 -0.95819091796875 -1.07073974609375
2136865625.0 -1.4449462890625 -0.3045654296875
2168087500.0 -1.3551025390625 0.66949462890625
2199309375.0 -0.6383056640625 1.34893798828125
2230531250.0 0.281005859375 1.433837890625
2261753125.0 1.0709228515625 1.012451171875
2292975000.0 1.51220703125 0.17034912109375
2324196875.0 1.3037109375 -0.817138671875
2355418750.0 0.52490234375 -1.417724609375
2386640625.0 -0.40350341796875 -1.44677734375
2417862500.0 -1.178955078125 -1.02294921875
2449084375.0 -1.60125732421875 -0.084716796875
2480306250.0 -1.309326171875 0.92279052734375
2511528125.0 -0.4932861328125 1.50537109375
2542750000.0 0.48712158203125 1.53277587890625
2573971875.0 1.36810302734375 0.9666748046875
2605193750.0 1.7139892578125 -0.11181640625
2636415625.0 1.25933837890625 -1.14910888671875
2667637500.0 0.30706787109375 -1.66290283203125
2698859375.0 -0.7672119140625 -1.5313720703125
2730081250.0 -1.569091796875 -0.73980712890625
2761303125.0 -1.67755126953125 0.386474609375
2792525000.0 -1.09747314453125 1.30316162109375
2823746875.0 -0.10235595703125 1.7265625
2854968750.0 1.00958251953125 1.45257568359375
2886190625.0 1.6878662109375 0.49114990234375
2917412500.0 1.59661865234375 -0.61572265625
2948634375.0 0.93798828125 -1.4296875
2979856250.0 -0.1060791015625 -1.7716064453125
3011078125.0 -1.2449951171875 -1.34002685546875
3042300000.0 -1.771484375 -0.23419189453125
3073521875.0 -1.5054931640625 0.83538818359375
3104743750.0 -0.76263427734375 1.56439208984375
3135965625.0 0.3612060546875 1.805908203125
3167187500.0 1.4962158203125 1.1622314453125
3198409375.0 1.8116455078125 -0.07415771484375
3229631250.0 1.34600830078125 -1.07763671875
3260853125.0 0.48895263671875 -1.66424560546875
3292075000.0 -0.65289306640625 -1.694580078125
3323296875.0 -1.6163330078125 -0.8778076171875
3354518750.0 -1.7269287109375 0.32733154296875
3385740625.0 -1.15411376953125 1.2288818359375
3416962500.0 -0.23162841796875 1.67791748046875
3448184375.0 0.85797119140625 1.51812744140625
3479406250.0 1.63055419921875 0.64422607421875
3510628125.0 1.64068603515625 -0.49359130859375
3541850000.0 0.99822998046875 -1.35223388671875
3573071875.0 -0.00689697265625 -1.6781005859375
3604293750.0 -1.025634765625 -1.33514404296875
3635515625.0 -1.62408447265625 -0.4384765625
3666737500.0 -1.5587158203125 0.6448974609375
3697959375.0 -0.82415771484375 1.471923828125
3729181250.0 0.26763916015625 1.6278076171875
3760403125.0 1.14923095703125 1.09619140625
3791625000.0 1.54901123046875 0.21820068359375
3822846875.0 1.39935302734375 -0.75848388671875
3854068750.0 0.62005615234375 -1.47711181640625
3885290625.0 -0.4197998046875 -1.47784423828125
3916512500.0 -1.14007568359375 -0.90936279296875
3947734375.0 -1.44451904296875 -0.1202392578125
3978956250.0 -1.29510498046875 0.7774658203125
4010178125.0 -0.53106689453125 1.450439453125
4041400000.0 0.47161865234375 1.4132080078125
4072621875.0 1.1502685546875 0.8466796875
4103843750.0 1.4415283203125 0.06390380859375
4135065625.0 1.26531982421875 -0.84356689453125
4166287500.0 0.45751953125 -1.49261474609375
4197509375.0 -0.55560302734375 -1.41278076171875
4228731250.0 -1.24609375 -0.80181884765625
4259953125.0 -1.50579833984375 0.06890869140625
4291175000.0 -1.18658447265625 1.00616455078125
4322396875.0 -0.2890625 1.523681640625
4353618750.0 0.6712646484375 1.34735107421875
4384840625.0 1.31951904296875 0.69671630859375
4416062500.0 1.498046875 -0.2261962890625
4447284375.0 1.0538330078125 -1.10101318359375
4478506250.0 0.173583984375 -1.491943359375
4509728125.0 -0.73095703125 -1.3052978515625
4540950000.0 -1.391357421875 -0.63525390625
4572171875.0 -1.51904296875 0.35711669921875
4603393750.0 -0.97137451171875 1.2099609375
4634615625.0 -0.06231689453125 1.5338134765625
4665837500.0 0.86737060546875 1.302001953125
4697059375.0 1.5386962890625 0.51434326171875
4728281250.0 1.52642822265625 -0.58111572265625
4759503125.0 0.82220458984375 -1.36474609375
4790725000.0 -0.14495849609375 -1.57073974609375
4821946875.0 -1.08148193359375 -1.19244384765625
4853168750.0 -1.61004638671875 -0.25146484375
4884390625.0 -1.37567138671875 0.7913818359375
4915612500.0 -0.61309814453125 1.40997314453125
4946834375.0 0.3265380859375 1.506591796875
4978056250.0 1.20294189453125 1.01580810546875
5009278125.0 1.55908203125 0.0400390625
5040500000.0 1.22723388671875 -0.87322998046875
5071721875.0 0.5009765625 -1.4130859375
5102943750.0 -0.4447021484375 -1.49407958984375
5134165625.0 -1.3319091796875 -0.9046630859375
5165387500.0 -1.56512451171875 0.14544677734375
5196609375.0 -1.1343994140625 1.005126953125
5227831250.0 -0.3577880859375 1.50299072265625
5259053125.0 0.684814453125 1.48974609375
5290275000.0 1.51910400390625 0.66259765625
5321496875.0 1.49005126953125 -0.42926025390625
5352718750.0 0.919677734375 -1.1510009765625
5383940625.0 0.09722900390625 -1.497802734375
5415162500.0 -0.89837646484375 -1.28155517578125
5446384375.0 -1.48150634765625 -0.37005615234375
5477606250.0 -1.2982177734375 0.5660400390625
5508828125.0 -0.73040771484375 1.14971923828125
5540050000.0 0.05322265625 1.39697265625
5571271875.0 0.9366455078125 1.10760498046875
5602493750.0 1.406005859375 0.25994873046875
5633715625.0 1.230224609375 -0.6104736328125
5664937500.0 0.6474609375 -1.19921875
5696159375.0 -0.1966552734375 -1.3819580078125
5727381250.0 -1.01910400390625 -0.9775390625
5758603125.0 -1.388916015625 -0.1456298828125
5789825000.0 -1.19219970703125 0.7161865234375
5821046875.0 -0.506591796875 1.3040771484375
5852268750.0 0.4100341796875 1.31097412109375
5883490625.0 1.06829833984375 0.77093505859375
5914712500.0 1.30035400390625 0.02008056640625
5945934375.0 1.09466552734375 -0.77410888671875
5977156250.0 0.36126708984375 -1.30950927734375
6008378125.0 -0.5074462890625 -1.180419921875
6039600000.0 -1.0196533203125 -0.64874267578125
6070821875.0 -1.221923828125 -0.0054931640625
6102043750.0 -1.08203125 0.76116943359375
6133265625.0 -0.3424072265625 1.343017578125
6164487500.0 0.56182861328125 1.18585205078125
6195709375.0 1.06878662109375 0.6295166015625
6226931250.0 1.27777099609375 -0.04254150390625
6258153125.0 1.10333251953125 -0.8701171875
6289375000.0 0.2567138671875 -1.44390869140625
6320596875.0 -0.6868896484375 -1.2039794921875
6351818750.0 -1.19732666015625 -0.57196044921875
6383040625.0 -1.35260009765625 0.20623779296875
6414262500.0 -0.9991455078125 1.05511474609375
6445484375.0 -0.0791015625 1.4547119140625
6476706250.0 0.793701171875 1.1463623046875
6507928125.0 1.287841796875 0.4700927734375
6539150000.0 1.34490966796875 -0.38397216796875
6570371875.0 0.84027099609375 -1.14215087890625
6601593750.0 -0.0164794921875 -1.40289306640625
6632815625.0 -0.83746337890625 -1.13470458984375
6664037500.0 -1.4005126953125 -0.41943359375
6695259375.0 -1.37176513671875 0.56475830078125
6726481250.0 -0.7099609375 1.25079345703125
6757703125.0 0.13043212890625 1.4051513671875
6788925000.0 0.95123291015625 1.12872314453125
6820146875.0 1.557861328125 0.28790283203125
6851368750.0 1.3243408203125 -0.81805419921875
6882590625.0 0.50616455078125 -1.3365478515625
6913812500.0 -0.2901611328125 -1.353759765625
6945034375.0 -1.0672607421875 -1.02044677734375
6976256250.0 -1.5887451171875 -0.09503173828125
7007478125.0 -1.2349853515625 0.930908203125
7038700000.0 -0.4012451171875 1.34173583984375
7069921875.0 0.35650634765625 1.320068359375
7101143750.0 1.11614990234375 0.9671630859375
7132365625.0 1.598388671875 0.01385498046875
7163587500.0 1.15606689453125 -1.01995849609375
7194809375.0 0.30206298828125 -1.39422607421875
7226031250.0 -0.5115966796875 -1.323974609375
7257253125.0 -1.2646484375 -0.82330322265625
7288475000.0 -1.5570068359375 0.19744873046875
7319696875.0 -1.02886962890625 1.10833740234375
7350918750.0 -0.1646728515625 1.44207763671875
7382140625.0 0.71484375 1.274658203125
7413362500.0 1.37286376953125 0.57623291015625
7444584375.0 1.4095458984375 -0.405517578125
7475806250.0 0.857421875 -1.14227294921875
7507028125.0 0.00726318359375 -1.4268798828125
7538250000.0 -0.88421630859375 -1.12432861328125
7569471875.0 -1.33563232421875 -0.31024169921875
7600693750.0 -1.20111083984375 0.49517822265625
7631915625.0 -0.71783447265625 1.08306884765625
7663137500.0 0.07928466796875 1.3564453125
7694359375.0 0.939239501953125 0.9801025390625
7725581250.0 1.24273681640625 0.17999267578125
7756803125.0 1.081787109375 -0.498046875
7788025000.0 0.6697998046875 -1.04058837890625
7819246875.0 -0.11895751953125 -1.3453369140625
7850468750.0 -0.990631103515625 -0.915802001953125
7881690625.0 -1.22845458984375 -0.107666015625
7912912500.0 -1.05352783203125 0.55389404296875
7944134375.0 -0.6058349609375 1.11212158203125
7975356250.0 0.26953125 1.33306884765625
8006578125.0 1.04510498046875 0.77825927734375
8037800000.0 1.19049072265625 0.01690673828125
8069021875.0 1.0054931640625 -0.6160888671875
8100243750.0 0.50140380859375 -1.15960693359375
8131465625.0 -0.3861083984375 -1.25311279296875
8162687500.0 -1.0306396484375 -0.6866455078125
8193909375.0 -1.1783447265625 0.00762939453125
8225131250.0 -1.01678466796875 0.67559814453125
8256353125.0 -0.421630859375 1.2474365234375
8287575000.0 0.49798583984375 1.22467041015625
8318796875.0 1.08050537109375 0.6357421875
8350018750.0 1.24273681640625 -0.07452392578125
8381240625.0 1.0301513671875 -0.83856201171875
8412462500.0 0.25567626953125 -1.37078857421875
8443684375.0 -0.66851806640625 -1.1688232421875
8474906250.0 -1.17242431640625 -0.533447265625
8506128125.0 -1.2960205078125 0.236572265625
8537350000.0 -0.92303466796875 1.0438232421875
8568571875.0 -0.0164794921875 1.3929443359375
8599793750.0 0.7999267578125 1.0518798828125
8631015625.0 1.23895263671875 0.39886474609375
8662237500.0 1.2841796875 -0.42742919921875
8693459375.0 0.735107421875 -1.17620849609375
8724681250.0 -0.16217041015625 -1.33111572265625
8755903125.0 -0.87725830078125 -0.956939697265625
8787125000.0 -1.30157470703125 -0.2828369140625
8818346875.0 -1.24908447265625 0.61383056640625
8849568750.0 -0.55718994140625 1.25762939453125
8880790625.0 0.2984619140625 1.28411865234375
8912012500.0 0.979278564453125 0.892242431640625
8943234375.0 1.3983154296875 0.1290283203125
8974456250.0 1.166748046875 -0.83636474609375
9005678125.0 0.34893798828125 -1.3121337890625
9036900000.0 -0.44464111328125 -1.2236328125
9068121875.0 -1.10028076171875 -0.78460693359375
9099343750.0 -1.43927001953125 0.0968017578125
9130565625.0 -0.97955322265625 1.0106201171875
9161787500.0 -0.15576171875 1.27978515625
9193009375.0 0.5523681640625 1.132080078125
9224231250.0 1.1767578125 0.65484619140625
9255453125.0 1.3973388671875 -0.2939453125
9286675000.0 0.80596923828125 -1.08282470703125
9317896875.0 0.028564453125 -1.2452392578125
9349118750.0 -0.6536865234375 -1.0679931640625
9380340625.0 -1.2584228515625 -0.509033203125
9411562500.0 -1.310302734375 0.47467041015625
9442784375.0 -0.6484375 1.113525390625
9474006250.0 0.08819580078125 1.20953369140625
9505228125.0 0.761688232421875 0.97821044921875
9536450000.0 1.27191162109375 0.3134765625
9567671875.0 1.14208984375 -0.5777587890625
9598893750.0 0.53009033203125 -1.065673828125
9630115625.0 -0.142333984375 -1.1556396484375
9661337500.0 -0.816375732421875 -0.901214599609375
9692559375.0 -1.2357177734375 -0.19171142578125
9723781250.0 -1.042236328125 0.6009521484375
9755003125.0 -0.486083984375 1.04913330078125
9786225000.0 0.19683837890625 1.1580810546875
9817446875.0 0.892547607421875 0.82720947265625
9848668750.0 1.1968994140625 0.07861328125
9879890625.0 0.96807861328125 -0.61456298828125
9911112500.0 0.4520263671875 -1.0513916015625
9942334375.0 -0.26495361328125 -1.15728759765625
9973556250.0 -0.9432373046875 -0.737396240234375
10004778125.0 -1.14642333984375 -0.01715087890625
10036000000.0 -0.942626953125 0.613861083984375
10067221875.0 -0.44183349609375 1.09576416015625
10098443750.0 0.36932373046875 1.179931640625
10129665625.0 0.99969482421875 0.642730712890625
10160887500.0 1.1195068359375 -0.0513916015625
10192109375.0 0.91680908203125 -0.660614013671875
10223331250.0 0.3624267578125 -1.14935302734375
10254553125.0 -0.485595703125 -1.11370849609375
10285775000.0 -0.983489990234375 -0.53558349609375
10316996875.0 -1.0667724609375 0.0775146484375
10348218750.0 -0.898895263671875 0.668914794921875
10379440625.0 -0.3218994140625 1.174072265625
10410662500.0 0.525634765625 1.083740234375
10441884375.0 0.989837646484375 0.52239990234375
10473106250.0 1.1085205078125 -0.0848388671875
10504328125.0 0.951019287109375 -0.75531005859375
10535550000.0 0.24041748046875 -1.292724609375
10566771875.0 -0.65545654296875 -1.07635498046875
10597993750.0 -1.07879638671875 -0.4595947265625
10629215625.0 -1.17376708984375 0.20416259765625
10660437500.0 -0.8861083984375 0.94818115234375
10691659375.0 -0.01055908203125 1.33514404296875
10722881250.0 0.78369140625 0.9525146484375
10754103125.0 1.11761474609375 0.32476806640625
10785325000.0 1.13818359375 -0.36553955078125
10816546875.0 0.7005615234375 -1.0460205078125
10847768750.0 -0.1435546875 -1.22833251953125
10878990625.0 -0.80023193359375 -0.844024658203125
10910212500.0 -1.12322998046875 -0.24639892578125
10941434375.0 -1.09619140625 0.476318359375
10972656250.0 -0.5677490234375 1.083740234375
11003878125.0 0.21624755859375 1.1737060546875
11035100000.0 0.847381591796875 0.8216552734375
11066321875.0 1.2203369140625 0.173583984375
11097543750.0 1.09722900390625 -0.6759033203125
11128765625.0 0.386474609375 -1.195556640625
11159987500.0 -0.39556884765625 -1.13873291015625
11191209375.0 -0.998291015625 -0.702545166015625
11222431250.0 -1.2725830078125 0.09344482421875
11253653125.0 -0.8592529296875 0.892181396484375
11284875000.0 -0.11431884765625 1.12664794921875
11316096875.0 0.50958251953125 0.954803466796875
11347318750.0 1.00079345703125 0.50274658203125
11378540625.0 1.11553955078125 -0.26873779296875
11409762500.0 0.63482666015625 -0.857940673828125
11440984375.0 0.036834716796875 -0.9775390625
11472206250.0 -0.47906494140625 -0.849761962890625
11503428125.0 -0.95233154296875 -0.45654296875
11534650000.0 -1.06744384765625 0.28778076171875
11565871875.0 -0.60235595703125 0.853515625
11597093750.0 -0.017822265625 0.990753173828125
11628315625.0 0.543426513671875 0.873626708984375
11659537500.0 1.0577392578125 0.39227294921875
11690759375.0 1.0633544921875 -0.43115234375
11721981250.0 0.5169677734375 -0.938934326171875
11753203125.0 -0.1053466796875 -1.03570556640625
11784425000.0 -0.722930908203125 -0.80816650390625
11815646875.0 -1.09906005859375 -0.152099609375
11846868750.0 -0.890899658203125 0.55084228515625
11878090625.0 -0.391571044921875 0.9066162109375
11909312500.0 0.18585205078125 0.983642578125
11940534375.0 0.779388427734375 0.69512939453125
11971756250.0 1.02325439453125 0.0400390625
12002978125.0 0.805419921875 -0.5362548828125
12034200000.0 0.3814697265625 -0.8885498046875
12065421875.0 -0.21502685546875 -1.00946044921875
12096643750.0 -0.848358154296875 -0.665252685546875
12127865625.0 -1.032958984375 0.0159912109375
12159087500.0 -0.813995361328125 0.57415771484375
12190309375.0 -0.37774658203125 0.973876953125
12221531250.0 0.33740234375 1.08709716796875
12252753125.0 0.978668212890625 0.5823974609375
12283975000.0 1.05303955078125 -0.12646484375
12315196875.0 0.799468994140625 -0.67584228515625
12346418750.0 0.28289794921875 -1.0906982421875
12377640625.0 -0.53570556640625 -1.06085205078125
12408862500.0 -1.031982421875 -0.4202880859375
12440084375.0 -1.0072021484375 0.22308349609375
12471306250.0 -0.74169921875 0.73602294921875
12502528125.0 -0.180419921875 1.1185302734375
12533750000.0 0.61669921875 0.99176025390625
12564971875.0 1.040771484375 0.3636474609375
12596193750.0 1.02978515625 -0.2652587890625
12627415625.0 0.747772216796875 -0.828521728515625
12658637500.0 0.0804443359375 -1.20562744140625
12689859375.0 -0.734954833984375 -0.9661865234375
12721081250.0 -1.11480712890625 -0.3070068359375
12752303125.0 -1.09710693359375 0.381103515625
12783525000.0 -0.68804931640625 1.025146484375
12814746875.0 0.16400146484375 1.24920654296875
12845968750.0 0.860626220703125 0.81103515625
12877190625.0 1.11639404296875 0.17095947265625
12908412500.0 1.05535888671875 -0.5018310546875
12939634375.0 0.542724609375 -1.11395263671875
12970856250.0 -0.31964111328125 -1.17388916015625
13002078125.0 -0.8936767578125 -0.69232177734375
13033300000.0 -1.10516357421875 -0.087158203125
13064521875.0 -1.00830078125 0.59161376953125
13095743750.0 -0.42083740234375 1.1517333984375
13126965625.0 0.409423828125 1.12060546875
13158187500.0 0.943634033203125 0.632476806640625
13189409375.0 1.14764404296875 -0.0208740234375
13220631250.0 0.935028076171875 -0.74725341796875
13251853125.0 0.2353515625 -1.17047119140625
13283075000.0 -0.505615234375 -1.0179443359375
13314296875.0 -0.987396240234375 -0.528228759765625
13345518750.0 -1.13470458984375 0.17620849609375
