!Created with skrf (http://scikit-rf.org).
# Hz S RI R 50.0 
!freq ReS11 ImS11
45000000.0 -0.07660675048828125 -0.09692001342773438
76221875.0 -0.19676971435546875 -0.0480804443359375
107443750.0 -0.2558135986328125 0.1195068359375
138665625.0 -0.149169921875 0.3289947509765625
169887500.0 0.12274169921875 0.4185943603515625
201109375.0 0.42205810546875 0.2826690673828125
232331250.0 0.5802001953125 -0.056182861328125
263553125.0 0.491546630859375 -0.4528045654296875
294775000.0 0.100372314453125 -0.734100341796875
325996875.0 -0.414947509765625 -0.683319091796875
357218750.0 -0.807891845703125 -0.29962158203125
388440625.0 -0.888641357421875 0.2994384765625
419662500.0 -0.52044677734375 0.867218017578125
450884375.0 0.1708984375 1.03167724609375
482106250.0 0.798736572265625 0.716522216796875
513328125.0 1.1219482421875 0.08984375
544550000.0 1.00714111328125 -0.678955078125
575771875.0 0.33990478515625 -1.23968505859375
606993750.0 -0.55206298828125 -1.180908203125
638215625.0 -1.16693115234375 -0.59454345703125
669437500.0 -1.3431396484375 0.231201171875
700659375.0 -0.9752197265625 1.09613037109375
731881250.0 -0.00738525390625 1.5458984375
763103125.0 1.00494384765625 1.16070556640625
794325000.0 1.47113037109375 0.2857666015625
825546875.0 1.37139892578125 -0.64996337890625
856768750.0 0.79925537109375 -1.4024658203125
887990625.0 -0.28985595703125 -1.6529541015625
919212500.0 -1.288818359375 -1.08453369140625
950434375.0 -1.6527099609375 -0.062744140625
981656250.0 -1.387939453125 0.9456787109375
1012878125.0 -0.5347900390625 1.6749267578125
1044100000.0 0.69464111328125 1.66778564453125
1075321875.0 1.5770263671875 0.8175048828125
1106543750.0 1.7099609375 -0.31060791015625
1137765625.0 1.19281005859375 -1.28466796875
1168987500.0 0.14300537109375 -1.80120849609375
1200209375.0 -1.06103515625 -1.48974609375
1231431250.0 -1.7308349609375 -0.45794677734375
1262653125.0 -1.59912109375 0.682861328125
1293875000.0 -0.85699462890625 1.49298095703125
1325096875.0 0.22479248046875 1.71112060546875
1356318750.0 1.23516845703125 1.2222900390625
1387540625.0 1.74310302734375 0.19342041015625
1418762500.0 1.47454833984375 -0.950927734375
1449984375.0 0.53399658203125 -1.628173828125
1481206250.0 -0.547607421875 -1.56048583984375
1512428125.0 -1.34283447265625 -0.92425537109375
1543650000.0 -1.6591796875 0.06268310546875
1574871875.0 -1.278076171875 1.1087646484375
1606093750.0 -0.27685546875 1.6341552734375
1637315625.0 0.74072265625 1.40484619140625
1668537500.0 1.39691162109375 0.69989013671875
1699759375.0 1.5771484375 -0.2744140625
1730981250.0 1.0684814453125 -1.229248046875
1762203125.0 0.04541015625 -1.57379150390625
1793425000.0 -0.85528564453125 -1.230712890625
1824646875.0 -1.39544677734375 -0.5186767578125
1855868750.0 -1.477783203125 0.43048095703125
1887090625.0 -0.8795166015625 1.28656005859375
1918312500.0 0.114990234375 1.4903564453125
1949534375.0 0.92138671875 1.0928955078125
1980756250.0 1.376953125 0.3736572265625
2011978125.0 1.363037109375 -0.52984619140625
2043200000.0 0.75384521484375 -1.26251220703125
2074421875.0 -0.15472412109375 -1.43603515625
2105643750.0 -0.9598388671875 -1.07598876953125
2136865625.0 -1.44921875 -0.30816650390625
2168087500.0 -1.36114501953125 0.66986083984375
2199309375.0 -0.6424560546875 1.35321044921875
2230531250.0 0.280029296875 1.43927001953125
2261753125.0 1.073486328125 1.01776123046875
2292975000.0 1.51690673828125 0.1728515625
2324196875.0 1.309326171875 -0.81817626953125
2355418750.0 0.52850341796875 -1.42144775390625
2386640625.0 -0.40289306640625 -1.4522705078125
2417862500.0 -1.18218994140625 -1.028076171875
2449084375.0 -1.60736083984375 -0.08697509765625
2480306250.0 -1.31500244140625 0.92474365234375
2511528125.0 -0.49737548828125 1.5096435546875
2542750000.0 0.486572265625 1.5401611328125
2573971875.0 1.3726806640625 0.9718017578125
2605193750.0 1.72113037109375 -0.10968017578125
2636415625.0 1.26580810546875 -1.152587890625
2667637500.0 0.3092041015625 -1.67047119140625
2698859375.0 -0.769287109375 -1.53936767578125
2730081250.0 -1.57489013671875 -0.74444580078125
2761303125.0 -1.6854248046875 0.38671875
2792525000.0 -1.10369873046875 1.30865478515625
2823746875.0 -0.10546875 1.73260498046875
2854968750.0 1.0126953125 1.4609375
2886190625.0 1.69549560546875 0.49530029296875
2917412500.0 1.604248046875 -0.6162109375
2948634375.0 0.94342041015625 -1.43572998046875
2979856250.0 -0.1053466796875 -1.7803955078125
3011078125.0 -1.24774169921875 -1.34674072265625
3042300000.0 -1.77667236328125 -0.23876953125
3073521875.0 -1.51348876953125 0.83819580078125
3104743750.0 -0.766845703125 1.57208251953125
3135965625.0 0.359130859375 1.8128662109375
3167187500.0 1.49969482421875 1.16949462890625
3198409375.0 1.81982421875 -0.07208251953125
3229631250.0 1.353271484375 -1.081298828125
3260853125.0 0.49310302734375 -1.6707763671875
3292075000.0 -0.65234375 -1.70269775390625
3323296875.0 -1.6214599609375 -0.884033203125
3354518750.0 -1.73443603515625 0.326904296875
3385740625.0 -1.159912109375 1.23333740234375
3416962500.0 -0.234375 1.68463134765625
3448184375.0 0.862060546875 1.52734375
3479406250.0 1.63751220703125 0.64776611328125
3510628125.0 1.64825439453125 -0.49395751953125
3541850000.0 1.00433349609375 -1.35638427734375
3573071875.0 -0.00555419921875 -1.685791015625
3604293750.0 -1.0281982421875 -1.3414306640625
3635515625.0 -1.6280517578125 -0.4422607421875
3666737500.0 -1.56591796875 0.64501953125
3697959375.0 -0.8289794921875 1.47796630859375
3729181250.0 0.26666259765625 1.6341552734375
3760403125.0 1.15277099609375 1.10125732421875
3791625000.0 1.5540771484375 0.2215576171875
3822846875.0 1.40606689453125 -0.759765625
3854068750.0 0.6239013671875 -1.48388671875
3885290625.0 -0.42041015625 -1.4857177734375
3916512500.0 -1.1424560546875 -0.91455078125
3947734375.0 -1.45123291015625 -0.12176513671875
3978956250.0 -1.30181884765625 0.77972412109375
4010178125.0 -0.53375244140625 1.45770263671875
4041400000.0 0.47235107421875 1.4183349609375
4072621875.0 1.1529541015625 0.85052490234375
4103843750.0 1.4473876953125 0.0650634765625
4135065625.0 1.27081298828125 -0.8465576171875
4166287500.0 0.45941162109375 -1.49908447265625
4197509375.0 -0.55828857421875 -1.41827392578125
4228731250.0 -1.249755859375 -0.8048095703125
4259953125.0 -1.5120849609375 0.06939697265625
4291175000.0 -1.19171142578125 1.01031494140625
4322396875.0 -0.291748046875 1.5291748046875
4353618750.0 0.67218017578125 1.3533935546875
4384840625.0 1.322998046875 0.70098876953125
4416062500.0 1.50445556640625 -0.22625732421875
4447284375.0 1.05841064453125 -1.1053466796875
4478506250.0 0.17425537109375 -1.49810791015625
4509728125.0 -0.7332763671875 -1.31109619140625
4540950000.0 -1.39605712890625 -0.63800048828125
4572171875.0 -1.5247802734375 0.35894775390625
4603393750.0 -0.97503662109375 1.21337890625
4634615625.0 -0.0625 1.5390625
4665837500.0 0.87091064453125 1.30743408203125
4697059375.0 1.54443359375 0.51715087890625
4728281250.0 1.532958984375 -0.583740234375
4759503125.0 0.82550048828125 -1.369384765625
4790725000.0 -0.14483642578125 -1.57568359375
4821946875.0 -1.08294677734375 -1.19708251953125
4853168750.0 -1.61669921875 -0.25335693359375
4884390625.0 -1.38189697265625 0.7930908203125
4915612500.0 -0.61529541015625 1.4144287109375
4946834375.0 0.32861328125 1.512451171875
4978056250.0 1.20745849609375 1.02032470703125
5009278125.0 1.56524658203125 0.04052734375
5040500000.0 1.232666015625 -0.87677001953125
5071721875.0 0.50390625 -1.416748046875
5102943750.0 -0.4461669921875 -1.49957275390625
5134165625.0 -1.33837890625 -0.908203125
5165387500.0 -1.5709228515625 0.14569091796875
5196609375.0 -1.13861083984375 1.01019287109375
5227831250.0 -0.359375 1.50860595703125
5259053125.0 0.68890380859375 1.49627685546875
5290275000.0 1.5238037109375 0.664794921875
5321496875.0 1.49505615234375 -0.4307861328125
5352718750.0 0.9232177734375 -1.15350341796875
5383940625.0 0.098388671875 -1.503173828125
5415162500.0 -0.900634765625 -1.28662109375
5446384375.0 -1.48785400390625 -0.3717041015625
5477606250.0 -1.30218505859375 0.56683349609375
5508828125.0 -0.7333984375 1.1531982421875
5540050000.0 0.0537109375 1.402587890625
5571271875.0 0.9395751953125 1.1121826171875
5602493750.0 1.41156005859375 0.26129150390625
5633715625.0 1.235595703125 -0.61383056640625
5664937500.0 0.65032958984375 -1.202880859375
5696159375.0 -0.19744873046875 -1.38690185546875
5727381250.0 -1.02423095703125 -0.98101806640625
5758603125.0 -1.394287109375 -0.1458740234375
5789825000.0 -1.19622802734375 0.7176513671875
5821046875.0 -0.50762939453125 1.31024169921875
5852268750.0 0.41192626953125 1.315673828125
5883490625.0 1.0731201171875 0.773681640625
5914712500.0 1.30462646484375 0.02166748046875
5945934375.0 1.09906005859375 -0.7767333984375
5977156250.0 0.36285400390625 -1.31396484375
6008378125.0 -0.5103759765625 -1.18505859375
6039600000.0 -1.02313232421875 -0.65093994140625
6070821875.0 -1.2265625 -0.00518798828125
6102043750.0 -1.08624267578125 0.764404296875
6133265625.0 -0.3427734375 1.34820556640625
6164487500.0 0.56591796875 1.19036865234375
6195709375.0 1.07281494140625 0.63177490234375
6226931250.0 1.28326416015625 -0.04296875
6258153125.0 1.10662841796875 -0.87298583984375
6289375000.0 0.25592041015625 -1.44921875
6320596875.0 -0.6915283203125 -1.20782470703125
6351818750.0 -1.20269775390625 -0.57293701171875
6383040625.0 -1.35699462890625 0.2071533203125
6414262500.0 -1.0013427734375 1.05718994140625
6445484375.0 -0.07861328125 1.45892333984375
6476706250.0 0.79644775390625 1.14996337890625
6507928125.0 1.2930908203125 0.47137451171875
6539150000.0 1.35028076171875 -0.38629150390625
6570371875.0 0.8431396484375 -1.14642333984375
6601593750.0 -0.0169677734375 -1.40771484375
6632815625.0 -0.8409423828125 -1.13873291015625
6664037500.0 -1.404296875 -0.42120361328125
6695259375.0 -1.3770751953125 0.56787109375
6726481250.0 -0.7117919921875 1.25341796875
6757703125.0 0.13104248046875 1.409912109375
6788925000.0 0.95660400390625 1.133056640625
6820146875.0 1.56390380859375 0.28814697265625
6851368750.0 1.32818603515625 -0.8216552734375
6882590625.0 0.50775146484375 -1.34051513671875
6913812500.0 -0.29205322265625 -1.35833740234375
6945034375.0 -1.07171630859375 -1.02386474609375
6976256250.0 -1.5960693359375 -0.09326171875
7007478125.0 -1.23907470703125 0.93463134765625
7038700000.0 -0.40252685546875 1.3463134765625
7069921875.0 0.35986328125 1.3282470703125
7101143750.0 1.12017822265625 0.9705810546875
7132365625.0 1.604736328125 0.013671875
7163587500.0 1.16094970703125 -1.0230712890625
7194809375.0 0.30206298828125 -1.4014892578125
7226031250.0 -0.51361083984375 -1.328857421875
7257253125.0 -1.27117919921875 -0.8267822265625
7288475000.0 -1.5615234375 0.19964599609375
7319696875.0 -1.03338623046875 1.1131591796875
7350918750.0 -0.166748046875 1.4466552734375
7382140625.0 0.71661376953125 1.2799072265625
7413362500.0 1.37884521484375 0.57806396484375
7444584375.0 1.41595458984375 -0.40814208984375
7475806250.0 0.86029052734375 -1.14532470703125
7507028125.0 0.008056640625 -1.43218994140625
7538250000.0 -0.88909912109375 -1.12615966796875
7569471875.0 -1.338623046875 -0.31134033203125
7600693750.0 -1.204345703125 0.4981689453125
7631915625.0 -0.72088623046875 1.087158203125
7663137500.0 0.07861328125 1.36187744140625
7694359375.0 0.94140625 0.9833984375
7725581250.0 1.2462158203125 0.18194580078125
7756803125.0 1.08697509765625 -0.50054931640625
7788025000.0 0.671875 -1.04693603515625
7819246875.0 -0.12078857421875 -1.35107421875
7850468750.0 -0.995330810546875 -0.91802978515625
7881690625.0 -1.23577880859375 -0.1043701171875
7912912500.0 -1.05694580078125 0.5552978515625
7944134375.0 -0.60675048828125 1.11724853515625
7975356250.0 0.27288818359375 1.337646484375
8006578125.0 1.0509033203125 0.779052734375
8037800000.0 1.19415283203125 0.01800537109375
8069021875.0 1.010986328125 -0.61895751953125
8100243750.0 0.49951171875 -1.166259765625
8131465625.0 -0.388671875 -1.256591796875
8162687500.0 -1.0328369140625 -0.68804931640625
8193909375.0 -1.1849365234375 0.00927734375
8225131250.0 -1.0196533203125 0.67852783203125
8256353125.0 -0.421875 1.25299072265625
8287575000.0 0.50347900390625 1.2294921875
8318796875.0 1.08624267578125 0.63671875
8350018750.0 1.2484130859375 -0.07635498046875
8381240625.0 1.0347900390625 -0.8414306640625
8412462500.0 0.25323486328125 -1.378662109375
8443684375.0 -0.6722412109375 -1.1715087890625
8474906250.0 -1.17767333984375 -0.53265380859375
8506128125.0 -1.30133056640625 0.2386474609375
8537350000.0 -0.92559814453125 1.049560546875
8568571875.0 -0.0159912109375 1.39617919921875
8599793750.0 0.80487060546875 1.05621337890625
8631015625.0 1.2431640625 0.4002685546875
8662237500.0 1.28851318359375 -0.4296875
8693459375.0 0.73883056640625 -1.17938232421875
8724681250.0 -0.16168212890625 -1.3350830078125
8755903125.0 -0.88165283203125 -0.960540771484375
8787125000.0 -1.30718994140625 -0.2835693359375
8818346875.0 -1.253662109375 0.6181640625
8849568750.0 -0.557373046875 1.2642822265625
8880790625.0 0.3001708984375 1.28790283203125
8912012500.0 0.983856201171875 0.894989013671875
8943234375.0 1.40533447265625 0.1287841796875
8974456250.0 1.16827392578125 -0.84368896484375
9005678125.0 0.34637451171875 -1.31732177734375
9036900000.0 -0.44696044921875 -1.22705078125
9068121875.0 -1.103759765625 -0.78729248046875
9099343750.0 -1.44415283203125 0.0989990234375
9130565625.0 -0.98126220703125 1.01483154296875
9161787500.0 -0.15496826171875 1.28533935546875
9193009375.0 0.5555419921875 1.13629150390625
9224231250.0 1.182861328125 0.65643310546875
9255453125.0 1.40289306640625 -0.2965087890625
9286675000.0 0.80926513671875 -1.0888671875
9317896875.0 0.02734375 -1.249267578125
9349118750.0 -0.655029296875 -1.07354736328125
9380340625.0 -1.26025390625 -0.51123046875
9411562500.0 -1.3145751953125 0.4798583984375
9442784375.0 -0.64849853515625 1.1201171875
9474006250.0 0.09033203125 1.21484375
9505228125.0 0.767303466796875 0.982208251953125
9536450000.0 1.27838134765625 0.31201171875
9567671875.0 1.14501953125 -0.5836181640625
9598893750.0 0.52886962890625 -1.07183837890625
9630115625.0 -0.14501953125 -1.15960693359375
9661337500.0 -0.82073974609375 -0.903656005859375
9692559375.0 -1.2425537109375 -0.18878173828125
9723781250.0 -1.044189453125 0.6033935546875
9755003125.0 -0.48748779296875 1.05267333984375
9786225000.0 0.19927978515625 1.16192626953125
9817446875.0 0.89849853515625 0.829315185546875
9848668750.0 1.2017822265625 0.07708740234375
9879890625.0 0.970001220703125 -0.6182861328125
9911112500.0 0.45330810546875 -1.05499267578125
9942334375.0 -0.2698974609375 -1.16357421875
9973556250.0 -0.9459228515625 -0.738739013671875
10004778125.0 -1.149658203125 -0.01531982421875
10036000000.0 -0.945831298828125 0.6177978515625
10067221875.0 -0.44146728515625 1.10015869140625
10098443750.0 0.373291015625 1.18377685546875
10129665625.0 1.00628662109375 0.64202880859375
10160887500.0 1.1214599609375 -0.052490234375
10192109375.0 0.918548583984375 -0.664764404296875
10223331250.0 0.36029052734375 -1.156494140625
10254553125.0 -0.4888916015625 -1.11578369140625
10285775000.0 -0.988555908203125 -0.5355224609375
10316996875.0 -1.06829833984375 0.07666015625
10348218750.0 -0.9017333984375 0.67333984375
10379440625.0 -0.32183837890625 1.17840576171875
10410662500.0 0.52880859375 1.08770751953125
10441884375.0 0.994842529296875 0.522308349609375
10473106250.0 1.11224365234375 -0.0860595703125
10504328125.0 0.95111083984375 -0.76141357421875
10535550000.0 0.2366943359375 -1.30035400390625
10566771875.0 -0.66162109375 -1.0792236328125
10597993750.0 -1.08233642578125 -0.45941162109375
10629215625.0 -1.17803955078125 0.2064208984375
10660437500.0 -0.88824462890625 0.956329345703125
10691659375.0 -0.0078125 1.33758544921875
10722881250.0 0.7880859375 0.9530029296875
10754103125.0 1.12200927734375 0.32427978515625
10785325000.0 1.142822265625 -0.36968994140625
10816546875.0 0.700927734375 -1.0526123046875
10847768750.0 -0.14642333984375 -1.23199462890625
10878990625.0 -0.80560302734375 -0.84515380859375
10910212500.0 -1.12579345703125 -0.24481201171875
10941434375.0 -1.100341796875 0.48046875
10972656250.0 -0.56866455078125 1.08795166015625
11003878125.0 0.21820068359375 1.1768798828125
11035100000.0 0.85040283203125 0.823516845703125
11066321875.0 1.22509765625 0.1732177734375
11097543750.0 1.09991455078125 -0.67950439453125
11128765625.0 0.38470458984375 -1.20306396484375
11159987500.0 -0.39764404296875 -1.14080810546875
11191209375.0 -1.00311279296875 -0.70294189453125
11222431250.0 -1.275390625 0.0955810546875
11253653125.0 -0.859710693359375 0.897369384765625
11284875000.0 -0.1143798828125 1.12933349609375
11316096875.0 0.51251220703125 0.95819091796875
11347318750.0 1.0072021484375 0.50201416015625
11378540625.0 1.11944580078125 -0.27203369140625
11409762500.0 0.63470458984375 -0.862030029296875
11440984375.0 0.035675048828125 -0.979705810546875
11472206250.0 -0.483367919921875 -0.851959228515625
11503428125.0 -0.957122802734375 -0.456451416015625
11534650000.0 -1.0721435546875 0.29290771484375
11565871875.0 -0.602142333984375 0.858428955078125
11597093750.0 -0.016815185546875 0.994415283203125
11628315625.0 0.546478271484375 0.87713623046875
11659537500.0 1.065185546875 0.39178466796875
11690759375.0 1.06732177734375 -0.43719482421875
11721981250.0 0.51580810546875 -0.943206787109375
11753203125.0 -0.10687255859375 -1.0390625
11784425000.0 -0.727874755859375 -0.8092041015625
11815646875.0 -1.10467529296875 -0.1492919921875
11846868750.0 -0.892364501953125 0.554107666015625
11878090625.0 -0.39044189453125 0.911285400390625
11909312500.0 0.190093994140625 0.98736572265625
11940534375.0 0.784454345703125 0.695648193359375
11971756250.0 1.02862548828125 0.03668212890625
12002978125.0 0.807952880859375 -0.54022216796875
12034200000.0 0.381744384765625 -0.8917236328125
12065421875.0 -0.218017578125 -1.01336669921875
12096643750.0 -0.851165771484375 -0.665130615234375
12127865625.0 -1.0355224609375 0.0184326171875
12159087500.0 -0.815948486328125 0.57769775390625
12190309375.0 -0.377105712890625 0.97821044921875
12221531250.0 0.34246826171875 1.0909423828125
12252753125.0 0.983489990234375 0.58087158203125
12283975000.0 1.05487060546875 -0.1295166015625
12315196875.0 0.800811767578125 -0.678466796875
12346418750.0 0.28021240234375 -1.0948486328125
12377640625.0 -0.54193115234375 -1.06182861328125
12408862500.0 -1.03619384765625 -0.4193115234375
12440084375.0 -1.00970458984375 0.22662353515625
12471306250.0 -0.7430419921875 0.740814208984375
12502528125.0 -0.17901611328125 1.12603759765625
12533750000.0 0.623565673828125 0.994354248046875
12564971875.0 1.04571533203125 0.3629150390625
12596193750.0 1.03179931640625 -0.2666015625
12627415625.0 0.749176025390625 -0.830474853515625
12658637500.0 0.0784912109375 -1.20941162109375
12689859375.0 -0.73944091796875 -0.96734619140625
12721081250.0 -1.119873046875 -0.304931640625
12752303125.0 -1.1005859375 0.38446044921875
12783525000.0 -0.68634033203125 1.0318603515625
12814746875.0 0.16900634765625 1.25445556640625
12845968750.0 0.867095947265625 0.811187744140625
12877190625.0 1.121337890625 0.17047119140625
12908412500.0 1.05902099609375 -0.50750732421875
12939634375.0 0.541748046875 -1.12127685546875
12970856250.0 -0.32366943359375 -1.17718505859375
13002078125.0 -0.898162841796875 -0.692779541015625
13033300000.0 -1.10931396484375 -0.085693359375
13064521875.0 -1.01171875 0.59765625
13095743750.0 -0.4185791015625 1.1593017578125
13126965625.0 0.4124755859375 1.12249755859375
13158187500.0 0.951202392578125 0.631256103515625
13189409375.0 1.15045166015625 -0.02325439453125
13220631250.0 0.937774658203125 -0.75146484375
13251853125.0 0.23272705078125 -1.17431640625
13283075000.0 -0.51092529296875 -1.0213623046875
13314296875.0 -0.99169921875 -0.52886962890625
13345518750.0 -1.138427734375 0.180908203125
13376740625.0 -0.752044677734375 0.860626220703125
