!Created with skrf (http://scikit-rf.org).
# Hz S RI R 50.0 
!freq ReS11 ImS11
45000000.0 -0.0770111083984375 -0.09698104858398438
76221875.0 -0.19635009765625 -0.04754638671875
107443750.0 -0.254669189453125 0.1195220947265625
138665625.0 -0.1480560302734375 0.328338623046875
169887500.0 0.1236419677734375 0.4170989990234375
201109375.0 0.421539306640625 0.280670166015625
232331250.0 0.57843017578125 -0.05755615234375
263553125.0 0.4890289306640625 -0.452545166015625
294775000.0 0.09832763671875 -0.732147216796875
325996875.0 -0.41522216796875 -0.679962158203125
357218750.0 -0.80560302734375 -0.296417236328125
388440625.0 -0.884857177734375 0.300567626953125
419662500.0 -0.51678466796875 0.86553955078125
450884375.0 0.17327880859375 1.02801513671875
482106250.0 0.7978515625 0.711639404296875
513328125.0 1.11834716796875 0.08697509765625
544550000.0 1.00299072265625 -0.67919921875
575771875.0 0.335693359375 -1.2373046875
606993750.0 -0.5535888671875 -1.17620849609375
638215625.0 -1.1649169921875 -0.589599609375
669437500.0 -1.33831787109375 0.23388671875
700659375.0 -0.9697265625 1.0953369140625
731881250.0 -0.003173828125 1.54193115234375
763103125.0 1.00494384765625 1.15435791015625
794325000.0 1.46710205078125 0.28131103515625
825546875.0 1.3656005859375 -0.65087890625
856768750.0 0.7933349609375 -1.39996337890625
887990625.0 -0.29278564453125 -1.64630126953125
919212500.0 -1.28668212890625 -1.0772705078125
950434375.0 -1.6461181640625 -0.0592041015625
981656250.0 -1.380859375 0.94512939453125
1012878125.0 -0.529052734375 1.66973876953125
1044100000.0 0.69586181640625 1.65948486328125
1075321875.0 1.5723876953125 0.81060791015625
1106543750.0 1.70257568359375 -0.3128662109375
1137765625.0 1.1846923828125 -1.28326416015625
1168987500.0 0.13763427734375 -1.79473876953125
1200209375.0 -1.06072998046875 -1.48126220703125
1231431250.0 -1.724853515625 -0.45294189453125
1262653125.0 -1.59210205078125 0.6837158203125
1293875000.0 -0.85064697265625 1.4893798828125
1325096875.0 0.2281494140625 1.70404052734375
1356318750.0 1.23333740234375 1.2147216796875
1387540625.0 1.73724365234375 0.18878173828125
1418762500.0 1.46722412109375 -0.95050048828125
1449984375.0 0.528076171875 -1.62322998046875
1481206250.0 -0.54913330078125 -1.5533447265625
1512428125.0 -1.340087890625 -0.918212890625
1543650000.0 -1.65301513671875 0.0650634765625
1574871875.0 -1.271484375 1.1072998046875
1606093750.0 -0.27252197265625 1.6287841796875
1637315625.0 0.74090576171875 1.39825439453125
1668537500.0 1.3941650390625 0.69488525390625
1699759375.0 1.57073974609375 -0.27691650390625
1730981250.0 1.06256103515625 -1.22802734375
1762203125.0 0.0421142578125 -1.56817626953125
1793425000.0 -0.854736328125 -1.22454833984375
1824646875.0 -1.39141845703125 -0.5142822265625
1855868750.0 -1.47216796875 0.432373046875
1887090625.0 -0.873779296875 1.28411865234375
1918312500.0 0.11712646484375 1.48504638671875
1949534375.0 0.92047119140625 1.08746337890625
1980756250.0 1.37347412109375 0.36907958984375
2011978125.0 1.35760498046875 -0.53106689453125
2043200000.0 0.748779296875 -1.25982666015625
2074421875.0 -0.15667724609375 -1.43121337890625
2105643750.0 -0.9588623046875 -1.071044921875
2136865625.0 -1.4453125 -0.30462646484375
2168087500.0 -1.3548583984375 0.66986083984375
2199309375.0 -0.6378173828125 1.34954833984375
2230531250.0 0.28131103515625 1.433837890625
2261753125.0 1.0712890625 1.0125732421875
2292975000.0 1.51214599609375 0.16998291015625
2324196875.0 1.303466796875 -0.8173828125
2355418750.0 0.52435302734375 -1.4176025390625
2386640625.0 -0.40386962890625 -1.44708251953125
2417862500.0 -1.17840576171875 -1.02313232421875
2449084375.0 -1.60284423828125 -0.08355712890625
2480306250.0 -1.3096923828125 0.92340087890625
2511528125.0 -0.4932861328125 1.505615234375
2542750000.0 0.48785400390625 1.5338134765625
2573971875.0 1.36846923828125 0.96685791015625
2605193750.0 1.714599609375 -0.11260986328125
2636415625.0 1.25946044921875 -1.1500244140625
2667637500.0 0.30596923828125 -1.6646728515625
2698859375.0 -0.7674560546875 -1.5321044921875
2730081250.0 -1.5712890625 -0.73919677734375
2761303125.0 -1.67816162109375 0.38739013671875
2792525000.0 -1.09747314453125 1.3037109375
2823746875.0 -0.102294921875 1.7259521484375
2854968750.0 1.01025390625 1.45245361328125
2886190625.0 1.688720703125 0.49066162109375
2917412500.0 1.59686279296875 -0.6160888671875
2948634375.0 0.93792724609375 -1.430419921875
2979856250.0 -0.1065673828125 -1.7713623046875
3011078125.0 -1.2449951171875 -1.33984375
3042300000.0 -1.771728515625 -0.2340087890625
3073521875.0 -1.5057373046875 0.83544921875
3104743750.0 -0.76177978515625 1.56524658203125
3135965625.0 0.361328125 1.8057861328125
3167187500.0 1.49658203125 1.16192626953125
3198409375.0 1.81268310546875 -0.0750732421875
3229631250.0 1.3463134765625 -1.078369140625
3260853125.0 0.48834228515625 -1.66595458984375
3292075000.0 -0.65399169921875 -1.69537353515625
3323296875.0 -1.61669921875 -0.8780517578125
3354518750.0 -1.72662353515625 0.3277587890625
3385740625.0 -1.15374755859375 1.22991943359375
3416962500.0 -0.2318115234375 1.67718505859375
3448184375.0 0.858642578125 1.51873779296875
3479406250.0 1.6318359375 0.6434326171875
3510628125.0 1.64117431640625 -0.4945068359375
3541850000.0 0.99853515625 -1.35235595703125
3573071875.0 -0.007568359375 -1.67913818359375
3604293750.0 -1.025390625 -1.3350830078125
3635515625.0 -1.624755859375 -0.43768310546875
3666737500.0 -1.55877685546875 0.643798828125
3697959375.0 -0.82427978515625 1.47265625
3729181250.0 0.267578125 1.6275634765625
3760403125.0 1.1495361328125 1.0960693359375
3791625000.0 1.5494384765625 0.2176513671875
3822846875.0 1.39898681640625 -0.7593994140625
3854068750.0 0.619384765625 -1.47802734375
3885290625.0 -0.41925048828125 -1.47784423828125
3916512500.0 -1.138671875 -0.909423828125
3947734375.0 -1.4443359375 -0.12042236328125
3978956250.0 -1.29486083984375 0.7772216796875
4010178125.0 -0.5302734375 1.45159912109375
4041400000.0 0.47161865234375 1.41253662109375
4072621875.0 1.1497802734375 0.846435546875
4103843750.0 1.4423828125 0.06365966796875
4135065625.0 1.2652587890625 -0.8438720703125
4166287500.0 0.457763671875 -1.49267578125
4197509375.0 -0.55596923828125 -1.41278076171875
4228731250.0 -1.2445068359375 -0.8021240234375
4259953125.0 -1.50677490234375 0.07080078125
4291175000.0 -1.18646240234375 1.00811767578125
4322396875.0 -0.28985595703125 1.52264404296875
4353618750.0 0.67132568359375 1.3477783203125
4384840625.0 1.3194580078125 0.6962890625
4416062500.0 1.498046875 -0.2261962890625
4447284375.0 1.0537109375 -1.1024169921875
4478506250.0 0.173095703125 -1.49163818359375
4509728125.0 -0.73065185546875 -1.30535888671875
4540950000.0 -1.39141845703125 -0.634765625
4572171875.0 -1.51934814453125 0.3583984375
4603393750.0 -0.97149658203125 1.2099609375
4634615625.0 -0.06158447265625 1.53424072265625
4665837500.0 0.8681640625 1.3026123046875
4697059375.0 1.53924560546875 0.5147705078125
4728281250.0 1.5264892578125 -0.58099365234375
4759503125.0 0.82257080078125 -1.3642578125
4790725000.0 -0.14471435546875 -1.5703125
4821946875.0 -1.0811767578125 -1.19256591796875
4853168750.0 -1.61175537109375 -0.25042724609375
4884390625.0 -1.37567138671875 0.7894287109375
4915612500.0 -0.6129150390625 1.40948486328125
4946834375.0 0.32879638671875 1.50714111328125
4978056250.0 1.20257568359375 1.01544189453125
5009278125.0 1.55889892578125 0.03997802734375
5040500000.0 1.2275390625 -0.87408447265625
5071721875.0 0.50115966796875 -1.4124755859375
5102943750.0 -0.44403076171875 -1.49420166015625
5134165625.0 -1.333251953125 -0.905029296875
5165387500.0 -1.56463623046875 0.14495849609375
5196609375.0 -1.1348876953125 1.0076904296875
5227831250.0 -0.35821533203125 1.5032958984375
5259053125.0 0.685546875 1.48980712890625
5290275000.0 1.51898193359375 0.66241455078125
5321496875.0 1.48974609375 -0.4293212890625
5352718750.0 0.919921875 -1.15142822265625
5383940625.0 0.0972900390625 -1.4976806640625
5415162500.0 -0.898681640625 -1.28216552734375
5446384375.0 -1.4815673828125 -0.37030029296875
5477606250.0 -1.297607421875 0.565185546875
5508828125.0 -0.73052978515625 1.14910888671875
5540050000.0 0.05322265625 1.39678955078125
5571271875.0 0.93585205078125 1.1070556640625
5602493750.0 1.40533447265625 0.26019287109375
5633715625.0 1.2305908203125 -0.61126708984375
5664937500.0 0.64764404296875 -1.19921875
5696159375.0 -0.19622802734375 -1.38201904296875
5727381250.0 -1.019775390625 -0.97784423828125
5758603125.0 -1.38983154296875 -0.1451416015625
5789825000.0 -1.19293212890625 0.71630859375
5821046875.0 -0.50653076171875 1.30462646484375
5852268750.0 0.410888671875 1.31146240234375
5883490625.0 1.06982421875 0.77130126953125
5914712500.0 1.30047607421875 0.0201416015625
5945934375.0 1.0950927734375 -0.7740478515625
5977156250.0 0.36175537109375 -1.309814453125
6008378125.0 -0.509033203125 -1.181396484375
6039600000.0 -1.02020263671875 -0.6490478515625
6070821875.0 -1.221923828125 -0.00537109375
6102043750.0 -1.08209228515625 0.76104736328125
6133265625.0 -0.3414306640625 1.34295654296875
6164487500.0 0.56243896484375 1.1859130859375
6195709375.0 1.06854248046875 0.62957763671875
6226931250.0 1.2781982421875 -0.0421142578125
6258153125.0 1.10357666015625 -0.869140625
6289375000.0 0.2557373046875 -1.44451904296875
6320596875.0 -0.68731689453125 -1.20489501953125
6351818750.0 -1.19830322265625 -0.57208251953125
6383040625.0 -1.35357666015625 0.2064208984375
6414262500.0 -0.999267578125 1.05474853515625
6445484375.0 -0.07916259765625 1.45416259765625
6476706250.0 0.7935791015625 1.14630126953125
6507928125.0 1.28826904296875 0.47064208984375
6539150000.0 1.34625244140625 -0.3856201171875
6570371875.0 0.840576171875 -1.14300537109375
6601593750.0 -0.0169677734375 -1.40313720703125
6632815625.0 -0.8377685546875 -1.1351318359375
6664037500.0 -1.39862060546875 -0.42010498046875
6695259375.0 -1.3717041015625 0.563232421875
6726481250.0 -0.709716796875 1.24981689453125
6757703125.0 0.1297607421875 1.40496826171875
6788925000.0 0.9541015625 1.1295166015625
6820146875.0 1.55743408203125 0.2884521484375
6851368750.0 1.32513427734375 -0.8173828125
6882590625.0 0.5062255859375 -1.3369140625
6913812500.0 -0.291015625 -1.3546142578125
6945034375.0 -1.06695556640625 -1.02093505859375
6976256250.0 -1.59075927734375 -0.0938720703125
7007478125.0 -1.2352294921875 0.93133544921875
7038700000.0 -0.4024658203125 1.34027099609375
7069921875.0 0.359130859375 1.321533203125
7101143750.0 1.117919921875 0.9678955078125
7132365625.0 1.59674072265625 0.0155029296875
7163587500.0 1.156982421875 -1.02032470703125
7194809375.0 0.30224609375 -1.3955078125
7226031250.0 -0.51165771484375 -1.324462890625
7257253125.0 -1.26708984375 -0.82330322265625
7288475000.0 -1.55657958984375 0.198486328125
7319696875.0 -1.02935791015625 1.108154296875
7350918750.0 -0.1646728515625 1.4425048828125
7382140625.0 0.7130126953125 1.275146484375
7413362500.0 1.376953125 0.57611083984375
7444584375.0 1.40936279296875 -0.404541015625
7475806250.0 0.858642578125 -1.13922119140625
7507028125.0 0.00592041015625 -1.4268798828125
7538250000.0 -0.88555908203125 -1.12335205078125
7569471875.0 -1.33416748046875 -0.31085205078125
7600693750.0 -1.20013427734375 0.49542236328125
7631915625.0 -0.71826171875 1.08416748046875
7663137500.0 0.07965087890625 1.35595703125
7694359375.0 0.9376220703125 0.97906494140625
7725581250.0 1.24407958984375 0.17950439453125
7756803125.0 1.08087158203125 -0.49786376953125
7788025000.0 0.67041015625 -1.03875732421875
7819246875.0 -0.1197509765625 -1.345458984375
7850468750.0 -0.98974609375 -0.915771484375
7881690625.0 -1.2293701171875 -0.10675048828125
7912912500.0 -1.0535888671875 0.5526123046875
7944134375.0 -0.60577392578125 1.11273193359375
7975356250.0 0.27117919921875 1.33489990234375
8006578125.0 1.04547119140625 0.77825927734375
8037800000.0 1.19207763671875 0.01654052734375
8069021875.0 1.00677490234375 -0.61846923828125
8100243750.0 0.499267578125 -1.15997314453125
8131465625.0 -0.3851318359375 -1.2525634765625
8162687500.0 -1.02972412109375 -0.68585205078125
8193909375.0 -1.17950439453125 0.00848388671875
8225131250.0 -1.0164794921875 0.67669677734375
8256353125.0 -0.42156982421875 1.24591064453125
8287575000.0 0.50079345703125 1.22467041015625
8318796875.0 1.0797119140625 0.63568115234375
8350018750.0 1.24310302734375 -0.0748291015625
8381240625.0 1.0308837890625 -0.83746337890625
8412462500.0 0.254638671875 -1.3720703125
8443684375.0 -0.66845703125 -1.1690673828125
8474906250.0 -1.173095703125 -0.53192138671875
8506128125.0 -1.2972412109375 0.23663330078125
8537350000.0 -0.923583984375 1.04351806640625
8568571875.0 -0.01629638671875 1.39300537109375
8599793750.0 0.8011474609375 1.052978515625
8631015625.0 1.2391357421875 0.3990478515625
8662237500.0 1.2845458984375 -0.42877197265625
8693459375.0 0.73583984375 -1.175537109375
8724681250.0 -0.1617431640625 -1.3306884765625
8755903125.0 -0.879638671875 -0.95654296875
8787125000.0 -1.300537109375 -0.2835693359375
8818346875.0 -1.249267578125 0.61248779296875
8849568750.0 -0.5567626953125 1.25830078125
8880790625.0 0.29608154296875 1.28277587890625
8912012500.0 0.978851318359375 0.89141845703125
8943234375.0 1.39581298828125 0.13079833984375
8974456250.0 1.1658935546875 -0.8370361328125
9005678125.0 0.34930419921875 -1.3114013671875
9036900000.0 -0.44525146484375 -1.224365234375
9068121875.0 -1.09942626953125 -0.78570556640625
9099343750.0 -1.440185546875 0.09747314453125
9130565625.0 -0.97869873046875 1.0106201171875
9161787500.0 -0.1558837890625 1.27960205078125
9193009375.0 0.5552978515625 1.133544921875
9224231250.0 1.177001953125 0.6549072265625
9255453125.0 1.39776611328125 -0.29541015625
9286675000.0 0.80694580078125 -1.08245849609375
9317896875.0 0.02886962890625 -1.2457275390625
9349118750.0 -0.653564453125 -1.069580078125
9380340625.0 -1.2564697265625 -0.5098876953125
9411562500.0 -1.312255859375 0.47784423828125
9442784375.0 -0.6474609375 1.1142578125
9474006250.0 0.08856201171875 1.2095947265625
9505228125.0 0.7625732421875 0.979522705078125
9536450000.0 1.27166748046875 0.314453125
9567671875.0 1.14398193359375 -0.577880859375
9598893750.0 0.52978515625 -1.06646728515625
9630115625.0 -0.1436767578125 -1.15753173828125
9661337500.0 -0.818084716796875 -0.90203857421875
9692559375.0 -1.23846435546875 -0.1903076171875
9723781250.0 -1.043212890625 0.60247802734375
9755003125.0 -0.4857177734375 1.0504150390625
9786225000.0 0.19580078125 1.15814208984375
9817446875.0 0.893341064453125 0.82733154296875
9848668750.0 1.19622802734375 0.08050537109375
9879890625.0 0.96771240234375 -0.61553955078125
9911112500.0 0.452392578125 -1.04998779296875
9942334375.0 -0.26531982421875 -1.15850830078125
9973556250.0 -0.942474365234375 -0.738433837890625
10004778125.0 -1.1435546875 -0.0201416015625
10036000000.0 -0.943206787109375 0.614288330078125
10067221875.0 -0.442626953125 1.09466552734375
10098443750.0 0.36956787109375 1.18170166015625
10129665625.0 0.999176025390625 0.6444091796875
10160887500.0 1.11920166015625 -0.05157470703125
10192109375.0 0.91729736328125 -0.66253662109375
10223331250.0 0.361083984375 -1.1524658203125
10254553125.0 -0.48468017578125 -1.11309814453125
10285775000.0 -0.984954833984375 -0.535247802734375
10316996875.0 -1.06549072265625 0.07550048828125
10348218750.0 -0.899810791015625 0.669464111328125
10379440625.0 -0.32257080078125 1.17535400390625
10410662500.0 0.5262451171875 1.085205078125
10441884375.0 0.9910888671875 0.521453857421875
10473106250.0 1.10833740234375 -0.0833740234375
10504328125.0 0.949371337890625 -0.754302978515625
10535550000.0 0.23956298828125 -1.29376220703125
10566771875.0 -0.6561279296875 -1.07708740234375
10597993750.0 -1.0789794921875 -0.45941162109375
10629215625.0 -1.173583984375 0.203369140625
10660437500.0 -0.887420654296875 0.949859619140625
10691659375.0 -0.01068115234375 1.3345947265625
10722881250.0 0.784515380859375 0.952117919921875
10754103125.0 1.11773681640625 0.32598876953125
10785325000.0 1.13897705078125 -0.36761474609375
10816546875.0 0.70037841796875 -1.04815673828125
10847768750.0 -0.14495849609375 -1.2286376953125
10878990625.0 -0.80242919921875 -0.844268798828125
10910212500.0 -1.12261962890625 -0.24517822265625
10941434375.0 -1.09649658203125 0.4749755859375
10972656250.0 -0.56842041015625 1.084228515625
11003878125.0 0.2174072265625 1.17388916015625
11035100000.0 0.847198486328125 0.821533203125
11066321875.0 1.219970703125 0.17486572265625
11097543750.0 1.097412109375 -0.67437744140625
11128765625.0 0.38641357421875 -1.19757080078125
11159987500.0 -0.3956298828125 -1.138916015625
11191209375.0 -1.00091552734375 -0.7022705078125
11222431250.0 -1.2718505859375 0.09320068359375
11253653125.0 -0.859039306640625 0.892730712890625
11284875000.0 -0.11529541015625 1.1251220703125
11316096875.0 0.510345458984375 0.955108642578125
11347318750.0 1.00042724609375 0.50244140625
11378540625.0 1.11578369140625 -0.2679443359375
11409762500.0 0.635528564453125 -0.857147216796875
11440984375.0 0.03668212890625 -0.976654052734375
11472206250.0 -0.479888916015625 -0.849151611328125
11503428125.0 -0.951812744140625 -0.456756591796875
11534650000.0 -1.06768798828125 0.28680419921875
11565871875.0 -0.6033935546875 0.85247802734375
11597093750.0 -0.020172119140625 0.990631103515625
11628315625.0 0.542633056640625 0.874542236328125
11659537500.0 1.0584716796875 0.39276123046875
11690759375.0 1.0638427734375 -0.4327392578125
11721981250.0 0.517578125 -0.9398193359375
11753203125.0 -0.1044921875 -1.03424072265625
11784425000.0 -0.72314453125 -0.808349609375
11815646875.0 -1.10015869140625 -0.15191650390625
11846868750.0 -0.891510009765625 0.5499267578125
11878090625.0 -0.3916015625 0.907440185546875
11909312500.0 0.18701171875 0.98345947265625
11940534375.0 0.779754638671875 0.695098876953125
11971756250.0 1.0245361328125 0.04022216796875
12002978125.0 0.806640625 -0.536468505859375
12034200000.0 0.38275146484375 -0.887237548828125
12065421875.0 -0.21405029296875 -1.00872802734375
12096643750.0 -0.846527099609375 -0.6651611328125
12127865625.0 -1.0323486328125 0.01556396484375
12159087500.0 -0.8154296875 0.574737548828125
12190309375.0 -0.378143310546875 0.972412109375
12221531250.0 0.338134765625 1.08758544921875
12252753125.0 0.97723388671875 0.58184814453125
12283975000.0 1.053955078125 -0.12744140625
12315196875.0 0.800079345703125 -0.6754150390625
12346418750.0 0.2828369140625 -1.08984375
12377640625.0 -0.53826904296875 -1.060791015625
12408862500.0 -1.03326416015625 -0.42034912109375
12440084375.0 -1.00701904296875 0.222900390625
12471306250.0 -0.741119384765625 0.736175537109375
12502528125.0 -0.17938232421875 1.11865234375
12533750000.0 0.61688232421875 0.992034912109375
12564971875.0 1.041015625 0.36517333984375
12596193750.0 1.02911376953125 -0.263916015625
12627415625.0 0.748504638671875 -0.827178955078125
12658637500.0 0.080322265625 -1.20758056640625
12689859375.0 -0.73443603515625 -0.96649169921875
12721081250.0 -1.1151123046875 -0.30718994140625
12752303125.0 -1.097412109375 0.38134765625
12783525000.0 -0.686767578125 1.0291748046875
12814746875.0 0.16326904296875 1.250244140625
12845968750.0 0.8614501953125 0.810638427734375
12877190625.0 1.116455078125 0.1722412109375
12908412500.0 1.05364990234375 -0.49853515625
12939634375.0 0.5435791015625 -1.11468505859375
12970856250.0 -0.31915283203125 -1.17401123046875
13002078125.0 -0.8936767578125 -0.693145751953125
13033300000.0 -1.10552978515625 -0.08734130859375
13064521875.0 -1.008544921875 0.59228515625
13095743750.0 -0.4210205078125 1.1531982421875
13126965625.0 0.40789794921875 1.1199951171875
13158187500.0 0.946990966796875 0.6324462890625
13189409375.0 1.1463623046875 -0.01983642578125
13220631250.0 0.9366455078125 -0.747100830078125
13251853125.0 0.23681640625 -1.16961669921875
13283075000.0 -0.50537109375 -1.0194091796875
13314296875.0 -0.988128662109375 -0.528656005859375
13345518750.0 -1.1353759765625 0.17724609375
