!Created with skrf (http://scikit-rf.org).
# Hz S RI R 50.0 
!freq ReS11 ImS11
45000000.0 -0.0772552490234375 -0.09677505493164062
76221875.0 -0.197418212890625 -0.04764556884765625
107443750.0 -0.2562408447265625 0.120513916015625
138665625.0 -0.1485748291015625 0.329986572265625
169887500.0 0.1240234375 0.4189910888671875
201109375.0 0.423431396484375 0.282318115234375
232331250.0 0.58135986328125 -0.057525634765625
263553125.0 0.4917449951171875 -0.4552154541015625
294775000.0 0.098663330078125 -0.73663330078125
325996875.0 -0.417877197265625 -0.684295654296875
357218750.0 -0.81121826171875 -0.298492431640625
388440625.0 -0.8905029296875 0.302642822265625
419662500.0 -0.51983642578125 0.87103271484375
450884375.0 0.1739501953125 1.0338134765625
482106250.0 0.8021240234375 0.71624755859375
513328125.0 1.1246337890625 0.08758544921875
544550000.0 1.0079345703125 -0.68304443359375
575771875.0 0.337646484375 -1.2430419921875
606993750.0 -0.55572509765625 -1.18212890625
638215625.0 -1.1705322265625 -0.593017578125
669437500.0 -1.34521484375 0.234130859375
700659375.0 -0.97503662109375 1.100341796875
731881250.0 -0.0045166015625 1.5487060546875
763103125.0 1.00897216796875 1.16131591796875
794325000.0 1.47503662109375 0.28363037109375
825546875.0 1.37310791015625 -0.653564453125
856768750.0 0.79779052734375 -1.40838623046875
887990625.0 -0.2947998046875 -1.65667724609375
919212500.0 -1.29510498046875 -1.08428955078125
950434375.0 -1.65789794921875 -0.05853271484375
981656250.0 -1.3896484375 0.95147705078125
1012878125.0 -0.53173828125 1.6815185546875
1044100000.0 0.70184326171875 1.67083740234375
1075321875.0 1.58416748046875 0.8160400390625
1106543750.0 1.713623046875 -0.31500244140625
1137765625.0 1.19207763671875 -1.29119873046875
1168987500.0 0.13873291015625 -1.80645751953125
1200209375.0 -1.06732177734375 -1.49139404296875
1231431250.0 -1.73699951171875 -0.45550537109375
1262653125.0 -1.60162353515625 0.6888427734375
1293875000.0 -0.85552978515625 1.49920654296875
1325096875.0 0.229248046875 1.71514892578125
1356318750.0 1.24029541015625 1.2232666015625
1387540625.0 1.748291015625 0.1898193359375
1418762500.0 1.4766845703125 -0.95562744140625
1449984375.0 0.53179931640625 -1.634033203125
1481206250.0 -0.55267333984375 -1.56353759765625
1512428125.0 -1.3480224609375 -0.9241943359375
1543650000.0 -1.6632080078125 0.06658935546875
1574871875.0 -1.27862548828125 1.11407470703125
1606093750.0 -0.273681640625 1.63861083984375
1637315625.0 0.7457275390625 1.4066162109375
1668537500.0 1.40216064453125 0.698486328125
1699759375.0 1.57958984375 -0.27874755859375
1730981250.0 1.0684814453125 -1.23455810546875
1762203125.0 0.0423583984375 -1.57696533203125
1793425000.0 -0.85931396484375 -1.2315673828125
1824646875.0 -1.39886474609375 -0.51763916015625
1855868750.0 -1.48040771484375 0.4334716796875
1887090625.0 -0.879150390625 1.29046630859375
1918312500.0 0.1175537109375 1.49383544921875
1949534375.0 0.92572021484375 1.09393310546875
1980756250.0 1.38128662109375 0.37158203125
2011978125.0 1.36529541015625 -0.53411865234375
2043200000.0 0.75299072265625 -1.26678466796875
2074421875.0 -0.15802001953125 -1.43902587890625
2105643750.0 -0.96405029296875 -1.07647705078125
2136865625.0 -1.45355224609375 -0.30596923828125
2168087500.0 -1.3624267578125 0.6734619140625
2199309375.0 -0.64154052734375 1.35675048828125
2230531250.0 0.283447265625 1.44189453125
2261753125.0 1.07708740234375 1.01776123046875
2292975000.0 1.52008056640625 0.1707763671875
2324196875.0 1.31060791015625 -0.82208251953125
2355418750.0 0.527099609375 -1.4249267578125
2386640625.0 -0.40582275390625 -1.4544677734375
2417862500.0 -1.18719482421875 -1.02899169921875
2449084375.0 -1.61279296875 -0.0833740234375
2480306250.0 -1.316650390625 0.93060302734375
2511528125.0 -0.49530029296875 1.51507568359375
2542750000.0 0.49151611328125 1.54266357421875
2573971875.0 1.377197265625 0.9722900390625
2605193750.0 1.72662353515625 -0.114501953125
2636415625.0 1.2669677734375 -1.15960693359375
2667637500.0 0.30621337890625 -1.67657470703125
2698859375.0 -0.77447509765625 -1.54150390625
2730081250.0 -1.5828857421875 -0.7427978515625
2761303125.0 -1.689453125 0.39093017578125
2792525000.0 -1.10369873046875 1.3157958984375
2823746875.0 -0.10113525390625 1.73907470703125
2854968750.0 1.01776123046875 1.46221923828125
2886190625.0 1.70111083984375 0.49267578125
2917412500.0 1.607666015625 -0.621337890625
2948634375.0 0.9434814453125 -1.4422607421875
2979856250.0 -0.1104736328125 -1.78607177734375
3011078125.0 -1.25531005859375 -1.34808349609375
3042300000.0 -1.78375244140625 -0.23431396484375
3073521875.0 -1.51605224609375 0.84405517578125
3104743750.0 -0.76641845703125 1.576416015625
3135965625.0 0.364013671875 1.81781005859375
3167187500.0 1.5068359375 1.1688232421875
3198409375.0 1.82421875 -0.0760498046875
3229631250.0 1.35504150390625 -1.08709716796875
3260853125.0 0.490478515625 -1.67645263671875
3292075000.0 -0.66021728515625 -1.7066650390625
3323296875.0 -1.62872314453125 -0.88250732421875
3354518750.0 -1.73876953125 0.33148193359375
3385740625.0 -1.1602783203125 1.23773193359375
3416962500.0 -0.2320556640625 1.68939208984375
3448184375.0 0.8663330078125 1.52935791015625
3479406250.0 1.64581298828125 0.64630126953125
3510628125.0 1.651123046875 -0.49822998046875
3541850000.0 1.0037841796875 -1.36199951171875
3573071875.0 -0.00958251953125 -1.69097900390625
3604293750.0 -1.03424072265625 -1.34320068359375
3635515625.0 -1.63519287109375 -0.43975830078125
3666737500.0 -1.568359375 0.65057373046875
3697959375.0 -0.8277587890625 1.48443603515625
3729181250.0 0.27081298828125 1.6376953125
3760403125.0 1.15863037109375 1.10223388671875
3791625000.0 1.56024169921875 0.2177734375
3822846875.0 1.40771484375 -0.764892578125
3854068750.0 0.62261962890625 -1.48785400390625
3885290625.0 -0.42462158203125 -1.48748779296875
3916512500.0 -1.14813232421875 -0.91400146484375
3947734375.0 -1.453857421875 -0.11968994140625
3978956250.0 -1.302734375 0.78302001953125
4010178125.0 -0.53240966796875 1.46124267578125
4041400000.0 0.47674560546875 1.42108154296875
4072621875.0 1.15692138671875 0.85015869140625
4103843750.0 1.4503173828125 0.06268310546875
4135065625.0 1.27288818359375 -0.85125732421875
4166287500.0 0.458740234375 -1.5029296875
4197509375.0 -0.56011962890625 -1.419677734375
4228731250.0 -1.253173828125 -0.8046875
4259953125.0 -1.515869140625 0.0732421875
4291175000.0 -1.192138671875 1.0155029296875
4322396875.0 -0.28948974609375 1.53289794921875
4353618750.0 0.67791748046875 1.35546875
4384840625.0 1.32806396484375 0.6990966796875
4416062500.0 1.50689697265625 -0.2303466796875
4447284375.0 1.05853271484375 -1.10870361328125
4478506250.0 0.17138671875 -1.5023193359375
4509728125.0 -0.737060546875 -1.31219482421875
4540950000.0 -1.39935302734375 -0.637939453125
4572171875.0 -1.52960205078125 0.36444091796875
4603393750.0 -0.97491455078125 1.2186279296875
4634615625.0 -0.06060791015625 1.543212890625
4665837500.0 0.8753662109375 1.3095703125
4697059375.0 1.54815673828125 0.51654052734375
4728281250.0 1.53485107421875 -0.586669921875
4759503125.0 0.82513427734375 -1.37335205078125
4790725000.0 -0.14776611328125 -1.578857421875
4821946875.0 -1.08807373046875 -1.19830322265625
4853168750.0 -1.6204833984375 -0.25115966796875
4884390625.0 -1.38299560546875 0.798828125
4915612500.0 -0.6141357421875 1.419189453125
4946834375.0 0.3309326171875 1.515380859375
4978056250.0 1.21063232421875 1.020751953125
5009278125.0 1.5689697265625 0.03753662109375
5040500000.0 1.23309326171875 -0.88104248046875
5071721875.0 0.50225830078125 -1.42108154296875
5102943750.0 -0.45013427734375 -1.50250244140625
5134165625.0 -1.34185791015625 -0.9088134765625
5165387500.0 -1.5740966796875 0.147705078125
5196609375.0 -1.14031982421875 1.01513671875
5227831250.0 -0.35723876953125 1.51214599609375
5259053125.0 0.691650390625 1.4979248046875
5290275000.0 1.5283203125 0.664306640625
5321496875.0 1.49835205078125 -0.43328857421875
5352718750.0 0.92376708984375 -1.1583251953125
5383940625.0 0.09539794921875 -1.5069580078125
5415162500.0 -0.9053955078125 -1.28851318359375
5446384375.0 -1.49041748046875 -0.3702392578125
5477606250.0 -1.303955078125 0.56988525390625
5508828125.0 -0.73358154296875 1.1568603515625
5540050000.0 0.05499267578125 1.404296875
5571271875.0 0.94403076171875 1.11309814453125
5602493750.0 1.41510009765625 0.2591552734375
5633715625.0 1.236328125 -0.61627197265625
5664937500.0 0.6500244140625 -1.206787109375
5696159375.0 -0.19921875 -1.3896484375
5727381250.0 -1.02630615234375 -0.98187255859375
5758603125.0 -1.39764404296875 -0.14410400390625
5789825000.0 -1.19873046875 0.7220458984375
5821046875.0 -0.5069580078125 1.3135986328125
5852268750.0 0.4144287109375 1.31805419921875
5883490625.0 1.076416015625 0.77423095703125
5914712500.0 1.30810546875 0.01824951171875
5945934375.0 1.10028076171875 -0.78106689453125
5977156250.0 0.36102294921875 -1.318603515625
6008378125.0 -0.51287841796875 -1.1865234375
6039600000.0 -1.02685546875 -0.6505126953125
6070821875.0 -1.2288818359375 -0.00341796875
6102043750.0 -1.086669921875 0.76641845703125
6133265625.0 -0.3419189453125 1.35009765625
6164487500.0 0.5667724609375 1.19171142578125
6195709375.0 1.07537841796875 0.63104248046875
6226931250.0 1.28466796875 -0.0438232421875
6258153125.0 1.10821533203125 -0.87628173828125
6289375000.0 0.25567626953125 -1.45257568359375
6320596875.0 -0.69378662109375 -1.20965576171875
6351818750.0 -1.20556640625 -0.57281494140625
6383040625.0 -1.35992431640625 0.20904541015625
6414262500.0 -1.00250244140625 1.06304931640625
6445484375.0 -0.07623291015625 1.46337890625
6476706250.0 0.8004150390625 1.1514892578125
6507928125.0 1.29595947265625 0.47052001953125
6539150000.0 1.35198974609375 -0.3885498046875
6570371875.0 0.8436279296875 -1.14910888671875
6601593750.0 -0.01824951171875 -1.4093017578125
6632815625.0 -0.84442138671875 -1.14007568359375
6664037500.0 -1.4072265625 -0.419677734375
6695259375.0 -1.3792724609375 0.57147216796875
6726481250.0 -0.711669921875 1.2569580078125
6757703125.0 0.13262939453125 1.4127197265625
6788925000.0 0.96044921875 1.13446044921875
6820146875.0 1.568115234375 0.2867431640625
6851368750.0 1.33013916015625 -0.82452392578125
6882590625.0 0.50677490234375 -1.34515380859375
6913812500.0 -0.294677734375 -1.3621826171875
6945034375.0 -1.07568359375 -1.025146484375
6976256250.0 -1.60009765625 -0.090576171875
7007478125.0 -1.24041748046875 0.94073486328125
7038700000.0 -0.40185546875 1.351806640625
7069921875.0 0.36236572265625 1.32940673828125
7101143750.0 1.12542724609375 0.97210693359375
7132365625.0 1.60986328125 0.01104736328125
7163587500.0 1.16131591796875 -1.02764892578125
7194809375.0 0.30084228515625 -1.4053955078125
7226031250.0 -0.516357421875 -1.33160400390625
7257253125.0 -1.2740478515625 -0.82696533203125
7288475000.0 -1.5645751953125 0.2008056640625
7319696875.0 -1.0330810546875 1.11407470703125
7350918750.0 -0.163330078125 1.4525146484375
7382140625.0 0.7197265625 1.2813720703125
7413362500.0 1.3841552734375 0.5770263671875
7444584375.0 1.41827392578125 -0.411376953125
7475806250.0 0.86041259765625 -1.15240478515625
7507028125.0 0.0028076171875 -1.43780517578125
7538250000.0 -0.893310546875 -1.12841796875
7569471875.0 -1.34295654296875 -0.30987548828125
7600693750.0 -1.20806884765625 0.50274658203125
7631915625.0 -0.719970703125 1.09197998046875
7663137500.0 0.082763671875 1.364990234375
7694359375.0 0.94744873046875 0.98443603515625
7725581250.0 1.24993896484375 0.179443359375
7756803125.0 1.08740234375 -0.5030517578125
7788025000.0 0.67254638671875 -1.04913330078125
7819246875.0 -0.1236572265625 -1.3538818359375
7850468750.0 -0.998382568359375 -0.91900634765625
7881690625.0 -1.23760986328125 -0.10382080078125
7912912500.0 -1.05963134765625 0.55926513671875
7944134375.0 -0.60675048828125 1.1204833984375
7975356250.0 0.277099609375 1.34161376953125
8006578125.0 1.05413818359375 0.78082275390625
8037800000.0 1.2000732421875 0.01416015625
8069021875.0 1.01025390625 -0.62237548828125
8100243750.0 0.4996337890625 -1.169189453125
8131465625.0 -0.3909912109375 -1.25927734375
8162687500.0 -1.03851318359375 -0.68603515625
8193909375.0 -1.18621826171875 0.0115966796875
8225131250.0 -1.02178955078125 0.68414306640625
8256353125.0 -0.42034912109375 1.25616455078125
8287575000.0 0.50506591796875 1.230712890625
8318796875.0 1.08770751953125 0.63616943359375
8350018750.0 1.251708984375 -0.0787353515625
8381240625.0 1.03515625 -0.84613037109375
8412462500.0 0.25250244140625 -1.3812255859375
8443684375.0 -0.6746826171875 -1.17364501953125
8474906250.0 -1.1807861328125 -0.53271484375
8506128125.0 -1.3023681640625 0.24005126953125
8537350000.0 -0.9268798828125 1.05487060546875
8568571875.0 -0.0125732421875 1.4010009765625
8599793750.0 0.808349609375 1.0579833984375
8631015625.0 1.24945068359375 0.3973388671875
8662237500.0 1.291259765625 -0.43389892578125
8693459375.0 0.73809814453125 -1.1861572265625
8724681250.0 -0.1650390625 -1.33685302734375
8755903125.0 -0.884918212890625 -0.960418701171875
8787125000.0 -1.31201171875 -0.28131103515625
8818346875.0 -1.25665283203125 0.62152099609375
8849568750.0 -0.5565185546875 1.26947021484375
8880790625.0 0.3031005859375 1.291748046875
8912012500.0 0.98785400390625 0.89508056640625
8943234375.0 1.407958984375 0.1258544921875
8974456250.0 1.170654296875 -0.84906005859375
9005678125.0 0.34637451171875 -1.32147216796875
9036900000.0 -0.44903564453125 -1.22906494140625
9068121875.0 -1.10858154296875 -0.7869873046875
9099343750.0 -1.44586181640625 0.0992431640625
9130565625.0 -0.98382568359375 1.01806640625
9161787500.0 -0.1531982421875 1.28875732421875
9193009375.0 0.559326171875 1.138427734375
9224231250.0 1.18621826171875 0.65478515625
9255453125.0 1.4052734375 -0.30035400390625
9286675000.0 0.8087158203125 -1.092529296875
9317896875.0 0.025146484375 -1.25250244140625
9349118750.0 -0.65814208984375 -1.07427978515625
9380340625.0 -1.26470947265625 -0.5106201171875
9411562500.0 -1.31695556640625 0.482177734375
9442784375.0 -0.648193359375 1.125244140625
9474006250.0 0.091064453125 1.21685791015625
9505228125.0 0.77001953125 0.983154296875
9536450000.0 1.28143310546875 0.312255859375
9567671875.0 1.14874267578125 -0.5858154296875
9598893750.0 0.52947998046875 -1.0753173828125
9630115625.0 -0.147705078125 -1.163818359375
9661337500.0 -0.8243408203125 -0.905609130859375
9692559375.0 -1.24615478515625 -0.18743896484375
9723781250.0 -1.046875 0.6087646484375
9755003125.0 -0.486328125 1.0574951171875
9786225000.0 0.20196533203125 1.1651611328125
9817446875.0 0.901336669921875 0.829864501953125
9848668750.0 1.20428466796875 0.07501220703125
9879890625.0 0.9718017578125 -0.622711181640625
9911112500.0 0.4521484375 -1.057373046875
9942334375.0 -0.271728515625 -1.16485595703125
9973556250.0 -0.94970703125 -0.738861083984375
10004778125.0 -1.15203857421875 -0.01519775390625
10036000000.0 -0.947357177734375 0.62017822265625
10067221875.0 -0.44140625 1.1041259765625
10098443750.0 0.37542724609375 1.18719482421875
10129665625.0 1.009765625 0.64312744140625
10160887500.0 1.12506103515625 -0.05499267578125
10192109375.0 0.92022705078125 -0.669158935546875
10223331250.0 0.3602294921875 -1.158935546875
10254553125.0 -0.49151611328125 -1.11700439453125
10285775000.0 -0.99102783203125 -0.534423828125
10316996875.0 -1.070556640625 0.07879638671875
10348218750.0 -0.9024658203125 0.67498779296875
10379440625.0 -0.32086181640625 1.18212890625
10410662500.0 0.53326416015625 1.08935546875
10441884375.0 0.998626708984375 0.52099609375
10473106250.0 1.11407470703125 -0.0870361328125
10504328125.0 0.95294189453125 -0.762664794921875
10535550000.0 0.2373046875 -1.3021240234375
10566771875.0 -0.66339111328125 -1.08050537109375
10597993750.0 -1.0872802734375 -0.45849609375
10629215625.0 -1.17987060546875 0.20867919921875
10660437500.0 -0.889923095703125 0.957305908203125
10691659375.0 -0.00592041015625 1.342041015625
10722881250.0 0.78863525390625 0.954315185546875
10754103125.0 1.12481689453125 0.32403564453125
10785325000.0 1.1441650390625 -0.37237548828125
10816546875.0 0.70172119140625 -1.05670166015625
10847768750.0 -0.1500244140625 -1.234619140625
10878990625.0 -0.810821533203125 -0.845977783203125
10910212500.0 -1.12872314453125 -0.24334716796875
10941434375.0 -1.101806640625 0.4814453125
10972656250.0 -0.568115234375 1.090087890625
11003878125.0 0.2203369140625 1.17840576171875
11035100000.0 0.85345458984375 0.823974609375
11066321875.0 1.22705078125 0.17315673828125
11097543750.0 1.102294921875 -0.6812744140625
11128765625.0 0.38433837890625 -1.20526123046875
11159987500.0 -0.39996337890625 -1.1435546875
11191209375.0 -1.0067138671875 -0.70367431640625
11222431250.0 -1.279541015625 0.0963134765625
11253653125.0 -0.860992431640625 0.90216064453125
11284875000.0 -0.11260986328125 1.133056640625
11316096875.0 0.515838623046875 0.96014404296875
11347318750.0 1.00885009765625 0.50213623046875
11378540625.0 1.120849609375 -0.2734375
11409762500.0 0.635986328125 -0.865753173828125
11440984375.0 0.03350830078125 -0.983642578125
11472206250.0 -0.48309326171875 -0.852630615234375
11503428125.0 -0.958526611328125 -0.455841064453125
11534650000.0 -1.07281494140625 0.29193115234375
11565871875.0 -0.60308837890625 0.858978271484375
11597093750.0 -0.016876220703125 0.9951171875
11628315625.0 0.5489501953125 0.878662109375
11659537500.0 1.06640625 0.39208984375
11690759375.0 1.06890869140625 -0.43902587890625
11721981250.0 0.516998291015625 -0.948028564453125
11753203125.0 -0.10711669921875 -1.04119873046875
11784425000.0 -0.73089599609375 -0.811279296875
11815646875.0 -1.10699462890625 -0.14898681640625
11846868750.0 -0.894134521484375 0.557220458984375
11878090625.0 -0.390869140625 0.913116455078125
11909312500.0 0.191619873046875 0.989776611328125
11940534375.0 0.787139892578125 0.696014404296875
11971756250.0 1.0301513671875 0.0367431640625
12002978125.0 0.808135986328125 -0.540618896484375
12034200000.0 0.380584716796875 -0.895721435546875
12065421875.0 -0.218994140625 -1.01495361328125
12096643750.0 -0.854583740234375 -0.66546630859375
12127865625.0 -1.03680419921875 0.01861572265625
12159087500.0 -0.81671142578125 0.579559326171875
12190309375.0 -0.377777099609375 0.98089599609375
12221531250.0 0.34442138671875 1.093505859375
12252753125.0 0.987457275390625 0.58123779296875
12283975000.0 1.05889892578125 -0.1314697265625
12315196875.0 0.80316162109375 -0.68304443359375
12346418750.0 0.27996826171875 -1.0975341796875
12377640625.0 -0.543701171875 -1.06414794921875
12408862500.0 -1.03973388671875 -0.41876220703125
12440084375.0 -1.0125732421875 0.2283935546875
12471306250.0 -0.743988037109375 0.741607666015625
12502528125.0 -0.17694091796875 1.1268310546875
12533750000.0 0.627899169921875 0.996673583984375
12564971875.0 1.04779052734375 0.36224365234375
12596193750.0 1.03350830078125 -0.26824951171875
12627415625.0 0.7498779296875 -0.834991455078125
12658637500.0 0.0770263671875 -1.21368408203125
12689859375.0 -0.741973876953125 -0.968353271484375
12721081250.0 -1.12371826171875 -0.304443359375
12752303125.0 -1.102294921875 0.38629150390625
12783525000.0 -0.68817138671875 1.03619384765625
12814746875.0 0.17041015625 1.2579345703125
12845968750.0 0.869873046875 0.813140869140625
12877190625.0 1.1246337890625 0.16839599609375
12908412500.0 1.06097412109375 -0.5079345703125
12939634375.0 0.54229736328125 -1.12396240234375
12970856250.0 -0.32879638671875 -1.18157958984375
13002078125.0 -0.9012451171875 -0.694580078125
13033300000.0 -1.11163330078125 -0.08428955078125
13064521875.0 -1.01385498046875 0.6004638671875
13095743750.0 -0.41912841796875 1.16259765625
13126965625.0 0.41607666015625 1.12481689453125
13158187500.0 0.951904296875 0.632781982421875
13189409375.0 1.1546630859375 -0.02581787109375
13220631250.0 0.9381103515625 -0.753143310546875
13251853125.0 0.2313232421875 -1.1790771484375
13283075000.0 -0.51434326171875 -1.023193359375
13314296875.0 -0.994659423828125 -0.528900146484375
