!Created with skrf (http://scikit-rf.org).
# Hz S RI R 50.0 
!freq ReS11 ImS11
45000000.0 -0.07706451416015625 -0.09691238403320312
76221875.0 -0.1963348388671875 -0.047393798828125
107443750.0 -0.2547454833984375 0.119781494140625
138665625.0 -0.1480712890625 0.328277587890625
169887500.0 0.12353515625 0.4173583984375
201109375.0 0.4216766357421875 0.280426025390625
232331250.0 0.578460693359375 -0.057647705078125
263553125.0 0.48907470703125 -0.4526519775390625
294775000.0 0.098236083984375 -0.732208251953125
325996875.0 -0.415283203125 -0.679840087890625
357218750.0 -0.8057861328125 -0.29638671875
388440625.0 -0.884765625 0.300537109375
419662500.0 -0.516632080078125 0.865753173828125
450884375.0 0.1734619140625 1.027587890625
482106250.0 0.797882080078125 0.71173095703125
513328125.0 1.11846923828125 0.0869140625
544550000.0 1.0029296875 -0.67950439453125
575771875.0 0.33575439453125 -1.23724365234375
606993750.0 -0.55389404296875 -1.1761474609375
638215625.0 -1.16497802734375 -0.58941650390625
669437500.0 -1.33856201171875 0.23394775390625
700659375.0 -0.9696044921875 1.095458984375
731881250.0 -0.003173828125 1.541748046875
763103125.0 1.00506591796875 1.154296875
794325000.0 1.46710205078125 0.281005859375
825546875.0 1.36572265625 -0.65087890625
856768750.0 0.7933349609375 -1.39892578125
887990625.0 -0.292724609375 -1.64605712890625
919212500.0 -1.28704833984375 -1.07696533203125
950434375.0 -1.6466064453125 -0.05841064453125
981656250.0 -1.38018798828125 0.9447021484375
1012878125.0 -0.52862548828125 1.6695556640625
1044100000.0 0.696533203125 1.6593017578125
1075321875.0 1.57232666015625 0.81060791015625
1106543750.0 1.7022705078125 -0.3126220703125
1137765625.0 1.18463134765625 -1.282470703125
1168987500.0 0.13763427734375 -1.7945556640625
1200209375.0 -1.0609130859375 -1.481201171875
1231431250.0 -1.7244873046875 -0.45269775390625
1262653125.0 -1.59161376953125 0.6842041015625
1293875000.0 -0.85040283203125 1.4896240234375
1325096875.0 0.22833251953125 1.70428466796875
1356318750.0 1.23388671875 1.21435546875
1387540625.0 1.73724365234375 0.18853759765625
1418762500.0 1.46697998046875 -0.95062255859375
1449984375.0 0.52801513671875 -1.6240234375
1481206250.0 -0.5496826171875 -1.5538330078125
1512428125.0 -1.34014892578125 -0.91802978515625
1543650000.0 -1.65301513671875 0.06573486328125
1574871875.0 -1.2711181640625 1.10772705078125
1606093750.0 -0.27191162109375 1.62908935546875
1637315625.0 0.74139404296875 1.39849853515625
1668537500.0 1.39422607421875 0.6947021484375
1699759375.0 1.570556640625 -0.2763671875
1730981250.0 1.062255859375 -1.2275390625
1762203125.0 0.0421142578125 -1.5679931640625
1793425000.0 -0.85455322265625 -1.224365234375
1824646875.0 -1.39166259765625 -0.51397705078125
1855868750.0 -1.471435546875 0.43218994140625
1887090625.0 -0.87353515625 1.28314208984375
1918312500.0 0.11724853515625 1.48455810546875
1949534375.0 0.92022705078125 1.0872802734375
1980756250.0 1.37359619140625 0.36962890625
2011978125.0 1.35760498046875 -0.531494140625
2043200000.0 0.74853515625 -1.26007080078125
2074421875.0 -0.15692138671875 -1.43109130859375
2105643750.0 -0.95904541015625 -1.07049560546875
2136865625.0 -1.445068359375 -0.30413818359375
2168087500.0 -1.355224609375 0.67083740234375
2199309375.0 -0.637939453125 1.34930419921875
2230531250.0 0.28143310546875 1.4339599609375
2261753125.0 1.0706787109375 1.0118408203125
2292975000.0 1.51177978515625 0.169921875
2324196875.0 1.30328369140625 -0.81793212890625
2355418750.0 0.52410888671875 -1.4178466796875
2386640625.0 -0.4039306640625 -1.4466552734375
2417862500.0 -1.17919921875 -1.02301025390625
2449084375.0 -1.60235595703125 -0.08331298828125
2480306250.0 -1.30926513671875 0.9237060546875
2511528125.0 -0.492431640625 1.50518798828125
2542750000.0 0.4886474609375 1.5341796875
2573971875.0 1.3680419921875 0.9654541015625
2605193750.0 1.71417236328125 -0.1121826171875
2636415625.0 1.2586669921875 -1.1507568359375
2667637500.0 0.30682373046875 -1.66302490234375
2698859375.0 -0.769287109375 -1.53173828125
2730081250.0 -1.57098388671875 -0.73895263671875
2761303125.0 -1.67816162109375 0.386962890625
2792525000.0 -1.09722900390625 1.30450439453125
2823746875.0 -0.10174560546875 1.7269287109375
2854968750.0 1.01068115234375 1.45294189453125
2886190625.0 1.6885986328125 0.4898681640625
2917412500.0 1.59661865234375 -0.61639404296875
2948634375.0 0.9373779296875 -1.43206787109375
2979856250.0 -0.108154296875 -1.77301025390625
3011078125.0 -1.24462890625 -1.339599609375
3042300000.0 -1.771240234375 -0.23419189453125
3073521875.0 -1.50579833984375 0.83697509765625
3104743750.0 -0.7611083984375 1.565185546875
3135965625.0 0.3619384765625 1.80560302734375
3167187500.0 1.4949951171875 1.16192626953125
3198409375.0 1.8118896484375 -0.07470703125
3229631250.0 1.34625244140625 -1.07904052734375
3260853125.0 0.4884033203125 -1.66522216796875
3292075000.0 -0.65435791015625 -1.6944580078125
3323296875.0 -1.6162109375 -0.87762451171875
3354518750.0 -1.7269287109375 0.32830810546875
3385740625.0 -1.15338134765625 1.22900390625
3416962500.0 -0.231201171875 1.67828369140625
3448184375.0 0.8587646484375 1.51861572265625
3479406250.0 1.63177490234375 0.64337158203125
3510628125.0 1.64105224609375 -0.49395751953125
3541850000.0 0.99835205078125 -1.3524169921875
3573071875.0 -0.0084228515625 -1.6796875
3604293750.0 -1.0255126953125 -1.3350830078125
3635515625.0 -1.62451171875 -0.43780517578125
3666737500.0 -1.55841064453125 0.64398193359375
3697959375.0 -0.82354736328125 1.4730224609375
3729181250.0 0.26751708984375 1.62811279296875
3760403125.0 1.14935302734375 1.09576416015625
3791625000.0 1.54937744140625 0.21771240234375
3822846875.0 1.39892578125 -0.75921630859375
3854068750.0 0.61907958984375 -1.4781494140625
3885290625.0 -0.42071533203125 -1.47821044921875
3916512500.0 -1.13970947265625 -0.909423828125
3947734375.0 -1.4437255859375 -0.1204833984375
3978956250.0 -1.29461669921875 0.7769775390625
4010178125.0 -0.5302734375 1.45135498046875
4041400000.0 0.47222900390625 1.412841796875
4072621875.0 1.14910888671875 0.846435546875
4103843750.0 1.44195556640625 0.0633544921875
4135065625.0 1.2655029296875 -0.8447265625
4166287500.0 0.4573974609375 -1.492919921875
4197509375.0 -0.5548095703125 -1.41253662109375
4228731250.0 -1.245849609375 -0.80157470703125
4259953125.0 -1.506103515625 0.0694580078125
4291175000.0 -1.1864013671875 1.00921630859375
4322396875.0 -0.28936767578125 1.52398681640625
4353618750.0 0.67083740234375 1.34698486328125
4384840625.0 1.31939697265625 0.6959228515625
4416062500.0 1.498046875 -0.2266845703125
4447284375.0 1.05340576171875 -1.10235595703125
4478506250.0 0.17242431640625 -1.492431640625
4509728125.0 -0.73065185546875 -1.30517578125
4540950000.0 -1.3907470703125 -0.635498046875
4572171875.0 -1.5198974609375 0.3592529296875
4603393750.0 -0.97149658203125 1.210205078125
4634615625.0 -0.06219482421875 1.533935546875
4665837500.0 0.869384765625 1.30218505859375
4697059375.0 1.53802490234375 0.5150146484375
4728281250.0 1.5264892578125 -0.5809326171875
4759503125.0 0.82220458984375 -1.36456298828125
4790725000.0 -0.144775390625 -1.56976318359375
4821946875.0 -1.081787109375 -1.19219970703125
4853168750.0 -1.61004638671875 -0.25091552734375
4884390625.0 -1.37542724609375 0.790771484375
4915612500.0 -0.6121826171875 1.410888671875
4946834375.0 0.32684326171875 1.50640869140625
4978056250.0 1.20281982421875 1.01629638671875
5009278125.0 1.5594482421875 0.039306640625
5040500000.0 1.227294921875 -0.87274169921875
5071721875.0 0.50054931640625 -1.41265869140625
5102943750.0 -0.44537353515625 -1.49444580078125
5134165625.0 -1.33233642578125 -0.9046630859375
5165387500.0 -1.5657958984375 0.145263671875
5196609375.0 -1.13427734375 1.0076904296875
5227831250.0 -0.35723876953125 1.50286865234375
5259053125.0 0.6865234375 1.49017333984375
5290275000.0 1.5191650390625 0.6627197265625
5321496875.0 1.49017333984375 -0.42999267578125
5352718750.0 0.91961669921875 -1.15118408203125
5383940625.0 0.09686279296875 -1.4974365234375
5415162500.0 -0.89794921875 -1.28192138671875
5446384375.0 -1.482177734375 -0.369873046875
5477606250.0 -1.296630859375 0.5643310546875
5508828125.0 -0.73040771484375 1.1478271484375
5540050000.0 0.053466796875 1.39630126953125
5571271875.0 0.93756103515625 1.107421875
5602493750.0 1.40594482421875 0.26031494140625
5633715625.0 1.23028564453125 -0.6119384765625
5664937500.0 0.6473388671875 -1.1982421875
5696159375.0 -0.196533203125 -1.382080078125
5727381250.0 -1.02099609375 -0.977783203125
5758603125.0 -1.38983154296875 -0.14447021484375
5789825000.0 -1.1932373046875 0.717041015625
5821046875.0 -0.5057373046875 1.305908203125
5852268750.0 0.41131591796875 1.3121337890625
5883490625.0 1.06976318359375 0.77117919921875
5914712500.0 1.30084228515625 0.0201416015625
5945934375.0 1.094970703125 -0.7735595703125
5977156250.0 0.36090087890625 -1.310302734375
6008378125.0 -0.5079345703125 -1.180908203125
6039600000.0 -1.01995849609375 -0.6488037109375
6070821875.0 -1.22271728515625 -0.00433349609375
6102043750.0 -1.081787109375 0.7607421875
6133265625.0 -0.34246826171875 1.3424072265625
6164487500.0 0.56201171875 1.1856689453125
6195709375.0 1.0689697265625 0.6295166015625
6226931250.0 1.27789306640625 -0.0423583984375
6258153125.0 1.10296630859375 -0.8695068359375
6289375000.0 0.25555419921875 -1.44488525390625
6320596875.0 -0.687744140625 -1.2047119140625
6351818750.0 -1.19866943359375 -0.57196044921875
6383040625.0 -1.3526611328125 0.2059326171875
6414262500.0 -0.99884033203125 1.05615234375
6445484375.0 -0.0787353515625 1.4552001953125
6476706250.0 0.79443359375 1.146484375
6507928125.0 1.28948974609375 0.4696044921875
6539150000.0 1.345947265625 -0.3861083984375
6570371875.0 0.8402099609375 -1.14251708984375
6601593750.0 -0.01666259765625 -1.40264892578125
6632815625.0 -0.837890625 -1.134521484375
6664037500.0 -1.39849853515625 -0.4200439453125
6695259375.0 -1.37188720703125 0.5648193359375
6726481250.0 -0.70953369140625 1.24981689453125
6757703125.0 0.12921142578125 1.40447998046875
6788925000.0 0.95343017578125 1.13006591796875
6820146875.0 1.55780029296875 0.28790283203125
6851368750.0 1.3245849609375 -0.8177490234375
6882590625.0 0.50592041015625 -1.33721923828125
6913812500.0 -0.29229736328125 -1.35504150390625
6945034375.0 -1.0682373046875 -1.0206298828125
6976256250.0 -1.58978271484375 -0.093994140625
7007478125.0 -1.2344970703125 0.93060302734375
7038700000.0 -0.4031982421875 1.33905029296875
7069921875.0 0.35821533203125 1.32177734375
7101143750.0 1.1165771484375 0.96734619140625
7132365625.0 1.59625244140625 0.01666259765625
7163587500.0 1.1546630859375 -1.0169677734375
7194809375.0 0.30126953125 -1.3975830078125
7226031250.0 -0.51055908203125 -1.32415771484375
7257253125.0 -1.26513671875 -0.82354736328125
7288475000.0 -1.55535888671875 0.196533203125
7319696875.0 -1.02862548828125 1.1077880859375
7350918750.0 -0.1644287109375 1.44219970703125
7382140625.0 0.71405029296875 1.2742919921875
7413362500.0 1.374267578125 0.57562255859375
7444584375.0 1.4097900390625 -0.40606689453125
7475806250.0 0.85662841796875 -1.142578125
7507028125.0 0.004638671875 -1.4276123046875
7538250000.0 -0.886962890625 -1.12261962890625
7569471875.0 -1.333251953125 -0.31060791015625
7600693750.0 -1.20050048828125 0.49615478515625
7631915625.0 -0.7171630859375 1.08319091796875
7663137500.0 0.08013916015625 1.3565673828125
7694359375.0 0.938507080078125 0.979705810546875
7725581250.0 1.2418212890625 0.18060302734375
7756803125.0 1.080810546875 -0.4971923828125
7788025000.0 0.66925048828125 -1.04425048828125
7819246875.0 -0.1190185546875 -1.34423828125
7850468750.0 -0.992340087890625 -0.91497802734375
7881690625.0 -1.230224609375 -0.105712890625
7912912500.0 -1.05389404296875 0.5531005859375
7944134375.0 -0.6055908203125 1.11279296875
7975356250.0 0.27020263671875 1.33349609375
8006578125.0 1.04425048828125 0.77874755859375
8037800000.0 1.19219970703125 0.01641845703125
8069021875.0 1.00531005859375 -0.61572265625
8100243750.0 0.4993896484375 -1.159423828125
8131465625.0 -0.385986328125 -1.2528076171875
8162687500.0 -1.0299072265625 -0.6856689453125
8193909375.0 -1.18084716796875 0.0091552734375
8225131250.0 -1.01666259765625 0.6766357421875
8256353125.0 -0.4217529296875 1.24664306640625
8287575000.0 0.49798583984375 1.2237548828125
8318796875.0 1.08135986328125 0.6361083984375
8350018750.0 1.244140625 -0.07513427734375
8381240625.0 1.0296630859375 -0.83734130859375
8412462500.0 0.25518798828125 -1.37164306640625
8443684375.0 -0.669189453125 -1.16876220703125
8474906250.0 -1.1737060546875 -0.532470703125
8506128125.0 -1.29754638671875 0.23699951171875
8537350000.0 -0.92327880859375 1.04669189453125
8568571875.0 -0.01446533203125 1.3961181640625
8599793750.0 0.80010986328125 1.05291748046875
8631015625.0 1.23980712890625 0.3990478515625
8662237500.0 1.2838134765625 -0.427978515625
8693459375.0 0.736328125 -1.1744384765625
8724681250.0 -0.1627197265625 -1.3309326171875
8755903125.0 -0.878265380859375 -0.956878662109375
8787125000.0 -1.3006591796875 -0.283203125
8818346875.0 -1.25 0.613525390625
8849568750.0 -0.55670166015625 1.25836181640625
8880790625.0 0.29779052734375 1.282958984375
8912012500.0 0.98138427734375 0.891998291015625
8943234375.0 1.397705078125 0.128662109375
8974456250.0 1.1666259765625 -0.83929443359375
9005678125.0 0.34844970703125 -1.31298828125
9036900000.0 -0.44525146484375 -1.22357177734375
9068121875.0 -1.09893798828125 -0.78607177734375
9099343750.0 -1.4403076171875 0.09783935546875
9130565625.0 -0.97857666015625 1.00909423828125
9161787500.0 -0.155517578125 1.28155517578125
9193009375.0 0.55322265625 1.13232421875
9224231250.0 1.1771240234375 0.6551513671875
9255453125.0 1.39776611328125 -0.2947998046875
9286675000.0 0.8065185546875 -1.08380126953125
9317896875.0 0.02679443359375 -1.24609375
9349118750.0 -0.6519775390625 -1.067626953125
9380340625.0 -1.25555419921875 -0.5089111328125
9411562500.0 -1.3101806640625 0.475341796875
9442784375.0 -0.647705078125 1.11566162109375
9474006250.0 0.0880126953125 1.2093505859375
9505228125.0 0.762786865234375 0.9786376953125
9536450000.0 1.27313232421875 0.3135986328125
9567671875.0 1.14263916015625 -0.5775146484375
9598893750.0 0.530517578125 -1.0654296875
9630115625.0 -0.14166259765625 -1.15570068359375
9661337500.0 -0.8165283203125 -0.90130615234375
9692559375.0 -1.23577880859375 -0.190673828125
9723781250.0 -1.04217529296875 0.60137939453125
9755003125.0 -0.48712158203125 1.0494384765625
9786225000.0 0.197509765625 1.157958984375
9817446875.0 0.89422607421875 0.82763671875
9848668750.0 1.1947021484375 0.07977294921875
9879890625.0 0.966644287109375 -0.614410400390625
9911112500.0 0.45263671875 -1.05010986328125
9942334375.0 -0.26708984375 -1.15850830078125
9973556250.0 -0.9417724609375 -0.737823486328125
10004778125.0 -1.14520263671875 -0.01873779296875
10036000000.0 -0.94390869140625 0.61517333984375
10067221875.0 -0.4420166015625 1.0968017578125
10098443750.0 0.3690185546875 1.18023681640625
10129665625.0 1.00262451171875 0.642822265625
10160887500.0 1.118896484375 -0.05169677734375
10192109375.0 0.91650390625 -0.66107177734375
10223331250.0 0.36126708984375 -1.15240478515625
10254553125.0 -0.4832763671875 -1.1124267578125
10285775000.0 -0.982025146484375 -0.5360107421875
10316996875.0 -1.06585693359375 0.075439453125
10348218750.0 -0.899169921875 0.66729736328125
10379440625.0 -0.3218994140625 1.17462158203125
10410662500.0 0.525390625 1.0850830078125
10441884375.0 0.990325927734375 0.521820068359375
10473106250.0 1.10711669921875 -0.08282470703125
10504328125.0 0.948211669921875 -0.75390625
10535550000.0 0.24078369140625 -1.29254150390625
10566771875.0 -0.6583251953125 -1.07733154296875
10597993750.0 -1.07818603515625 -0.45947265625
10629215625.0 -1.1737060546875 0.20404052734375
10660437500.0 -0.88714599609375 0.949188232421875
10691659375.0 -0.0103759765625 1.33575439453125
10722881250.0 0.7828369140625 0.951995849609375
10754103125.0 1.11773681640625 0.32513427734375
10785325000.0 1.1380615234375 -0.365966796875
10816546875.0 0.70086669921875 -1.04736328125
10847768750.0 -0.1441650390625 -1.22705078125
10878990625.0 -0.800689697265625 -0.843719482421875
10910212500.0 -1.1221923828125 -0.2452392578125
10941434375.0 -1.09698486328125 0.476806640625
10972656250.0 -0.56817626953125 1.08349609375
11003878125.0 0.21575927734375 1.17327880859375
11035100000.0 0.848602294921875 0.821044921875
11066321875.0 1.2203369140625 0.17413330078125
11097543750.0 1.09661865234375 -0.6734619140625
11128765625.0 0.38623046875 -1.19696044921875
11159987500.0 -0.39434814453125 -1.1380615234375
11191209375.0 -0.998382568359375 -0.70330810546875
11222431250.0 -1.27178955078125 0.093505859375
11253653125.0 -0.8590087890625 0.8936767578125
11284875000.0 -0.1142578125 1.12628173828125
11316096875.0 0.508453369140625 0.955108642578125
11347318750.0 1.0018310546875 0.5025634765625
11378540625.0 1.11541748046875 -0.26727294921875
11409762500.0 0.634857177734375 -0.858673095703125
11440984375.0 0.03594970703125 -0.97784423828125
11472206250.0 -0.48077392578125 -0.849365234375
11503428125.0 -0.950103759765625 -0.456878662109375
11534650000.0 -1.0677490234375 0.287841796875
11565871875.0 -0.60211181640625 0.853118896484375
11597093750.0 -0.01953125 0.990142822265625
11628315625.0 0.5430908203125 0.87432861328125
11659537500.0 1.05859375 0.391845703125
11690759375.0 1.06427001953125 -0.431884765625
11721981250.0 0.5167236328125 -0.939605712890625
11753203125.0 -0.1041259765625 -1.034912109375
11784425000.0 -0.72430419921875 -0.8077392578125
11815646875.0 -1.09912109375 -0.1510009765625
11846868750.0 -0.890716552734375 0.54949951171875
11878090625.0 -0.39154052734375 0.908477783203125
11909312500.0 0.18560791015625 0.982879638671875
11940534375.0 0.779296875 0.694976806640625
11971756250.0 1.02484130859375 0.04010009765625
12002978125.0 0.80645751953125 -0.5374755859375
12034200000.0 0.381805419921875 -0.888519287109375
12065421875.0 -0.21417236328125 -1.0091552734375
12096643750.0 -0.846099853515625 -0.6651611328125
12127865625.0 -1.0335693359375 0.016357421875
12159087500.0 -0.81475830078125 0.5736083984375
12190309375.0 -0.37701416015625 0.974456787109375
12221531250.0 0.3369140625 1.0880126953125
12252753125.0 0.9801025390625 0.581390380859375
12283975000.0 1.054443359375 -0.12750244140625
12315196875.0 0.799896240234375 -0.67633056640625
12346418750.0 0.28045654296875 -1.09136962890625
12377640625.0 -0.536376953125 -1.0594482421875
12408862500.0 -1.03363037109375 -0.41925048828125
12440084375.0 -1.00701904296875 0.22412109375
12471306250.0 -0.74200439453125 0.73577880859375
12502528125.0 -0.17987060546875 1.11883544921875
12533750000.0 0.618804931640625 0.993255615234375
12564971875.0 1.03985595703125 0.3642578125
12596193750.0 1.0281982421875 -0.2630615234375
12627415625.0 0.747802734375 -0.826629638671875
12658637500.0 0.08026123046875 -1.206298828125
12689859375.0 -0.734344482421875 -0.965911865234375
12721081250.0 -1.1151123046875 -0.3065185546875
12752303125.0 -1.09625244140625 0.3814697265625
12783525000.0 -0.68670654296875 1.02691650390625
12814746875.0 0.16339111328125 1.25042724609375
12845968750.0 0.86224365234375 0.81121826171875
12877190625.0 1.118408203125 0.1712646484375
12908412500.0 1.0550537109375 -0.5013427734375
12939634375.0 0.54278564453125 -1.11712646484375
12970856250.0 -0.3187255859375 -1.174560546875
13002078125.0 -0.89593505859375 -0.693572998046875
13033300000.0 -1.1058349609375 -0.0875244140625
13064521875.0 -1.0081787109375 0.5928955078125
13095743750.0 -0.42083740234375 1.15533447265625
13126965625.0 0.40557861328125 1.11907958984375
13158187500.0 0.946197509765625 0.631927490234375
13189409375.0 1.14825439453125 -0.02093505859375
13220631250.0 0.935516357421875 -0.745819091796875
13251853125.0 0.23443603515625 -1.17193603515625
13283075000.0 -0.50628662109375 -1.01861572265625
13314296875.0 -0.9862060546875 -0.529541015625
13345518750.0 -1.13275146484375 0.1734619140625
