!Created with skrf (http://scikit-rf.org).
# Hz S RI R 50.0 
!freq ReS11 ImS11
45000000.0 -0.07660675048828125 -0.09699249267578125
76221875.0 -0.1967010498046875 -0.04787445068359375
107443750.0 -0.255767822265625 0.119537353515625
138665625.0 -0.1491241455078125 0.3291168212890625
169887500.0 0.12322998046875 0.4184112548828125
201109375.0 0.4222564697265625 0.2822265625
232331250.0 0.580230712890625 -0.056793212890625
263553125.0 0.4908905029296875 -0.453155517578125
294775000.0 0.09954833984375 -0.733734130859375
325996875.0 -0.4154052734375 -0.682861328125
357218750.0 -0.8079833984375 -0.298919677734375
388440625.0 -0.8883056640625 0.300201416015625
419662500.0 -0.519744873046875 0.867279052734375
450884375.0 0.17181396484375 1.03143310546875
482106250.0 0.799041748046875 0.715850830078125
513328125.0 1.12158203125 0.0889892578125
544550000.0 1.00640869140625 -0.67974853515625
575771875.0 0.33868408203125 -1.23968505859375
606993750.0 -0.552734375 -1.180419921875
638215625.0 -1.167236328125 -0.5933837890625
669437500.0 -1.34283447265625 0.2322998046875
700659375.0 -0.97393798828125 1.09649658203125
731881250.0 -0.00616455078125 1.54571533203125
763103125.0 1.00579833984375 1.15997314453125
794325000.0 1.47161865234375 0.2845458984375
825546875.0 1.37091064453125 -0.65093994140625
856768750.0 0.79754638671875 -1.4024658203125
887990625.0 -0.29107666015625 -1.652099609375
919212500.0 -1.28948974609375 -1.082763671875
950434375.0 -1.65252685546875 -0.06072998046875
981656250.0 -1.38671875 0.94647216796875
1012878125.0 -0.53265380859375 1.67510986328125
1044100000.0 0.69732666015625 1.66705322265625
1075321875.0 1.5780029296875 0.81573486328125
1106543750.0 1.7098388671875 -0.311767578125
1137765625.0 1.1907958984375 -1.28546142578125
1168987500.0 0.14093017578125 -1.80120849609375
1200209375.0 -1.06231689453125 -1.4884033203125
1231431250.0 -1.73138427734375 -0.45587158203125
1262653125.0 -1.5982666015625 0.684326171875
1293875000.0 -0.85589599609375 1.49298095703125
1325096875.0 0.226318359375 1.7109375
1356318750.0 1.236328125 1.22113037109375
1387540625.0 1.74346923828125 0.1910400390625
1418762500.0 1.47314453125 -0.95172119140625
1449984375.0 0.53277587890625 -1.62835693359375
1481206250.0 -0.54888916015625 -1.5594482421875
1512428125.0 -1.343994140625 -0.92303466796875
1543650000.0 -1.65899658203125 0.0638427734375
1574871875.0 -1.27685546875 1.1092529296875
1606093750.0 -0.2752685546875 1.63421630859375
1637315625.0 0.7423095703125 1.404052734375
1668537500.0 1.3983154296875 0.69879150390625
1699759375.0 1.57635498046875 -0.275634765625
1730981250.0 1.06756591796875 -1.23046875
1762203125.0 0.0438232421875 -1.57379150390625
1793425000.0 -0.85662841796875 -1.229736328125
1824646875.0 -1.396484375 -0.51751708984375
1855868750.0 -1.47747802734375 0.43194580078125
1887090625.0 -0.87811279296875 1.28765869140625
1918312500.0 0.116455078125 1.49029541015625
1949534375.0 0.92230224609375 1.091796875
1980756250.0 1.37725830078125 0.37188720703125
2011978125.0 1.36279296875 -0.53106689453125
2043200000.0 0.753173828125 -1.26324462890625
2074421875.0 -0.15576171875 -1.436279296875
2105643750.0 -0.96112060546875 -1.0750732421875
2136865625.0 -1.4498291015625 -0.306884765625
2168087500.0 -1.3602294921875 0.6712646484375
2199309375.0 -0.64129638671875 1.35345458984375
2230531250.0 0.2813720703125 1.4395751953125
2261753125.0 1.07476806640625 1.0164794921875
2292975000.0 1.51715087890625 0.17138671875
2324196875.0 1.30865478515625 -0.81939697265625
2355418750.0 0.52679443359375 -1.421875
2386640625.0 -0.404296875 -1.4512939453125
2417862500.0 -1.18310546875 -1.0263671875
2449084375.0 -1.60748291015625 -0.08447265625
2480306250.0 -1.3135986328125 0.9254150390625
2511528125.0 -0.495361328125 1.5107421875
2542750000.0 0.48846435546875 1.5391845703125
2573971875.0 1.37445068359375 0.9700927734375
2605193750.0 1.720458984375 -0.11212158203125
2636415625.0 1.26409912109375 -1.1539306640625
2667637500.0 0.30828857421875 -1.669677734375
2698859375.0 -0.77056884765625 -1.5374755859375
2730081250.0 -1.575927734375 -0.742919921875
2761303125.0 -1.68499755859375 0.388671875
2792525000.0 -1.1019287109375 1.3089599609375
2823746875.0 -0.10247802734375 1.733154296875
2854968750.0 1.01373291015625 1.45989990234375
2886190625.0 1.6959228515625 0.49298095703125
2917412500.0 1.6031494140625 -0.61798095703125
2948634375.0 0.94189453125 -1.434814453125
2979856250.0 -0.10662841796875 -1.77923583984375
3011078125.0 -1.25103759765625 -1.345458984375
3042300000.0 -1.7786865234375 -0.235595703125
3073521875.0 -1.51226806640625 0.83837890625
3104743750.0 -0.7652587890625 1.5704345703125
3135965625.0 0.36224365234375 1.81292724609375
3167187500.0 1.50238037109375 1.16693115234375
3198409375.0 1.81976318359375 -0.07470703125
3229631250.0 1.3521728515625 -1.08172607421875
3260853125.0 0.490966796875 -1.67120361328125
3292075000.0 -0.655029296875 -1.70123291015625
3323296875.0 -1.6217041015625 -0.88275146484375
3354518750.0 -1.73431396484375 0.328857421875
3385740625.0 -1.1591796875 1.23431396484375
3416962500.0 -0.23211669921875 1.68609619140625
3448184375.0 0.860595703125 1.5250244140625
3479406250.0 1.63995361328125 0.64605712890625
3510628125.0 1.647216796875 -0.49664306640625
3541850000.0 1.0020751953125 -1.35809326171875
3573071875.0 -0.0069580078125 -1.68511962890625
3604293750.0 -1.02825927734375 -1.33978271484375
3635515625.0 -1.63134765625 -0.43975830078125
3666737500.0 -1.56463623046875 0.64752197265625
3697959375.0 -0.82666015625 1.478759765625
3729181250.0 0.26910400390625 1.6336669921875
3760403125.0 1.15399169921875 1.1004638671875
3791625000.0 1.555419921875 0.21923828125
3822846875.0 1.40521240234375 -0.76153564453125
3854068750.0 0.6220703125 -1.484130859375
3885290625.0 -0.42279052734375 -1.48468017578125
3916512500.0 -1.1444091796875 -0.91302490234375
3947734375.0 -1.4505615234375 -0.12017822265625
3978956250.0 -1.3001708984375 0.78076171875
4010178125.0 -0.53216552734375 1.45782470703125
4041400000.0 0.4759521484375 1.41876220703125
4072621875.0 1.154052734375 0.84881591796875
4103843750.0 1.447021484375 0.06298828125
4135065625.0 1.27001953125 -0.8475341796875
4166287500.0 0.45782470703125 -1.4993896484375
4197509375.0 -0.5595703125 -1.417236328125
4228731250.0 -1.2501220703125 -0.802978515625
4259953125.0 -1.51116943359375 0.07122802734375
4291175000.0 -1.19012451171875 1.0113525390625
4322396875.0 -0.2894287109375 1.52911376953125
4353618750.0 0.6737060546875 1.35247802734375
4384840625.0 1.32574462890625 0.6982421875
4416062500.0 1.50372314453125 -0.2276611328125
4447284375.0 1.05731201171875 -1.10638427734375
4478506250.0 0.172119140625 -1.4986572265625
4509728125.0 -0.7352294921875 -1.309814453125
4540950000.0 -1.39739990234375 -0.6361083984375
4572171875.0 -1.52484130859375 0.36181640625
4603393750.0 -0.97308349609375 1.2158203125
4634615625.0 -0.06005859375 1.53948974609375
4665837500.0 0.8717041015625 1.30633544921875
4697059375.0 1.54443359375 0.51495361328125
4728281250.0 1.5303955078125 -0.58319091796875
4759503125.0 0.82373046875 -1.3697509765625
4790725000.0 -0.147216796875 -1.5751953125
4821946875.0 -1.08514404296875 -1.19610595703125
4853168750.0 -1.6160888671875 -0.2509765625
4884390625.0 -1.3807373046875 0.79638671875
4915612500.0 -0.6136474609375 1.41571044921875
4946834375.0 0.3302001953125 1.5120849609375
4978056250.0 1.20855712890625 1.01922607421875
5009278125.0 1.56500244140625 0.0391845703125
5040500000.0 1.2310791015625 -0.8790283203125
5071721875.0 0.501708984375 -1.4188232421875
5102943750.0 -0.44842529296875 -1.49981689453125
5134165625.0 -1.340087890625 -0.9066162109375
5165387500.0 -1.57061767578125 0.147705078125
5196609375.0 -1.13720703125 1.01239013671875
5227831250.0 -0.35650634765625 1.510009765625
5259053125.0 0.6903076171875 1.494140625
5290275000.0 1.5240478515625 0.66259765625
5321496875.0 1.4945068359375 -0.4320068359375
5352718750.0 0.9212646484375 -1.154296875
5383940625.0 0.0963134765625 -1.5032958984375
5415162500.0 -0.90338134765625 -1.285888671875
5446384375.0 -1.488037109375 -0.36993408203125
5477606250.0 -1.3011474609375 0.56854248046875
5508828125.0 -0.7322998046875 1.1541748046875
5540050000.0 0.05462646484375 1.40216064453125
5571271875.0 0.942138671875 1.11065673828125
5602493750.0 1.41229248046875 0.25927734375
5633715625.0 1.2344970703125 -0.6146240234375
5664937500.0 0.6483154296875 -1.20452880859375
5696159375.0 -0.199462890625 -1.38671875
5727381250.0 -1.0252685546875 -0.979248046875
5758603125.0 -1.39404296875 -0.14404296875
5789825000.0 -1.19561767578125 0.72039794921875
5821046875.0 -0.50555419921875 1.3104248046875
5852268750.0 0.41375732421875 1.31488037109375
5883490625.0 1.07421875 0.77197265625
5914712500.0 1.3046875 0.01934814453125
5945934375.0 1.09814453125 -0.777587890625
5977156250.0 0.36016845703125 -1.31561279296875
6008378125.0 -0.511962890625 -1.18426513671875
6039600000.0 -1.0245361328125 -0.64923095703125
6070821875.0 -1.2269287109375 -0.00335693359375
6102043750.0 -1.08551025390625 0.76654052734375
6133265625.0 -0.340576171875 1.348388671875
6164487500.0 0.56744384765625 1.18896484375
6195709375.0 1.07379150390625 0.630126953125
6226931250.0 1.282470703125 -0.044921875
6258153125.0 1.10650634765625 -0.87579345703125
6289375000.0 0.25408935546875 -1.44927978515625
6320596875.0 -0.69329833984375 -1.20654296875
6351818750.0 -1.202880859375 -0.5709228515625
6383040625.0 -1.35595703125 0.2088623046875
6414262500.0 -0.9998779296875 1.0599365234375
6445484375.0 -0.07659912109375 1.458984375
6476706250.0 0.79742431640625 1.148193359375
6507928125.0 1.29376220703125 0.4688720703125
6539150000.0 1.348876953125 -0.3883056640625
6570371875.0 0.841552734375 -1.14697265625
6601593750.0 -0.01934814453125 -1.40740966796875
6632815625.0 -0.84344482421875 -1.137939453125
6664037500.0 -1.40472412109375 -0.4190673828125
6695259375.0 -1.3758544921875 0.56939697265625
6726481250.0 -0.7098388671875 1.25439453125
6757703125.0 0.13299560546875 1.40972900390625
6788925000.0 0.9583740234375 1.1318359375
6820146875.0 1.5638427734375 0.285400390625
6851368750.0 1.3262939453125 -0.82269287109375
6882590625.0 0.50537109375 -1.3411865234375
6913812500.0 -0.29412841796875 -1.3583984375
6945034375.0 -1.07440185546875 -1.0218505859375
6976256250.0 -1.59539794921875 -0.08966064453125
7007478125.0 -1.23748779296875 0.93603515625
7038700000.0 -0.3992919921875 1.3468017578125
7069921875.0 0.35858154296875 1.32525634765625
7101143750.0 1.12469482421875 0.9703369140625
7132365625.0 1.604736328125 0.01080322265625
7163587500.0 1.15863037109375 -1.02581787109375
7194809375.0 0.30169677734375 -1.4022216796875
7226031250.0 -0.5145263671875 -1.32916259765625
7257253125.0 -1.27178955078125 -0.82464599609375
7288475000.0 -1.5589599609375 0.1993408203125
7319696875.0 -1.0294189453125 1.114501953125
7350918750.0 -0.16241455078125 1.44873046875
7382140625.0 0.720947265625 1.2779541015625
7413362500.0 1.38238525390625 0.573486328125
7444584375.0 1.41357421875 -0.41107177734375
7475806250.0 0.85723876953125 -1.14642333984375
7507028125.0 0.0040283203125 -1.4320068359375
7538250000.0 -0.8919677734375 -1.12451171875
7569471875.0 -1.34033203125 -0.30889892578125
7600693750.0 -1.20428466796875 0.49981689453125
7631915625.0 -0.71905517578125 1.0887451171875
7663137500.0 0.08221435546875 1.3607177734375
7694359375.0 0.9425048828125 0.98248291015625
7725581250.0 1.24591064453125 0.18017578125
7756803125.0 1.08465576171875 -0.5010986328125
7788025000.0 0.671142578125 -1.04705810546875
7819246875.0 -0.12445068359375 -1.3511962890625
7850468750.0 -0.998809814453125 -0.9156494140625
7881690625.0 -1.23382568359375 -0.10345458984375
7912912500.0 -1.05682373046875 0.55615234375
7944134375.0 -0.60455322265625 1.1177978515625
7975356250.0 0.275146484375 1.3365478515625
8006578125.0 1.050537109375 0.77728271484375
8037800000.0 1.19610595703125 0.01336669921875
8069021875.0 1.00830078125 -0.61956787109375
8100243750.0 0.49853515625 -1.16607666015625
8131465625.0 -0.390869140625 -1.25616455078125
8162687500.0 -1.03485107421875 -0.685546875
8193909375.0 -1.182373046875 0.0098876953125
8225131250.0 -1.0206298828125 0.6827392578125
8256353125.0 -0.4195556640625 1.25445556640625
8287575000.0 0.50408935546875 1.22772216796875
8318796875.0 1.0850830078125 0.6361083984375
8350018750.0 1.2476806640625 -0.07708740234375
8381240625.0 1.03253173828125 -0.84393310546875
8412462500.0 0.2491455078125 -1.379150390625
8443684375.0 -0.67437744140625 -1.1695556640625
8474906250.0 -1.17962646484375 -0.5301513671875
8506128125.0 -1.300048828125 0.2401123046875
8537350000.0 -0.92352294921875 1.0516357421875
8568571875.0 -0.01324462890625 1.3968505859375
8599793750.0 0.80560302734375 1.0537109375
8631015625.0 1.2445068359375 0.39630126953125
8662237500.0 1.28900146484375 -0.43328857421875
8693459375.0 0.73681640625 -1.1806640625
8724681250.0 -0.16497802734375 -1.33477783203125
8755903125.0 -0.88525390625 -0.95928955078125
8787125000.0 -1.30767822265625 -0.2816162109375
8818346875.0 -1.25335693359375 0.6182861328125
8849568750.0 -0.55462646484375 1.26556396484375
8880790625.0 0.30224609375 1.28924560546875
8912012500.0 0.98553466796875 0.893585205078125
8943234375.0 1.406005859375 0.1246337890625
8974456250.0 1.1666259765625 -0.8436279296875
9005678125.0 0.34478759765625 -1.31585693359375
9036900000.0 -0.45050048828125 -1.2266845703125
9068121875.0 -1.10565185546875 -0.7843017578125
9099343750.0 -1.44287109375 0.10107421875
9130565625.0 -0.9779052734375 1.0145263671875
9161787500.0 -0.1519775390625 1.28515625
9193009375.0 0.560302734375 1.1357421875
9224231250.0 1.1839599609375 0.65399169921875
9255453125.0 1.40380859375 -0.2987060546875
9286675000.0 0.806884765625 -1.0892333984375
9317896875.0 0.0244140625 -1.24871826171875
9349118750.0 -0.6583251953125 -1.0716552734375
9380340625.0 -1.26513671875 -0.50799560546875
9411562500.0 -1.31488037109375 0.4822998046875
9442784375.0 -0.64764404296875 1.121337890625
9474006250.0 0.0938720703125 1.21453857421875
9505228125.0 0.769805908203125 0.981353759765625
9536450000.0 1.27838134765625 0.30938720703125
9567671875.0 1.14312744140625 -0.58367919921875
9598893750.0 0.52703857421875 -1.07318115234375
9630115625.0 -0.1468505859375 -1.16015625
9661337500.0 -0.822601318359375 -0.901885986328125
9692559375.0 -1.24090576171875 -0.18634033203125
9723781250.0 -1.04388427734375 0.60736083984375
9755003125.0 -0.4847412109375 1.0546875
9786225000.0 0.2020263671875 1.16229248046875
9817446875.0 0.89990234375 0.82763671875
9848668750.0 1.202880859375 0.07421875
9879890625.0 0.968963623046875 -0.619720458984375
9911112500.0 0.4508056640625 -1.05743408203125
9942334375.0 -0.27227783203125 -1.1624755859375
9973556250.0 -0.949432373046875 -0.738250732421875
10004778125.0 -1.1492919921875 -0.0135498046875
10036000000.0 -0.944183349609375 0.62060546875
10067221875.0 -0.439208984375 1.10040283203125
10098443750.0 0.3770751953125 1.183837890625
10129665625.0 1.00811767578125 0.63983154296875
10160887500.0 1.12255859375 -0.055908203125
10192109375.0 0.9169921875 -0.6650390625
10223331250.0 0.357421875 -1.156982421875
10254553125.0 -0.49053955078125 -1.11444091796875
10285775000.0 -0.988372802734375 -0.5333251953125
10316996875.0 -1.06781005859375 0.0777587890625
10348218750.0 -0.90045166015625 0.6749267578125
10379440625.0 -0.3193359375 1.1806640625
10410662500.0 0.5311279296875 1.0869140625
10441884375.0 0.99652099609375 0.520751953125
10473106250.0 1.11212158203125 -0.08746337890625
10504328125.0 0.949249267578125 -0.7620849609375
10535550000.0 0.23480224609375 -1.30047607421875
10566771875.0 -0.6624755859375 -1.077392578125
10597993750.0 -1.0860595703125 -0.45526123046875
10629215625.0 -1.17901611328125 0.210693359375
10660437500.0 -0.88751220703125 0.95648193359375
10691659375.0 -0.0042724609375 1.33935546875
10722881250.0 0.79046630859375 0.95111083984375
10754103125.0 1.1220703125 0.32196044921875
10785325000.0 1.1402587890625 -0.37176513671875
10816546875.0 0.69866943359375 -1.05682373046875
10847768750.0 -0.14837646484375 -1.23223876953125
10878990625.0 -0.80804443359375 -0.843505859375
10910212500.0 -1.12689208984375 -0.2427978515625
10941434375.0 -1.10003662109375 0.48291015625
10972656250.0 -0.56744384765625 1.08807373046875
11003878125.0 0.2216796875 1.1767578125
11035100000.0 0.8546142578125 0.82208251953125
11066321875.0 1.22552490234375 0.17041015625
11097543750.0 1.099365234375 -0.680908203125
11128765625.0 0.383056640625 -1.2021484375
11159987500.0 -0.4013671875 -1.14080810546875
11191209375.0 -1.00311279296875 -0.70147705078125
11222431250.0 -1.2763671875 0.09918212890625
11253653125.0 -0.857330322265625 0.898681640625
11284875000.0 -0.11041259765625 1.12957763671875
11316096875.0 0.51446533203125 0.956451416015625
11347318750.0 1.00604248046875 0.500732421875
11378540625.0 1.11846923828125 -0.27392578125
11409762500.0 0.6331787109375 -0.861968994140625
11440984375.0 0.033203125 -0.98089599609375
11472206250.0 -0.485015869140625 -0.851776123046875
11503428125.0 -0.958343505859375 -0.45391845703125
11534650000.0 -1.0706787109375 0.29302978515625
11565871875.0 -0.600128173828125 0.859619140625
11597093750.0 -0.015411376953125 0.99420166015625
11628315625.0 0.54766845703125 0.87615966796875
11659537500.0 1.06585693359375 0.38909912109375
11690759375.0 1.06610107421875 -0.4385986328125
11721981250.0 0.514801025390625 -0.94378662109375
11753203125.0 -0.1099853515625 -1.03912353515625
11784425000.0 -0.72711181640625 -0.80914306640625
11815646875.0 -1.1043701171875 -0.1474609375
11846868750.0 -0.89105224609375 0.556182861328125
11878090625.0 -0.38848876953125 0.9132080078125
11909312500.0 0.190765380859375 0.986724853515625
11940534375.0 0.7867431640625 0.69415283203125
11971756250.0 1.02691650390625 0.0362548828125
12002978125.0 0.806396484375 -0.540374755859375
12034200000.0 0.3797607421875 -0.892852783203125
12065421875.0 -0.22088623046875 -1.0125732421875
12096643750.0 -0.854248046875 -0.662872314453125
12127865625.0 -1.03594970703125 0.0211181640625
12159087500.0 -0.815155029296875 0.57763671875
12190309375.0 -0.375213623046875 0.979095458984375
12221531250.0 0.3468017578125 1.09063720703125
12252753125.0 0.983978271484375 0.5784912109375
12283975000.0 1.05572509765625 -0.13201904296875
12315196875.0 0.800201416015625 -0.680023193359375
12346418750.0 0.2779541015625 -1.09613037109375
12377640625.0 -0.5439453125 -1.0615234375
12408862500.0 -1.03814697265625 -0.415283203125
12440084375.0 -1.00933837890625 0.2281494140625
12471306250.0 -0.741943359375 0.74273681640625
12502528125.0 -0.17706298828125 1.12322998046875
12533750000.0 0.626220703125 0.994171142578125
12564971875.0 1.0452880859375 0.36029052734375
12596193750.0 1.03192138671875 -0.27069091796875
12627415625.0 0.74774169921875 -0.83599853515625
12658637500.0 0.0760498046875 -1.20941162109375
12689859375.0 -0.74334716796875 -0.965911865234375
12721081250.0 -1.1229248046875 -0.301513671875
12752303125.0 -1.09942626953125 0.38848876953125
12783525000.0 -0.68408203125 1.0343017578125
12814746875.0 0.1722412109375 1.25311279296875
12845968750.0 0.8690185546875 0.809326171875
12877190625.0 1.1199951171875 0.16876220703125
12908412500.0 1.05731201171875 -0.50531005859375
12939634375.0 0.53863525390625 -1.12335205078125
12970856250.0 -0.326904296875 -1.17626953125
13002078125.0 -0.899200439453125 -0.6915283203125
13033300000.0 -1.109375 -0.08251953125
13064521875.0 -1.0111083984375 0.6005859375
13095743750.0 -0.4161376953125 1.1593017578125
13126965625.0 0.41534423828125 1.12127685546875
13158187500.0 0.952301025390625 0.6298828125
13189409375.0 1.15289306640625 -0.02587890625
13220631250.0 0.93621826171875 -0.75616455078125
13251853125.0 0.228759765625 -1.17730712890625
13283075000.0 -0.5135498046875 -1.02056884765625
13314296875.0 -0.994232177734375 -0.5260009765625
13345518750.0 -1.1385498046875 0.183349609375
13376740625.0 -0.75 0.8651123046875
13407962500.0 -0.0546875 1.06927490234375
13439184375.0 0.53118896484375 0.872100830078125
