!Created with skrf (http://scikit-rf.org).
# Hz S RI R 50.0 
!freq ReS11 ImS11
45000000.0 -0.07707595825195312 -0.09675979614257812
76221875.0 -0.19652557373046875 -0.0472869873046875
107443750.0 -0.2547760009765625 0.119873046875
138665625.0 -0.1475982666015625 0.328643798828125
169887500.0 0.124237060546875 0.417266845703125
201109375.0 0.4221649169921875 0.280426025390625
232331250.0 0.57879638671875 -0.058258056640625
263553125.0 0.489044189453125 -0.4533538818359375
294775000.0 0.097320556640625 -0.732513427734375
325996875.0 -0.4163818359375 -0.67962646484375
357218750.0 -0.80670166015625 -0.29595947265625
388440625.0 -0.885345458984375 0.3016357421875
419662500.0 -0.516204833984375 0.86773681640625
450884375.0 0.17431640625 1.02862548828125
482106250.0 0.799224853515625 0.711395263671875
513328125.0 1.11932373046875 0.08587646484375
544550000.0 1.00262451171875 -0.68121337890625
575771875.0 0.33502197265625 -1.23828125
606993750.0 -0.55517578125 -1.1761474609375
638215625.0 -1.16619873046875 -0.58880615234375
669437500.0 -1.339111328125 0.23492431640625
700659375.0 -0.96942138671875 1.09710693359375
731881250.0 -0.00189208984375 1.54229736328125
763103125.0 1.0064697265625 1.15399169921875
794325000.0 1.46832275390625 0.27996826171875
825546875.0 1.36602783203125 -0.65252685546875
856768750.0 0.79278564453125 -1.401123046875
887990625.0 -0.29473876953125 -1.64752197265625
919212500.0 -1.28875732421875 -1.07635498046875
950434375.0 -1.64739990234375 -0.0572509765625
981656250.0 -1.3809814453125 0.94696044921875
1012878125.0 -0.5274658203125 1.672119140625
1044100000.0 0.69866943359375 1.6600341796875
1075321875.0 1.574951171875 0.8094482421875
1106543750.0 1.70330810546875 -0.31488037109375
1137765625.0 1.18463134765625 -1.2850341796875
1168987500.0 0.13580322265625 -1.7960205078125
1200209375.0 -1.06256103515625 -1.48150634765625
1231431250.0 -1.72705078125 -0.451416015625
1262653125.0 -1.5924072265625 0.68603515625
1293875000.0 -0.849365234375 1.49176025390625
1325096875.0 0.23016357421875 1.70538330078125
1356318750.0 1.23504638671875 1.2144775390625
1387540625.0 1.73919677734375 0.18646240234375
1418762500.0 1.46728515625 -0.95233154296875
1449984375.0 0.527099609375 -1.6256103515625
1481206250.0 -0.55133056640625 -1.5546875
1512428125.0 -1.34197998046875 -0.91754150390625
1543650000.0 -1.65460205078125 0.0670166015625
1574871875.0 -1.27117919921875 1.1099853515625
1606093750.0 -0.2705078125 1.6304931640625
1637315625.0 0.74395751953125 1.39874267578125
1668537500.0 1.3956298828125 0.69384765625
1699759375.0 1.5714111328125 -0.27880859375
1730981250.0 1.061767578125 -1.2298583984375
1762203125.0 0.040283203125 -1.56927490234375
1793425000.0 -0.85614013671875 -1.22479248046875
1824646875.0 -1.3931884765625 -0.51312255859375
1855868750.0 -1.47247314453125 0.43316650390625
1887090625.0 -0.87335205078125 1.28485107421875
1918312500.0 0.11859130859375 1.485595703125
1949534375.0 0.92205810546875 1.08746337890625
1980756250.0 1.37481689453125 0.36859130859375
2011978125.0 1.3580322265625 -0.53326416015625
2043200000.0 0.7476806640625 -1.26141357421875
2074421875.0 -0.158447265625 -1.431640625
2105643750.0 -0.960693359375 -1.07061767578125
2136865625.0 -1.446533203125 -0.302978515625
2168087500.0 -1.35540771484375 0.67181396484375
2199309375.0 -0.63702392578125 1.3507080078125
2230531250.0 0.28302001953125 1.4345703125
2261753125.0 1.0728759765625 1.01171875
2292975000.0 1.513427734375 0.16864013671875
2324196875.0 1.30364990234375 -0.819580078125
2355418750.0 0.52337646484375 -1.41949462890625
2386640625.0 -0.40582275390625 -1.44744873046875
2417862500.0 -1.18170166015625 -1.022216796875
2449084375.0 -1.60284423828125 -0.0830078125
2480306250.0 -1.30950927734375 0.92608642578125
2511528125.0 -0.49212646484375 1.5068359375
2542750000.0 0.49066162109375 1.534423828125
2573971875.0 1.3707275390625 0.9659423828125
2605193750.0 1.7158203125 -0.11407470703125
2636415625.0 1.2586669921875 -1.1517333984375
2667637500.0 0.30511474609375 -1.666015625
2698859375.0 -0.76959228515625 -1.53173828125
2730081250.0 -1.572509765625 -0.73809814453125
2761303125.0 -1.6793212890625 0.3900146484375
2792525000.0 -1.09722900390625 1.3076171875
2823746875.0 -0.10101318359375 1.72711181640625
2854968750.0 1.013427734375 1.4530029296875
2886190625.0 1.69140625 0.48919677734375
2917412500.0 1.59710693359375 -0.61865234375
2948634375.0 0.93756103515625 -1.43231201171875
2979856250.0 -0.1099853515625 -1.7745361328125
3011078125.0 -1.24853515625 -1.34014892578125
3042300000.0 -1.77294921875 -0.23309326171875
3073521875.0 -1.50689697265625 0.8385009765625
3104743750.0 -0.760986328125 1.567138671875
3135965625.0 0.3629150390625 1.80694580078125
3167187500.0 1.498291015625 1.1614990234375
3198409375.0 1.81298828125 -0.076416015625
3229631250.0 1.3460693359375 -1.0814208984375
3260853125.0 0.4873046875 -1.6676025390625
3292075000.0 -0.65472412109375 -1.69512939453125
3323296875.0 -1.619140625 -0.87646484375
3354518750.0 -1.7283935546875 0.330078125
3385740625.0 -1.15338134765625 1.2325439453125
3416962500.0 -0.2296142578125 1.68011474609375
3448184375.0 0.8603515625 1.5191650390625
3479406250.0 1.63470458984375 0.64190673828125
3510628125.0 1.64178466796875 -0.49591064453125
3541850000.0 0.997802734375 -1.3548583984375
3573071875.0 -0.00921630859375 -1.68096923828125
3604293750.0 -1.02777099609375 -1.33514404296875
3635515625.0 -1.62567138671875 -0.43701171875
3666737500.0 -1.5589599609375 0.6461181640625
3697959375.0 -0.8228759765625 1.47393798828125
3729181250.0 0.26898193359375 1.62811279296875
3760403125.0 1.1519775390625 1.0955810546875
3791625000.0 1.550537109375 0.21649169921875
3822846875.0 1.3988037109375 -0.7613525390625
3854068750.0 0.617919921875 -1.480712890625
3885290625.0 -0.42254638671875 -1.4791259765625
3916512500.0 -1.14239501953125 -0.9085693359375
3947734375.0 -1.4449462890625 -0.1190185546875
3978956250.0 -1.29498291015625 0.7786865234375
4010178125.0 -0.52978515625 1.45257568359375
4041400000.0 0.47296142578125 1.41314697265625
4072621875.0 1.15057373046875 0.84576416015625
4103843750.0 1.44268798828125 0.06256103515625
4135065625.0 1.26629638671875 -0.84661865234375
4166287500.0 0.45660400390625 -1.494140625
4197509375.0 -0.5587158203125 -1.41387939453125
4228731250.0 -1.2471923828125 -0.8009033203125
4259953125.0 -1.5068359375 0.0711669921875
4291175000.0 -1.186279296875 1.00946044921875
4322396875.0 -0.2872314453125 1.52569580078125
4353618750.0 0.6734619140625 1.3477783203125
4384840625.0 1.32171630859375 0.6951904296875
4416062500.0 1.49951171875 -0.22955322265625
4447284375.0 1.05303955078125 -1.1036376953125
4478506250.0 0.1707763671875 -1.494384765625
4509728125.0 -0.7330322265625 -1.3057861328125
4540950000.0 -1.3917236328125 -0.63446044921875
4572171875.0 -1.52008056640625 0.359619140625
4603393750.0 -0.970458984375 1.2125244140625
4634615625.0 -0.06048583984375 1.53570556640625
4665837500.0 0.8697509765625 1.30291748046875
4697059375.0 1.54052734375 0.51434326171875
4728281250.0 1.527587890625 -0.583984375
4759503125.0 0.821044921875 -1.36578369140625
4790725000.0 -0.146240234375 -1.57110595703125
4821946875.0 -1.08197021484375 -1.1922607421875
4853168750.0 -1.6124267578125 -0.24920654296875
4884390625.0 -1.3759765625 0.79241943359375
4915612500.0 -0.61163330078125 1.41082763671875
4946834375.0 0.32958984375 1.507568359375
4978056250.0 1.20452880859375 1.0157470703125
5009278125.0 1.5596923828125 0.03851318359375
5040500000.0 1.227294921875 -0.8751220703125
5071721875.0 0.49969482421875 -1.4146728515625
5102943750.0 -0.44818115234375 -1.49517822265625
5134165625.0 -1.3338623046875 -0.90447998046875
5165387500.0 -1.5665283203125 0.1468505859375
5196609375.0 -1.13525390625 1.0096435546875
5227831250.0 -0.35577392578125 1.50494384765625
5259053125.0 0.6873779296875 1.4903564453125
5290275000.0 1.52044677734375 0.6610107421875
5321496875.0 1.49127197265625 -0.43145751953125
5352718750.0 0.9193115234375 -1.15313720703125
5383940625.0 0.09490966796875 -1.49957275390625
5415162500.0 -0.90045166015625 -1.281982421875
5446384375.0 -1.4827880859375 -0.36944580078125
5477606250.0 -1.29736328125 0.5660400390625
5508828125.0 -0.7301025390625 1.15032958984375
5540050000.0 0.05438232421875 1.3968505859375
5571271875.0 0.937744140625 1.10693359375
5602493750.0 1.408203125 0.25823974609375
5633715625.0 1.2303466796875 -0.61322021484375
5664937500.0 0.64666748046875 -1.20062255859375
5696159375.0 -0.19732666015625 -1.38311767578125
5727381250.0 -1.02142333984375 -0.977783203125
5758603125.0 -1.3907470703125 -0.1439208984375
5789825000.0 -1.1927490234375 0.7177734375
5821046875.0 -0.50518798828125 1.30657958984375
5852268750.0 0.41204833984375 1.311767578125
5883490625.0 1.071533203125 0.77056884765625
5914712500.0 1.3016357421875 0.01873779296875
5945934375.0 1.09478759765625 -0.77581787109375
5977156250.0 0.36004638671875 -1.31109619140625
6008378125.0 -0.50927734375 -1.18072509765625
6039600000.0 -1.02081298828125 -0.648193359375
6070821875.0 -1.22418212890625 -0.00250244140625
6102043750.0 -1.0816650390625 0.76202392578125
6133265625.0 -0.3408203125 1.34417724609375
6164487500.0 0.5628662109375 1.18621826171875
6195709375.0 1.0694580078125 0.62921142578125
6226931250.0 1.27874755859375 -0.04315185546875
6258153125.0 1.10333251953125 -0.8724365234375
6289375000.0 0.255615234375 -1.44525146484375
6320596875.0 -0.6890869140625 -1.20501708984375
6351818750.0 -1.19940185546875 -0.5709228515625
6383040625.0 -1.35302734375 0.20654296875
6414262500.0 -0.9989013671875 1.05706787109375
6445484375.0 -0.07843017578125 1.45513916015625
6476706250.0 0.79571533203125 1.14654541015625
6507928125.0 1.28997802734375 0.46893310546875
6539150000.0 1.34710693359375 -0.38818359375
6570371875.0 0.8394775390625 -1.14373779296875
6601593750.0 -0.01739501953125 -1.4031982421875
6632815625.0 -0.83966064453125 -1.13494873046875
6664037500.0 -1.40045166015625 -0.4190673828125
6695259375.0 -1.37225341796875 0.56622314453125
6726481250.0 -0.70953369140625 1.25091552734375
6757703125.0 0.130859375 1.405029296875
6788925000.0 0.9552001953125 1.129638671875
6820146875.0 1.55987548828125 0.28717041015625
6851368750.0 1.324951171875 -0.81927490234375
6882590625.0 0.50579833984375 -1.33837890625
6913812500.0 -0.292724609375 -1.35546875
6945034375.0 -1.06915283203125 -1.02032470703125
6976256250.0 -1.5911865234375 -0.093017578125
7007478125.0 -1.235107421875 0.93310546875
7038700000.0 -0.4013671875 1.3428955078125
7069921875.0 0.3580322265625 1.32244873046875
7101143750.0 1.11810302734375 0.966796875
7132365625.0 1.5986328125 0.01361083984375
7163587500.0 1.15625 -1.019287109375
7194809375.0 0.30194091796875 -1.39471435546875
7226031250.0 -0.51019287109375 -1.323486328125
7257253125.0 -1.2666015625 -0.82293701171875
7288475000.0 -1.55535888671875 0.1968994140625
7319696875.0 -1.0284423828125 1.11083984375
7350918750.0 -0.16302490234375 1.44293212890625
7382140625.0 0.71710205078125 1.27508544921875
7413362500.0 1.37640380859375 0.575439453125
7444584375.0 1.411376953125 -0.40679931640625
7475806250.0 0.85675048828125 -1.14105224609375
7507028125.0 0.004638671875 -1.42828369140625
7538250000.0 -0.8873291015625 -1.12274169921875
7569471875.0 -1.33544921875 -0.31060791015625
7600693750.0 -1.201416015625 0.49688720703125
7631915625.0 -0.71661376953125 1.08624267578125
7663137500.0 0.08203125 1.35797119140625
7694359375.0 0.93878173828125 0.979156494140625
7725581250.0 1.24298095703125 0.17987060546875
7756803125.0 1.08154296875 -0.4986572265625
7788025000.0 0.66864013671875 -1.04302978515625
7819246875.0 -0.12078857421875 -1.3460693359375
7850468750.0 -0.99261474609375 -0.914825439453125
7881690625.0 -1.230224609375 -0.10491943359375
7912912500.0 -1.053466796875 0.5528564453125
7944134375.0 -0.605712890625 1.1121826171875
7975356250.0 0.2716064453125 1.33465576171875
8006578125.0 1.044921875 0.7779541015625
8037800000.0 1.19293212890625 0.01593017578125
8069021875.0 1.0059814453125 -0.61712646484375
8100243750.0 0.4996337890625 -1.15997314453125
8131465625.0 -0.38812255859375 -1.2537841796875
8162687500.0 -1.0322265625 -0.68548583984375
8193909375.0 -1.1800537109375 0.00897216796875
8225131250.0 -1.01666259765625 0.6781005859375
8256353125.0 -0.41925048828125 1.2491455078125
8287575000.0 0.500732421875 1.22515869140625
8318796875.0 1.082763671875 0.6348876953125
8350018750.0 1.24420166015625 -0.0758056640625
8381240625.0 1.0301513671875 -0.83782958984375
8412462500.0 0.25518798828125 -1.3721923828125
8443684375.0 -0.66998291015625 -1.169189453125
8474906250.0 -1.175048828125 -0.5321044921875
8506128125.0 -1.2974853515625 0.23577880859375
8537350000.0 -0.92364501953125 1.045166015625
8568571875.0 -0.01434326171875 1.394287109375
8599793750.0 0.80279541015625 1.0526123046875
8631015625.0 1.24127197265625 0.3980712890625
8662237500.0 1.28515625 -0.42877197265625
8693459375.0 0.7347412109375 -1.1768798828125
8724681250.0 -0.16290283203125 -1.3299560546875
8755903125.0 -0.879180908203125 -0.9571533203125
8787125000.0 -1.3031005859375 -0.28179931640625
8818346875.0 -1.2493896484375 0.61505126953125
8849568750.0 -0.55810546875 1.25946044921875
8880790625.0 0.29974365234375 1.28582763671875
8912012500.0 0.982177734375 0.891021728515625
8943234375.0 1.397705078125 0.13079833984375
8974456250.0 1.16595458984375 -0.837158203125
9005678125.0 0.3480224609375 -1.31292724609375
9036900000.0 -0.44610595703125 -1.2252197265625
9068121875.0 -1.10137939453125 -0.7850341796875
9099343750.0 -1.441162109375 0.09814453125
9130565625.0 -0.97918701171875 1.0120849609375
9161787500.0 -0.15386962890625 1.28314208984375
9193009375.0 0.55426025390625 1.1326904296875
9224231250.0 1.17852783203125 0.655029296875
9255453125.0 1.39697265625 -0.29620361328125
9286675000.0 0.8060302734375 -1.08251953125
9317896875.0 0.02667236328125 -1.2451171875
9349118750.0 -0.65484619140625 -1.0689697265625
9380340625.0 -1.25689697265625 -0.50909423828125
9411562500.0 -1.3106689453125 0.4771728515625
9442784375.0 -0.64801025390625 1.11663818359375
9474006250.0 0.08709716796875 1.20892333984375
9505228125.0 0.766448974609375 0.979248046875
9536450000.0 1.2740478515625 0.3123779296875
9567671875.0 1.14453125 -0.5802001953125
9598893750.0 0.52935791015625 -1.0677490234375
9630115625.0 -0.1444091796875 -1.15765380859375
9661337500.0 -0.81689453125 -0.90191650390625
9692559375.0 -1.23797607421875 -0.190185546875
9723781250.0 -1.04376220703125 0.603271484375
9755003125.0 -0.484375 1.05181884765625
9786225000.0 0.19775390625 1.1583251953125
9817446875.0 0.894927978515625 0.826446533203125
9848668750.0 1.19873046875 0.07769775390625
9879890625.0 0.967987060546875 -0.617431640625
9911112500.0 0.45233154296875 -1.050537109375
9942334375.0 -0.26776123046875 -1.1588134765625
9973556250.0 -0.9425048828125 -0.737457275390625
10004778125.0 -1.14520263671875 -0.01953125
10036000000.0 -0.9439697265625 0.61627197265625
10067221875.0 -0.44146728515625 1.096923828125
10098443750.0 0.37127685546875 1.1812744140625
10129665625.0 1.00335693359375 0.64178466796875
10160887500.0 1.1207275390625 -0.05218505859375
10192109375.0 0.917266845703125 -0.66400146484375
10223331250.0 0.3604736328125 -1.15338134765625
10254553125.0 -0.48486328125 -1.11309814453125
10285775000.0 -0.98480224609375 -0.53497314453125
10316996875.0 -1.0673828125 0.07757568359375
10348218750.0 -0.899932861328125 0.670867919921875
10379440625.0 -0.3212890625 1.17523193359375
10410662500.0 0.52801513671875 1.085693359375
10441884375.0 0.993133544921875 0.521209716796875
10473106250.0 1.1092529296875 -0.08563232421875
10504328125.0 0.948577880859375 -0.756561279296875
10535550000.0 0.24041748046875 -1.29266357421875
10566771875.0 -0.65985107421875 -1.07733154296875
10597993750.0 -1.081298828125 -0.45794677734375
10629215625.0 -1.1739501953125 0.2052001953125
10660437500.0 -0.886810302734375 0.949737548828125
10691659375.0 -0.01007080078125 1.33551025390625
10722881250.0 0.78436279296875 0.952301025390625
10754103125.0 1.1199951171875 0.32342529296875
10785325000.0 1.138671875 -0.36846923828125
10816546875.0 0.6988525390625 -1.05059814453125
10847768750.0 -0.14483642578125 -1.228515625
10878990625.0 -0.803192138671875 -0.842926025390625
10910212500.0 -1.1220703125 -0.24444580078125
10941434375.0 -1.096923828125 0.47637939453125
10972656250.0 -0.567138671875 1.084228515625
11003878125.0 0.21673583984375 1.173583984375
11035100000.0 0.848388671875 0.8212890625
11066321875.0 1.2210693359375 0.173828125
11097543750.0 1.09661865234375 -0.675537109375
11128765625.0 0.38470458984375 -1.1983642578125
11159987500.0 -0.39599609375 -1.1387939453125
11191209375.0 -0.999664306640625 -0.701751708984375
11222431250.0 -1.27227783203125 0.09356689453125
11253653125.0 -0.858306884765625 0.89300537109375
11284875000.0 -0.1156005859375 1.12664794921875
11316096875.0 0.5115966796875 0.955535888671875
11347318750.0 1.00372314453125 0.50140380859375
11378540625.0 1.1163330078125 -0.2681884765625
11409762500.0 0.6341552734375 -0.86102294921875
11440984375.0 0.035888671875 -0.977508544921875
11472206250.0 -0.481414794921875 -0.849609375
11503428125.0 -0.9521484375 -0.455810546875
11534650000.0 -1.06817626953125 0.28759765625
11565871875.0 -0.60247802734375 0.855010986328125
11597093750.0 -0.017791748046875 0.991546630859375
11628315625.0 0.54449462890625 0.87457275390625
11659537500.0 1.05963134765625 0.3924560546875
11690759375.0 1.0650634765625 -0.43463134765625
11721981250.0 0.516143798828125 -0.94085693359375
11753203125.0 -0.10662841796875 -1.036376953125
11784425000.0 -0.726104736328125 -0.80828857421875
11815646875.0 -1.1005859375 -0.15081787109375
11846868750.0 -0.89093017578125 0.55047607421875
11878090625.0 -0.3902587890625 0.909515380859375
11909312500.0 0.18634033203125 0.983489990234375
11940534375.0 0.77978515625 0.69488525390625
11971756250.0 1.0252685546875 0.03936767578125
12002978125.0 0.806427001953125 -0.53924560546875
12034200000.0 0.381317138671875 -0.88922119140625
12065421875.0 -0.2164306640625 -1.0103759765625
12096643750.0 -0.847747802734375 -0.6651611328125
12127865625.0 -1.03228759765625 0.01611328125
12159087500.0 -0.815032958984375 0.575103759765625
12190309375.0 -0.377471923828125 0.97467041015625
12221531250.0 0.33868408203125 1.08709716796875
12252753125.0 0.9801025390625 0.581787109375
12283975000.0 1.0537109375 -0.1275634765625
12315196875.0 0.8009033203125 -0.67767333984375
12346418750.0 0.2811279296875 -1.09173583984375
12377640625.0 -0.5369873046875 -1.05987548828125
12408862500.0 -1.0328369140625 -0.41961669921875
12440084375.0 -1.00897216796875 0.22454833984375
12471306250.0 -0.741119384765625 0.737091064453125
12502528125.0 -0.17803955078125 1.1212158203125
12533750000.0 0.620574951171875 0.99334716796875
12564971875.0 1.042724609375 0.36260986328125
12596193750.0 1.029541015625 -0.266357421875
12627415625.0 0.74725341796875 -0.829132080078125
12658637500.0 0.07965087890625 -1.20660400390625
12689859375.0 -0.736541748046875 -0.9666748046875
12721081250.0 -1.11700439453125 -0.30511474609375
12752303125.0 -1.096435546875 0.3812255859375
12783525000.0 -0.68658447265625 1.0279541015625
12814746875.0 0.1658935546875 1.25177001953125
12845968750.0 0.862396240234375 0.81109619140625
12877190625.0 1.1187744140625 0.17138671875
12908412500.0 1.05517578125 -0.50213623046875
12939634375.0 0.5428466796875 -1.115478515625
12970856250.0 -0.3236083984375 -1.17706298828125
13002078125.0 -0.8944091796875 -0.692779541015625
13033300000.0 -1.10614013671875 -0.0858154296875
13064521875.0 -1.00811767578125 0.591064453125
13095743750.0 -0.421142578125 1.153076171875
13126965625.0 0.4088134765625 1.11981201171875
13158187500.0 0.9466552734375 0.631866455078125
13189409375.0 1.14813232421875 -0.02105712890625
13220631250.0 0.93560791015625 -0.7471923828125
13251853125.0 0.23406982421875 -1.17218017578125
13283075000.0 -0.50714111328125 -1.0198974609375
13314296875.0 -0.986602783203125 -0.52874755859375
13345518750.0 -1.1353759765625 0.17657470703125
