!Created with skrf (http://scikit-rf.org).
# Hz S RI R 50.0 
!freq ReS11 ImS11
45000000.0 -0.07693862915039062 -0.09696197509765625
76221875.0 -0.197265625 -0.04755401611328125
107443750.0 -0.2559051513671875 0.120574951171875
138665625.0 -0.1484222412109375 0.32977294921875
169887500.0 0.1240386962890625 0.418914794921875
201109375.0 0.4234619140625 0.2820281982421875
232331250.0 0.5809326171875 -0.057891845703125
263553125.0 0.4908599853515625 -0.45489501953125
294775000.0 0.09832763671875 -0.73529052734375
325996875.0 -0.417327880859375 -0.683135986328125
357218750.0 -0.810455322265625 -0.2978515625
388440625.0 -0.88909912109375 0.3026123046875
419662500.0 -0.51898193359375 0.86993408203125
450884375.0 0.17376708984375 1.0328369140625
482106250.0 0.801849365234375 0.715576171875
513328125.0 1.12384033203125 0.087158203125
544550000.0 1.0067138671875 -0.6827392578125
575771875.0 0.3370361328125 -1.24212646484375
606993750.0 -0.55584716796875 -1.18133544921875
638215625.0 -1.17034912109375 -0.592041015625
669437500.0 -1.3443603515625 0.235107421875
700659375.0 -0.97344970703125 1.100341796875
731881250.0 -0.00360107421875 1.5484619140625
763103125.0 1.00946044921875 1.1600341796875
794325000.0 1.47454833984375 0.28216552734375
825546875.0 1.371826171875 -0.65435791015625
856768750.0 0.79638671875 -1.4071044921875
887990625.0 -0.29534912109375 -1.6546630859375
919212500.0 -1.29473876953125 -1.08209228515625
950434375.0 -1.6561279296875 -0.0572509765625
981656250.0 -1.38726806640625 0.95166015625
1012878125.0 -0.5299072265625 1.67999267578125
1044100000.0 0.70184326171875 1.66876220703125
1075321875.0 1.58282470703125 0.81427001953125
1106543750.0 1.712158203125 -0.31561279296875
1137765625.0 1.1910400390625 -1.2908935546875
1168987500.0 0.1373291015625 -1.80535888671875
1200209375.0 -1.0673828125 -1.48907470703125
1231431250.0 -1.73541259765625 -0.453369140625
1262653125.0 -1.59967041015625 0.68878173828125
1293875000.0 -0.85467529296875 1.49786376953125
1325096875.0 0.23016357421875 1.7142333984375
1356318750.0 1.2418212890625 1.22119140625
1387540625.0 1.74755859375 0.188232421875
1418762500.0 1.47393798828125 -0.95623779296875
1449984375.0 0.53033447265625 -1.6328125
1481206250.0 -0.55322265625 -1.56170654296875
1512428125.0 -1.34771728515625 -0.92181396484375
1543650000.0 -1.66204833984375 0.0677490234375
1574871875.0 -1.27703857421875 1.1141357421875
1606093750.0 -0.27252197265625 1.63812255859375
1637315625.0 0.7464599609375 1.4051513671875
1668537500.0 1.40191650390625 0.6971435546875
1699759375.0 1.5787353515625 -0.27923583984375
1730981250.0 1.0675048828125 -1.23504638671875
1762203125.0 0.04083251953125 -1.57733154296875
1793425000.0 -0.86029052734375 -1.23004150390625
1824646875.0 -1.3990478515625 -0.51556396484375
1855868750.0 -1.47918701171875 0.43585205078125
1887090625.0 -0.87664794921875 1.29180908203125
1918312500.0 0.1195068359375 1.49224853515625
1949534375.0 0.92620849609375 1.091796875
1980756250.0 1.37994384765625 0.3699951171875
2011978125.0 1.364013671875 -0.534423828125
2043200000.0 0.75225830078125 -1.2666015625
2074421875.0 -0.15863037109375 -1.43865966796875
2105643750.0 -0.965087890625 -1.0750732421875
2136865625.0 -1.45318603515625 -0.3038330078125
2168087500.0 -1.36126708984375 0.675537109375
2199309375.0 -0.6396484375 1.35723876953125
2230531250.0 0.284912109375 1.44158935546875
2261753125.0 1.0782470703125 1.0162353515625
2292975000.0 1.5203857421875 0.16888427734375
2324196875.0 1.308837890625 -0.82421875
2355418750.0 0.52490234375 -1.42572021484375
2386640625.0 -0.40838623046875 -1.4530029296875
2417862500.0 -1.18865966796875 -1.02484130859375
2449084375.0 -1.6107177734375 -0.0816650390625
2480306250.0 -1.3155517578125 0.93157958984375
2511528125.0 -0.49298095703125 1.51483154296875
2542750000.0 0.49310302734375 1.542236328125
2573971875.0 1.3797607421875 0.96966552734375
2605193750.0 1.7242431640625 -0.116455078125
2636415625.0 1.263916015625 -1.15948486328125
2667637500.0 0.30413818359375 -1.67340087890625
2698859375.0 -0.77545166015625 -1.53857421875
2730081250.0 -1.58050537109375 -0.740966796875
2761303125.0 -1.6875 0.39306640625
2792525000.0 -1.1015625 1.314697265625
2823746875.0 -0.09857177734375 1.73834228515625
2854968750.0 1.01837158203125 1.4599609375
2886190625.0 1.69964599609375 0.490478515625
2917412500.0 1.60589599609375 -0.6246337890625
2948634375.0 0.940185546875 -1.44012451171875
2979856250.0 -0.11285400390625 -1.78387451171875
3011078125.0 -1.25579833984375 -1.3446044921875
3042300000.0 -1.78271484375 -0.23187255859375
3073521875.0 -1.513671875 0.84588623046875
3104743750.0 -0.76287841796875 1.57696533203125
3135965625.0 0.36737060546875 1.8165283203125
3167187500.0 1.506103515625 1.16619873046875
3198409375.0 1.82293701171875 -0.0789794921875
3229631250.0 1.3525390625 -1.0877685546875
3260853125.0 0.488525390625 -1.67596435546875
3292075000.0 -0.66143798828125 -1.704345703125
3323296875.0 -1.6282958984375 -0.87994384765625
3354518750.0 -1.73699951171875 0.33380126953125
3385740625.0 -1.158447265625 1.2392578125
3416962500.0 -0.22967529296875 1.68914794921875
3448184375.0 0.86822509765625 1.52703857421875
3479406250.0 1.6451416015625 0.64324951171875
3510628125.0 1.6494140625 -0.50067138671875
3541850000.0 1.00146484375 -1.36138916015625
3573071875.0 -0.01190185546875 -1.68865966796875
3604293750.0 -1.03466796875 -1.33978271484375
3635515625.0 -1.63446044921875 -0.43701171875
3666737500.0 -1.56634521484375 0.65252685546875
3697959375.0 -0.82525634765625 1.4837646484375
3729181250.0 0.2738037109375 1.63677978515625
3760403125.0 1.15997314453125 1.09979248046875
3791625000.0 1.558837890625 0.2166748046875
3822846875.0 1.40576171875 -0.76580810546875
3854068750.0 0.6201171875 -1.48876953125
3885290625.0 -0.4261474609375 -1.4862060546875
3916512500.0 -1.148681640625 -0.9122314453125
3947734375.0 -1.45501708984375 -0.11639404296875
3978956250.0 -1.30120849609375 0.785400390625
4010178125.0 -0.52874755859375 1.46356201171875
4041400000.0 0.48016357421875 1.41986083984375
4072621875.0 1.15850830078125 0.84722900390625
4103843750.0 1.449951171875 0.0596923828125
4135065625.0 1.270751953125 -0.854248046875
4166287500.0 0.45404052734375 -1.50341796875
4197509375.0 -0.562744140625 -1.41729736328125
4228731250.0 -1.25384521484375 -0.801513671875
4259953125.0 -1.512939453125 0.07421875
4291175000.0 -1.19024658203125 1.01605224609375
4322396875.0 -0.2864990234375 1.53326416015625
4353618750.0 0.67864990234375 1.35369873046875
4384840625.0 1.32891845703125 0.69708251953125
4416062500.0 1.50677490234375 -0.23223876953125
4447284375.0 1.05670166015625 -1.11199951171875
4478506250.0 0.168701171875 -1.501220703125
4509728125.0 -0.7393798828125 -1.31024169921875
4540950000.0 -1.40118408203125 -0.6337890625
4572171875.0 -1.527587890625 0.3668212890625
4603393750.0 -0.97186279296875 1.2210693359375
4634615625.0 -0.05645751953125 1.5430908203125
4665837500.0 0.87841796875 1.30633544921875
4697059375.0 1.5478515625 0.51239013671875
4728281250.0 1.53253173828125 -0.5892333984375
4759503125.0 0.8214111328125 -1.37384033203125
4790725000.0 -0.1505126953125 -1.5771484375
4821946875.0 -1.09124755859375 -1.19525146484375
4853168750.0 -1.6195068359375 -0.24761962890625
4884390625.0 -1.38092041015625 0.80096435546875
4915612500.0 -0.6109619140625 1.42047119140625
4946834375.0 0.33428955078125 1.5147705078125
4978056250.0 1.21270751953125 1.01763916015625
5009278125.0 1.56927490234375 0.0343017578125
5040500000.0 1.2314453125 -0.88336181640625
5071721875.0 0.49859619140625 -1.42327880859375
5102943750.0 -0.4534912109375 -1.50128173828125
5134165625.0 -1.3438720703125 -0.9049072265625
5165387500.0 -1.57476806640625 0.15386962890625
5196609375.0 -1.13653564453125 1.0162353515625
5227831250.0 -0.353759765625 1.5123291015625
5259053125.0 0.69580078125 1.49554443359375
5290275000.0 1.53094482421875 0.6590576171875
5321496875.0 1.49530029296875 -0.43682861328125
5352718750.0 0.9207763671875 -1.15863037109375
5383940625.0 0.09295654296875 -1.5059814453125
5415162500.0 -0.908203125 -1.28558349609375
5446384375.0 -1.49139404296875 -0.3670654296875
5477606250.0 -1.30206298828125 0.571533203125
5508828125.0 -0.73089599609375 1.158447265625
5540050000.0 0.058349609375 1.40411376953125
5571271875.0 0.94696044921875 1.110595703125
5602493750.0 1.41546630859375 0.25604248046875
5633715625.0 1.2352294921875 -0.62054443359375
5664937500.0 0.646240234375 -1.2083740234375
5696159375.0 -0.203369140625 -1.3887939453125
5727381250.0 -1.030517578125 -0.97802734375
5758603125.0 -1.39739990234375 -0.13995361328125
5789825000.0 -1.19580078125 0.724365234375
5821046875.0 -0.50262451171875 1.31512451171875
5852268750.0 0.4180908203125 1.31573486328125
5883490625.0 1.077392578125 0.77099609375
5914712500.0 1.3072509765625 0.01544189453125
5945934375.0 1.09808349609375 -0.7825927734375
5977156250.0 0.35772705078125 -1.31842041015625
6008378125.0 -0.51605224609375 -1.18450927734375
6039600000.0 -1.02789306640625 -0.6478271484375
6070821875.0 -1.22930908203125 0.0001220703125
6102043750.0 -1.085205078125 0.76959228515625
6133265625.0 -0.33746337890625 1.35223388671875
6164487500.0 0.57159423828125 1.18963623046875
6195709375.0 1.07720947265625 0.62799072265625
6226931250.0 1.28497314453125 -0.04766845703125
6258153125.0 1.1051025390625 -0.8800048828125
6289375000.0 0.2490234375 -1.45330810546875
6320596875.0 -0.6964111328125 -1.20587158203125
6351818750.0 -1.20587158203125 -0.5682373046875
6383040625.0 -1.35784912109375 0.21356201171875
6414262500.0 -0.9986572265625 1.06512451171875
6445484375.0 -0.07135009765625 1.46246337890625
6476706250.0 0.80267333984375 1.14837646484375
6507928125.0 1.29638671875 0.467041015625
6539150000.0 1.3505859375 -0.39227294921875
6570371875.0 0.84039306640625 -1.1513671875
6601593750.0 -0.0223388671875 -1.41033935546875
6632815625.0 -0.8475341796875 -1.13739013671875
6664037500.0 -1.40972900390625 -0.41552734375
6695259375.0 -1.37701416015625 0.574951171875
6726481250.0 -0.70703125 1.2589111328125
6757703125.0 0.13677978515625 1.41180419921875
6788925000.0 0.963623046875 1.1314697265625
6820146875.0 1.56805419921875 0.2811279296875
6851368750.0 1.32568359375 -0.8277587890625
6882590625.0 0.50225830078125 -1.34478759765625
6913812500.0 -0.29913330078125 -1.359375
6945034375.0 -1.0780029296875 -1.0208740234375
6976256250.0 -1.5982666015625 -0.08636474609375
7007478125.0 -1.236083984375 0.939697265625
7038700000.0 -0.39801025390625 1.3502197265625
7069921875.0 0.3660888671875 1.3292236328125
7101143750.0 1.12786865234375 0.96881103515625
7132365625.0 1.60723876953125 0.00750732421875
7163587500.0 1.158203125 -1.0306396484375
7194809375.0 0.2984619140625 -1.40399169921875
7226031250.0 -0.51995849609375 -1.33001708984375
7257253125.0 -1.279296875 -0.821044921875
7288475000.0 -1.5631103515625 0.20660400390625
7319696875.0 -1.02874755859375 1.118896484375
7350918750.0 -0.1590576171875 1.4515380859375
7382140625.0 0.72662353515625 1.27996826171875
7413362500.0 1.38690185546875 0.570556640625
7444584375.0 1.41436767578125 -0.41522216796875
7475806250.0 0.85614013671875 -1.149658203125
7507028125.0 0.00103759765625 -1.433349609375
7538250000.0 -0.8968505859375 -1.12457275390625
7569471875.0 -1.34295654296875 -0.3050537109375
7600693750.0 -1.204833984375 0.5050048828125
7631915625.0 -0.7171630859375 1.09326171875
7663137500.0 0.08599853515625 1.36480712890625
7694359375.0 0.949249267578125 0.981170654296875
7725581250.0 1.25042724609375 0.17706298828125
7756803125.0 1.0860595703125 -0.50592041015625
7788025000.0 0.66937255859375 -1.0531005859375
7819246875.0 -0.1282958984375 -1.354248046875
7850468750.0 -1.00347900390625 -0.91400146484375
7881690625.0 -1.23846435546875 -0.098388671875
7912912500.0 -1.05633544921875 0.5623779296875
7944134375.0 -0.60150146484375 1.12359619140625
7975356250.0 0.28118896484375 1.33929443359375
8006578125.0 1.0565185546875 0.7747802734375
8037800000.0 1.1988525390625 0.0101318359375
8069021875.0 1.0084228515625 -0.6246337890625
8100243750.0 0.49652099609375 -1.1693115234375
8131465625.0 -0.39617919921875 -1.25653076171875
8162687500.0 -1.0394287109375 -0.68310546875
8193909375.0 -1.18585205078125 0.01409912109375
8225131250.0 -1.01947021484375 0.68731689453125
8256353125.0 -0.418212890625 1.2564697265625
8287575000.0 0.51116943359375 1.22998046875
8318796875.0 1.09027099609375 0.6331787109375
8350018750.0 1.25006103515625 -0.0814208984375
8381240625.0 1.03228759765625 -0.85076904296875
8412462500.0 0.2474365234375 -1.38153076171875
8443684375.0 -0.679443359375 -1.170166015625
8474906250.0 -1.1829833984375 -0.52728271484375
8506128125.0 -1.30145263671875 0.24444580078125
8537350000.0 -0.92218017578125 1.05364990234375
8568571875.0 -0.00830078125 1.39996337890625
8599793750.0 0.8099365234375 1.0528564453125
8631015625.0 1.24896240234375 0.39453125
8662237500.0 1.29022216796875 -0.43646240234375
8693459375.0 0.734619140625 -1.18560791015625
8724681250.0 -0.16766357421875 -1.33551025390625
8755903125.0 -0.88616943359375 -0.9599609375
8787125000.0 -1.31170654296875 -0.278076171875
8818346875.0 -1.25341796875 0.6236572265625
8849568750.0 -0.552490234375 1.26983642578125
8880790625.0 0.3067626953125 1.290283203125
8912012500.0 0.993011474609375 0.893341064453125
8943234375.0 1.407470703125 0.12030029296875
8974456250.0 1.16680908203125 -0.85247802734375
9005678125.0 0.3408203125 -1.321044921875
9036900000.0 -0.45196533203125 -1.22528076171875
9068121875.0 -1.11181640625 -0.78314208984375
9099343750.0 -1.44659423828125 0.1068115234375
9130565625.0 -0.9757080078125 1.02044677734375
9161787500.0 -0.1488037109375 1.2884521484375
9193009375.0 0.56182861328125 1.136474609375
9224231250.0 1.18511962890625 0.6529541015625
9255453125.0 1.40472412109375 -0.30487060546875
9286675000.0 0.80523681640625 -1.09210205078125
9317896875.0 0.02154541015625 -1.25286865234375
9349118750.0 -0.6619873046875 -1.07281494140625
9380340625.0 -1.26806640625 -0.505126953125
9411562500.0 -1.31591796875 0.48529052734375
9442784375.0 -0.64453125 1.125732421875
9474006250.0 0.09564208984375 1.21502685546875
9505228125.0 0.773956298828125 0.98065185546875
9536450000.0 1.281982421875 0.30657958984375
9567671875.0 1.1444091796875 -0.5914306640625
9598893750.0 0.52490234375 -1.07598876953125
9630115625.0 -0.149658203125 -1.1612548828125
9661337500.0 -0.828155517578125 -0.9010009765625
9692559375.0 -1.2454833984375 -0.181884765625
9723781250.0 -1.04241943359375 0.61126708984375
9755003125.0 -0.4818115234375 1.0576171875
9786225000.0 0.203125 1.1624755859375
9817446875.0 0.903411865234375 0.82598876953125
9848668750.0 1.20556640625 0.06878662109375
9879890625.0 0.968963623046875 -0.62396240234375
9911112500.0 0.4482421875 -1.0606689453125
9942334375.0 -0.27777099609375 -1.16461181640625
9973556250.0 -0.953765869140625 -0.735565185546875
10004778125.0 -1.15106201171875 -0.00970458984375
10036000000.0 -0.944427490234375 0.623260498046875
10067221875.0 -0.435302734375 1.10662841796875
10098443750.0 0.38037109375 1.18328857421875
10129665625.0 1.01300048828125 0.63677978515625
10160887500.0 1.12274169921875 -0.05938720703125
10192109375.0 0.916656494140625 -0.670166015625
10223331250.0 0.3546142578125 -1.16015625
10254553125.0 -0.49517822265625 -1.11407470703125
10285775000.0 -0.991363525390625 -0.5308837890625
10316996875.0 -1.07000732421875 0.0826416015625
10348218750.0 -0.8997802734375 0.676055908203125
10379440625.0 -0.31634521484375 1.18121337890625
10410662500.0 0.535888671875 1.08636474609375
10441884375.0 0.9989013671875 0.5177001953125
10473106250.0 1.114013671875 -0.0897216796875
10504328125.0 0.948822021484375 -0.76611328125
10535550000.0 0.23260498046875 -1.30364990234375
10566771875.0 -0.66705322265625 -1.076416015625
10597993750.0 -1.08807373046875 -0.4537353515625
10629215625.0 -1.1788330078125 0.2127685546875
10660437500.0 -0.88427734375 0.962493896484375
10691659375.0 0.0 1.340576171875
10722881250.0 0.794525146484375 0.94970703125
10754103125.0 1.12481689453125 0.31982421875
10785325000.0 1.1429443359375 -0.37457275390625
10816546875.0 0.6976318359375 -1.05841064453125
10847768750.0 -0.1533203125 -1.23333740234375
10878990625.0 -0.812347412109375 -0.841705322265625
10910212500.0 -1.128662109375 -0.2393798828125
10941434375.0 -1.099609375 0.4869384765625
10972656250.0 -0.56414794921875 1.0928955078125
11003878125.0 0.22735595703125 1.178466796875
11035100000.0 0.857025146484375 0.820770263671875
11066321875.0 1.22796630859375 0.1673583984375
11097543750.0 1.09844970703125 -0.68878173828125
11128765625.0 0.37921142578125 -1.2078857421875
11159987500.0 -0.40460205078125 -1.14093017578125
11191209375.0 -1.01068115234375 -0.6986083984375
11222431250.0 -1.27679443359375 0.10223388671875
11253653125.0 -0.855224609375 0.902679443359375
11284875000.0 -0.10687255859375 1.132080078125
11316096875.0 0.5191650390625 0.95703125
11347318750.0 1.01031494140625 0.4986572265625
11378540625.0 1.120849609375 -0.27996826171875
11409762500.0 0.631683349609375 -0.8663330078125
11440984375.0 0.03009033203125 -0.98284912109375
11472206250.0 -0.487213134765625 -0.852020263671875
11503428125.0 -0.960113525390625 -0.452301025390625
11534650000.0 -1.07177734375 0.296875
11565871875.0 -0.5985107421875 0.86016845703125
11597093750.0 -0.013092041015625 0.995758056640625
11628315625.0 0.552764892578125 0.87640380859375
11659537500.0 1.06890869140625 0.386474609375
11690759375.0 1.0665283203125 -0.44415283203125
11721981250.0 0.51177978515625 -0.948455810546875
11753203125.0 -0.113525390625 -1.0406494140625
11784425000.0 -0.734039306640625 -0.80712890625
11815646875.0 -1.1075439453125 -0.1431884765625
11846868750.0 -0.89044189453125 0.56085205078125
11878090625.0 -0.386260986328125 0.914947509765625
11909312500.0 0.193145751953125 0.9869384765625
11940534375.0 0.788543701171875 0.692626953125
11971756250.0 1.02862548828125 0.032958984375
12002978125.0 0.806182861328125 -0.545623779296875
12034200000.0 0.3782958984375 -0.89556884765625
12065421875.0 -0.223388671875 -1.013427734375
12096643750.0 -0.857330322265625 -0.66058349609375
12127865625.0 -1.03802490234375 0.02532958984375
12159087500.0 -0.814697265625 0.58392333984375
12190309375.0 -0.373382568359375 0.98101806640625
12221531250.0 0.35015869140625 1.09197998046875
12252753125.0 0.989013671875 0.575469970703125
12283975000.0 1.05694580078125 -0.13690185546875
12315196875.0 0.79937744140625 -0.686279296875
12346418750.0 0.273193359375 -1.09991455078125
12377640625.0 -0.54901123046875 -1.0611572265625
12408862500.0 -1.0411376953125 -0.4127197265625
12440084375.0 -1.009765625 0.2320556640625
12471306250.0 -0.740325927734375 0.745697021484375
12502528125.0 -0.17254638671875 1.12799072265625
12533750000.0 0.630096435546875 0.994049072265625
12564971875.0 1.0496826171875 0.35736083984375
12596193750.0 1.03253173828125 -0.272705078125
12627415625.0 0.74652099609375 -0.837738037109375
12658637500.0 0.0694580078125 -1.21429443359375
12689859375.0 -0.746490478515625 -0.964508056640625
12721081250.0 -1.124267578125 -0.2979736328125
12752303125.0 -1.1004638671875 0.39312744140625
12783525000.0 -0.6822509765625 1.04071044921875
12814746875.0 0.1778564453125 1.25555419921875
12845968750.0 0.87255859375 0.806976318359375
12877190625.0 1.12396240234375 0.16546630859375
12908412500.0 1.05621337890625 -0.51043701171875
12939634375.0 0.53558349609375 -1.12493896484375
12970856250.0 -0.33251953125 -1.176513671875
13002078125.0 -0.90240478515625 -0.688751220703125
13033300000.0 -1.11151123046875 -0.07867431640625
13064521875.0 -1.009765625 0.60552978515625
13095743750.0 -0.410400390625 1.16595458984375
13126965625.0 0.41998291015625 1.1217041015625
13158187500.0 0.955413818359375 0.6275634765625
13189409375.0 1.15374755859375 -0.0294189453125
13220631250.0 0.934906005859375 -0.76092529296875
13251853125.0 0.223876953125 -1.1805419921875
13283075000.0 -0.5191650390625 -1.02044677734375
13314296875.0 -0.996826171875 -0.52392578125
13345518750.0 -1.14080810546875 0.18927001953125
