!Created with skrf (http://scikit-rf.org).
# Hz S RI R 50.0 
!freq ReS11 ImS11
45000000.0 -0.0767059326171875 -0.09704971313476562
76221875.0 -0.19677734375 -0.0477294921875
107443750.0 -0.2557220458984375 0.1196441650390625
138665625.0 -0.14910888671875 0.32891845703125
169887500.0 0.1228485107421875 0.4187469482421875
201109375.0 0.422119140625 0.28240966796875
232331250.0 0.580322265625 -0.05645751953125
263553125.0 0.4912872314453125 -0.4530487060546875
294775000.0 0.100006103515625 -0.733795166015625
325996875.0 -0.415313720703125 -0.683135986328125
357218750.0 -0.8079833984375 -0.299468994140625
388440625.0 -0.8885498046875 0.299652099609375
419662500.0 -0.520355224609375 0.8675537109375
450884375.0 0.1712646484375 1.0318603515625
482106250.0 0.798797607421875 0.7158203125
513328125.0 1.1217041015625 0.0894775390625
544550000.0 1.00689697265625 -0.67913818359375
575771875.0 0.3392333984375 -1.2398681640625
606993750.0 -0.55267333984375 -1.18072509765625
638215625.0 -1.16717529296875 -0.59368896484375
669437500.0 -1.343017578125 0.232177734375
700659375.0 -0.97491455078125 1.09674072265625
731881250.0 -0.00689697265625 1.54608154296875
763103125.0 1.00543212890625 1.16046142578125
794325000.0 1.4715576171875 0.2847900390625
825546875.0 1.3712158203125 -0.650634765625
856768750.0 0.79833984375 -1.402587890625
887990625.0 -0.29058837890625 -1.65234375
919212500.0 -1.28912353515625 -1.08306884765625
950434375.0 -1.6527099609375 -0.06158447265625
981656250.0 -1.38726806640625 0.9462890625
1012878125.0 -0.533447265625 1.67498779296875
1044100000.0 0.6964111328125 1.667236328125
1075321875.0 1.57763671875 0.81640625
1106543750.0 1.70941162109375 -0.31109619140625
1137765625.0 1.19146728515625 -1.2850341796875
1168987500.0 0.14154052734375 -1.8017578125
1200209375.0 -1.062744140625 -1.48919677734375
1231431250.0 -1.73114013671875 -0.45697021484375
1262653125.0 -1.59881591796875 0.68341064453125
1293875000.0 -0.85662841796875 1.49298095703125
1325096875.0 0.22540283203125 1.71136474609375
1356318750.0 1.2362060546875 1.221923828125
1387540625.0 1.743408203125 0.19232177734375
1418762500.0 1.47406005859375 -0.95172119140625
1449984375.0 0.53326416015625 -1.628662109375
1481206250.0 -0.54864501953125 -1.56024169921875
1512428125.0 -1.343505859375 -0.923583984375
1543650000.0 -1.65911865234375 0.0634765625
1574871875.0 -1.2777099609375 1.10906982421875
1606093750.0 -0.27606201171875 1.63409423828125
1637315625.0 0.74151611328125 1.4044189453125
1668537500.0 1.398193359375 0.69927978515625
1699759375.0 1.576904296875 -0.275390625
1730981250.0 1.06829833984375 -1.23028564453125
1762203125.0 0.04443359375 -1.5740966796875
1793425000.0 -0.856201171875 -1.23016357421875
1824646875.0 -1.39556884765625 -0.518310546875
1855868750.0 -1.47796630859375 0.43145751953125
1887090625.0 -0.8785400390625 1.28692626953125
1918312500.0 0.11572265625 1.48980712890625
1949534375.0 0.9222412109375 1.09222412109375
1980756250.0 1.37744140625 0.3726806640625
2011978125.0 1.36285400390625 -0.53076171875
2043200000.0 0.75341796875 -1.2630615234375
2074421875.0 -0.15533447265625 -1.4364013671875
2105643750.0 -0.9608154296875 -1.0760498046875
2136865625.0 -1.44976806640625 -0.3076171875
2168087500.0 -1.36077880859375 0.6710205078125
2199309375.0 -0.64215087890625 1.35321044921875
2230531250.0 0.28131103515625 1.4395751953125
2261753125.0 1.07366943359375 1.01702880859375
2292975000.0 1.517333984375 0.1722412109375
2324196875.0 1.30902099609375 -0.81890869140625
2355418750.0 0.5279541015625 -1.421875
2386640625.0 -0.4034423828125 -1.45184326171875
2417862500.0 -1.183349609375 -1.02703857421875
2449084375.0 -1.60791015625 -0.08538818359375
2480306250.0 -1.31524658203125 0.92694091796875
2511528125.0 -0.4967041015625 1.50946044921875
2542750000.0 0.4888916015625 1.54083251953125
2573971875.0 1.3721923828125 0.970947265625
2605193750.0 1.72088623046875 -0.111328125
2636415625.0 1.26507568359375 -1.15240478515625
2667637500.0 0.3082275390625 -1.67120361328125
2698859375.0 -0.7705078125 -1.53814697265625
2730081250.0 -1.57525634765625 -0.7440185546875
2761303125.0 -1.68536376953125 0.3876953125
2792525000.0 -1.1031494140625 1.308837890625
2823746875.0 -0.10406494140625 1.7327880859375
2854968750.0 1.01470947265625 1.46014404296875
2886190625.0 1.695068359375 0.4942626953125
2917412500.0 1.6033935546875 -0.6165771484375
2948634375.0 0.942626953125 -1.4359130859375
2979856250.0 -0.107177734375 -1.78057861328125
3011078125.0 -1.24957275390625 -1.34613037109375
3042300000.0 -1.778564453125 -0.23675537109375
3073521875.0 -1.512451171875 0.837890625
3104743750.0 -0.76678466796875 1.57122802734375
3135965625.0 0.361572265625 1.81353759765625
3167187500.0 1.502685546875 1.16778564453125
3198409375.0 1.81903076171875 -0.07318115234375
3229631250.0 1.35272216796875 -1.08258056640625
3260853125.0 0.4918212890625 -1.6717529296875
3292075000.0 -0.6552734375 -1.701904296875
3323296875.0 -1.62261962890625 -0.88299560546875
3354518750.0 -1.734619140625 0.32867431640625
3385740625.0 -1.15911865234375 1.2330322265625
3416962500.0 -0.2330322265625 1.68524169921875
3448184375.0 0.8614501953125 1.52532958984375
3479406250.0 1.63873291015625 0.646484375
3510628125.0 1.6468505859375 -0.49407958984375
3541850000.0 1.003173828125 -1.357177734375
3573071875.0 -0.0068359375 -1.68560791015625
3604293750.0 -1.029052734375 -1.34033203125
3635515625.0 -1.63055419921875 -0.44036865234375
3666737500.0 -1.565185546875 0.6468505859375
3697959375.0 -0.82757568359375 1.4788818359375
3729181250.0 0.267333984375 1.634033203125
3760403125.0 1.15325927734375 1.1016845703125
3791625000.0 1.5555419921875 0.2200927734375
3822846875.0 1.4056396484375 -0.76177978515625
3854068750.0 0.62322998046875 -1.48443603515625
3885290625.0 -0.421142578125 -1.48455810546875
3916512500.0 -1.14300537109375 -0.913330078125
3947734375.0 -1.4517822265625 -0.12042236328125
3978956250.0 -1.30108642578125 0.77972412109375
4010178125.0 -0.53265380859375 1.45806884765625
4041400000.0 0.47564697265625 1.418701171875
4072621875.0 1.15478515625 0.84869384765625
4103843750.0 1.4476318359375 0.0634765625
4135065625.0 1.2705078125 -0.84759521484375
4166287500.0 0.45831298828125 -1.4996337890625
4197509375.0 -0.5582275390625 -1.4169921875
4228731250.0 -1.2501220703125 -0.803955078125
4259953125.0 -1.5123291015625 0.07110595703125
4291175000.0 -1.19110107421875 1.0111083984375
4322396875.0 -0.291015625 1.52783203125
4353618750.0 0.67340087890625 1.3525390625
4384840625.0 1.325439453125 0.698974609375
4416062500.0 1.504150390625 -0.2274169921875
4447284375.0 1.05743408203125 -1.10614013671875
4478506250.0 0.1732177734375 -1.49786376953125
4509728125.0 -0.73394775390625 -1.31011962890625
4540950000.0 -1.3970947265625 -0.6368408203125
4572171875.0 -1.525146484375 0.36053466796875
4603393750.0 -0.9739990234375 1.2144775390625
4634615625.0 -0.06060791015625 1.53997802734375
4665837500.0 0.87213134765625 1.3070068359375
4697059375.0 1.544189453125 0.5162353515625
4728281250.0 1.5318603515625 -0.58416748046875
4759503125.0 0.8240966796875 -1.37017822265625
4790725000.0 -0.14544677734375 -1.5751953125
4821946875.0 -1.08502197265625 -1.1964111328125
4853168750.0 -1.6165771484375 -0.25238037109375
4884390625.0 -1.3807373046875 0.79437255859375
4915612500.0 -0.614013671875 1.41644287109375
4946834375.0 0.3291015625 1.51239013671875
4978056250.0 1.208740234375 1.01959228515625
5009278125.0 1.564453125 0.039794921875
5040500000.0 1.2320556640625 -0.87835693359375
5071721875.0 0.50299072265625 -1.41766357421875
5102943750.0 -0.44775390625 -1.499755859375
5134165625.0 -1.33953857421875 -0.90679931640625
5165387500.0 -1.57122802734375 0.147705078125
5196609375.0 -1.13818359375 1.01220703125
5227831250.0 -0.35772705078125 1.509765625
5259053125.0 0.6910400390625 1.49591064453125
5290275000.0 1.52508544921875 0.6629638671875
5321496875.0 1.49468994140625 -0.4317626953125
5352718750.0 0.92254638671875 -1.155029296875
5383940625.0 0.09735107421875 -1.5030517578125
5415162500.0 -0.90240478515625 -1.28643798828125
5446384375.0 -1.48699951171875 -0.37060546875
5477606250.0 -1.30157470703125 0.5670166015625
5508828125.0 -0.73260498046875 1.1541748046875
5540050000.0 0.05450439453125 1.40240478515625
5571271875.0 0.94171142578125 1.1112060546875
5602493750.0 1.4119873046875 0.25970458984375
5633715625.0 1.2349853515625 -0.615478515625
5664937500.0 0.649169921875 -1.20440673828125
5696159375.0 -0.1988525390625 -1.3865966796875
5727381250.0 -1.0244140625 -0.9794921875
5758603125.0 -1.39434814453125 -0.1439208984375
5789825000.0 -1.19622802734375 0.72003173828125
5821046875.0 -0.50653076171875 1.310302734375
5852268750.0 0.41351318359375 1.3154296875
5883490625.0 1.0733642578125 0.772705078125
5914712500.0 1.30523681640625 0.01922607421875
5945934375.0 1.0985107421875 -0.7774658203125
5977156250.0 0.36114501953125 -1.3157958984375
6008378125.0 -0.5115966796875 -1.18426513671875
6039600000.0 -1.0235595703125 -0.65008544921875
6070821875.0 -1.22637939453125 -0.00439453125
6102043750.0 -1.086181640625 0.765869140625
6133265625.0 -0.34130859375 1.348876953125
6164487500.0 0.5660400390625 1.18951416015625
6195709375.0 1.07281494140625 0.63067626953125
6226931250.0 1.2828369140625 -0.0435791015625
6258153125.0 1.1065673828125 -0.87432861328125
6289375000.0 0.25384521484375 -1.45074462890625
6320596875.0 -0.69195556640625 -1.2066650390625
6351818750.0 -1.2030029296875 -0.57171630859375
6383040625.0 -1.35687255859375 0.20843505859375
6414262500.0 -1.00054931640625 1.06005859375
6445484375.0 -0.0767822265625 1.4595947265625
6476706250.0 0.79730224609375 1.14874267578125
6507928125.0 1.29315185546875 0.469970703125
6539150000.0 1.35009765625 -0.3878173828125
6570371875.0 0.841796875 -1.1470947265625
6601593750.0 -0.018310546875 -1.408203125
6632815625.0 -0.841796875 -1.13800048828125
6664037500.0 -1.4049072265625 -0.419921875
6695259375.0 -1.3768310546875 0.5692138671875
6726481250.0 -0.71038818359375 1.25482177734375
6757703125.0 0.13232421875 1.40966796875
6788925000.0 0.9593505859375 1.13275146484375
6820146875.0 1.56463623046875 0.28570556640625
6851368750.0 1.32745361328125 -0.82403564453125
6882590625.0 0.50543212890625 -1.341796875
6913812500.0 -0.2930908203125 -1.35797119140625
6945034375.0 -1.07330322265625 -1.0223388671875
6976256250.0 -1.59613037109375 -0.09088134765625
7007478125.0 -1.2373046875 0.93658447265625
7038700000.0 -0.40289306640625 1.344970703125
7069921875.0 0.3603515625 1.3277587890625
7101143750.0 1.1212158203125 0.970947265625
7132365625.0 1.6033935546875 0.0133056640625
7163587500.0 1.15972900390625 -1.0244140625
7194809375.0 0.30316162109375 -1.400390625
7226031250.0 -0.5128173828125 -1.32781982421875
7257253125.0 -1.2718505859375 -0.8245849609375
7288475000.0 -1.56256103515625 0.20208740234375
7319696875.0 -1.0313720703125 1.11175537109375
7350918750.0 -0.16314697265625 1.4483642578125
7382140625.0 0.71734619140625 1.27880859375
7413362500.0 1.38299560546875 0.57354736328125
7444584375.0 1.4136962890625 -0.40789794921875
7475806250.0 0.85888671875 -1.1453857421875
7507028125.0 0.00390625 -1.433837890625
7538250000.0 -0.89166259765625 -1.125
7569471875.0 -1.34014892578125 -0.30963134765625
7600693750.0 -1.2047119140625 0.49932861328125
7631915625.0 -0.71917724609375 1.08917236328125
7663137500.0 0.08282470703125 1.36199951171875
7694359375.0 0.944000244140625 0.9825439453125
7725581250.0 1.2476806640625 0.17962646484375
7756803125.0 1.0865478515625 -0.50335693359375
7788025000.0 0.671875 -1.04693603515625
7819246875.0 -0.12359619140625 -1.353271484375
7850468750.0 -0.998046875 -0.9163818359375
7881690625.0 -1.2357177734375 -0.1026611328125
7912912500.0 -1.05694580078125 0.5570068359375
7944134375.0 -0.6058349609375 1.115478515625
7975356250.0 0.27557373046875 1.338134765625
8006578125.0 1.04864501953125 0.77813720703125
8037800000.0 1.19451904296875 0.015380859375
8069021875.0 1.0087890625 -0.62109375
8100243750.0 0.4993896484375 -1.16619873046875
8131465625.0 -0.3897705078125 -1.2559814453125
8162687500.0 -1.03619384765625 -0.685791015625
8193909375.0 -1.18408203125 0.0101318359375
8225131250.0 -1.020263671875 0.68084716796875
8256353125.0 -0.42071533203125 1.2542724609375
8287575000.0 0.5048828125 1.22821044921875
8318796875.0 1.08575439453125 0.6351318359375
8350018750.0 1.2484130859375 -0.07781982421875
8381240625.0 1.0330810546875 -0.84307861328125
8412462500.0 0.252685546875 -1.377197265625
8443684375.0 -0.67437744140625 -1.17169189453125
8474906250.0 -1.177734375 -0.53155517578125
8506128125.0 -1.299560546875 0.23931884765625
8537350000.0 -0.92388916015625 1.05010986328125
8568571875.0 -0.01385498046875 1.39794921875
8599793750.0 0.80377197265625 1.05419921875
8631015625.0 1.24322509765625 0.3978271484375
8662237500.0 1.28863525390625 -0.43218994140625
8693459375.0 0.73663330078125 -1.18084716796875
8724681250.0 -0.163818359375 -1.33392333984375
8755903125.0 -0.882659912109375 -0.959625244140625
8787125000.0 -1.30987548828125 -0.28082275390625
8818346875.0 -1.25482177734375 0.62042236328125
8849568750.0 -0.55584716796875 1.26348876953125
8880790625.0 0.302734375 1.28948974609375
8912012500.0 0.983673095703125 0.8948974609375
8943234375.0 1.4053955078125 0.125732421875
8974456250.0 1.167724609375 -0.84674072265625
9005678125.0 0.347900390625 -1.31683349609375
9036900000.0 -0.44818115234375 -1.22564697265625
9068121875.0 -1.107177734375 -0.7847900390625
9099343750.0 -1.44482421875 0.10198974609375
9130565625.0 -0.97882080078125 1.01654052734375
9161787500.0 -0.1512451171875 1.2857666015625
9193009375.0 0.55743408203125 1.1363525390625
9224231250.0 1.1846923828125 0.6541748046875
9255453125.0 1.40374755859375 -0.29931640625
9286675000.0 0.80828857421875 -1.08868408203125
9317896875.0 0.02532958984375 -1.25067138671875
9349118750.0 -0.6572265625 -1.0728759765625
9380340625.0 -1.26220703125 -0.5106201171875
9411562500.0 -1.3143310546875 0.480712890625
9442784375.0 -0.64666748046875 1.121826171875
9474006250.0 0.09112548828125 1.21405029296875
9505228125.0 0.769134521484375 0.98236083984375
9536450000.0 1.27825927734375 0.31109619140625
9567671875.0 1.1453857421875 -0.58587646484375
9598893750.0 0.5284423828125 -1.07012939453125
9630115625.0 -0.14593505859375 -1.160400390625
9661337500.0 -0.822601318359375 -0.902130126953125
9692559375.0 -1.2413330078125 -0.18780517578125
9723781250.0 -1.04437255859375 0.60687255859375
9755003125.0 -0.48590087890625 1.052978515625
9786225000.0 0.20166015625 1.16326904296875
9817446875.0 0.901092529296875 0.827972412109375
9848668750.0 1.20233154296875 0.07537841796875
9879890625.0 0.9697265625 -0.6207275390625
9911112500.0 0.4517822265625 -1.055908203125
9942334375.0 -0.27117919921875 -1.163330078125
9973556250.0 -0.9508056640625 -0.737152099609375
10004778125.0 -1.14984130859375 -0.013671875
10036000000.0 -0.945953369140625 0.621185302734375
10067221875.0 -0.44012451171875 1.10089111328125
10098443750.0 0.3741455078125 1.18353271484375
10129665625.0 1.00726318359375 0.63995361328125
10160887500.0 1.1221923828125 -0.05511474609375
10192109375.0 0.917205810546875 -0.66644287109375
10223331250.0 0.3590087890625 -1.15618896484375
10254553125.0 -0.4891357421875 -1.11444091796875
10285775000.0 -0.988037109375 -0.534423828125
10316996875.0 -1.06927490234375 0.07806396484375
10348218750.0 -0.901123046875 0.673187255859375
10379440625.0 -0.320068359375 1.17962646484375
10410662500.0 0.53094482421875 1.08697509765625
10441884375.0 0.997222900390625 0.520477294921875
10473106250.0 1.11175537109375 -0.08624267578125
10504328125.0 0.951263427734375 -0.76177978515625
10535550000.0 0.2366943359375 -1.299560546875
10566771875.0 -0.662353515625 -1.07769775390625
10597993750.0 -1.08624267578125 -0.456787109375
10629215625.0 -1.177490234375 0.2083740234375
10660437500.0 -0.8885498046875 0.958648681640625
10691659375.0 -0.0050048828125 1.33935546875
10722881250.0 0.787628173828125 0.9512939453125
10754103125.0 1.12176513671875 0.3231201171875
10785325000.0 1.1427001953125 -0.37078857421875
10816546875.0 0.70001220703125 -1.0535888671875
10847768750.0 -0.14837646484375 -1.23114013671875
10878990625.0 -0.80706787109375 -0.84332275390625
10910212500.0 -1.12677001953125 -0.24285888671875
10941434375.0 -1.09942626953125 0.480712890625
10972656250.0 -0.56781005859375 1.089111328125
11003878125.0 0.2210693359375 1.176513671875
11035100000.0 0.851165771484375 0.822296142578125
11066321875.0 1.2259521484375 0.17108154296875
11097543750.0 1.10040283203125 -0.68115234375
11128765625.0 0.3839111328125 -1.20281982421875
11159987500.0 -0.4019775390625 -1.14215087890625
11191209375.0 -1.00439453125 -0.70147705078125
11222431250.0 -1.2755126953125 0.09710693359375
11253653125.0 -0.85833740234375 0.898773193359375
11284875000.0 -0.1121826171875 1.1275634765625
11316096875.0 0.513671875 0.957183837890625
11347318750.0 1.0078125 0.501220703125
11378540625.0 1.1187744140625 -0.27325439453125
11409762500.0 0.633819580078125 -0.86181640625
11440984375.0 0.0343017578125 -0.979644775390625
11472206250.0 -0.484619140625 -0.853179931640625
11503428125.0 -0.95770263671875 -0.45452880859375
11534650000.0 -1.07049560546875 0.29180908203125
11565871875.0 -0.60137939453125 0.85784912109375
11597093750.0 -0.016571044921875 0.992584228515625
11628315625.0 0.5477294921875 0.876800537109375
11659537500.0 1.065185546875 0.39044189453125
11690759375.0 1.06591796875 -0.43804931640625
11721981250.0 0.515045166015625 -0.9453125
11753203125.0 -0.109619140625 -1.0394287109375
11784425000.0 -0.72991943359375 -0.808685302734375
11815646875.0 -1.1053466796875 -0.14697265625
11846868750.0 -0.89080810546875 0.554595947265625
11878090625.0 -0.389984130859375 0.91326904296875
11909312500.0 0.190399169921875 0.986602783203125
11940534375.0 0.785308837890625 0.694000244140625
11971756250.0 1.02764892578125 0.0360107421875
12002978125.0 0.80682373046875 -0.541900634765625
12034200000.0 0.379669189453125 -0.893951416015625
12065421875.0 -0.21942138671875 -1.01287841796875
12096643750.0 -0.85308837890625 -0.664031982421875
12127865625.0 -1.03692626953125 0.0206298828125
12159087500.0 -0.81646728515625 0.5814208984375
12190309375.0 -0.375762939453125 0.978759765625
12221531250.0 0.34423828125 1.08941650390625
12252753125.0 0.98565673828125 0.577728271484375
12283975000.0 1.05584716796875 -0.1312255859375
12315196875.0 0.8009033203125 -0.6806640625
12346418750.0 0.27862548828125 -1.096435546875
12377640625.0 -0.54217529296875 -1.06097412109375
12408862500.0 -1.03857421875 -0.41632080078125
12440084375.0 -1.010009765625 0.2279052734375
12471306250.0 -0.742034912109375 0.742156982421875
12502528125.0 -0.1768798828125 1.12518310546875
12533750000.0 0.624969482421875 0.993682861328125
12564971875.0 1.04388427734375 0.36163330078125
12596193750.0 1.03143310546875 -0.26806640625
12627415625.0 0.74835205078125 -0.83514404296875
12658637500.0 0.07574462890625 -1.2119140625
12689859375.0 -0.74029541015625 -0.966339111328125
12721081250.0 -1.12115478515625 -0.302734375
12752303125.0 -1.099609375 0.38751220703125
12783525000.0 -0.68572998046875 1.034912109375
12814746875.0 0.17083740234375 1.2540283203125
12845968750.0 0.868927001953125 0.81011962890625
12877190625.0 1.12188720703125 0.16796875
12908412500.0 1.056884765625 -0.507568359375
12939634375.0 0.54022216796875 -1.1221923828125
12970856250.0 -0.324951171875 -1.17572021484375
13002078125.0 -0.898956298828125 -0.692169189453125
13033300000.0 -1.10906982421875 -0.08392333984375
13064521875.0 -1.01153564453125 0.5992431640625
13095743750.0 -0.41864013671875 1.15899658203125
13126965625.0 0.4139404296875 1.1217041015625
13158187500.0 0.95196533203125 0.630859375
13189409375.0 1.15142822265625 -0.02484130859375
13220631250.0 0.935638427734375 -0.754791259765625
13251853125.0 0.2301025390625 -1.1746826171875
13283075000.0 -0.51171875 -1.019775390625
13314296875.0 -0.99212646484375 -0.5262451171875
13345518750.0 -1.13818359375 0.1824951171875
13376740625.0 -0.7506103515625 0.86578369140625
