!Created with skrf (http://scikit-rf.org).
# Hz S RI R 50.0 
!freq ReS11 ImS11
45000000.0 -0.07689666748046875 -0.09683609008789062
76221875.0 -0.19695281982421875 -0.04749298095703125
107443750.0 -0.2556304931640625 0.120208740234375
138665625.0 -0.1484832763671875 0.3294525146484375
169887500.0 0.123870849609375 0.418426513671875
201109375.0 0.4229888916015625 0.2816162109375
232331250.0 0.580413818359375 -0.057952880859375
263553125.0 0.490478515625 -0.4542236328125
294775000.0 0.098388671875 -0.734375
325996875.0 -0.417022705078125 -0.682464599609375
357218750.0 -0.8089599609375 -0.297698974609375
388440625.0 -0.887969970703125 0.302154541015625
419662500.0 -0.5181884765625 0.86883544921875
450884375.0 0.1737060546875 1.031494140625
482106250.0 0.80084228515625 0.714630126953125
513328125.0 1.12237548828125 0.08685302734375
544550000.0 1.00567626953125 -0.68182373046875
575771875.0 0.33648681640625 -1.24072265625
606993750.0 -0.55535888671875 -1.18011474609375
638215625.0 -1.16900634765625 -0.59136962890625
669437500.0 -1.343017578125 0.23492431640625
700659375.0 -0.9725341796875 1.09893798828125
731881250.0 -0.00323486328125 1.54656982421875
763103125.0 1.00848388671875 1.15850830078125
794325000.0 1.4727783203125 0.2818603515625
825546875.0 1.37030029296875 -0.65374755859375
856768750.0 0.79522705078125 -1.405029296875
887990625.0 -0.294921875 -1.65264892578125
919212500.0 -1.29290771484375 -1.08056640625
950434375.0 -1.65350341796875 -0.05767822265625
981656250.0 -1.38543701171875 0.9503173828125
1012878125.0 -0.52978515625 1.67718505859375
1044100000.0 0.70062255859375 1.66632080078125
1075321875.0 1.5804443359375 0.8131103515625
1106543750.0 1.70947265625 -0.3154296875
1137765625.0 1.1893310546875 -1.2886962890625
1168987500.0 0.13739013671875 -1.80267333984375
1200209375.0 -1.066162109375 -1.48712158203125
1231431250.0 -1.73297119140625 -0.4530029296875
1262653125.0 -1.5980224609375 0.6881103515625
1293875000.0 -0.85357666015625 1.49603271484375
1325096875.0 0.2298583984375 1.712158203125
1356318750.0 1.23980712890625 1.21978759765625
1387540625.0 1.74505615234375 0.1878662109375
1418762500.0 1.47265625 -0.95599365234375
1449984375.0 0.52960205078125 -1.63055419921875
1481206250.0 -0.552490234375 -1.55963134765625
1512428125.0 -1.34613037109375 -0.92108154296875
1543650000.0 -1.65966796875 0.067138671875
1574871875.0 -1.27569580078125 1.1119384765625
1606093750.0 -0.272216796875 1.63568115234375
1637315625.0 0.7454833984375 1.40374755859375
1668537500.0 1.400146484375 0.69622802734375
1699759375.0 1.57672119140625 -0.27862548828125
1730981250.0 1.06610107421875 -1.2332763671875
1762203125.0 0.0406494140625 -1.57513427734375
1793425000.0 -0.8592529296875 -1.2288818359375
1824646875.0 -1.3975830078125 -0.5150146484375
1855868750.0 -1.47747802734375 0.43499755859375
1887090625.0 -0.87548828125 1.29010009765625
1918312500.0 0.1199951171875 1.4906005859375
1949534375.0 0.92486572265625 1.09039306640625
1980756250.0 1.37860107421875 0.369384765625
2011978125.0 1.3623046875 -0.53369140625
2043200000.0 0.75103759765625 -1.2652587890625
2074421875.0 -0.1585693359375 -1.43719482421875
2105643750.0 -0.9642333984375 -1.07421875
2136865625.0 -1.45147705078125 -0.3037109375
2168087500.0 -1.35968017578125 0.67437744140625
2199309375.0 -0.6392822265625 1.3558349609375
2230531250.0 0.28448486328125 1.4398193359375
2261753125.0 1.0772705078125 1.01513671875
2292975000.0 1.5185546875 0.16845703125
2324196875.0 1.30743408203125 -0.822998046875
2355418750.0 0.52410888671875 -1.42449951171875
2386640625.0 -0.4080810546875 -1.45172119140625
2417862500.0 -1.1861572265625 -1.02398681640625
2449084375.0 -1.6080322265625 -0.081787109375
2480306250.0 -1.31292724609375 0.92926025390625
2511528125.0 -0.493408203125 1.51092529296875
2542750000.0 0.4920654296875 1.53948974609375
2573971875.0 1.3760986328125 0.96875
2605193750.0 1.72174072265625 -0.115966796875
2636415625.0 1.26263427734375 -1.156982421875
2667637500.0 0.3045654296875 -1.6710205078125
2698859375.0 -0.77496337890625 -1.53704833984375
2730081250.0 -1.5787353515625 -0.739990234375
2761303125.0 -1.68536376953125 0.39208984375
2792525000.0 -1.09979248046875 1.3134765625
2823746875.0 -0.09991455078125 1.73480224609375
2854968750.0 1.01702880859375 1.45745849609375
2886190625.0 1.6978759765625 0.4892578125
2917412500.0 1.60272216796875 -0.62249755859375
2948634375.0 0.938720703125 -1.438720703125
2979856250.0 -0.11285400390625 -1.7822265625
3011078125.0 -1.25408935546875 -1.34356689453125
3042300000.0 -1.78155517578125 -0.23138427734375
3073521875.0 -1.5111083984375 0.84332275390625
3104743750.0 -0.7625732421875 1.5743408203125
3135965625.0 0.366455078125 1.81329345703125
3167187500.0 1.5048828125 1.164306640625
3198409375.0 1.82061767578125 -0.07940673828125
3229631250.0 1.3505859375 -1.0869140625
3260853125.0 0.48779296875 -1.67352294921875
3292075000.0 -0.6611328125 -1.70233154296875
3323296875.0 -1.6256103515625 -0.87884521484375
3354518750.0 -1.7347412109375 0.33392333984375
3385740625.0 -1.15655517578125 1.2374267578125
3416962500.0 -0.22760009765625 1.68878173828125
3448184375.0 0.86529541015625 1.52392578125
3479406250.0 1.6424560546875 0.641845703125
3510628125.0 1.647216796875 -0.5008544921875
3541850000.0 1.00018310546875 -1.36029052734375
3573071875.0 -0.01141357421875 -1.685791015625
3604293750.0 -1.03387451171875 -1.33807373046875
3635515625.0 -1.63128662109375 -0.43621826171875
3666737500.0 -1.56341552734375 0.65118408203125
3697959375.0 -0.82379150390625 1.4810791015625
3729181250.0 0.2733154296875 1.6343994140625
3760403125.0 1.15814208984375 1.09857177734375
3791625000.0 1.55767822265625 0.21533203125
3822846875.0 1.40423583984375 -0.765380859375
3854068750.0 0.61907958984375 -1.48675537109375
3885290625.0 -0.42547607421875 -1.48358154296875
3916512500.0 -1.147216796875 -0.91015625
3947734375.0 -1.45233154296875 -0.116943359375
3978956250.0 -1.29949951171875 0.7852783203125
4010178125.0 -0.52838134765625 1.46185302734375
4041400000.0 0.47882080078125 1.41766357421875
4072621875.0 1.15673828125 0.845947265625
4103843750.0 1.4473876953125 0.05999755859375
4135065625.0 1.26873779296875 -0.85162353515625
4166287500.0 0.45477294921875 -1.50042724609375
4197509375.0 -0.56280517578125 -1.416015625
4228731250.0 -1.25311279296875 -0.80059814453125
4259953125.0 -1.5118408203125 0.0750732421875
4291175000.0 -1.1884765625 1.01513671875
4322396875.0 -0.28668212890625 1.530517578125
4353618750.0 0.67681884765625 1.3511962890625
4384840625.0 1.32781982421875 0.695556640625
4416062500.0 1.50445556640625 -0.2322998046875
4447284375.0 1.05462646484375 -1.1092529296875
4478506250.0 0.16888427734375 -1.49969482421875
4509728125.0 -0.73846435546875 -1.3092041015625
4540950000.0 -1.3995361328125 -0.63330078125
4572171875.0 -1.5247802734375 0.36572265625
4603393750.0 -0.97100830078125 1.218505859375
4634615625.0 -0.05633544921875 1.54058837890625
4665837500.0 0.8759765625 1.30487060546875
4697059375.0 1.546875 0.5113525390625
4728281250.0 1.5313720703125 -0.5889892578125
4759503125.0 0.82012939453125 -1.37310791015625
4790725000.0 -0.15069580078125 -1.57562255859375
4821946875.0 -1.0889892578125 -1.19354248046875
4853168750.0 -1.61773681640625 -0.2469482421875
4884390625.0 -1.37939453125 0.798583984375
4915612500.0 -0.61065673828125 1.4178466796875
4946834375.0 0.33355712890625 1.51214599609375
4978056250.0 1.2115478515625 1.01666259765625
5009278125.0 1.5665283203125 0.0347900390625
5040500000.0 1.22979736328125 -0.88189697265625
5071721875.0 0.49822998046875 -1.42083740234375
5102943750.0 -0.4522705078125 -1.49932861328125
5134165625.0 -1.34173583984375 -0.90338134765625
5165387500.0 -1.57122802734375 0.15264892578125
5196609375.0 -1.13519287109375 1.01617431640625
5227831250.0 -0.35357666015625 1.5115966796875
5259053125.0 0.69598388671875 1.49371337890625
5290275000.0 1.52825927734375 0.65826416015625
5321496875.0 1.49395751953125 -0.4368896484375
5352718750.0 0.9188232421875 -1.1580810546875
5383940625.0 0.09246826171875 -1.50360107421875
5415162500.0 -0.9072265625 -1.2843017578125
5446384375.0 -1.48858642578125 -0.3668212890625
5477606250.0 -1.30035400390625 0.5712890625
5508828125.0 -0.7294921875 1.15789794921875
5540050000.0 0.05877685546875 1.4034423828125
5571271875.0 0.94573974609375 1.10888671875
5602493750.0 1.41448974609375 0.25537109375
5633715625.0 1.2337646484375 -0.619384765625
5664937500.0 0.645263671875 -1.20733642578125
5696159375.0 -0.20343017578125 -1.3865966796875
5727381250.0 -1.02899169921875 -0.97650146484375
5758603125.0 -1.39605712890625 -0.139404296875
5789825000.0 -1.19427490234375 0.72412109375
5821046875.0 -0.50238037109375 1.3131103515625
5852268750.0 0.41741943359375 1.31439208984375
5883490625.0 1.075927734375 0.7698974609375
5914712500.0 1.3055419921875 0.01611328125
5945934375.0 1.096435546875 -0.7821044921875
5977156250.0 0.357421875 -1.31707763671875
6008378125.0 -0.51611328125 -1.1832275390625
6039600000.0 -1.0274658203125 -0.64666748046875
6070821875.0 -1.2274169921875 6.103515625e-05
6102043750.0 -1.084228515625 0.7701416015625
6133265625.0 -0.33673095703125 1.35064697265625
6164487500.0 0.5701904296875 1.1885986328125
6195709375.0 1.0760498046875 0.627685546875
6226931250.0 1.283447265625 -0.04766845703125
6258153125.0 1.10400390625 -0.87786865234375
6289375000.0 0.2484130859375 -1.45220947265625
6320596875.0 -0.69683837890625 -1.20513916015625
6351818750.0 -1.2059326171875 -0.56744384765625
6383040625.0 -1.35638427734375 0.2132568359375
6414262500.0 -0.9971923828125 1.06402587890625
6445484375.0 -0.072265625 1.4603271484375
6476706250.0 0.8013916015625 1.14678955078125
6507928125.0 1.29498291015625 0.4656982421875
6539150000.0 1.34893798828125 -0.39263916015625
6570371875.0 0.83856201171875 -1.14971923828125
6601593750.0 -0.02325439453125 -1.4080810546875
6632815625.0 -0.8463134765625 -1.13629150390625
6664037500.0 -1.4071044921875 -0.415283203125
6695259375.0 -1.37506103515625 0.57476806640625
6726481250.0 -0.70635986328125 1.2581787109375
6757703125.0 0.13653564453125 1.40997314453125
6788925000.0 0.961669921875 1.1295166015625
6820146875.0 1.5660400390625 0.2801513671875
6851368750.0 1.32452392578125 -0.82843017578125
6882590625.0 0.5015869140625 -1.34375
6913812500.0 -0.29925537109375 -1.3580322265625
6945034375.0 -1.07696533203125 -1.01898193359375
6976256250.0 -1.59722900390625 -0.085205078125
7007478125.0 -1.23419189453125 0.9415283203125
7038700000.0 -0.3980712890625 1.3466796875
7069921875.0 0.36505126953125 1.32635498046875
7101143750.0 1.12542724609375 0.96893310546875
7132365625.0 1.60552978515625 0.00579833984375
7163587500.0 1.1552734375 -1.02996826171875
7194809375.0 0.298828125 -1.4013671875
7226031250.0 -0.51849365234375 -1.327880859375
7257253125.0 -1.275634765625 -0.82049560546875
7288475000.0 -1.5626220703125 0.2073974609375
7319696875.0 -1.02667236328125 1.11962890625
7350918750.0 -0.1583251953125 1.44818115234375
7382140625.0 0.7255859375 1.27728271484375
7413362500.0 1.38372802734375 0.57073974609375
7444584375.0 1.41387939453125 -0.4149169921875
7475806250.0 0.854736328125 -1.1507568359375
7507028125.0 -0.00128173828125 -1.43475341796875
7538250000.0 -0.89495849609375 -1.1224365234375
7569471875.0 -1.34039306640625 -0.3055419921875
7600693750.0 -1.2027587890625 0.504150390625
7631915625.0 -0.7156982421875 1.0914306640625
7663137500.0 0.0867919921875 1.36328125
7694359375.0 0.947052001953125 0.978973388671875
7725581250.0 1.24871826171875 0.175537109375
7756803125.0 1.08453369140625 -0.50567626953125
7788025000.0 0.6676025390625 -1.05145263671875
7819246875.0 -0.1287841796875 -1.35205078125
7850468750.0 -1.0015869140625 -0.914306640625
7881690625.0 -1.2357177734375 -0.09881591796875
7912912500.0 -1.05548095703125 0.5618896484375
7944134375.0 -0.600830078125 1.12091064453125
7975356250.0 0.2818603515625 1.33782958984375
8006578125.0 1.052734375 0.7744140625
8037800000.0 1.19671630859375 0.01116943359375
8069021875.0 1.00732421875 -0.623779296875
8100243750.0 0.4951171875 -1.16900634765625
8131465625.0 -0.39599609375 -1.25579833984375
8162687500.0 -1.0389404296875 -0.68255615234375
8193909375.0 -1.183837890625 0.01361083984375
8225131250.0 -1.01861572265625 0.6856689453125
8256353125.0 -0.41656494140625 1.2545166015625
8287575000.0 0.50836181640625 1.226806640625
8318796875.0 1.0875244140625 0.6319580078125
8350018750.0 1.24761962890625 -0.08111572265625
8381240625.0 1.0306396484375 -0.8477783203125
8412462500.0 0.24530029296875 -1.38104248046875
8443684375.0 -0.678955078125 -1.16925048828125
8474906250.0 -1.1815185546875 -0.5267333984375
8506128125.0 -1.30023193359375 0.243896484375
8537350000.0 -0.921142578125 1.0545654296875
8568571875.0 -0.00732421875 1.39862060546875
8599793750.0 0.80902099609375 1.05126953125
8631015625.0 1.244384765625 0.3936767578125
8662237500.0 1.28753662109375 -0.43817138671875
8693459375.0 0.73223876953125 -1.1844482421875
8724681250.0 -0.16986083984375 -1.3348388671875
8755903125.0 -0.887420654296875 -0.957305908203125
8787125000.0 -1.3104248046875 -0.276611328125
8818346875.0 -1.25213623046875 0.625732421875
8849568750.0 -0.55126953125 1.27008056640625
8880790625.0 0.30487060546875 1.28790283203125
8912012500.0 0.989776611328125 0.891693115234375
8943234375.0 1.40631103515625 0.11981201171875
8974456250.0 1.1654052734375 -0.85235595703125
9005678125.0 0.33953857421875 -1.32025146484375
9036900000.0 -0.45367431640625 -1.22491455078125
9068121875.0 -1.10980224609375 -0.78173828125
9099343750.0 -1.444580078125 0.10748291015625
9130565625.0 -0.974853515625 1.02069091796875
9161787500.0 -0.14764404296875 1.285888671875
9193009375.0 0.56011962890625 1.13372802734375
9224231250.0 1.18646240234375 0.6519775390625
9255453125.0 1.40130615234375 -0.30322265625
9286675000.0 0.8043212890625 -1.0933837890625
9317896875.0 0.02130126953125 -1.250244140625
9349118750.0 -0.66314697265625 -1.0714111328125
9380340625.0 -1.26898193359375 -0.50372314453125
9411562500.0 -1.3143310546875 0.48834228515625
9442784375.0 -0.64434814453125 1.12371826171875
9474006250.0 0.09552001953125 1.21435546875
9505228125.0 0.775421142578125 0.97930908203125
9536450000.0 1.28314208984375 0.30499267578125
9567671875.0 1.1431884765625 -0.59014892578125
9598893750.0 0.52435302734375 -1.07501220703125
9630115625.0 -0.15252685546875 -1.16070556640625
9661337500.0 -0.82635498046875 -0.899627685546875
9692559375.0 -1.2445068359375 -0.181640625
9723781250.0 -1.0416259765625 0.6104736328125
9755003125.0 -0.48089599609375 1.0555419921875
9786225000.0 0.20611572265625 1.16326904296875
9817446875.0 0.903533935546875 0.824737548828125
9848668750.0 1.20196533203125 0.0711669921875
9879890625.0 0.96759033203125 -0.6243896484375
9911112500.0 0.44830322265625 -1.0579833984375
9942334375.0 -0.27679443359375 -1.16278076171875
9973556250.0 -0.951629638671875 -0.735137939453125
10004778125.0 -1.149169921875 -0.01025390625
10036000000.0 -0.944000244140625 0.624542236328125
10067221875.0 -0.4371337890625 1.1033935546875
10098443750.0 0.3807373046875 1.18292236328125
10129665625.0 1.01025390625 0.63623046875
10160887500.0 1.1220703125 -0.05950927734375
10192109375.0 0.915771484375 -0.6722412109375
10223331250.0 0.3543701171875 -1.15899658203125
10254553125.0 -0.49658203125 -1.11322021484375
10285775000.0 -0.992279052734375 -0.529083251953125
10316996875.0 -1.06829833984375 0.08233642578125
10348218750.0 -0.899078369140625 0.676788330078125
10379440625.0 -0.31396484375 1.183349609375
10410662500.0 0.53619384765625 1.08447265625
10441884375.0 0.998138427734375 0.51727294921875
10473106250.0 1.1126708984375 -0.09124755859375
10504328125.0 0.947784423828125 -0.76641845703125
10535550000.0 0.23272705078125 -1.29962158203125
10566771875.0 -0.66644287109375 -1.07470703125
10597993750.0 -1.08721923828125 -0.4517822265625
10629215625.0 -1.177978515625 0.21368408203125
10660437500.0 -0.884368896484375 0.96356201171875
10691659375.0 0.0025634765625 1.3399658203125
10722881250.0 0.79254150390625 0.948638916015625
10754103125.0 1.12420654296875 0.3187255859375
10785325000.0 1.140380859375 -0.37493896484375
10816546875.0 0.6962890625 -1.0567626953125
10847768750.0 -0.15185546875 -1.229248046875
10878990625.0 -0.812255859375 -0.840667724609375
10910212500.0 -1.12786865234375 -0.23944091796875
10941434375.0 -1.0982666015625 0.484619140625
10972656250.0 -0.56280517578125 1.09307861328125
11003878125.0 0.22509765625 1.1763916015625
11035100000.0 0.858062744140625 0.818572998046875
11066321875.0 1.227294921875 0.1656494140625
11097543750.0 1.09808349609375 -0.68792724609375
11128765625.0 0.379150390625 -1.203369140625
11159987500.0 -0.40325927734375 -1.13934326171875
11191209375.0 -1.0084228515625 -0.6981201171875
11222431250.0 -1.2763671875 0.1036376953125
11253653125.0 -0.85400390625 0.90386962890625
11284875000.0 -0.10736083984375 1.12994384765625
11316096875.0 0.517822265625 0.95550537109375
11347318750.0 1.0106201171875 0.4971923828125
11378540625.0 1.1180419921875 -0.2767333984375
11409762500.0 0.631011962890625 -0.865875244140625
11440984375.0 0.02935791015625 -0.98193359375
11472206250.0 -0.487884521484375 -0.85076904296875
11503428125.0 -0.960113525390625 -0.45147705078125
11534650000.0 -1.07183837890625 0.299560546875
11565871875.0 -0.5985107421875 0.861114501953125
11597093750.0 -0.012939453125 0.994476318359375
11628315625.0 0.551422119140625 0.875640869140625
11659537500.0 1.0692138671875 0.3853759765625
11690759375.0 1.06585693359375 -0.44415283203125
11721981250.0 0.5106201171875 -0.94622802734375
11753203125.0 -0.112548828125 -1.04022216796875
11784425000.0 -0.732147216796875 -0.80694580078125
11815646875.0 -1.10577392578125 -0.1414794921875
11846868750.0 -0.890228271484375 0.56072998046875
11878090625.0 -0.386260986328125 0.913330078125
11909312500.0 0.193756103515625 0.986083984375
11940534375.0 0.7889404296875 0.69110107421875
11971756250.0 1.0281982421875 0.0318603515625
12002978125.0 0.80523681640625 -0.545867919921875
12034200000.0 0.3768310546875 -0.893463134765625
12065421875.0 -0.22393798828125 -1.01312255859375
12096643750.0 -0.85546875 -0.660186767578125
12127865625.0 -1.03662109375 0.02508544921875
12159087500.0 -0.8131103515625 0.582733154296875
12190309375.0 -0.371246337890625 0.98272705078125
12221531250.0 0.349609375 1.08905029296875
12252753125.0 0.98779296875 0.57476806640625
12283975000.0 1.05535888671875 -0.13623046875
12315196875.0 0.79840087890625 -0.683135986328125
12346418750.0 0.2745361328125 -1.0975341796875
12377640625.0 -0.5479736328125 -1.05889892578125
12408862500.0 -1.03997802734375 -0.41229248046875
12440084375.0 -1.0091552734375 0.2322998046875
12471306250.0 -0.7401123046875 0.74505615234375
12502528125.0 -0.17236328125 1.12628173828125
12533750000.0 0.628753662109375 0.9918212890625
12564971875.0 1.04730224609375 0.35650634765625
12596193750.0 1.03045654296875 -0.2720947265625
12627415625.0 0.745819091796875 -0.83905029296875
12658637500.0 0.0694580078125 -1.21356201171875
12689859375.0 -0.747222900390625 -0.963714599609375
12721081250.0 -1.1243896484375 -0.29754638671875
12752303125.0 -1.099365234375 0.39111328125
12783525000.0 -0.6810302734375 1.03759765625
12814746875.0 0.177490234375 1.25311279296875
12845968750.0 0.872711181640625 0.806121826171875
12877190625.0 1.12347412109375 0.16302490234375
12908412500.0 1.05615234375 -0.51318359375
12939634375.0 0.53338623046875 -1.12701416015625
12970856250.0 -0.33099365234375 -1.1744384765625
13002078125.0 -0.902679443359375 -0.687713623046875
13033300000.0 -1.11041259765625 -0.0794677734375
13064521875.0 -1.00787353515625 0.6036376953125
13095743750.0 -0.4111328125 1.16375732421875
13126965625.0 0.41949462890625 1.1204833984375
13158187500.0 0.95489501953125 0.626739501953125
13189409375.0 1.15338134765625 -0.03125
13220631250.0 0.933319091796875 -0.759613037109375
13251853125.0 0.2244873046875 -1.17877197265625
13283075000.0 -0.516845703125 -1.01922607421875
13314296875.0 -0.9957275390625 -0.522186279296875
13345518750.0 -1.13812255859375 0.18798828125
