!Created with skrf (http://scikit-rf.org).
# Hz S RI R 50.0 
!freq ReS11 ImS11
45000000.0 -0.077056884765625 -0.09687423706054688
76221875.0 -0.19637298583984375 -0.04736328125
107443750.0 -0.254730224609375 0.1197357177734375
138665625.0 -0.147979736328125 0.3287353515625
169887500.0 0.123809814453125 0.41729736328125
201109375.0 0.4217681884765625 0.2806549072265625
232331250.0 0.57861328125 -0.057769775390625
263553125.0 0.4889984130859375 -0.45263671875
294775000.0 0.098052978515625 -0.732086181640625
325996875.0 -0.415740966796875 -0.6800537109375
357218750.0 -0.80615234375 -0.296539306640625
388440625.0 -0.88519287109375 0.3009033203125
419662500.0 -0.5164794921875 0.866424560546875
450884375.0 0.173583984375 1.028076171875
482106250.0 0.7984619140625 0.711669921875
513328125.0 1.1187744140625 0.08673095703125
544550000.0 1.00274658203125 -0.68023681640625
575771875.0 0.3355712890625 -1.2376708984375
606993750.0 -0.55419921875 -1.1763916015625
638215625.0 -1.16546630859375 -0.58941650390625
669437500.0 -1.3388671875 0.234130859375
700659375.0 -0.9698486328125 1.09588623046875
731881250.0 -0.00311279296875 1.5419921875
763103125.0 1.00555419921875 1.154541015625
794325000.0 1.4677734375 0.2808837890625
825546875.0 1.36590576171875 -0.65142822265625
856768750.0 0.79339599609375 -1.40032958984375
887990625.0 -0.293212890625 -1.6466064453125
919212500.0 -1.28729248046875 -1.0770263671875
950434375.0 -1.647216796875 -0.05841064453125
981656250.0 -1.38079833984375 0.94580078125
1012878125.0 -0.52801513671875 1.6712646484375
1044100000.0 0.69720458984375 1.6597900390625
1075321875.0 1.5733642578125 0.8104248046875
1106543750.0 1.7030029296875 -0.313720703125
1137765625.0 1.18505859375 -1.28350830078125
1168987500.0 0.1370849609375 -1.7958984375
1200209375.0 -1.06170654296875 -1.48187255859375
1231431250.0 -1.7261962890625 -0.45196533203125
1262653125.0 -1.592529296875 0.6845703125
1293875000.0 -0.850341796875 1.490966796875
1325096875.0 0.228515625 1.704345703125
1356318750.0 1.2342529296875 1.21466064453125
1387540625.0 1.73834228515625 0.1881103515625
1418762500.0 1.4674072265625 -0.951416015625
1449984375.0 0.528076171875 -1.62493896484375
1481206250.0 -0.54986572265625 -1.55426025390625
1512428125.0 -1.3409423828125 -0.9180908203125
1543650000.0 -1.65362548828125 0.0660400390625
1574871875.0 -1.27166748046875 1.10845947265625
1606093750.0 -0.27178955078125 1.6298828125
1637315625.0 0.74163818359375 1.39849853515625
1668537500.0 1.3946533203125 0.69464111328125
1699759375.0 1.571044921875 -0.27777099609375
1730981250.0 1.0626220703125 -1.22857666015625
1762203125.0 0.04119873046875 -1.5687255859375
1793425000.0 -0.855224609375 -1.22479248046875
1824646875.0 -1.39239501953125 -0.51446533203125
1855868750.0 -1.471923828125 0.4317626953125
1887090625.0 -0.8736572265625 1.28375244140625
1918312500.0 0.1173095703125 1.48516845703125
1949534375.0 0.92059326171875 1.08758544921875
1980756250.0 1.3741455078125 0.36944580078125
2011978125.0 1.3580322265625 -0.5318603515625
2043200000.0 0.74859619140625 -1.26025390625
2074421875.0 -0.156982421875 -1.43133544921875
2105643750.0 -0.95928955078125 -1.07073974609375
2136865625.0 -1.44586181640625 -0.30401611328125
2168087500.0 -1.35546875 0.670654296875
2199309375.0 -0.637939453125 1.3499755859375
2230531250.0 0.2818603515625 1.43414306640625
2261753125.0 1.07208251953125 1.0123291015625
2292975000.0 1.512451171875 0.169677734375
2324196875.0 1.30364990234375 -0.81805419921875
2355418750.0 0.524658203125 -1.41839599609375
2386640625.0 -0.40447998046875 -1.4471435546875
2417862500.0 -1.179443359375 -1.02215576171875
2449084375.0 -1.60308837890625 -0.08306884765625
2480306250.0 -1.3094482421875 0.92437744140625
2511528125.0 -0.4921875 1.50640869140625
2542750000.0 0.48773193359375 1.53369140625
2573971875.0 1.36962890625 0.96612548828125
2605193750.0 1.714599609375 -0.1124267578125
2636415625.0 1.25909423828125 -1.1507568359375
2667637500.0 0.305419921875 -1.6649169921875
2698859375.0 -0.76959228515625 -1.5322265625
2730081250.0 -1.5718994140625 -0.7386474609375
2761303125.0 -1.67877197265625 0.38763427734375
2792525000.0 -1.0975341796875 1.30572509765625
2823746875.0 -0.1014404296875 1.7266845703125
2854968750.0 1.01165771484375 1.45306396484375
2886190625.0 1.68963623046875 0.49041748046875
2917412500.0 1.59808349609375 -0.6168212890625
2948634375.0 0.937744140625 -1.43048095703125
2979856250.0 -0.10809326171875 -1.77392578125
3011078125.0 -1.24560546875 -1.3397216796875
3042300000.0 -1.7724609375 -0.23406982421875
3073521875.0 -1.50634765625 0.837158203125
3104743750.0 -0.76177978515625 1.5655517578125
3135965625.0 0.3609619140625 1.80596923828125
3167187500.0 1.49676513671875 1.16229248046875
3198409375.0 1.8126220703125 -0.0751953125
3229631250.0 1.3465576171875 -1.08050537109375
3260853125.0 0.488037109375 -1.666015625
3292075000.0 -0.65313720703125 -1.694091796875
3323296875.0 -1.61749267578125 -0.877197265625
3354518750.0 -1.7279052734375 0.32916259765625
3385740625.0 -1.15411376953125 1.22967529296875
3416962500.0 -0.2310791015625 1.6783447265625
3448184375.0 0.85968017578125 1.51947021484375
3479406250.0 1.63323974609375 0.6436767578125
3510628125.0 1.6424560546875 -0.49615478515625
3541850000.0 0.99896240234375 -1.35198974609375
3573071875.0 -0.00811767578125 -1.6807861328125
3604293750.0 -1.027099609375 -1.3350830078125
3635515625.0 -1.624755859375 -0.437744140625
3666737500.0 -1.55914306640625 0.6453857421875
3697959375.0 -0.82373046875 1.4737548828125
3729181250.0 0.26812744140625 1.62799072265625
3760403125.0 1.152099609375 1.09588623046875
3791625000.0 1.55084228515625 0.217041015625
3822846875.0 1.3984375 -0.758056640625
3854068750.0 0.619140625 -1.47796630859375
3885290625.0 -0.4200439453125 -1.47857666015625
3916512500.0 -1.13983154296875 -0.90948486328125
3947734375.0 -1.4447021484375 -0.1197509765625
3978956250.0 -1.29583740234375 0.77850341796875
4010178125.0 -0.53057861328125 1.4521484375
4041400000.0 0.472412109375 1.41265869140625
4072621875.0 1.15069580078125 0.84686279296875
4103843750.0 1.44232177734375 0.0631103515625
4135065625.0 1.26580810546875 -0.8447265625
4166287500.0 0.4569091796875 -1.4931640625
4197509375.0 -0.556396484375 -1.41302490234375
4228731250.0 -1.24603271484375 -0.80169677734375
4259953125.0 -1.50653076171875 0.0697021484375
4291175000.0 -1.18682861328125 1.00909423828125
4322396875.0 -0.2884521484375 1.52508544921875
4353618750.0 0.6722412109375 1.34808349609375
4384840625.0 1.32183837890625 0.69537353515625
4416062500.0 1.49993896484375 -0.2286376953125
4447284375.0 1.0533447265625 -1.10272216796875
4478506250.0 0.171875 -1.492919921875
4509728125.0 -0.7314453125 -1.30572509765625
4540950000.0 -1.391357421875 -0.6358642578125
4572171875.0 -1.5208740234375 0.35882568359375
4603393750.0 -0.97137451171875 1.211181640625
4634615625.0 -0.06134033203125 1.53424072265625
4665837500.0 0.8690185546875 1.30224609375
4697059375.0 1.539794921875 0.5140380859375
4728281250.0 1.52703857421875 -0.5809326171875
4759503125.0 0.82183837890625 -1.36639404296875
4790725000.0 -0.14483642578125 -1.57037353515625
4821946875.0 -1.08197021484375 -1.1923828125
4853168750.0 -1.611328125 -0.25103759765625
4884390625.0 -1.37652587890625 0.79254150390625
4915612500.0 -0.61248779296875 1.41107177734375
4946834375.0 0.328369140625 1.50689697265625
4978056250.0 1.20318603515625 1.01556396484375
5009278125.0 1.55902099609375 0.03948974609375
5040500000.0 1.22723388671875 -0.87408447265625
5071721875.0 0.50115966796875 -1.41241455078125
5102943750.0 -0.44622802734375 -1.49493408203125
5134165625.0 -1.3345947265625 -0.9046630859375
5165387500.0 -1.56610107421875 0.145751953125
5196609375.0 -1.13507080078125 1.0076904296875
5227831250.0 -0.35711669921875 1.50384521484375
5259053125.0 0.6871337890625 1.4906005859375
5290275000.0 1.5206298828125 0.66241455078125
5321496875.0 1.49041748046875 -0.43035888671875
5352718750.0 0.91937255859375 -1.15130615234375
5383940625.0 0.09619140625 -1.498291015625
5415162500.0 -0.89923095703125 -1.28179931640625
5446384375.0 -1.48193359375 -0.3701171875
5477606250.0 -1.298095703125 0.56732177734375
5508828125.0 -0.73016357421875 1.14886474609375
5540050000.0 0.05316162109375 1.39642333984375
5571271875.0 0.93743896484375 1.10723876953125
5602493750.0 1.40667724609375 0.25946044921875
5633715625.0 1.23046875 -0.61199951171875
5664937500.0 0.64813232421875 -1.1990966796875
5696159375.0 -0.19561767578125 -1.38128662109375
5727381250.0 -1.02008056640625 -0.9776611328125
5758603125.0 -1.39013671875 -0.1448974609375
5789825000.0 -1.193115234375 0.717041015625
5821046875.0 -0.50604248046875 1.30560302734375
5852268750.0 0.41064453125 1.31134033203125
5883490625.0 1.0709228515625 0.77142333984375
5914712500.0 1.3006591796875 0.0203857421875
5945934375.0 1.09515380859375 -0.77520751953125
5977156250.0 0.361572265625 -1.309814453125
6008378125.0 -0.5093994140625 -1.1815185546875
6039600000.0 -1.02008056640625 -0.64862060546875
6070821875.0 -1.2225341796875 -0.00469970703125
6102043750.0 -1.08221435546875 0.7623291015625
6133265625.0 -0.34246826171875 1.34320068359375
6164487500.0 0.56207275390625 1.18646240234375
6195709375.0 1.0684814453125 0.62939453125
6226931250.0 1.27801513671875 -0.04241943359375
6258153125.0 1.10333251953125 -0.8701171875
6289375000.0 0.25616455078125 -1.444580078125
6320596875.0 -0.68817138671875 -1.204833984375
6351818750.0 -1.1986083984375 -0.57208251953125
6383040625.0 -1.3531494140625 0.20660400390625
6414262500.0 -0.999267578125 1.05615234375
6445484375.0 -0.07867431640625 1.45611572265625
6476706250.0 0.795166015625 1.1470947265625
6507928125.0 1.289794921875 0.469970703125
6539150000.0 1.3463134765625 -0.38604736328125
6570371875.0 0.840087890625 -1.14276123046875
6601593750.0 -0.01800537109375 -1.404296875
6632815625.0 -0.83929443359375 -1.13531494140625
6664037500.0 -1.399658203125 -0.41986083984375
6695259375.0 -1.372802734375 0.56597900390625
6726481250.0 -0.70965576171875 1.25115966796875
6757703125.0 0.1312255859375 1.4058837890625
6788925000.0 0.95477294921875 1.1297607421875
6820146875.0 1.559326171875 0.2877197265625
6851368750.0 1.32470703125 -0.81787109375
6882590625.0 0.5064697265625 -1.33734130859375
6913812500.0 -0.29205322265625 -1.35540771484375
6945034375.0 -1.0684814453125 -1.021240234375
6976256250.0 -1.59033203125 -0.0938720703125
7007478125.0 -1.23516845703125 0.93048095703125
7038700000.0 -0.40264892578125 1.34075927734375
7069921875.0 0.35675048828125 1.3203125
7101143750.0 1.1168212890625 0.96795654296875
7132365625.0 1.5980224609375 0.01513671875
7163587500.0 1.156494140625 -1.01898193359375
7194809375.0 0.303466796875 -1.3941650390625
7226031250.0 -0.5087890625 -1.323486328125
7257253125.0 -1.26385498046875 -0.82403564453125
7288475000.0 -1.55645751953125 0.19842529296875
7319696875.0 -1.02874755859375 1.107666015625
7350918750.0 -0.1646728515625 1.44244384765625
7382140625.0 0.7138671875 1.275634765625
7413362500.0 1.37353515625 0.57635498046875
7444584375.0 1.4107666015625 -0.40618896484375
7475806250.0 0.85797119140625 -1.14227294921875
7507028125.0 0.00555419921875 -1.42779541015625
7538250000.0 -0.8863525390625 -1.12353515625
7569471875.0 -1.3355712890625 -0.3123779296875
7600693750.0 -1.200927734375 0.495849609375
7631915625.0 -0.716796875 1.0865478515625
7663137500.0 0.079345703125 1.35540771484375
7694359375.0 0.937225341796875 0.979217529296875
7725581250.0 1.24249267578125 0.18035888671875
7756803125.0 1.0810546875 -0.498046875
7788025000.0 0.66961669921875 -1.04302978515625
7819246875.0 -0.12042236328125 -1.345947265625
7850468750.0 -0.9921875 -0.91552734375
7881690625.0 -1.2313232421875 -0.1055908203125
7912912500.0 -1.053955078125 0.55474853515625
7944134375.0 -0.60589599609375 1.11114501953125
7975356250.0 0.27020263671875 1.33447265625
8006578125.0 1.0455322265625 0.7789306640625
8037800000.0 1.19219970703125 0.01690673828125
8069021875.0 1.00579833984375 -0.616943359375
8100243750.0 0.5 -1.15997314453125
8131465625.0 -0.38726806640625 -1.25335693359375
8162687500.0 -1.03033447265625 -0.68597412109375
8193909375.0 -1.18011474609375 0.0081787109375
8225131250.0 -1.0172119140625 0.67767333984375
8256353125.0 -0.4215087890625 1.246826171875
8287575000.0 0.50054931640625 1.226318359375
8318796875.0 1.08111572265625 0.63671875
8350018750.0 1.24383544921875 -0.0755615234375
8381240625.0 1.0299072265625 -0.8380126953125
8412462500.0 0.25506591796875 -1.3720703125
8443684375.0 -0.66754150390625 -1.16851806640625
8474906250.0 -1.1751708984375 -0.53143310546875
8506128125.0 -1.29754638671875 0.2371826171875
8537350000.0 -0.92333984375 1.04449462890625
8568571875.0 -0.01531982421875 1.39471435546875
8599793750.0 0.79840087890625 1.05218505859375
8631015625.0 1.2408447265625 0.39776611328125
8662237500.0 1.28570556640625 -0.42877197265625
8693459375.0 0.736572265625 -1.17388916015625
8724681250.0 -0.16265869140625 -1.3306884765625
8755903125.0 -0.878692626953125 -0.9566650390625
8787125000.0 -1.302734375 -0.281982421875
8818346875.0 -1.2506103515625 0.6141357421875
8849568750.0 -0.55615234375 1.2607421875
8880790625.0 0.2972412109375 1.28253173828125
8912012500.0 0.97833251953125 0.891845703125
8943234375.0 1.39715576171875 0.12872314453125
8974456250.0 1.16644287109375 -0.8372802734375
9005678125.0 0.34893798828125 -1.31121826171875
9036900000.0 -0.4442138671875 -1.22412109375
9068121875.0 -1.1002197265625 -0.78564453125
9099343750.0 -1.440673828125 0.0965576171875
9130565625.0 -0.97906494140625 1.0107421875
9161787500.0 -0.15496826171875 1.281982421875
9193009375.0 0.5533447265625 1.132568359375
9224231250.0 1.17919921875 0.6541748046875
9255453125.0 1.397705078125 -0.2940673828125
9286675000.0 0.8070068359375 -1.08502197265625
9317896875.0 0.028564453125 -1.24395751953125
9349118750.0 -0.6534423828125 -1.0684814453125
9380340625.0 -1.2578125 -0.5089111328125
9411562500.0 -1.310791015625 0.4752197265625
9442784375.0 -0.64886474609375 1.1163330078125
9474006250.0 0.08782958984375 1.20947265625
9505228125.0 0.76385498046875 0.97943115234375
9536450000.0 1.27288818359375 0.314453125
9567671875.0 1.143798828125 -0.578857421875
9598893750.0 0.52996826171875 -1.0673828125
9630115625.0 -0.14349365234375 -1.15789794921875
9661337500.0 -0.81695556640625 -0.902374267578125
9692559375.0 -1.23736572265625 -0.190673828125
9723781250.0 -1.04296875 0.60107421875
9755003125.0 -0.485595703125 1.049560546875
9786225000.0 0.1982421875 1.158447265625
9817446875.0 0.896209716796875 0.82769775390625
9848668750.0 1.19580078125 0.07952880859375
9879890625.0 0.968353271484375 -0.614776611328125
9911112500.0 0.4520263671875 -1.050048828125
9942334375.0 -0.267578125 -1.15850830078125
9973556250.0 -0.941741943359375 -0.738433837890625
10004778125.0 -1.1439208984375 -0.01861572265625
10036000000.0 -0.944000244140625 0.61395263671875
10067221875.0 -0.44146728515625 1.09613037109375
10098443750.0 0.36932373046875 1.1810302734375
10129665625.0 1.0028076171875 0.64373779296875
10160887500.0 1.119873046875 -0.05096435546875
10192109375.0 0.917724609375 -0.662994384765625
10223331250.0 0.3612060546875 -1.150634765625
10254553125.0 -0.48419189453125 -1.1129150390625
10285775000.0 -0.98480224609375 -0.5357666015625
10316996875.0 -1.06610107421875 0.07415771484375
10348218750.0 -0.89971923828125 0.66937255859375
10379440625.0 -0.32257080078125 1.1741943359375
10410662500.0 0.5284423828125 1.08544921875
10441884375.0 0.9930419921875 0.521484375
10473106250.0 1.10650634765625 -0.08306884765625
10504328125.0 0.949493408203125 -0.7578125
10535550000.0 0.2393798828125 -1.29547119140625
10566771875.0 -0.656982421875 -1.07684326171875
10597993750.0 -1.08038330078125 -0.45904541015625
10629215625.0 -1.1749267578125 0.20550537109375
10660437500.0 -0.887939453125 0.948760986328125
10691659375.0 -0.0108642578125 1.33526611328125
10722881250.0 0.78399658203125 0.952484130859375
10754103125.0 1.11932373046875 0.3251953125
10785325000.0 1.13836669921875 -0.36663818359375
10816546875.0 0.70068359375 -1.04766845703125
10847768750.0 -0.14453125 -1.22857666015625
10878990625.0 -0.803253173828125 -0.84405517578125
10910212500.0 -1.12200927734375 -0.24615478515625
10941434375.0 -1.096923828125 0.475830078125
10972656250.0 -0.56744384765625 1.08428955078125
11003878125.0 0.2156982421875 1.17291259765625
11035100000.0 0.84765625 0.82183837890625
11066321875.0 1.222412109375 0.173828125
11097543750.0 1.0975341796875 -0.67559814453125
11128765625.0 0.3857421875 -1.19873046875
11159987500.0 -0.3956298828125 -1.13922119140625
11191209375.0 -0.997589111328125 -0.702423095703125
11222431250.0 -1.2713623046875 0.091064453125
11253653125.0 -0.858795166015625 0.8924560546875
11284875000.0 -0.11480712890625 1.12664794921875
11316096875.0 0.5108642578125 0.955718994140625
11347318750.0 1.00146484375 0.50201416015625
11378540625.0 1.1165771484375 -0.2681884765625
11409762500.0 0.634002685546875 -0.858551025390625
11440984375.0 0.0360107421875 -0.97833251953125
11472206250.0 -0.478759765625 -0.849365234375
11503428125.0 -0.95166015625 -0.455352783203125
11534650000.0 -1.06787109375 0.2874755859375
11565871875.0 -0.60235595703125 0.853912353515625
11597093750.0 -0.01922607421875 0.99041748046875
11628315625.0 0.54290771484375 0.874298095703125
11659537500.0 1.05950927734375 0.39276123046875
11690759375.0 1.064697265625 -0.43359375
11721981250.0 0.517364501953125 -0.94085693359375
11753203125.0 -0.10528564453125 -1.0357666015625
11784425000.0 -0.723663330078125 -0.809234619140625
11815646875.0 -1.09930419921875 -0.15155029296875
11846868750.0 -0.891265869140625 0.550994873046875
11878090625.0 -0.39202880859375 0.906707763671875
11909312500.0 0.186126708984375 0.98394775390625
11940534375.0 0.779296875 0.69464111328125
11971756250.0 1.024169921875 0.0401611328125
12002978125.0 0.806121826171875 -0.536956787109375
12034200000.0 0.381622314453125 -0.8895263671875
12065421875.0 -0.2144775390625 -1.0098876953125
12096643750.0 -0.846923828125 -0.664825439453125
12127865625.0 -1.03326416015625 0.01593017578125
12159087500.0 -0.81488037109375 0.574310302734375
12190309375.0 -0.376861572265625 0.974884033203125
12221531250.0 0.3382568359375 1.08831787109375
12252753125.0 0.978179931640625 0.58258056640625
12283975000.0 1.053466796875 -0.12646484375
12315196875.0 0.800018310546875 -0.67529296875
12346418750.0 0.28240966796875 -1.0894775390625
12377640625.0 -0.53741455078125 -1.060302734375
12408862500.0 -1.032958984375 -0.420166015625
12440084375.0 -1.00872802734375 0.22509765625
12471306250.0 -0.74169921875 0.736175537109375
12502528125.0 -0.18017578125 1.11798095703125
12533750000.0 0.619415283203125 0.99371337890625
12564971875.0 1.041015625 0.365478515625
12596193750.0 1.03009033203125 -0.2646484375
12627415625.0 0.747467041015625 -0.826812744140625
12658637500.0 0.07952880859375 -1.2078857421875
12689859375.0 -0.736419677734375 -0.96612548828125
12721081250.0 -1.1168212890625 -0.30548095703125
12752303125.0 -1.09674072265625 0.38134765625
12783525000.0 -0.6868896484375 1.0267333984375
12814746875.0 0.1622314453125 1.25250244140625
12845968750.0 0.8624267578125 0.8109130859375
12877190625.0 1.11688232421875 0.1727294921875
12908412500.0 1.05419921875 -0.49908447265625
12939634375.0 0.54345703125 -1.11663818359375
12970856250.0 -0.31964111328125 -1.1734619140625
13002078125.0 -0.894134521484375 -0.69342041015625
13033300000.0 -1.105224609375 -0.08624267578125
13064521875.0 -1.009521484375 0.59320068359375
13095743750.0 -0.42022705078125 1.1544189453125
13126965625.0 0.409423828125 1.12127685546875
13158187500.0 0.945831298828125 0.632354736328125
13189409375.0 1.1474609375 -0.0211181640625
13220631250.0 0.935028076171875 -0.745941162109375
13251853125.0 0.2353515625 -1.17108154296875
13283075000.0 -0.50665283203125 -1.01953125
13314296875.0 -0.9857177734375 -0.529998779296875
13345518750.0 -1.1348876953125 0.17626953125
13376740625.0 -0.7535400390625 0.857879638671875
13407962500.0 -0.06121826171875 1.0657958984375
