!Created with skrf (http://scikit-rf.org).
# Hz S RI R 50.0 
!freq ReS11 ImS11
45000000.0 -0.07664108276367188 -0.09705352783203125
76221875.0 -0.19696807861328125 -0.04821014404296875
107443750.0 -0.256072998046875 0.1195526123046875
138665625.0 -0.1494140625 0.3292694091796875
169887500.0 0.1226654052734375 0.419036865234375
201109375.0 0.422149658203125 0.283172607421875
232331250.0 0.58087158203125 -0.055938720703125
263553125.0 0.492584228515625 -0.452880859375
294775000.0 0.100830078125 -0.7344970703125
325996875.0 -0.414825439453125 -0.684326171875
357218750.0 -0.808624267578125 -0.300567626953125
388440625.0 -0.88983154296875 0.299346923828125
419662500.0 -0.521514892578125 0.86749267578125
450884375.0 0.17022705078125 1.03265380859375
482106250.0 0.79913330078125 0.717559814453125
513328125.0 1.122802734375 0.0908203125
544550000.0 1.00848388671875 -0.6790771484375
575771875.0 0.34088134765625 -1.24041748046875
606993750.0 -0.551513671875 -1.1822509765625
638215625.0 -1.16754150390625 -0.5958251953125
669437500.0 -1.34417724609375 0.23040771484375
700659375.0 -0.976806640625 1.09619140625
731881250.0 -0.0089111328125 1.54736328125
763103125.0 1.00482177734375 1.16265869140625
794325000.0 1.47247314453125 0.28729248046875
825546875.0 1.373291015625 -0.64947509765625
856768750.0 0.80084228515625 -1.403076171875
887990625.0 -0.28887939453125 -1.65423583984375
919212500.0 -1.28936767578125 -1.08612060546875
950434375.0 -1.65509033203125 -0.06341552734375
981656250.0 -1.39019775390625 0.94635009765625
1012878125.0 -0.53607177734375 1.67626953125
1044100000.0 0.6951904296875 1.67010498046875
1075321875.0 1.5780029296875 0.81939697265625
1106543750.0 1.7119140625 -0.30938720703125
1137765625.0 1.19464111328125 -1.2847900390625
1168987500.0 0.14404296875 -1.80279541015625
1200209375.0 -1.06195068359375 -1.4920654296875
1231431250.0 -1.7325439453125 -0.45977783203125
1262653125.0 -1.60107421875 0.68280029296875
1293875000.0 -0.8590087890625 1.4940185546875
1325096875.0 0.2239990234375 1.71337890625
1356318750.0 1.23583984375 1.22442626953125
1387540625.0 1.745361328125 0.19482421875
1418762500.0 1.4769287109375 -0.9503173828125
1449984375.0 0.53564453125 -1.6300048828125
1481206250.0 -0.5474853515625 -1.56329345703125
1512428125.0 -1.343994140625 -0.92626953125
1543650000.0 -1.660888671875 0.06134033203125
1574871875.0 -1.27978515625 1.1092529296875
1606093750.0 -0.27789306640625 1.63580322265625
1637315625.0 0.74102783203125 1.40679931640625
1668537500.0 1.398681640625 0.701416015625
1699759375.0 1.57843017578125 -0.2735595703125
1730981250.0 1.07061767578125 -1.23004150390625
1762203125.0 0.0465087890625 -1.5750732421875
1793425000.0 -0.85565185546875 -1.23236083984375
1824646875.0 -1.39630126953125 -0.51995849609375
1855868750.0 -1.4798583984375 0.42913818359375
1887090625.0 -0.8814697265625 1.2867431640625
1918312500.0 0.11346435546875 1.49188232421875
1949534375.0 0.92205810546875 1.09466552734375
1980756250.0 1.37884521484375 0.37457275390625
2011978125.0 1.3651123046875 -0.529541015625
2043200000.0 0.75537109375 -1.2637939453125
2074421875.0 -0.1539306640625 -1.4378662109375
2105643750.0 -0.96051025390625 -1.07794189453125
2136865625.0 -1.45123291015625 -0.30908203125
2168087500.0 -1.36285400390625 0.66943359375
2199309375.0 -0.6441650390625 1.35418701171875
2230531250.0 0.27911376953125 1.44134521484375
2261753125.0 1.07373046875 1.01922607421875
2292975000.0 1.5184326171875 0.17401123046875
2324196875.0 1.31109619140625 -0.818115234375
2355418750.0 0.5299072265625 -1.4228515625
2386640625.0 -0.40216064453125 -1.4537353515625
2417862500.0 -1.18255615234375 -1.0301513671875
2449084375.0 -1.6102294921875 -0.0870361328125
2480306250.0 -1.3173828125 0.9256591796875
2511528125.0 -0.4984130859375 1.51190185546875
2542750000.0 0.4873046875 1.542724609375
2573971875.0 1.3740234375 0.974365234375
2605193750.0 1.72320556640625 -0.10888671875
2636415625.0 1.2681884765625 -1.15283203125
2667637500.0 0.31103515625 -1.67156982421875
2698859375.0 -0.7696533203125 -1.541259765625
2730081250.0 -1.57769775390625 -0.74603271484375
2761303125.0 -1.68792724609375 0.3863525390625
2792525000.0 -1.10601806640625 1.31060791015625
2823746875.0 -0.10589599609375 1.7352294921875
2854968750.0 1.013671875 1.46331787109375
2886190625.0 1.6961669921875 0.496826171875
2917412500.0 1.6064453125 -0.61627197265625
2948634375.0 0.9453125 -1.43670654296875
2979856250.0 -0.1055908203125 -1.782470703125
3011078125.0 -1.25006103515625 -1.34930419921875
3042300000.0 -1.78076171875 -0.238525390625
3073521875.0 -1.5150146484375 0.83782958984375
3104743750.0 -0.768798828125 1.570556640625
3135965625.0 0.35882568359375 1.81524658203125
3167187500.0 1.5015869140625 1.17071533203125
3198409375.0 1.82305908203125 -0.0721435546875
3229631250.0 1.3551025390625 -1.08160400390625
3260853125.0 0.49444580078125 -1.6728515625
3292075000.0 -0.65350341796875 -1.70458984375
3323296875.0 -1.6236572265625 -0.88555908203125
3354518750.0 -1.735595703125 0.32537841796875
3385740625.0 -1.16192626953125 1.2344970703125
3416962500.0 -0.23492431640625 1.68695068359375
3448184375.0 0.8602294921875 1.5279541015625
3479406250.0 1.64044189453125 0.6490478515625
3510628125.0 1.650146484375 -0.49420166015625
3541850000.0 1.005859375 -1.35894775390625
3573071875.0 -0.00506591796875 -1.68756103515625
3604293750.0 -1.028564453125 -1.34307861328125
3635515625.0 -1.63226318359375 -0.442626953125
3666737500.0 -1.567626953125 0.645751953125
3697959375.0 -0.82989501953125 1.4801025390625
3729181250.0 0.2666015625 1.63653564453125
3760403125.0 1.15423583984375 1.1031494140625
3791625000.0 1.55712890625 0.22149658203125
3822846875.0 1.40789794921875 -0.76116943359375
3854068750.0 0.62530517578125 -1.484130859375
3885290625.0 -0.42034912109375 -1.48638916015625
3916512500.0 -1.14404296875 -0.9154052734375
3947734375.0 -1.451416015625 -0.12255859375
3978956250.0 -1.3031005859375 0.78045654296875
4010178125.0 -0.53521728515625 1.4581298828125
4041400000.0 0.47467041015625 1.42095947265625
4072621875.0 1.1544189453125 0.8509521484375
4103843750.0 1.4482421875 0.06561279296875
4135065625.0 1.27301025390625 -0.84722900390625
4166287500.0 0.46075439453125 -1.49981689453125
4197509375.0 -0.55877685546875 -1.4197998046875
4228731250.0 -1.2510986328125 -0.8060302734375
4259953125.0 -1.5137939453125 0.0697021484375
4291175000.0 -1.192626953125 1.01116943359375
4322396875.0 -0.29217529296875 1.5311279296875
4353618750.0 0.6734619140625 1.3548583984375
4384840625.0 1.32568359375 0.70074462890625
4416062500.0 1.50592041015625 -0.22662353515625
4447284375.0 1.06005859375 -1.10552978515625
4478506250.0 0.17449951171875 -1.4990234375
4509728125.0 -0.73272705078125 -1.31207275390625
4540950000.0 -1.39727783203125 -0.638671875
4572171875.0 -1.527587890625 0.35955810546875
4603393750.0 -0.97607421875 1.21466064453125
4634615625.0 -0.0628662109375 1.54168701171875
4665837500.0 0.8720703125 1.30889892578125
4697059375.0 1.5457763671875 0.5184326171875
4728281250.0 1.53399658203125 -0.58294677734375
4759503125.0 0.8270263671875 -1.3695068359375
4790725000.0 -0.14398193359375 -1.576171875
4821946875.0 -1.08551025390625 -1.19854736328125
4853168750.0 -1.61773681640625 -0.25360107421875
4884390625.0 -1.38287353515625 0.7926025390625
4915612500.0 -0.61602783203125 1.4163818359375
4946834375.0 0.3277587890625 1.513916015625
4978056250.0 1.20880126953125 1.0216064453125
5009278125.0 1.56768798828125 0.04052734375
5040500000.0 1.2337646484375 -0.87701416015625
5071721875.0 0.50445556640625 -1.4188232421875
5102943750.0 -0.446044921875 -1.50164794921875
5134165625.0 -1.3388671875 -0.90960693359375
5165387500.0 -1.57366943359375 0.146240234375
5196609375.0 -1.14019775390625 1.0120849609375
5227831250.0 -0.35919189453125 1.5108642578125
5259053125.0 0.68896484375 1.4971923828125
5290275000.0 1.52587890625 0.66583251953125
5321496875.0 1.49658203125 -0.4310302734375
5352718750.0 0.9244384765625 -1.15521240234375
5383940625.0 0.0985107421875 -1.50445556640625
5415162500.0 -0.90338134765625 -1.28875732421875
5446384375.0 -1.48968505859375 -0.37225341796875
5477606250.0 -1.30364990234375 0.5675048828125
5508828125.0 -0.734619140625 1.15350341796875
5540050000.0 0.0531005859375 1.40374755859375
5571271875.0 0.94097900390625 1.11285400390625
5602493750.0 1.41217041015625 0.2618408203125
5633715625.0 1.2366943359375 -0.6136474609375
5664937500.0 0.65057373046875 -1.2049560546875
5696159375.0 -0.19744873046875 -1.3880615234375
5727381250.0 -1.025390625 -0.9814453125
5758603125.0 -1.3956298828125 -0.1461181640625
5789825000.0 -1.19830322265625 0.71990966796875
5821046875.0 -0.50823974609375 1.31134033203125
5852268750.0 0.4119873046875 1.3170166015625
5883490625.0 1.07275390625 0.7750244140625
5914712500.0 1.30706787109375 0.020751953125
5945934375.0 1.10052490234375 -0.7777099609375
5977156250.0 0.3624267578125 -1.31683349609375
6008378125.0 -0.51043701171875 -1.18597412109375
6039600000.0 -1.02410888671875 -0.6510009765625
6070821875.0 -1.22808837890625 -0.0052490234375
6102043750.0 -1.08746337890625 0.76495361328125
6133265625.0 -0.34326171875 1.3482666015625
6164487500.0 0.56524658203125 1.191162109375
6195709375.0 1.07293701171875 0.63189697265625
6226931250.0 1.28350830078125 -0.04229736328125
6258153125.0 1.10845947265625 -0.87457275390625
6289375000.0 0.25579833984375 -1.45147705078125
6320596875.0 -0.69207763671875 -1.2088623046875
6351818750.0 -1.20196533203125 -0.57366943359375
6383040625.0 -1.3583984375 0.20672607421875
6414262500.0 -1.0025634765625 1.060302734375
6445484375.0 -0.0780029296875 1.46075439453125
6476706250.0 0.797119140625 1.150634765625
6507928125.0 1.2945556640625 0.4708251953125
6539150000.0 1.35113525390625 -0.38714599609375
6570371875.0 0.84405517578125 -1.1466064453125
6601593750.0 -0.01739501953125 -1.40887451171875
6632815625.0 -0.841796875 -1.1396484375
6664037500.0 -1.4053955078125 -0.421630859375
6695259375.0 -1.3779296875 0.56829833984375
6726481250.0 -0.71221923828125 1.255126953125
6757703125.0 0.13128662109375 1.411376953125
6788925000.0 0.9583740234375 1.13409423828125
6820146875.0 1.5653076171875 0.28759765625
6851368750.0 1.3289794921875 -0.82171630859375
6882590625.0 0.50823974609375 -1.3409423828125
6913812500.0 -0.29302978515625 -1.36090087890625
6945034375.0 -1.0732421875 -1.0245361328125
6976256250.0 -1.59765625 -0.09332275390625
7007478125.0 -1.24102783203125 0.93878173828125
7038700000.0 -0.4044189453125 1.3463134765625
7069921875.0 0.35809326171875 1.327880859375
7101143750.0 1.12310791015625 0.97247314453125
7132365625.0 1.6048583984375 0.014404296875
7163587500.0 1.15997314453125 -1.0228271484375
7194809375.0 0.30419921875 -1.4017333984375
7226031250.0 -0.51318359375 -1.3304443359375
7257253125.0 -1.273681640625 -0.8272705078125
7288475000.0 -1.5635986328125 0.19940185546875
7319696875.0 -1.03375244140625 1.1146240234375
7350918750.0 -0.1649169921875 1.449951171875
7382140625.0 0.7197265625 1.28131103515625
7413362500.0 1.3814697265625 0.57733154296875
7444584375.0 1.41693115234375 -0.41070556640625
7475806250.0 0.8604736328125 -1.14422607421875
7507028125.0 0.0057373046875 -1.4349365234375
7538250000.0 -0.89031982421875 -1.1270751953125
7569471875.0 -1.34112548828125 -0.31109619140625
7600693750.0 -1.2056884765625 0.49853515625
7631915625.0 -0.72052001953125 1.088623046875
7663137500.0 0.08013916015625 1.36309814453125
7694359375.0 0.942718505859375 0.984222412109375
7725581250.0 1.2481689453125 0.18096923828125
7756803125.0 1.0869140625 -0.50189208984375
7788025000.0 0.6727294921875 -1.0477294921875
7819246875.0 -0.12139892578125 -1.3524169921875
7850468750.0 -0.997039794921875 -0.917205810546875
7881690625.0 -1.23516845703125 -0.10577392578125
7912912500.0 -1.05902099609375 0.556884765625
7944134375.0 -0.606689453125 1.11895751953125
7975356250.0 0.2747802734375 1.34136962890625
8006578125.0 1.05047607421875 0.780029296875
8037800000.0 1.197265625 0.01531982421875
8069021875.0 1.0108642578125 -0.62103271484375
8100243750.0 0.50067138671875 -1.16680908203125
8131465625.0 -0.3892822265625 -1.25750732421875
8162687500.0 -1.03546142578125 -0.68792724609375
8193909375.0 -1.1846923828125 0.00860595703125
8225131250.0 -1.0216064453125 0.68218994140625
8256353125.0 -0.42266845703125 1.25457763671875
8287575000.0 0.503662109375 1.2296142578125
8318796875.0 1.0869140625 0.63726806640625
8350018750.0 1.2501220703125 -0.07611083984375
8381240625.0 1.03497314453125 -0.84344482421875
8412462500.0 0.25341796875 -1.37921142578125
8443684375.0 -0.6732177734375 -1.1729736328125
8474906250.0 -1.178466796875 -0.53277587890625
8506128125.0 -1.30438232421875 0.2398681640625
8537350000.0 -0.92547607421875 1.05169677734375
8568571875.0 -0.014892578125 1.39874267578125
8599793750.0 0.80572509765625 1.05615234375
8631015625.0 1.246826171875 0.39874267578125
8662237500.0 1.29034423828125 -0.43133544921875
8693459375.0 0.73907470703125 -1.18280029296875
8724681250.0 -0.16455078125 -1.33782958984375
8755903125.0 -0.88201904296875 -0.962066650390625
8787125000.0 -1.3099365234375 -0.2825927734375
8818346875.0 -1.2562255859375 0.61834716796875
8849568750.0 -0.5572509765625 1.26666259765625
8880790625.0 0.3021240234375 1.2904052734375
8912012500.0 0.987030029296875 0.895355224609375
8943234375.0 1.4046630859375 0.12774658203125
8974456250.0 1.1695556640625 -0.8450927734375
9005678125.0 0.34686279296875 -1.318359375
9036900000.0 -0.4490966796875 -1.2288818359375
9068121875.0 -1.10345458984375 -0.78857421875
9099343750.0 -1.4464111328125 0.10076904296875
9130565625.0 -0.98052978515625 1.01654052734375
9161787500.0 -0.153564453125 1.2857666015625
9193009375.0 0.55615234375 1.13629150390625
9224231250.0 1.18280029296875 0.65771484375
9255453125.0 1.404296875 -0.29864501953125
9286675000.0 0.80828857421875 -1.0908203125
9317896875.0 0.0257568359375 -1.251708984375
9349118750.0 -0.65802001953125 -1.0743408203125
9380340625.0 -1.26629638671875 -0.50909423828125
9411562500.0 -1.31561279296875 0.48358154296875
9442784375.0 -0.64849853515625 1.12127685546875
9474006250.0 0.0908203125 1.21484375
9505228125.0 0.7685546875 0.983551025390625
9536450000.0 1.27972412109375 0.3116455078125
9567671875.0 1.1468505859375 -0.585693359375
9598893750.0 0.52960205078125 -1.0723876953125
9630115625.0 -0.14544677734375 -1.1611328125
9661337500.0 -0.8233642578125 -0.904693603515625
9692559375.0 -1.24505615234375 -0.18780517578125
9723781250.0 -1.04547119140625 0.60687255859375
9755003125.0 -0.48712158203125 1.05352783203125
9786225000.0 0.20135498046875 1.16387939453125
9817446875.0 0.901458740234375 0.830291748046875
9848668750.0 1.20233154296875 0.076904296875
9879890625.0 0.970947265625 -0.618804931640625
9911112500.0 0.45330810546875 -1.0560302734375
9942334375.0 -0.26971435546875 -1.16290283203125
9973556250.0 -0.94952392578125 -0.7388916015625
10004778125.0 -1.15081787109375 -0.01507568359375
10036000000.0 -0.946319580078125 0.61871337890625
10067221875.0 -0.44293212890625 1.1004638671875
10098443750.0 0.37518310546875 1.18463134765625
10129665625.0 1.00811767578125 0.64215087890625
10160887500.0 1.1239013671875 -0.05426025390625
10192109375.0 0.919708251953125 -0.66717529296875
10223331250.0 0.3616943359375 -1.15631103515625
10254553125.0 -0.48931884765625 -1.11639404296875
10285775000.0 -0.989593505859375 -0.53497314453125
10316996875.0 -1.0709228515625 0.078125
10348218750.0 -0.90216064453125 0.673614501953125
10379440625.0 -0.32159423828125 1.1810302734375
10410662500.0 0.5308837890625 1.088134765625
10441884375.0 0.99658203125 0.522674560546875
10473106250.0 1.11456298828125 -0.08489990234375
10504328125.0 0.952484130859375 -0.7620849609375
10535550000.0 0.23883056640625 -1.2996826171875
10566771875.0 -0.6610107421875 -1.0782470703125
10597993750.0 -1.08612060546875 -0.4581298828125
10629215625.0 -1.17919921875 0.20782470703125
10660437500.0 -0.889678955078125 0.95556640625
10691659375.0 -0.00640869140625 1.339599609375
10722881250.0 0.7901611328125 0.953033447265625
10754103125.0 1.12298583984375 0.32421875
10785325000.0 1.14202880859375 -0.36865234375
10816546875.0 0.70123291015625 -1.05340576171875
10847768750.0 -0.14892578125 -1.232177734375
10878990625.0 -0.806396484375 -0.844512939453125
10910212500.0 -1.12615966796875 -0.244140625
10941434375.0 -1.10125732421875 0.4803466796875
10972656250.0 -0.5679931640625 1.0904541015625
11003878125.0 0.22015380859375 1.177001953125
11035100000.0 0.851318359375 0.823883056640625
11066321875.0 1.2266845703125 0.1728515625
11097543750.0 1.10150146484375 -0.68255615234375
11128765625.0 0.3846435546875 -1.2037353515625
11159987500.0 -0.39892578125 -1.1427001953125
11191209375.0 -1.00494384765625 -0.7039794921875
11222431250.0 -1.27874755859375 0.09808349609375
11253653125.0 -0.859466552734375 0.899810791015625
11284875000.0 -0.1126708984375 1.130126953125
11316096875.0 0.513671875 0.958740234375
11347318750.0 1.00750732421875 0.50201416015625
11378540625.0 1.1207275390625 -0.27386474609375
11409762500.0 0.6346435546875 -0.863525390625
11440984375.0 0.035064697265625 -0.98150634765625
11472206250.0 -0.484619140625 -0.85284423828125
11503428125.0 -0.957672119140625 -0.4559326171875
11534650000.0 -1.07281494140625 0.2923583984375
11565871875.0 -0.60296630859375 0.8594970703125
11597093750.0 -0.01727294921875 0.994842529296875
11628315625.0 0.548370361328125 0.878143310546875
11659537500.0 1.06427001953125 0.39166259765625
11690759375.0 1.06793212890625 -0.438232421875
11721981250.0 0.51666259765625 -0.945220947265625
11753203125.0 -0.107666015625 -1.0399169921875
11784425000.0 -0.730682373046875 -0.8104248046875
11815646875.0 -1.10675048828125 -0.14801025390625
11846868750.0 -0.892791748046875 0.55535888671875
11878090625.0 -0.390411376953125 0.913726806640625
11909312500.0 0.188934326171875 0.987548828125
11940534375.0 0.784942626953125 0.69586181640625
11971756250.0 1.0272216796875 0.0380859375
12002978125.0 0.808380126953125 -0.5406494140625
12034200000.0 0.380706787109375 -0.894195556640625
12065421875.0 -0.2200927734375 -1.014404296875
12096643750.0 -0.85321044921875 -0.66485595703125
12127865625.0 -1.036865234375 0.02032470703125
12159087500.0 -0.81585693359375 0.5780029296875
12190309375.0 -0.377044677734375 0.97882080078125
12221531250.0 0.3421630859375 1.09075927734375
12252753125.0 0.98590087890625 0.57989501953125
12283975000.0 1.0570068359375 -0.13031005859375
12315196875.0 0.802276611328125 -0.679718017578125
12346418750.0 0.27996826171875 -1.09637451171875
12377640625.0 -0.54449462890625 -1.0626220703125
12408862500.0 -1.03802490234375 -0.4169921875
12440084375.0 -1.0108642578125 0.2281494140625
12471306250.0 -0.743438720703125 0.742523193359375
12502528125.0 -0.1783447265625 1.1256103515625
12533750000.0 0.625274658203125 0.9952392578125
12564971875.0 1.04693603515625 0.36236572265625
12596193750.0 1.03216552734375 -0.26751708984375
12627415625.0 0.74993896484375 -0.83343505859375
12658637500.0 0.07623291015625 -1.21337890625
12689859375.0 -0.74267578125 -0.968109130859375
12721081250.0 -1.12158203125 -0.30487060546875
12752303125.0 -1.1016845703125 0.38934326171875
12783525000.0 -0.68756103515625 1.03515625
12814746875.0 0.1705322265625 1.2552490234375
12845968750.0 0.868865966796875 0.8115234375
12877190625.0 1.1236572265625 0.1693115234375
12908412500.0 1.0592041015625 -0.50616455078125
12939634375.0 0.5406494140625 -1.12432861328125
12970856250.0 -0.3245849609375 -1.1778564453125
13002078125.0 -0.89849853515625 -0.69305419921875
13033300000.0 -1.1114501953125 -0.085205078125
13064521875.0 -1.01190185546875 0.5982666015625
13095743750.0 -0.41656494140625 1.1617431640625
13126965625.0 0.41278076171875 1.1221923828125
13158187500.0 0.95159912109375 0.63116455078125
13189409375.0 1.15313720703125 -0.02557373046875
13220631250.0 0.93731689453125 -0.75506591796875
13251853125.0 0.23089599609375 -1.178466796875
13283075000.0 -0.51318359375 -1.02215576171875
13314296875.0 -0.9931640625 -0.52777099609375
13345518750.0 -1.139892578125 0.18310546875
