!Created with skrf (http://scikit-rf.org).
# Hz S RI R 50.0 
!freq ReS11 ImS11
45000000.0 -0.07690811157226562 -0.09692764282226562
76221875.0 -0.19712066650390625 -0.04756927490234375
107443750.0 -0.2559661865234375 0.120361328125
138665625.0 -0.1485748291015625 0.3297576904296875
169887500.0 0.123870849609375 0.418853759765625
201109375.0 0.423187255859375 0.2821044921875
232331250.0 0.5809326171875 -0.057769775390625
263553125.0 0.4908447265625 -0.4545745849609375
294775000.0 0.098388671875 -0.735198974609375
325996875.0 -0.417327880859375 -0.68328857421875
357218750.0 -0.80987548828125 -0.29815673828125
388440625.0 -0.88916015625 0.30218505859375
419662500.0 -0.51898193359375 0.8695068359375
450884375.0 0.1734619140625 1.03289794921875
482106250.0 0.801422119140625 0.71551513671875
513328125.0 1.1234130859375 0.0875244140625
544550000.0 1.0068359375 -0.68267822265625
575771875.0 0.3372802734375 -1.24188232421875
606993750.0 -0.55548095703125 -1.18133544921875
638215625.0 -1.1697998046875 -0.592529296875
669437500.0 -1.34405517578125 0.234619140625
700659375.0 -0.9736328125 1.0997314453125
731881250.0 -0.00390625 1.54815673828125
763103125.0 1.00933837890625 1.15972900390625
794325000.0 1.47412109375 0.2825927734375
825546875.0 1.37164306640625 -0.65386962890625
856768750.0 0.79632568359375 -1.4063720703125
887990625.0 -0.29443359375 -1.65399169921875
919212500.0 -1.29364013671875 -1.08233642578125
950434375.0 -1.6553955078125 -0.05780029296875
981656250.0 -1.3870849609375 0.951171875
1012878125.0 -0.530517578125 1.6788330078125
1044100000.0 0.7010498046875 1.6689453125
1075321875.0 1.582275390625 0.8140869140625
1106543750.0 1.71185302734375 -0.31536865234375
1137765625.0 1.19073486328125 -1.29010009765625
1168987500.0 0.13787841796875 -1.80511474609375
1200209375.0 -1.06732177734375 -1.48907470703125
1231431250.0 -1.73486328125 -0.453369140625
1262653125.0 -1.59942626953125 0.68792724609375
1293875000.0 -0.85455322265625 1.49737548828125
1325096875.0 0.22943115234375 1.713623046875
1356318750.0 1.24127197265625 1.22125244140625
1387540625.0 1.74676513671875 0.18853759765625
1418762500.0 1.47454833984375 -0.95562744140625
1449984375.0 0.530517578125 -1.6322021484375
1481206250.0 -0.55279541015625 -1.5614013671875
1512428125.0 -1.3470458984375 -0.922119140625
1543650000.0 -1.66119384765625 0.0673828125
1574871875.0 -1.277099609375 1.11322021484375
1606093750.0 -0.27264404296875 1.63751220703125
1637315625.0 0.74566650390625 1.40521240234375
1668537500.0 1.40142822265625 0.69744873046875
1699759375.0 1.5784912109375 -0.2783203125
1730981250.0 1.0672607421875 -1.23419189453125
1762203125.0 0.0411376953125 -1.57647705078125
1793425000.0 -0.85980224609375 -1.2298583984375
1824646875.0 -1.39892578125 -0.5157470703125
1855868750.0 -1.4786376953125 0.4351806640625
1887090625.0 -0.876708984375 1.291015625
1918312500.0 0.11920166015625 1.49212646484375
1949534375.0 0.92529296875 1.0916748046875
1980756250.0 1.37939453125 0.3704833984375
2011978125.0 1.3636474609375 -0.533935546875
2043200000.0 0.75201416015625 -1.266357421875
2074421875.0 -0.15875244140625 -1.4384765625
2105643750.0 -0.96466064453125 -1.07537841796875
2136865625.0 -1.45263671875 -0.30438232421875
2168087500.0 -1.361083984375 0.67462158203125
2199309375.0 -0.63970947265625 1.3570556640625
2230531250.0 0.28466796875 1.4412841796875
2261753125.0 1.077392578125 1.01641845703125
2292975000.0 1.519775390625 0.16925048828125
2324196875.0 1.308837890625 -0.82281494140625
2355418750.0 0.525146484375 -1.4249267578125
2386640625.0 -0.40777587890625 -1.45269775390625
2417862500.0 -1.1864013671875 -1.02520751953125
2449084375.0 -1.6099853515625 -0.08184814453125
2480306250.0 -1.3145751953125 0.93011474609375
2511528125.0 -0.49359130859375 1.51470947265625
2542750000.0 0.49407958984375 1.54248046875
2573971875.0 1.37896728515625 0.9693603515625
2605193750.0 1.7242431640625 -0.1163330078125
2636415625.0 1.26385498046875 -1.15789794921875
2667637500.0 0.30462646484375 -1.67376708984375
2698859375.0 -0.77569580078125 -1.539306640625
2730081250.0 -1.58111572265625 -0.74090576171875
2761303125.0 -1.6883544921875 0.3927001953125
2792525000.0 -1.1014404296875 1.31536865234375
2823746875.0 -0.09979248046875 1.73638916015625
2854968750.0 1.01861572265625 1.45977783203125
2886190625.0 1.69964599609375 0.49066162109375
2917412500.0 1.60528564453125 -0.6231689453125
2948634375.0 0.940673828125 -1.44012451171875
2979856250.0 -0.11102294921875 -1.78179931640625
3011078125.0 -1.25604248046875 -1.345703125
3042300000.0 -1.7825927734375 -0.23223876953125
3073521875.0 -1.5135498046875 0.84381103515625
3104743750.0 -0.76336669921875 1.5767822265625
3135965625.0 0.367431640625 1.81610107421875
3167187500.0 1.50701904296875 1.16668701171875
3198409375.0 1.82269287109375 -0.0780029296875
3229631250.0 1.35211181640625 -1.08636474609375
3260853125.0 0.4888916015625 -1.6759033203125
3292075000.0 -0.6600341796875 -1.70306396484375
3323296875.0 -1.6263427734375 -0.88165283203125
3354518750.0 -1.73699951171875 0.3326416015625
3385740625.0 -1.15869140625 1.239990234375
3416962500.0 -0.22955322265625 1.68902587890625
3448184375.0 0.86749267578125 1.52691650390625
3479406250.0 1.643798828125 0.64324951171875
3510628125.0 1.6494140625 -0.50006103515625
3541850000.0 1.00103759765625 -1.36273193359375
3573071875.0 -0.01177978515625 -1.6890869140625
3604293750.0 -1.03472900390625 -1.340087890625
3635515625.0 -1.6339111328125 -0.4373779296875
3666737500.0 -1.56610107421875 0.6517333984375
3697959375.0 -0.82550048828125 1.4825439453125
3729181250.0 0.2728271484375 1.636962890625
3760403125.0 1.1583251953125 1.10064697265625
3791625000.0 1.55804443359375 0.21759033203125
3822846875.0 1.40643310546875 -0.7657470703125
3854068750.0 0.62078857421875 -1.4876708984375
3885290625.0 -0.42608642578125 -1.4866943359375
3916512500.0 -1.14874267578125 -0.91204833984375
3947734375.0 -1.45361328125 -0.11724853515625
3978956250.0 -1.30157470703125 0.78521728515625
4010178125.0 -0.5291748046875 1.46295166015625
4041400000.0 0.47894287109375 1.41961669921875
4072621875.0 1.15814208984375 0.84759521484375
4103843750.0 1.4493408203125 0.06011962890625
4135065625.0 1.2705078125 -0.8524169921875
4166287500.0 0.45458984375 -1.50250244140625
4197509375.0 -0.5634765625 -1.41748046875
4228731250.0 -1.2529296875 -0.8018798828125
4259953125.0 -1.5135498046875 0.07440185546875
4291175000.0 -1.19012451171875 1.01556396484375
4322396875.0 -0.2872314453125 1.53192138671875
4353618750.0 0.67822265625 1.3533935546875
4384840625.0 1.328369140625 0.6966552734375
4416062500.0 1.5062255859375 -0.23162841796875
4447284375.0 1.05670166015625 -1.1112060546875
4478506250.0 0.1688232421875 -1.50164794921875
4509728125.0 -0.73822021484375 -1.31036376953125
4540950000.0 -1.40087890625 -0.634521484375
4572171875.0 -1.52667236328125 0.3662109375
4603393750.0 -0.972412109375 1.2191162109375
4634615625.0 -0.05609130859375 1.54296875
4665837500.0 0.87701416015625 1.3065185546875
4697059375.0 1.547119140625 0.51348876953125
4728281250.0 1.53265380859375 -0.58905029296875
4759503125.0 0.821533203125 -1.37310791015625
4790725000.0 -0.15032958984375 -1.577392578125
4821946875.0 -1.08984375 -1.19500732421875
4853168750.0 -1.61859130859375 -0.248779296875
4884390625.0 -1.38079833984375 0.799560546875
4915612500.0 -0.61248779296875 1.41754150390625
4946834375.0 0.3333740234375 1.51397705078125
4978056250.0 1.2120361328125 1.0179443359375
5009278125.0 1.56878662109375 0.03448486328125
5040500000.0 1.2315673828125 -0.8826904296875
5071721875.0 0.4993896484375 -1.42156982421875
5102943750.0 -0.4537353515625 -1.50177001953125
5134165625.0 -1.3433837890625 -0.90423583984375
5165387500.0 -1.57305908203125 0.15203857421875
5196609375.0 -1.13641357421875 1.01715087890625
5227831250.0 -0.353515625 1.5128173828125
5259053125.0 0.6949462890625 1.49560546875
5290275000.0 1.52984619140625 0.6595458984375
5321496875.0 1.4952392578125 -0.4364013671875
5352718750.0 0.9202880859375 -1.1591796875
5383940625.0 0.0928955078125 -1.50543212890625
5415162500.0 -0.90765380859375 -1.28619384765625
5446384375.0 -1.49029541015625 -0.3675537109375
5477606250.0 -1.3028564453125 0.57208251953125
5508828125.0 -0.731201171875 1.15765380859375
5540050000.0 0.05810546875 1.40447998046875
5571271875.0 0.94573974609375 1.110595703125
5602493750.0 1.41510009765625 0.255859375
5633715625.0 1.23468017578125 -0.61834716796875
5664937500.0 0.64666748046875 -1.208251953125
5696159375.0 -0.2022705078125 -1.387939453125
5727381250.0 -1.02886962890625 -0.9783935546875
5758603125.0 -1.395751953125 -0.14093017578125
5789825000.0 -1.19647216796875 0.72503662109375
5821046875.0 -0.5029296875 1.31475830078125
5852268750.0 0.417724609375 1.31561279296875
5883490625.0 1.076904296875 0.770751953125
5914712500.0 1.30682373046875 0.016357421875
5945934375.0 1.09808349609375 -0.78173828125
5977156250.0 0.35833740234375 -1.31719970703125
6008378125.0 -0.515380859375 -1.18463134765625
6039600000.0 -1.02740478515625 -0.6474609375
6070821875.0 -1.2286376953125 -0.00054931640625
6102043750.0 -1.085693359375 0.76983642578125
6133265625.0 -0.3375244140625 1.35223388671875
6164487500.0 0.57025146484375 1.18939208984375
6195709375.0 1.07659912109375 0.62890625
6226931250.0 1.28460693359375 -0.0469970703125
6258153125.0 1.1058349609375 -0.88018798828125
6289375000.0 0.2503662109375 -1.452392578125
6320596875.0 -0.69683837890625 -1.20684814453125
6351818750.0 -1.205322265625 -0.5684814453125
6383040625.0 -1.35797119140625 0.21307373046875
6414262500.0 -0.99847412109375 1.06585693359375
6445484375.0 -0.0731201171875 1.46099853515625
6476706250.0 0.80230712890625 1.14886474609375
6507928125.0 1.29583740234375 0.466552734375
6539150000.0 1.35076904296875 -0.39190673828125
6570371875.0 0.8404541015625 -1.1500244140625
6601593750.0 -0.02227783203125 -1.40997314453125
6632815625.0 -0.8460693359375 -1.1378173828125
6664037500.0 -1.40960693359375 -0.41595458984375
6695259375.0 -1.37646484375 0.573486328125
6726481250.0 -0.7078857421875 1.25811767578125
6757703125.0 0.13690185546875 1.41162109375
6788925000.0 0.96307373046875 1.13140869140625
6820146875.0 1.567138671875 0.281494140625
6851368750.0 1.32623291015625 -0.8284912109375
6882590625.0 0.50250244140625 -1.34442138671875
6913812500.0 -0.29827880859375 -1.35943603515625
6945034375.0 -1.0782470703125 -1.02099609375
6976256250.0 -1.59747314453125 -0.08660888671875
7007478125.0 -1.2374267578125 0.9412841796875
7038700000.0 -0.39837646484375 1.3494873046875
7069921875.0 0.36492919921875 1.32733154296875
7101143750.0 1.12554931640625 0.9686279296875
7132365625.0 1.6064453125 0.0078125
7163587500.0 1.15802001953125 -1.0274658203125
7194809375.0 0.29791259765625 -1.40594482421875
7226031250.0 -0.51812744140625 -1.3297119140625
7257253125.0 -1.27716064453125 -0.822021484375
7288475000.0 -1.56292724609375 0.20599365234375
7319696875.0 -1.0299072265625 1.11712646484375
7350918750.0 -0.15911865234375 1.450927734375
7382140625.0 0.7216796875 1.27862548828125
7413362500.0 1.38427734375 0.572021484375
7444584375.0 1.41455078125 -0.4144287109375
7475806250.0 0.8560791015625 -1.15045166015625
7507028125.0 0.00018310546875 -1.432861328125
7538250000.0 -0.8946533203125 -1.1236572265625
7569471875.0 -1.3421630859375 -0.3074951171875
7600693750.0 -1.2049560546875 0.50408935546875
7631915625.0 -0.7164306640625 1.0921630859375
7663137500.0 0.08538818359375 1.36492919921875
7694359375.0 0.946685791015625 0.980926513671875
7725581250.0 1.248779296875 0.17718505859375
7756803125.0 1.086181640625 -0.50457763671875
7788025000.0 0.6697998046875 -1.05279541015625
7819246875.0 -0.12744140625 -1.352294921875
7850468750.0 -1.00146484375 -0.91400146484375
7881690625.0 -1.237548828125 -0.09912109375
7912912500.0 -1.05670166015625 0.56219482421875
7944134375.0 -0.6016845703125 1.12298583984375
7975356250.0 0.2801513671875 1.3387451171875
8006578125.0 1.0543212890625 0.77618408203125
8037800000.0 1.1971435546875 0.01165771484375
8069021875.0 1.0069580078125 -0.6240234375
8100243750.0 0.49609375 -1.16961669921875
8131465625.0 -0.39520263671875 -1.25604248046875
8162687500.0 -1.0399169921875 -0.68316650390625
8193909375.0 -1.184814453125 0.01239013671875
8225131250.0 -1.01995849609375 0.68463134765625
8256353125.0 -0.4180908203125 1.256103515625
8287575000.0 0.51019287109375 1.22930908203125
8318796875.0 1.08941650390625 0.63311767578125
8350018750.0 1.2506103515625 -0.0816650390625
8381240625.0 1.032470703125 -0.84722900390625
8412462500.0 0.24700927734375 -1.38226318359375
8443684375.0 -0.67816162109375 -1.17095947265625
8474906250.0 -1.1812744140625 -0.528076171875
8506128125.0 -1.30157470703125 0.2430419921875
8537350000.0 -0.92218017578125 1.05596923828125
8568571875.0 -0.00921630859375 1.3985595703125
8599793750.0 0.8077392578125 1.052734375
8631015625.0 1.24859619140625 0.3934326171875
8662237500.0 1.28814697265625 -0.4354248046875
8693459375.0 0.73419189453125 -1.18438720703125
8724681250.0 -0.1671142578125 -1.33563232421875
8755903125.0 -0.886688232421875 -0.95947265625
8787125000.0 -1.3114013671875 -0.27923583984375
8818346875.0 -1.25537109375 0.62689208984375
8849568750.0 -0.552734375 1.269775390625
8880790625.0 0.30523681640625 1.28936767578125
8912012500.0 0.991119384765625 0.892242431640625
8943234375.0 1.40753173828125 0.1207275390625
8974456250.0 1.166259765625 -0.850830078125
9005678125.0 0.34222412109375 -1.3203125
9036900000.0 -0.4539794921875 -1.2265625
9068121875.0 -1.10955810546875 -0.78228759765625
9099343750.0 -1.44671630859375 0.10858154296875
9130565625.0 -0.97607421875 1.01947021484375
9161787500.0 -0.14910888671875 1.28680419921875
9193009375.0 0.56158447265625 1.1348876953125
9224231250.0 1.18658447265625 0.6531982421875
9255453125.0 1.40362548828125 -0.30291748046875
9286675000.0 0.8052978515625 -1.09173583984375
9317896875.0 0.0228271484375 -1.25213623046875
9349118750.0 -0.6614990234375 -1.071044921875
9380340625.0 -1.2662353515625 -0.50579833984375
9411562500.0 -1.314697265625 0.48736572265625
9442784375.0 -0.6444091796875 1.12225341796875
9474006250.0 0.0953369140625 1.2159423828125
9505228125.0 0.774688720703125 0.980224609375
9536450000.0 1.2838134765625 0.3057861328125
9567671875.0 1.1441650390625 -0.58990478515625
9598893750.0 0.52435302734375 -1.07623291015625
9630115625.0 -0.149169921875 -1.16070556640625
9661337500.0 -0.827117919921875 -0.901092529296875
9692559375.0 -1.24395751953125 -0.1832275390625
9723781250.0 -1.04345703125 0.61077880859375
9755003125.0 -0.48236083984375 1.05621337890625
9786225000.0 0.2049560546875 1.16302490234375
9817446875.0 0.90325927734375 0.82537841796875
9848668750.0 1.20404052734375 0.071044921875
9879890625.0 0.9691162109375 -0.623260498046875
9911112500.0 0.448974609375 -1.0592041015625
9942334375.0 -0.2767333984375 -1.1641845703125
9973556250.0 -0.954864501953125 -0.7352294921875
10004778125.0 -1.151123046875 -0.009765625
10036000000.0 -0.944580078125 0.62493896484375
10067221875.0 -0.4366455078125 1.10595703125
10098443750.0 0.380859375 1.1849365234375
10129665625.0 1.0108642578125 0.63800048828125
10160887500.0 1.12298583984375 -0.05914306640625
10192109375.0 0.915985107421875 -0.669219970703125
10223331250.0 0.35546875 -1.1575927734375
10254553125.0 -0.49420166015625 -1.11431884765625
10285775000.0 -0.99114990234375 -0.530670166015625
10316996875.0 -1.0711669921875 0.08319091796875
10348218750.0 -0.89959716796875 0.677947998046875
10379440625.0 -0.317138671875 1.1822509765625
10410662500.0 0.53533935546875 1.08685302734375
10441884375.0 0.9984130859375 0.5179443359375
10473106250.0 1.11456298828125 -0.0908203125
10504328125.0 0.95013427734375 -0.7667236328125
10535550000.0 0.23309326171875 -1.30096435546875
10566771875.0 -0.667724609375 -1.07666015625
10597993750.0 -1.08831787109375 -0.454345703125
10629215625.0 -1.17791748046875 0.212646484375
10660437500.0 -0.885345458984375 0.96417236328125
10691659375.0 0.0003662109375 1.34173583984375
10722881250.0 0.79364013671875 0.949920654296875
10754103125.0 1.1241455078125 0.3199462890625
10785325000.0 1.1412353515625 -0.3746337890625
10816546875.0 0.69757080078125 -1.05804443359375
10847768750.0 -0.1533203125 -1.23284912109375
10878990625.0 -0.809661865234375 -0.842193603515625
10910212500.0 -1.12774658203125 -0.2396240234375
10941434375.0 -1.09967041015625 0.48388671875
10972656250.0 -0.56439208984375 1.0926513671875
11003878125.0 0.2255859375 1.17840576171875
11035100000.0 0.858428955078125 0.821319580078125
11066321875.0 1.227783203125 0.1676025390625
11097543750.0 1.0994873046875 -0.6851806640625
11128765625.0 0.379638671875 -1.20574951171875
11159987500.0 -0.40557861328125 -1.14300537109375
11191209375.0 -1.0069580078125 -0.69940185546875
11222431250.0 -1.2777099609375 0.10223388671875
11253653125.0 -0.855560302734375 0.902374267578125
11284875000.0 -0.10906982421875 1.12994384765625
11316096875.0 0.518096923828125 0.957275390625
11347318750.0 1.010986328125 0.49853515625
11378540625.0 1.11907958984375 -0.2779541015625
11409762500.0 0.63134765625 -0.866424560546875
11440984375.0 0.030364990234375 -0.981903076171875
11472206250.0 -0.48779296875 -0.851776123046875
11503428125.0 -0.959808349609375 -0.45263671875
11534650000.0 -1.0711669921875 0.29534912109375
11565871875.0 -0.599273681640625 0.861480712890625
11597093750.0 -0.012908935546875 0.99578857421875
11628315625.0 0.552215576171875 0.87646484375
11659537500.0 1.06988525390625 0.3870849609375
11690759375.0 1.0650634765625 -0.4417724609375
11721981250.0 0.512359619140625 -0.9473876953125
11753203125.0 -0.111572265625 -1.03875732421875
11784425000.0 -0.733367919921875 -0.807586669921875
11815646875.0 -1.10601806640625 -0.1434326171875
11846868750.0 -0.889984130859375 0.56060791015625
11878090625.0 -0.38726806640625 0.915252685546875
11909312500.0 0.193450927734375 0.9879150390625
11940534375.0 0.78692626953125 0.692169189453125
11971756250.0 1.02880859375 0.03369140625
12002978125.0 0.806365966796875 -0.54498291015625
12034200000.0 0.3780517578125 -0.89605712890625
12065421875.0 -0.224365234375 -1.01422119140625
12096643750.0 -0.85638427734375 -0.6610107421875
12127865625.0 -1.0369873046875 0.02374267578125
12159087500.0 -0.814422607421875 0.5821533203125
12190309375.0 -0.37396240234375 0.98211669921875
12221531250.0 0.3492431640625 1.09033203125
12252753125.0 0.98858642578125 0.576171875
12283975000.0 1.0576171875 -0.13641357421875
12315196875.0 0.798858642578125 -0.683929443359375
12346418750.0 0.2752685546875 -1.0985107421875
12377640625.0 -0.5487060546875 -1.06005859375
12408862500.0 -1.03887939453125 -0.41412353515625
12440084375.0 -1.00982666015625 0.23089599609375
12471306250.0 -0.74066162109375 0.7454833984375
12502528125.0 -0.173095703125 1.12701416015625
12533750000.0 0.62823486328125 0.99334716796875
12564971875.0 1.0484619140625 0.3580322265625
12596193750.0 1.03155517578125 -0.27191162109375
12627415625.0 0.745880126953125 -0.839111328125
12658637500.0 0.071044921875 -1.214599609375
12689859375.0 -0.74627685546875 -0.965423583984375
12721081250.0 -1.12420654296875 -0.298095703125
12752303125.0 -1.1005859375 0.39276123046875
12783525000.0 -0.68255615234375 1.03778076171875
12814746875.0 0.177978515625 1.25714111328125
12845968750.0 0.873687744140625 0.807891845703125
12877190625.0 1.1241455078125 0.16455078125
12908412500.0 1.05731201171875 -0.51171875
12939634375.0 0.53643798828125 -1.1260986328125
12970856250.0 -0.33172607421875 -1.17767333984375
13002078125.0 -0.90203857421875 -0.6903076171875
13033300000.0 -1.10980224609375 -0.08111572265625
13064521875.0 -1.01043701171875 0.60430908203125
13095743750.0 -0.4124755859375 1.163330078125
13126965625.0 0.419921875 1.1217041015625
13158187500.0 0.954071044921875 0.629608154296875
13189409375.0 1.15447998046875 -0.0294189453125
13220631250.0 0.9349365234375 -0.760040283203125
13251853125.0 0.22552490234375 -1.18017578125
13283075000.0 -0.51849365234375 -1.01983642578125
13314296875.0 -0.99468994140625 -0.525543212890625
13345518750.0 -1.1396484375 0.1883544921875
