!Created with skrf (http://scikit-rf.org).
# Hz S RI R 50.0 
!freq ReS11 ImS11
45000000.0 -0.07695388793945312 -0.09714889526367188
76221875.0 -0.19676971435546875 -0.0477294921875
107443750.0 -0.255584716796875 0.119873046875
138665625.0 -0.148590087890625 0.3294219970703125
169887500.0 0.1235809326171875 0.4184112548828125
201109375.0 0.4227752685546875 0.2817535400390625
232331250.0 0.580230712890625 -0.057403564453125
263553125.0 0.490753173828125 -0.453704833984375
294775000.0 0.0986328125 -0.73419189453125
325996875.0 -0.41619873046875 -0.682586669921875
357218750.0 -0.808197021484375 -0.297943115234375
388440625.0 -0.88800048828125 0.301116943359375
419662500.0 -0.5185546875 0.867950439453125
450884375.0 0.1728515625 1.03143310546875
482106250.0 0.7999267578125 0.714599609375
513328125.0 1.12164306640625 0.088134765625
544550000.0 1.00604248046875 -0.6806640625
575771875.0 0.337646484375 -1.24029541015625
606993750.0 -0.5545654296875 -1.17987060546875
638215625.0 -1.16790771484375 -0.592041015625
669437500.0 -1.34246826171875 0.23358154296875
700659375.0 -0.9732666015625 1.097900390625
731881250.0 -0.00445556640625 1.5460205078125
763103125.0 1.0068359375 1.15850830078125
794325000.0 1.4715576171875 0.28277587890625
825546875.0 1.37005615234375 -0.6519775390625
856768750.0 0.79669189453125 -1.40399169921875
887990625.0 -0.29278564453125 -1.65228271484375
919212500.0 -1.2906494140625 -1.08135986328125
950434375.0 -1.652587890625 -0.05950927734375
981656250.0 -1.38592529296875 0.947509765625
1012878125.0 -0.53131103515625 1.67596435546875
1044100000.0 0.6982421875 1.6661376953125
1075321875.0 1.57843017578125 0.814453125
1106543750.0 1.70880126953125 -0.31292724609375
1137765625.0 1.18988037109375 -1.28607177734375
1168987500.0 0.1392822265625 -1.801025390625
1200209375.0 -1.06378173828125 -1.4874267578125
1231431250.0 -1.73089599609375 -0.454833984375
1262653125.0 -1.59735107421875 0.68560791015625
1293875000.0 -0.85443115234375 1.494140625
1325096875.0 0.22747802734375 1.7103271484375
1356318750.0 1.23724365234375 1.2198486328125
1387540625.0 1.74334716796875 0.19000244140625
1418762500.0 1.47247314453125 -0.9527587890625
1449984375.0 0.53094482421875 -1.628173828125
1481206250.0 -0.5504150390625 -1.55914306640625
1512428125.0 -1.34454345703125 -0.9215087890625
1543650000.0 -1.65838623046875 0.06500244140625
1574871875.0 -1.275634765625 1.11004638671875
1606093750.0 -0.27374267578125 1.6341552734375
1637315625.0 0.74310302734375 1.4031982421875
1668537500.0 1.39813232421875 0.69744873046875
1699759375.0 1.5751953125 -0.27667236328125
1730981250.0 1.06634521484375 -1.23095703125
1762203125.0 0.0426025390625 -1.572998046875
1793425000.0 -0.85693359375 -1.22857666015625
1824646875.0 -1.39569091796875 -0.51617431640625
1855868750.0 -1.47625732421875 0.43231201171875
1887090625.0 -0.87664794921875 1.287353515625
1918312500.0 0.11700439453125 1.4893798828125
1949534375.0 0.92279052734375 1.0908203125
1980756250.0 1.376953125 0.37066650390625
2011978125.0 1.3619384765625 -0.53192138671875
2043200000.0 0.751708984375 -1.2633056640625
2074421875.0 -0.156982421875 -1.43560791015625
2105643750.0 -0.96124267578125 -1.073974609375
2136865625.0 -1.449462890625 -0.30548095703125
2168087500.0 -1.3592529296875 0.67169189453125
2199309375.0 -0.6405029296875 1.35345458984375
2230531250.0 0.281982421875 1.4378662109375
2261753125.0 1.07373046875 1.01580810546875
2292975000.0 1.51666259765625 0.1708984375
2324196875.0 1.3076171875 -0.8189697265625
2355418750.0 0.52606201171875 -1.42181396484375
2386640625.0 -0.40472412109375 -1.450927734375
2417862500.0 -1.1829833984375 -1.0260009765625
2449084375.0 -1.6070556640625 -0.08453369140625
2480306250.0 -1.3135986328125 0.92657470703125
2511528125.0 -0.49554443359375 1.50946044921875
2542750000.0 0.4893798828125 1.538818359375
2573971875.0 1.371826171875 0.9700927734375
2605193750.0 1.72027587890625 -0.1119384765625
2636415625.0 1.2640380859375 -1.15447998046875
2667637500.0 0.30743408203125 -1.66949462890625
2698859375.0 -0.77032470703125 -1.53656005859375
2730081250.0 -1.5758056640625 -0.74249267578125
2761303125.0 -1.6837158203125 0.38739013671875
2792525000.0 -1.10150146484375 1.3092041015625
2823746875.0 -0.10260009765625 1.73284912109375
2854968750.0 1.01397705078125 1.4581298828125
2886190625.0 1.69439697265625 0.4930419921875
2917412500.0 1.60333251953125 -0.6185302734375
2948634375.0 0.94134521484375 -1.4345703125
2979856250.0 -0.10791015625 -1.77960205078125
3011078125.0 -1.24810791015625 -1.3448486328125
3042300000.0 -1.7779541015625 -0.23553466796875
3073521875.0 -1.51165771484375 0.8392333984375
3104743750.0 -0.7650146484375 1.5716552734375
3135965625.0 0.3621826171875 1.81207275390625
3167187500.0 1.50115966796875 1.166748046875
3198409375.0 1.8179931640625 -0.07421875
3229631250.0 1.35174560546875 -1.0823974609375
3260853125.0 0.4908447265625 -1.6708984375
3292075000.0 -0.65460205078125 -1.70037841796875
3323296875.0 -1.621826171875 -0.88177490234375
3354518750.0 -1.73333740234375 0.3291015625
3385740625.0 -1.1583251953125 1.23272705078125
3416962500.0 -0.23223876953125 1.6849365234375
3448184375.0 0.86077880859375 1.52410888671875
3479406250.0 1.6383056640625 0.64581298828125
3510628125.0 1.646728515625 -0.49468994140625
3541850000.0 1.00250244140625 -1.3560791015625
3573071875.0 -0.00701904296875 -1.68487548828125
3604293750.0 -1.02850341796875 -1.3394775390625
3635515625.0 -1.629638671875 -0.44000244140625
3666737500.0 -1.56402587890625 0.64678955078125
3697959375.0 -0.82672119140625 1.47796630859375
3729181250.0 0.26800537109375 1.633544921875
3760403125.0 1.1536865234375 1.10028076171875
3791625000.0 1.55419921875 0.21917724609375
3822846875.0 1.404296875 -0.760986328125
3854068750.0 0.62176513671875 -1.48370361328125
3885290625.0 -0.4205322265625 -1.4830322265625
3916512500.0 -1.14324951171875 -0.9129638671875
3947734375.0 -1.44940185546875 -0.12078857421875
3978956250.0 -1.299560546875 0.7794189453125
4010178125.0 -0.53240966796875 1.45648193359375
4041400000.0 0.4735107421875 1.41748046875
4072621875.0 1.1527099609375 0.84912109375
4103843750.0 1.44683837890625 0.06396484375
4135065625.0 1.26959228515625 -0.84600830078125
4166287500.0 0.45953369140625 -1.49578857421875
4197509375.0 -0.55706787109375 -1.41644287109375
4228731250.0 -1.25 -0.80401611328125
4259953125.0 -1.50982666015625 0.06866455078125
4291175000.0 -1.190185546875 1.01068115234375
4322396875.0 -0.290283203125 1.528076171875
4353618750.0 0.6734619140625 1.35198974609375
4384840625.0 1.32269287109375 0.69940185546875
4416062500.0 1.5032958984375 -0.22711181640625
4447284375.0 1.0572509765625 -1.10528564453125
4478506250.0 0.17327880859375 -1.4971923828125
4509728125.0 -0.73321533203125 -1.30926513671875
4540950000.0 -1.3953857421875 -0.63677978515625
4572171875.0 -1.52447509765625 0.359375
4603393750.0 -0.974365234375 1.21343994140625
4634615625.0 -0.0621337890625 1.5386962890625
4665837500.0 0.87109375 1.30615234375
4697059375.0 1.54351806640625 0.51611328125
4728281250.0 1.5308837890625 -0.582763671875
4759503125.0 0.8245849609375 -1.3687744140625
4790725000.0 -0.14410400390625 -1.5732421875
4821946875.0 -1.084716796875 -1.19573974609375
4853168750.0 -1.61541748046875 -0.25238037109375
4884390625.0 -1.37994384765625 0.79229736328125
4915612500.0 -0.61517333984375 1.41357421875
4946834375.0 0.3297119140625 1.51220703125
4978056250.0 1.206298828125 1.0194091796875
5009278125.0 1.5634765625 0.0406494140625
5040500000.0 1.23150634765625 -0.876220703125
5071721875.0 0.50299072265625 -1.4158935546875
5102943750.0 -0.44775390625 -1.4990234375
5134165625.0 -1.336669921875 -0.90692138671875
5165387500.0 -1.57061767578125 0.1470947265625
5196609375.0 -1.13818359375 1.00970458984375
5227831250.0 -0.35791015625 1.5084228515625
5259053125.0 0.6883544921875 1.49420166015625
5290275000.0 1.52484130859375 0.66339111328125
5321496875.0 1.494140625 -0.43121337890625
5352718750.0 0.92236328125 -1.15447998046875
5383940625.0 0.0970458984375 -1.50250244140625
5415162500.0 -0.901611328125 -1.2860107421875
5446384375.0 -1.48736572265625 -0.3707275390625
5477606250.0 -1.30084228515625 0.5665283203125
5508828125.0 -0.73272705078125 1.15185546875
5540050000.0 0.05352783203125 1.40081787109375
5571271875.0 0.94061279296875 1.111328125
5602493750.0 1.4110107421875 0.2603759765625
5633715625.0 1.23431396484375 -0.61334228515625
5664937500.0 0.6494140625 -1.2027587890625
5696159375.0 -0.1976318359375 -1.38568115234375
5727381250.0 -1.02288818359375 -0.97991943359375
5758603125.0 -1.39312744140625 -0.1455078125
5789825000.0 -1.1961669921875 0.7191162109375
5821046875.0 -0.5072021484375 1.309326171875
5852268750.0 0.4122314453125 1.31488037109375
5883490625.0 1.07269287109375 0.7734375
5914712500.0 1.304931640625 0.01971435546875
5945934375.0 1.0987548828125 -0.7762451171875
5977156250.0 0.3619384765625 -1.3135986328125
6008378125.0 -0.5089111328125 -1.1839599609375
6039600000.0 -1.0225830078125 -0.65081787109375
6070821875.0 -1.22552490234375 -0.00482177734375
6102043750.0 -1.08514404296875 0.76336669921875
6133265625.0 -0.34228515625 1.3470458984375
6164487500.0 0.56475830078125 1.189453125
6195709375.0 1.07244873046875 0.631103515625
6226931250.0 1.2816162109375 -0.0426025390625
6258153125.0 1.10662841796875 -0.87353515625
6289375000.0 0.2567138671875 -1.4476318359375
6320596875.0 -0.6905517578125 -1.20758056640625
6351818750.0 -1.201904296875 -0.5726318359375
6383040625.0 -1.35589599609375 0.20684814453125
6414262500.0 -1.00115966796875 1.05999755859375
6445484375.0 -0.07830810546875 1.459228515625
6476706250.0 0.796142578125 1.1494140625
6507928125.0 1.292236328125 0.47088623046875
6539150000.0 1.34942626953125 -0.3868408203125
6570371875.0 0.8426513671875 -1.144775390625
6601593750.0 -0.016845703125 -1.40667724609375
6632815625.0 -0.84033203125 -1.1378173828125
6664037500.0 -1.40252685546875 -0.42108154296875
6695259375.0 -1.37640380859375 0.56689453125
6726481250.0 -0.7113037109375 1.253173828125
6757703125.0 0.13128662109375 1.40966796875
6788925000.0 0.957275390625 1.13238525390625
6820146875.0 1.56317138671875 0.28741455078125
6851368750.0 1.327392578125 -0.81964111328125
6882590625.0 0.50665283203125 -1.34051513671875
6913812500.0 -0.2923583984375 -1.358154296875
6945034375.0 -1.07086181640625 -1.022705078125
6976256250.0 -1.5943603515625 -0.0941162109375
7007478125.0 -1.2386474609375 0.93353271484375
7038700000.0 -0.4034423828125 1.344482421875
7069921875.0 0.3580322265625 1.3265380859375
7101143750.0 1.12091064453125 0.97027587890625
7132365625.0 1.6043701171875 0.01312255859375
7163587500.0 1.15985107421875 -1.01995849609375
7194809375.0 0.30291748046875 -1.400390625
7226031250.0 -0.5120849609375 -1.32757568359375
7257253125.0 -1.2684326171875 -0.82574462890625
7288475000.0 -1.56011962890625 0.1990966796875
7319696875.0 -1.03277587890625 1.11224365234375
7350918750.0 -0.16375732421875 1.44659423828125
7382140625.0 0.7169189453125 1.2794189453125
7413362500.0 1.3802490234375 0.57647705078125
7444584375.0 1.41357421875 -0.4085693359375
7475806250.0 0.85919189453125 -1.14373779296875
7507028125.0 0.00537109375 -1.431884765625
7538250000.0 -0.8880615234375 -1.12640380859375
7569471875.0 -1.338134765625 -0.3114013671875
7600693750.0 -1.2044677734375 0.498291015625
7631915625.0 -0.7200927734375 1.0855712890625
7663137500.0 0.079345703125 1.36090087890625
7694359375.0 0.939117431640625 0.983123779296875
7725581250.0 1.24639892578125 0.182373046875
7756803125.0 1.08551025390625 -0.50079345703125
7788025000.0 0.6727294921875 -1.045166015625
7819246875.0 -0.121826171875 -1.3487548828125
7850468750.0 -0.99737548828125 -0.918426513671875
7881690625.0 -1.234619140625 -0.10498046875
7912912500.0 -1.05712890625 0.55780029296875
7944134375.0 -0.60614013671875 1.11590576171875
7975356250.0 0.2735595703125 1.337158203125
8006578125.0 1.0496826171875 0.78009033203125
8037800000.0 1.19598388671875 0.01544189453125
8069021875.0 1.0087890625 -0.61749267578125
8100243750.0 0.50091552734375 -1.16265869140625
8131465625.0 -0.3885498046875 -1.257080078125
8162687500.0 -1.03424072265625 -0.6875
8193909375.0 -1.18402099609375 0.00885009765625
8225131250.0 -1.01953125 0.67840576171875
8256353125.0 -0.42230224609375 1.25115966796875
8287575000.0 0.5025634765625 1.22991943359375
8318796875.0 1.0841064453125 0.6363525390625
8350018750.0 1.24853515625 -0.07708740234375
8381240625.0 1.03369140625 -0.84075927734375
8412462500.0 0.2552490234375 -1.3751220703125
8443684375.0 -0.66949462890625 -1.17181396484375
8474906250.0 -1.17657470703125 -0.53326416015625
8506128125.0 -1.30072021484375 0.2379150390625
8537350000.0 -0.926513671875 1.048828125
8568571875.0 -0.01519775390625 1.397216796875
8599793750.0 0.80450439453125 1.05548095703125
8631015625.0 1.24407958984375 0.39898681640625
8662237500.0 1.28778076171875 -0.4295654296875
8693459375.0 0.738037109375 -1.1802978515625
8724681250.0 -0.1617431640625 -1.333984375
8755903125.0 -0.8826904296875 -0.9595947265625
8787125000.0 -1.3077392578125 -0.28216552734375
8818346875.0 -1.2529296875 0.616943359375
8849568750.0 -0.55780029296875 1.26263427734375
8880790625.0 0.3001708984375 1.28826904296875
8912012500.0 0.984283447265625 0.89501953125
8943234375.0 1.4014892578125 0.12945556640625
8974456250.0 1.16796875 -0.84002685546875
9005678125.0 0.34808349609375 -1.31536865234375
9036900000.0 -0.4464111328125 -1.2271728515625
9068121875.0 -1.1036376953125 -0.78704833984375
9099343750.0 -1.442626953125 0.09844970703125
9130565625.0 -0.98052978515625 1.01226806640625
9161787500.0 -0.15509033203125 1.28460693359375
9193009375.0 0.55584716796875 1.13604736328125
9224231250.0 1.18145751953125 0.65594482421875
9255453125.0 1.403076171875 -0.2974853515625
9286675000.0 0.80859375 -1.086669921875
9317896875.0 0.0281982421875 -1.24798583984375
9349118750.0 -0.6551513671875 -1.07177734375
9380340625.0 -1.26019287109375 -0.51092529296875
9411562500.0 -1.31414794921875 0.478515625
9442784375.0 -0.64959716796875 1.1195068359375
9474006250.0 0.08935546875 1.2138671875
9505228125.0 0.768524169921875 0.982086181640625
9536450000.0 1.277099609375 0.31353759765625
9567671875.0 1.14605712890625 -0.58087158203125
9598893750.0 0.5306396484375 -1.07098388671875
9630115625.0 -0.14337158203125 -1.1597900390625
9661337500.0 -0.818389892578125 -0.90399169921875
9692559375.0 -1.240966796875 -0.1905517578125
9723781250.0 -1.0452880859375 0.603515625
9755003125.0 -0.48724365234375 1.05218505859375
9786225000.0 0.199951171875 1.16107177734375
9817446875.0 0.8994140625 0.829833984375
9848668750.0 1.20074462890625 0.07781982421875
9879890625.0 0.970916748046875 -0.61700439453125
9911112500.0 0.45269775390625 -1.0546875
9942334375.0 -0.26837158203125 -1.162353515625
9973556250.0 -0.94512939453125 -0.740081787109375
10004778125.0 -1.149658203125 -0.0159912109375
10036000000.0 -0.9464111328125 0.619171142578125
10067221875.0 -0.442138671875 1.09832763671875
10098443750.0 0.37164306640625 1.1837158203125
10129665625.0 1.005126953125 0.64288330078125
10160887500.0 1.12335205078125 -0.05267333984375
10192109375.0 0.918060302734375 -0.66436767578125
10223331250.0 0.362060546875 -1.15435791015625
10254553125.0 -0.48590087890625 -1.11468505859375
10285775000.0 -0.987457275390625 -0.53643798828125
10316996875.0 -1.0699462890625 0.0777587890625
10348218750.0 -0.901519775390625 0.6722412109375
10379440625.0 -0.32293701171875 1.17730712890625
10410662500.0 0.527587890625 1.0870361328125
10441884375.0 0.994476318359375 0.522552490234375
10473106250.0 1.11083984375 -0.0841064453125
10504328125.0 0.952056884765625 -0.76007080078125
10535550000.0 0.23974609375 -1.2969970703125
10566771875.0 -0.659912109375 -1.07843017578125
10597993750.0 -1.0826416015625 -0.45953369140625
10629215625.0 -1.176513671875 0.2064208984375
10660437500.0 -0.888916015625 0.953643798828125
10691659375.0 -0.00982666015625 1.33660888671875
10722881250.0 0.78582763671875 0.95355224609375
10754103125.0 1.12261962890625 0.32440185546875
10785325000.0 1.142822265625 -0.3680419921875
10816546875.0 0.7012939453125 -1.05291748046875
10847768750.0 -0.14642333984375 -1.23162841796875
10878990625.0 -0.8050537109375 -0.844879150390625
10910212500.0 -1.12640380859375 -0.24481201171875
10941434375.0 -1.09954833984375 0.4783935546875
10972656250.0 -0.5692138671875 1.08782958984375
11003878125.0 0.21783447265625 1.17706298828125
11035100000.0 0.84942626953125 0.822967529296875
11066321875.0 1.2225341796875 0.17529296875
11097543750.0 1.099853515625 -0.67559814453125
11128765625.0 0.3865966796875 -1.2017822265625
11159987500.0 -0.3974609375 -1.14178466796875
11191209375.0 -1.0015869140625 -0.70361328125
11222431250.0 -1.27337646484375 0.0943603515625
11253653125.0 -0.859375 0.895477294921875
11284875000.0 -0.11383056640625 1.1298828125
11316096875.0 0.51263427734375 0.957763671875
11347318750.0 1.00506591796875 0.50299072265625
11378540625.0 1.12005615234375 -0.269775390625
11409762500.0 0.636016845703125 -0.861846923828125
11440984375.0 0.036285400390625 -0.97955322265625
11472206250.0 -0.481109619140625 -0.85260009765625
11503428125.0 -0.953948974609375 -0.458282470703125
11534650000.0 -1.070556640625 0.28985595703125
11565871875.0 -0.602935791015625 0.85693359375
11597093750.0 -0.0179443359375 0.993408203125
11628315625.0 0.545196533203125 0.87677001953125
11659537500.0 1.0626220703125 0.39276123046875
11690759375.0 1.0672607421875 -0.43572998046875
11721981250.0 0.517303466796875 -0.943115234375
11753203125.0 -0.10589599609375 -1.0369873046875
11784425000.0 -0.726165771484375 -0.8106689453125
11815646875.0 -1.10357666015625 -0.1510009765625
11846868750.0 -0.89300537109375 0.552978515625
11878090625.0 -0.39111328125 0.910400390625
11909312500.0 0.1871337890625 0.986846923828125
11940534375.0 0.78094482421875 0.69598388671875
11971756250.0 1.02728271484375 0.0401611328125
12002978125.0 0.807952880859375 -0.538818359375
12034200000.0 0.382049560546875 -0.8914794921875
12065421875.0 -0.21697998046875 -1.01287841796875
12096643750.0 -0.84930419921875 -0.666656494140625
12127865625.0 -1.035400390625 0.0166015625
12159087500.0 -0.81640625 0.57598876953125
12190309375.0 -0.377655029296875 0.977813720703125
12221531250.0 0.34112548828125 1.0904541015625
12252753125.0 0.983428955078125 0.5810546875
12283975000.0 1.05621337890625 -0.128173828125
12315196875.0 0.801971435546875 -0.678802490234375
12346418750.0 0.28082275390625 -1.09307861328125
12377640625.0 -0.54034423828125 -1.0621337890625
12408862500.0 -1.03631591796875 -0.41937255859375
12440084375.0 -1.01123046875 0.22674560546875
12471306250.0 -0.742889404296875 0.738525390625
12502528125.0 -0.1785888671875 1.12518310546875
12533750000.0 0.621612548828125 0.995635986328125
12564971875.0 1.0450439453125 0.3641357421875
12596193750.0 1.03094482421875 -0.265869140625
12627415625.0 0.748870849609375 -0.830596923828125
12658637500.0 0.0797119140625 -1.20953369140625
12689859375.0 -0.736297607421875 -0.9677734375
12721081250.0 -1.12060546875 -0.30462646484375
12752303125.0 -1.10015869140625 0.38336181640625
12783525000.0 -0.68792724609375 1.0311279296875
12814746875.0 0.165283203125 1.25274658203125
12845968750.0 0.865447998046875 0.811279296875
12877190625.0 1.12176513671875 0.17059326171875
12908412500.0 1.05804443359375 -0.5047607421875
12939634375.0 0.54266357421875 -1.119873046875
12970856250.0 -0.32208251953125 -1.17694091796875
13002078125.0 -0.897247314453125 -0.69384765625
13033300000.0 -1.107666015625 -0.0869140625
13064521875.0 -1.01129150390625 0.59637451171875
13095743750.0 -0.4215087890625 1.156494140625
13126965625.0 0.40875244140625 1.1220703125
13158187500.0 0.947662353515625 0.63238525390625
13189409375.0 1.150390625 -0.0220947265625
13220631250.0 0.938262939453125 -0.749725341796875
13251853125.0 0.23419189453125 -1.17401123046875
13283075000.0 -0.50946044921875 -1.02130126953125
13314296875.0 -0.989898681640625 -0.529449462890625
13345518750.0 -1.13702392578125 0.17755126953125
13376740625.0 -0.75433349609375 0.862396240234375
