!Created with skrf (http://scikit-rf.org).
# Hz S RI R 50.0 
!freq ReS11 ImS11
45000000.0 -0.07706069946289062 -0.09682846069335938
76221875.0 -0.19625091552734375 -0.04755401611328125
107443750.0 -0.2547149658203125 0.1195526123046875
138665625.0 -0.1480865478515625 0.328338623046875
169887500.0 0.1235504150390625 0.4170684814453125
201109375.0 0.421600341796875 0.2805023193359375
232331250.0 0.578399658203125 -0.057647705078125
263553125.0 0.4890899658203125 -0.4523162841796875
294775000.0 0.09832763671875 -0.73199462890625
325996875.0 -0.415008544921875 -0.679840087890625
357218750.0 -0.80548095703125 -0.296539306640625
388440625.0 -0.884613037109375 0.3004150390625
419662500.0 -0.5167236328125 0.865570068359375
450884375.0 0.173095703125 1.02783203125
482106250.0 0.797698974609375 0.711700439453125
513328125.0 1.11834716796875 0.08709716796875
544550000.0 1.002685546875 -0.6796875
575771875.0 0.33599853515625 -1.2369384765625
606993750.0 -0.55340576171875 -1.17596435546875
638215625.0 -1.16497802734375 -0.5894775390625
669437500.0 -1.3382568359375 0.233642578125
700659375.0 -0.9698486328125 1.09539794921875
731881250.0 -0.00347900390625 1.54132080078125
763103125.0 1.00469970703125 1.154296875
794325000.0 1.46710205078125 0.28125
825546875.0 1.36566162109375 -0.6507568359375
856768750.0 0.79339599609375 -1.399169921875
887990625.0 -0.2919921875 -1.6458740234375
919212500.0 -1.2862548828125 -1.0771484375
950434375.0 -1.646240234375 -0.0587158203125
981656250.0 -1.3802490234375 0.9443359375
1012878125.0 -0.52899169921875 1.66949462890625
1044100000.0 0.69580078125 1.65924072265625
1075321875.0 1.5723876953125 0.81072998046875
1106543750.0 1.7022705078125 -0.31243896484375
1137765625.0 1.1849365234375 -1.2821044921875
1168987500.0 0.13775634765625 -1.7943115234375
1200209375.0 -1.06005859375 -1.48150634765625
1231431250.0 -1.724609375 -0.452880859375
1262653125.0 -1.592041015625 0.68341064453125
1293875000.0 -0.8507080078125 1.48944091796875
1325096875.0 0.228271484375 1.70416259765625
1356318750.0 1.2332763671875 1.21466064453125
1387540625.0 1.73724365234375 0.18853759765625
1418762500.0 1.46722412109375 -0.95001220703125
1449984375.0 0.52880859375 -1.6231689453125
1481206250.0 -0.54888916015625 -1.55328369140625
1512428125.0 -1.33966064453125 -0.9178466796875
1543650000.0 -1.65325927734375 0.0654296875
1574871875.0 -1.2716064453125 1.107177734375
1606093750.0 -0.27264404296875 1.62872314453125
1637315625.0 0.7410888671875 1.39837646484375
1668537500.0 1.39422607421875 0.69476318359375
1699759375.0 1.5703125 -0.27679443359375
1730981250.0 1.06231689453125 -1.2275390625
1762203125.0 0.0419921875 -1.5682373046875
1793425000.0 -0.8543701171875 -1.22454833984375
1824646875.0 -1.39141845703125 -0.51446533203125
1855868750.0 -1.47198486328125 0.4320068359375
1887090625.0 -0.87359619140625 1.28314208984375
1918312500.0 0.1170654296875 1.4844970703125
1949534375.0 0.91986083984375 1.08734130859375
1980756250.0 1.372802734375 0.369384765625
2011978125.0 1.3572998046875 -0.530517578125
2043200000.0 0.74884033203125 -1.25958251953125
2074421875.0 -0.1563720703125 -1.43096923828125
2105643750.0 -0.958984375 -1.07061767578125
2136865625.0 -1.44500732421875 -0.304443359375
2168087500.0 -1.3551025390625 0.669921875
2199309375.0 -0.6380615234375 1.3487548828125
2230531250.0 0.28143310546875 1.4339599609375
2261753125.0 1.07086181640625 1.0123291015625
2292975000.0 1.51226806640625 0.170166015625
2324196875.0 1.303466796875 -0.817626953125
2355418750.0 0.5244140625 -1.4178466796875
2386640625.0 -0.4039306640625 -1.44671630859375
2417862500.0 -1.17791748046875 -1.0225830078125
2449084375.0 -1.60113525390625 -0.0845947265625
2480306250.0 -1.30938720703125 0.92327880859375
2511528125.0 -0.4932861328125 1.50390625
2542750000.0 0.48773193359375 1.53369140625
2573971875.0 1.3682861328125 0.96630859375
2605193750.0 1.71380615234375 -0.11224365234375
2636415625.0 1.25970458984375 -1.14971923828125
2667637500.0 0.30609130859375 -1.66412353515625
2698859375.0 -0.76702880859375 -1.53131103515625
2730081250.0 -1.5699462890625 -0.73907470703125
2761303125.0 -1.67724609375 0.3853759765625
2792525000.0 -1.09759521484375 1.304443359375
2823746875.0 -0.101806640625 1.7261962890625
2854968750.0 1.0106201171875 1.45263671875
2886190625.0 1.687255859375 0.49102783203125
2917412500.0 1.5966796875 -0.61602783203125
2948634375.0 0.9373779296875 -1.4307861328125
2979856250.0 -0.10699462890625 -1.772705078125
3011078125.0 -1.246337890625 -1.3399658203125
3042300000.0 -1.7706298828125 -0.23480224609375
3073521875.0 -1.505859375 0.83575439453125
3104743750.0 -0.76202392578125 1.56500244140625
3135965625.0 0.36065673828125 1.8048095703125
3167187500.0 1.4964599609375 1.1622314453125
3198409375.0 1.8123779296875 -0.07501220703125
3229631250.0 1.3460693359375 -1.07867431640625
3260853125.0 0.48809814453125 -1.6658935546875
3292075000.0 -0.6533203125 -1.6942138671875
3323296875.0 -1.6158447265625 -0.8782958984375
3354518750.0 -1.7265625 0.32708740234375
3385740625.0 -1.15399169921875 1.22906494140625
3416962500.0 -0.23089599609375 1.6785888671875
3448184375.0 0.859130859375 1.5191650390625
3479406250.0 1.63275146484375 0.64276123046875
3510628125.0 1.64154052734375 -0.49407958984375
3541850000.0 0.99896240234375 -1.35223388671875
3573071875.0 -0.00604248046875 -1.67901611328125
3604293750.0 -1.0257568359375 -1.33502197265625
3635515625.0 -1.62420654296875 -0.4376220703125
3666737500.0 -1.5589599609375 0.64495849609375
3697959375.0 -0.8236083984375 1.47174072265625
3729181250.0 0.26776123046875 1.6275634765625
3760403125.0 1.1502685546875 1.09600830078125
3791625000.0 1.5496826171875 0.217529296875
3822846875.0 1.39923095703125 -0.7601318359375
3854068750.0 0.62005615234375 -1.47735595703125
3885290625.0 -0.4193115234375 -1.47747802734375
3916512500.0 -1.1397705078125 -0.90948486328125
3947734375.0 -1.445068359375 -0.11920166015625
3978956250.0 -1.2950439453125 0.7762451171875
4010178125.0 -0.53033447265625 1.45135498046875
4041400000.0 0.47052001953125 1.41156005859375
4072621875.0 1.14825439453125 0.8465576171875
4103843750.0 1.4417724609375 0.06304931640625
4135065625.0 1.26544189453125 -0.84283447265625
4166287500.0 0.45721435546875 -1.49334716796875
4197509375.0 -0.556396484375 -1.41302490234375
4228731250.0 -1.2447509765625 -0.80218505859375
4259953125.0 -1.506103515625 0.06982421875
4291175000.0 -1.18609619140625 1.00836181640625
4322396875.0 -0.2894287109375 1.52294921875
4353618750.0 0.6715087890625 1.3480224609375
4384840625.0 1.3187255859375 0.69635009765625
4416062500.0 1.497314453125 -0.22607421875
4447284375.0 1.053466796875 -1.1015625
4478506250.0 0.17230224609375 -1.49267578125
4509728125.0 -0.73065185546875 -1.30584716796875
4540950000.0 -1.38995361328125 -0.63494873046875
4572171875.0 -1.5189208984375 0.35833740234375
4603393750.0 -0.97113037109375 1.21051025390625
4634615625.0 -0.061767578125 1.53369140625
4665837500.0 0.87017822265625 1.302490234375
4697059375.0 1.5382080078125 0.51446533203125
4728281250.0 1.5263671875 -0.5806884765625
4759503125.0 0.82220458984375 -1.3653564453125
4790725000.0 -0.14508056640625 -1.57012939453125
4821946875.0 -1.0806884765625 -1.19219970703125
4853168750.0 -1.61041259765625 -0.251220703125
4884390625.0 -1.37603759765625 0.79168701171875
4915612500.0 -0.61273193359375 1.41021728515625
4946834375.0 0.327880859375 1.5068359375
4978056250.0 1.203369140625 1.01593017578125
5009278125.0 1.55889892578125 0.039794921875
5040500000.0 1.2271728515625 -0.87451171875
5071721875.0 0.5013427734375 -1.411376953125
5102943750.0 -0.4451904296875 -1.49407958984375
5134165625.0 -1.3319091796875 -0.90484619140625
5165387500.0 -1.56494140625 0.1451416015625
5196609375.0 -1.13494873046875 1.00689697265625
5227831250.0 -0.35723876953125 1.50286865234375
5259053125.0 0.685546875 1.4896240234375
5290275000.0 1.52081298828125 0.66168212890625
5321496875.0 1.49005126953125 -0.42999267578125
5352718750.0 0.92010498046875 -1.15087890625
5383940625.0 0.09722900390625 -1.49755859375
5415162500.0 -0.8980712890625 -1.28173828125
5446384375.0 -1.48138427734375 -0.37005615234375
5477606250.0 -1.2972412109375 0.56494140625
5508828125.0 -0.73016357421875 1.1475830078125
5540050000.0 0.0531005859375 1.39556884765625
5571271875.0 0.936279296875 1.10748291015625
5602493750.0 1.40631103515625 0.25970458984375
5633715625.0 1.2303466796875 -0.61151123046875
5664937500.0 0.6473388671875 -1.19866943359375
5696159375.0 -0.1959228515625 -1.3818359375
5727381250.0 -1.0196533203125 -0.97711181640625
5758603125.0 -1.38934326171875 -0.145263671875
5789825000.0 -1.19268798828125 0.7171630859375
5821046875.0 -0.505615234375 1.30511474609375
5852268750.0 0.41015625 1.31060791015625
5883490625.0 1.068115234375 0.7713623046875
5914712500.0 1.3004150390625 0.02069091796875
5945934375.0 1.094970703125 -0.7730712890625
5977156250.0 0.361083984375 -1.310546875
6008378125.0 -0.5072021484375 -1.1805419921875
6039600000.0 -1.0194091796875 -0.6488037109375
6070821875.0 -1.22222900390625 -0.0042724609375
6102043750.0 -1.081787109375 0.760986328125
6133265625.0 -0.34185791015625 1.342041015625
6164487500.0 0.5609130859375 1.18536376953125
6195709375.0 1.06768798828125 0.62982177734375
6226931250.0 1.27801513671875 -0.04241943359375
6258153125.0 1.10296630859375 -0.86956787109375
6289375000.0 0.25665283203125 -1.44366455078125
6320596875.0 -0.68756103515625 -1.2047119140625
6351818750.0 -1.1988525390625 -0.57147216796875
6383040625.0 -1.35223388671875 0.20562744140625
6414262500.0 -0.99945068359375 1.054443359375
6445484375.0 -0.07916259765625 1.4544677734375
6476706250.0 0.79400634765625 1.14697265625
6507928125.0 1.288818359375 0.4697265625
6539150000.0 1.34576416015625 -0.38641357421875
6570371875.0 0.8408203125 -1.1405029296875
6601593750.0 -0.01708984375 -1.403564453125
6632815625.0 -0.838134765625 -1.1348876953125
6664037500.0 -1.399658203125 -0.419921875
6695259375.0 -1.37152099609375 0.5645751953125
6726481250.0 -0.70989990234375 1.24969482421875
6757703125.0 0.12921142578125 1.404296875
6788925000.0 0.95184326171875 1.12994384765625
6820146875.0 1.5572509765625 0.2880859375
6851368750.0 1.32452392578125 -0.81817626953125
6882590625.0 0.5067138671875 -1.33599853515625
6913812500.0 -0.291259765625 -1.354248046875
6945034375.0 -1.06787109375 -1.02044677734375
6976256250.0 -1.590576171875 -0.0933837890625
7007478125.0 -1.23492431640625 0.93231201171875
7038700000.0 -0.402099609375 1.34002685546875
7069921875.0 0.3582763671875 1.32110595703125
7101143750.0 1.1138916015625 0.9669189453125
7132365625.0 1.59649658203125 0.01715087890625
7163587500.0 1.15679931640625 -1.0191650390625
7194809375.0 0.30267333984375 -1.39581298828125
7226031250.0 -0.5103759765625 -1.3226318359375
7257253125.0 -1.26556396484375 -0.8232421875
7288475000.0 -1.556884765625 0.19683837890625
7319696875.0 -1.0286865234375 1.1075439453125
7350918750.0 -0.1641845703125 1.441162109375
7382140625.0 0.713623046875 1.2745361328125
7413362500.0 1.3724365234375 0.5777587890625
7444584375.0 1.40911865234375 -0.40399169921875
7475806250.0 0.8575439453125 -1.1405029296875
7507028125.0 0.0072021484375 -1.427001953125
7538250000.0 -0.88482666015625 -1.12188720703125
7569471875.0 -1.33392333984375 -0.31036376953125
7600693750.0 -1.20086669921875 0.4957275390625
7631915625.0 -0.71728515625 1.08477783203125
7663137500.0 0.079833984375 1.3558349609375
7694359375.0 0.938934326171875 0.97967529296875
7725581250.0 1.24237060546875 0.18133544921875
7756803125.0 1.08172607421875 -0.49786376953125
7788025000.0 0.66973876953125 -1.04071044921875
7819246875.0 -0.1197509765625 -1.345947265625
7850468750.0 -0.992523193359375 -0.9151611328125
7881690625.0 -1.2303466796875 -0.1055908203125
7912912500.0 -1.053466796875 0.55255126953125
7944134375.0 -0.60565185546875 1.10943603515625
7975356250.0 0.27020263671875 1.33380126953125
8006578125.0 1.0445556640625 0.77783203125
8037800000.0 1.19342041015625 0.01611328125
8069021875.0 1.005126953125 -0.6158447265625
8100243750.0 0.49993896484375 -1.1597900390625
8131465625.0 -0.38507080078125 -1.2528076171875
8162687500.0 -1.0294189453125 -0.68536376953125
8193909375.0 -1.1788330078125 0.007568359375
8225131250.0 -1.01702880859375 0.677490234375
8256353125.0 -0.42071533203125 1.24822998046875
8287575000.0 0.49835205078125 1.2249755859375
8318796875.0 1.082275390625 0.63555908203125
8350018750.0 1.2449951171875 -0.07647705078125
8381240625.0 1.0299072265625 -0.83551025390625
8412462500.0 0.25567626953125 -1.37060546875
8443684375.0 -0.6666259765625 -1.16912841796875
8474906250.0 -1.1727294921875 -0.5318603515625
8506128125.0 -1.29620361328125 0.235107421875
8537350000.0 -0.9234619140625 1.04571533203125
8568571875.0 -0.01812744140625 1.39044189453125
8599793750.0 0.80023193359375 1.05242919921875
8631015625.0 1.24114990234375 0.39813232421875
8662237500.0 1.28472900390625 -0.4293212890625
8693459375.0 0.73583984375 -1.17718505859375
8724681250.0 -0.16094970703125 -1.33038330078125
8755903125.0 -0.8795166015625 -0.956878662109375
8787125000.0 -1.30120849609375 -0.28277587890625
8818346875.0 -1.2503662109375 0.61297607421875
8849568750.0 -0.5570068359375 1.25933837890625
8880790625.0 0.29852294921875 1.28369140625
8912012500.0 0.979705810546875 0.89154052734375
8943234375.0 1.3973388671875 0.12957763671875
8974456250.0 1.1663818359375 -0.83868408203125
9005678125.0 0.34906005859375 -1.30902099609375
9036900000.0 -0.4442138671875 -1.2237548828125
9068121875.0 -1.09912109375 -0.78570556640625
9099343750.0 -1.438720703125 0.09619140625
9130565625.0 -0.978515625 1.00946044921875
9161787500.0 -0.15472412109375 1.28057861328125
9193009375.0 0.55352783203125 1.132568359375
9224231250.0 1.17901611328125 0.65472412109375
9255453125.0 1.39898681640625 -0.29559326171875
9286675000.0 0.8067626953125 -1.08428955078125
9317896875.0 0.0277099609375 -1.24517822265625
9349118750.0 -0.652587890625 -1.0694580078125
9380340625.0 -1.25726318359375 -0.50762939453125
9411562500.0 -1.31005859375 0.474853515625
9442784375.0 -0.648681640625 1.11407470703125
9474006250.0 0.08770751953125 1.2083740234375
9505228125.0 0.762237548828125 0.979736328125
9536450000.0 1.2740478515625 0.31317138671875
9567671875.0 1.1436767578125 -0.57904052734375
9598893750.0 0.53009033203125 -1.068359375
9630115625.0 -0.14306640625 -1.15618896484375
9661337500.0 -0.815155029296875 -0.903167724609375
9692559375.0 -1.239501953125 -0.19049072265625
9723781250.0 -1.04315185546875 0.60321044921875
9755003125.0 -0.485595703125 1.04949951171875
9786225000.0 0.19586181640625 1.157470703125
9817446875.0 0.892822265625 0.82794189453125
9848668750.0 1.19635009765625 0.0782470703125
9879890625.0 0.968048095703125 -0.61663818359375
9911112500.0 0.45257568359375 -1.05078125
9942334375.0 -0.26617431640625 -1.15826416015625
9973556250.0 -0.942138671875 -0.73748779296875
10004778125.0 -1.14532470703125 -0.01873779296875
10036000000.0 -0.94281005859375 0.613800048828125
10067221875.0 -0.4422607421875 1.09454345703125
10098443750.0 0.36920166015625 1.1805419921875
10129665625.0 1.00140380859375 0.64324951171875
10160887500.0 1.1182861328125 -0.05010986328125
10192109375.0 0.917266845703125 -0.662078857421875
10223331250.0 0.36090087890625 -1.1507568359375
10254553125.0 -0.48455810546875 -1.11297607421875
10285775000.0 -0.98431396484375 -0.535003662109375
10316996875.0 -1.06524658203125 0.0760498046875
10348218750.0 -0.899688720703125 0.668060302734375
10379440625.0 -0.32244873046875 1.1739501953125
10410662500.0 0.525146484375 1.084716796875
10441884375.0 0.989410400390625 0.522125244140625
10473106250.0 1.10809326171875 -0.08392333984375
10504328125.0 0.94842529296875 -0.75396728515625
10535550000.0 0.24029541015625 -1.29290771484375
10566771875.0 -0.6546630859375 -1.0758056640625
10597993750.0 -1.07867431640625 -0.45904541015625
10629215625.0 -1.173583984375 0.20538330078125
10660437500.0 -0.887359619140625 0.948638916015625
10691659375.0 -0.01226806640625 1.33270263671875
10722881250.0 0.782684326171875 0.951263427734375
10754103125.0 1.1199951171875 0.32440185546875
10785325000.0 1.1392822265625 -0.36566162109375
10816546875.0 0.700927734375 -1.0478515625
10847768750.0 -0.1434326171875 -1.2279052734375
10878990625.0 -0.802215576171875 -0.842254638671875
10910212500.0 -1.12066650390625 -0.24566650390625
10941434375.0 -1.0963134765625 0.47589111328125
10972656250.0 -0.56805419921875 1.08319091796875
11003878125.0 0.217529296875 1.17486572265625
11035100000.0 0.845855712890625 0.822479248046875
11066321875.0 1.21881103515625 0.1741943359375
11097543750.0 1.09710693359375 -0.67376708984375
11128765625.0 0.3865966796875 -1.1976318359375
11159987500.0 -0.3934326171875 -1.13763427734375
11191209375.0 -0.999114990234375 -0.70208740234375
11222431250.0 -1.2705078125 0.091796875
11253653125.0 -0.859527587890625 0.891265869140625
11284875000.0 -0.11383056640625 1.12689208984375
11316096875.0 0.50701904296875 0.954803466796875
11347318750.0 0.999725341796875 0.502532958984375
11378540625.0 1.11517333984375 -0.2674560546875
11409762500.0 0.6341552734375 -0.859100341796875
11440984375.0 0.0369873046875 -0.9774169921875
11472206250.0 -0.480194091796875 -0.849151611328125
11503428125.0 -0.9521484375 -0.456298828125
11534650000.0 -1.0673828125 0.287353515625
11565871875.0 -0.60223388671875 0.853912353515625
11597093750.0 -0.019378662109375 0.99029541015625
11628315625.0 0.54473876953125 0.87371826171875
11659537500.0 1.06036376953125 0.3922119140625
11690759375.0 1.06402587890625 -0.43231201171875
11721981250.0 0.516448974609375 -0.9403076171875
11753203125.0 -0.10467529296875 -1.03546142578125
11784425000.0 -0.72198486328125 -0.808563232421875
11815646875.0 -1.098388671875 -0.15228271484375
11846868750.0 -0.8909912109375 0.5509033203125
11878090625.0 -0.390960693359375 0.908172607421875
11909312500.0 0.185455322265625 0.98321533203125
11940534375.0 0.778076171875 0.69512939453125
11971756250.0 1.02508544921875 0.0394287109375
12002978125.0 0.80633544921875 -0.537506103515625
12034200000.0 0.3826904296875 -0.888427734375
12065421875.0 -0.214599609375 -1.0093994140625
12096643750.0 -0.847686767578125 -0.665191650390625
12127865625.0 -1.03326416015625 0.01617431640625
12159087500.0 -0.815093994140625 0.5753173828125
12190309375.0 -0.377105712890625 0.97412109375
12221531250.0 0.3372802734375 1.0867919921875
12252753125.0 0.97869873046875 0.581146240234375
12283975000.0 1.05389404296875 -0.12811279296875
12315196875.0 0.799896240234375 -0.67510986328125
12346418750.0 0.2813720703125 -1.0894775390625
12377640625.0 -0.5360107421875 -1.05987548828125
12408862500.0 -1.03271484375 -0.42047119140625
12440084375.0 -1.00823974609375 0.2235107421875
12471306250.0 -0.7410888671875 0.734771728515625
12502528125.0 -0.18060302734375 1.11907958984375
12533750000.0 0.617462158203125 0.992828369140625
12564971875.0 1.03985595703125 0.36553955078125
12596193750.0 1.02935791015625 -0.26544189453125
12627415625.0 0.747802734375 -0.826751708984375
12658637500.0 0.08074951171875 -1.20550537109375
12689859375.0 -0.73406982421875 -0.96612548828125
12721081250.0 -1.1163330078125 -0.30645751953125
12752303125.0 -1.0970458984375 0.38116455078125
12783525000.0 -0.68768310546875 1.0245361328125
12814746875.0 0.16473388671875 1.25
12845968750.0 0.861541748046875 0.810638427734375
12877190625.0 1.116455078125 0.1722412109375
12908412500.0 1.05413818359375 -0.5013427734375
12939634375.0 0.5440673828125 -1.11273193359375
12970856250.0 -0.31842041015625 -1.1741943359375
13002078125.0 -0.893218994140625 -0.6929931640625
13033300000.0 -1.1046142578125 -0.08721923828125
13064521875.0 -1.009033203125 0.59173583984375
13095743750.0 -0.42071533203125 1.15362548828125
13126965625.0 0.408203125 1.12091064453125
13158187500.0 0.945220947265625 0.632965087890625
13189409375.0 1.14739990234375 -0.0213623046875
13220631250.0 0.936004638671875 -0.7471923828125
13251853125.0 0.23431396484375 -1.1719970703125
13283075000.0 -0.50604248046875 -1.01861572265625
13314296875.0 -0.98529052734375 -0.5299072265625
