!Created with skrf (http://scikit-rf.org).
# Hz S RI R 50.0 
!freq ReS11 ImS11
45000000.0 -0.07738876342773438 -0.09685134887695312
76221875.0 -0.1973724365234375 -0.0474395751953125
107443750.0 -0.25592041015625 0.12060546875
138665625.0 -0.14837646484375 0.3303070068359375
169887500.0 0.1242828369140625 0.4188232421875
201109375.0 0.4235076904296875 0.2818450927734375
232331250.0 0.581146240234375 -0.058013916015625
263553125.0 0.4913330078125 -0.45550537109375
294775000.0 0.09814453125 -0.736083984375
325996875.0 -0.4178466796875 -0.683837890625
357218750.0 -0.810882568359375 -0.2979736328125
388440625.0 -0.889739990234375 0.302734375
419662500.0 -0.5189208984375 0.870697021484375
450884375.0 0.17437744140625 1.0333251953125
482106250.0 0.802276611328125 0.715240478515625
513328125.0 1.12408447265625 0.0869140625
544550000.0 1.00732421875 -0.68365478515625
575771875.0 0.33697509765625 -1.242919921875
606993750.0 -0.556396484375 -1.18145751953125
638215625.0 -1.1702880859375 -0.5921630859375
669437500.0 -1.34478759765625 0.2353515625
700659375.0 -0.97418212890625 1.100341796875
731881250.0 -0.003662109375 1.548583984375
763103125.0 1.00946044921875 1.16021728515625
794325000.0 1.4742431640625 0.28271484375
825546875.0 1.372314453125 -0.6544189453125
856768750.0 0.796630859375 -1.4078369140625
887990625.0 -0.29559326171875 -1.65576171875
919212500.0 -1.294677734375 -1.08319091796875
950434375.0 -1.656982421875 -0.05767822265625
981656250.0 -1.3883056640625 0.95208740234375
1012878125.0 -0.53094482421875 1.68048095703125
1044100000.0 0.701904296875 1.669189453125
1075321875.0 1.58343505859375 0.81439208984375
1106543750.0 1.71295166015625 -0.31658935546875
1137765625.0 1.191162109375 -1.29132080078125
1168987500.0 0.137939453125 -1.80560302734375
1200209375.0 -1.06744384765625 -1.4901123046875
1231431250.0 -1.736083984375 -0.45416259765625
1262653125.0 -1.60052490234375 0.689208984375
1293875000.0 -0.8543701171875 1.4981689453125
1325096875.0 0.2296142578125 1.71331787109375
1356318750.0 1.2406005859375 1.221435546875
1387540625.0 1.74725341796875 0.18902587890625
1418762500.0 1.47509765625 -0.95635986328125
1449984375.0 0.5306396484375 -1.6329345703125
1481206250.0 -0.55316162109375 -1.5626220703125
1512428125.0 -1.34844970703125 -0.9222412109375
1543650000.0 -1.66259765625 0.067138671875
1574871875.0 -1.27740478515625 1.11431884765625
1606093750.0 -0.27252197265625 1.6378173828125
1637315625.0 0.74615478515625 1.40545654296875
1668537500.0 1.40185546875 0.69757080078125
1699759375.0 1.5787353515625 -0.27862548828125
1730981250.0 1.0672607421875 -1.23468017578125
1762203125.0 0.0413818359375 -1.57611083984375
1793425000.0 -0.859375 -1.230224609375
1824646875.0 -1.39849853515625 -0.51654052734375
1855868750.0 -1.47943115234375 0.434326171875
1887090625.0 -0.87823486328125 1.29052734375
1918312500.0 0.11798095703125 1.49267578125
1949534375.0 0.92578125 1.0926513671875
1980756250.0 1.3809814453125 0.3704833984375
2011978125.0 1.3646240234375 -0.534912109375
2043200000.0 0.7515869140625 -1.2666015625
2074421875.0 -0.158447265625 -1.4383544921875
2105643750.0 -0.9642333984375 -1.0751953125
2136865625.0 -1.4525146484375 -0.30487060546875
2168087500.0 -1.36126708984375 0.6739501953125
2199309375.0 -0.64044189453125 1.356201171875
2230531250.0 0.28375244140625 1.44085693359375
2261753125.0 1.0770263671875 1.0164794921875
2292975000.0 1.51934814453125 0.16986083984375
2324196875.0 1.30963134765625 -0.82244873046875
2355418750.0 0.526611328125 -1.4246826171875
2386640625.0 -0.4066162109375 -1.45379638671875
2417862500.0 -1.1873779296875 -1.0279541015625
2449084375.0 -1.6116943359375 -0.082275390625
2480306250.0 -1.31585693359375 0.93109130859375
2511528125.0 -0.494140625 1.514404296875
2542750000.0 0.492431640625 1.542236328125
2573971875.0 1.3773193359375 0.97064208984375
2605193750.0 1.72515869140625 -0.11480712890625
2636415625.0 1.26544189453125 -1.159423828125
2667637500.0 0.306396484375 -1.6744384765625
2698859375.0 -0.7755126953125 -1.54052734375
2730081250.0 -1.58056640625 -0.74212646484375
2761303125.0 -1.6881103515625 0.3919677734375
2792525000.0 -1.1026611328125 1.3148193359375
2823746875.0 -0.10028076171875 1.7376708984375
2854968750.0 1.01849365234375 1.460693359375
2886190625.0 1.6990966796875 0.4920654296875
2917412500.0 1.60662841796875 -0.6219482421875
2948634375.0 0.94171142578125 -1.44171142578125
2979856250.0 -0.11102294921875 -1.7847900390625
3011078125.0 -1.25469970703125 -1.3468017578125
3042300000.0 -1.78314208984375 -0.23321533203125
3073521875.0 -1.5147705078125 0.8433837890625
3104743750.0 -0.7646484375 1.576416015625
3135965625.0 0.3662109375 1.81732177734375
3167187500.0 1.50628662109375 1.16754150390625
3198409375.0 1.822998046875 -0.07733154296875
3229631250.0 1.35406494140625 -1.08831787109375
3260853125.0 0.4892578125 -1.6756591796875
3292075000.0 -0.65924072265625 -1.70391845703125
3323296875.0 -1.626220703125 -0.88128662109375
3354518750.0 -1.73736572265625 0.33233642578125
3385740625.0 -1.1591796875 1.23919677734375
3416962500.0 -0.23040771484375 1.6884765625
3448184375.0 0.86553955078125 1.52679443359375
3479406250.0 1.64312744140625 0.64508056640625
3510628125.0 1.65069580078125 -0.4996337890625
3541850000.0 1.00262451171875 -1.361572265625
3573071875.0 -0.00946044921875 -1.6888427734375
3604293750.0 -1.033447265625 -1.34185791015625
3635515625.0 -1.6348876953125 -0.43853759765625
3666737500.0 -1.567626953125 0.65069580078125
3697959375.0 -0.82720947265625 1.48248291015625
3729181250.0 0.27105712890625 1.63665771484375
3760403125.0 1.15826416015625 1.10101318359375
3791625000.0 1.55859375 0.21734619140625
3822846875.0 1.4066162109375 -0.76556396484375
3854068750.0 0.62042236328125 -1.4888916015625
3885290625.0 -0.424072265625 -1.48565673828125
3916512500.0 -1.147705078125 -0.9129638671875
3947734375.0 -1.45379638671875 -0.1187744140625
3978956250.0 -1.3017578125 0.7841796875
4010178125.0 -0.53192138671875 1.4599609375
4041400000.0 0.4776611328125 1.42041015625
4072621875.0 1.157470703125 0.84912109375
4103843750.0 1.44903564453125 0.06219482421875
4135065625.0 1.27117919921875 -0.84991455078125
4166287500.0 0.45758056640625 -1.50238037109375
4197509375.0 -0.56243896484375 -1.41986083984375
4228731250.0 -1.25390625 -0.8040771484375
4259953125.0 -1.51495361328125 0.07330322265625
4291175000.0 -1.19146728515625 1.01611328125
4322396875.0 -0.28826904296875 1.53271484375
4353618750.0 0.67791748046875 1.354248046875
4384840625.0 1.328369140625 0.6973876953125
4416062500.0 1.505859375 -0.230224609375
4447284375.0 1.0574951171875 -1.10894775390625
4478506250.0 0.17071533203125 -1.5015869140625
4509728125.0 -0.73724365234375 -1.311767578125
4540950000.0 -1.4000244140625 -0.63604736328125
4572171875.0 -1.5272216796875 0.363037109375
4603393750.0 -0.97393798828125 1.2188720703125
4634615625.0 -0.05938720703125 1.5433349609375
4665837500.0 0.873779296875 1.30792236328125
4697059375.0 1.54840087890625 0.515380859375
4728281250.0 1.53411865234375 -0.587158203125
4759503125.0 0.8238525390625 -1.3734130859375
4790725000.0 -0.1485595703125 -1.5780029296875
4821946875.0 -1.089111328125 -1.1971435546875
4853168750.0 -1.6202392578125 -0.2496337890625
4884390625.0 -1.38201904296875 0.797607421875
4915612500.0 -0.61334228515625 1.418212890625
4946834375.0 0.33172607421875 1.5137939453125
4978056250.0 1.2105712890625 1.01959228515625
5009278125.0 1.5679931640625 0.0377197265625
5040500000.0 1.23223876953125 -0.88079833984375
5071721875.0 0.5009765625 -1.420166015625
5102943750.0 -0.450927734375 -1.50152587890625
5134165625.0 -1.34222412109375 -0.90667724609375
5165387500.0 -1.5733642578125 0.1492919921875
5196609375.0 -1.13885498046875 1.0146484375
5227831250.0 -0.35675048828125 1.511962890625
5259053125.0 0.69329833984375 1.4970703125
5290275000.0 1.528076171875 0.66290283203125
5321496875.0 1.4970703125 -0.4342041015625
5352718750.0 0.92266845703125 -1.158447265625
5383940625.0 0.09521484375 -1.50616455078125
5415162500.0 -0.90545654296875 -1.28753662109375
5446384375.0 -1.48992919921875 -0.36962890625
5477606250.0 -1.302734375 0.5694580078125
5508828125.0 -0.73260498046875 1.15582275390625
5540050000.0 0.05560302734375 1.403564453125
5571271875.0 0.94329833984375 1.11175537109375
5602493750.0 1.413818359375 0.2587890625
5633715625.0 1.23583984375 -0.61688232421875
5664937500.0 0.64935302734375 -1.20556640625
5696159375.0 -0.19921875 -1.38873291015625
5727381250.0 -1.0274658203125 -0.980712890625
5758603125.0 -1.39691162109375 -0.1435546875
5789825000.0 -1.1976318359375 0.72137451171875
5821046875.0 -0.50732421875 1.31219482421875
5852268750.0 0.415283203125 1.3175048828125
5883490625.0 1.0765380859375 0.7730712890625
5914712500.0 1.30718994140625 0.018310546875
5945934375.0 1.09918212890625 -0.78076171875
5977156250.0 0.36004638671875 -1.31817626953125
6008378125.0 -0.5128173828125 -1.1856689453125
6039600000.0 -1.02691650390625 -0.64990234375
6070821875.0 -1.22833251953125 -0.0030517578125
6102043750.0 -1.08599853515625 0.76708984375
6133265625.0 -0.34027099609375 1.35015869140625
6164487500.0 0.5672607421875 1.19073486328125
6195709375.0 1.075927734375 0.630615234375
6226931250.0 1.2841796875 -0.04449462890625
6258153125.0 1.1070556640625 -0.87579345703125
6289375000.0 0.2548828125 -1.45245361328125
6320596875.0 -0.693603515625 -1.2088623046875
6351818750.0 -1.20550537109375 -0.572265625
6383040625.0 -1.3590087890625 0.20989990234375
6414262500.0 -1.0020751953125 1.06439208984375
6445484375.0 -0.07635498046875 1.46209716796875
6476706250.0 0.8017578125 1.1510009765625
6507928125.0 1.29571533203125 0.46978759765625
6539150000.0 1.3516845703125 -0.39031982421875
6570371875.0 0.84222412109375 -1.14862060546875
6601593750.0 -0.0198974609375 -1.40960693359375
6632815625.0 -0.84405517578125 -1.138671875
6664037500.0 -1.40679931640625 -0.4195556640625
6695259375.0 -1.3775634765625 0.5701904296875
6726481250.0 -0.71075439453125 1.25726318359375
6757703125.0 0.13323974609375 1.4112548828125
6788925000.0 0.95977783203125 1.1331787109375
6820146875.0 1.56658935546875 0.2857666015625
6851368750.0 1.3291015625 -0.82305908203125
6882590625.0 0.5057373046875 -1.34503173828125
6913812500.0 -0.29498291015625 -1.36138916015625
6945034375.0 -1.07568359375 -1.0240478515625
6976256250.0 -1.59979248046875 -0.0899658203125
7007478125.0 -1.239013671875 0.94085693359375
7038700000.0 -0.402587890625 1.34906005859375
7069921875.0 0.36212158203125 1.32843017578125
7101143750.0 1.12457275390625 0.97100830078125
7132365625.0 1.6065673828125 0.0107421875
7163587500.0 1.16033935546875 -1.02642822265625
7194809375.0 0.302734375 -1.40301513671875
7226031250.0 -0.51812744140625 -1.3306884765625
7257253125.0 -1.2733154296875 -0.82537841796875
7288475000.0 -1.5643310546875 0.20208740234375
7319696875.0 -1.03173828125 1.11669921875
7350918750.0 -0.16241455078125 1.45050048828125
7382140625.0 0.7213134765625 1.28118896484375
7413362500.0 1.38250732421875 0.575927734375
7444584375.0 1.4169921875 -0.4107666015625
7475806250.0 0.8599853515625 -1.14794921875
7507028125.0 0.00396728515625 -1.4342041015625
7538250000.0 -0.89312744140625 -1.1260986328125
7569471875.0 -1.34136962890625 -0.30963134765625
7600693750.0 -1.20703125 0.50164794921875
7631915625.0 -0.71832275390625 1.0908203125
7663137500.0 0.08349609375 1.3641357421875
7694359375.0 0.94683837890625 0.982635498046875
7725581250.0 1.2489013671875 0.18035888671875
7756803125.0 1.0865478515625 -0.504150390625
7788025000.0 0.67120361328125 -1.049072265625
7819246875.0 -0.124267578125 -1.35369873046875
7850468750.0 -0.999969482421875 -0.917938232421875
7881690625.0 -1.23736572265625 -0.10272216796875
7912912500.0 -1.0582275390625 0.55999755859375
7944134375.0 -0.60638427734375 1.11944580078125
7975356250.0 0.27716064453125 1.34100341796875
8006578125.0 1.05389404296875 0.77972412109375
8037800000.0 1.199462890625 0.01458740234375
8069021875.0 1.00994873046875 -0.6231689453125
8100243750.0 0.498779296875 -1.1697998046875
8131465625.0 -0.392822265625 -1.2579345703125
8162687500.0 -1.03790283203125 -0.68731689453125
8193909375.0 -1.186279296875 0.01171875
8225131250.0 -1.02081298828125 0.68377685546875
8256353125.0 -0.42034912109375 1.2559814453125
8287575000.0 0.5059814453125 1.2308349609375
8318796875.0 1.086181640625 0.6365966796875
8350018750.0 1.2501220703125 -0.07958984375
8381240625.0 1.03411865234375 -0.84576416015625
8412462500.0 0.25250244140625 -1.38031005859375
8443684375.0 -0.67486572265625 -1.17376708984375
8474906250.0 -1.18017578125 -0.532470703125
8506128125.0 -1.30413818359375 0.24078369140625
8537350000.0 -0.92572021484375 1.05303955078125
8568571875.0 -0.0118408203125 1.40057373046875
8599793750.0 0.80950927734375 1.05670166015625
8631015625.0 1.24847412109375 0.3973388671875
8662237500.0 1.2919921875 -0.43560791015625
8693459375.0 0.73651123046875 -1.1859130859375
8724681250.0 -0.16571044921875 -1.3372802734375
8755903125.0 -0.886383056640625 -0.960540771484375
8787125000.0 -1.31011962890625 -0.2818603515625
8818346875.0 -1.25555419921875 0.62152099609375
8849568750.0 -0.5565185546875 1.267578125
8880790625.0 0.3026123046875 1.29046630859375
8912012500.0 0.988616943359375 0.89508056640625
8943234375.0 1.40631103515625 0.1259765625
8974456250.0 1.17059326171875 -0.8502197265625
9005678125.0 0.34716796875 -1.31915283203125
9036900000.0 -0.44927978515625 -1.22894287109375
9068121875.0 -1.10931396484375 -0.78668212890625
9099343750.0 -1.44647216796875 0.10064697265625
9130565625.0 -0.98040771484375 1.01800537109375
9161787500.0 -0.15277099609375 1.28759765625
9193009375.0 0.55902099609375 1.136962890625
9224231250.0 1.18609619140625 0.65570068359375
9255453125.0 1.4053955078125 -0.30242919921875
9286675000.0 0.80743408203125 -1.09136962890625
9317896875.0 0.02362060546875 -1.25323486328125
9349118750.0 -0.658935546875 -1.07293701171875
9380340625.0 -1.26513671875 -0.50823974609375
9411562500.0 -1.3160400390625 0.482177734375
9442784375.0 -0.64715576171875 1.125
9474006250.0 0.0927734375 1.2166748046875
9505228125.0 0.773284912109375 0.98345947265625
9536450000.0 1.28143310546875 0.3106689453125
9567671875.0 1.14654541015625 -0.58599853515625
9598893750.0 0.5294189453125 -1.07476806640625
9630115625.0 -0.1473388671875 -1.16265869140625
9661337500.0 -0.825347900390625 -0.904052734375
9692559375.0 -1.24627685546875 -0.18646240234375
9723781250.0 -1.04638671875 0.60955810546875
9755003125.0 -0.48529052734375 1.0560302734375
9786225000.0 0.20159912109375 1.16412353515625
9817446875.0 0.901519775390625 0.82879638671875
9848668750.0 1.20245361328125 0.0748291015625
9879890625.0 0.971343994140625 -0.62158203125
9911112500.0 0.45172119140625 -1.0567626953125
9942334375.0 -0.27117919921875 -1.1629638671875
9973556250.0 -0.948577880859375 -0.73974609375
10004778125.0 -1.1510009765625 -0.01513671875
10036000000.0 -0.947113037109375 0.6220703125
10067221875.0 -0.4410400390625 1.1021728515625
10098443750.0 0.375 1.18536376953125
10129665625.0 1.00799560546875 0.64239501953125
10160887500.0 1.12408447265625 -0.05548095703125
10192109375.0 0.919525146484375 -0.667205810546875
10223331250.0 0.35992431640625 -1.1591796875
10254553125.0 -0.493408203125 -1.11785888671875
10285775000.0 -0.990386962890625 -0.534942626953125
10316996875.0 -1.0718994140625 0.08056640625
10348218750.0 -0.9019775390625 0.67608642578125
10379440625.0 -0.3209228515625 1.18011474609375
10410662500.0 0.53326416015625 1.08837890625
10441884375.0 0.996673583984375 0.521392822265625
10473106250.0 1.1126708984375 -0.08636474609375
10504328125.0 0.951904296875 -0.763275146484375
10535550000.0 0.2364501953125 -1.30224609375
10566771875.0 -0.66375732421875 -1.07989501953125
10597993750.0 -1.08636474609375 -0.45782470703125
10629215625.0 -1.17974853515625 0.2091064453125
10660437500.0 -0.888946533203125 0.957672119140625
10691659375.0 -0.0048828125 1.34130859375
10722881250.0 0.790374755859375 0.9539794921875
10754103125.0 1.1259765625 0.32281494140625
10785325000.0 1.1434326171875 -0.3717041015625
10816546875.0 0.701904296875 -1.056396484375
10847768750.0 -0.15057373046875 -1.23455810546875
10878990625.0 -0.8094482421875 -0.844024658203125
10910212500.0 -1.1287841796875 -0.24273681640625
10941434375.0 -1.09991455078125 0.48187255859375
10972656250.0 -0.56719970703125 1.09130859375
11003878125.0 0.22235107421875 1.17864990234375
11035100000.0 0.8536376953125 0.82275390625
11066321875.0 1.2281494140625 0.17095947265625
11097543750.0 1.10162353515625 -0.68194580078125
11128765625.0 0.38421630859375 -1.20428466796875
11159987500.0 -0.4014892578125 -1.143310546875
11191209375.0 -1.005615234375 -0.70343017578125
11222431250.0 -1.27874755859375 0.09796142578125
11253653125.0 -0.860565185546875 0.901702880859375
11284875000.0 -0.11175537109375 1.1319580078125
11316096875.0 0.518096923828125 0.95947265625
11347318750.0 1.0096435546875 0.500732421875
11378540625.0 1.1224365234375 -0.2760009765625
11409762500.0 0.6341552734375 -0.86444091796875
11440984375.0 0.033294677734375 -0.98193359375
11472206250.0 -0.485107421875 -0.85211181640625
11503428125.0 -0.957244873046875 -0.456268310546875
11534650000.0 -1.0723876953125 0.29296875
11565871875.0 -0.6025390625 0.85809326171875
11597093750.0 -0.015655517578125 0.99542236328125
11628315625.0 0.549224853515625 0.8780517578125
11659537500.0 1.0667724609375 0.39117431640625
11690759375.0 1.0679931640625 -0.43817138671875
11721981250.0 0.5167236328125 -0.94598388671875
11753203125.0 -0.11029052734375 -1.04150390625
11784425000.0 -0.72845458984375 -0.811370849609375
11815646875.0 -1.1068115234375 -0.14703369140625
11846868750.0 -0.89300537109375 0.55780029296875
11878090625.0 -0.389801025390625 0.914306640625
11909312500.0 0.191070556640625 0.989166259765625
11940534375.0 0.78643798828125 0.695281982421875
11971756250.0 1.02911376953125 0.0364990234375
12002978125.0 0.80792236328125 -0.5430908203125
12034200000.0 0.380279541015625 -0.89483642578125
12065421875.0 -0.21990966796875 -1.01458740234375
12096643750.0 -0.85357666015625 -0.66546630859375
12127865625.0 -1.03753662109375 0.02020263671875
12159087500.0 -0.817138671875 0.579833984375
12190309375.0 -0.376495361328125 0.9803466796875
12221531250.0 0.34295654296875 1.09100341796875
12252753125.0 0.987213134765625 0.580780029296875
12283975000.0 1.0592041015625 -0.13177490234375
12315196875.0 0.801513671875 -0.681915283203125
12346418750.0 0.2786865234375 -1.0972900390625
12377640625.0 -0.54278564453125 -1.06329345703125
12408862500.0 -1.0386962890625 -0.41778564453125
12440084375.0 -1.01116943359375 0.2279052734375
12471306250.0 -0.7435302734375 0.743896484375
12502528125.0 -0.17694091796875 1.1260986328125
12533750000.0 0.626434326171875 0.995574951171875
12564971875.0 1.04638671875 0.3623046875
12596193750.0 1.03265380859375 -0.26959228515625
12627415625.0 0.7491455078125 -0.836181640625
12658637500.0 0.0753173828125 -1.213134765625
12689859375.0 -0.741241455078125 -0.9676513671875
12721081250.0 -1.12310791015625 -0.3026123046875
12752303125.0 -1.10107421875 0.386962890625
12783525000.0 -0.68768310546875 1.03558349609375
12814746875.0 0.1689453125 1.2562255859375
12845968750.0 0.869598388671875 0.811553955078125
12877190625.0 1.1253662109375 0.16729736328125
12908412500.0 1.05926513671875 -0.507568359375
12939634375.0 0.54034423828125 -1.12457275390625
12970856250.0 -0.3271484375 -1.1798095703125
13002078125.0 -0.901336669921875 -0.69268798828125
13033300000.0 -1.109375 -0.0841064453125
13064521875.0 -1.01165771484375 0.6004638671875
13095743750.0 -0.4173583984375 1.16180419921875
13126965625.0 0.41558837890625 1.124755859375
13158187500.0 0.952545166015625 0.632080078125
13189409375.0 1.15386962890625 -0.02642822265625
13220631250.0 0.938140869140625 -0.755615234375
13251853125.0 0.22967529296875 -1.17724609375
13283075000.0 -0.5142822265625 -1.0223388671875
13314296875.0 -0.993072509765625 -0.529693603515625
13345518750.0 -1.14013671875 0.18292236328125
13376740625.0 -0.752655029296875 0.864349365234375
