!Created with skrf (http://scikit-rf.org).
# Hz S RI R 50.0 
!freq ReS11 ImS11
45000000.0 -0.07682037353515625 -0.09708786010742188
76221875.0 -0.19707489013671875 -0.04808807373046875
107443750.0 -0.25616455078125 0.119537353515625
138665625.0 -0.1494293212890625 0.3289947509765625
169887500.0 0.122802734375 0.4189605712890625
201109375.0 0.422454833984375 0.282745361328125
232331250.0 0.580810546875 -0.056304931640625
263553125.0 0.4922027587890625 -0.453399658203125
294775000.0 0.10040283203125 -0.734771728515625
325996875.0 -0.415252685546875 -0.68414306640625
357218750.0 -0.808746337890625 -0.30023193359375
388440625.0 -0.889617919921875 0.29962158203125
419662500.0 -0.520965576171875 0.86785888671875
450884375.0 0.1710205078125 1.03228759765625
482106250.0 0.799560546875 0.716949462890625
513328125.0 1.122802734375 0.08990478515625
544550000.0 1.00811767578125 -0.6796875
575771875.0 0.3402099609375 -1.24066162109375
606993750.0 -0.55242919921875 -1.18182373046875
638215625.0 -1.1678466796875 -0.59490966796875
669437500.0 -1.34405517578125 0.2313232421875
700659375.0 -0.97607421875 1.0968017578125
731881250.0 -0.00762939453125 1.54693603515625
763103125.0 1.00537109375 1.16156005859375
794325000.0 1.47222900390625 0.28582763671875
825546875.0 1.37274169921875 -0.65008544921875
856768750.0 0.79986572265625 -1.404541015625
887990625.0 -0.2901611328125 -1.65447998046875
919212500.0 -1.2904052734375 -1.0850830078125
950434375.0 -1.65460205078125 -0.06256103515625
981656250.0 -1.3895263671875 0.9464111328125
1012878125.0 -0.53472900390625 1.67657470703125
1044100000.0 0.6962890625 1.66961669921875
1075321875.0 1.57916259765625 0.81817626953125
1106543750.0 1.7113037109375 -0.310791015625
1137765625.0 1.193603515625 -1.28619384765625
1168987500.0 0.1427001953125 -1.80328369140625
1200209375.0 -1.06243896484375 -1.4912109375
1231431250.0 -1.732666015625 -0.458251953125
1262653125.0 -1.600830078125 0.68353271484375
1293875000.0 -0.8580322265625 1.4942626953125
1325096875.0 0.2249755859375 1.71270751953125
1356318750.0 1.236328125 1.223388671875
1387540625.0 1.744873046875 0.19366455078125
1418762500.0 1.4761962890625 -0.95068359375
1449984375.0 0.53466796875 -1.629638671875
1481206250.0 -0.54827880859375 -1.562255859375
1512428125.0 -1.34442138671875 -0.9254150390625
1543650000.0 -1.6610107421875 0.06231689453125
1574871875.0 -1.27935791015625 1.109130859375
1606093750.0 -0.27655029296875 1.6357421875
1637315625.0 0.74188232421875 1.40618896484375
1668537500.0 1.39898681640625 0.7008056640625
1699759375.0 1.57769775390625 -0.2744140625
1730981250.0 1.06964111328125 -1.230712890625
1762203125.0 0.0452880859375 -1.57489013671875
1793425000.0 -0.85546875 -1.23175048828125
1824646875.0 -1.396484375 -0.51947021484375
1855868750.0 -1.47930908203125 0.430419921875
1887090625.0 -0.88055419921875 1.28765869140625
1918312500.0 0.11492919921875 1.49151611328125
1949534375.0 0.92205810546875 1.09405517578125
1980756250.0 1.37841796875 0.37371826171875
2011978125.0 1.3646240234375 -0.53009033203125
2043200000.0 0.754638671875 -1.26361083984375
2074421875.0 -0.1546630859375 -1.4378662109375
2105643750.0 -0.961181640625 -1.077392578125
2136865625.0 -1.4503173828125 -0.3087158203125
2168087500.0 -1.36224365234375 0.670166015625
2199309375.0 -0.6431884765625 1.35400390625
2230531250.0 0.2802734375 1.44036865234375
2261753125.0 1.07366943359375 1.0184326171875
2292975000.0 1.518310546875 0.1732177734375
2324196875.0 1.310302734375 -0.818359375
2355418750.0 0.52899169921875 -1.4222412109375
2386640625.0 -0.40313720703125 -1.4530029296875
2417862500.0 -1.1839599609375 -1.029541015625
2449084375.0 -1.610107421875 -0.08642578125
2480306250.0 -1.31658935546875 0.92730712890625
2511528125.0 -0.49822998046875 1.51043701171875
2542750000.0 0.4871826171875 1.54180908203125
2573971875.0 1.3734130859375 0.973388671875
2605193750.0 1.72265625 -0.11004638671875
2636415625.0 1.267333984375 -1.15338134765625
2667637500.0 0.309814453125 -1.672119140625
2698859375.0 -0.76995849609375 -1.5401611328125
2730081250.0 -1.57745361328125 -0.74591064453125
2761303125.0 -1.6878662109375 0.3873291015625
2792525000.0 -1.105224609375 1.3095703125
2823746875.0 -0.1044921875 1.7353515625
2854968750.0 1.01324462890625 1.46282958984375
2886190625.0 1.69671630859375 0.495849609375
2917412500.0 1.60662841796875 -0.61798095703125
2948634375.0 0.94500732421875 -1.4373779296875
2979856250.0 -0.1048583984375 -1.7813720703125
3011078125.0 -1.24951171875 -1.34893798828125
3042300000.0 -1.7806396484375 -0.23773193359375
3073521875.0 -1.51416015625 0.83831787109375
3104743750.0 -0.76800537109375 1.5732421875
3135965625.0 0.3602294921875 1.8150634765625
3167187500.0 1.5032958984375 1.169677734375
3198409375.0 1.821044921875 -0.0721435546875
3229631250.0 1.3546142578125 -1.08245849609375
3260853125.0 0.4942626953125 -1.67242431640625
3292075000.0 -0.6533203125 -1.70416259765625
3323296875.0 -1.6234130859375 -0.884521484375
3354518750.0 -1.7362060546875 0.3270263671875
3385740625.0 -1.1612548828125 1.23333740234375
3416962500.0 -0.23455810546875 1.6859130859375
3448184375.0 0.8612060546875 1.5272216796875
3479406250.0 1.63970947265625 0.6483154296875
3510628125.0 1.6505126953125 -0.495361328125
3541850000.0 1.00537109375 -1.3582763671875
3573071875.0 -0.005126953125 -1.687255859375
3604293750.0 -1.02850341796875 -1.3426513671875
3635515625.0 -1.63140869140625 -0.442138671875
3666737500.0 -1.5672607421875 0.64617919921875
3697959375.0 -0.8294677734375 1.47821044921875
3729181250.0 0.2666015625 1.63507080078125
3760403125.0 1.15435791015625 1.10296630859375
3791625000.0 1.5565185546875 0.221435546875
3822846875.0 1.40704345703125 -0.7603759765625
3854068750.0 0.6256103515625 -1.48358154296875
3885290625.0 -0.42083740234375 -1.486328125
3916512500.0 -1.14453125 -0.9154052734375
3947734375.0 -1.45086669921875 -0.1229248046875
3978956250.0 -1.30279541015625 0.781005859375
4010178125.0 -0.53485107421875 1.45843505859375
4041400000.0 0.4739990234375 1.4202880859375
4072621875.0 1.15521240234375 0.8509521484375
4103843750.0 1.44854736328125 0.0650634765625
4135065625.0 1.27276611328125 -0.84796142578125
4166287500.0 0.46038818359375 -1.50018310546875
4197509375.0 -0.55712890625 -1.4190673828125
4228731250.0 -1.25030517578125 -0.8060302734375
4259953125.0 -1.51300048828125 0.06939697265625
4291175000.0 -1.19268798828125 1.01123046875
4322396875.0 -0.29229736328125 1.52996826171875
4353618750.0 0.67266845703125 1.35430908203125
4384840625.0 1.324462890625 0.700927734375
4416062500.0 1.5054931640625 -0.22711181640625
4447284375.0 1.05938720703125 -1.10638427734375
4478506250.0 0.1741943359375 -1.49957275390625
4509728125.0 -0.73272705078125 -1.31121826171875
4540950000.0 -1.3978271484375 -0.638671875
4572171875.0 -1.5274658203125 0.35882568359375
4603393750.0 -0.97576904296875 1.2142333984375
4634615625.0 -0.0625 1.541015625
4665837500.0 0.87176513671875 1.30902099609375
4697059375.0 1.54571533203125 0.51837158203125
4728281250.0 1.53350830078125 -0.5826416015625
4759503125.0 0.826416015625 -1.37060546875
4790725000.0 -0.14385986328125 -1.57666015625
4821946875.0 -1.0863037109375 -1.19830322265625
4853168750.0 -1.61737060546875 -0.25360107421875
4884390625.0 -1.38275146484375 0.79437255859375
4915612500.0 -0.61639404296875 1.41552734375
4946834375.0 0.328125 1.5142822265625
4978056250.0 1.2081298828125 1.02178955078125
5009278125.0 1.56591796875 0.04095458984375
5040500000.0 1.2332763671875 -0.876953125
5071721875.0 0.50445556640625 -1.41851806640625
5102943750.0 -0.44677734375 -1.50152587890625
5134165625.0 -1.340087890625 -0.90911865234375
5165387500.0 -1.57220458984375 0.1458740234375
5196609375.0 -1.1402587890625 1.01129150390625
5227831250.0 -0.359130859375 1.510009765625
5259053125.0 0.68878173828125 1.4969482421875
5290275000.0 1.5262451171875 0.66546630859375
5321496875.0 1.496337890625 -0.4310302734375
5352718750.0 0.92413330078125 -1.15460205078125
5383940625.0 0.09796142578125 -1.50439453125
5415162500.0 -0.90155029296875 -1.28814697265625
5446384375.0 -1.48870849609375 -0.37237548828125
5477606250.0 -1.302490234375 0.56536865234375
5508828125.0 -0.735107421875 1.1531982421875
5540050000.0 0.0526123046875 1.4024658203125
5571271875.0 0.940185546875 1.112548828125
5602493750.0 1.41278076171875 0.2613525390625
5633715625.0 1.236572265625 -0.61419677734375
5664937500.0 0.6505126953125 -1.20477294921875
5696159375.0 -0.19683837890625 -1.3878173828125
5727381250.0 -1.02447509765625 -0.98187255859375
5758603125.0 -1.39532470703125 -0.14630126953125
5789825000.0 -1.197998046875 0.71868896484375
5821046875.0 -0.5086669921875 1.31011962890625
5852268750.0 0.41253662109375 1.31689453125
5883490625.0 1.07421875 0.7744140625
5914712500.0 1.30633544921875 0.02032470703125
5945934375.0 1.10064697265625 -0.77734375
5977156250.0 0.36236572265625 -1.31689453125
6008378125.0 -0.51055908203125 -1.1856689453125
6039600000.0 -1.024658203125 -0.6513671875
6070821875.0 -1.22784423828125 -0.00537109375
6102043750.0 -1.08734130859375 0.76416015625
6133265625.0 -0.34320068359375 1.34832763671875
6164487500.0 0.56549072265625 1.1910400390625
6195709375.0 1.07318115234375 0.6322021484375
6226931250.0 1.28326416015625 -0.04290771484375
6258153125.0 1.1080322265625 -0.8731689453125
6289375000.0 0.25701904296875 -1.44952392578125
6320596875.0 -0.6910400390625 -1.208984375
6351818750.0 -1.20233154296875 -0.57366943359375
6383040625.0 -1.35821533203125 0.20684814453125
6414262500.0 -1.00262451171875 1.0594482421875
6445484375.0 -0.078369140625 1.46044921875
6476706250.0 0.79681396484375 1.15081787109375
6507928125.0 1.293212890625 0.4718017578125
6539150000.0 1.35162353515625 -0.38800048828125
6570371875.0 0.8441162109375 -1.14642333984375
6601593750.0 -0.017333984375 -1.40924072265625
6632815625.0 -0.84075927734375 -1.13983154296875
6664037500.0 -1.40545654296875 -0.421875
6695259375.0 -1.3778076171875 0.56695556640625
6726481250.0 -0.71258544921875 1.25390625
6757703125.0 0.1307373046875 1.41070556640625
6788925000.0 0.95751953125 1.13421630859375
6820146875.0 1.5655517578125 0.28790283203125
6851368750.0 1.329345703125 -0.82183837890625
6882590625.0 0.5074462890625 -1.34136962890625
6913812500.0 -0.292236328125 -1.36004638671875
6945034375.0 -1.0728759765625 -1.024658203125
6976256250.0 -1.59796142578125 -0.0931396484375
7007478125.0 -1.23992919921875 0.93426513671875
7038700000.0 -0.4039306640625 1.3472900390625
7069921875.0 0.3597412109375 1.327880859375
7101143750.0 1.123046875 0.97265625
7132365625.0 1.60498046875 0.01617431640625
7163587500.0 1.1612548828125 -1.022705078125
7194809375.0 0.30340576171875 -1.40289306640625
7226031250.0 -0.514404296875 -1.3306884765625
7257253125.0 -1.27325439453125 -0.827392578125
7288475000.0 -1.56365966796875 0.19927978515625
7319696875.0 -1.03363037109375 1.1112060546875
7350918750.0 -0.16522216796875 1.45025634765625
7382140625.0 0.71820068359375 1.28094482421875
7413362500.0 1.381103515625 0.577880859375
7444584375.0 1.416748046875 -0.40875244140625
7475806250.0 0.86138916015625 -1.14483642578125
7507028125.0 0.00799560546875 -1.43182373046875
7538250000.0 -0.8900146484375 -1.1268310546875
7569471875.0 -1.33929443359375 -0.311279296875
7600693750.0 -1.2060546875 0.49835205078125
7631915625.0 -0.72210693359375 1.08746337890625
7663137500.0 0.0780029296875 1.36273193359375
7694359375.0 0.942657470703125 0.98382568359375
7725581250.0 1.24859619140625 0.18096923828125
7756803125.0 1.08697509765625 -0.49920654296875
7788025000.0 0.6739501953125 -1.04534912109375
7819246875.0 -0.12152099609375 -1.35235595703125
7850468750.0 -0.996795654296875 -0.919158935546875
7881690625.0 -1.23565673828125 -0.10565185546875
7912912500.0 -1.0589599609375 0.55767822265625
7944134375.0 -0.60693359375 1.117919921875
7975356250.0 0.27435302734375 1.33917236328125
8006578125.0 1.0517578125 0.7801513671875
8037800000.0 1.198486328125 0.01495361328125
8069021875.0 1.01007080078125 -0.61962890625
8100243750.0 0.5008544921875 -1.1661376953125
8131465625.0 -0.388671875 -1.2578125
8162687500.0 -1.03570556640625 -0.68853759765625
8193909375.0 -1.18585205078125 0.00830078125
8225131250.0 -1.02203369140625 0.68048095703125
8256353125.0 -0.4222412109375 1.2540283203125
8287575000.0 0.50238037109375 1.22967529296875
8318796875.0 1.08624267578125 0.63616943359375
8350018750.0 1.2501220703125 -0.075927734375
8381240625.0 1.03515625 -0.8419189453125
8412462500.0 0.2523193359375 -1.380859375
8443684375.0 -0.671142578125 -1.1724853515625
8474906250.0 -1.17864990234375 -0.533447265625
8506128125.0 -1.302734375 0.2388916015625
8537350000.0 -0.92730712890625 1.051025390625
8568571875.0 -0.01422119140625 1.39892578125
8599793750.0 0.802978515625 1.05609130859375
8631015625.0 1.24493408203125 0.39910888671875
8662237500.0 1.28955078125 -0.4306640625
8693459375.0 0.73809814453125 -1.1787109375
8724681250.0 -0.162841796875 -1.3358154296875
8755903125.0 -0.883209228515625 -0.961883544921875
8787125000.0 -1.30914306640625 -0.283447265625
8818346875.0 -1.2567138671875 0.619140625
8849568750.0 -0.5579833984375 1.26617431640625
8880790625.0 0.3001708984375 1.28875732421875
8912012500.0 0.986328125 0.895263671875
8943234375.0 1.40484619140625 0.128173828125
8974456250.0 1.16986083984375 -0.84320068359375
9005678125.0 0.34869384765625 -1.31689453125
9036900000.0 -0.44866943359375 -1.2288818359375
9068121875.0 -1.1055908203125 -0.78765869140625
9099343750.0 -1.44732666015625 0.0987548828125
9130565625.0 -0.981201171875 1.01495361328125
9161787500.0 -0.15399169921875 1.28717041015625
9193009375.0 0.55548095703125 1.13702392578125
9224231250.0 1.18359375 0.65655517578125
9255453125.0 1.404296875 -0.29754638671875
9286675000.0 0.80987548828125 -1.08837890625
9317896875.0 0.02593994140625 -1.251953125
9349118750.0 -0.65765380859375 -1.0743408203125
9380340625.0 -1.26251220703125 -0.51104736328125
9411562500.0 -1.31683349609375 0.48187255859375
9442784375.0 -0.64996337890625 1.11956787109375
9474006250.0 0.090087890625 1.2161865234375
9505228125.0 0.768310546875 0.982879638671875
9536450000.0 1.2789306640625 0.31231689453125
9567671875.0 1.1468505859375 -0.58404541015625
9598893750.0 0.52996826171875 -1.0728759765625
9630115625.0 -0.145751953125 -1.16229248046875
9661337500.0 -0.822265625 -0.904937744140625
9692559375.0 -1.24322509765625 -0.189208984375
9723781250.0 -1.04541015625 0.6044921875
9755003125.0 -0.48724365234375 1.0533447265625
9786225000.0 0.19769287109375 1.161376953125
9817446875.0 0.89788818359375 0.82965087890625
9848668750.0 1.20111083984375 0.07818603515625
9879890625.0 0.97076416015625 -0.619476318359375
9911112500.0 0.453369140625 -1.05548095703125
9942334375.0 -0.2698974609375 -1.164306640625
9973556250.0 -0.9473876953125 -0.739593505859375
10004778125.0 -1.14990234375 -0.01593017578125
10036000000.0 -0.946990966796875 0.620025634765625
10067221875.0 -0.44268798828125 1.10015869140625
10098443750.0 0.37139892578125 1.18402099609375
10129665625.0 1.00665283203125 0.64495849609375
10160887500.0 1.12249755859375 -0.05291748046875
10192109375.0 0.91973876953125 -0.66650390625
10223331250.0 0.3609619140625 -1.156982421875
10254553125.0 -0.48834228515625 -1.1163330078125
10285775000.0 -0.98883056640625 -0.535614013671875
10316996875.0 -1.0706787109375 0.0780029296875
10348218750.0 -0.9022216796875 0.670989990234375
10379440625.0 -0.32196044921875 1.18048095703125
10410662500.0 0.53076171875 1.08984375
10441884375.0 0.996490478515625 0.521728515625
10473106250.0 1.11346435546875 -0.08587646484375
10504328125.0 0.95172119140625 -0.759307861328125
10535550000.0 0.238525390625 -1.298583984375
10566771875.0 -0.66033935546875 -1.07928466796875
10597993750.0 -1.08428955078125 -0.459716796875
10629215625.0 -1.1793212890625 0.20806884765625
10660437500.0 -0.88916015625 0.95477294921875
10691659375.0 -0.007080078125 1.33953857421875
10722881250.0 0.78802490234375 0.953948974609375
10754103125.0 1.1229248046875 0.32513427734375
10785325000.0 1.1436767578125 -0.370361328125
10816546875.0 0.70159912109375 -1.05194091796875
10847768750.0 -0.14715576171875 -1.23309326171875
10878990625.0 -0.8060302734375 -0.845794677734375
10910212500.0 -1.1285400390625 -0.244140625
10941434375.0 -1.10089111328125 0.47906494140625
10972656250.0 -0.56903076171875 1.0902099609375
11003878125.0 0.2200927734375 1.17755126953125
11035100000.0 0.852386474609375 0.82452392578125
11066321875.0 1.22467041015625 0.1737060546875
11097543750.0 1.10052490234375 -0.68060302734375
11128765625.0 0.38525390625 -1.20367431640625
11159987500.0 -0.39825439453125 -1.142333984375
11191209375.0 -1.004150390625 -0.70367431640625
11222431250.0 -1.27642822265625 0.095458984375
11253653125.0 -0.860107421875 0.8980712890625
11284875000.0 -0.11395263671875 1.13189697265625
11316096875.0 0.513641357421875 0.95880126953125
11347318750.0 1.00701904296875 0.50274658203125
11378540625.0 1.11993408203125 -0.27197265625
11409762500.0 0.635528564453125 -0.862701416015625
11440984375.0 0.03485107421875 -0.982513427734375
11472206250.0 -0.4832763671875 -0.853057861328125
11503428125.0 -0.956573486328125 -0.456756591796875
11534650000.0 -1.0709228515625 0.28997802734375
11565871875.0 -0.6031494140625 0.85833740234375
11597093750.0 -0.01739501953125 0.994171142578125
11628315625.0 0.546783447265625 0.8779296875
11659537500.0 1.06500244140625 0.39251708984375
11690759375.0 1.0679931640625 -0.4375
11721981250.0 0.516845703125 -0.943695068359375
11753203125.0 -0.10614013671875 -1.0394287109375
11784425000.0 -0.72833251953125 -0.810455322265625
11815646875.0 -1.1064453125 -0.1492919921875
11846868750.0 -0.89349365234375 0.5548095703125
11878090625.0 -0.390899658203125 0.912933349609375
11909312500.0 0.187713623046875 0.98748779296875
11940534375.0 0.785003662109375 0.69683837890625
11971756250.0 1.02825927734375 0.0374755859375
12002978125.0 0.808135986328125 -0.540802001953125
12034200000.0 0.381744384765625 -0.892333984375
12065421875.0 -0.217529296875 -1.01324462890625
12096643750.0 -0.8525390625 -0.66583251953125
12127865625.0 -1.03814697265625 0.01885986328125
12159087500.0 -0.81719970703125 0.577850341796875
12190309375.0 -0.377410888671875 0.979156494140625
12221531250.0 0.34405517578125 1.09197998046875
12252753125.0 0.982757568359375 0.581085205078125
12283975000.0 1.05584716796875 -0.12945556640625
12315196875.0 0.802337646484375 -0.681121826171875
12346418750.0 0.28033447265625 -1.09649658203125
12377640625.0 -0.5438232421875 -1.0645751953125
12408862500.0 -1.03875732421875 -0.41888427734375
12440084375.0 -1.01165771484375 0.22735595703125
12471306250.0 -0.743743896484375 0.7412109375
12502528125.0 -0.17852783203125 1.12554931640625
12533750000.0 0.624725341796875 0.996185302734375
12564971875.0 1.0457763671875 0.36309814453125
12596193750.0 1.0322265625 -0.2666015625
12627415625.0 0.749603271484375 -0.834197998046875
12658637500.0 0.0771484375 -1.212890625
12689859375.0 -0.73956298828125 -0.96905517578125
12721081250.0 -1.119873046875 -0.30645751953125
12752303125.0 -1.10089111328125 0.3839111328125
12783525000.0 -0.68768310546875 1.03314208984375
12814746875.0 0.16748046875 1.253662109375
12845968750.0 0.8685302734375 0.81158447265625
12877190625.0 1.1240234375 0.1689453125
12908412500.0 1.0592041015625 -0.5068359375
12939634375.0 0.54229736328125 -1.1219482421875
12970856250.0 -0.32342529296875 -1.1783447265625
13002078125.0 -0.899444580078125 -0.694122314453125
13033300000.0 -1.111083984375 -0.08447265625
13064521875.0 -1.01220703125 0.5965576171875
13095743750.0 -0.418701171875 1.16094970703125
13126965625.0 0.4144287109375 1.12384033203125
13158187500.0 0.95135498046875 0.632232666015625
13189409375.0 1.1531982421875 -0.0238037109375
13220631250.0 0.938446044921875 -0.752777099609375
13251853125.0 0.2327880859375 -1.17626953125
13283075000.0 -0.512451171875 -1.02252197265625
13314296875.0 -0.9918212890625 -0.529632568359375
13345518750.0 -1.13861083984375 0.1796875
13376740625.0 -0.753326416015625 0.86248779296875
13407962500.0 -0.05792236328125 1.0703125
