!Created with skrf (http://scikit-rf.org).
# Hz S RI R 50.0 
!freq ReS11 ImS11
45000000.0 -0.07683563232421875 -0.09715652465820312
76221875.0 -0.1971282958984375 -0.04813385009765625
107443750.0 -0.2561492919921875 0.11956787109375
138665625.0 -0.1494598388671875 0.329254150390625
169887500.0 0.1227874755859375 0.4190216064453125
201109375.0 0.4224090576171875 0.2828216552734375
232331250.0 0.580841064453125 -0.056396484375
263553125.0 0.4921112060546875 -0.4533233642578125
294775000.0 0.10064697265625 -0.734954833984375
325996875.0 -0.4154052734375 -0.6842041015625
357218750.0 -0.808807373046875 -0.300201416015625
388440625.0 -0.889739990234375 0.29962158203125
419662500.0 -0.521148681640625 0.86798095703125
450884375.0 0.17108154296875 1.0325927734375
482106250.0 0.79931640625 0.717041015625
513328125.0 1.12286376953125 0.08990478515625
544550000.0 1.0084228515625 -0.67962646484375
575771875.0 0.34027099609375 -1.24072265625
606993750.0 -0.552490234375 -1.18206787109375
638215625.0 -1.16796875 -0.5950927734375
669437500.0 -1.34417724609375 0.23114013671875
700659375.0 -0.976318359375 1.0966796875
731881250.0 -0.0078125 1.547119140625
763103125.0 1.00555419921875 1.1617431640625
794325000.0 1.47235107421875 0.286376953125
825546875.0 1.37261962890625 -0.65032958984375
856768750.0 0.80010986328125 -1.40399169921875
887990625.0 -0.28985595703125 -1.65447998046875
919212500.0 -1.290771484375 -1.08544921875
950434375.0 -1.6546630859375 -0.06304931640625
981656250.0 -1.38958740234375 0.94598388671875
1012878125.0 -0.53533935546875 1.67626953125
1044100000.0 0.69561767578125 1.66943359375
1075321875.0 1.57904052734375 0.81829833984375
1106543750.0 1.71160888671875 -0.31048583984375
1137765625.0 1.19390869140625 -1.28631591796875
1168987500.0 0.14288330078125 -1.80352783203125
1200209375.0 -1.062255859375 -1.49176025390625
1231431250.0 -1.73272705078125 -0.4583740234375
1262653125.0 -1.60101318359375 0.6834716796875
1293875000.0 -0.8582763671875 1.49365234375
1325096875.0 0.22509765625 1.71343994140625
1356318750.0 1.2364501953125 1.223876953125
1387540625.0 1.7449951171875 0.1939697265625
1418762500.0 1.47637939453125 -0.95098876953125
1449984375.0 0.53521728515625 -1.629638671875
1481206250.0 -0.54833984375 -1.5626220703125
1512428125.0 -1.3447265625 -0.92547607421875
1543650000.0 -1.66064453125 0.06182861328125
1574871875.0 -1.279296875 1.10931396484375
1606093750.0 -0.2769775390625 1.63580322265625
1637315625.0 0.7415771484375 1.4061279296875
1668537500.0 1.39849853515625 0.70074462890625
1699759375.0 1.57806396484375 -0.27447509765625
1730981250.0 1.0699462890625 -1.23065185546875
1762203125.0 0.04583740234375 -1.57489013671875
1793425000.0 -0.85540771484375 -1.231689453125
1824646875.0 -1.3966064453125 -0.51983642578125
1855868750.0 -1.4794921875 0.43023681640625
1887090625.0 -0.880615234375 1.28741455078125
1918312500.0 0.1146240234375 1.491455078125
1949534375.0 0.9219970703125 1.09417724609375
1980756250.0 1.37823486328125 0.37384033203125
2011978125.0 1.36468505859375 -0.53033447265625
2043200000.0 0.75469970703125 -1.263916015625
2074421875.0 -0.15447998046875 -1.43768310546875
2105643750.0 -0.96075439453125 -1.07763671875
2136865625.0 -1.4508056640625 -0.30853271484375
2168087500.0 -1.36212158203125 0.66998291015625
2199309375.0 -0.64349365234375 1.35443115234375
2230531250.0 0.27996826171875 1.44097900390625
2261753125.0 1.07391357421875 1.0184326171875
2292975000.0 1.51788330078125 0.1734619140625
2324196875.0 1.31048583984375 -0.81829833984375
2355418750.0 0.52911376953125 -1.42315673828125
2386640625.0 -0.4027099609375 -1.45306396484375
2417862500.0 -1.1839599609375 -1.02947998046875
2449084375.0 -1.60955810546875 -0.08709716796875
2480306250.0 -1.31732177734375 0.92633056640625
2511528125.0 -0.4979248046875 1.51226806640625
2542750000.0 0.4864501953125 1.54180908203125
2573971875.0 1.37420654296875 0.97314453125
2605193750.0 1.7227783203125 -0.10931396484375
2636415625.0 1.2674560546875 -1.155517578125
2667637500.0 0.3099365234375 -1.6727294921875
2698859375.0 -0.76947021484375 -1.54034423828125
2730081250.0 -1.57763671875 -0.745849609375
2761303125.0 -1.6871337890625 0.3856201171875
2792525000.0 -1.105224609375 1.31036376953125
2823746875.0 -0.105224609375 1.73577880859375
2854968750.0 1.013916015625 1.462158203125
2886190625.0 1.6971435546875 0.49658203125
2917412500.0 1.60675048828125 -0.618408203125
2948634375.0 0.9453125 -1.43585205078125
2979856250.0 -0.10577392578125 -1.781982421875
3011078125.0 -1.25091552734375 -1.34881591796875
3042300000.0 -1.77935791015625 -0.23907470703125
3073521875.0 -1.51513671875 0.838623046875
3104743750.0 -0.7686767578125 1.571533203125
3135965625.0 0.3599853515625 1.815673828125
3167187500.0 1.50177001953125 1.1702880859375
3198409375.0 1.822509765625 -0.07281494140625
3229631250.0 1.35504150390625 -1.08221435546875
3260853125.0 0.49371337890625 -1.6732177734375
3292075000.0 -0.654052734375 -1.704833984375
3323296875.0 -1.623779296875 -0.88494873046875
3354518750.0 -1.73687744140625 0.326416015625
3385740625.0 -1.161376953125 1.2347412109375
3416962500.0 -0.23492431640625 1.686767578125
3448184375.0 0.86029052734375 1.52734375
3479406250.0 1.6422119140625 0.64788818359375
3510628125.0 1.64971923828125 -0.49432373046875
3541850000.0 1.00506591796875 -1.35821533203125
3573071875.0 -0.0062255859375 -1.6884765625
3604293750.0 -1.028076171875 -1.34234619140625
3635515625.0 -1.63262939453125 -0.442138671875
3666737500.0 -1.56707763671875 0.6448974609375
3697959375.0 -0.8297119140625 1.47918701171875
3729181250.0 0.26605224609375 1.635986328125
3760403125.0 1.15374755859375 1.1031494140625
3791625000.0 1.556884765625 0.22149658203125
3822846875.0 1.40716552734375 -0.76080322265625
3854068750.0 0.624755859375 -1.4847412109375
3885290625.0 -0.41961669921875 -1.48614501953125
3916512500.0 -1.14349365234375 -0.91522216796875
3947734375.0 -1.45233154296875 -0.122314453125
3978956250.0 -1.30303955078125 0.77923583984375
4010178125.0 -0.53509521484375 1.4583740234375
4041400000.0 0.47381591796875 1.420166015625
4072621875.0 1.1536865234375 0.85089111328125
4103843750.0 1.44775390625 0.06561279296875
4135065625.0 1.2724609375 -0.84783935546875
4166287500.0 0.46051025390625 -1.4998779296875
4197509375.0 -0.55828857421875 -1.419921875
4228731250.0 -1.25006103515625 -0.80615234375
4259953125.0 -1.5135498046875 0.068603515625
4291175000.0 -1.1934814453125 1.0126953125
4322396875.0 -0.2919921875 1.53033447265625
4353618750.0 0.67376708984375 1.35479736328125
4384840625.0 1.3258056640625 0.70098876953125
4416062500.0 1.50506591796875 -0.22613525390625
4447284375.0 1.0595703125 -1.10498046875
4478506250.0 0.1749267578125 -1.49945068359375
4509728125.0 -0.733154296875 -1.31201171875
4540950000.0 -1.39739990234375 -0.63995361328125
4572171875.0 -1.5274658203125 0.3594970703125
4603393750.0 -0.9765625 1.21600341796875
4634615625.0 -0.06317138671875 1.54071044921875
4665837500.0 0.872314453125 1.30926513671875
4697059375.0 1.5443115234375 0.518798828125
4728281250.0 1.53375244140625 -0.58258056640625
4759503125.0 0.8267822265625 -1.37017822265625
4790725000.0 -0.14453125 -1.57720947265625
4821946875.0 -1.08551025390625 -1.19940185546875
4853168750.0 -1.6180419921875 -0.2537841796875
4884390625.0 -1.38262939453125 0.793212890625
4915612500.0 -0.6173095703125 1.415283203125
4946834375.0 0.32672119140625 1.5128173828125
4978056250.0 1.2080078125 1.02142333984375
5009278125.0 1.56707763671875 0.04052734375
5040500000.0 1.233642578125 -0.878173828125
5071721875.0 0.50457763671875 -1.41864013671875
5102943750.0 -0.44586181640625 -1.50091552734375
5134165625.0 -1.33953857421875 -0.9090576171875
5165387500.0 -1.5731201171875 0.14569091796875
5196609375.0 -1.14044189453125 1.0106201171875
5227831250.0 -0.35894775390625 1.51153564453125
5259053125.0 0.6890869140625 1.49749755859375
5290275000.0 1.52545166015625 0.66583251953125
5321496875.0 1.4964599609375 -0.43023681640625
5352718750.0 0.92498779296875 -1.15509033203125
5383940625.0 0.09844970703125 -1.50439453125
5415162500.0 -0.9012451171875 -1.28887939453125
5446384375.0 -1.48834228515625 -0.373046875
5477606250.0 -1.3038330078125 0.566162109375
5508828125.0 -0.7347412109375 1.1536865234375
5540050000.0 0.052490234375 1.40283203125
5571271875.0 0.9398193359375 1.11285400390625
5602493750.0 1.41314697265625 0.26153564453125
5633715625.0 1.236328125 -0.613037109375
5664937500.0 0.651123046875 -1.2044677734375
5696159375.0 -0.19635009765625 -1.387451171875
5727381250.0 -1.024169921875 -0.981689453125
5758603125.0 -1.395263671875 -0.1466064453125
5789825000.0 -1.198486328125 0.71881103515625
5821046875.0 -0.5084228515625 1.310302734375
5852268750.0 0.4122314453125 1.317138671875
5883490625.0 1.07330322265625 0.77447509765625
5914712500.0 1.306396484375 0.0206298828125
5945934375.0 1.099853515625 -0.77691650390625
5977156250.0 0.36322021484375 -1.3165283203125
6008378125.0 -0.510498046875 -1.18621826171875
6039600000.0 -1.02447509765625 -0.6514892578125
6070821875.0 -1.226806640625 -0.00628662109375
6102043750.0 -1.08709716796875 0.7630615234375
6133265625.0 -0.3427734375 1.34869384765625
6164487500.0 0.56414794921875 1.1912841796875
6195709375.0 1.073974609375 0.63232421875
6226931250.0 1.28387451171875 -0.04254150390625
6258153125.0 1.1083984375 -0.87347412109375
6289375000.0 0.25628662109375 -1.450927734375
6320596875.0 -0.69097900390625 -1.20947265625
6351818750.0 -1.20281982421875 -0.57366943359375
6383040625.0 -1.35772705078125 0.20648193359375
6414262500.0 -1.0028076171875 1.06048583984375
6445484375.0 -0.078369140625 1.46142578125
6476706250.0 0.79730224609375 1.1512451171875
6507928125.0 1.29241943359375 0.47247314453125
6539150000.0 1.3511962890625 -0.38720703125
6570371875.0 0.843994140625 -1.14654541015625
6601593750.0 -0.01666259765625 -1.40948486328125
6632815625.0 -0.840576171875 -1.14007568359375
6664037500.0 -1.406005859375 -0.421630859375
6695259375.0 -1.3785400390625 0.56719970703125
6726481250.0 -0.71270751953125 1.253662109375
6757703125.0 0.13018798828125 1.4114990234375
6788925000.0 0.9571533203125 1.13446044921875
6820146875.0 1.56500244140625 0.28851318359375
6851368750.0 1.32989501953125 -0.8223876953125
6882590625.0 0.5078125 -1.34234619140625
6913812500.0 -0.2923583984375 -1.3603515625
6945034375.0 -1.0726318359375 -1.025146484375
6976256250.0 -1.59716796875 -0.0936279296875
7007478125.0 -1.24053955078125 0.93634033203125
7038700000.0 -0.40478515625 1.345947265625
7069921875.0 0.35888671875 1.32830810546875
7101143750.0 1.12103271484375 0.9722900390625
7132365625.0 1.60626220703125 0.013427734375
7163587500.0 1.16217041015625 -1.0218505859375
7194809375.0 0.3040771484375 -1.40179443359375
7226031250.0 -0.51385498046875 -1.3314208984375
7257253125.0 -1.2724609375 -0.82794189453125
7288475000.0 -1.56439208984375 0.2000732421875
7319696875.0 -1.03326416015625 1.11279296875
7350918750.0 -0.16552734375 1.44921875
7382140625.0 0.71826171875 1.28057861328125
7413362500.0 1.3831787109375 0.576904296875
7444584375.0 1.4166259765625 -0.40740966796875
7475806250.0 0.86114501953125 -1.14508056640625
7507028125.0 0.007080078125 -1.43475341796875
7538250000.0 -0.88916015625 -1.12774658203125
7569471875.0 -1.339599609375 -0.31304931640625
7600693750.0 -1.205810546875 0.49688720703125
7631915625.0 -0.72149658203125 1.08905029296875
7663137500.0 0.0794677734375 1.363037109375
7694359375.0 0.942962646484375 0.985260009765625
7725581250.0 1.248046875 0.18115234375
7756803125.0 1.0870361328125 -0.499755859375
7788025000.0 0.67327880859375 -1.0479736328125
7819246875.0 -0.12030029296875 -1.35211181640625
7850468750.0 -0.995574951171875 -0.919097900390625
7881690625.0 -1.2359619140625 -0.1060791015625
7912912500.0 -1.05841064453125 0.555419921875
7944134375.0 -0.607421875 1.116943359375
7975356250.0 0.27410888671875 1.3408203125
8006578125.0 1.05072021484375 0.78106689453125
8037800000.0 1.19708251953125 0.016357421875
8069021875.0 1.01025390625 -0.61932373046875
8100243750.0 0.5015869140625 -1.16619873046875
8131465625.0 -0.3890380859375 -1.25836181640625
8162687500.0 -1.03546142578125 -0.6885986328125
8193909375.0 -1.183837890625 0.00885009765625
8225131250.0 -1.02215576171875 0.6812744140625
8256353125.0 -0.42230224609375 1.2540283203125
8287575000.0 0.5032958984375 1.23046875
8318796875.0 1.08526611328125 0.63800048828125
8350018750.0 1.248779296875 -0.07525634765625
8381240625.0 1.03662109375 -0.8436279296875
8412462500.0 0.25433349609375 -1.3770751953125
8443684375.0 -0.67230224609375 -1.17333984375
8474906250.0 -1.1805419921875 -0.5328369140625
8506128125.0 -1.3021240234375 0.23809814453125
8537350000.0 -0.9266357421875 1.04962158203125
8568571875.0 -0.016845703125 1.3985595703125
8599793750.0 0.8031005859375 1.05645751953125
8631015625.0 1.245361328125 0.39984130859375
8662237500.0 1.28961181640625 -0.42999267578125
8693459375.0 0.739013671875 -1.18194580078125
8724681250.0 -0.16204833984375 -1.33563232421875
8755903125.0 -0.882354736328125 -0.961822509765625
8787125000.0 -1.30767822265625 -0.28411865234375
8818346875.0 -1.2559814453125 0.618408203125
8849568750.0 -0.55908203125 1.2645263671875
8880790625.0 0.29974365234375 1.2891845703125
8912012500.0 0.982757568359375 0.89556884765625
8943234375.0 1.40325927734375 0.1295166015625
8974456250.0 1.169921875 -0.8427734375
9005678125.0 0.3489990234375 -1.31768798828125
9036900000.0 -0.44622802734375 -1.22698974609375
9068121875.0 -1.10650634765625 -0.78778076171875
9099343750.0 -1.444580078125 0.0986328125
9130565625.0 -0.9818115234375 1.0174560546875
9161787500.0 -0.15484619140625 1.28509521484375
9193009375.0 0.5570068359375 1.1380615234375
9224231250.0 1.1839599609375 0.6566162109375
9255453125.0 1.40447998046875 -0.29693603515625
9286675000.0 0.809814453125 -1.09124755859375
9317896875.0 0.02691650390625 -1.2513427734375
9349118750.0 -0.6578369140625 -1.074951171875
9380340625.0 -1.2640380859375 -0.51153564453125
9411562500.0 -1.31573486328125 0.4791259765625
9442784375.0 -0.64996337890625 1.12200927734375
9474006250.0 0.0899658203125 1.2156982421875
9505228125.0 0.768096923828125 0.98333740234375
9536450000.0 1.27978515625 0.3126220703125
9567671875.0 1.147216796875 -0.584228515625
9598893750.0 0.53045654296875 -1.07171630859375
9630115625.0 -0.14398193359375 -1.1612548828125
9661337500.0 -0.822998046875 -0.90533447265625
9692559375.0 -1.2418212890625 -0.190185546875
9723781250.0 -1.04742431640625 0.607666015625
9755003125.0 -0.48748779296875 1.0535888671875
9786225000.0 0.198486328125 1.16363525390625
9817446875.0 0.896881103515625 0.830718994140625
9848668750.0 1.2012939453125 0.0782470703125
9879890625.0 0.971435546875 -0.618621826171875
9911112500.0 0.45452880859375 -1.05389404296875
9942334375.0 -0.26861572265625 -1.1630859375
9973556250.0 -0.94677734375 -0.739837646484375
10004778125.0 -1.15045166015625 -0.01629638671875
10036000000.0 -0.9471435546875 0.617950439453125
10067221875.0 -0.4425048828125 1.10162353515625
10098443750.0 0.3729248046875 1.18487548828125
10129665625.0 1.0054931640625 0.64373779296875
10160887500.0 1.12347412109375 -0.05340576171875
10192109375.0 0.9190673828125 -0.666015625
10223331250.0 0.3607177734375 -1.1571044921875
10254553125.0 -0.48834228515625 -1.11669921875
10285775000.0 -0.9892578125 -0.536163330078125
10316996875.0 -1.07086181640625 0.07861328125
10348218750.0 -0.901885986328125 0.672760009765625
10379440625.0 -0.32275390625 1.17877197265625
10410662500.0 0.5313720703125 1.0892333984375
10441884375.0 0.994842529296875 0.522491455078125
10473106250.0 1.113525390625 -0.08428955078125
10504328125.0 0.95233154296875 -0.7611083984375
10535550000.0 0.2388916015625 -1.2998046875
10566771875.0 -0.66046142578125 -1.0799560546875
10597993750.0 -1.08526611328125 -0.45941162109375
10629215625.0 -1.17901611328125 0.20721435546875
10660437500.0 -0.89080810546875 0.957183837890625
10691659375.0 -0.00616455078125 1.34063720703125
10722881250.0 0.7891845703125 0.955078125
10754103125.0 1.1221923828125 0.32501220703125
10785325000.0 1.1439208984375 -0.36981201171875
10816546875.0 0.7020263671875 -1.05499267578125
10847768750.0 -0.1463623046875 -1.23223876953125
10878990625.0 -0.807586669921875 -0.845947265625
10910212500.0 -1.12615966796875 -0.245361328125
10941434375.0 -1.1014404296875 0.47894287109375
10972656250.0 -0.5687255859375 1.0906982421875
11003878125.0 0.220458984375 1.17913818359375
11035100000.0 0.85284423828125 0.8240966796875
11066321875.0 1.2255859375 0.1744384765625
11097543750.0 1.1011962890625 -0.67950439453125
11128765625.0 0.3858642578125 -1.2049560546875
11159987500.0 -0.39849853515625 -1.14288330078125
11191209375.0 -1.00372314453125 -0.70440673828125
11222431250.0 -1.27789306640625 0.09600830078125
11253653125.0 -0.861114501953125 0.8953857421875
11284875000.0 -0.1138916015625 1.12982177734375
11316096875.0 0.513702392578125 0.9595947265625
11347318750.0 1.00689697265625 0.50421142578125
11378540625.0 1.12030029296875 -0.27117919921875
11409762500.0 0.635955810546875 -0.8621826171875
11440984375.0 0.0369873046875 -0.980133056640625
11472206250.0 -0.48260498046875 -0.8526611328125
11503428125.0 -0.957977294921875 -0.456817626953125
11534650000.0 -1.0721435546875 0.29095458984375
11565871875.0 -0.602874755859375 0.858734130859375
11597093750.0 -0.017669677734375 0.9951171875
11628315625.0 0.548248291015625 0.877899169921875
11659537500.0 1.0643310546875 0.39324951171875
11690759375.0 1.0679931640625 -0.436279296875
11721981250.0 0.51849365234375 -0.9437255859375
11753203125.0 -0.107421875 -1.04022216796875
11784425000.0 -0.72894287109375 -0.81134033203125
11815646875.0 -1.10589599609375 -0.149169921875
11846868750.0 -0.893341064453125 0.55377197265625
11878090625.0 -0.39202880859375 0.91168212890625
11909312500.0 0.189971923828125 0.98876953125
11940534375.0 0.784423828125 0.6968994140625
11971756250.0 1.02911376953125 0.037109375
12002978125.0 0.80792236328125 -0.54156494140625
12034200000.0 0.382965087890625 -0.892578125
12065421875.0 -0.21759033203125 -1.0128173828125
12096643750.0 -0.851409912109375 -0.66650390625
12127865625.0 -1.0364990234375 0.01751708984375
12159087500.0 -0.8167724609375 0.5792236328125
12190309375.0 -0.378143310546875 0.978363037109375
12221531250.0 0.34423828125 1.09320068359375
12252753125.0 0.98553466796875 0.58135986328125
12283975000.0 1.05816650390625 -0.129638671875
12315196875.0 0.802825927734375 -0.680816650390625
12346418750.0 0.281494140625 -1.095703125
12377640625.0 -0.543212890625 -1.064208984375
12408862500.0 -1.03662109375 -0.4193115234375
12440084375.0 -1.009765625 0.22515869140625
12471306250.0 -0.744140625 0.739776611328125
12502528125.0 -0.17864990234375 1.12615966796875
12533750000.0 0.62335205078125 0.995880126953125
12564971875.0 1.04449462890625 0.36358642578125
12596193750.0 1.031982421875 -0.26641845703125
12627415625.0 0.749542236328125 -0.832366943359375
12658637500.0 0.07830810546875 -1.2120361328125
12689859375.0 -0.73956298828125 -0.96868896484375
12721081250.0 -1.12078857421875 -0.30572509765625
12752303125.0 -1.10211181640625 0.38311767578125
12783525000.0 -0.6884765625 1.03497314453125
12814746875.0 0.17059326171875 1.25665283203125
12845968750.0 0.865814208984375 0.812042236328125
12877190625.0 1.1236572265625 0.16925048828125
12908412500.0 1.05889892578125 -0.505859375
12939634375.0 0.5426025390625 -1.1236572265625
12970856250.0 -0.3253173828125 -1.17730712890625
13002078125.0 -0.89801025390625 -0.694610595703125
13033300000.0 -1.10955810546875 -0.08685302734375
13064521875.0 -1.0120849609375 0.5953369140625
13095743750.0 -0.41900634765625 1.15960693359375
13126965625.0 0.41357421875 1.124267578125
13158187500.0 0.950439453125 0.63311767578125
13189409375.0 1.15240478515625 -0.0220947265625
13220631250.0 0.938751220703125 -0.7550048828125
13251853125.0 0.232666015625 -1.17681884765625
13283075000.0 -0.5120849609375 -1.02252197265625
13314296875.0 -0.991363525390625 -0.529754638671875
13345518750.0 -1.139404296875 0.18096923828125
13376740625.0 -0.753143310546875 0.8641357421875
