!Created with skrf (http://scikit-rf.org).
# Hz S RI R 50.0 
!freq ReS11 ImS11
45000000.0 -0.07684326171875 -0.0970306396484375
76221875.0 -0.19716644287109375 -0.047454833984375
107443750.0 -0.2557830810546875 0.1201934814453125
138665625.0 -0.14837646484375 0.329498291015625
169887500.0 0.1238555908203125 0.41876220703125
201109375.0 0.4232330322265625 0.2820892333984375
232331250.0 0.580657958984375 -0.057891845703125
263553125.0 0.490631103515625 -0.454559326171875
294775000.0 0.09857177734375 -0.734954833984375
325996875.0 -0.4171142578125 -0.682952880859375
357218750.0 -0.809722900390625 -0.297760009765625
388440625.0 -0.88873291015625 0.30224609375
419662500.0 -0.518768310546875 0.86932373046875
450884375.0 0.1737060546875 1.03265380859375
482106250.0 0.801361083984375 0.71514892578125
513328125.0 1.1231689453125 0.08721923828125
544550000.0 1.00634765625 -0.6822509765625
575771875.0 0.33746337890625 -1.24176025390625
606993750.0 -0.55535888671875 -1.18084716796875
638215625.0 -1.16949462890625 -0.59222412109375
669437500.0 -1.34393310546875 0.23492431640625
700659375.0 -0.97332763671875 1.099853515625
731881250.0 -0.00384521484375 1.5477294921875
763103125.0 1.0089111328125 1.1595458984375
794325000.0 1.473388671875 0.28253173828125
825546875.0 1.37127685546875 -0.65374755859375
856768750.0 0.79608154296875 -1.4058837890625
887990625.0 -0.29425048828125 -1.65350341796875
919212500.0 -1.2935791015625 -1.0819091796875
950434375.0 -1.65496826171875 -0.057861328125
981656250.0 -1.38641357421875 0.950927734375
1012878125.0 -0.53045654296875 1.678466796875
1044100000.0 0.7010498046875 1.6680908203125
1075321875.0 1.581298828125 0.81414794921875
1106543750.0 1.71063232421875 -0.315185546875
1137765625.0 1.1904296875 -1.289794921875
1168987500.0 0.1376953125 -1.80413818359375
1200209375.0 -1.06732177734375 -1.48846435546875
1231431250.0 -1.73406982421875 -0.45343017578125
1262653125.0 -1.59906005859375 0.6876220703125
1293875000.0 -0.854248046875 1.49737548828125
1325096875.0 0.22967529296875 1.7132568359375
1356318750.0 1.24072265625 1.220947265625
1387540625.0 1.74615478515625 0.1883544921875
1418762500.0 1.4735107421875 -0.9559326171875
1449984375.0 0.5301513671875 -1.63153076171875
1481206250.0 -0.55291748046875 -1.56097412109375
1512428125.0 -1.347412109375 -0.92138671875
1543650000.0 -1.66070556640625 0.06689453125
1574871875.0 -1.27655029296875 1.113525390625
1606093750.0 -0.2723388671875 1.63690185546875
1637315625.0 0.74542236328125 1.4046630859375
1668537500.0 1.4012451171875 0.697021484375
1699759375.0 1.57781982421875 -0.27862548828125
1730981250.0 1.06683349609375 -1.23419189453125
1762203125.0 0.0411376953125 -1.57574462890625
1793425000.0 -0.8594970703125 -1.22955322265625
1824646875.0 -1.39849853515625 -0.51568603515625
1855868750.0 -1.47821044921875 0.4351806640625
1887090625.0 -0.87640380859375 1.29052734375
1918312500.0 0.119384765625 1.491455078125
1949534375.0 0.9251708984375 1.0914306640625
1980756250.0 1.37957763671875 0.37017822265625
2011978125.0 1.36297607421875 -0.533935546875
2043200000.0 0.7518310546875 -1.265869140625
2074421875.0 -0.15826416015625 -1.4378662109375
2105643750.0 -0.9642333984375 -1.07525634765625
2136865625.0 -1.452392578125 -0.3045654296875
2168087500.0 -1.3607177734375 0.6746826171875
2199309375.0 -0.6397705078125 1.3560791015625
2230531250.0 0.2845458984375 1.440673828125
2261753125.0 1.07763671875 1.01593017578125
2292975000.0 1.5194091796875 0.1688232421875
2324196875.0 1.308349609375 -0.82269287109375
2355418750.0 0.524658203125 -1.4249267578125
2386640625.0 -0.407470703125 -1.45208740234375
2417862500.0 -1.1861572265625 -1.0255126953125
2449084375.0 -1.609130859375 -0.082275390625
2480306250.0 -1.31378173828125 0.92901611328125
2511528125.0 -0.4940185546875 1.5128173828125
2542750000.0 0.49249267578125 1.5408935546875
2573971875.0 1.377197265625 0.9698486328125
2605193750.0 1.72296142578125 -0.1158447265625
2636415625.0 1.263671875 -1.15924072265625
2667637500.0 0.30560302734375 -1.67242431640625
2698859375.0 -0.7740478515625 -1.53778076171875
2730081250.0 -1.580078125 -0.74066162109375
2761303125.0 -1.6866455078125 0.3919677734375
2792525000.0 -1.10150146484375 1.31402587890625
2823746875.0 -0.09912109375 1.7362060546875
2854968750.0 1.01776123046875 1.459228515625
2886190625.0 1.69964599609375 0.4906005859375
2917412500.0 1.6046142578125 -0.62261962890625
2948634375.0 0.9404296875 -1.44036865234375
2979856250.0 -0.1116943359375 -1.78216552734375
3011078125.0 -1.25445556640625 -1.34478759765625
3042300000.0 -1.78253173828125 -0.2322998046875
3073521875.0 -1.51226806640625 0.843017578125
3104743750.0 -0.76312255859375 1.57415771484375
3135965625.0 0.364990234375 1.814697265625
3167187500.0 1.506103515625 1.165771484375
3198409375.0 1.822265625 -0.078857421875
3229631250.0 1.35247802734375 -1.086669921875
3260853125.0 0.48895263671875 -1.6746826171875
3292075000.0 -0.65948486328125 -1.70281982421875
3323296875.0 -1.62786865234375 -0.88043212890625
3354518750.0 -1.73583984375 0.3328857421875
3385740625.0 -1.1583251953125 1.23944091796875
3416962500.0 -0.2294921875 1.68798828125
3448184375.0 0.8668212890625 1.52630615234375
3479406250.0 1.6436767578125 0.6429443359375
3510628125.0 1.6490478515625 -0.5006103515625
3541850000.0 1.0008544921875 -1.361572265625
3573071875.0 -0.0107421875 -1.6873779296875
3604293750.0 -1.03289794921875 -1.3397216796875
3635515625.0 -1.63348388671875 -0.43701171875
3666737500.0 -1.5653076171875 0.64959716796875
3697959375.0 -0.82513427734375 1.48309326171875
3729181250.0 0.2723388671875 1.63531494140625
3760403125.0 1.1572265625 1.0997314453125
3791625000.0 1.5576171875 0.21728515625
3822846875.0 1.40594482421875 -0.7646484375
3854068750.0 0.6204833984375 -1.487548828125
3885290625.0 -0.42578125 -1.48626708984375
3916512500.0 -1.147216796875 -0.912353515625
3947734375.0 -1.452880859375 -0.1177978515625
3978956250.0 -1.30120849609375 0.78594970703125
4010178125.0 -0.52935791015625 1.46185302734375
4041400000.0 0.47900390625 1.41961669921875
4072621875.0 1.15631103515625 0.8472900390625
4103843750.0 1.4488525390625 0.060302734375
4135065625.0 1.270263671875 -0.8515625
4166287500.0 0.45526123046875 -1.50115966796875
4197509375.0 -0.56329345703125 -1.417724609375
4228731250.0 -1.25323486328125 -0.8017578125
4259953125.0 -1.51287841796875 0.07403564453125
4291175000.0 -1.18975830078125 1.0159912109375
4322396875.0 -0.2874755859375 1.5323486328125
4353618750.0 0.677001953125 1.35321044921875
4384840625.0 1.327392578125 0.69696044921875
4416062500.0 1.5052490234375 -0.23101806640625
4447284375.0 1.05615234375 -1.109375
4478506250.0 0.1697998046875 -1.5001220703125
4509728125.0 -0.73834228515625 -1.31005859375
4540950000.0 -1.40167236328125 -0.63385009765625
4572171875.0 -1.52655029296875 0.36572265625
4603393750.0 -0.9722900390625 1.2198486328125
4634615625.0 -0.057373046875 1.54144287109375
4665837500.0 0.87628173828125 1.30621337890625
4697059375.0 1.54815673828125 0.51226806640625
4728281250.0 1.531982421875 -0.588134765625
4759503125.0 0.82159423828125 -1.37310791015625
4790725000.0 -0.1494140625 -1.57672119140625
4821946875.0 -1.08978271484375 -1.19500732421875
4853168750.0 -1.61932373046875 -0.24810791015625
4884390625.0 -1.3804931640625 0.79888916015625
4915612500.0 -0.61224365234375 1.41815185546875
4946834375.0 0.3328857421875 1.513671875
4978056250.0 1.211181640625 1.01812744140625
5009278125.0 1.5667724609375 0.035888671875
5040500000.0 1.2313232421875 -0.883056640625
5071721875.0 0.4993896484375 -1.42071533203125
5102943750.0 -0.451904296875 -1.50067138671875
5134165625.0 -1.343505859375 -0.904541015625
5165387500.0 -1.57305908203125 0.15264892578125
5196609375.0 -1.1363525390625 1.0162353515625
5227831250.0 -0.3538818359375 1.5118408203125
5259053125.0 0.69561767578125 1.49578857421875
5290275000.0 1.529296875 0.65948486328125
5321496875.0 1.4947509765625 -0.43609619140625
5352718750.0 0.92041015625 -1.15838623046875
5383940625.0 0.0926513671875 -1.5054931640625
5415162500.0 -0.9073486328125 -1.28564453125
5446384375.0 -1.4908447265625 -0.36761474609375
5477606250.0 -1.30224609375 0.57232666015625
5508828125.0 -0.73114013671875 1.15789794921875
5540050000.0 0.0574951171875 1.40380859375
5571271875.0 0.94647216796875 1.11065673828125
5602493750.0 1.41424560546875 0.2572021484375
5633715625.0 1.23492431640625 -0.61895751953125
5664937500.0 0.64654541015625 -1.2081298828125
5696159375.0 -0.2027587890625 -1.38812255859375
5727381250.0 -1.02838134765625 -0.97808837890625
5758603125.0 -1.39666748046875 -0.1407470703125
5789825000.0 -1.19549560546875 0.72381591796875
5821046875.0 -0.50311279296875 1.31365966796875
5852268750.0 0.41668701171875 1.31488037109375
5883490625.0 1.0772705078125 0.77105712890625
5914712500.0 1.30645751953125 0.01690673828125
5945934375.0 1.09765625 -0.78082275390625
5977156250.0 0.35809326171875 -1.318359375
6008378125.0 -0.515625 -1.1845703125
6039600000.0 -1.02618408203125 -0.64825439453125
6070821875.0 -1.228759765625 -0.00048828125
6102043750.0 -1.085205078125 0.769775390625
6133265625.0 -0.3380126953125 1.351318359375
6164487500.0 0.57012939453125 1.18927001953125
6195709375.0 1.075927734375 0.62811279296875
6226931250.0 1.28411865234375 -0.0469970703125
6258153125.0 1.10546875 -0.8802490234375
6289375000.0 0.25067138671875 -1.4521484375
6320596875.0 -0.6954345703125 -1.20562744140625
6351818750.0 -1.20513916015625 -0.5687255859375
6383040625.0 -1.35748291015625 0.21240234375
6414262500.0 -0.99847412109375 1.063232421875
6445484375.0 -0.07318115234375 1.46099853515625
6476706250.0 0.80126953125 1.14788818359375
6507928125.0 1.29498291015625 0.46746826171875
6539150000.0 1.3502197265625 -0.39190673828125
6570371875.0 0.8399658203125 -1.150146484375
6601593750.0 -0.02203369140625 -1.40985107421875
6632815625.0 -0.84442138671875 -1.1373291015625
6664037500.0 -1.4075927734375 -0.41680908203125
6695259375.0 -1.3763427734375 0.57305908203125
6726481250.0 -0.7078857421875 1.25848388671875
6757703125.0 0.13629150390625 1.41162109375
6788925000.0 0.962646484375 1.131103515625
6820146875.0 1.56707763671875 0.281982421875
6851368750.0 1.32598876953125 -0.8270263671875
6882590625.0 0.50244140625 -1.3441162109375
6913812500.0 -0.29736328125 -1.35906982421875
6945034375.0 -1.07647705078125 -1.02117919921875
6976256250.0 -1.59735107421875 -0.08709716796875
7007478125.0 -1.237060546875 0.9407958984375
7038700000.0 -0.3978271484375 1.34881591796875
7069921875.0 0.36419677734375 1.3272705078125
7101143750.0 1.1248779296875 0.96875
7132365625.0 1.60675048828125 0.010009765625
7163587500.0 1.1573486328125 -1.02447509765625
7194809375.0 0.29803466796875 -1.404052734375
7226031250.0 -0.51727294921875 -1.3287353515625
7257253125.0 -1.2757568359375 -0.8226318359375
7288475000.0 -1.56365966796875 0.20733642578125
7319696875.0 -1.02880859375 1.1175537109375
7350918750.0 -0.15948486328125 1.4503173828125
7382140625.0 0.7247314453125 1.27874755859375
7413362500.0 1.3831787109375 0.57196044921875
7444584375.0 1.413818359375 -0.41412353515625
7475806250.0 0.85614013671875 -1.14849853515625
7507028125.0 0.00030517578125 -1.434814453125
7538250000.0 -0.89501953125 -1.124267578125
7569471875.0 -1.3424072265625 -0.30621337890625
7600693750.0 -1.20440673828125 0.5035400390625
7631915625.0 -0.7169189453125 1.09149169921875
7663137500.0 0.08721923828125 1.36529541015625
7694359375.0 0.948333740234375 0.98162841796875
7725581250.0 1.249755859375 0.176513671875
7756803125.0 1.0855712890625 -0.50555419921875
7788025000.0 0.66900634765625 -1.05206298828125
7819246875.0 -0.12762451171875 -1.35357666015625
7850468750.0 -1.00274658203125 -0.9151611328125
7881690625.0 -1.2369384765625 -0.09954833984375
7912912500.0 -1.05657958984375 0.56024169921875
7944134375.0 -0.601806640625 1.12213134765625
7975356250.0 0.27984619140625 1.3392333984375
8006578125.0 1.0531005859375 0.77606201171875
8037800000.0 1.19696044921875 0.0118408203125
8069021875.0 1.00750732421875 -0.62261962890625
8100243750.0 0.49560546875 -1.1683349609375
8131465625.0 -0.394287109375 -1.25665283203125
8162687500.0 -1.03680419921875 -0.6851806640625
8193909375.0 -1.18402099609375 0.01312255859375
8225131250.0 -1.01904296875 0.68292236328125
8256353125.0 -0.41717529296875 1.25732421875
8287575000.0 0.50787353515625 1.2281494140625
8318796875.0 1.08978271484375 0.63262939453125
8350018750.0 1.25067138671875 -0.08135986328125
8381240625.0 1.03167724609375 -0.849365234375
8412462500.0 0.2470703125 -1.38104248046875
8443684375.0 -0.6790771484375 -1.170654296875
8474906250.0 -1.18194580078125 -0.5277099609375
8506128125.0 -1.30108642578125 0.2427978515625
8537350000.0 -0.92242431640625 1.05535888671875
8568571875.0 -0.01007080078125 1.39837646484375
8599793750.0 0.81011962890625 1.05322265625
8631015625.0 1.245849609375 0.39459228515625
8662237500.0 1.28857421875 -0.4359130859375
8693459375.0 0.73406982421875 -1.18408203125
8724681250.0 -0.1673583984375 -1.336669921875
8755903125.0 -0.884979248046875 -0.9583740234375
8787125000.0 -1.31201171875 -0.277587890625
8818346875.0 -1.25482177734375 0.62451171875
8849568750.0 -0.55316162109375 1.26763916015625
8880790625.0 0.30535888671875 1.28955078125
8912012500.0 0.992706298828125 0.89178466796875
8943234375.0 1.4053955078125 0.123046875
8974456250.0 1.1661376953125 -0.8492431640625
9005678125.0 0.34307861328125 -1.3175048828125
9036900000.0 -0.45379638671875 -1.22650146484375
9068121875.0 -1.1092529296875 -0.78289794921875
9099343750.0 -1.4456787109375 0.10650634765625
9130565625.0 -0.97711181640625 1.02008056640625
9161787500.0 -0.14837646484375 1.28643798828125
9193009375.0 0.5599365234375 1.1346435546875
9224231250.0 1.185302734375 0.6534423828125
9255453125.0 1.40374755859375 -0.30419921875
9286675000.0 0.804931640625 -1.0921630859375
9317896875.0 0.02227783203125 -1.25146484375
9349118750.0 -0.6614990234375 -1.07232666015625
9380340625.0 -1.2655029296875 -0.50775146484375
9411562500.0 -1.31597900390625 0.488525390625
9442784375.0 -0.64593505859375 1.12603759765625
9474006250.0 0.09490966796875 1.21551513671875
9505228125.0 0.772369384765625 0.981292724609375
9536450000.0 1.281982421875 0.3074951171875
9567671875.0 1.144287109375 -0.58868408203125
9598893750.0 0.52655029296875 -1.0732421875
9630115625.0 -0.151123046875 -1.16131591796875
9661337500.0 -0.826507568359375 -0.900604248046875
9692559375.0 -1.24554443359375 -0.18341064453125
9723781250.0 -1.0428466796875 0.61077880859375
9755003125.0 -0.48358154296875 1.0556640625
9786225000.0 0.2049560546875 1.16400146484375
9817446875.0 0.9013671875 0.826751708984375
9848668750.0 1.20269775390625 0.07281494140625
9879890625.0 0.96905517578125 -0.624114990234375
9911112500.0 0.4488525390625 -1.05853271484375
9942334375.0 -0.27349853515625 -1.16217041015625
9973556250.0 -0.951080322265625 -0.73541259765625
10004778125.0 -1.1522216796875 -0.00958251953125
10036000000.0 -0.94439697265625 0.624237060546875
10067221875.0 -0.4376220703125 1.104248046875
10098443750.0 0.3800048828125 1.18414306640625
10129665625.0 1.0101318359375 0.63861083984375
10160887500.0 1.12255859375 -0.05902099609375
10192109375.0 0.91619873046875 -0.670166015625
10223331250.0 0.35589599609375 -1.15826416015625
10254553125.0 -0.4927978515625 -1.11328125
10285775000.0 -0.990509033203125 -0.531341552734375
10316996875.0 -1.070068359375 0.08087158203125
10348218750.0 -0.9002685546875 0.675048828125
10379440625.0 -0.31768798828125 1.18182373046875
10410662500.0 0.5357666015625 1.08837890625
10441884375.0 0.998931884765625 0.517913818359375
10473106250.0 1.11407470703125 -0.09027099609375
10504328125.0 0.949676513671875 -0.7646484375
10535550000.0 0.23260498046875 -1.30120849609375
10566771875.0 -0.66510009765625 -1.07672119140625
10597993750.0 -1.08642578125 -0.4544677734375
10629215625.0 -1.179931640625 0.212646484375
10660437500.0 -0.886383056640625 0.9625244140625
10691659375.0 0.00030517578125 1.34002685546875
10722881250.0 0.790802001953125 0.949920654296875
10754103125.0 1.12396240234375 0.32080078125
10785325000.0 1.141357421875 -0.373291015625
10816546875.0 0.69775390625 -1.0560302734375
10847768750.0 -0.1544189453125 -1.2327880859375
10878990625.0 -0.81109619140625 -0.841949462890625
10910212500.0 -1.12713623046875 -0.24114990234375
10941434375.0 -1.099365234375 0.48321533203125
10972656250.0 -0.5650634765625 1.09173583984375
11003878125.0 0.22503662109375 1.17755126953125
11035100000.0 0.8580322265625 0.820709228515625
11066321875.0 1.22674560546875 0.16845703125
11097543750.0 1.09906005859375 -0.6845703125
11128765625.0 0.37945556640625 -1.20770263671875
11159987500.0 -0.4046630859375 -1.141845703125
11191209375.0 -1.00909423828125 -0.6990966796875
11222431250.0 -1.2755126953125 0.10107421875
11253653125.0 -0.855712890625 0.902191162109375
11284875000.0 -0.1090087890625 1.1302490234375
11316096875.0 0.5167236328125 0.956695556640625
11347318750.0 1.01031494140625 0.49932861328125
11378540625.0 1.1202392578125 -0.27691650390625
11409762500.0 0.631317138671875 -0.866729736328125
11440984375.0 0.03155517578125 -0.980712890625
11472206250.0 -0.486358642578125 -0.851165771484375
11503428125.0 -0.95904541015625 -0.45355224609375
11534650000.0 -1.07037353515625 0.29498291015625
11565871875.0 -0.599609375 0.860321044921875
11597093750.0 -0.012786865234375 0.996673583984375
11628315625.0 0.55096435546875 0.87677001953125
11659537500.0 1.06854248046875 0.38671875
11690759375.0 1.066650390625 -0.44281005859375
11721981250.0 0.513519287109375 -0.94622802734375
11753203125.0 -0.1123046875 -1.0391845703125
11784425000.0 -0.732177734375 -0.808746337890625
11815646875.0 -1.10638427734375 -0.1435546875
11846868750.0 -0.889984130859375 0.55828857421875
11878090625.0 -0.387725830078125 0.91436767578125
11909312500.0 0.192901611328125 0.988006591796875
11940534375.0 0.788299560546875 0.693359375
11971756250.0 1.028564453125 0.03369140625
12002978125.0 0.806121826171875 -0.543914794921875
12034200000.0 0.37823486328125 -0.89453125
12065421875.0 -0.22369384765625 -1.01422119140625
12096643750.0 -0.855804443359375 -0.66168212890625
12127865625.0 -1.03717041015625 0.02362060546875
12159087500.0 -0.81439208984375 0.5823974609375
12190309375.0 -0.373046875 0.982574462890625
12221531250.0 0.3489990234375 1.09149169921875
12252753125.0 0.989959716796875 0.575927734375
12283975000.0 1.05615234375 -0.13482666015625
12315196875.0 0.799072265625 -0.684906005859375
12346418750.0 0.27520751953125 -1.099609375
12377640625.0 -0.5467529296875 -1.06060791015625
12408862500.0 -1.0391845703125 -0.41448974609375
12440084375.0 -1.0091552734375 0.2303466796875
12471306250.0 -0.741180419921875 0.743560791015625
12502528125.0 -0.17376708984375 1.1256103515625
12533750000.0 0.629150390625 0.994659423828125
12564971875.0 1.04632568359375 0.35919189453125
12596193750.0 1.031982421875 -0.27130126953125
12627415625.0 0.74713134765625 -0.836395263671875
12658637500.0 0.07147216796875 -1.2138671875
12689859375.0 -0.745330810546875 -0.96551513671875
12721081250.0 -1.123779296875 -0.29937744140625
12752303125.0 -1.099853515625 0.390869140625
12783525000.0 -0.68365478515625 1.03790283203125
12814746875.0 0.17376708984375 1.25457763671875
12845968750.0 0.873138427734375 0.807525634765625
12877190625.0 1.12237548828125 0.16461181640625
12908412500.0 1.05706787109375 -0.5118408203125
12939634375.0 0.536865234375 -1.12542724609375
12970856250.0 -0.3310546875 -1.1768798828125
13002078125.0 -0.901885986328125 -0.690277099609375
13033300000.0 -1.1103515625 -0.08013916015625
13064521875.0 -1.0098876953125 0.60223388671875
13095743750.0 -0.413330078125 1.16400146484375
13126965625.0 0.4183349609375 1.122314453125
13158187500.0 0.95379638671875 0.62890625
13189409375.0 1.15179443359375 -0.02801513671875
13220631250.0 0.935882568359375 -0.75921630859375
13251853125.0 0.2265625 -1.18011474609375
13283075000.0 -0.51824951171875 -1.02032470703125
13314296875.0 -0.99609375 -0.52410888671875
13345518750.0 -1.13946533203125 0.1861572265625
13376740625.0 -0.748321533203125 0.86761474609375
