!Created with skrf (http://scikit-rf.org).
# Hz S RI R 50.0 
!freq ReS11 ImS11
45000000.0 -0.07689666748046875 -0.09681320190429688
76221875.0 -0.196258544921875 -0.04754638671875
107443750.0 -0.2546844482421875 0.11956787109375
138665625.0 -0.147857666015625 0.328216552734375
169887500.0 0.123382568359375 0.4171600341796875
201109375.0 0.4214935302734375 0.28057861328125
232331250.0 0.5784912109375 -0.057525634765625
263553125.0 0.489105224609375 -0.4521636962890625
294775000.0 0.098388671875 -0.731719970703125
325996875.0 -0.41497802734375 -0.67974853515625
357218750.0 -0.805389404296875 -0.29669189453125
388440625.0 -0.884613037109375 0.300140380859375
419662500.0 -0.5166015625 0.865325927734375
450884375.0 0.17279052734375 1.0279541015625
482106250.0 0.797607421875 0.7117919921875
513328125.0 1.1182861328125 0.08746337890625
544550000.0 1.00274658203125 -0.67919921875
575771875.0 0.33612060546875 -1.23675537109375
606993750.0 -0.55316162109375 -1.1761474609375
638215625.0 -1.1644287109375 -0.58978271484375
669437500.0 -1.3382568359375 0.23345947265625
700659375.0 -0.96978759765625 1.0950927734375
731881250.0 -0.0035400390625 1.54119873046875
763103125.0 1.00457763671875 1.1544189453125
794325000.0 1.467041015625 0.28125
825546875.0 1.36578369140625 -0.65045166015625
856768750.0 0.7935791015625 -1.3980712890625
887990625.0 -0.2919921875 -1.6458740234375
919212500.0 -1.2860107421875 -1.077392578125
950434375.0 -1.646240234375 -0.059326171875
981656250.0 -1.38018798828125 0.9439697265625
1012878125.0 -0.52911376953125 1.6690673828125
1044100000.0 0.6953125 1.65924072265625
1075321875.0 1.5718994140625 0.81085205078125
1106543750.0 1.7020263671875 -0.3118896484375
1137765625.0 1.18511962890625 -1.28118896484375
1168987500.0 0.13824462890625 -1.7939453125
1200209375.0 -1.05975341796875 -1.48114013671875
1231431250.0 -1.7244873046875 -0.453125
1262653125.0 -1.59173583984375 0.68304443359375
1293875000.0 -0.85052490234375 1.48931884765625
1325096875.0 0.22760009765625 1.703857421875
1356318750.0 1.2327880859375 1.21502685546875
1387540625.0 1.73687744140625 0.18902587890625
1418762500.0 1.46697998046875 -0.9498291015625
1449984375.0 0.529052734375 -1.62274169921875
1481206250.0 -0.5487060546875 -1.55364990234375
1512428125.0 -1.33929443359375 -0.91827392578125
1543650000.0 -1.65277099609375 0.06494140625
1574871875.0 -1.27154541015625 1.1072998046875
1606093750.0 -0.27276611328125 1.62835693359375
1637315625.0 0.74078369140625 1.3983154296875
1668537500.0 1.39404296875 0.69525146484375
1699759375.0 1.5706787109375 -0.276611328125
1730981250.0 1.06268310546875 -1.2274169921875
1762203125.0 0.0423583984375 -1.56768798828125
1793425000.0 -0.85418701171875 -1.2247314453125
1824646875.0 -1.3909912109375 -0.51483154296875
1855868750.0 -1.47137451171875 0.431396484375
1887090625.0 -0.87353515625 1.28314208984375
1918312500.0 0.11688232421875 1.48431396484375
1949534375.0 0.91998291015625 1.0875244140625
1980756250.0 1.373046875 0.3697509765625
2011978125.0 1.35736083984375 -0.53045654296875
2043200000.0 0.74920654296875 -1.25921630859375
2074421875.0 -0.15631103515625 -1.43115234375
2105643750.0 -0.95843505859375 -1.0709228515625
2136865625.0 -1.4454345703125 -0.30438232421875
2168087500.0 -1.355224609375 0.66998291015625
2199309375.0 -0.6383056640625 1.34912109375
2230531250.0 0.28143310546875 1.43389892578125
2261753125.0 1.0709228515625 1.01251220703125
2292975000.0 1.5123291015625 0.16998291015625
2324196875.0 1.30364990234375 -0.817138671875
2355418750.0 0.52459716796875 -1.4173583984375
2386640625.0 -0.403564453125 -1.44647216796875
2417862500.0 -1.1781005859375 -1.02301025390625
2449084375.0 -1.60076904296875 -0.08477783203125
2480306250.0 -1.30950927734375 0.92413330078125
2511528125.0 -0.49334716796875 1.50439453125
2542750000.0 0.48760986328125 1.5335693359375
2573971875.0 1.368408203125 0.9664306640625
2605193750.0 1.71417236328125 -0.1119384765625
2636415625.0 1.25958251953125 -1.15057373046875
2667637500.0 0.306884765625 -1.66400146484375
2698859375.0 -0.76934814453125 -1.53204345703125
2730081250.0 -1.57049560546875 -0.739501953125
2761303125.0 -1.6787109375 0.3878173828125
2792525000.0 -1.09735107421875 1.3037109375
2823746875.0 -0.10284423828125 1.7259521484375
2854968750.0 1.009521484375 1.45257568359375
2886190625.0 1.68792724609375 0.4910888671875
2917412500.0 1.59661865234375 -0.6151123046875
2948634375.0 0.937744140625 -1.4295654296875
2979856250.0 -0.10772705078125 -1.77197265625
3011078125.0 -1.24407958984375 -1.33966064453125
3042300000.0 -1.7708740234375 -0.2357177734375
3073521875.0 -1.5054931640625 0.8355712890625
3104743750.0 -0.76239013671875 1.56414794921875
3135965625.0 0.35906982421875 1.80426025390625
3167187500.0 1.4957275390625 1.16192626953125
3198409375.0 1.8114013671875 -0.07366943359375
3229631250.0 1.3466796875 -1.0787353515625
3260853125.0 0.4884033203125 -1.66522216796875
3292075000.0 -0.65264892578125 -1.6943359375
3323296875.0 -1.616455078125 -0.87823486328125
3354518750.0 -1.72637939453125 0.32781982421875
3385740625.0 -1.15374755859375 1.22906494140625
3416962500.0 -0.231689453125 1.67742919921875
3448184375.0 0.85906982421875 1.51898193359375
3479406250.0 1.63165283203125 0.64349365234375
3510628125.0 1.640380859375 -0.493408203125
3541850000.0 0.9986572265625 -1.35211181640625
3573071875.0 -0.00726318359375 -1.679443359375
3604293750.0 -1.0240478515625 -1.3348388671875
3635515625.0 -1.62481689453125 -0.437744140625
3666737500.0 -1.55877685546875 0.64459228515625
3697959375.0 -0.8236083984375 1.47314453125
3729181250.0 0.267333984375 1.62738037109375
3760403125.0 1.14947509765625 1.09625244140625
3791625000.0 1.54925537109375 0.21844482421875
3822846875.0 1.3984375 -0.75927734375
3854068750.0 0.6195068359375 -1.47808837890625
3885290625.0 -0.4197998046875 -1.47796630859375
3916512500.0 -1.139404296875 -0.909423828125
3947734375.0 -1.44390869140625 -0.12109375
3978956250.0 -1.29486083984375 0.77679443359375
4010178125.0 -0.5306396484375 1.4510498046875
4041400000.0 0.471435546875 1.41259765625
4072621875.0 1.1488037109375 0.84649658203125
4103843750.0 1.441650390625 0.064208984375
4135065625.0 1.2657470703125 -0.8441162109375
4166287500.0 0.45770263671875 -1.49200439453125
4197509375.0 -0.55584716796875 -1.41241455078125
4228731250.0 -1.2451171875 -0.80169677734375
4259953125.0 -1.50634765625 0.06988525390625
4291175000.0 -1.186767578125 1.0076904296875
4322396875.0 -0.2894287109375 1.523193359375
4353618750.0 0.670654296875 1.34716796875
4384840625.0 1.31939697265625 0.69647216796875
4416062500.0 1.49853515625 -0.22607421875
4447284375.0 1.05322265625 -1.101318359375
4478506250.0 0.1727294921875 -1.49212646484375
4509728125.0 -0.72979736328125 -1.3050537109375
4540950000.0 -1.39178466796875 -0.63525390625
4572171875.0 -1.52056884765625 0.3585205078125
4603393750.0 -0.97125244140625 1.2095947265625
4634615625.0 -0.06158447265625 1.53387451171875
4665837500.0 0.86834716796875 1.30242919921875
4697059375.0 1.5396728515625 0.51397705078125
4728281250.0 1.52630615234375 -0.58001708984375
4759503125.0 0.82232666015625 -1.36395263671875
4790725000.0 -0.14398193359375 -1.5693359375
4821946875.0 -1.08258056640625 -1.19195556640625
4853168750.0 -1.60986328125 -0.25152587890625
4884390625.0 -1.37591552734375 0.79083251953125
4915612500.0 -0.61297607421875 1.4095458984375
4946834375.0 0.3275146484375 1.50701904296875
4978056250.0 1.202880859375 1.01568603515625
5009278125.0 1.55908203125 0.0408935546875
5040500000.0 1.22747802734375 -0.87310791015625
5071721875.0 0.50146484375 -1.411865234375
5102943750.0 -0.4444580078125 -1.49365234375
5134165625.0 -1.3345947265625 -0.904541015625
5165387500.0 -1.564453125 0.14447021484375
5196609375.0 -1.13421630859375 1.00726318359375
5227831250.0 -0.35797119140625 1.501708984375
5259053125.0 0.6856689453125 1.4898681640625
5290275000.0 1.5184326171875 0.66265869140625
5321496875.0 1.48956298828125 -0.42889404296875
5352718750.0 0.9197998046875 -1.15155029296875
5383940625.0 0.09698486328125 -1.49688720703125
5415162500.0 -0.897216796875 -1.2811279296875
5446384375.0 -1.4810791015625 -0.3704833984375
5477606250.0 -1.29730224609375 0.5643310546875
5508828125.0 -0.73040771484375 1.14935302734375
5540050000.0 0.0528564453125 1.396240234375
5571271875.0 0.93524169921875 1.107666015625
5602493750.0 1.40478515625 0.2611083984375
5633715625.0 1.23052978515625 -0.6112060546875
5664937500.0 0.64727783203125 -1.1986083984375
5696159375.0 -0.19683837890625 -1.38238525390625
5727381250.0 -1.0194091796875 -0.97747802734375
5758603125.0 -1.3883056640625 -0.1461181640625
5789825000.0 -1.19219970703125 0.71600341796875
5821046875.0 -0.5062255859375 1.3046875
5852268750.0 0.41015625 1.31072998046875
5883490625.0 1.06951904296875 0.77117919921875
5914712500.0 1.29931640625 0.02166748046875
5945934375.0 1.09527587890625 -0.77447509765625
5977156250.0 0.36126708984375 -1.30999755859375
6008378125.0 -0.50860595703125 -1.18084716796875
6039600000.0 -1.01922607421875 -0.648681640625
6070821875.0 -1.22271728515625 -0.00445556640625
6102043750.0 -1.0821533203125 0.7615966796875
6133265625.0 -0.3428955078125 1.3416748046875
6164487500.0 0.5618896484375 1.186279296875
6195709375.0 1.06842041015625 0.6298828125
6226931250.0 1.27716064453125 -0.04168701171875
6258153125.0 1.1033935546875 -0.86993408203125
6289375000.0 0.25714111328125 -1.44305419921875
6320596875.0 -0.687744140625 -1.2044677734375
6351818750.0 -1.19805908203125 -0.57159423828125
6383040625.0 -1.35260009765625 0.20550537109375
6414262500.0 -0.9986572265625 1.05426025390625
6445484375.0 -0.07928466796875 1.4549560546875
6476706250.0 0.79443359375 1.14691162109375
6507928125.0 1.288330078125 0.46978759765625
6539150000.0 1.34564208984375 -0.38525390625
6570371875.0 0.84051513671875 -1.14166259765625
6601593750.0 -0.01690673828125 -1.4029541015625
6632815625.0 -0.8382568359375 -1.1348876953125
6664037500.0 -1.3984375 -0.42059326171875
6695259375.0 -1.3717041015625 0.56414794921875
6726481250.0 -0.70977783203125 1.24951171875
6757703125.0 0.12957763671875 1.4044189453125
6788925000.0 0.9525146484375 1.12933349609375
6820146875.0 1.55828857421875 0.28778076171875
6851368750.0 1.32421875 -0.8172607421875
6882590625.0 0.50555419921875 -1.33642578125
6913812500.0 -0.29168701171875 -1.35418701171875
6945034375.0 -1.0672607421875 -1.02056884765625
6976256250.0 -1.59014892578125 -0.09375
7007478125.0 -1.234375 0.93157958984375
7038700000.0 -0.40252685546875 1.3387451171875
7069921875.0 0.35552978515625 1.32073974609375
7101143750.0 1.1151123046875 0.96710205078125
7132365625.0 1.5963134765625 0.01654052734375
7163587500.0 1.15618896484375 -1.01934814453125
7194809375.0 0.30194091796875 -1.396484375
7226031250.0 -0.5103759765625 -1.32391357421875
7257253125.0 -1.2637939453125 -0.8231201171875
7288475000.0 -1.55474853515625 0.19598388671875
7319696875.0 -1.028564453125 1.109130859375
7350918750.0 -0.16546630859375 1.4403076171875
7382140625.0 0.714111328125 1.27423095703125
7413362500.0 1.3741455078125 0.5755615234375
7444584375.0 1.41119384765625 -0.40643310546875
7475806250.0 0.85723876953125 -1.14007568359375
7507028125.0 0.0067138671875 -1.42718505859375
7538250000.0 -0.88555908203125 -1.1226806640625
7569471875.0 -1.33392333984375 -0.310791015625
7600693750.0 -1.20159912109375 0.49615478515625
7631915625.0 -0.717041015625 1.0841064453125
7663137500.0 0.0784912109375 1.3553466796875
7694359375.0 0.939239501953125 0.97955322265625
7725581250.0 1.24163818359375 0.1812744140625
7756803125.0 1.0802001953125 -0.4979248046875
7788025000.0 0.67034912109375 -1.038818359375
7819246875.0 -0.119873046875 -1.345947265625
7850468750.0 -0.99053955078125 -0.916259765625
7881690625.0 -1.228515625 -0.107421875
7912912500.0 -1.05316162109375 0.55303955078125
7944134375.0 -0.60516357421875 1.111328125
7975356250.0 0.27020263671875 1.3336181640625
8006578125.0 1.04345703125 0.77850341796875
8037800000.0 1.19195556640625 0.01739501953125
8069021875.0 1.005859375 -0.616455078125
8100243750.0 0.5 -1.15966796875
8131465625.0 -0.38519287109375 -1.25115966796875
8162687500.0 -1.0286865234375 -0.68658447265625
8193909375.0 -1.18048095703125 0.00848388671875
8225131250.0 -1.01629638671875 0.6761474609375
8256353125.0 -0.4217529296875 1.246826171875
8287575000.0 0.49951171875 1.22515869140625
8318796875.0 1.0791015625 0.63592529296875
8350018750.0 1.241455078125 -0.07379150390625
8381240625.0 1.0302734375 -0.8389892578125
8412462500.0 0.25469970703125 -1.3714599609375
8443684375.0 -0.66741943359375 -1.16851806640625
8474906250.0 -1.17303466796875 -0.53302001953125
8506128125.0 -1.2957763671875 0.2347412109375
8537350000.0 -0.92333984375 1.04400634765625
8568571875.0 -0.0164794921875 1.393798828125
8599793750.0 0.80078125 1.05242919921875
8631015625.0 1.23980712890625 0.39825439453125
8662237500.0 1.28497314453125 -0.42822265625
8693459375.0 0.7359619140625 -1.17388916015625
8724681250.0 -0.1610107421875 -1.32940673828125
8755903125.0 -0.87701416015625 -0.956695556640625
8787125000.0 -1.30047607421875 -0.2838134765625
8818346875.0 -1.24847412109375 0.61236572265625
8849568750.0 -0.55670166015625 1.258544921875
8880790625.0 0.29736328125 1.2843017578125
8912012500.0 0.97967529296875 0.891143798828125
8943234375.0 1.39642333984375 0.13037109375
8974456250.0 1.16668701171875 -0.8388671875
9005678125.0 0.34930419921875 -1.3121337890625
9036900000.0 -0.44317626953125 -1.22296142578125
9068121875.0 -1.1004638671875 -0.7855224609375
9099343750.0 -1.43804931640625 0.0965576171875
9130565625.0 -0.97796630859375 1.008544921875
9161787500.0 -0.15521240234375 1.280029296875
9193009375.0 0.5511474609375 1.13238525390625
9224231250.0 1.1788330078125 0.65533447265625
9255453125.0 1.39776611328125 -0.29437255859375
9286675000.0 0.80712890625 -1.083740234375
9317896875.0 0.026611328125 -1.245361328125
9349118750.0 -0.6522216796875 -1.06878662109375
9380340625.0 -1.25653076171875 -0.5098876953125
9411562500.0 -1.3099365234375 0.47528076171875
9442784375.0 -0.647705078125 1.11602783203125
9474006250.0 0.0875244140625 1.2095947265625
9505228125.0 0.763336181640625 0.978485107421875
9536450000.0 1.27117919921875 0.31402587890625
9567671875.0 1.14215087890625 -0.57781982421875
9598893750.0 0.52984619140625 -1.06719970703125
9630115625.0 -0.14239501953125 -1.1572265625
9661337500.0 -0.81634521484375 -0.901824951171875
9692559375.0 -1.2379150390625 -0.1905517578125
9723781250.0 -1.04193115234375 0.60137939453125
9755003125.0 -0.48577880859375 1.0491943359375
9786225000.0 0.197509765625 1.157470703125
9817446875.0 0.892425537109375 0.826324462890625
9848668750.0 1.19610595703125 0.07958984375
9879890625.0 0.96820068359375 -0.615478515625
9911112500.0 0.45220947265625 -1.05120849609375
9942334375.0 -0.26776123046875 -1.15838623046875
9973556250.0 -0.941497802734375 -0.73779296875
10004778125.0 -1.14483642578125 -0.01824951171875
10036000000.0 -0.942535400390625 0.61468505859375
10067221875.0 -0.44281005859375 1.09521484375
10098443750.0 0.36956787109375 1.1806640625
10129665625.0 1.00189208984375 0.64312744140625
10160887500.0 1.118896484375 -0.05096435546875
10192109375.0 0.91668701171875 -0.6605224609375
10223331250.0 0.36138916015625 -1.15155029296875
10254553125.0 -0.4849853515625 -1.11248779296875
10285775000.0 -0.98419189453125 -0.53564453125
10316996875.0 -1.06634521484375 0.0762939453125
10348218750.0 -0.899749755859375 0.669891357421875
10379440625.0 -0.322265625 1.1739501953125
10410662500.0 0.52691650390625 1.08489990234375
10441884375.0 0.990966796875 0.52191162109375
10473106250.0 1.10791015625 -0.0831298828125
10504328125.0 0.948760986328125 -0.757080078125
10535550000.0 0.23992919921875 -1.29376220703125
10566771875.0 -0.6575927734375 -1.07672119140625
10597993750.0 -1.079833984375 -0.4591064453125
10629215625.0 -1.17425537109375 0.2049560546875
10660437500.0 -0.88702392578125 0.950653076171875
10691659375.0 -0.01116943359375 1.33209228515625
10722881250.0 0.782806396484375 0.95245361328125
10754103125.0 1.1185302734375 0.32470703125
10785325000.0 1.138427734375 -0.365966796875
10816546875.0 0.70074462890625 -1.0479736328125
10847768750.0 -0.14300537109375 -1.2274169921875
10878990625.0 -0.801361083984375 -0.843597412109375
10910212500.0 -1.12054443359375 -0.2459716796875
10941434375.0 -1.097412109375 0.47454833984375
10972656250.0 -0.56884765625 1.08355712890625
11003878125.0 0.21722412109375 1.17254638671875
11035100000.0 0.846649169921875 0.821624755859375
11066321875.0 1.2193603515625 0.17486572265625
11097543750.0 1.09698486328125 -0.6756591796875
11128765625.0 0.38592529296875 -1.1976318359375
11159987500.0 -0.3939208984375 -1.1385498046875
11191209375.0 -0.9976806640625 -0.7012939453125
11222431250.0 -1.27093505859375 0.09185791015625
11253653125.0 -0.858123779296875 0.890045166015625
11284875000.0 -0.1138916015625 1.12554931640625
11316096875.0 0.510772705078125 0.95587158203125
11347318750.0 1.00140380859375 0.5029296875
11378540625.0 1.1168212890625 -0.26904296875
11409762500.0 0.635040283203125 -0.857757568359375
11440984375.0 0.037445068359375 -0.977325439453125
11472206250.0 -0.479400634765625 -0.84967041015625
11503428125.0 -0.951171875 -0.457061767578125
11534650000.0 -1.06756591796875 0.28619384765625
11565871875.0 -0.60235595703125 0.85369873046875
11597093750.0 -0.0186767578125 0.99029541015625
11628315625.0 0.5426025390625 0.874237060546875
11659537500.0 1.0587158203125 0.3922119140625
11690759375.0 1.06341552734375 -0.43359375
11721981250.0 0.517364501953125 -0.93914794921875
11753203125.0 -0.1044921875 -1.034912109375
11784425000.0 -0.721710205078125 -0.80792236328125
11815646875.0 -1.09979248046875 -0.1514892578125
11846868750.0 -0.89056396484375 0.550506591796875
11878090625.0 -0.39129638671875 0.907867431640625
11909312500.0 0.18609619140625 0.983154296875
11940534375.0 0.77935791015625 0.694366455078125
11971756250.0 1.02313232421875 0.040771484375
12002978125.0 0.80523681640625 -0.53546142578125
12034200000.0 0.381744384765625 -0.888671875
12065421875.0 -0.215087890625 -1.009033203125
12096643750.0 -0.84613037109375 -0.66558837890625
12127865625.0 -1.03173828125 0.01556396484375
12159087500.0 -0.814605712890625 0.574920654296875
12190309375.0 -0.3778076171875 0.9737548828125
12221531250.0 0.337646484375 1.08636474609375
12252753125.0 0.97991943359375 0.58135986328125
12283975000.0 1.053466796875 -0.1282958984375
12315196875.0 0.799957275390625 -0.6739501953125
12346418750.0 0.28125 -1.09130859375
12377640625.0 -0.53662109375 -1.06005859375
12408862500.0 -1.03375244140625 -0.419677734375
12440084375.0 -1.00787353515625 0.2237548828125
12471306250.0 -0.741241455078125 0.737518310546875
12502528125.0 -0.17987060546875 1.119873046875
12533750000.0 0.61981201171875 0.9937744140625
12564971875.0 1.039306640625 0.36480712890625
12596193750.0 1.029296875 -0.26507568359375
12627415625.0 0.747406005859375 -0.8282470703125
12658637500.0 0.07958984375 -1.20587158203125
12689859375.0 -0.736480712890625 -0.965179443359375
12721081250.0 -1.11419677734375 -0.30682373046875
12752303125.0 -1.0970458984375 0.38116455078125
12783525000.0 -0.68670654296875 1.02734375
12814746875.0 0.16302490234375 1.24896240234375
12845968750.0 0.862030029296875 0.810638427734375
12877190625.0 1.11688232421875 0.1717529296875
12908412500.0 1.0556640625 -0.499755859375
12939634375.0 0.54351806640625 -1.11370849609375
12970856250.0 -0.3189697265625 -1.173828125
13002078125.0 -0.894012451171875 -0.69305419921875
13033300000.0 -1.1043701171875 -0.08758544921875
13064521875.0 -1.008544921875 0.59210205078125
13095743750.0 -0.4197998046875 1.153564453125
13126965625.0 0.40802001953125 1.11920166015625
13158187500.0 0.94354248046875 0.631805419921875
13189409375.0 1.14495849609375 -0.0191650390625
13220631250.0 0.935333251953125 -0.745208740234375
13251853125.0 0.23486328125 -1.17120361328125
13283075000.0 -0.50396728515625 -1.01824951171875
13314296875.0 -0.98455810546875 -0.529266357421875
13345518750.0 -1.13330078125 0.1763916015625
