!Created with skrf (http://scikit-rf.org).
# Hz S RI R 50.0 
!freq ReS11 ImS11
45000000.0 -0.07686233520507812 -0.096893310546875
76221875.0 -0.1962432861328125 -0.0477447509765625
107443750.0 -0.2547760009765625 0.119293212890625
138665625.0 -0.1484222412109375 0.3281707763671875
169887500.0 0.123077392578125 0.4174041748046875
201109375.0 0.4213714599609375 0.2812347412109375
232331250.0 0.578582763671875 -0.056884765625
263553125.0 0.489715576171875 -0.451873779296875
294775000.0 0.09930419921875 -0.731964111328125
325996875.0 -0.41455078125 -0.680511474609375
357218750.0 -0.805419921875 -0.297607421875
388440625.0 -0.88525390625 0.299468994140625
419662500.0 -0.517547607421875 0.864959716796875
450884375.0 0.17193603515625 1.0283203125
482106250.0 0.797088623046875 0.71295166015625
513328125.0 1.1185302734375 0.08843994140625
544550000.0 1.0037841796875 -0.6783447265625
575771875.0 0.3375244140625 -1.23687744140625
606993750.0 -0.552490234375 -1.1771240234375
638215625.0 -1.1644287109375 -0.591064453125
669437500.0 -1.3389892578125 0.232421875
700659375.0 -0.97119140625 1.09466552734375
731881250.0 -0.00494384765625 1.54205322265625
763103125.0 1.00384521484375 1.15582275390625
794325000.0 1.46728515625 0.28271484375
825546875.0 1.3668212890625 -0.649658203125
856768750.0 0.7955322265625 -1.39813232421875
887990625.0 -0.29071044921875 -1.64715576171875
919212500.0 -1.285400390625 -1.078857421875
950434375.0 -1.64697265625 -0.0604248046875
981656250.0 -1.3822021484375 0.943359375
1012878125.0 -0.531005859375 1.66912841796875
1044100000.0 0.694091796875 1.66070556640625
1075321875.0 1.57208251953125 0.81292724609375
1106543750.0 1.703125 -0.31048583984375
1137765625.0 1.18670654296875 -1.28143310546875
1168987500.0 0.13958740234375 -1.79522705078125
1200209375.0 -1.0594482421875 -1.48321533203125
1231431250.0 -1.72491455078125 -0.45489501953125
1262653125.0 -1.59332275390625 0.6820068359375
1293875000.0 -0.85296630859375 1.48907470703125
1325096875.0 0.2259521484375 1.70513916015625
1356318750.0 1.2330322265625 1.21624755859375
1387540625.0 1.7374267578125 0.19012451171875
1418762500.0 1.4688720703125 -0.94903564453125
1449984375.0 0.53045654296875 -1.6236572265625
1481206250.0 -0.54779052734375 -1.554443359375
1512428125.0 -1.339599609375 -0.91986083984375
1543650000.0 -1.65350341796875 0.0635986328125
1574871875.0 -1.27301025390625 1.105712890625
1606093750.0 -0.27435302734375 1.62933349609375
1637315625.0 0.74005126953125 1.3995361328125
1668537500.0 1.3941650390625 0.69635009765625
1699759375.0 1.571533203125 -0.27532958984375
1730981250.0 1.06427001953125 -1.226806640625
1762203125.0 0.043701171875 -1.56884765625
1793425000.0 -0.85406494140625 -1.2261962890625
1824646875.0 -1.39129638671875 -0.51556396484375
1855868750.0 -1.47271728515625 0.43048095703125
1887090625.0 -0.874755859375 1.2833251953125
1918312500.0 0.11590576171875 1.4853515625
1949534375.0 0.919921875 1.088623046875
1980756250.0 1.3729248046875 0.37078857421875
2011978125.0 1.35821533203125 -0.5294189453125
2043200000.0 0.75067138671875 -1.25909423828125
2074421875.0 -0.15521240234375 -1.4317626953125
2105643750.0 -0.958251953125 -1.07220458984375
2136865625.0 -1.445556640625 -0.30615234375
2168087500.0 -1.35614013671875 0.669189453125
2199309375.0 -0.6396484375 1.34930419921875
2230531250.0 0.28045654296875 1.4346923828125
2261753125.0 1.07025146484375 1.013671875
2292975000.0 1.5126953125 0.17138671875
2324196875.0 1.30474853515625 -0.8170166015625
2355418750.0 0.525634765625 -1.4178466796875
2386640625.0 -0.40289306640625 -1.4473876953125
2417862500.0 -1.1781005859375 -1.023681640625
2449084375.0 -1.6009521484375 -0.08660888671875
2480306250.0 -1.31085205078125 0.9239501953125
2511528125.0 -0.4949951171875 1.50445556640625
2542750000.0 0.486083984375 1.5345458984375
2573971875.0 1.3673095703125 0.96771240234375
2605193750.0 1.71392822265625 -0.10955810546875
2636415625.0 1.26104736328125 -1.1507568359375
2667637500.0 0.30828857421875 -1.6636962890625
2698859375.0 -0.76708984375 -1.53240966796875
2730081250.0 -1.570068359375 -0.74114990234375
2761303125.0 -1.6793212890625 0.3858642578125
2792525000.0 -1.0987548828125 1.30352783203125
2823746875.0 -0.103515625 1.72613525390625
2854968750.0 1.00982666015625 1.454345703125
2886190625.0 1.68841552734375 0.4923095703125
2917412500.0 1.59710693359375 -0.61505126953125
2948634375.0 0.93902587890625 -1.42974853515625
2979856250.0 -0.1065673828125 -1.7738037109375
3011078125.0 -1.24554443359375 -1.34185791015625
3042300000.0 -1.7725830078125 -0.23565673828125
3073521875.0 -1.5072021484375 0.8360595703125
3104743750.0 -0.763671875 1.56488037109375
3135965625.0 0.35906982421875 1.80584716796875
3167187500.0 1.4954833984375 1.163818359375
3198409375.0 1.81268310546875 -0.0732421875
3229631250.0 1.34771728515625 -1.07843017578125
3260853125.0 0.49041748046875 -1.6646728515625
3292075000.0 -0.65142822265625 -1.69525146484375
3323296875.0 -1.61651611328125 -0.8797607421875
3354518750.0 -1.72723388671875 0.32568359375
3385740625.0 -1.1551513671875 1.22857666015625
3416962500.0 -0.2327880859375 1.678955078125
3448184375.0 0.85687255859375 1.519775390625
3479406250.0 1.63372802734375 0.64459228515625
3510628125.0 1.64190673828125 -0.492919921875
3541850000.0 0.999755859375 -1.352294921875
3573071875.0 -0.0062255859375 -1.679931640625
3604293750.0 -1.02459716796875 -1.33624267578125
3635515625.0 -1.62432861328125 -0.43914794921875
3666737500.0 -1.5594482421875 0.64385986328125
3697959375.0 -0.8245849609375 1.4725341796875
3729181250.0 0.2664794921875 1.62884521484375
3760403125.0 1.15032958984375 1.0972900390625
3791625000.0 1.55010986328125 0.218994140625
3822846875.0 1.40008544921875 -0.7586669921875
3854068750.0 0.62115478515625 -1.47796630859375
3885290625.0 -0.41888427734375 -1.4793701171875
3916512500.0 -1.13922119140625 -0.9102783203125
3947734375.0 -1.44439697265625 -0.12164306640625
3978956250.0 -1.29595947265625 0.77691650390625
4010178125.0 -0.5321044921875 1.45172119140625
4041400000.0 0.47161865234375 1.4136962890625
4072621875.0 1.14923095703125 0.84747314453125
4103843750.0 1.4429931640625 0.06402587890625
4135065625.0 1.266357421875 -0.8436279296875
4166287500.0 0.45843505859375 -1.4927978515625
4197509375.0 -0.5552978515625 -1.413330078125
4228731250.0 -1.2442626953125 -0.8031005859375
4259953125.0 -1.50677490234375 0.0694580078125
4291175000.0 -1.18719482421875 1.00762939453125
4322396875.0 -0.290283203125 1.52386474609375
4353618750.0 0.671630859375 1.34893798828125
4384840625.0 1.31884765625 0.6976318359375
4416062500.0 1.4991455078125 -0.2255859375
4447284375.0 1.054931640625 -1.10211181640625
4478506250.0 0.17340087890625 -1.493408203125
4509728125.0 -0.73052978515625 -1.30657958984375
4540950000.0 -1.39154052734375 -0.63623046875
4572171875.0 -1.52099609375 0.3587646484375
4603393750.0 -0.97235107421875 1.2108154296875
4634615625.0 -0.06231689453125 1.53564453125
4665837500.0 0.8685302734375 1.30364990234375
4697059375.0 1.5389404296875 0.5155029296875
4728281250.0 1.52764892578125 -0.5810546875
4759503125.0 0.8231201171875 -1.36474609375
4790725000.0 -0.14410400390625 -1.57080078125
4821946875.0 -1.08123779296875 -1.19354248046875
4853168750.0 -1.61114501953125 -0.25201416015625
4884390625.0 -1.37677001953125 0.790771484375
4915612500.0 -0.61395263671875 1.4102783203125
4946834375.0 0.328125 1.50830078125
4978056250.0 1.203125 1.0172119140625
5009278125.0 1.55963134765625 0.0404052734375
5040500000.0 1.2281494140625 -0.87274169921875
5071721875.0 0.501953125 -1.41259765625
5102943750.0 -0.4442138671875 -1.49493408203125
5134165625.0 -1.33428955078125 -0.90472412109375
5165387500.0 -1.5657958984375 0.14410400390625
5196609375.0 -1.13519287109375 1.006591796875
5227831250.0 -0.35748291015625 1.50457763671875
5259053125.0 0.68609619140625 1.4908447265625
5290275000.0 1.51910400390625 0.66290283203125
5321496875.0 1.490478515625 -0.42864990234375
5352718750.0 0.9210205078125 -1.1505126953125
5383940625.0 0.09698486328125 -1.4986572265625
5415162500.0 -0.89910888671875 -1.282958984375
5446384375.0 -1.48291015625 -0.3709716796875
5477606250.0 -1.29791259765625 0.56439208984375
5508828125.0 -0.731201171875 1.15020751953125
5540050000.0 0.05279541015625 1.39715576171875
5571271875.0 0.93670654296875 1.1087646484375
5602493750.0 1.4072265625 0.26031494140625
5633715625.0 1.2314453125 -0.61083984375
5664937500.0 0.648193359375 -1.20001220703125
5696159375.0 -0.19573974609375 -1.3819580078125
5727381250.0 -1.020263671875 -0.97784423828125
5758603125.0 -1.390625 -0.14532470703125
5789825000.0 -1.1934814453125 0.716796875
5821046875.0 -0.50634765625 1.306396484375
5852268750.0 0.41058349609375 1.31170654296875
5883490625.0 1.06976318359375 0.7718505859375
5914712500.0 1.3004150390625 0.0211181640625
5945934375.0 1.09564208984375 -0.7738037109375
5977156250.0 0.36175537109375 -1.31085205078125
6008378125.0 -0.5072021484375 -1.18115234375
6039600000.0 -1.01910400390625 -0.64935302734375
6070821875.0 -1.2227783203125 -0.00518798828125
6102043750.0 -1.08331298828125 0.76141357421875
6133265625.0 -0.34259033203125 1.3427734375
6164487500.0 0.56182861328125 1.18634033203125
6195709375.0 1.0692138671875 0.6298828125
6226931250.0 1.2783203125 -0.041748046875
6258153125.0 1.1038818359375 -0.8692626953125
6289375000.0 0.25640869140625 -1.444580078125
6320596875.0 -0.6883544921875 -1.20550537109375
6351818750.0 -1.1990966796875 -0.5723876953125
6383040625.0 -1.352783203125 0.20550537109375
6414262500.0 -0.99932861328125 1.055419921875
6445484375.0 -0.07958984375 1.45501708984375
6476706250.0 0.79364013671875 1.14752197265625
6507928125.0 1.28790283203125 0.47113037109375
6539150000.0 1.3465576171875 -0.38568115234375
6570371875.0 0.84136962890625 -1.14117431640625
6601593750.0 -0.0162353515625 -1.40313720703125
6632815625.0 -0.83795166015625 -1.13568115234375
6664037500.0 -1.4007568359375 -0.42041015625
6695259375.0 -1.37298583984375 0.565673828125
6726481250.0 -0.71026611328125 1.25079345703125
6757703125.0 0.129638671875 1.406005859375
6788925000.0 0.9537353515625 1.1300048828125
6820146875.0 1.55841064453125 0.288330078125
6851368750.0 1.32452392578125 -0.8175048828125
6882590625.0 0.50665283203125 -1.33624267578125
6913812500.0 -0.29168701171875 -1.35552978515625
6945034375.0 -1.06829833984375 -1.0208740234375
6976256250.0 -1.59033203125 -0.09375
7007478125.0 -1.23590087890625 0.93096923828125
7038700000.0 -0.4029541015625 1.3414306640625
7069921875.0 0.35699462890625 1.32147216796875
7101143750.0 1.11773681640625 0.9677734375
7132365625.0 1.5965576171875 0.0164794921875
7163587500.0 1.1571044921875 -1.01947021484375
7194809375.0 0.30377197265625 -1.39569091796875
7226031250.0 -0.50848388671875 -1.3245849609375
7257253125.0 -1.26385498046875 -0.8245849609375
7288475000.0 -1.5572509765625 0.198974609375
7319696875.0 -1.02960205078125 1.10638427734375
7350918750.0 -0.1641845703125 1.4447021484375
7382140625.0 0.7120361328125 1.2745361328125
7413362500.0 1.374755859375 0.57647705078125
7444584375.0 1.4102783203125 -0.40478515625
7475806250.0 0.8585205078125 -1.14044189453125
7507028125.0 0.0064697265625 -1.42901611328125
7538250000.0 -0.88623046875 -1.12310791015625
7569471875.0 -1.333984375 -0.31231689453125
7600693750.0 -1.20123291015625 0.49554443359375
7631915625.0 -0.7169189453125 1.08642578125
7663137500.0 0.07958984375 1.35699462890625
7694359375.0 0.9365234375 0.98150634765625
7725581250.0 1.241943359375 0.18231201171875
7756803125.0 1.08233642578125 -0.4976806640625
7788025000.0 0.67095947265625 -1.041748046875
7819246875.0 -0.11956787109375 -1.34490966796875
7850468750.0 -0.991455078125 -0.916717529296875
7881690625.0 -1.23065185546875 -0.10546875
7912912500.0 -1.05413818359375 0.55322265625
7944134375.0 -0.6055908203125 1.113037109375
7975356250.0 0.27001953125 1.33343505859375
8006578125.0 1.045166015625 0.77960205078125
8037800000.0 1.19342041015625 0.0167236328125
8069021875.0 1.006591796875 -0.6180419921875
8100243750.0 0.4998779296875 -1.1593017578125
8131465625.0 -0.385498046875 -1.2529296875
8162687500.0 -1.02947998046875 -0.6871337890625
8193909375.0 -1.17919921875 0.00653076171875
8225131250.0 -1.017578125 0.67669677734375
8256353125.0 -0.42266845703125 1.24725341796875
8287575000.0 0.50054931640625 1.22552490234375
8318796875.0 1.08038330078125 0.6357421875
8350018750.0 1.24365234375 -0.07464599609375
8381240625.0 1.03106689453125 -0.83795166015625
8412462500.0 0.25384521484375 -1.373779296875
8443684375.0 -0.66937255859375 -1.170166015625
8474906250.0 -1.1729736328125 -0.53253173828125
8506128125.0 -1.297119140625 0.2366943359375
8537350000.0 -0.92437744140625 1.04534912109375
8568571875.0 -0.01727294921875 1.39288330078125
8599793750.0 0.7994384765625 1.0535888671875
8631015625.0 1.23895263671875 0.3984375
8662237500.0 1.28472900390625 -0.4263916015625
8693459375.0 0.73675537109375 -1.17681884765625
8724681250.0 -0.16204833984375 -1.33074951171875
8755903125.0 -0.87872314453125 -0.957733154296875
8787125000.0 -1.30389404296875 -0.2821044921875
8818346875.0 -1.25054931640625 0.6134033203125
8849568750.0 -0.55731201171875 1.26080322265625
8880790625.0 0.29705810546875 1.28436279296875
8912012500.0 0.981475830078125 0.892730712890625
8943234375.0 1.398193359375 0.12872314453125
8974456250.0 1.16619873046875 -0.84075927734375
9005678125.0 0.3486328125 -1.31121826171875
9036900000.0 -0.44580078125 -1.22479248046875
9068121875.0 -1.10205078125 -0.78594970703125
9099343750.0 -1.4410400390625 0.0968017578125
9130565625.0 -0.9788818359375 1.01031494140625
9161787500.0 -0.15533447265625 1.28118896484375
9193009375.0 0.55316162109375 1.13226318359375
9224231250.0 1.17840576171875 0.65460205078125
9255453125.0 1.39874267578125 -0.295166015625
9286675000.0 0.8067626953125 -1.083251953125
9317896875.0 0.02764892578125 -1.24566650390625
9349118750.0 -0.65283203125 -1.06982421875
9380340625.0 -1.25494384765625 -0.50994873046875
9411562500.0 -1.3115234375 0.47637939453125
9442784375.0 -0.64788818359375 1.11517333984375
9474006250.0 0.087890625 1.20989990234375
9505228125.0 0.760986328125 0.979644775390625
9536450000.0 1.270751953125 0.314208984375
9567671875.0 1.14251708984375 -0.57904052734375
9598893750.0 0.52984619140625 -1.066162109375
9630115625.0 -0.14208984375 -1.1563720703125
9661337500.0 -0.81658935546875 -0.901214599609375
9692559375.0 -1.2373046875 -0.19085693359375
9723781250.0 -1.0430908203125 0.60296630859375
9755003125.0 -0.48626708984375 1.04876708984375
9786225000.0 0.19744873046875 1.1585693359375
9817446875.0 0.895416259765625 0.8277587890625
9848668750.0 1.19525146484375 0.07965087890625
9879890625.0 0.968963623046875 -0.615447998046875
9911112500.0 0.45318603515625 -1.051513671875
9942334375.0 -0.26666259765625 -1.15948486328125
9973556250.0 -0.94110107421875 -0.7384033203125
10004778125.0 -1.14483642578125 -0.018310546875
10036000000.0 -0.94427490234375 0.616668701171875
10067221875.0 -0.44244384765625 1.09600830078125
10098443750.0 0.3699951171875 1.18072509765625
10129665625.0 1.00201416015625 0.642822265625
10160887500.0 1.117919921875 -0.05059814453125
10192109375.0 0.91644287109375 -0.66400146484375
10223331250.0 0.36181640625 -1.1492919921875
10254553125.0 -0.48284912109375 -1.1121826171875
10285775000.0 -0.98468017578125 -0.535888671875
10316996875.0 -1.067138671875 0.075927734375
10348218750.0 -0.899505615234375 0.669158935546875
10379440625.0 -0.32275390625 1.174072265625
10410662500.0 0.526611328125 1.0858154296875
10441884375.0 0.99139404296875 0.522674560546875
10473106250.0 1.10772705078125 -0.0831298828125
10504328125.0 0.948760986328125 -0.7554931640625
10535550000.0 0.2393798828125 -1.294677734375
10566771875.0 -0.65625 -1.076171875
10597993750.0 -1.0791015625 -0.4591064453125
10629215625.0 -1.17388916015625 0.20330810546875
10660437500.0 -0.8876953125 0.95013427734375
10691659375.0 -0.01116943359375 1.33343505859375
10722881250.0 0.78472900390625 0.951629638671875
10754103125.0 1.1180419921875 0.32525634765625
10785325000.0 1.13970947265625 -0.3668212890625
10816546875.0 0.7010498046875 -1.04876708984375
10847768750.0 -0.14453125 -1.229736328125
10878990625.0 -0.803924560546875 -0.84332275390625
10910212500.0 -1.1214599609375 -0.24615478515625
10941434375.0 -1.09674072265625 0.47589111328125
10972656250.0 -0.56829833984375 1.08441162109375
11003878125.0 0.2166748046875 1.1732177734375
11035100000.0 0.847869873046875 0.821624755859375
11066321875.0 1.21954345703125 0.1748046875
11097543750.0 1.09796142578125 -0.6763916015625
11128765625.0 0.38592529296875 -1.1976318359375
11159987500.0 -0.39501953125 -1.13751220703125
11191209375.0 -1.00018310546875 -0.7030029296875
11222431250.0 -1.270263671875 0.091552734375
11253653125.0 -0.85882568359375 0.893341064453125
11284875000.0 -0.11505126953125 1.12603759765625
11316096875.0 0.512115478515625 0.956146240234375
11347318750.0 1.00103759765625 0.501953125
11378540625.0 1.11541748046875 -0.267333984375
11409762500.0 0.63525390625 -0.85833740234375
11440984375.0 0.036376953125 -0.977935791015625
11472206250.0 -0.48016357421875 -0.850555419921875
11503428125.0 -0.95184326171875 -0.456329345703125
11534650000.0 -1.06787109375 0.28790283203125
11565871875.0 -0.602996826171875 0.853912353515625
11597093750.0 -0.019683837890625 0.990203857421875
11628315625.0 0.544677734375 0.87542724609375
11659537500.0 1.06072998046875 0.39190673828125
11690759375.0 1.06427001953125 -0.4307861328125
11721981250.0 0.516082763671875 -0.9415283203125
11753203125.0 -0.10540771484375 -1.0357666015625
11784425000.0 -0.72314453125 -0.808746337890625
11815646875.0 -1.1004638671875 -0.1512451171875
11846868750.0 -0.890899658203125 0.549652099609375
11878090625.0 -0.3907470703125 0.908599853515625
11909312500.0 0.1868896484375 0.98455810546875
11940534375.0 0.77923583984375 0.694793701171875
11971756250.0 1.02392578125 0.0406494140625
12002978125.0 0.8065185546875 -0.537139892578125
12034200000.0 0.382476806640625 -0.888092041015625
12065421875.0 -0.21429443359375 -1.009033203125
12096643750.0 -0.845672607421875 -0.6649169921875
12127865625.0 -1.03350830078125 0.01556396484375
12159087500.0 -0.81494140625 0.57403564453125
12190309375.0 -0.377655029296875 0.974456787109375
12221531250.0 0.340576171875 1.08819580078125
12252753125.0 0.979583740234375 0.581512451171875
12283975000.0 1.05401611328125 -0.12786865234375
12315196875.0 0.80010986328125 -0.675994873046875
12346418750.0 0.2813720703125 -1.08966064453125
12377640625.0 -0.537109375 -1.059814453125
12408862500.0 -1.032470703125 -0.41900634765625
12440084375.0 -1.0079345703125 0.224609375
12471306250.0 -0.7412109375 0.73468017578125
12502528125.0 -0.18048095703125 1.11956787109375
12533750000.0 0.618682861328125 0.99395751953125
12564971875.0 1.0406494140625 0.3646240234375
12596193750.0 1.02825927734375 -0.2633056640625
12627415625.0 0.74786376953125 -0.829345703125
12658637500.0 0.0814208984375 -1.20703125
12689859375.0 -0.7366943359375 -0.965606689453125
12721081250.0 -1.11737060546875 -0.3065185546875
12752303125.0 -1.09796142578125 0.38201904296875
12783525000.0 -0.686767578125 1.02801513671875
12814746875.0 0.1640625 1.25030517578125
12845968750.0 0.862060546875 0.810699462890625
12877190625.0 1.1171875 0.17144775390625
12908412500.0 1.054931640625 -0.500244140625
12939634375.0 0.54132080078125 -1.11773681640625
12970856250.0 -0.318603515625 -1.17333984375
13002078125.0 -0.894287109375 -0.69287109375
13033300000.0 -1.10455322265625 -0.08740234375
13064521875.0 -1.008544921875 0.59228515625
13095743750.0 -0.421142578125 1.15338134765625
13126965625.0 0.408447265625 1.1197509765625
13158187500.0 0.9453125 0.6318359375
13189409375.0 1.1483154296875 -0.02069091796875
13220631250.0 0.9366455078125 -0.7454833984375
13251853125.0 0.23455810546875 -1.1702880859375
13283075000.0 -0.506591796875 -1.019287109375
13314296875.0 -0.9873046875 -0.5291748046875
13345518750.0 -1.135498046875 0.17767333984375
13376740625.0 -0.752471923828125 0.85797119140625
13407962500.0 -0.05902099609375 1.06622314453125
