!Created with skrf (http://scikit-rf.org).
# Hz S RI R 50.0 
!freq ReS11 ImS11
45000000.0 -0.07668304443359375 -0.09716796875
76221875.0 -0.19693756103515625 -0.0482025146484375
107443750.0 -0.2560882568359375 0.1195068359375
138665625.0 -0.149505615234375 0.32904052734375
169887500.0 0.122772216796875 0.4188690185546875
201109375.0 0.4221343994140625 0.28302001953125
232331250.0 0.580657958984375 -0.0560302734375
263553125.0 0.4921722412109375 -0.4529876708984375
294775000.0 0.10089111328125 -0.734771728515625
325996875.0 -0.4149169921875 -0.6842041015625
357218750.0 -0.808349609375 -0.300567626953125
388440625.0 -0.889434814453125 0.29931640625
419662500.0 -0.5213623046875 0.867340087890625
450884375.0 0.1707763671875 1.0323486328125
482106250.0 0.79888916015625 0.717132568359375
513328125.0 1.12249755859375 0.09039306640625
544550000.0 1.0084228515625 -0.67913818359375
575771875.0 0.34088134765625 -1.24005126953125
606993750.0 -0.5518798828125 -1.1820068359375
638215625.0 -1.167236328125 -0.59552001953125
669437500.0 -1.34393310546875 0.23052978515625
700659375.0 -0.97625732421875 1.09576416015625
731881250.0 -0.00848388671875 1.546875
763103125.0 1.0048828125 1.16192626953125
794325000.0 1.4718017578125 0.2869873046875
825546875.0 1.37298583984375 -0.64959716796875
856768750.0 0.8006591796875 -1.403076171875
887990625.0 -0.28924560546875 -1.6539306640625
919212500.0 -1.28955078125 -1.08587646484375
950434375.0 -1.65399169921875 -0.06378173828125
981656250.0 -1.38970947265625 0.94586181640625
1012878125.0 -0.53582763671875 1.6759033203125
1044100000.0 0.69525146484375 1.66949462890625
1075321875.0 1.57818603515625 0.81878662109375
1106543750.0 1.71124267578125 -0.309814453125
1137765625.0 1.19390869140625 -1.2855224609375
1168987500.0 0.1436767578125 -1.802734375
1200209375.0 -1.06109619140625 -1.491455078125
1231431250.0 -1.73199462890625 -0.4591064453125
1262653125.0 -1.6005859375 0.68280029296875
1293875000.0 -0.8583984375 1.4931640625
1325096875.0 0.22412109375 1.71295166015625
1356318750.0 1.23541259765625 1.22393798828125
1387540625.0 1.74468994140625 0.19439697265625
1418762500.0 1.47637939453125 -0.94989013671875
1449984375.0 0.53509521484375 -1.62921142578125
1481206250.0 -0.54736328125 -1.5623779296875
1512428125.0 -1.34405517578125 -0.92535400390625
1543650000.0 -1.66015625 0.0615234375
1574871875.0 -1.279541015625 1.10833740234375
1606093750.0 -0.27783203125 1.63507080078125
1637315625.0 0.74090576171875 1.40625
1668537500.0 1.398193359375 0.7010498046875
1699759375.0 1.5782470703125 -0.27392578125
1730981250.0 1.0701904296875 -1.22979736328125
1762203125.0 0.04608154296875 -1.57476806640625
1793425000.0 -0.85479736328125 -1.2315673828125
1824646875.0 -1.3953857421875 -0.52008056640625
1855868750.0 -1.47906494140625 0.4293212890625
1887090625.0 -0.880859375 1.28680419921875
1918312500.0 0.11407470703125 1.49114990234375
1949534375.0 0.9212646484375 1.09417724609375
1980756250.0 1.37786865234375 0.374267578125
2011978125.0 1.3643798828125 -0.52996826171875
2043200000.0 0.75494384765625 -1.26312255859375
2074421875.0 -0.15386962890625 -1.4373779296875
2105643750.0 -0.960205078125 -1.077392578125
2136865625.0 -1.45013427734375 -0.30938720703125
2168087500.0 -1.3621826171875 0.66949462890625
2199309375.0 -0.6435546875 1.35302734375
2230531250.0 0.27960205078125 1.4404296875
2261753125.0 1.07269287109375 1.01885986328125
2292975000.0 1.51788330078125 0.1739501953125
2324196875.0 1.3106689453125 -0.81781005859375
2355418750.0 0.5296630859375 -1.42193603515625
2386640625.0 -0.402099609375 -1.4534912109375
2417862500.0 -1.18280029296875 -1.029296875
2449084375.0 -1.60955810546875 -0.0870361328125
2480306250.0 -1.31695556640625 0.92620849609375
2511528125.0 -0.49884033203125 1.5101318359375
2542750000.0 0.48663330078125 1.541748046875
2573971875.0 1.37298583984375 0.97369384765625
2605193750.0 1.72265625 -0.1092529296875
2636415625.0 1.2674560546875 -1.15234375
2667637500.0 0.311279296875 -1.6700439453125
2698859375.0 -0.7694091796875 -1.54022216796875
2730081250.0 -1.57598876953125 -0.74627685546875
2761303125.0 -1.68701171875 0.38568115234375
2792525000.0 -1.1051025390625 1.3084716796875
2823746875.0 -0.10601806640625 1.7344970703125
2854968750.0 1.01263427734375 1.46234130859375
2886190625.0 1.69598388671875 0.49676513671875
2917412500.0 1.60601806640625 -0.61669921875
2948634375.0 0.94488525390625 -1.43658447265625
2979856250.0 -0.10467529296875 -1.781982421875
3011078125.0 -1.24951171875 -1.34844970703125
3042300000.0 -1.77972412109375 -0.2388916015625
3073521875.0 -1.5145263671875 0.8367919921875
3104743750.0 -0.76861572265625 1.57275390625
3135965625.0 0.359375 1.814697265625
3167187500.0 1.500732421875 1.1710205078125
3198409375.0 1.82110595703125 -0.0716552734375
3229631250.0 1.354736328125 -1.08203125
3260853125.0 0.4947509765625 -1.671875
3292075000.0 -0.6544189453125 -1.70428466796875
3323296875.0 -1.6234130859375 -0.88525390625
3354518750.0 -1.73651123046875 0.3267822265625
3385740625.0 -1.16180419921875 1.233642578125
3416962500.0 -0.23553466796875 1.68609619140625
3448184375.0 0.86029052734375 1.52783203125
3479406250.0 1.63922119140625 0.6490478515625
3510628125.0 1.6502685546875 -0.4942626953125
3541850000.0 1.00537109375 -1.3564453125
3573071875.0 -0.0040283203125 -1.68682861328125
3604293750.0 -1.029052734375 -1.34320068359375
3635515625.0 -1.6314697265625 -0.443359375
3666737500.0 -1.5677490234375 0.6453857421875
3697959375.0 -0.83001708984375 1.47821044921875
3729181250.0 0.26611328125 1.6351318359375
3760403125.0 1.15362548828125 1.103271484375
3791625000.0 1.55584716796875 0.22235107421875
3822846875.0 1.40789794921875 -0.75946044921875
3854068750.0 0.6246337890625 -1.48443603515625
3885290625.0 -0.419189453125 -1.48583984375
3916512500.0 -1.14288330078125 -0.91558837890625
3947734375.0 -1.4515380859375 -0.122802734375
3978956250.0 -1.3028564453125 0.77935791015625
4010178125.0 -0.5350341796875 1.45831298828125
4041400000.0 0.472900390625 1.42022705078125
4072621875.0 1.15234375 0.85150146484375
4103843750.0 1.44732666015625 0.06610107421875
4135065625.0 1.27239990234375 -0.84613037109375
4166287500.0 0.4613037109375 -1.498779296875
4197509375.0 -0.55743408203125 -1.41937255859375
4228731250.0 -1.249755859375 -0.80645751953125
4259953125.0 -1.51226806640625 0.06707763671875
4291175000.0 -1.19293212890625 1.01055908203125
4322396875.0 -0.29327392578125 1.5291748046875
4353618750.0 0.67156982421875 1.3541259765625
4384840625.0 1.32421875 0.70135498046875
4416062500.0 1.5054931640625 -0.2257080078125
4447284375.0 1.05963134765625 -1.10565185546875
4478506250.0 0.17449951171875 -1.49951171875
4509728125.0 -0.7333984375 -1.31268310546875
4540950000.0 -1.396728515625 -0.6397705078125
4572171875.0 -1.52728271484375 0.35919189453125
4603393750.0 -0.97662353515625 1.21417236328125
4634615625.0 -0.0633544921875 1.54052734375
4665837500.0 0.87127685546875 1.30914306640625
4697059375.0 1.54345703125 0.5191650390625
4728281250.0 1.533935546875 -0.5826416015625
4759503125.0 0.8271484375 -1.3690185546875
4790725000.0 -0.14349365234375 -1.5758056640625
4821946875.0 -1.08465576171875 -1.19927978515625
4853168750.0 -1.61773681640625 -0.25372314453125
4884390625.0 -1.3826904296875 0.792724609375
4915612500.0 -0.6168212890625 1.415283203125
4946834375.0 0.32806396484375 1.5145263671875
4978056250.0 1.20709228515625 1.02215576171875
5009278125.0 1.56597900390625 0.04156494140625
5040500000.0 1.23333740234375 -0.87567138671875
5071721875.0 0.50518798828125 -1.41741943359375
5102943750.0 -0.44586181640625 -1.500732421875
5134165625.0 -1.33831787109375 -0.909912109375
5165387500.0 -1.5721435546875 0.14495849609375
5196609375.0 -1.13970947265625 1.01043701171875
5227831250.0 -0.3604736328125 1.50830078125
5259053125.0 0.6881103515625 1.496826171875
5290275000.0 1.5257568359375 0.66571044921875
5321496875.0 1.496337890625 -0.43060302734375
5352718750.0 0.924560546875 -1.155029296875
5383940625.0 0.09832763671875 -1.50457763671875
5415162500.0 -0.900634765625 -1.28863525390625
5446384375.0 -1.4884033203125 -0.373046875
5477606250.0 -1.30352783203125 0.5653076171875
5508828125.0 -0.73468017578125 1.1541748046875
5540050000.0 0.05194091796875 1.40216064453125
5571271875.0 0.9398193359375 1.1134033203125
5602493750.0 1.41253662109375 0.2625732421875
5633715625.0 1.23565673828125 -0.61224365234375
5664937500.0 0.6513671875 -1.20367431640625
5696159375.0 -0.1961669921875 -1.38775634765625
5727381250.0 -1.02239990234375 -0.982177734375
5758603125.0 -1.39495849609375 -0.14666748046875
5789825000.0 -1.19842529296875 0.71881103515625
5821046875.0 -0.508544921875 1.3101806640625
5852268750.0 0.4114990234375 1.31640625
5883490625.0 1.07330322265625 0.77484130859375
5914712500.0 1.30560302734375 0.0218505859375
5945934375.0 1.1002197265625 -0.7760009765625
5977156250.0 0.36297607421875 -1.3162841796875
6008378125.0 -0.510498046875 -1.185546875
6039600000.0 -1.023193359375 -0.6517333984375
6070821875.0 -1.2271728515625 -0.00537109375
6102043750.0 -1.08685302734375 0.763671875
6133265625.0 -0.34393310546875 1.34783935546875
6164487500.0 0.5640869140625 1.19085693359375
6195709375.0 1.07354736328125 0.6324462890625
6226931250.0 1.2830810546875 -0.0418701171875
6258153125.0 1.10821533203125 -0.8729248046875
6289375000.0 0.25762939453125 -1.44952392578125
6320596875.0 -0.69000244140625 -1.2086181640625
6351818750.0 -1.20245361328125 -0.57403564453125
6383040625.0 -1.3582763671875 0.20654296875
6414262500.0 -1.00299072265625 1.05950927734375
6445484375.0 -0.0791015625 1.4603271484375
6476706250.0 0.79620361328125 1.1507568359375
6507928125.0 1.29278564453125 0.4720458984375
6539150000.0 1.3507080078125 -0.38580322265625
6570371875.0 0.84405517578125 -1.1458740234375
6601593750.0 -0.01580810546875 -1.40777587890625
6632815625.0 -0.83990478515625 -1.14007568359375
6664037500.0 -1.40570068359375 -0.42230224609375
6695259375.0 -1.37762451171875 0.56689453125
6726481250.0 -0.71258544921875 1.25390625
6757703125.0 0.13043212890625 1.41082763671875
6788925000.0 0.95794677734375 1.13433837890625
6820146875.0 1.56488037109375 0.28924560546875
6851368750.0 1.3291015625 -0.82159423828125
6882590625.0 0.5079345703125 -1.342041015625
6913812500.0 -0.29095458984375 -1.35980224609375
6945034375.0 -1.07220458984375 -1.02496337890625
6976256250.0 -1.595703125 -0.094482421875
7007478125.0 -1.24005126953125 0.936279296875
7038700000.0 -0.40557861328125 1.34576416015625
7069921875.0 0.35791015625 1.32781982421875
7101143750.0 1.12298583984375 0.97198486328125
7132365625.0 1.6043701171875 0.0164794921875
7163587500.0 1.16180419921875 -1.0235595703125
7194809375.0 0.3045654296875 -1.39996337890625
7226031250.0 -0.51226806640625 -1.33026123046875
7257253125.0 -1.27099609375 -0.82720947265625
7288475000.0 -1.56201171875 0.197509765625
7319696875.0 -1.03326416015625 1.11102294921875
7350918750.0 -0.16650390625 1.44805908203125
7382140625.0 0.7188720703125 1.280517578125
7413362500.0 1.38116455078125 0.5772705078125
7444584375.0 1.41607666015625 -0.40692138671875
7475806250.0 0.86138916015625 -1.14556884765625
7507028125.0 0.0064697265625 -1.4332275390625
7538250000.0 -0.88800048828125 -1.12799072265625
7569471875.0 -1.34002685546875 -0.31298828125
7600693750.0 -1.2060546875 0.4967041015625
7631915625.0 -0.7210693359375 1.0877685546875
7663137500.0 0.07830810546875 1.3629150390625
7694359375.0 0.94189453125 0.984832763671875
7725581250.0 1.24932861328125 0.18194580078125
7756803125.0 1.08746337890625 -0.50054931640625
7788025000.0 0.67340087890625 -1.04766845703125
7819246875.0 -0.12139892578125 -1.35235595703125
7850468750.0 -0.996795654296875 -0.91973876953125
7881690625.0 -1.23583984375 -0.10626220703125
7912912500.0 -1.0589599609375 0.55755615234375
7944134375.0 -0.60711669921875 1.11669921875
7975356250.0 0.2738037109375 1.3394775390625
8006578125.0 1.04986572265625 0.781005859375
8037800000.0 1.19708251953125 0.01593017578125
8069021875.0 1.010009765625 -0.6190185546875
8100243750.0 0.5006103515625 -1.16748046875
8131465625.0 -0.3896484375 -1.25830078125
8162687500.0 -1.035400390625 -0.68853759765625
8193909375.0 -1.18511962890625 0.0078125
8225131250.0 -1.02203369140625 0.68115234375
8256353125.0 -0.42266845703125 1.2532958984375
8287575000.0 0.50372314453125 1.23040771484375
8318796875.0 1.08551025390625 0.638427734375
8350018750.0 1.2489013671875 -0.07525634765625
8381240625.0 1.0360107421875 -0.84356689453125
8412462500.0 0.25439453125 -1.3782958984375
8443684375.0 -0.67169189453125 -1.17242431640625
8474906250.0 -1.179443359375 -0.532470703125
8506128125.0 -1.302490234375 0.23846435546875
8537350000.0 -0.92724609375 1.05010986328125
8568571875.0 -0.0167236328125 1.3985595703125
8599793750.0 0.8038330078125 1.0572509765625
8631015625.0 1.245849609375 0.39971923828125
8662237500.0 1.29034423828125 -0.43017578125
8693459375.0 0.739013671875 -1.18023681640625
8724681250.0 -0.16253662109375 -1.3365478515625
8755903125.0 -0.880767822265625 -0.96136474609375
8787125000.0 -1.30902099609375 -0.2838134765625
8818346875.0 -1.25592041015625 0.6171875
8849568750.0 -0.55877685546875 1.26544189453125
8880790625.0 0.2996826171875 1.290283203125
8912012500.0 0.985595703125 0.896820068359375
8943234375.0 1.40557861328125 0.12896728515625
8974456250.0 1.17059326171875 -0.84356689453125
9005678125.0 0.34918212890625 -1.31640625
9036900000.0 -0.44482421875 -1.2276611328125
9068121875.0 -1.10467529296875 -0.78753662109375
9099343750.0 -1.444580078125 0.097412109375
9130565625.0 -0.98138427734375 1.01617431640625
9161787500.0 -0.15478515625 1.28497314453125
9193009375.0 0.5562744140625 1.137451171875
9224231250.0 1.1826171875 0.65740966796875
9255453125.0 1.40362548828125 -0.29559326171875
9286675000.0 0.81024169921875 -1.08795166015625
9317896875.0 0.02685546875 -1.25048828125
9349118750.0 -0.65631103515625 -1.07427978515625
9380340625.0 -1.26324462890625 -0.51141357421875
9411562500.0 -1.31536865234375 0.4786376953125
9442784375.0 -0.6490478515625 1.12371826171875
9474006250.0 0.08819580078125 1.21514892578125
9505228125.0 0.76904296875 0.98345947265625
9536450000.0 1.27813720703125 0.31451416015625
9567671875.0 1.14666748046875 -0.58154296875
9598893750.0 0.53082275390625 -1.07049560546875
9630115625.0 -0.1446533203125 -1.16119384765625
9661337500.0 -0.82110595703125 -0.904693603515625
9692559375.0 -1.241455078125 -0.1917724609375
9723781250.0 -1.045654296875 0.60516357421875
9755003125.0 -0.487548828125 1.05255126953125
9786225000.0 0.19683837890625 1.16180419921875
9817446875.0 0.8992919921875 0.830352783203125
9848668750.0 1.2001953125 0.079345703125
9879890625.0 0.971160888671875 -0.61962890625
9911112500.0 0.453369140625 -1.05621337890625
9942334375.0 -0.26861572265625 -1.1629638671875
9973556250.0 -0.947357177734375 -0.739593505859375
10004778125.0 -1.1512451171875 -0.015625
10036000000.0 -0.94720458984375 0.619873046875
10067221875.0 -0.4427490234375 1.1005859375
10098443750.0 0.3726806640625 1.1846923828125
10129665625.0 1.0078125 0.64288330078125
10160887500.0 1.1221923828125 -0.05218505859375
10192109375.0 0.92034912109375 -0.665863037109375
10223331250.0 0.36163330078125 -1.1556396484375
10254553125.0 -0.4874267578125 -1.11627197265625
10285775000.0 -0.9886474609375 -0.536163330078125
10316996875.0 -1.06884765625 0.0775146484375
10348218750.0 -0.90283203125 0.672088623046875
10379440625.0 -0.322509765625 1.181396484375
10410662500.0 0.5313720703125 1.08807373046875
10441884375.0 0.994964599609375 0.52227783203125
10473106250.0 1.11285400390625 -0.08489990234375
10504328125.0 0.9520263671875 -0.7587890625
10535550000.0 0.2379150390625 -1.30035400390625
10566771875.0 -0.6605224609375 -1.0799560546875
10597993750.0 -1.0841064453125 -0.45977783203125
10629215625.0 -1.1787109375 0.20635986328125
10660437500.0 -0.889495849609375 0.955413818359375
10691659375.0 -0.007568359375 1.3399658203125
10722881250.0 0.787841796875 0.953521728515625
10754103125.0 1.12322998046875 0.3253173828125
10785325000.0 1.14300537109375 -0.3681640625
10816546875.0 0.70147705078125 -1.05401611328125
10847768750.0 -0.1483154296875 -1.23321533203125
10878990625.0 -0.80694580078125 -0.845672607421875
10910212500.0 -1.12725830078125 -0.245361328125
10941434375.0 -1.10198974609375 0.48077392578125
10972656250.0 -0.56884765625 1.090576171875
11003878125.0 0.21868896484375 1.17626953125
11035100000.0 0.850799560546875 0.82440185546875
11066321875.0 1.22503662109375 0.1741943359375
11097543750.0 1.10186767578125 -0.6798095703125
11128765625.0 0.38690185546875 -1.20135498046875
11159987500.0 -0.39825439453125 -1.14202880859375
11191209375.0 -1.0035400390625 -0.7041015625
11222431250.0 -1.2757568359375 0.09423828125
11253653125.0 -0.86053466796875 0.8984375
11284875000.0 -0.114013671875 1.13031005859375
11316096875.0 0.513641357421875 0.95843505859375
11347318750.0 1.0068359375 0.503662109375
11378540625.0 1.12066650390625 -0.2713623046875
11409762500.0 0.63555908203125 -0.861297607421875
11440984375.0 0.036956787109375 -0.981201171875
11472206250.0 -0.48297119140625 -0.852813720703125
11503428125.0 -0.957366943359375 -0.45587158203125
11534650000.0 -1.07269287109375 0.290771484375
11565871875.0 -0.603179931640625 0.85748291015625
11597093750.0 -0.017333984375 0.9951171875
11628315625.0 0.54803466796875 0.878509521484375
11659537500.0 1.06524658203125 0.39208984375
11690759375.0 1.06787109375 -0.43603515625
11721981250.0 0.51763916015625 -0.942962646484375
11753203125.0 -0.107421875 -1.0399169921875
11784425000.0 -0.72943115234375 -0.811767578125
11815646875.0 -1.10467529296875 -0.14959716796875
11846868750.0 -0.892913818359375 0.55206298828125
11878090625.0 -0.39215087890625 0.912353515625
11909312500.0 0.18890380859375 0.988311767578125
11940534375.0 0.78314208984375 0.696533203125
11971756250.0 1.0279541015625 0.04052734375
12002978125.0 0.80828857421875 -0.5400390625
12034200000.0 0.382171630859375 -0.89007568359375
12065421875.0 -0.21661376953125 -1.01300048828125
12096643750.0 -0.852386474609375 -0.66522216796875
12127865625.0 -1.03656005859375 0.0186767578125
12159087500.0 -0.817413330078125 0.57879638671875
12190309375.0 -0.377532958984375 0.97894287109375
12221531250.0 0.3427734375 1.0916748046875
12252753125.0 0.986236572265625 0.58056640625
12283975000.0 1.05706787109375 -0.12994384765625
12315196875.0 0.8023681640625 -0.6802978515625
12346418750.0 0.281005859375 -1.096923828125
12377640625.0 -0.5426025390625 -1.0635986328125
12408862500.0 -1.03765869140625 -0.41937255859375
12440084375.0 -1.01202392578125 0.2266845703125
12471306250.0 -0.743988037109375 0.739349365234375
12502528125.0 -0.17926025390625 1.12591552734375
12533750000.0 0.623687744140625 0.995269775390625
12564971875.0 1.0439453125 0.36431884765625
12596193750.0 1.03271484375 -0.26678466796875
12627415625.0 0.750030517578125 -0.83282470703125
12658637500.0 0.07916259765625 -1.2105712890625
12689859375.0 -0.738372802734375 -0.968719482421875
12721081250.0 -1.1220703125 -0.3046875
12752303125.0 -1.10101318359375 0.384765625
12783525000.0 -0.68768310546875 1.0330810546875
12814746875.0 0.1671142578125 1.25469970703125
12845968750.0 0.86651611328125 0.81280517578125
12877190625.0 1.12078857421875 0.1717529296875
12908412500.0 1.05908203125 -0.5052490234375
12939634375.0 0.5419921875 -1.12249755859375
12970856250.0 -0.32293701171875 -1.17681884765625
13002078125.0 -0.89776611328125 -0.69439697265625
13033300000.0 -1.1099853515625 -0.08612060546875
13064521875.0 -1.0118408203125 0.59619140625
13095743750.0 -0.419189453125 1.16021728515625
13126965625.0 0.4112548828125 1.1224365234375
13158187500.0 0.949951171875 0.63372802734375
13189409375.0 1.15252685546875 -0.02264404296875
13220631250.0 0.937896728515625 -0.7537841796875
13251853125.0 0.231689453125 -1.17730712890625
13283075000.0 -0.51031494140625 -1.02117919921875
13314296875.0 -0.99273681640625 -0.52935791015625
13345518750.0 -1.1390380859375 0.18084716796875
13376740625.0 -0.753082275390625 0.86431884765625
13407962500.0 -0.0576171875 1.0712890625
