!Created with skrf (http://scikit-rf.org).
# Hz S RI R 50.0 
!freq ReS11 ImS11
45000000.0 -0.0771942138671875 -0.0968780517578125
76221875.0 -0.19724273681640625 -0.04772186279296875
107443750.0 -0.2559967041015625 0.120269775390625
138665625.0 -0.148712158203125 0.32965087890625
169887500.0 0.1235809326171875 0.4189605712890625
201109375.0 0.4228515625 0.282257080078125
232331250.0 0.580841064453125 -0.05712890625
263553125.0 0.4915771484375 -0.4545745849609375
294775000.0 0.098968505859375 -0.73529052734375
325996875.0 -0.416961669921875 -0.683807373046875
357218750.0 -0.809844970703125 -0.2987060546875
388440625.0 -0.8896484375 0.3016357421875
419662500.0 -0.519927978515625 0.869293212890625
450884375.0 0.17315673828125 1.03253173828125
482106250.0 0.800933837890625 0.71600341796875
513328125.0 1.12310791015625 0.088134765625
544550000.0 1.0074462890625 -0.68157958984375
575771875.0 0.338134765625 -1.241943359375
606993750.0 -0.55438232421875 -1.1812744140625
638215625.0 -1.16888427734375 -0.59326171875
669437500.0 -1.3441162109375 0.23321533203125
700659375.0 -0.97454833984375 1.09844970703125
731881250.0 -0.005126953125 1.5472412109375
763103125.0 1.00726318359375 1.16058349609375
794325000.0 1.47314453125 0.2841796875
825546875.0 1.3721923828125 -0.652099609375
856768750.0 0.7979736328125 -1.40631103515625
887990625.0 -0.2938232421875 -1.65484619140625
919212500.0 -1.292724609375 -1.08367919921875
950434375.0 -1.65570068359375 -0.0599365234375
981656250.0 -1.388671875 0.9493408203125
1012878125.0 -0.53265380859375 1.67822265625
1044100000.0 0.69940185546875 1.6689453125
1075321875.0 1.58123779296875 0.81573486328125
1106543750.0 1.71160888671875 -0.3135986328125
1137765625.0 1.19195556640625 -1.28900146484375
1168987500.0 0.1397705078125 -1.80401611328125
1200209375.0 -1.06494140625 -1.490478515625
1231431250.0 -1.73431396484375 -0.45611572265625
1262653125.0 -1.599853515625 0.6865234375
1293875000.0 -0.85552978515625 1.49603271484375
1325096875.0 0.2279052734375 1.71258544921875
1356318750.0 1.23883056640625 1.2225341796875
1387540625.0 1.74627685546875 0.19110107421875
1418762500.0 1.47589111328125 -0.953857421875
1449984375.0 0.53253173828125 -1.63134765625
1481206250.0 -0.55108642578125 -1.5623779296875
1512428125.0 -1.3466796875 -0.9237060546875
1543650000.0 -1.66168212890625 0.065185546875
1574871875.0 -1.27813720703125 1.1116943359375
1606093750.0 -0.27459716796875 1.63690185546875
1637315625.0 0.7440185546875 1.4053955078125
1668537500.0 1.40045166015625 0.69866943359375
1699759375.0 1.5780029296875 -0.27728271484375
1730981250.0 1.06787109375 -1.23236083984375
1762203125.0 0.04302978515625 -1.57513427734375
1793425000.0 -0.85748291015625 -1.23040771484375
1824646875.0 -1.396728515625 -0.517822265625
1855868750.0 -1.4788818359375 0.43231201171875
1887090625.0 -0.87933349609375 1.28857421875
1918312500.0 0.11627197265625 1.49212646484375
1949534375.0 0.9241943359375 1.0933837890625
1980756250.0 1.37939453125 0.37188720703125
2011978125.0 1.3642578125 -0.5325927734375
2043200000.0 0.75274658203125 -1.265380859375
2074421875.0 -0.15673828125 -1.43780517578125
2105643750.0 -0.96240234375 -1.07623291015625
2136865625.0 -1.451904296875 -0.30596923828125
2168087500.0 -1.361328125 0.67218017578125
2199309375.0 -0.64190673828125 1.3551025390625
2230531250.0 0.28173828125 1.44012451171875
2261753125.0 1.074951171875 1.0172119140625
2292975000.0 1.5185546875 0.17156982421875
2324196875.0 1.30950927734375 -0.820068359375
2355418750.0 0.5279541015625 -1.42364501953125
2386640625.0 -0.40447998046875 -1.45355224609375
2417862500.0 -1.18463134765625 -1.029296875
2449084375.0 -1.6114501953125 -0.083984375
2480306250.0 -1.31585693359375 0.92919921875
2511528125.0 -0.49517822265625 1.51300048828125
2542750000.0 0.48968505859375 1.540771484375
2573971875.0 1.37640380859375 0.9718017578125
2605193750.0 1.72406005859375 -0.1124267578125
2636415625.0 1.2662353515625 -1.156005859375
2667637500.0 0.307373046875 -1.67413330078125
2698859375.0 -0.77374267578125 -1.54058837890625
2730081250.0 -1.57916259765625 -0.74359130859375
2761303125.0 -1.68804931640625 0.3892822265625
2792525000.0 -1.1041259765625 1.3114013671875
2823746875.0 -0.10333251953125 1.736328125
2854968750.0 1.01531982421875 1.46075439453125
2886190625.0 1.69842529296875 0.49322509765625
2917412500.0 1.606689453125 -0.62066650390625
2948634375.0 0.943115234375 -1.43927001953125
2979856250.0 -0.10797119140625 -1.78289794921875
3011078125.0 -1.25225830078125 -1.34771728515625
3042300000.0 -1.7822265625 -0.23486328125
3073521875.0 -1.513916015625 0.84051513671875
3104743750.0 -0.7664794921875 1.5736083984375
3135965625.0 0.36328125 1.81585693359375
3167187500.0 1.5030517578125 1.16900634765625
3198409375.0 1.82232666015625 -0.0753173828125
3229631250.0 1.3536376953125 -1.084716796875
3260853125.0 0.4913330078125 -1.67529296875
3292075000.0 -0.6580810546875 -1.704345703125
3323296875.0 -1.62506103515625 -0.88287353515625
3354518750.0 -1.73626708984375 0.32958984375
3385740625.0 -1.16033935546875 1.23614501953125
3416962500.0 -0.233154296875 1.6865234375
3448184375.0 0.863037109375 1.52734375
3479406250.0 1.64166259765625 0.64678955078125
3510628125.0 1.6502685546875 -0.49700927734375
3541850000.0 1.0037841796875 -1.36077880859375
3573071875.0 -0.009033203125 -1.6893310546875
3604293750.0 -1.03143310546875 -1.3419189453125
3635515625.0 -1.63201904296875 -0.440185546875
3666737500.0 -1.56744384765625 0.64874267578125
3697959375.0 -0.827880859375 1.481689453125
3729181250.0 0.27020263671875 1.63671875
3760403125.0 1.15521240234375 1.10205078125
3791625000.0 1.5577392578125 0.21844482421875
3822846875.0 1.40704345703125 -0.7633056640625
3854068750.0 0.62255859375 -1.48712158203125
3885290625.0 -0.423828125 -1.48626708984375
3916512500.0 -1.14520263671875 -0.913818359375
3947734375.0 -1.45294189453125 -0.12017822265625
3978956250.0 -1.30230712890625 0.7806396484375
4010178125.0 -0.53326416015625 1.460205078125
4041400000.0 0.474853515625 1.41973876953125
4072621875.0 1.1552734375 0.85015869140625
4103843750.0 1.44805908203125 0.063720703125
4135065625.0 1.271484375 -0.84820556640625
4166287500.0 0.45880126953125 -1.50067138671875
4197509375.0 -0.560302734375 -1.41961669921875
4228731250.0 -1.25128173828125 -0.80523681640625
4259953125.0 -1.513427734375 0.07110595703125
4291175000.0 -1.19219970703125 1.0142822265625
4322396875.0 -0.28985595703125 1.53216552734375
4353618750.0 0.67547607421875 1.35382080078125
4384840625.0 1.32647705078125 0.6990966796875
4416062500.0 1.50543212890625 -0.22802734375
4447284375.0 1.0582275390625 -1.10748291015625
4478506250.0 0.1729736328125 -1.4998779296875
4509728125.0 -0.73431396484375 -1.311279296875
4540950000.0 -1.39849853515625 -0.6375732421875
4572171875.0 -1.5262451171875 0.3609619140625
4603393750.0 -0.9749755859375 1.21600341796875
4634615625.0 -0.06103515625 1.5418701171875
4665837500.0 0.87286376953125 1.30828857421875
4697059375.0 1.54644775390625 0.51690673828125
4728281250.0 1.53350830078125 -0.58404541015625
4759503125.0 0.8251953125 -1.3719482421875
4790725000.0 -0.14654541015625 -1.57763671875
4821946875.0 -1.08770751953125 -1.19775390625
4853168750.0 -1.61700439453125 -0.25286865234375
4884390625.0 -1.38226318359375 0.79510498046875
4915612500.0 -0.6143798828125 1.41693115234375
4946834375.0 0.32879638671875 1.51263427734375
4978056250.0 1.2091064453125 1.0198974609375
5009278125.0 1.5665283203125 0.03955078125
5040500000.0 1.23291015625 -0.87921142578125
5071721875.0 0.5028076171875 -1.41888427734375
5102943750.0 -0.4486083984375 -1.50177001953125
5134165625.0 -1.34088134765625 -0.9085693359375
5165387500.0 -1.5728759765625 0.146728515625
5196609375.0 -1.1396484375 1.01251220703125
5227831250.0 -0.35858154296875 1.509521484375
5259053125.0 0.6903076171875 1.49749755859375
5290275000.0 1.52630615234375 0.664794921875
5321496875.0 1.49627685546875 -0.4310302734375
5352718750.0 0.923583984375 -1.15704345703125
5383940625.0 0.09686279296875 -1.504638671875
5415162500.0 -0.90509033203125 -1.288330078125
5446384375.0 -1.4888916015625 -0.37176513671875
5477606250.0 -1.30316162109375 0.5682373046875
5508828125.0 -0.7330322265625 1.154541015625
5540050000.0 0.05389404296875 1.402587890625
5571271875.0 0.94207763671875 1.1123046875
5602493750.0 1.413330078125 0.26068115234375
5633715625.0 1.23565673828125 -0.614501953125
5664937500.0 0.6500244140625 -1.20501708984375
5696159375.0 -0.19720458984375 -1.3883056640625
5727381250.0 -1.024658203125 -0.9815673828125
5758603125.0 -1.3958740234375 -0.1455078125
5789825000.0 -1.19757080078125 0.719482421875
5821046875.0 -0.5078125 1.3126220703125
5852268750.0 0.4129638671875 1.31707763671875
5883490625.0 1.07562255859375 0.77423095703125
5914712500.0 1.30743408203125 0.01953125
5945934375.0 1.10015869140625 -0.77862548828125
5977156250.0 0.36151123046875 -1.31707763671875
6008378125.0 -0.51092529296875 -1.185302734375
6039600000.0 -1.0252685546875 -0.650634765625
6070821875.0 -1.227294921875 -0.00421142578125
6102043750.0 -1.0865478515625 0.76556396484375
6133265625.0 -0.342529296875 1.34893798828125
6164487500.0 0.565185546875 1.1907958984375
6195709375.0 1.07421875 0.63153076171875
6226931250.0 1.28369140625 -0.0428466796875
6258153125.0 1.10845947265625 -0.87469482421875
6289375000.0 0.25592041015625 -1.45172119140625
6320596875.0 -0.6927490234375 -1.2099609375
6351818750.0 -1.2041015625 -0.57342529296875
6383040625.0 -1.35919189453125 0.20806884765625
6414262500.0 -1.0030517578125 1.0599365234375
6445484375.0 -0.0775146484375 1.46148681640625
6476706250.0 0.79766845703125 1.15045166015625
6507928125.0 1.2940673828125 0.4705810546875
6539150000.0 1.3515625 -0.388427734375
6570371875.0 0.84295654296875 -1.14727783203125
6601593750.0 -0.01824951171875 -1.40875244140625
6632815625.0 -0.84307861328125 -1.139404296875
6664037500.0 -1.40509033203125 -0.4210205078125
6695259375.0 -1.37786865234375 0.568359375
6726481250.0 -0.711669921875 1.2554931640625
6757703125.0 0.13116455078125 1.4110107421875
6788925000.0 0.95843505859375 1.134033203125
6820146875.0 1.56524658203125 0.28826904296875
6851368750.0 1.3292236328125 -0.822021484375
6882590625.0 0.50762939453125 -1.34259033203125
6913812500.0 -0.29412841796875 -1.3614501953125
6945034375.0 -1.07391357421875 -1.02471923828125
6976256250.0 -1.5977783203125 -0.093017578125
7007478125.0 -1.24090576171875 0.9390869140625
7038700000.0 -0.4027099609375 1.34759521484375
7069921875.0 0.36236572265625 1.32891845703125
7101143750.0 1.122314453125 0.9710693359375
7132365625.0 1.60498046875 0.0130615234375
7163587500.0 1.160400390625 -1.02557373046875
7194809375.0 0.3033447265625 -1.40106201171875
7226031250.0 -0.51470947265625 -1.33001708984375
7257253125.0 -1.27032470703125 -0.8271484375
7288475000.0 -1.56475830078125 0.2012939453125
7319696875.0 -1.0321044921875 1.11383056640625
7350918750.0 -0.16436767578125 1.450439453125
7382140625.0 0.71783447265625 1.2813720703125
7413362500.0 1.38311767578125 0.57745361328125
7444584375.0 1.418212890625 -0.4110107421875
7475806250.0 0.86041259765625 -1.148193359375
7507028125.0 0.0037841796875 -1.43536376953125
7538250000.0 -0.892578125 -1.1278076171875
7569471875.0 -1.34002685546875 -0.31207275390625
7600693750.0 -1.20635986328125 0.49951171875
7631915625.0 -0.71954345703125 1.090576171875
7663137500.0 0.08099365234375 1.36370849609375
7694359375.0 0.943115234375 0.98272705078125
7725581250.0 1.24786376953125 0.18023681640625
7756803125.0 1.0860595703125 -0.50091552734375
7788025000.0 0.6727294921875 -1.04754638671875
7819246875.0 -0.12176513671875 -1.35321044921875
7850468750.0 -0.997528076171875 -0.91802978515625
7881690625.0 -1.2353515625 -0.10577392578125
7912912500.0 -1.0579833984375 0.556884765625
7944134375.0 -0.607177734375 1.1192626953125
7975356250.0 0.27490234375 1.34075927734375
8006578125.0 1.05096435546875 0.781494140625
8037800000.0 1.1982421875 0.01568603515625
8069021875.0 1.009765625 -0.61968994140625
8100243750.0 0.50103759765625 -1.16607666015625
8131465625.0 -0.39031982421875 -1.25909423828125
8162687500.0 -1.036865234375 -0.68804931640625
8193909375.0 -1.185546875 0.0101318359375
8225131250.0 -1.02142333984375 0.6812744140625
8256353125.0 -0.421630859375 1.25457763671875
8287575000.0 0.50445556640625 1.23052978515625
8318796875.0 1.08642578125 0.636962890625
8350018750.0 1.25067138671875 -0.07781982421875
8381240625.0 1.035400390625 -0.8431396484375
8412462500.0 0.25372314453125 -1.37799072265625
8443684375.0 -0.67327880859375 -1.17388916015625
8474906250.0 -1.17987060546875 -0.53277587890625
8506128125.0 -1.3037109375 0.2398681640625
8537350000.0 -0.9268798828125 1.0518798828125
8568571875.0 -0.0159912109375 1.3985595703125
8599793750.0 0.80609130859375 1.055908203125
8631015625.0 1.24713134765625 0.3984375
8662237500.0 1.29156494140625 -0.433349609375
8693459375.0 0.73858642578125 -1.18212890625
8724681250.0 -0.163330078125 -1.33599853515625
8755903125.0 -0.883148193359375 -0.960174560546875
8787125000.0 -1.30975341796875 -0.28192138671875
8818346875.0 -1.255615234375 0.620361328125
8849568750.0 -0.55712890625 1.26654052734375
8880790625.0 0.30047607421875 1.28985595703125
8912012500.0 0.989532470703125 0.894989013671875
8943234375.0 1.40655517578125 0.12762451171875
8974456250.0 1.17083740234375 -0.8448486328125
9005678125.0 0.34912109375 -1.31732177734375
9036900000.0 -0.4476318359375 -1.2294921875
9068121875.0 -1.10748291015625 -0.78814697265625
9099343750.0 -1.44622802734375 0.09954833984375
9130565625.0 -0.9818115234375 1.0167236328125
9161787500.0 -0.15423583984375 1.28826904296875
9193009375.0 0.55743408203125 1.13763427734375
9224231250.0 1.18414306640625 0.65753173828125
9255453125.0 1.4061279296875 -0.29937744140625
9286675000.0 0.8095703125 -1.08837890625
9317896875.0 0.025146484375 -1.2520751953125
9349118750.0 -0.6573486328125 -1.073486328125
9380340625.0 -1.2628173828125 -0.509521484375
9411562500.0 -1.31646728515625 0.48236083984375
9442784375.0 -0.64971923828125 1.12164306640625
9474006250.0 0.089599609375 1.21575927734375
9505228125.0 0.769622802734375 0.984405517578125
9536450000.0 1.27935791015625 0.31317138671875
9567671875.0 1.1474609375 -0.585205078125
9598893750.0 0.53131103515625 -1.07244873046875
9630115625.0 -0.14544677734375 -1.162109375
9661337500.0 -0.822509765625 -0.905975341796875
9692559375.0 -1.2454833984375 -0.188720703125
9723781250.0 -1.0469970703125 0.6075439453125
9755003125.0 -0.48583984375 1.05596923828125
9786225000.0 0.20062255859375 1.16351318359375
9817446875.0 0.900238037109375 0.82904052734375
9848668750.0 1.20269775390625 0.07562255859375
9879890625.0 0.971038818359375 -0.619049072265625
9911112500.0 0.45196533203125 -1.0567626953125
9942334375.0 -0.269775390625 -1.16339111328125
9973556250.0 -0.948638916015625 -0.739288330078125
10004778125.0 -1.150146484375 -0.01593017578125
10036000000.0 -0.9462890625 0.618255615234375
10067221875.0 -0.4412841796875 1.1036376953125
10098443750.0 0.3739013671875 1.18560791015625
10129665625.0 1.00872802734375 0.6436767578125
10160887500.0 1.12396240234375 -0.05389404296875
10192109375.0 0.9205322265625 -0.667266845703125
10223331250.0 0.35968017578125 -1.159423828125
10254553125.0 -0.49066162109375 -1.1170654296875
10285775000.0 -0.98974609375 -0.53619384765625
10316996875.0 -1.071044921875 0.0780029296875
10348218750.0 -0.90252685546875 0.674957275390625
10379440625.0 -0.3214111328125 1.1793212890625
10410662500.0 0.5306396484375 1.08807373046875
10441884375.0 0.996795654296875 0.52154541015625
10473106250.0 1.1119384765625 -0.08587646484375
10504328125.0 0.952117919921875 -0.76080322265625
10535550000.0 0.2386474609375 -1.29931640625
10566771875.0 -0.6611328125 -1.080810546875
10597993750.0 -1.08624267578125 -0.4588623046875
10629215625.0 -1.18023681640625 0.208251953125
10660437500.0 -0.8902587890625 0.9552001953125
10691659375.0 -0.00701904296875 1.3411865234375
10722881250.0 0.7889404296875 0.95452880859375
10754103125.0 1.1248779296875 0.32440185546875
10785325000.0 1.1436767578125 -0.3692626953125
10816546875.0 0.70355224609375 -1.0540771484375
10847768750.0 -0.15032958984375 -1.23492431640625
10878990625.0 -0.8072509765625 -0.846038818359375
10910212500.0 -1.1280517578125 -0.243896484375
10941434375.0 -1.10137939453125 0.48095703125
10972656250.0 -0.567138671875 1.09124755859375
11003878125.0 0.2200927734375 1.17724609375
11035100000.0 0.850128173828125 0.82470703125
11066321875.0 1.2255859375 0.17413330078125
11097543750.0 1.10125732421875 -0.67938232421875
11128765625.0 0.38623046875 -1.20367431640625
11159987500.0 -0.39959716796875 -1.14361572265625
11191209375.0 -1.00518798828125 -0.70452880859375
11222431250.0 -1.2781982421875 0.09539794921875
11253653125.0 -0.861114501953125 0.901519775390625
11284875000.0 -0.11322021484375 1.13104248046875
11316096875.0 0.516510009765625 0.959716796875
11347318750.0 1.00872802734375 0.5028076171875
11378540625.0 1.12042236328125 -0.27227783203125
11409762500.0 0.635040283203125 -0.86370849609375
11440984375.0 0.0343017578125 -0.98236083984375
11472206250.0 -0.483612060546875 -0.85296630859375
11503428125.0 -0.95733642578125 -0.4560546875
11534650000.0 -1.0721435546875 0.29034423828125
11565871875.0 -0.602935791015625 0.858673095703125
11597093750.0 -0.017669677734375 0.99481201171875
11628315625.0 0.546630859375 0.87841796875
11659537500.0 1.06524658203125 0.39166259765625
11690759375.0 1.06829833984375 -0.43695068359375
11721981250.0 0.51678466796875 -0.944915771484375
11753203125.0 -0.1080322265625 -1.04156494140625
11784425000.0 -0.7279052734375 -0.811492919921875
11815646875.0 -1.1051025390625 -0.14971923828125
11846868750.0 -0.893707275390625 0.555145263671875
11878090625.0 -0.39080810546875 0.913787841796875
11909312500.0 0.190032958984375 0.98907470703125
11940534375.0 0.786376953125 0.696044921875
11971756250.0 1.02813720703125 0.03802490234375
12002978125.0 0.80841064453125 -0.54168701171875
12034200000.0 0.381103515625 -0.8929443359375
12065421875.0 -0.217529296875 -1.01336669921875
12096643750.0 -0.852142333984375 -0.6661376953125
12127865625.0 -1.03680419921875 0.0184326171875
12159087500.0 -0.817138671875 0.57861328125
12190309375.0 -0.377899169921875 0.979248046875
12221531250.0 0.341064453125 1.091552734375
12252753125.0 0.985015869140625 0.581512451171875
12283975000.0 1.05841064453125 -0.130859375
12315196875.0 0.80218505859375 -0.679962158203125
12346418750.0 0.28070068359375 -1.09765625
12377640625.0 -0.54083251953125 -1.0628662109375
12408862500.0 -1.03973388671875 -0.41845703125
12440084375.0 -1.01177978515625 0.22845458984375
12471306250.0 -0.743896484375 0.740203857421875
12502528125.0 -0.1776123046875 1.1256103515625
12533750000.0 0.624053955078125 0.9964599609375
12564971875.0 1.04400634765625 0.3638916015625
12596193750.0 1.03277587890625 -0.2669677734375
12627415625.0 0.74932861328125 -0.833282470703125
12658637500.0 0.077880859375 -1.2120361328125
12689859375.0 -0.741058349609375 -0.968475341796875
12721081250.0 -1.12030029296875 -0.30499267578125
12752303125.0 -1.10174560546875 0.38494873046875
12783525000.0 -0.68841552734375 1.03436279296875
12814746875.0 0.16937255859375 1.256591796875
12845968750.0 0.86700439453125 0.812103271484375
12877190625.0 1.1220703125 0.1707763671875
12908412500.0 1.05859375 -0.50408935546875
12939634375.0 0.54400634765625 -1.12060546875
12970856250.0 -0.32501220703125 -1.1793212890625
13002078125.0 -0.899444580078125 -0.69622802734375
13033300000.0 -1.11016845703125 -0.08453369140625
13064521875.0 -1.01300048828125 0.60003662109375
13095743750.0 -0.41839599609375 1.16033935546875
13126965625.0 0.413330078125 1.1246337890625
13158187500.0 0.951385498046875 0.63330078125
13189409375.0 1.1527099609375 -0.02325439453125
13220631250.0 0.938201904296875 -0.7550048828125
13251853125.0 0.232177734375 -1.177490234375
13283075000.0 -0.5123291015625 -1.02215576171875
13314296875.0 -0.9910888671875 -0.529083251953125
13345518750.0 -1.14031982421875 0.1806640625
13376740625.0 -0.754302978515625 0.862762451171875
