!Created with skrf (http://scikit-rf.org).
# Hz S RI R 50.0 
!freq ReS11 ImS11
45000000.0 -0.076873779296875 -0.09682464599609375
76221875.0 -0.1962432861328125 -0.0476531982421875
107443750.0 -0.2547454833984375 0.119476318359375
138665625.0 -0.1482391357421875 0.3282318115234375
169887500.0 0.1233062744140625 0.417205810546875
201109375.0 0.4214630126953125 0.280792236328125
232331250.0 0.57855224609375 -0.057220458984375
263553125.0 0.489410400390625 -0.4522857666015625
294775000.0 0.09881591796875 -0.73175048828125
325996875.0 -0.41485595703125 -0.680145263671875
357218750.0 -0.805450439453125 -0.297088623046875
388440625.0 -0.884979248046875 0.299835205078125
419662500.0 -0.5174560546875 0.865264892578125
450884375.0 0.17242431640625 1.02783203125
482106250.0 0.79742431640625 0.71240234375
513328125.0 1.1181640625 0.0877685546875
544550000.0 1.00311279296875 -0.678955078125
575771875.0 0.336669921875 -1.2369384765625
606993750.0 -0.55291748046875 -1.176513671875
638215625.0 -1.1646728515625 -0.59014892578125
669437500.0 -1.33856201171875 0.2330322265625
700659375.0 -0.970458984375 1.0950927734375
731881250.0 -0.00421142578125 1.5419921875
763103125.0 1.00439453125 1.15496826171875
794325000.0 1.4671630859375 0.28192138671875
825546875.0 1.3660888671875 -0.6502685546875
856768750.0 0.79425048828125 -1.3988037109375
887990625.0 -0.2913818359375 -1.6466064453125
919212500.0 -1.28619384765625 -1.07781982421875
950434375.0 -1.64642333984375 -0.05963134765625
981656250.0 -1.38079833984375 0.9439697265625
1012878125.0 -0.53009033203125 1.6690673828125
1044100000.0 0.69482421875 1.65966796875
1075321875.0 1.572265625 0.8116455078125
1106543750.0 1.7025146484375 -0.31134033203125
1137765625.0 1.18585205078125 -1.28173828125
1168987500.0 0.13897705078125 -1.79449462890625
1200209375.0 -1.059814453125 -1.48211669921875
1231431250.0 -1.7244873046875 -0.4534912109375
1262653125.0 -1.5926513671875 0.68267822265625
1293875000.0 -0.8515625 1.48944091796875
1325096875.0 0.2271728515625 1.70465087890625
1356318750.0 1.2332763671875 1.21563720703125
1387540625.0 1.73760986328125 0.18896484375
1418762500.0 1.4676513671875 -0.94964599609375
1449984375.0 0.5289306640625 -1.62335205078125
1481206250.0 -0.5484619140625 -1.5540771484375
1512428125.0 -1.33984375 -0.91864013671875
1543650000.0 -1.65313720703125 0.06463623046875
1574871875.0 -1.2723388671875 1.10699462890625
1606093750.0 -0.2730712890625 1.62908935546875
1637315625.0 0.74102783203125 1.39898681640625
1668537500.0 1.3936767578125 0.695556640625
1699759375.0 1.57098388671875 -0.27593994140625
1730981250.0 1.0633544921875 -1.2275390625
1762203125.0 0.04266357421875 -1.56866455078125
1793425000.0 -0.8543701171875 -1.22515869140625
1824646875.0 -1.39117431640625 -0.514892578125
1855868750.0 -1.4720458984375 0.4310302734375
1887090625.0 -0.87432861328125 1.2830810546875
1918312500.0 0.11669921875 1.484619140625
1949534375.0 0.91949462890625 1.0877685546875
1980756250.0 1.37335205078125 0.3697509765625
2011978125.0 1.35784912109375 -0.53057861328125
2043200000.0 0.74932861328125 -1.25982666015625
2074421875.0 -0.15594482421875 -1.43157958984375
2105643750.0 -0.95855712890625 -1.0712890625
2136865625.0 -1.4453125 -0.3046875
2168087500.0 -1.35552978515625 0.66943359375
2199309375.0 -0.638671875 1.3492431640625
2230531250.0 0.281005859375 1.43463134765625
2261753125.0 1.07080078125 1.01263427734375
2292975000.0 1.5125732421875 0.1702880859375
2324196875.0 1.30401611328125 -0.8172607421875
2355418750.0 0.52490234375 -1.41802978515625
2386640625.0 -0.40362548828125 -1.44720458984375
2417862500.0 -1.1771240234375 -1.0230712890625
2449084375.0 -1.60198974609375 -0.08465576171875
2480306250.0 -1.3094482421875 0.92364501953125
2511528125.0 -0.49365234375 1.505615234375
2542750000.0 0.4869384765625 1.53387451171875
2573971875.0 1.3675537109375 0.966796875
2605193750.0 1.71417236328125 -0.11151123046875
2636415625.0 1.26007080078125 -1.14984130859375
2667637500.0 0.30670166015625 -1.66424560546875
2698859375.0 -0.76800537109375 -1.531982421875
2730081250.0 -1.56866455078125 -0.74041748046875
2761303125.0 -1.6778564453125 0.3858642578125
2792525000.0 -1.09759521484375 1.3060302734375
2823746875.0 -0.10345458984375 1.72601318359375
2854968750.0 1.00958251953125 1.45367431640625
2886190625.0 1.6865234375 0.4923095703125
2917412500.0 1.59716796875 -0.61602783203125
2948634375.0 0.93792724609375 -1.4306640625
2979856250.0 -0.1077880859375 -1.77349853515625
3011078125.0 -1.24365234375 -1.3402099609375
3042300000.0 -1.771240234375 -0.23492431640625
3073521875.0 -1.50592041015625 0.8353271484375
3104743750.0 -0.762939453125 1.5655517578125
3135965625.0 0.360107421875 1.80560302734375
3167187500.0 1.49627685546875 1.16302490234375
3198409375.0 1.8126220703125 -0.07421875
3229631250.0 1.34637451171875 -1.07806396484375
3260853125.0 0.49041748046875 -1.664794921875
3292075000.0 -0.65252685546875 -1.69500732421875
3323296875.0 -1.615234375 -0.879150390625
3354518750.0 -1.7276611328125 0.32720947265625
3385740625.0 -1.15399169921875 1.229736328125
3416962500.0 -0.2320556640625 1.67828369140625
3448184375.0 0.85784912109375 1.51904296875
3479406250.0 1.63287353515625 0.643798828125
3510628125.0 1.64080810546875 -0.49267578125
3541850000.0 0.99896240234375 -1.3514404296875
3573071875.0 -0.0059814453125 -1.67864990234375
3604293750.0 -1.02532958984375 -1.3350830078125
3635515625.0 -1.6236572265625 -0.43896484375
3666737500.0 -1.55938720703125 0.64404296875
3697959375.0 -0.82440185546875 1.47271728515625
3729181250.0 0.2662353515625 1.6273193359375
3760403125.0 1.1490478515625 1.09661865234375
3791625000.0 1.54998779296875 0.21807861328125
3822846875.0 1.39923095703125 -0.75921630859375
3854068750.0 0.62017822265625 -1.47796630859375
3885290625.0 -0.4197998046875 -1.47857666015625
3916512500.0 -1.1396484375 -0.909912109375
3947734375.0 -1.44390869140625 -0.12091064453125
3978956250.0 -1.29473876953125 0.7763671875
4010178125.0 -0.53143310546875 1.451416015625
4041400000.0 0.471435546875 1.41357421875
4072621875.0 1.1495361328125 0.84637451171875
4103843750.0 1.4415283203125 0.0638427734375
4135065625.0 1.2662353515625 -0.84490966796875
4166287500.0 0.4573974609375 -1.49322509765625
4197509375.0 -0.55645751953125 -1.4132080078125
4228731250.0 -1.2452392578125 -0.80194091796875
4259953125.0 -1.50579833984375 0.0693359375
4291175000.0 -1.18658447265625 1.0086669921875
4322396875.0 -0.29010009765625 1.52294921875
4353618750.0 0.67242431640625 1.34844970703125
4384840625.0 1.3192138671875 0.6968994140625
4416062500.0 1.49774169921875 -0.2257080078125
4447284375.0 1.0538330078125 -1.100830078125
4478506250.0 0.1727294921875 -1.49285888671875
4509728125.0 -0.73016357421875 -1.30596923828125
4540950000.0 -1.3900146484375 -0.63580322265625
4572171875.0 -1.52020263671875 0.3577880859375
4603393750.0 -0.9713134765625 1.2098388671875
4634615625.0 -0.061767578125 1.53509521484375
4665837500.0 0.86944580078125 1.30267333984375
4697059375.0 1.5386962890625 0.51495361328125
4728281250.0 1.52740478515625 -0.581298828125
4759503125.0 0.822265625 -1.36541748046875
4790725000.0 -0.14385986328125 -1.5697021484375
4821946875.0 -1.0804443359375 -1.19268798828125
4853168750.0 -1.6104736328125 -0.2513427734375
4884390625.0 -1.37640380859375 0.791259765625
4915612500.0 -0.61383056640625 1.40997314453125
4946834375.0 0.3271484375 1.50689697265625
4978056250.0 1.2025146484375 1.01666259765625
5009278125.0 1.55902099609375 0.039794921875
5040500000.0 1.22747802734375 -0.87347412109375
5071721875.0 0.50177001953125 -1.4119873046875
5102943750.0 -0.44635009765625 -1.49609375
5134165625.0 -1.3326416015625 -0.90435791015625
5165387500.0 -1.5660400390625 0.14508056640625
5196609375.0 -1.13482666015625 1.00640869140625
5227831250.0 -0.35809326171875 1.502685546875
5259053125.0 0.686767578125 1.4908447265625
5290275000.0 1.5184326171875 0.66278076171875
5321496875.0 1.49005126953125 -0.42864990234375
5352718750.0 0.9200439453125 -1.1510009765625
5383940625.0 0.09722900390625 -1.49822998046875
5415162500.0 -0.89825439453125 -1.28228759765625
5446384375.0 -1.48162841796875 -0.3707275390625
5477606250.0 -1.297607421875 0.56488037109375
5508828125.0 -0.73126220703125 1.14892578125
5540050000.0 0.0533447265625 1.39654541015625
5571271875.0 0.93798828125 1.10772705078125
5602493750.0 1.4063720703125 0.25970458984375
5633715625.0 1.23101806640625 -0.61175537109375
5664937500.0 0.647216796875 -1.2000732421875
5696159375.0 -0.19580078125 -1.38177490234375
5727381250.0 -1.0206298828125 -0.9776611328125
5758603125.0 -1.3892822265625 -0.14544677734375
5789825000.0 -1.19293212890625 0.7154541015625
5821046875.0 -0.50634765625 1.30474853515625
5852268750.0 0.40966796875 1.31134033203125
5883490625.0 1.068359375 0.77142333984375
5914712500.0 1.3006591796875 0.02032470703125
5945934375.0 1.09490966796875 -0.7740478515625
5977156250.0 0.361328125 -1.3104248046875
6008378125.0 -0.50872802734375 -1.18115234375
6039600000.0 -1.02032470703125 -0.64898681640625
6070821875.0 -1.22271728515625 -0.0048828125
6102043750.0 -1.08184814453125 0.76116943359375
6133265625.0 -0.34222412109375 1.3428955078125
6164487500.0 0.5616455078125 1.18621826171875
6195709375.0 1.06884765625 0.629638671875
6226931250.0 1.27728271484375 -0.04119873046875
6258153125.0 1.10321044921875 -0.86981201171875
6289375000.0 0.2559814453125 -1.44451904296875
6320596875.0 -0.68798828125 -1.20440673828125
6351818750.0 -1.19732666015625 -0.57171630859375
6383040625.0 -1.3525390625 0.20550537109375
6414262500.0 -0.9986572265625 1.0548095703125
6445484375.0 -0.07830810546875 1.45526123046875
6476706250.0 0.7935791015625 1.14666748046875
6507928125.0 1.28839111328125 0.47052001953125
6539150000.0 1.34600830078125 -0.3856201171875
6570371875.0 0.8408203125 -1.14166259765625
6601593750.0 -0.01702880859375 -1.40350341796875
6632815625.0 -0.836669921875 -1.1348876953125
6664037500.0 -1.399169921875 -0.42041015625
6695259375.0 -1.37274169921875 0.56494140625
6726481250.0 -0.70941162109375 1.2503662109375
6757703125.0 0.13092041015625 1.4053955078125
6788925000.0 0.95416259765625 1.13006591796875
6820146875.0 1.55908203125 0.28717041015625
6851368750.0 1.3243408203125 -0.81805419921875
6882590625.0 0.5059814453125 -1.3365478515625
6913812500.0 -0.29156494140625 -1.35498046875
6945034375.0 -1.068359375 -1.0206298828125
6976256250.0 -1.59033203125 -0.09368896484375
7007478125.0 -1.236083984375 0.931884765625
7038700000.0 -0.40142822265625 1.3409423828125
7069921875.0 0.35809326171875 1.32196044921875
7101143750.0 1.11517333984375 0.9686279296875
7132365625.0 1.59722900390625 0.01507568359375
7163587500.0 1.1563720703125 -1.01904296875
7194809375.0 0.30377197265625 -1.39508056640625
7226031250.0 -0.51025390625 -1.3245849609375
7257253125.0 -1.26434326171875 -0.8243408203125
7288475000.0 -1.55828857421875 0.19952392578125
7319696875.0 -1.02935791015625 1.1092529296875
7350918750.0 -0.165283203125 1.44287109375
7382140625.0 0.71435546875 1.2745361328125
7413362500.0 1.37451171875 0.5762939453125
7444584375.0 1.4107666015625 -0.40447998046875
7475806250.0 0.857421875 -1.14215087890625
7507028125.0 0.00634765625 -1.42681884765625
7538250000.0 -0.88671875 -1.12335205078125
7569471875.0 -1.3348388671875 -0.310791015625
7600693750.0 -1.201904296875 0.4971923828125
7631915625.0 -0.7176513671875 1.0823974609375
7663137500.0 0.07733154296875 1.35589599609375
7694359375.0 0.938140869140625 0.9791259765625
7725581250.0 1.24237060546875 0.18115234375
7756803125.0 1.08203125 -0.497802734375
7788025000.0 0.6707763671875 -1.04290771484375
7819246875.0 -0.11883544921875 -1.34564208984375
7850468750.0 -0.9920654296875 -0.914825439453125
7881690625.0 -1.2296142578125 -0.105224609375
7912912500.0 -1.05316162109375 0.55267333984375
7944134375.0 -0.60455322265625 1.11199951171875
7975356250.0 0.2701416015625 1.33392333984375
8006578125.0 1.0438232421875 0.778076171875
8037800000.0 1.191650390625 0.01519775390625
8069021875.0 1.005126953125 -0.61566162109375
8100243750.0 0.4993896484375 -1.16021728515625
8131465625.0 -0.38555908203125 -1.2529296875
8162687500.0 -1.03125 -0.6859130859375
8193909375.0 -1.18072509765625 0.0091552734375
8225131250.0 -1.0177001953125 0.67816162109375
8256353125.0 -0.420654296875 1.24908447265625
8287575000.0 0.49896240234375 1.224365234375
8318796875.0 1.07965087890625 0.63616943359375
8350018750.0 1.2427978515625 -0.07427978515625
8381240625.0 1.0308837890625 -0.83837890625
8412462500.0 0.254638671875 -1.3731689453125
8443684375.0 -0.66595458984375 -1.1680908203125
8474906250.0 -1.17120361328125 -0.532470703125
8506128125.0 -1.2977294921875 0.23785400390625
8537350000.0 -0.9239501953125 1.0445556640625
8568571875.0 -0.0166015625 1.3934326171875
8599793750.0 0.80072021484375 1.052001953125
8631015625.0 1.23944091796875 0.3985595703125
8662237500.0 1.284423828125 -0.42803955078125
8693459375.0 0.73638916015625 -1.174560546875
8724681250.0 -0.16156005859375 -1.330810546875
8755903125.0 -0.877716064453125 -0.956756591796875
8787125000.0 -1.3017578125 -0.283203125
8818346875.0 -1.250244140625 0.6138916015625
8849568750.0 -0.5576171875 1.2578125
8880790625.0 0.2969970703125 1.28411865234375
8912012500.0 0.981170654296875 0.892333984375
8943234375.0 1.39984130859375 0.12762451171875
8974456250.0 1.166015625 -0.83917236328125
9005678125.0 0.34844970703125 -1.3123779296875
9036900000.0 -0.44573974609375 -1.223876953125
9068121875.0 -1.10064697265625 -0.78497314453125
9099343750.0 -1.4383544921875 0.09698486328125
9130565625.0 -0.97955322265625 1.0115966796875
9161787500.0 -0.1551513671875 1.280517578125
9193009375.0 0.5550537109375 1.13330078125
9224231250.0 1.17694091796875 0.65460205078125
9255453125.0 1.3973388671875 -0.2943115234375
9286675000.0 0.80755615234375 -1.08343505859375
9317896875.0 0.02642822265625 -1.24603271484375
9349118750.0 -0.65435791015625 -1.06976318359375
9380340625.0 -1.25762939453125 -0.50909423828125
9411562500.0 -1.31011962890625 0.47479248046875
9442784375.0 -0.647705078125 1.115966796875
9474006250.0 0.08843994140625 1.21026611328125
9505228125.0 0.76422119140625 0.9801025390625
9536450000.0 1.27227783203125 0.31329345703125
9567671875.0 1.14300537109375 -0.5799560546875
9598893750.0 0.52911376953125 -1.0682373046875
9630115625.0 -0.1434326171875 -1.15704345703125
9661337500.0 -0.81829833984375 -0.901641845703125
9692559375.0 -1.2357177734375 -0.19097900390625
9723781250.0 -1.0438232421875 0.604736328125
9755003125.0 -0.48577880859375 1.04833984375
9786225000.0 0.1982421875 1.15863037109375
9817446875.0 0.895355224609375 0.828125
9848668750.0 1.1961669921875 0.079345703125
9879890625.0 0.968292236328125 -0.615478515625
9911112500.0 0.4527587890625 -1.048583984375
9942334375.0 -0.26617431640625 -1.1578369140625
9973556250.0 -0.94268798828125 -0.737579345703125
10004778125.0 -1.1448974609375 -0.0184326171875
10036000000.0 -0.943450927734375 0.61456298828125
10067221875.0 -0.4420166015625 1.09552001953125
10098443750.0 0.3682861328125 1.1802978515625
10129665625.0 1.00225830078125 0.6424560546875
10160887500.0 1.1197509765625 -0.052734375
10192109375.0 0.917022705078125 -0.661712646484375
10223331250.0 0.3614501953125 -1.1505126953125
10254553125.0 -0.4832763671875 -1.11224365234375
10285775000.0 -0.98504638671875 -0.535552978515625
10316996875.0 -1.0665283203125 0.0760498046875
10348218750.0 -0.899627685546875 0.6708984375
10379440625.0 -0.3226318359375 1.17437744140625
10410662500.0 0.5255126953125 1.08489990234375
10441884375.0 0.992431640625 0.521148681640625
10473106250.0 1.10943603515625 -0.08441162109375
10504328125.0 0.948974609375 -0.756866455078125
10535550000.0 0.24127197265625 -1.2930908203125
10566771875.0 -0.65643310546875 -1.07598876953125
10597993750.0 -1.0797119140625 -0.45867919921875
10629215625.0 -1.17364501953125 0.20489501953125
10660437500.0 -0.88818359375 0.949371337890625
10691659375.0 -0.0111083984375 1.3328857421875
10722881250.0 0.78302001953125 0.951263427734375
10754103125.0 1.117919921875 0.32464599609375
10785325000.0 1.137451171875 -0.36517333984375
10816546875.0 0.69964599609375 -1.04736328125
10847768750.0 -0.1435546875 -1.22735595703125
10878990625.0 -0.802764892578125 -0.842742919921875
10910212500.0 -1.12200927734375 -0.244873046875
10941434375.0 -1.09710693359375 0.47674560546875
10972656250.0 -0.5687255859375 1.0826416015625
11003878125.0 0.216796875 1.17279052734375
11035100000.0 0.845550537109375 0.821624755859375
11066321875.0 1.22003173828125 0.17529296875
11097543750.0 1.09783935546875 -0.6754150390625
11128765625.0 0.38543701171875 -1.1993408203125
11159987500.0 -0.393798828125 -1.137939453125
11191209375.0 -0.999847412109375 -0.701934814453125
11222431250.0 -1.271240234375 0.09307861328125
11253653125.0 -0.858551025390625 0.892913818359375
11284875000.0 -0.1151123046875 1.125732421875
11316096875.0 0.511505126953125 0.9559326171875
11347318750.0 1.00225830078125 0.502197265625
11378540625.0 1.115234375 -0.26727294921875
11409762500.0 0.63421630859375 -0.857147216796875
11440984375.0 0.035919189453125 -0.977783203125
11472206250.0 -0.47857666015625 -0.849517822265625
11503428125.0 -0.95263671875 -0.4561767578125
11534650000.0 -1.06793212890625 0.28887939453125
11565871875.0 -0.60272216796875 0.85333251953125
11597093750.0 -0.01837158203125 0.991241455078125
11628315625.0 0.543182373046875 0.875732421875
11659537500.0 1.06048583984375 0.39227294921875
11690759375.0 1.06378173828125 -0.4317626953125
11721981250.0 0.516754150390625 -0.94024658203125
11753203125.0 -0.10546875 -1.03564453125
11784425000.0 -0.725006103515625 -0.80853271484375
11815646875.0 -1.0992431640625 -0.1507568359375
11846868750.0 -0.89031982421875 0.550262451171875
11878090625.0 -0.3917236328125 0.90673828125
11909312500.0 0.186187744140625 0.983856201171875
11940534375.0 0.777801513671875 0.6944580078125
11971756250.0 1.0245361328125 0.03924560546875
12002978125.0 0.805816650390625 -0.536773681640625
12034200000.0 0.381591796875 -0.889068603515625
12065421875.0 -0.21417236328125 -1.00872802734375
12096643750.0 -0.8466796875 -0.66485595703125
12127865625.0 -1.03265380859375 0.01556396484375
12159087500.0 -0.81414794921875 0.573944091796875
12190309375.0 -0.37774658203125 0.974273681640625
12221531250.0 0.33758544921875 1.0870361328125
12252753125.0 0.9794921875 0.580657958984375
12283975000.0 1.05218505859375 -0.1263427734375
12315196875.0 0.80010986328125 -0.67645263671875
12346418750.0 0.28125 -1.0902099609375
12377640625.0 -0.5369873046875 -1.0599365234375
12408862500.0 -1.0328369140625 -0.4193115234375
12440084375.0 -1.00677490234375 0.22412109375
12471306250.0 -0.741607666015625 0.735198974609375
12502528125.0 -0.1796875 1.119873046875
12533750000.0 0.617828369140625 0.99334716796875
12564971875.0 1.0401611328125 0.364013671875
12596193750.0 1.0294189453125 -0.26617431640625
12627415625.0 0.74761962890625 -0.828643798828125
12658637500.0 0.0802001953125 -1.206298828125
12689859375.0 -0.7337646484375 -0.966766357421875
12721081250.0 -1.115478515625 -0.3056640625
12752303125.0 -1.09661865234375 0.38287353515625
12783525000.0 -0.68695068359375 1.02838134765625
12814746875.0 0.16485595703125 1.25018310546875
12845968750.0 0.864349365234375 0.81109619140625
12877190625.0 1.11773681640625 0.1708984375
12908412500.0 1.055419921875 -0.50152587890625
12939634375.0 0.54345703125 -1.11505126953125
12970856250.0 -0.31890869140625 -1.1729736328125
13002078125.0 -0.89447021484375 -0.69354248046875
13033300000.0 -1.10430908203125 -0.086181640625
13064521875.0 -1.0086669921875 0.59356689453125
13095743750.0 -0.42083740234375 1.15289306640625
13126965625.0 0.40679931640625 1.11993408203125
13158187500.0 0.94586181640625 0.631805419921875
13189409375.0 1.1483154296875 -0.0225830078125
13220631250.0 0.935699462890625 -0.746368408203125
13251853125.0 0.23388671875 -1.17236328125
13283075000.0 -0.50653076171875 -1.01812744140625
13314296875.0 -0.986236572265625 -0.529022216796875
13345518750.0 -1.13385009765625 0.17718505859375
13376740625.0 -0.75250244140625 0.85693359375
