!Created with skrf (http://scikit-rf.org).
# Hz S RI R 50.0 
!freq ReS11 ImS11
45000000.0 -0.07668304443359375 -0.09708786010742188
76221875.0 -0.196807861328125 -0.048248291015625
107443750.0 -0.2560577392578125 0.1193695068359375
138665625.0 -0.1494293212890625 0.3289642333984375
169887500.0 0.1224517822265625 0.418914794921875
201109375.0 0.4220123291015625 0.2830810546875
232331250.0 0.58087158203125 -0.05596923828125
263553125.0 0.4923095703125 -0.452667236328125
294775000.0 0.101043701171875 -0.7344970703125
325996875.0 -0.41461181640625 -0.68414306640625
357218750.0 -0.80853271484375 -0.300689697265625
388440625.0 -0.88970947265625 0.299041748046875
419662500.0 -0.521636962890625 0.8670654296875
450884375.0 0.1700439453125 1.03228759765625
482106250.0 0.798583984375 0.71734619140625
513328125.0 1.12261962890625 0.0909423828125
544550000.0 1.00848388671875 -0.678466796875
575771875.0 0.34088134765625 -1.23980712890625
606993750.0 -0.5511474609375 -1.1822509765625
638215625.0 -1.1671142578125 -0.5958251953125
669437500.0 -1.34423828125 0.23004150390625
700659375.0 -0.9769287109375 1.09576416015625
731881250.0 -0.00897216796875 1.547119140625
763103125.0 1.00445556640625 1.16253662109375
794325000.0 1.4720458984375 0.2872314453125
825546875.0 1.37322998046875 -0.64947509765625
856768750.0 0.80072021484375 -1.4024658203125
887990625.0 -0.2890625 -1.65447998046875
919212500.0 -1.2889404296875 -1.08599853515625
950434375.0 -1.6541748046875 -0.064208984375
981656250.0 -1.39007568359375 0.9456787109375
1012878125.0 -0.53631591796875 1.67620849609375
1044100000.0 0.69500732421875 1.67010498046875
1075321875.0 1.577880859375 0.81927490234375
1106543750.0 1.7117919921875 -0.30889892578125
1137765625.0 1.1947021484375 -1.2852783203125
1168987500.0 0.14422607421875 -1.80267333984375
1200209375.0 -1.06109619140625 -1.4920654296875
1231431250.0 -1.7320556640625 -0.4599609375
1262653125.0 -1.60125732421875 0.68212890625
1293875000.0 -0.85882568359375 1.49371337890625
1325096875.0 0.22344970703125 1.71307373046875
1356318750.0 1.23553466796875 1.2247314453125
1387540625.0 1.74462890625 0.19512939453125
1418762500.0 1.47705078125 -0.9493408203125
1449984375.0 0.53631591796875 -1.62884521484375
1481206250.0 -0.54669189453125 -1.56268310546875
1512428125.0 -1.343505859375 -0.92620849609375
1543650000.0 -1.66070556640625 0.06103515625
1574871875.0 -1.280029296875 1.10858154296875
1606093750.0 -0.27813720703125 1.63555908203125
1637315625.0 0.739990234375 1.40625
1668537500.0 1.398193359375 0.70159912109375
1699759375.0 1.57794189453125 -0.2734375
1730981250.0 1.0703125 -1.22943115234375
1762203125.0 0.04693603515625 -1.57464599609375
1793425000.0 -0.85467529296875 -1.232177734375
1824646875.0 -1.395751953125 -0.52001953125
1855868750.0 -1.479248046875 0.4293212890625
1887090625.0 -0.8812255859375 1.28643798828125
1918312500.0 0.1134033203125 1.49163818359375
1949534375.0 0.9212646484375 1.0947265625
1980756250.0 1.37774658203125 0.375
2011978125.0 1.36517333984375 -0.52947998046875
2043200000.0 0.75543212890625 -1.2630615234375
2074421875.0 -0.1534423828125 -1.43743896484375
2105643750.0 -0.95989990234375 -1.07757568359375
2136865625.0 -1.450439453125 -0.3095703125
2168087500.0 -1.362548828125 0.6689453125
2199309375.0 -0.64434814453125 1.35369873046875
2230531250.0 0.2791748046875 1.44073486328125
2261753125.0 1.0732421875 1.0191650390625
2292975000.0 1.51788330078125 0.1744384765625
2324196875.0 1.31103515625 -0.81756591796875
2355418750.0 0.53021240234375 -1.4222412109375
2386640625.0 -0.40179443359375 -1.45379638671875
2417862500.0 -1.1829833984375 -1.02972412109375
2449084375.0 -1.60894775390625 -0.08807373046875
2480306250.0 -1.31732177734375 0.926513671875
2511528125.0 -0.498291015625 1.51190185546875
2542750000.0 0.48834228515625 1.5426025390625
2573971875.0 1.373046875 0.97479248046875
2605193750.0 1.7230224609375 -0.109130859375
2636415625.0 1.2677001953125 -1.15313720703125
2667637500.0 0.3114013671875 -1.67095947265625
2698859375.0 -0.7679443359375 -1.54022216796875
2730081250.0 -1.5777587890625 -0.74578857421875
2761303125.0 -1.68756103515625 0.3853759765625
2792525000.0 -1.10552978515625 1.3094482421875
2823746875.0 -0.1060791015625 1.73419189453125
2854968750.0 1.01324462890625 1.4627685546875
2886190625.0 1.696044921875 0.4969482421875
2917412500.0 1.6065673828125 -0.6160888671875
2948634375.0 0.9453125 -1.43572998046875
2979856250.0 -0.1043701171875 -1.78155517578125
3011078125.0 -1.24884033203125 -1.3489990234375
3042300000.0 -1.779541015625 -0.2392578125
3073521875.0 -1.51544189453125 0.838134765625
3104743750.0 -0.76898193359375 1.57098388671875
3135965625.0 0.3585205078125 1.81573486328125
3167187500.0 1.502685546875 1.17083740234375
3198409375.0 1.8214111328125 -0.07147216796875
3229631250.0 1.35528564453125 -1.08160400390625
3260853125.0 0.49468994140625 -1.6722412109375
3292075000.0 -0.65240478515625 -1.7047119140625
3323296875.0 -1.622802734375 -0.8853759765625
3354518750.0 -1.73638916015625 0.32659912109375
3385740625.0 -1.16192626953125 1.23321533203125
3416962500.0 -0.2357177734375 1.68585205078125
3448184375.0 0.85919189453125 1.52838134765625
3479406250.0 1.63946533203125 0.64984130859375
3510628125.0 1.64984130859375 -0.492919921875
3541850000.0 1.00616455078125 -1.35845947265625
3573071875.0 -0.00390625 -1.6864013671875
3604293750.0 -1.028564453125 -1.3428955078125
3635515625.0 -1.631103515625 -0.4437255859375
3666737500.0 -1.5672607421875 0.6451416015625
3697959375.0 -0.8310546875 1.47772216796875
3729181250.0 0.26434326171875 1.634765625
3760403125.0 1.15289306640625 1.10382080078125
3791625000.0 1.5562744140625 0.2222900390625
3822846875.0 1.407470703125 -0.75909423828125
3854068750.0 0.62579345703125 -1.48406982421875
3885290625.0 -0.41998291015625 -1.48638916015625
3916512500.0 -1.14337158203125 -0.9156494140625
3947734375.0 -1.45208740234375 -0.1234130859375
3978956250.0 -1.302978515625 0.779296875
4010178125.0 -0.53533935546875 1.45855712890625
4041400000.0 0.47332763671875 1.4197998046875
4072621875.0 1.1534423828125 0.85137939453125
4103843750.0 1.44854736328125 0.06561279296875
4135065625.0 1.2725830078125 -0.8455810546875
4166287500.0 0.46044921875 -1.4998779296875
4197509375.0 -0.5572509765625 -1.41925048828125
4228731250.0 -1.24951171875 -0.80572509765625
4259953125.0 -1.51312255859375 0.067626953125
4291175000.0 -1.193115234375 1.009521484375
4322396875.0 -0.2930908203125 1.52972412109375
4353618750.0 0.6724853515625 1.3548583984375
4384840625.0 1.3245849609375 0.70111083984375
4416062500.0 1.505126953125 -0.22528076171875
4447284375.0 1.0594482421875 -1.1058349609375
4478506250.0 0.17498779296875 -1.49932861328125
4509728125.0 -0.733154296875 -1.31256103515625
4540950000.0 -1.39630126953125 -0.6397705078125
4572171875.0 -1.52716064453125 0.35906982421875
4603393750.0 -0.976318359375 1.21405029296875
4634615625.0 -0.0628662109375 1.54107666015625
4665837500.0 0.870849609375 1.309326171875
4697059375.0 1.5460205078125 0.51861572265625
4728281250.0 1.53436279296875 -0.5826416015625
4759503125.0 0.826416015625 -1.37091064453125
4790725000.0 -0.14361572265625 -1.5765380859375
4821946875.0 -1.0850830078125 -1.1988525390625
4853168750.0 -1.61688232421875 -0.2545166015625
4884390625.0 -1.38262939453125 0.79315185546875
4915612500.0 -0.6173095703125 1.4136962890625
4946834375.0 0.3272705078125 1.51385498046875
4978056250.0 1.206787109375 1.0216064453125
5009278125.0 1.566650390625 0.041259765625
5040500000.0 1.23388671875 -0.8768310546875
5071721875.0 0.50506591796875 -1.41778564453125
5102943750.0 -0.44677734375 -1.50238037109375
5134165625.0 -1.3389892578125 -0.90924072265625
5165387500.0 -1.57244873046875 0.14483642578125
5196609375.0 -1.1395263671875 1.0108642578125
5227831250.0 -0.359619140625 1.50994873046875
5259053125.0 0.68896484375 1.497314453125
5290275000.0 1.5257568359375 0.66583251953125
5321496875.0 1.496826171875 -0.43072509765625
5352718750.0 0.925537109375 -1.15362548828125
5383940625.0 0.099365234375 -1.50396728515625
5415162500.0 -0.90252685546875 -1.2889404296875
5446384375.0 -1.4874267578125 -0.3740234375
5477606250.0 -1.303466796875 0.56561279296875
5508828125.0 -0.73492431640625 1.15399169921875
5540050000.0 0.05181884765625 1.40228271484375
5571271875.0 0.9405517578125 1.11273193359375
5602493750.0 1.4129638671875 0.26171875
5633715625.0 1.23626708984375 -0.6119384765625
5664937500.0 0.65130615234375 -1.2041015625
5696159375.0 -0.19610595703125 -1.3875732421875
5727381250.0 -1.02410888671875 -0.98199462890625
5758603125.0 -1.39459228515625 -0.1468505859375
5789825000.0 -1.19842529296875 0.71942138671875
5821046875.0 -0.50860595703125 1.310546875
5852268750.0 0.41162109375 1.316650390625
5883490625.0 1.07421875 0.77459716796875
5914712500.0 1.30615234375 0.0216064453125
5945934375.0 1.10052490234375 -0.77764892578125
5977156250.0 0.363037109375 -1.3154296875
6008378125.0 -0.51153564453125 -1.18609619140625
6039600000.0 -1.0230712890625 -0.6512451171875
6070821875.0 -1.227294921875 -0.00592041015625
6102043750.0 -1.087158203125 0.76385498046875
6133265625.0 -0.3436279296875 1.34912109375
6164487500.0 0.563720703125 1.190673828125
6195709375.0 1.07379150390625 0.63189697265625
6226931250.0 1.283447265625 -0.0411376953125
6258153125.0 1.1085205078125 -0.8746337890625
6289375000.0 0.25677490234375 -1.4503173828125
6320596875.0 -0.69085693359375 -1.20892333984375
6351818750.0 -1.20184326171875 -0.57373046875
6383040625.0 -1.35882568359375 0.20745849609375
6414262500.0 -1.002685546875 1.05914306640625
6445484375.0 -0.07867431640625 1.46124267578125
6476706250.0 0.79718017578125 1.150634765625
6507928125.0 1.29315185546875 0.471923828125
6539150000.0 1.350830078125 -0.38671875
6570371875.0 0.84423828125 -1.145751953125
6601593750.0 -0.0157470703125 -1.407958984375
6632815625.0 -0.84088134765625 -1.1400146484375
6664037500.0 -1.404296875 -0.422119140625
6695259375.0 -1.37811279296875 0.5679931640625
6726481250.0 -0.71270751953125 1.253662109375
6757703125.0 0.13043212890625 1.41107177734375
6788925000.0 0.9576416015625 1.13458251953125
6820146875.0 1.5648193359375 0.2890625
6851368750.0 1.32940673828125 -0.8204345703125
6882590625.0 0.50830078125 -1.341796875
6913812500.0 -0.29168701171875 -1.359375
6945034375.0 -1.07183837890625 -1.02471923828125
6976256250.0 -1.59808349609375 -0.09295654296875
7007478125.0 -1.24066162109375 0.93603515625
7038700000.0 -0.40380859375 1.34552001953125
7069921875.0 0.35906982421875 1.32781982421875
7101143750.0 1.12060546875 0.97314453125
7132365625.0 1.6055908203125 0.01495361328125
7163587500.0 1.1612548828125 -1.02227783203125
7194809375.0 0.3040771484375 -1.4014892578125
7226031250.0 -0.51312255859375 -1.330810546875
7257253125.0 -1.2720947265625 -0.82647705078125
7288475000.0 -1.56365966796875 0.1998291015625
7319696875.0 -1.03363037109375 1.11187744140625
7350918750.0 -0.16650390625 1.4515380859375
7382140625.0 0.71966552734375 1.28125
7413362500.0 1.38006591796875 0.5789794921875
7444584375.0 1.41595458984375 -0.40771484375
7475806250.0 0.8604736328125 -1.14923095703125
7507028125.0 0.00537109375 -1.4354248046875
7538250000.0 -0.8897705078125 -1.12811279296875
7569471875.0 -1.33935546875 -0.31121826171875
7600693750.0 -1.2061767578125 0.49871826171875
7631915625.0 -0.720947265625 1.08734130859375
7663137500.0 0.08087158203125 1.36358642578125
7694359375.0 0.9422607421875 0.985504150390625
7725581250.0 1.24749755859375 0.18267822265625
7756803125.0 1.0867919921875 -0.50048828125
7788025000.0 0.67364501953125 -1.04742431640625
7819246875.0 -0.12060546875 -1.35101318359375
7850468750.0 -0.9979248046875 -0.919189453125
7881690625.0 -1.23565673828125 -0.10565185546875
7912912500.0 -1.057861328125 0.554443359375
7944134375.0 -0.60736083984375 1.1168212890625
7975356250.0 0.27276611328125 1.34002685546875
8006578125.0 1.0511474609375 0.780517578125
8037800000.0 1.1961669921875 0.01702880859375
8069021875.0 1.01080322265625 -0.61895751953125
8100243750.0 0.50244140625 -1.16522216796875
8131465625.0 -0.38995361328125 -1.25726318359375
8162687500.0 -1.03497314453125 -0.68853759765625
8193909375.0 -1.1839599609375 0.00677490234375
8225131250.0 -1.0216064453125 0.680419921875
8256353125.0 -0.42291259765625 1.25286865234375
8287575000.0 0.5037841796875 1.23040771484375
8318796875.0 1.08599853515625 0.6373291015625
8350018750.0 1.250244140625 -0.07623291015625
8381240625.0 1.03497314453125 -0.84259033203125
8412462500.0 0.25494384765625 -1.37884521484375
8443684375.0 -0.6715087890625 -1.17315673828125
8474906250.0 -1.178466796875 -0.53338623046875
8506128125.0 -1.3018798828125 0.23773193359375
8537350000.0 -0.926513671875 1.05010986328125
8568571875.0 -0.01513671875 1.3994140625
8599793750.0 0.80499267578125 1.05633544921875
8631015625.0 1.24542236328125 0.40032958984375
8662237500.0 1.28973388671875 -0.43060302734375
8693459375.0 0.73919677734375 -1.17938232421875
8724681250.0 -0.1612548828125 -1.3350830078125
8755903125.0 -0.88421630859375 -0.960784912109375
8787125000.0 -1.3087158203125 -0.2838134765625
8818346875.0 -1.25634765625 0.61822509765625
8849568750.0 -0.5584716796875 1.2647705078125
8880790625.0 0.299560546875 1.28887939453125
8912012500.0 0.98590087890625 0.896087646484375
8943234375.0 1.40625 0.1285400390625
8974456250.0 1.17071533203125 -0.8446044921875
9005678125.0 0.34814453125 -1.3182373046875
9036900000.0 -0.44744873046875 -1.2279052734375
9068121875.0 -1.10528564453125 -0.78759765625
9099343750.0 -1.44451904296875 0.09869384765625
9130565625.0 -0.981201171875 1.017333984375
9161787500.0 -0.15423583984375 1.284423828125
9193009375.0 0.55633544921875 1.13677978515625
9224231250.0 1.18267822265625 0.6571044921875
9255453125.0 1.4041748046875 -0.29571533203125
9286675000.0 0.8096923828125 -1.089111328125
9317896875.0 0.0277099609375 -1.2503662109375
9349118750.0 -0.65667724609375 -1.07464599609375
9380340625.0 -1.26416015625 -0.5118408203125
9411562500.0 -1.31634521484375 0.48052978515625
9442784375.0 -0.648681640625 1.1217041015625
9474006250.0 0.09063720703125 1.2161865234375
9505228125.0 0.7681884765625 0.983062744140625
9536450000.0 1.2791748046875 0.31231689453125
9567671875.0 1.14727783203125 -0.581787109375
9598893750.0 0.53021240234375 -1.07171630859375
9630115625.0 -0.1436767578125 -1.16107177734375
9661337500.0 -0.82232666015625 -0.904937744140625
9692559375.0 -1.241943359375 -0.18988037109375
9723781250.0 -1.0460205078125 0.60406494140625
9755003125.0 -0.4866943359375 1.054443359375
9786225000.0 0.19921875 1.16278076171875
9817446875.0 0.898162841796875 0.829925537109375
9848668750.0 1.2017822265625 0.07879638671875
9879890625.0 0.97210693359375 -0.6185302734375
9911112500.0 0.453857421875 -1.05548095703125
9942334375.0 -0.27008056640625 -1.163818359375
9973556250.0 -0.94940185546875 -0.739501953125
10004778125.0 -1.15087890625 -0.0146484375
10036000000.0 -0.9471435546875 0.62091064453125
10067221875.0 -0.4427490234375 1.10113525390625
10098443750.0 0.37359619140625 1.18505859375
10129665625.0 1.0068359375 0.6431884765625
10160887500.0 1.12408447265625 -0.05499267578125
10192109375.0 0.919830322265625 -0.66729736328125
10223331250.0 0.3616943359375 -1.155517578125
10254553125.0 -0.490478515625 -1.11651611328125
10285775000.0 -0.9893798828125 -0.535064697265625
10316996875.0 -1.06976318359375 0.076904296875
10348218750.0 -0.9024658203125 0.673431396484375
10379440625.0 -0.3218994140625 1.1800537109375
10410662500.0 0.53125 1.0888671875
10441884375.0 0.995880126953125 0.522613525390625
10473106250.0 1.112060546875 -0.08489990234375
10504328125.0 0.952880859375 -0.76123046875
10535550000.0 0.23822021484375 -1.29888916015625
10566771875.0 -0.66064453125 -1.07904052734375
10597993750.0 -1.0838623046875 -0.45916748046875
10629215625.0 -1.17889404296875 0.2069091796875
10660437500.0 -0.889892578125 0.956298828125
10691659375.0 -0.00775146484375 1.34027099609375
10722881250.0 0.789215087890625 0.953338623046875
10754103125.0 1.123779296875 0.3240966796875
10785325000.0 1.14227294921875 -0.36883544921875
10816546875.0 0.70123291015625 -1.05499267578125
10847768750.0 -0.1453857421875 -1.2314453125
10878990625.0 -0.806396484375 -0.84527587890625
10910212500.0 -1.1273193359375 -0.2449951171875
10941434375.0 -1.10162353515625 0.48095703125
10972656250.0 -0.56878662109375 1.090576171875
11003878125.0 0.21942138671875 1.17730712890625
11035100000.0 0.850494384765625 0.824310302734375
11066321875.0 1.22576904296875 0.1741943359375
11097543750.0 1.101318359375 -0.6802978515625
11128765625.0 0.38525390625 -1.20379638671875
11159987500.0 -0.3983154296875 -1.14306640625
11191209375.0 -1.00555419921875 -0.70440673828125
11222431250.0 -1.27728271484375 0.09552001953125
11253653125.0 -0.8599853515625 0.900299072265625
11284875000.0 -0.11431884765625 1.1302490234375
11316096875.0 0.514068603515625 0.9593505859375
11347318750.0 1.0081787109375 0.50250244140625
11378540625.0 1.11993408203125 -0.2716064453125
11409762500.0 0.6357421875 -0.863739013671875
11440984375.0 0.034515380859375 -0.982879638671875
11472206250.0 -0.48394775390625 -0.853363037109375
11503428125.0 -0.95782470703125 -0.456878662109375
11534650000.0 -1.07135009765625 0.28973388671875
11565871875.0 -0.602783203125 0.85797119140625
11597093750.0 -0.01800537109375 0.994903564453125
11628315625.0 0.5474853515625 0.87799072265625
11659537500.0 1.0667724609375 0.39178466796875
11690759375.0 1.06768798828125 -0.4368896484375
11721981250.0 0.51715087890625 -0.9434814453125
11753203125.0 -0.10736083984375 -1.040771484375
11784425000.0 -0.7279052734375 -0.810638427734375
11815646875.0 -1.10479736328125 -0.149169921875
11846868750.0 -0.89300537109375 0.55389404296875
11878090625.0 -0.3907470703125 0.914306640625
11909312500.0 0.18939208984375 0.988494873046875
11940534375.0 0.785400390625 0.6966552734375
11971756250.0 1.02850341796875 0.03662109375
12002978125.0 0.808258056640625 -0.540802001953125
12034200000.0 0.381591796875 -0.89276123046875
12065421875.0 -0.21832275390625 -1.01312255859375
12096643750.0 -0.852630615234375 -0.66510009765625
12127865625.0 -1.03656005859375 0.01837158203125
12159087500.0 -0.81640625 0.57940673828125
12190309375.0 -0.377532958984375 0.9801025390625
12221531250.0 0.34234619140625 1.09014892578125
12252753125.0 0.983245849609375 0.5804443359375
12283975000.0 1.05670166015625 -0.1298828125
12315196875.0 0.8017578125 -0.678955078125
12346418750.0 0.2808837890625 -1.09576416015625
12377640625.0 -0.54473876953125 -1.0635986328125
12408862500.0 -1.0386962890625 -0.41876220703125
12440084375.0 -1.010986328125 0.22607421875
12471306250.0 -0.743988037109375 0.739837646484375
12502528125.0 -0.17840576171875 1.12335205078125
12533750000.0 0.62518310546875 0.996826171875
12564971875.0 1.044189453125 0.36328125
12596193750.0 1.03131103515625 -0.26629638671875
12627415625.0 0.750274658203125 -0.835784912109375
12658637500.0 0.0771484375 -1.21246337890625
12689859375.0 -0.738433837890625 -0.967803955078125
12721081250.0 -1.12249755859375 -0.30511474609375
12752303125.0 -1.1009521484375 0.3853759765625
12783525000.0 -0.6881103515625 1.03240966796875
12814746875.0 0.16912841796875 1.25482177734375
12845968750.0 0.868133544921875 0.81201171875
12877190625.0 1.12164306640625 0.17071533203125
12908412500.0 1.0594482421875 -0.50732421875
12939634375.0 0.5411376953125 -1.12298583984375
12970856250.0 -0.326171875 -1.17779541015625
13002078125.0 -0.898529052734375 -0.69281005859375
13033300000.0 -1.10955810546875 -0.085205078125
13064521875.0 -1.01220703125 0.59918212890625
13095743750.0 -0.41741943359375 1.1605224609375
13126965625.0 0.41278076171875 1.12261962890625
13158187500.0 0.950897216796875 0.63238525390625
13189409375.0 1.15289306640625 -0.02227783203125
13220631250.0 0.938720703125 -0.75469970703125
13251853125.0 0.2310791015625 -1.1778564453125
13283075000.0 -0.51226806640625 -1.02203369140625
13314296875.0 -0.992919921875 -0.528839111328125
13345518750.0 -1.14007568359375 0.1817626953125
13376740625.0 -0.753326416015625 0.862823486328125
