!Created with skrf (http://scikit-rf.org).
# Hz S RI R 50.0 
!freq ReS11 ImS11
45000000.0 -0.07677841186523438 -0.09703445434570312
76221875.0 -0.19696807861328125 -0.04802703857421875
107443750.0 -0.256011962890625 0.119384765625
138665625.0 -0.1492156982421875 0.3291473388671875
169887500.0 0.1226654052734375 0.418701171875
201109375.0 0.4222869873046875 0.2828216552734375
232331250.0 0.580596923828125 -0.056121826171875
263553125.0 0.4919281005859375 -0.4525909423828125
294775000.0 0.100555419921875 -0.73443603515625
325996875.0 -0.41497802734375 -0.683837890625
357218750.0 -0.808380126953125 -0.29998779296875
388440625.0 -0.889434814453125 0.299652099609375
419662500.0 -0.520751953125 0.86749267578125
450884375.0 0.17083740234375 1.03216552734375
482106250.0 0.799102783203125 0.716796875
513328125.0 1.1224365234375 0.09002685546875
544550000.0 1.0078125 -0.67913818359375
575771875.0 0.3402099609375 -1.240234375
606993750.0 -0.55206298828125 -1.18133544921875
638215625.0 -1.16729736328125 -0.5948486328125
669437500.0 -1.343994140625 0.2310791015625
700659375.0 -0.9755859375 1.09661865234375
731881250.0 -0.00787353515625 1.546630859375
763103125.0 1.00506591796875 1.16168212890625
794325000.0 1.47210693359375 0.28631591796875
825546875.0 1.37255859375 -0.64996337890625
856768750.0 0.79962158203125 -1.4029541015625
887990625.0 -0.29010009765625 -1.65362548828125
919212500.0 -1.2896728515625 -1.08526611328125
950434375.0 -1.65447998046875 -0.06292724609375
981656250.0 -1.3892822265625 0.9462890625
1012878125.0 -0.5352783203125 1.67669677734375
1044100000.0 0.69580078125 1.66888427734375
1075321875.0 1.57818603515625 0.8182373046875
1106543750.0 1.71136474609375 -0.3099365234375
1137765625.0 1.19329833984375 -1.285888671875
1168987500.0 0.1431884765625 -1.8021240234375
1200209375.0 -1.06182861328125 -1.49090576171875
1231431250.0 -1.73199462890625 -0.45880126953125
1262653125.0 -1.5997314453125 0.68292236328125
1293875000.0 -0.85760498046875 1.49395751953125
1325096875.0 0.22479248046875 1.71234130859375
1356318750.0 1.23614501953125 1.22344970703125
1387540625.0 1.744873046875 0.193115234375
1418762500.0 1.47607421875 -0.9510498046875
1449984375.0 0.53466796875 -1.629638671875
1481206250.0 -0.548095703125 -1.56182861328125
1512428125.0 -1.34466552734375 -0.92510986328125
1543650000.0 -1.66046142578125 0.0616455078125
1574871875.0 -1.27935791015625 1.10968017578125
1606093750.0 -0.27691650390625 1.63519287109375
1637315625.0 0.741455078125 1.406005859375
1668537500.0 1.39813232421875 0.70086669921875
1699759375.0 1.57763671875 -0.2742919921875
1730981250.0 1.0693359375 -1.2303466796875
1762203125.0 0.0457763671875 -1.5743408203125
1793425000.0 -0.855712890625 -1.23126220703125
1824646875.0 -1.39581298828125 -0.51947021484375
1855868750.0 -1.4788818359375 0.43017578125
1887090625.0 -0.8802490234375 1.28717041015625
1918312500.0 0.1146240234375 1.4910888671875
1949534375.0 0.92205810546875 1.0941162109375
1980756250.0 1.37811279296875 0.373779296875
2011978125.0 1.36419677734375 -0.52996826171875
2043200000.0 0.75445556640625 -1.2633056640625
2074421875.0 -0.15472412109375 -1.43719482421875
2105643750.0 -0.96075439453125 -1.07696533203125
2136865625.0 -1.45062255859375 -0.3082275390625
2168087500.0 -1.36199951171875 0.67010498046875
2199309375.0 -0.6431884765625 1.35394287109375
2230531250.0 0.28021240234375 1.4407958984375
2261753125.0 1.07379150390625 1.018310546875
2292975000.0 1.51800537109375 0.173095703125
2324196875.0 1.31024169921875 -0.81842041015625
2355418750.0 0.52886962890625 -1.422119140625
2386640625.0 -0.4029541015625 -1.4530029296875
2417862500.0 -1.18328857421875 -1.02880859375
2449084375.0 -1.60858154296875 -0.08660888671875
2480306250.0 -1.3165283203125 0.925537109375
2511528125.0 -0.49749755859375 1.5106201171875
2542750000.0 0.4876708984375 1.54132080078125
2573971875.0 1.3736572265625 0.97283935546875
2605193750.0 1.72149658203125 -0.10955810546875
2636415625.0 1.26690673828125 -1.15374755859375
2667637500.0 0.3092041015625 -1.6722412109375
2698859375.0 -0.77001953125 -1.5400390625
2730081250.0 -1.57659912109375 -0.74462890625
2761303125.0 -1.6866455078125 0.386474609375
2792525000.0 -1.10467529296875 1.3096923828125
2823746875.0 -0.1051025390625 1.73406982421875
2854968750.0 1.01318359375 1.4610595703125
2886190625.0 1.69732666015625 0.49517822265625
2917412500.0 1.60540771484375 -0.61712646484375
2948634375.0 0.9444580078125 -1.43524169921875
2979856250.0 -0.1058349609375 -1.7811279296875
3011078125.0 -1.249755859375 -1.34759521484375
3042300000.0 -1.77899169921875 -0.2376708984375
3073521875.0 -1.51422119140625 0.83966064453125
3104743750.0 -0.76715087890625 1.57122802734375
3135965625.0 0.360595703125 1.8148193359375
3167187500.0 1.50238037109375 1.16949462890625
3198409375.0 1.82000732421875 -0.07281494140625
3229631250.0 1.3544921875 -1.0831298828125
3260853125.0 0.49273681640625 -1.67279052734375
3292075000.0 -0.6549072265625 -1.70343017578125
3323296875.0 -1.62249755859375 -0.8839111328125
3354518750.0 -1.73638916015625 0.32818603515625
3385740625.0 -1.1600341796875 1.23455810546875
3416962500.0 -0.23443603515625 1.68597412109375
3448184375.0 0.86126708984375 1.526611328125
3479406250.0 1.63946533203125 0.64862060546875
3510628125.0 1.649169921875 -0.494384765625
3541850000.0 1.00439453125 -1.3575439453125
3573071875.0 -0.006591796875 -1.6875
3604293750.0 -1.029052734375 -1.3419189453125
3635515625.0 -1.6297607421875 -0.4422607421875
3666737500.0 -1.5667724609375 0.64666748046875
3697959375.0 -0.8291015625 1.4786376953125
3729181250.0 0.26678466796875 1.63482666015625
3760403125.0 1.155029296875 1.10235595703125
3791625000.0 1.55615234375 0.2205810546875
3822846875.0 1.40692138671875 -0.7611083984375
3854068750.0 0.6241455078125 -1.48443603515625
3885290625.0 -0.4215087890625 -1.48583984375
3916512500.0 -1.14459228515625 -0.91473388671875
3947734375.0 -1.45111083984375 -0.1219482421875
3978956250.0 -1.30230712890625 0.78009033203125
4010178125.0 -0.53387451171875 1.45892333984375
4041400000.0 0.47454833984375 1.4195556640625
4072621875.0 1.154296875 0.8502197265625
4103843750.0 1.448486328125 0.06451416015625
4135065625.0 1.27130126953125 -0.84637451171875
4166287500.0 0.4595947265625 -1.49945068359375
4197509375.0 -0.5576171875 -1.417724609375
4228731250.0 -1.2496337890625 -0.80517578125
4259953125.0 -1.51318359375 0.07037353515625
4291175000.0 -1.19189453125 1.01080322265625
4322396875.0 -0.29107666015625 1.530029296875
4353618750.0 0.67376708984375 1.35406494140625
4384840625.0 1.32489013671875 0.69964599609375
4416062500.0 1.50482177734375 -0.22686767578125
4447284375.0 1.05841064453125 -1.10662841796875
4478506250.0 0.17340087890625 -1.499755859375
4509728125.0 -0.7337646484375 -1.31103515625
4540950000.0 -1.3975830078125 -0.6380615234375
4572171875.0 -1.52587890625 0.35968017578125
4603393750.0 -0.9749755859375 1.21533203125
4634615625.0 -0.0621337890625 1.540283203125
4665837500.0 0.87188720703125 1.30755615234375
4697059375.0 1.54486083984375 0.51739501953125
4728281250.0 1.532470703125 -0.5831298828125
4759503125.0 0.8255615234375 -1.37115478515625
4790725000.0 -0.14520263671875 -1.57672119140625
4821946875.0 -1.08551025390625 -1.197265625
4853168750.0 -1.61663818359375 -0.25213623046875
4884390625.0 -1.38189697265625 0.7939453125
4915612500.0 -0.6151123046875 1.4151611328125
4946834375.0 0.328857421875 1.512939453125
4978056250.0 1.2081298828125 1.02032470703125
5009278125.0 1.56658935546875 0.0401611328125
5040500000.0 1.2327880859375 -0.87750244140625
5071721875.0 0.5037841796875 -1.41864013671875
5102943750.0 -0.44683837890625 -1.50103759765625
5134165625.0 -1.3392333984375 -0.907958984375
5165387500.0 -1.57196044921875 0.146728515625
5196609375.0 -1.13897705078125 1.0123291015625
5227831250.0 -0.3585205078125 1.51019287109375
5259053125.0 0.68939208984375 1.49554443359375
5290275000.0 1.52520751953125 0.66436767578125
5321496875.0 1.4957275390625 -0.4307861328125
5352718750.0 0.92388916015625 -1.1553955078125
5383940625.0 0.09747314453125 -1.50390625
5415162500.0 -0.90191650390625 -1.28753662109375
5446384375.0 -1.48858642578125 -0.3712158203125
5477606250.0 -1.30255126953125 0.56732177734375
5508828125.0 -0.7337646484375 1.15338134765625
5540050000.0 0.0531005859375 1.40203857421875
5571271875.0 0.94134521484375 1.1119384765625
5602493750.0 1.41241455078125 0.26068115234375
5633715625.0 1.2357177734375 -0.61444091796875
5664937500.0 0.6495361328125 -1.20587158203125
5696159375.0 -0.19793701171875 -1.3875732421875
5727381250.0 -1.0250244140625 -0.9803466796875
5758603125.0 -1.395751953125 -0.1448974609375
5789825000.0 -1.19744873046875 0.7205810546875
5821046875.0 -0.50714111328125 1.3109130859375
5852268750.0 0.413330078125 1.31622314453125
5883490625.0 1.07421875 0.773681640625
5914712500.0 1.30560302734375 0.0203857421875
5945934375.0 1.09954833984375 -0.77825927734375
5977156250.0 0.3614501953125 -1.316162109375
6008378125.0 -0.51092529296875 -1.18450927734375
6039600000.0 -1.023681640625 -0.6505126953125
6070821875.0 -1.22747802734375 -0.004150390625
6102043750.0 -1.08642578125 0.76580810546875
6133265625.0 -0.34149169921875 1.34967041015625
6164487500.0 0.56573486328125 1.19012451171875
6195709375.0 1.07464599609375 0.6309814453125
6226931250.0 1.28302001953125 -0.0426025390625
6258153125.0 1.107177734375 -0.87384033203125
6289375000.0 0.25543212890625 -1.44964599609375
6320596875.0 -0.69219970703125 -1.2080078125
6351818750.0 -1.2027587890625 -0.57244873046875
6383040625.0 -1.35723876953125 0.2076416015625
6414262500.0 -1.00164794921875 1.0601806640625
6445484375.0 -0.07708740234375 1.461181640625
6476706250.0 0.798583984375 1.150390625
6507928125.0 1.29339599609375 0.47039794921875
6539150000.0 1.35003662109375 -0.38677978515625
6570371875.0 0.843017578125 -1.147216796875
6601593750.0 -0.01837158203125 -1.40948486328125
6632815625.0 -0.84246826171875 -1.138916015625
6664037500.0 -1.40496826171875 -0.4207763671875
6695259375.0 -1.37677001953125 0.56878662109375
6726481250.0 -0.71063232421875 1.25634765625
6757703125.0 0.13201904296875 1.4102783203125
6788925000.0 0.95758056640625 1.13348388671875
6820146875.0 1.56561279296875 0.2862548828125
6851368750.0 1.32818603515625 -0.8226318359375
6882590625.0 0.50653076171875 -1.34161376953125
6913812500.0 -0.29327392578125 -1.35931396484375
6945034375.0 -1.0738525390625 -1.023681640625
6976256250.0 -1.59698486328125 -0.0914306640625
7007478125.0 -1.239013671875 0.93646240234375
7038700000.0 -0.402587890625 1.34765625
7069921875.0 0.36102294921875 1.3275146484375
7101143750.0 1.12261962890625 0.9713134765625
7132365625.0 1.6048583984375 0.01287841796875
7163587500.0 1.159912109375 -1.02490234375
7194809375.0 0.3028564453125 -1.4010009765625
7226031250.0 -0.51495361328125 -1.32977294921875
7257253125.0 -1.27178955078125 -0.826171875
7288475000.0 -1.56451416015625 0.2025146484375
7319696875.0 -1.031494140625 1.11395263671875
7350918750.0 -0.1639404296875 1.44903564453125
7382140625.0 0.71954345703125 1.279541015625
7413362500.0 1.38116455078125 0.57598876953125
7444584375.0 1.41534423828125 -0.40997314453125
7475806250.0 0.85955810546875 -1.147705078125
7507028125.0 0.00396728515625 -1.4334716796875
7538250000.0 -0.89068603515625 -1.12548828125
7569471875.0 -1.33905029296875 -0.3111572265625
7600693750.0 -1.20440673828125 0.49896240234375
7631915625.0 -0.72027587890625 1.0869140625
7663137500.0 0.081298828125 1.36212158203125
7694359375.0 0.94512939453125 0.98358154296875
7725581250.0 1.2481689453125 0.17999267578125
7756803125.0 1.08642578125 -0.50152587890625
7788025000.0 0.671875 -1.0499267578125
7819246875.0 -0.12176513671875 -1.3525390625
7850468750.0 -0.996612548828125 -0.91754150390625
7881690625.0 -1.23583984375 -0.1043701171875
7912912500.0 -1.0574951171875 0.558837890625
7944134375.0 -0.6055908203125 1.11700439453125
7975356250.0 0.27667236328125 1.3388671875
8006578125.0 1.05078125 0.77874755859375
8037800000.0 1.19854736328125 0.013916015625
8069021875.0 1.009033203125 -0.62017822265625
8100243750.0 0.49932861328125 -1.16729736328125
8131465625.0 -0.3905029296875 -1.25677490234375
8162687500.0 -1.03607177734375 -0.68670654296875
8193909375.0 -1.18353271484375 0.00860595703125
8225131250.0 -1.0216064453125 0.68084716796875
8256353125.0 -0.42034912109375 1.2562255859375
8287575000.0 0.50384521484375 1.22894287109375
8318796875.0 1.0858154296875 0.63665771484375
8350018750.0 1.24755859375 -0.07452392578125
8381240625.0 1.03411865234375 -0.8441162109375
8412462500.0 0.25262451171875 -1.37835693359375
8443684375.0 -0.67315673828125 -1.17193603515625
8474906250.0 -1.1796875 -0.531494140625
8506128125.0 -1.3013916015625 0.2393798828125
8537350000.0 -0.92523193359375 1.051513671875
8568571875.0 -0.0135498046875 1.3984375
8599793750.0 0.80621337890625 1.0557861328125
8631015625.0 1.24542236328125 0.39801025390625
8662237500.0 1.28857421875 -0.4310302734375
8693459375.0 0.73699951171875 -1.18243408203125
8724681250.0 -0.1630859375 -1.3358154296875
8755903125.0 -0.8837890625 -0.95928955078125
8787125000.0 -1.309814453125 -0.2808837890625
8818346875.0 -1.25482177734375 0.61883544921875
8849568750.0 -0.5556640625 1.267578125
8880790625.0 0.30224609375 1.29083251953125
8912012500.0 0.984161376953125 0.894256591796875
8943234375.0 1.40771484375 0.12530517578125
8974456250.0 1.16888427734375 -0.84619140625
9005678125.0 0.347900390625 -1.31689453125
9036900000.0 -0.450439453125 -1.2279052734375
9068121875.0 -1.10845947265625 -0.786376953125
9099343750.0 -1.44586181640625 0.1016845703125
9130565625.0 -0.97918701171875 1.01483154296875
9161787500.0 -0.1519775390625 1.2861328125
9193009375.0 0.5577392578125 1.13592529296875
9224231250.0 1.1824951171875 0.65606689453125
9255453125.0 1.40374755859375 -0.29864501953125
9286675000.0 0.8077392578125 -1.0897216796875
9317896875.0 0.02557373046875 -1.25042724609375
9349118750.0 -0.658203125 -1.0731201171875
9380340625.0 -1.2628173828125 -0.51031494140625
9411562500.0 -1.31524658203125 0.48236083984375
9442784375.0 -0.64825439453125 1.1219482421875
9474006250.0 0.09112548828125 1.21453857421875
9505228125.0 0.7694091796875 0.982025146484375
9536450000.0 1.28155517578125 0.309814453125
9567671875.0 1.1461181640625 -0.58441162109375
9598893750.0 0.52899169921875 -1.0743408203125
9630115625.0 -0.14715576171875 -1.16241455078125
9661337500.0 -0.82281494140625 -0.9039306640625
9692559375.0 -1.2430419921875 -0.18701171875
9723781250.0 -1.04400634765625 0.60650634765625
9755003125.0 -0.48614501953125 1.0533447265625
9786225000.0 0.20025634765625 1.16290283203125
9817446875.0 0.898162841796875 0.828033447265625
9848668750.0 1.20233154296875 0.0758056640625
9879890625.0 0.969696044921875 -0.620513916015625
9911112500.0 0.45147705078125 -1.05633544921875
9942334375.0 -0.271484375 -1.1630859375
9973556250.0 -0.94781494140625 -0.737274169921875
10004778125.0 -1.149169921875 -0.01495361328125
10036000000.0 -0.946136474609375 0.62042236328125
10067221875.0 -0.441162109375 1.10247802734375
10098443750.0 0.3758544921875 1.1844482421875
10129665625.0 1.0086669921875 0.64117431640625
10160887500.0 1.122314453125 -0.0552978515625
10192109375.0 0.9185791015625 -0.66693115234375
10223331250.0 0.359130859375 -1.15777587890625
10254553125.0 -0.490234375 -1.1148681640625
10285775000.0 -0.9874267578125 -0.53509521484375
10316996875.0 -1.06976318359375 0.07916259765625
10348218750.0 -0.901458740234375 0.674072265625
10379440625.0 -0.32061767578125 1.18011474609375
10410662500.0 0.53192138671875 1.08746337890625
10441884375.0 0.995880126953125 0.520904541015625
10473106250.0 1.1112060546875 -0.08489990234375
10504328125.0 0.949951171875 -0.7618408203125
10535550000.0 0.236572265625 -1.29931640625
10566771875.0 -0.66400146484375 -1.078369140625
10597993750.0 -1.0843505859375 -0.45794677734375
10629215625.0 -1.17987060546875 0.20941162109375
10660437500.0 -0.887420654296875 0.956817626953125
10691659375.0 -0.0042724609375 1.341796875
10722881250.0 0.789276123046875 0.95245361328125
10754103125.0 1.12353515625 0.3231201171875
10785325000.0 1.1427001953125 -0.372314453125
10816546875.0 0.70037841796875 -1.0557861328125
10847768750.0 -0.15020751953125 -1.23394775390625
10878990625.0 -0.807861328125 -0.843658447265625
10910212500.0 -1.12664794921875 -0.2430419921875
10941434375.0 -1.10040283203125 0.48272705078125
10972656250.0 -0.56787109375 1.09014892578125
11003878125.0 0.2205810546875 1.1771240234375
11035100000.0 0.852813720703125 0.822509765625
11066321875.0 1.22601318359375 0.17181396484375
11097543750.0 1.10052490234375 -0.6817626953125
11128765625.0 0.3828125 -1.2054443359375
11159987500.0 -0.39996337890625 -1.14129638671875
11191209375.0 -1.00433349609375 -0.70343017578125
11222431250.0 -1.27691650390625 0.097412109375
11253653125.0 -0.858551025390625 0.899566650390625
11284875000.0 -0.1119384765625 1.1287841796875
11316096875.0 0.5146484375 0.95892333984375
11347318750.0 1.00836181640625 0.501708984375
11378540625.0 1.11932373046875 -0.27362060546875
11409762500.0 0.633148193359375 -0.8646240234375
11440984375.0 0.034698486328125 -0.980682373046875
11472206250.0 -0.484771728515625 -0.852508544921875
11503428125.0 -0.957855224609375 -0.455810546875
11534650000.0 -1.0711669921875 0.29266357421875
11565871875.0 -0.602081298828125 0.858001708984375
11597093750.0 -0.016510009765625 0.99505615234375
11628315625.0 0.548919677734375 0.8775634765625
11659537500.0 1.06585693359375 0.3905029296875
11690759375.0 1.06597900390625 -0.43792724609375
11721981250.0 0.516021728515625 -0.94390869140625
11753203125.0 -0.10882568359375 -1.0396728515625
11784425000.0 -0.72998046875 -0.810302734375
11815646875.0 -1.10601806640625 -0.1463623046875
11846868750.0 -0.891815185546875 0.556610107421875
11878090625.0 -0.39044189453125 0.912139892578125
11909312500.0 0.1898193359375 0.987548828125
11940534375.0 0.78680419921875 0.6947021484375
11971756250.0 1.02838134765625 0.0355224609375
12002978125.0 0.80767822265625 -0.540863037109375
12034200000.0 0.380035400390625 -0.893524169921875
12065421875.0 -0.2200927734375 -1.013671875
12096643750.0 -0.85333251953125 -0.664215087890625
12127865625.0 -1.03680419921875 0.02056884765625
12159087500.0 -0.8155517578125 0.57794189453125
12190309375.0 -0.375823974609375 0.98065185546875
12221531250.0 0.3463134765625 1.09161376953125
12252753125.0 0.985015869140625 0.5797119140625
12283975000.0 1.05621337890625 -0.131103515625
12315196875.0 0.801025390625 -0.68060302734375
12346418750.0 0.2783203125 -1.09765625
12377640625.0 -0.54473876953125 -1.0611572265625
12408862500.0 -1.03729248046875 -0.4166259765625
12440084375.0 -1.009765625 0.2274169921875
12471306250.0 -0.742034912109375 0.740997314453125
12502528125.0 -0.17730712890625 1.12530517578125
12533750000.0 0.626556396484375 0.99444580078125
12564971875.0 1.0439453125 0.36187744140625
12596193750.0 1.03045654296875 -0.2664794921875
12627415625.0 0.748870849609375 -0.833984375
12658637500.0 0.07525634765625 -1.21160888671875
12689859375.0 -0.741729736328125 -0.966339111328125
12721081250.0 -1.1220703125 -0.302978515625
12752303125.0 -1.1011962890625 0.38909912109375
12783525000.0 -0.685302734375 1.03515625
12814746875.0 0.17120361328125 1.25439453125
12845968750.0 0.870849609375 0.809814453125
12877190625.0 1.12249755859375 0.16864013671875
12908412500.0 1.058349609375 -0.507568359375
12939634375.0 0.5401611328125 -1.1236572265625
12970856250.0 -0.325439453125 -1.17706298828125
13002078125.0 -0.898681640625 -0.6923828125
13033300000.0 -1.1107177734375 -0.08355712890625
13064521875.0 -1.0098876953125 0.60198974609375
13095743750.0 -0.4156494140625 1.1607666015625
13126965625.0 0.41522216796875 1.12164306640625
13158187500.0 0.952117919921875 0.63116455078125
13189409375.0 1.15228271484375 -0.02471923828125
13220631250.0 0.93707275390625 -0.754241943359375
13251853125.0 0.2291259765625 -1.177734375
13283075000.0 -0.51275634765625 -1.02117919921875
13314296875.0 -0.9931640625 -0.527435302734375
13345518750.0 -1.1385498046875 0.18231201171875
