!Created with skrf (http://scikit-rf.org).
# Hz S RI R 50.0 
!freq ReS11 ImS11
45000000.0 -0.07711029052734375 -0.096832275390625
76221875.0 -0.196533203125 -0.0472412109375
107443750.0 -0.2550811767578125 0.120330810546875
138665625.0 -0.14788818359375 0.32891845703125
169887500.0 0.1239013671875 0.4174652099609375
201109375.0 0.422119140625 0.280670166015625
232331250.0 0.579132080078125 -0.05780029296875
263553125.0 0.489471435546875 -0.4533843994140625
294775000.0 0.097808837890625 -0.733123779296875
325996875.0 -0.416107177734375 -0.680450439453125
357218750.0 -0.806854248046875 -0.296600341796875
388440625.0 -0.88592529296875 0.301055908203125
419662500.0 -0.516937255859375 0.8671875
450884375.0 0.17401123046875 1.02874755859375
482106250.0 0.79931640625 0.71246337890625
513328125.0 1.11962890625 0.086669921875
544550000.0 1.00360107421875 -0.68060302734375
575771875.0 0.335693359375 -1.238525390625
606993750.0 -0.55450439453125 -1.1771240234375
638215625.0 -1.1661376953125 -0.5897216796875
669437500.0 -1.33978271484375 0.2344970703125
700659375.0 -0.970458984375 1.09710693359375
731881250.0 -0.0028076171875 1.54315185546875
763103125.0 1.00640869140625 1.1551513671875
794325000.0 1.46905517578125 0.2808837890625
825546875.0 1.3671875 -0.65234375
856768750.0 0.79345703125 -1.4012451171875
887990625.0 -0.293701171875 -1.6483154296875
919212500.0 -1.2890625 -1.07757568359375
950434375.0 -1.64874267578125 -0.05780029296875
981656250.0 -1.38201904296875 0.94696044921875
1012878125.0 -0.52862548828125 1.67193603515625
1044100000.0 0.6978759765625 1.6610107421875
1075321875.0 1.5751953125 0.81085205078125
1106543750.0 1.70458984375 -0.3143310546875
1137765625.0 1.18585205078125 -1.28521728515625
1168987500.0 0.13702392578125 -1.79736328125
1200209375.0 -1.0628662109375 -1.48297119140625
1231431250.0 -1.72711181640625 -0.4522705078125
1262653125.0 -1.59368896484375 0.68603515625
1293875000.0 -0.8507080078125 1.49163818359375
1325096875.0 0.2293701171875 1.7061767578125
1356318750.0 1.235595703125 1.2156982421875
1387540625.0 1.73956298828125 0.18768310546875
1418762500.0 1.46881103515625 -0.95196533203125
1449984375.0 0.5279541015625 -1.626220703125
1481206250.0 -0.550537109375 -1.55560302734375
1512428125.0 -1.34259033203125 -0.91851806640625
1543650000.0 -1.6552734375 0.06646728515625
1574871875.0 -1.27252197265625 1.1102294921875
1606093750.0 -0.27197265625 1.6318359375
1637315625.0 0.74298095703125 1.39971923828125
1668537500.0 1.3963623046875 0.69464111328125
1699759375.0 1.572265625 -0.27789306640625
1730981250.0 1.0628662109375 -1.2293701171875
1762203125.0 0.04119873046875 -1.57000732421875
1793425000.0 -0.85601806640625 -1.22552490234375
1824646875.0 -1.3929443359375 -0.51422119140625
1855868750.0 -1.47320556640625 0.43267822265625
1887090625.0 -0.8743896484375 1.28497314453125
1918312500.0 0.11761474609375 1.4864501953125
1949534375.0 0.9215087890625 1.08831787109375
1980756250.0 1.3751220703125 0.36907958984375
2011978125.0 1.3590087890625 -0.532470703125
2043200000.0 0.7489013671875 -1.26171875
2074421875.0 -0.1578369140625 -1.4327392578125
2105643750.0 -0.96044921875 -1.07159423828125
2136865625.0 -1.4471435546875 -0.30426025390625
2168087500.0 -1.3563232421875 0.6715087890625
2199309375.0 -0.63800048828125 1.35150146484375
2230531250.0 0.282470703125 1.4356689453125
2261753125.0 1.07305908203125 1.01300048828125
2292975000.0 1.51385498046875 0.16949462890625
2324196875.0 1.3046875 -0.819091796875
2355418750.0 0.5247802734375 -1.41973876953125
2386640625.0 -0.40484619140625 -1.44818115234375
2417862500.0 -1.18023681640625 -1.02325439453125
2449084375.0 -1.60455322265625 -0.0828857421875
2480306250.0 -1.31024169921875 0.9254150390625
2511528125.0 -0.4927978515625 1.50897216796875
2542750000.0 0.4892578125 1.53533935546875
2573971875.0 1.3714599609375 0.96710205078125
2605193750.0 1.71649169921875 -0.113037109375
2636415625.0 1.2603759765625 -1.15228271484375
2667637500.0 0.30450439453125 -1.66845703125
2698859375.0 -0.7698974609375 -1.532958984375
2730081250.0 -1.57379150390625 -0.73876953125
2761303125.0 -1.6802978515625 0.38836669921875
2792525000.0 -1.09881591796875 1.3070068359375
2823746875.0 -0.1007080078125 1.7291259765625
2854968750.0 1.012451171875 1.45452880859375
2886190625.0 1.6912841796875 0.49053955078125
2917412500.0 1.59954833984375 -0.618896484375
2948634375.0 0.93878173828125 -1.4327392578125
2979856250.0 -0.1090087890625 -1.77569580078125
3011078125.0 -1.24737548828125 -1.34112548828125
3042300000.0 -1.77471923828125 -0.2333984375
3073521875.0 -1.50750732421875 0.8385009765625
3104743750.0 -0.761962890625 1.56744384765625
3135965625.0 0.3624267578125 1.80792236328125
3167187500.0 1.49755859375 1.16265869140625
3198409375.0 1.81463623046875 -0.07611083984375
3229631250.0 1.34765625 -1.0811767578125
3260853125.0 0.48870849609375 -1.66748046875
3292075000.0 -0.654541015625 -1.6956787109375
3323296875.0 -1.61981201171875 -0.87823486328125
3354518750.0 -1.72930908203125 0.3299560546875
3385740625.0 -1.154296875 1.2320556640625
3416962500.0 -0.231201171875 1.67987060546875
3448184375.0 0.8602294921875 1.51995849609375
3479406250.0 1.634521484375 0.6439208984375
3510628125.0 1.64349365234375 -0.4959716796875
3541850000.0 0.99896240234375 -1.35455322265625
3573071875.0 -0.00823974609375 -1.68170166015625
3604293750.0 -1.028564453125 -1.33648681640625
3635515625.0 -1.62725830078125 -0.4371337890625
3666737500.0 -1.560546875 0.64617919921875
3697959375.0 -0.82379150390625 1.47613525390625
3729181250.0 0.26947021484375 1.630126953125
3760403125.0 1.15325927734375 1.09674072265625
3791625000.0 1.5511474609375 0.2181396484375
3822846875.0 1.4005126953125 -0.7613525390625
3854068750.0 0.619384765625 -1.47930908203125
3885290625.0 -0.42132568359375 -1.479736328125
3916512500.0 -1.140380859375 -0.909912109375
3947734375.0 -1.44659423828125 -0.1192626953125
3978956250.0 -1.2967529296875 0.77825927734375
4010178125.0 -0.53094482421875 1.45263671875
4041400000.0 0.473876953125 1.41455078125
4072621875.0 1.151123046875 0.84716796875
4103843750.0 1.4439697265625 0.0631103515625
4135065625.0 1.2669677734375 -0.84588623046875
4166287500.0 0.457763671875 -1.49462890625
4197509375.0 -0.55743408203125 -1.41455078125
4228731250.0 -1.248046875 -0.80194091796875
4259953125.0 -1.50799560546875 0.0706787109375
4291175000.0 -1.1875 1.009765625
4322396875.0 -0.288818359375 1.52569580078125
4353618750.0 0.67327880859375 1.34942626953125
4384840625.0 1.32171630859375 0.696044921875
4416062500.0 1.4993896484375 -0.22772216796875
4447284375.0 1.054443359375 -1.10345458984375
4478506250.0 0.17236328125 -1.493408203125
4509728125.0 -0.73291015625 -1.306640625
4540950000.0 -1.39239501953125 -0.6356201171875
4572171875.0 -1.52178955078125 0.36016845703125
4603393750.0 -0.9718017578125 1.210693359375
4634615625.0 -0.0614013671875 1.535888671875
4665837500.0 0.8709716796875 1.30352783203125
4697059375.0 1.540283203125 0.51495361328125
4728281250.0 1.5284423828125 -0.58245849609375
4759503125.0 0.8221435546875 -1.3665771484375
4790725000.0 -0.14501953125 -1.57159423828125
4821946875.0 -1.08306884765625 -1.19342041015625
4853168750.0 -1.61212158203125 -0.25103759765625
4884390625.0 -1.3770751953125 0.79364013671875
4915612500.0 -0.61285400390625 1.41143798828125
4946834375.0 0.3289794921875 1.508544921875
4978056250.0 1.20428466796875 1.01708984375
5009278125.0 1.5601806640625 0.03924560546875
5040500000.0 1.2283935546875 -0.87567138671875
5071721875.0 0.50091552734375 -1.41436767578125
5102943750.0 -0.44696044921875 -1.49603271484375
5134165625.0 -1.335205078125 -0.9051513671875
5165387500.0 -1.56787109375 0.146240234375
5196609375.0 -1.13543701171875 1.00762939453125
5227831250.0 -0.3572998046875 1.50628662109375
5259053125.0 0.6875 1.49169921875
5290275000.0 1.52105712890625 0.66278076171875
5321496875.0 1.4920654296875 -0.43145751953125
5352718750.0 0.9202880859375 -1.153076171875
5383940625.0 0.095703125 -1.4998779296875
5415162500.0 -0.899658203125 -1.28271484375
5446384375.0 -1.48291015625 -0.369873046875
5477606250.0 -1.298583984375 0.566650390625
5508828125.0 -0.73065185546875 1.14984130859375
5540050000.0 0.0528564453125 1.3970947265625
5571271875.0 0.9376220703125 1.10791015625
5602493750.0 1.40899658203125 0.25921630859375
5633715625.0 1.23150634765625 -0.61248779296875
5664937500.0 0.64776611328125 -1.20123291015625
5696159375.0 -0.19598388671875 -1.3829345703125
5727381250.0 -1.021728515625 -0.978515625
5758603125.0 -1.39044189453125 -0.14532470703125
5789825000.0 -1.19384765625 0.71759033203125
5821046875.0 -0.50592041015625 1.30718994140625
5852268750.0 0.41180419921875 1.3128662109375
5883490625.0 1.07147216796875 0.77130126953125
5914712500.0 1.30255126953125 0.01934814453125
5945934375.0 1.09564208984375 -0.77587890625
5977156250.0 0.36029052734375 -1.313232421875
6008378125.0 -0.50872802734375 -1.181396484375
6039600000.0 -1.0213623046875 -0.6484375
6070821875.0 -1.2242431640625 -0.0032958984375
6102043750.0 -1.08258056640625 0.76171875
6133265625.0 -0.34210205078125 1.34375
6164487500.0 0.5633544921875 1.18707275390625
6195709375.0 1.071044921875 0.630126953125
6226931250.0 1.27935791015625 -0.0428466796875
6258153125.0 1.1043701171875 -0.8720703125
6289375000.0 0.2562255859375 -1.4459228515625
6320596875.0 -0.689208984375 -1.20587158203125
6351818750.0 -1.199951171875 -0.57177734375
6383040625.0 -1.35528564453125 0.20794677734375
6414262500.0 -0.9996337890625 1.05767822265625
6445484375.0 -0.07806396484375 1.45745849609375
6476706250.0 0.79541015625 1.14764404296875
6507928125.0 1.2904052734375 0.4696044921875
6539150000.0 1.3475341796875 -0.38739013671875
6570371875.0 0.84075927734375 -1.1434326171875
6601593750.0 -0.01751708984375 -1.40380859375
6632815625.0 -0.8397216796875 -1.13555908203125
6664037500.0 -1.4010009765625 -0.419189453125
6695259375.0 -1.37371826171875 0.56622314453125
6726481250.0 -0.70977783203125 1.2520751953125
6757703125.0 0.13116455078125 1.4068603515625
6788925000.0 0.9547119140625 1.13018798828125
6820146875.0 1.5584716796875 0.28826904296875
6851368750.0 1.32623291015625 -0.81964111328125
6882590625.0 0.506591796875 -1.33843994140625
6913812500.0 -0.29205322265625 -1.3558349609375
6945034375.0 -1.0694580078125 -1.0211181640625
6976256250.0 -1.592041015625 -0.09332275390625
7007478125.0 -1.2354736328125 0.933349609375
7038700000.0 -0.40185546875 1.341552734375
7069921875.0 0.3583984375 1.32269287109375
7101143750.0 1.11865234375 0.968505859375
7132365625.0 1.5986328125 0.01446533203125
7163587500.0 1.15667724609375 -1.02276611328125
7194809375.0 0.3017578125 -1.3966064453125
7226031250.0 -0.51116943359375 -1.325439453125
7257253125.0 -1.2657470703125 -0.8251953125
7288475000.0 -1.56011962890625 0.198486328125
7319696875.0 -1.0291748046875 1.11102294921875
7350918750.0 -0.164794921875 1.44439697265625
7382140625.0 0.71649169921875 1.2772216796875
7413362500.0 1.37713623046875 0.575439453125
7444584375.0 1.41290283203125 -0.40753173828125
7475806250.0 0.85809326171875 -1.14495849609375
7507028125.0 0.00677490234375 -1.4283447265625
7538250000.0 -0.8892822265625 -1.12359619140625
7569471875.0 -1.33709716796875 -0.3104248046875
7600693750.0 -1.2015380859375 0.49664306640625
7631915625.0 -0.71807861328125 1.0850830078125
7663137500.0 0.082763671875 1.3582763671875
7694359375.0 0.94000244140625 0.980499267578125
7725581250.0 1.24267578125 0.18084716796875
7756803125.0 1.08184814453125 -0.498779296875
7788025000.0 0.66943359375 -1.042236328125
7819246875.0 -0.1207275390625 -1.3472900390625
7850468750.0 -0.989990234375 -0.91644287109375
7881690625.0 -1.2314453125 -0.10491943359375
7912912500.0 -1.054443359375 0.5538330078125
7944134375.0 -0.606201171875 1.11328125
7975356250.0 0.27142333984375 1.33502197265625
8006578125.0 1.04742431640625 0.77972412109375
8037800000.0 1.19464111328125 0.0159912109375
8069021875.0 1.00714111328125 -0.619140625
8100243750.0 0.4996337890625 -1.1622314453125
8131465625.0 -0.38848876953125 -1.25537109375
8162687500.0 -1.0333251953125 -0.68621826171875
8193909375.0 -1.18182373046875 0.01025390625
8225131250.0 -1.01788330078125 0.67596435546875
8256353125.0 -0.42120361328125 1.2474365234375
8287575000.0 0.4998779296875 1.22540283203125
8318796875.0 1.08306884765625 0.6348876953125
8350018750.0 1.24560546875 -0.0762939453125
8381240625.0 1.03155517578125 -0.840087890625
8412462500.0 0.2547607421875 -1.37445068359375
8443684375.0 -0.66845703125 -1.1695556640625
8474906250.0 -1.1746826171875 -0.5323486328125
8506128125.0 -1.29852294921875 0.2376708984375
8537350000.0 -0.92327880859375 1.04449462890625
8568571875.0 -0.0159912109375 1.39483642578125
8599793750.0 0.802734375 1.053466796875
8631015625.0 1.241455078125 0.39892578125
8662237500.0 1.2864990234375 -0.43084716796875
8693459375.0 0.736083984375 -1.178955078125
8724681250.0 -0.161376953125 -1.3304443359375
8755903125.0 -0.880218505859375 -0.957427978515625
8787125000.0 -1.30419921875 -0.2806396484375
8818346875.0 -1.25115966796875 0.61444091796875
8849568750.0 -0.5570068359375 1.26165771484375
8880790625.0 0.29827880859375 1.28448486328125
8912012500.0 0.981109619140625 0.892425537109375
8943234375.0 1.39898681640625 0.12890625
8974456250.0 1.16766357421875 -0.83984375
9005678125.0 0.3494873046875 -1.31298828125
9036900000.0 -0.44427490234375 -1.224365234375
9068121875.0 -1.10052490234375 -0.78582763671875
9099343750.0 -1.4415283203125 0.0980224609375
9130565625.0 -0.97930908203125 1.01165771484375
9161787500.0 -0.15460205078125 1.28369140625
9193009375.0 0.556396484375 1.13427734375
9224231250.0 1.1776123046875 0.65509033203125
9255453125.0 1.40093994140625 -0.2972412109375
9286675000.0 0.806884765625 -1.08538818359375
9317896875.0 0.027099609375 -1.24639892578125
9349118750.0 -0.65338134765625 -1.06964111328125
9380340625.0 -1.2581787109375 -0.5091552734375
9411562500.0 -1.3101806640625 0.47686767578125
9442784375.0 -0.64898681640625 1.1165771484375
9474006250.0 0.08917236328125 1.21112060546875
9505228125.0 0.764251708984375 0.980712890625
9536450000.0 1.27374267578125 0.31353759765625
9567671875.0 1.144775390625 -0.5809326171875
9598893750.0 0.5302734375 -1.0677490234375
9630115625.0 -0.14373779296875 -1.158203125
9661337500.0 -0.81805419921875 -0.902679443359375
9692559375.0 -1.23828125 -0.1907958984375
9723781250.0 -1.04315185546875 0.6011962890625
9755003125.0 -0.48516845703125 1.051513671875
9786225000.0 0.19732666015625 1.15875244140625
9817446875.0 0.89410400390625 0.828460693359375
9848668750.0 1.1988525390625 0.07781982421875
9879890625.0 0.968231201171875 -0.6171875
9911112500.0 0.4521484375 -1.05169677734375
9942334375.0 -0.2674560546875 -1.15972900390625
9973556250.0 -0.942718505859375 -0.737884521484375
10004778125.0 -1.146728515625 -0.016845703125
10036000000.0 -0.943939208984375 0.61541748046875
10067221875.0 -0.44287109375 1.09674072265625
10098443750.0 0.3697509765625 1.18243408203125
10129665625.0 1.001953125 0.64276123046875
10160887500.0 1.12225341796875 -0.05413818359375
10192109375.0 0.917999267578125 -0.663787841796875
10223331250.0 0.36199951171875 -1.15228271484375
10254553125.0 -0.48614501953125 -1.11456298828125
10285775000.0 -0.986083984375 -0.53546142578125
10316996875.0 -1.06829833984375 0.07781982421875
10348218750.0 -0.900787353515625 0.670654296875
10379440625.0 -0.3221435546875 1.1763916015625
10410662500.0 0.52825927734375 1.085693359375
10441884375.0 0.993499755859375 0.521453857421875
10473106250.0 1.10888671875 -0.0831298828125
10504328125.0 0.948883056640625 -0.7567138671875
10535550000.0 0.24041748046875 -1.2943115234375
10566771875.0 -0.65667724609375 -1.07635498046875
10597993750.0 -1.0806884765625 -0.45843505859375
10629215625.0 -1.17547607421875 0.2047119140625
10660437500.0 -0.88775634765625 0.95074462890625
10691659375.0 -0.01025390625 1.33563232421875
10722881250.0 0.78546142578125 0.95294189453125
10754103125.0 1.11865234375 0.32550048828125
10785325000.0 1.1397705078125 -0.3671875
10816546875.0 0.70208740234375 -1.04736328125
10847768750.0 -0.14398193359375 -1.228759765625
10878990625.0 -0.803924560546875 -0.844940185546875
10910212500.0 -1.12261962890625 -0.24530029296875
10941434375.0 -1.0986328125 0.47552490234375
10972656250.0 -0.56842041015625 1.0830078125
11003878125.0 0.21612548828125 1.17376708984375
11035100000.0 0.846923828125 0.822479248046875
11066321875.0 1.22125244140625 0.1744384765625
11097543750.0 1.09881591796875 -0.677490234375
11128765625.0 0.38629150390625 -1.197265625
11159987500.0 -0.3968505859375 -1.1396484375
11191209375.0 -1.00030517578125 -0.70233154296875
11222431250.0 -1.2734375 0.093994140625
11253653125.0 -0.859100341796875 0.894775390625
11284875000.0 -0.11541748046875 1.126708984375
11316096875.0 0.51202392578125 0.956787109375
11347318750.0 1.00299072265625 0.50250244140625
11378540625.0 1.11761474609375 -0.26947021484375
11409762500.0 0.635650634765625 -0.859588623046875
11440984375.0 0.036865234375 -0.976959228515625
11472206250.0 -0.481414794921875 -0.850555419921875
11503428125.0 -0.95428466796875 -0.456329345703125
11534650000.0 -1.0679931640625 0.28802490234375
11565871875.0 -0.60205078125 0.85400390625
11597093750.0 -0.01885986328125 0.992462158203125
11628315625.0 0.5443115234375 0.875640869140625
11659537500.0 1.0599365234375 0.39202880859375
11690759375.0 1.06524658203125 -0.4334716796875
11721981250.0 0.517242431640625 -0.94061279296875
11753203125.0 -0.10498046875 -1.035888671875
11784425000.0 -0.72509765625 -0.8094482421875
11815646875.0 -1.1026611328125 -0.15008544921875
11846868750.0 -0.8912353515625 0.551177978515625
11878090625.0 -0.39141845703125 0.910125732421875
11909312500.0 0.1871337890625 0.98492431640625
11940534375.0 0.7794189453125 0.694915771484375
11971756250.0 1.025146484375 0.03961181640625
12002978125.0 0.80615234375 -0.5364990234375
12034200000.0 0.382049560546875 -0.889801025390625
12065421875.0 -0.21435546875 -1.010009765625
12096643750.0 -0.84832763671875 -0.664947509765625
12127865625.0 -1.03436279296875 0.01824951171875
12159087500.0 -0.81561279296875 0.576904296875
12190309375.0 -0.378082275390625 0.9766845703125
12221531250.0 0.337890625 1.08770751953125
12252753125.0 0.980712890625 0.581817626953125
12283975000.0 1.05438232421875 -0.12799072265625
12315196875.0 0.800872802734375 -0.677764892578125
12346418750.0 0.2811279296875 -1.093994140625
12377640625.0 -0.53826904296875 -1.060302734375
12408862500.0 -1.0340576171875 -0.4212646484375
12440084375.0 -1.00848388671875 0.22442626953125
12471306250.0 -0.742645263671875 0.73773193359375
12502528125.0 -0.17913818359375 1.12017822265625
12533750000.0 0.6182861328125 0.993499755859375
12564971875.0 1.04193115234375 0.36370849609375
12596193750.0 1.03021240234375 -0.265869140625
12627415625.0 0.7481689453125 -0.826629638671875
12658637500.0 0.0806884765625 -1.20648193359375
12689859375.0 -0.737030029296875 -0.96685791015625
12721081250.0 -1.1175537109375 -0.3052978515625
12752303125.0 -1.09912109375 0.38360595703125
12783525000.0 -0.6875 1.0279541015625
12814746875.0 0.16363525390625 1.251220703125
12845968750.0 0.86175537109375 0.811920166015625
12877190625.0 1.11822509765625 0.17144775390625
12908412500.0 1.056884765625 -0.50286865234375
12939634375.0 0.54351806640625 -1.116455078125
12970856250.0 -0.3203125 -1.1754150390625
13002078125.0 -0.89569091796875 -0.6934814453125
13033300000.0 -1.1058349609375 -0.086181640625
13064521875.0 -1.0096435546875 0.5941162109375
13095743750.0 -0.42071533203125 1.15496826171875
13126965625.0 0.40802001953125 1.1212158203125
13158187500.0 0.949951171875 0.632598876953125
13189409375.0 1.148193359375 -0.02056884765625
13220631250.0 0.9356689453125 -0.748931884765625
13251853125.0 0.2354736328125 -1.17108154296875
13283075000.0 -0.508056640625 -1.01947021484375
13314296875.0 -0.98907470703125 -0.528656005859375
13345518750.0 -1.1343994140625 0.17584228515625
13376740625.0 -0.752471923828125 0.858184814453125
13407962500.0 -0.060302734375 1.0662841796875
13439184375.0 0.526580810546875 0.87188720703125
