!Created with skrf (http://scikit-rf.org).
# Hz S RI R 50.0 
!freq ReS11 ImS11
45000000.0 -0.07663726806640625 -0.09721755981445312
76221875.0 -0.196807861328125 -0.048065185546875
107443750.0 -0.255859375 0.11962890625
138665625.0 -0.1491241455078125 0.3289794921875
169887500.0 0.1227264404296875 0.418792724609375
201109375.0 0.422088623046875 0.282440185546875
232331250.0 0.58026123046875 -0.05670166015625
263553125.0 0.4914398193359375 -0.4528350830078125
294775000.0 0.100128173828125 -0.733978271484375
325996875.0 -0.414947509765625 -0.683197021484375
357218750.0 -0.807891845703125 -0.299407958984375
388440625.0 -0.88848876953125 0.2998046875
419662500.0 -0.52020263671875 0.866973876953125
450884375.0 0.17138671875 1.0318603515625
482106250.0 0.7989501953125 0.715850830078125
513328125.0 1.12176513671875 0.0892333984375
544550000.0 1.00677490234375 -0.67938232421875
575771875.0 0.33941650390625 -1.2396240234375
606993750.0 -0.55230712890625 -1.1807861328125
638215625.0 -1.16729736328125 -0.5938720703125
669437500.0 -1.34295654296875 0.23223876953125
700659375.0 -0.974609375 1.09613037109375
731881250.0 -0.00714111328125 1.54608154296875
763103125.0 1.00518798828125 1.16021728515625
794325000.0 1.47149658203125 0.28515625
825546875.0 1.37158203125 -0.6507568359375
856768750.0 0.79815673828125 -1.402587890625
887990625.0 -0.29046630859375 -1.65240478515625
919212500.0 -1.28961181640625 -1.08355712890625
950434375.0 -1.65289306640625 -0.06170654296875
981656250.0 -1.38714599609375 0.94610595703125
1012878125.0 -0.53363037109375 1.6756591796875
1044100000.0 0.6959228515625 1.66717529296875
1075321875.0 1.5775146484375 0.8165283203125
1106543750.0 1.709716796875 -0.3114013671875
1137765625.0 1.19134521484375 -1.28497314453125
1168987500.0 0.141357421875 -1.80194091796875
1200209375.0 -1.06201171875 -1.4893798828125
1231431250.0 -1.73065185546875 -0.45733642578125
1262653125.0 -1.59857177734375 0.6832275390625
1293875000.0 -0.8564453125 1.4932861328125
1325096875.0 0.22552490234375 1.7110595703125
1356318750.0 1.236083984375 1.221923828125
1387540625.0 1.74407958984375 0.19232177734375
1418762500.0 1.47412109375 -0.95123291015625
1449984375.0 0.53326416015625 -1.62847900390625
1481206250.0 -0.5484619140625 -1.56036376953125
1512428125.0 -1.3431396484375 -0.92388916015625
1543650000.0 -1.65966796875 0.0633544921875
1574871875.0 -1.2777099609375 1.10955810546875
1606093750.0 -0.27581787109375 1.6346435546875
1637315625.0 0.74163818359375 1.4049072265625
1668537500.0 1.397705078125 0.69940185546875
1699759375.0 1.57672119140625 -0.27532958984375
1730981250.0 1.068359375 -1.23052978515625
1762203125.0 0.04473876953125 -1.5736083984375
1793425000.0 -0.855712890625 -1.230224609375
1824646875.0 -1.39605712890625 -0.51824951171875
1855868750.0 -1.47772216796875 0.43096923828125
1887090625.0 -0.8787841796875 1.2872314453125
1918312500.0 0.115966796875 1.490234375
1949534375.0 0.9219970703125 1.092529296875
1980756250.0 1.3775634765625 0.37255859375
2011978125.0 1.36322021484375 -0.53057861328125
2043200000.0 0.75347900390625 -1.26336669921875
2074421875.0 -0.15533447265625 -1.43682861328125
2105643750.0 -0.96148681640625 -1.07598876953125
2136865625.0 -1.4501953125 -0.30731201171875
2168087500.0 -1.3604736328125 0.6707763671875
2199309375.0 -0.64202880859375 1.3533935546875
2230531250.0 0.281005859375 1.43988037109375
2261753125.0 1.073974609375 1.016845703125
2292975000.0 1.51751708984375 0.17181396484375
2324196875.0 1.30908203125 -0.8194580078125
2355418750.0 0.5279541015625 -1.4222412109375
2386640625.0 -0.40362548828125 -1.45208740234375
2417862500.0 -1.18341064453125 -1.027587890625
2449084375.0 -1.60772705078125 -0.085205078125
2480306250.0 -1.31512451171875 0.9263916015625
2511528125.0 -0.49615478515625 1.51080322265625
2542750000.0 0.4886474609375 1.5401611328125
2573971875.0 1.3731689453125 0.9716796875
2605193750.0 1.72119140625 -0.11138916015625
2636415625.0 1.26519775390625 -1.15478515625
2667637500.0 0.308349609375 -1.67041015625
2698859375.0 -0.7708740234375 -1.5382080078125
2730081250.0 -1.576171875 -0.74371337890625
2761303125.0 -1.68548583984375 0.38763427734375
2792525000.0 -1.10302734375 1.3095703125
2823746875.0 -0.103759765625 1.7335205078125
2854968750.0 1.01409912109375 1.459716796875
2886190625.0 1.69415283203125 0.49420166015625
2917412500.0 1.60369873046875 -0.6182861328125
2948634375.0 0.94293212890625 -1.43597412109375
2979856250.0 -0.10693359375 -1.780029296875
3011078125.0 -1.2498779296875 -1.3455810546875
3042300000.0 -1.778076171875 -0.23681640625
3073521875.0 -1.51312255859375 0.839111328125
3104743750.0 -0.76708984375 1.56988525390625
3135965625.0 0.3609619140625 1.8134765625
3167187500.0 1.500244140625 1.16748046875
3198409375.0 1.82086181640625 -0.074951171875
3229631250.0 1.35272216796875 -1.0838623046875
3260853125.0 0.49151611328125 -1.67266845703125
3292075000.0 -0.6572265625 -1.703125
3323296875.0 -1.62286376953125 -0.88250732421875
3354518750.0 -1.7340087890625 0.32818603515625
3385740625.0 -1.15899658203125 1.23370361328125
3416962500.0 -0.2327880859375 1.68603515625
3448184375.0 0.86181640625 1.52569580078125
3479406250.0 1.63970947265625 0.6461181640625
3510628125.0 1.64715576171875 -0.4952392578125
3541850000.0 1.0030517578125 -1.35772705078125
3573071875.0 -0.0081787109375 -1.686279296875
3604293750.0 -1.029541015625 -1.34014892578125
3635515625.0 -1.630615234375 -0.439453125
3666737500.0 -1.56549072265625 0.6463623046875
3697959375.0 -0.8272705078125 1.47906494140625
3729181250.0 0.26812744140625 1.63348388671875
3760403125.0 1.15478515625 1.1004638671875
3791625000.0 1.5552978515625 0.21929931640625
3822846875.0 1.40576171875 -0.76287841796875
3854068750.0 0.6229248046875 -1.4842529296875
3885290625.0 -0.42181396484375 -1.484375
3916512500.0 -1.143798828125 -0.91302490234375
3947734375.0 -1.45050048828125 -0.1209716796875
3978956250.0 -1.30084228515625 0.78131103515625
4010178125.0 -0.5323486328125 1.45819091796875
4041400000.0 0.4755859375 1.41839599609375
4072621875.0 1.1546630859375 0.84906005859375
4103843750.0 1.44757080078125 0.0631103515625
4135065625.0 1.2705078125 -0.8482666015625
4166287500.0 0.4583740234375 -1.4990234375
4197509375.0 -0.5584716796875 -1.41680908203125
4228731250.0 -1.25054931640625 -0.802978515625
4259953125.0 -1.51080322265625 0.07080078125
4291175000.0 -1.19085693359375 1.01177978515625
4322396875.0 -0.2904052734375 1.52874755859375
4353618750.0 0.67388916015625 1.3531494140625
4384840625.0 1.32672119140625 0.69775390625
4416062500.0 1.50439453125 -0.2288818359375
4447284375.0 1.05706787109375 -1.10650634765625
4478506250.0 0.17169189453125 -1.49884033203125
4509728125.0 -0.734130859375 -1.309814453125
4540950000.0 -1.3974609375 -0.63677978515625
4572171875.0 -1.5257568359375 0.36236572265625
4603393750.0 -0.9732666015625 1.2164306640625
4634615625.0 -0.0611572265625 1.5391845703125
4665837500.0 0.87237548828125 1.30609130859375
4697059375.0 1.545166015625 0.5159912109375
4728281250.0 1.53192138671875 -0.58563232421875
4759503125.0 0.8238525390625 -1.3704833984375
4790725000.0 -0.14630126953125 -1.5755615234375
4821946875.0 -1.08624267578125 -1.19647216796875
4853168750.0 -1.6165771484375 -0.251220703125
4884390625.0 -1.380615234375 0.7952880859375
4915612500.0 -0.614013671875 1.41632080078125
4946834375.0 0.33123779296875 1.5125732421875
4978056250.0 1.20867919921875 1.0191650390625
5009278125.0 1.56591796875 0.03863525390625
5040500000.0 1.2318115234375 -0.880126953125
5071721875.0 0.501953125 -1.41876220703125
5102943750.0 -0.44891357421875 -1.499755859375
5134165625.0 -1.34063720703125 -0.90667724609375
5165387500.0 -1.57122802734375 0.14837646484375
5196609375.0 -1.1380615234375 1.01226806640625
5227831250.0 -0.3570556640625 1.509521484375
5259053125.0 0.6907958984375 1.494873046875
5290275000.0 1.52532958984375 0.6622314453125
5321496875.0 1.4940185546875 -0.43280029296875
5352718750.0 0.922119140625 -1.15533447265625
5383940625.0 0.0968017578125 -1.502685546875
5415162500.0 -0.90234375 -1.2860107421875
5446384375.0 -1.4876708984375 -0.36993408203125
5477606250.0 -1.30133056640625 0.56829833984375
5508828125.0 -0.73272705078125 1.1539306640625
5540050000.0 0.05438232421875 1.40191650390625
5571271875.0 0.94244384765625 1.11077880859375
5602493750.0 1.4127197265625 0.2586669921875
5633715625.0 1.234619140625 -0.6153564453125
5664937500.0 0.64874267578125 -1.20513916015625
5696159375.0 -0.19903564453125 -1.38665771484375
5727381250.0 -1.0257568359375 -0.97869873046875
5758603125.0 -1.39459228515625 -0.14385986328125
5789825000.0 -1.1961669921875 0.72076416015625
5821046875.0 -0.505615234375 1.3111572265625
5852268750.0 0.41339111328125 1.31451416015625
5883490625.0 1.073974609375 0.77215576171875
5914712500.0 1.305908203125 0.01885986328125
5945934375.0 1.09796142578125 -0.77874755859375
5977156250.0 0.36053466796875 -1.31500244140625
6008378125.0 -0.51202392578125 -1.18414306640625
6039600000.0 -1.02484130859375 -0.64892578125
6070821875.0 -1.22698974609375 -0.0032958984375
6102043750.0 -1.0859375 0.766357421875
6133265625.0 -0.34014892578125 1.3494873046875
6164487500.0 0.56683349609375 1.1890869140625
6195709375.0 1.0738525390625 0.629638671875
6226931250.0 1.282470703125 -0.0440673828125
6258153125.0 1.10650634765625 -0.8756103515625
6289375000.0 0.25311279296875 -1.4501953125
6320596875.0 -0.6927490234375 -1.20635986328125
6351818750.0 -1.20294189453125 -0.571044921875
6383040625.0 -1.3570556640625 0.2095947265625
6414262500.0 -0.9998779296875 1.06195068359375
6445484375.0 -0.0758056640625 1.4598388671875
6476706250.0 0.79901123046875 1.14874267578125
6507928125.0 1.29205322265625 0.4696044921875
6539150000.0 1.34967041015625 -0.38848876953125
6570371875.0 0.8411865234375 -1.14752197265625
6601593750.0 -0.018798828125 -1.407958984375
6632815625.0 -0.84393310546875 -1.13812255859375
6664037500.0 -1.4061279296875 -0.41864013671875
6695259375.0 -1.3756103515625 0.56976318359375
6726481250.0 -0.7100830078125 1.25482177734375
6757703125.0 0.1324462890625 1.409423828125
6788925000.0 0.95977783203125 1.13238525390625
6820146875.0 1.5643310546875 0.28521728515625
6851368750.0 1.32635498046875 -0.8236083984375
6882590625.0 0.5048828125 -1.34228515625
6913812500.0 -0.29534912109375 -1.35931396484375
6945034375.0 -1.0738525390625 -1.0223388671875
6976256250.0 -1.59600830078125 -0.0904541015625
7007478125.0 -1.23663330078125 0.937255859375
7038700000.0 -0.40191650390625 1.34619140625
7069921875.0 0.3604736328125 1.32763671875
7101143750.0 1.1248779296875 0.9688720703125
7132365625.0 1.6029052734375 0.0120849609375
7163587500.0 1.15924072265625 -1.02825927734375
7194809375.0 0.301025390625 -1.40234375
7226031250.0 -0.51617431640625 -1.3284912109375
7257253125.0 -1.2740478515625 -0.8236083984375
7288475000.0 -1.5606689453125 0.20172119140625
7319696875.0 -1.0311279296875 1.11553955078125
7350918750.0 -0.16192626953125 1.4500732421875
7382140625.0 0.72137451171875 1.27838134765625
7413362500.0 1.38226318359375 0.57427978515625
7444584375.0 1.413818359375 -0.4119873046875
7475806250.0 0.85791015625 -1.146240234375
7507028125.0 0.004150390625 -1.43377685546875
7538250000.0 -0.89166259765625 -1.1251220703125
7569471875.0 -1.3380126953125 -0.3095703125
7600693750.0 -1.20391845703125 0.50006103515625
7631915625.0 -0.71820068359375 1.08709716796875
7663137500.0 0.0821533203125 1.3609619140625
7694359375.0 0.94317626953125 0.981781005859375
7725581250.0 1.24761962890625 0.17840576171875
7756803125.0 1.08575439453125 -0.504150390625
7788025000.0 0.67071533203125 -1.04876708984375
7819246875.0 -0.12481689453125 -1.352783203125
7850468750.0 -0.998291015625 -0.915802001953125
7881690625.0 -1.23577880859375 -0.102294921875
7912912500.0 -1.05584716796875 0.55780029296875
7944134375.0 -0.6038818359375 1.12030029296875
7975356250.0 0.27685546875 1.33795166015625
8006578125.0 1.049560546875 0.77703857421875
8037800000.0 1.197265625 0.0130615234375
8069021875.0 1.00732421875 -0.61932373046875
8100243750.0 0.49884033203125 -1.16497802734375
8131465625.0 -0.39031982421875 -1.2552490234375
8162687500.0 -1.03668212890625 -0.6854248046875
8193909375.0 -1.1839599609375 0.01129150390625
8225131250.0 -1.02008056640625 0.68206787109375
8256353125.0 -0.41973876953125 1.25390625
8287575000.0 0.50537109375 1.22784423828125
8318796875.0 1.08697509765625 0.6341552734375
8350018750.0 1.24945068359375 -0.0794677734375
8381240625.0 1.03326416015625 -0.84442138671875
8412462500.0 0.25103759765625 -1.3780517578125
8443684375.0 -0.67535400390625 -1.171142578125
8474906250.0 -1.1787109375 -0.53033447265625
8506128125.0 -1.30145263671875 0.2421875
8537350000.0 -0.923828125 1.052001953125
8568571875.0 -0.01220703125 1.3961181640625
8599793750.0 0.80670166015625 1.05377197265625
8631015625.0 1.24444580078125 0.397216796875
8662237500.0 1.2879638671875 -0.4334716796875
8693459375.0 0.73529052734375 -1.18170166015625
8724681250.0 -0.1639404296875 -1.33465576171875
8755903125.0 -0.885284423828125 -0.959320068359375
8787125000.0 -1.3079833984375 -0.28118896484375
8818346875.0 -1.25482177734375 0.6209716796875
8849568750.0 -0.55517578125 1.26654052734375
8880790625.0 0.30401611328125 1.2886962890625
8912012500.0 0.9879150390625 0.894012451171875
8943234375.0 1.40460205078125 0.12542724609375
8974456250.0 1.1666259765625 -0.8463134765625
9005678125.0 0.343505859375 -1.31817626953125
9036900000.0 -0.4495849609375 -1.2264404296875
9068121875.0 -1.10791015625 -0.7841796875
9099343750.0 -1.444091796875 0.10137939453125
9130565625.0 -0.97735595703125 1.01824951171875
9161787500.0 -0.15142822265625 1.28497314453125
9193009375.0 0.558349609375 1.13494873046875
9224231250.0 1.18341064453125 0.65557861328125
9255453125.0 1.4039306640625 -0.30078125
9286675000.0 0.8065185546875 -1.08843994140625
9317896875.0 0.02398681640625 -1.2506103515625
9349118750.0 -0.65777587890625 -1.07171630859375
9380340625.0 -1.26605224609375 -0.50750732421875
9411562500.0 -1.31451416015625 0.482666015625
9442784375.0 -0.646484375 1.11944580078125
9474006250.0 0.09228515625 1.21429443359375
9505228125.0 0.769989013671875 0.98126220703125
9536450000.0 1.27880859375 0.30908203125
9567671875.0 1.14361572265625 -0.585205078125
9598893750.0 0.5274658203125 -1.0723876953125
9630115625.0 -0.14892578125 -1.1607666015625
9661337500.0 -0.82440185546875 -0.902587890625
9692559375.0 -1.24261474609375 -0.185791015625
9723781250.0 -1.0440673828125 0.6092529296875
9755003125.0 -0.48553466796875 1.0531005859375
9786225000.0 0.2022705078125 1.16204833984375
9817446875.0 0.901153564453125 0.8270263671875
9848668750.0 1.20111083984375 0.074462890625
9879890625.0 0.969146728515625 -0.62176513671875
9911112500.0 0.450927734375 -1.0560302734375
9942334375.0 -0.27313232421875 -1.16204833984375
9973556250.0 -0.94873046875 -0.736907958984375
10004778125.0 -1.150146484375 -0.01263427734375
10036000000.0 -0.944427490234375 0.622314453125
10067221875.0 -0.4400634765625 1.10064697265625
10098443750.0 0.3756103515625 1.1826171875
10129665625.0 1.0068359375 0.639892578125
10160887500.0 1.12200927734375 -0.05609130859375
10192109375.0 0.9171142578125 -0.6685791015625
10223331250.0 0.357177734375 -1.15771484375
10254553125.0 -0.4920654296875 -1.1156005859375
10285775000.0 -0.98858642578125 -0.53350830078125
10316996875.0 -1.06927490234375 0.0797119140625
10348218750.0 -0.90032958984375 0.673004150390625
10379440625.0 -0.3189697265625 1.1795654296875
10410662500.0 0.53173828125 1.0858154296875
10441884375.0 0.99554443359375 0.520050048828125
10473106250.0 1.112060546875 -0.08746337890625
10504328125.0 0.949859619140625 -0.763275146484375
10535550000.0 0.23492431640625 -1.30035400390625
10566771875.0 -0.6636962890625 -1.07769775390625
10597993750.0 -1.08563232421875 -0.45562744140625
10629215625.0 -1.17816162109375 0.2099609375
10660437500.0 -0.88568115234375 0.9599609375
10691659375.0 -0.00408935546875 1.338623046875
10722881250.0 0.78924560546875 0.951904296875
10754103125.0 1.1229248046875 0.322265625
10785325000.0 1.14166259765625 -0.37213134765625
10816546875.0 0.69891357421875 -1.0535888671875
10847768750.0 -0.1514892578125 -1.2314453125
10878990625.0 -0.80731201171875 -0.843017578125
10910212500.0 -1.1246337890625 -0.24285888671875
10941434375.0 -1.09967041015625 0.48187255859375
10972656250.0 -0.56622314453125 1.090087890625
11003878125.0 0.22271728515625 1.17669677734375
11035100000.0 0.85418701171875 0.82073974609375
11066321875.0 1.22467041015625 0.16973876953125
11097543750.0 1.09991455078125 -0.6837158203125
11128765625.0 0.3812255859375 -1.20465087890625
11159987500.0 -0.402587890625 -1.14202880859375
11191209375.0 -1.00653076171875 -0.701171875
11222431250.0 -1.2774658203125 0.09954833984375
11253653125.0 -0.856353759765625 0.900634765625
11284875000.0 -0.11029052734375 1.131591796875
11316096875.0 0.51531982421875 0.956878662109375
11347318750.0 1.0079345703125 0.4993896484375
11378540625.0 1.1187744140625 -0.273681640625
11409762500.0 0.63275146484375 -0.864044189453125
11440984375.0 0.032440185546875 -0.980438232421875
11472206250.0 -0.483795166015625 -0.851593017578125
11503428125.0 -0.95867919921875 -0.4534912109375
11534650000.0 -1.0699462890625 0.29400634765625
11565871875.0 -0.59991455078125 0.85906982421875
11597093750.0 -0.01483154296875 0.99493408203125
11628315625.0 0.549957275390625 0.87689208984375
11659537500.0 1.06549072265625 0.38897705078125
11690759375.0 1.06591796875 -0.439697265625
11721981250.0 0.514068603515625 -0.946136474609375
11753203125.0 -0.10968017578125 -1.0391845703125
11784425000.0 -0.730316162109375 -0.80828857421875
11815646875.0 -1.10601806640625 -0.14459228515625
11846868750.0 -0.890716552734375 0.556488037109375
11878090625.0 -0.389373779296875 0.911865234375
11909312500.0 0.1917724609375 0.988128662109375
11940534375.0 0.7867431640625 0.693572998046875
11971756250.0 1.02764892578125 0.035400390625
12002978125.0 0.8062744140625 -0.54229736328125
12034200000.0 0.379547119140625 -0.893310546875
12065421875.0 -0.2215576171875 -1.01348876953125
12096643750.0 -0.853973388671875 -0.6627197265625
12127865625.0 -1.03692626953125 0.02264404296875
12159087500.0 -0.815155029296875 0.580169677734375
12190309375.0 -0.37445068359375 0.97991943359375
12221531250.0 0.34576416015625 1.09014892578125
12252753125.0 0.986602783203125 0.57794189453125
12283975000.0 1.056396484375 -0.1328125
12315196875.0 0.79986572265625 -0.68035888671875
12346418750.0 0.27716064453125 -1.09716796875
12377640625.0 -0.5452880859375 -1.06097412109375
12408862500.0 -1.0382080078125 -0.41497802734375
12440084375.0 -1.00970458984375 0.22918701171875
12471306250.0 -0.74139404296875 0.74224853515625
12502528125.0 -0.175537109375 1.1243896484375
12533750000.0 0.62646484375 0.993194580078125
12564971875.0 1.04461669921875 0.3607177734375
12596193750.0 1.03070068359375 -0.268798828125
12627415625.0 0.747039794921875 -0.83489990234375
12658637500.0 0.07415771484375 -1.212158203125
12689859375.0 -0.740814208984375 -0.96502685546875
12721081250.0 -1.12091064453125 -0.30194091796875
12752303125.0 -1.10009765625 0.3890380859375
12783525000.0 -0.68365478515625 1.0357666015625
12814746875.0 0.17327880859375 1.2540283203125
12845968750.0 0.869232177734375 0.80816650390625
12877190625.0 1.12139892578125 0.166748046875
12908412500.0 1.0579833984375 -0.5076904296875
12939634375.0 0.53857421875 -1.12310791015625
12970856250.0 -0.32659912109375 -1.17596435546875
13002078125.0 -0.898193359375 -0.69146728515625
13033300000.0 -1.1116943359375 -0.0804443359375
13064521875.0 -1.01068115234375 0.60052490234375
13095743750.0 -0.4140625 1.16119384765625
13126965625.0 0.4146728515625 1.12066650390625
13158187500.0 0.95166015625 0.629791259765625
13189409375.0 1.153076171875 -0.028564453125
13220631250.0 0.935333251953125 -0.7578125
13251853125.0 0.2283935546875 -1.17694091796875
13283075000.0 -0.51409912109375 -1.0201416015625
13314296875.0 -0.9937744140625 -0.526153564453125
13345518750.0 -1.13702392578125 0.182861328125
13376740625.0 -0.748870849609375 0.86566162109375
