!Created with skrf (http://scikit-rf.org).
# Hz S RI R 50.0 
!freq ReS11 ImS11
45000000.0 -0.07665252685546875 -0.09694671630859375
76221875.0 -0.1967926025390625 -0.04796600341796875
107443750.0 -0.25579833984375 0.1198883056640625
138665625.0 -0.149200439453125 0.3289031982421875
169887500.0 0.12274169921875 0.418670654296875
201109375.0 0.4221649169921875 0.282562255859375
232331250.0 0.580169677734375 -0.05633544921875
263553125.0 0.4913482666015625 -0.4527740478515625
294775000.0 0.100311279296875 -0.7340087890625
325996875.0 -0.414947509765625 -0.68328857421875
357218750.0 -0.807861328125 -0.299652099609375
388440625.0 -0.888458251953125 0.29949951171875
419662500.0 -0.520172119140625 0.866973876953125
450884375.0 0.1710205078125 1.0316162109375
482106250.0 0.798858642578125 0.716278076171875
513328125.0 1.12176513671875 0.08953857421875
544550000.0 1.007080078125 -0.67913818359375
575771875.0 0.339599609375 -1.23956298828125
606993750.0 -0.5521240234375 -1.180908203125
638215625.0 -1.1671142578125 -0.5943603515625
669437500.0 -1.3427734375 0.2315673828125
700659375.0 -0.9749755859375 1.096435546875
731881250.0 -0.00714111328125 1.5460205078125
763103125.0 1.0050048828125 1.1605224609375
794325000.0 1.47125244140625 0.285400390625
825546875.0 1.37139892578125 -0.6497802734375
856768750.0 0.7987060546875 -1.40252685546875
887990625.0 -0.2900390625 -1.65252685546875
919212500.0 -1.2884521484375 -1.0841064453125
950434375.0 -1.6531982421875 -0.06231689453125
981656250.0 -1.38775634765625 0.94580078125
1012878125.0 -0.53399658203125 1.67498779296875
1044100000.0 0.69580078125 1.6676025390625
1075321875.0 1.57720947265625 0.81719970703125
1106543750.0 1.70977783203125 -0.31024169921875
1137765625.0 1.19232177734375 -1.28497314453125
1168987500.0 0.14251708984375 -1.8011474609375
1200209375.0 -1.06158447265625 -1.48956298828125
1231431250.0 -1.73101806640625 -0.45697021484375
1262653125.0 -1.598876953125 0.68280029296875
1293875000.0 -0.8565673828125 1.49310302734375
1325096875.0 0.224365234375 1.711181640625
1356318750.0 1.23565673828125 1.22235107421875
1387540625.0 1.74359130859375 0.19281005859375
1418762500.0 1.47454833984375 -0.95098876953125
1449984375.0 0.53399658203125 -1.6282958984375
1481206250.0 -0.54779052734375 -1.560546875
1512428125.0 -1.34295654296875 -0.92413330078125
1543650000.0 -1.65887451171875 0.06256103515625
1574871875.0 -1.27825927734375 1.10870361328125
1606093750.0 -0.2764892578125 1.63421630859375
1637315625.0 0.74139404296875 1.405029296875
1668537500.0 1.3974609375 0.69970703125
1699759375.0 1.576904296875 -0.2744140625
1730981250.0 1.0687255859375 -1.2301025390625
1762203125.0 0.04522705078125 -1.57342529296875
1793425000.0 -0.85540771484375 -1.23040771484375
1824646875.0 -1.39520263671875 -0.518798828125
1855868750.0 -1.4779052734375 0.43023681640625
1887090625.0 -0.87884521484375 1.28668212890625
1918312500.0 0.115234375 1.490234375
1949534375.0 0.92138671875 1.0928955078125
1980756250.0 1.37677001953125 0.37322998046875
2011978125.0 1.36297607421875 -0.5306396484375
2043200000.0 0.75384521484375 -1.2628173828125
2074421875.0 -0.1546630859375 -1.4361572265625
2105643750.0 -0.9600830078125 -1.07574462890625
2136865625.0 -1.4498291015625 -0.3077392578125
2168087500.0 -1.36090087890625 0.67047119140625
2199309375.0 -0.642333984375 1.35296630859375
2230531250.0 0.2803955078125 1.43927001953125
2261753125.0 1.07293701171875 1.017333984375
2292975000.0 1.5167236328125 0.17291259765625
2324196875.0 1.30902099609375 -0.818359375
2355418750.0 0.52813720703125 -1.42181396484375
2386640625.0 -0.403076171875 -1.451904296875
2417862500.0 -1.1820068359375 -1.02825927734375
2449084375.0 -1.60791015625 -0.08612060546875
2480306250.0 -1.315185546875 0.9256591796875
2511528125.0 -0.4969482421875 1.50970458984375
2542750000.0 0.48797607421875 1.540283203125
2573971875.0 1.3729248046875 0.97222900390625
2605193750.0 1.7208251953125 -0.10986328125
2636415625.0 1.26605224609375 -1.1527099609375
2667637500.0 0.309814453125 -1.670166015625
2698859375.0 -0.76983642578125 -1.53851318359375
2730081250.0 -1.5758056640625 -0.7437744140625
2761303125.0 -1.6854248046875 0.386962890625
2792525000.0 -1.10345458984375 1.30865478515625
2823746875.0 -0.10504150390625 1.7342529296875
2854968750.0 1.01239013671875 1.460205078125
2886190625.0 1.694580078125 0.49591064453125
2917412500.0 1.60491943359375 -0.617919921875
2948634375.0 0.9434814453125 -1.4351806640625
2979856250.0 -0.10650634765625 -1.78021240234375
3011078125.0 -1.2489013671875 -1.34674072265625
3042300000.0 -1.77862548828125 -0.2373046875
3073521875.0 -1.5130615234375 0.83807373046875
3104743750.0 -0.7669677734375 1.5694580078125
3135965625.0 0.3609619140625 1.8138427734375
3167187500.0 1.5003662109375 1.1680908203125
3198409375.0 1.820068359375 -0.0733642578125
3229631250.0 1.3529052734375 -1.08154296875
3260853125.0 0.49273681640625 -1.6712646484375
3292075000.0 -0.654052734375 -1.7021484375
3323296875.0 -1.62213134765625 -0.88323974609375
3354518750.0 -1.7337646484375 0.32635498046875
3385740625.0 -1.1605224609375 1.232666015625
3416962500.0 -0.23333740234375 1.68560791015625
3448184375.0 0.8609619140625 1.52606201171875
3479406250.0 1.63958740234375 0.64697265625
3510628125.0 1.647705078125 -0.494873046875
3541850000.0 1.00323486328125 -1.3570556640625
3573071875.0 -0.00677490234375 -1.68658447265625
3604293750.0 -1.0274658203125 -1.34063720703125
3635515625.0 -1.63079833984375 -0.4405517578125
3666737500.0 -1.56512451171875 0.6453857421875
3697959375.0 -0.8277587890625 1.47845458984375
3729181250.0 0.26708984375 1.63433837890625
3760403125.0 1.153564453125 1.1014404296875
3791625000.0 1.55462646484375 0.2210693359375
3822846875.0 1.40533447265625 -0.76031494140625
3854068750.0 0.6240234375 -1.48345947265625
3885290625.0 -0.42034912109375 -1.485107421875
3916512500.0 -1.14239501953125 -0.91448974609375
3947734375.0 -1.4505615234375 -0.12127685546875
3978956250.0 -1.30145263671875 0.7794189453125
4010178125.0 -0.53363037109375 1.457763671875
4041400000.0 0.47314453125 1.4180908203125
4072621875.0 1.1533203125 0.84942626953125
4103843750.0 1.4468994140625 0.06463623046875
4135065625.0 1.27069091796875 -0.846923828125
4166287500.0 0.4598388671875 -1.4979248046875
4197509375.0 -0.55908203125 -1.41802978515625
4228731250.0 -1.24908447265625 -0.80462646484375
4259953125.0 -1.51104736328125 0.0689697265625
4291175000.0 -1.19110107421875 1.010498046875
4322396875.0 -0.29132080078125 1.52935791015625
4353618750.0 0.673095703125 1.35333251953125
4384840625.0 1.32415771484375 0.6998291015625
4416062500.0 1.50341796875 -0.22650146484375
4447284375.0 1.05810546875 -1.10504150390625
4478506250.0 0.173828125 -1.49798583984375
4509728125.0 -0.73345947265625 -1.31097412109375
4540950000.0 -1.3961181640625 -0.6378173828125
4572171875.0 -1.52606201171875 0.36102294921875
4603393750.0 -0.974853515625 1.21514892578125
4634615625.0 -0.0628662109375 1.53961181640625
4665837500.0 0.87127685546875 1.307373046875
4697059375.0 1.54443359375 0.51715087890625
4728281250.0 1.5318603515625 -0.58270263671875
4759503125.0 0.82476806640625 -1.36993408203125
4790725000.0 -0.14501953125 -1.5755615234375
4821946875.0 -1.08355712890625 -1.19720458984375
4853168750.0 -1.61590576171875 -0.25274658203125
4884390625.0 -1.381103515625 0.7926025390625
4915612500.0 -0.61578369140625 1.4144287109375
4946834375.0 0.32745361328125 1.51226806640625
4978056250.0 1.20703125 1.0198974609375
5009278125.0 1.5645751953125 0.0404052734375
5040500000.0 1.2320556640625 -0.87646484375
5071721875.0 0.5030517578125 -1.41839599609375
5102943750.0 -0.447021484375 -1.50018310546875
5134165625.0 -1.33697509765625 -0.9080810546875
5165387500.0 -1.57061767578125 0.14581298828125
5196609375.0 -1.138427734375 1.01141357421875
5227831250.0 -0.35833740234375 1.509033203125
5259053125.0 0.6884765625 1.4951171875
5290275000.0 1.52459716796875 0.664306640625
5321496875.0 1.4947509765625 -0.430908203125
5352718750.0 0.92315673828125 -1.1549072265625
5383940625.0 0.09771728515625 -1.5032958984375
5415162500.0 -0.90118408203125 -1.28680419921875
5446384375.0 -1.4869384765625 -0.37176513671875
5477606250.0 -1.30267333984375 0.5672607421875
5508828125.0 -0.7337646484375 1.1533203125
5540050000.0 0.0533447265625 1.40185546875
5571271875.0 0.94146728515625 1.111328125
5602493750.0 1.41168212890625 0.26123046875
5633715625.0 1.23492431640625 -0.61383056640625
5664937500.0 0.64923095703125 -1.2044677734375
5696159375.0 -0.19744873046875 -1.38641357421875
5727381250.0 -1.023681640625 -0.98028564453125
5758603125.0 -1.394287109375 -0.144775390625
5789825000.0 -1.1971435546875 0.72039794921875
5821046875.0 -0.50689697265625 1.30999755859375
5852268750.0 0.41253662109375 1.31524658203125
5883490625.0 1.07269287109375 0.773193359375
5914712500.0 1.30572509765625 0.0196533203125
5945934375.0 1.09912109375 -0.777099609375
5977156250.0 0.36187744140625 -1.31500244140625
6008378125.0 -0.50994873046875 -1.1845703125
6039600000.0 -1.0228271484375 -0.65093994140625
6070821875.0 -1.2264404296875 -0.005126953125
6102043750.0 -1.08587646484375 0.76422119140625
6133265625.0 -0.34259033203125 1.3475341796875
6164487500.0 0.56402587890625 1.18951416015625
6195709375.0 1.07281494140625 0.6309814453125
6226931250.0 1.28314208984375 -0.0430908203125
6258153125.0 1.106689453125 -0.872802734375
6289375000.0 0.2557373046875 -1.44873046875
6320596875.0 -0.69049072265625 -1.20733642578125
6351818750.0 -1.200927734375 -0.57257080078125
6383040625.0 -1.3575439453125 0.20806884765625
6414262500.0 -1.0013427734375 1.05963134765625
6445484375.0 -0.07806396484375 1.45947265625
6476706250.0 0.79632568359375 1.14947509765625
6507928125.0 1.2923583984375 0.4710693359375
6539150000.0 1.349853515625 -0.386962890625
6570371875.0 0.8428955078125 -1.14599609375
6601593750.0 -0.01690673828125 -1.40704345703125
6632815625.0 -0.8404541015625 -1.13818359375
6664037500.0 -1.40447998046875 -0.420166015625
6695259375.0 -1.37646484375 0.5689697265625
6726481250.0 -0.71148681640625 1.253662109375
6757703125.0 0.13128662109375 1.409423828125
6788925000.0 0.9578857421875 1.133056640625
6820146875.0 1.56402587890625 0.28656005859375
6851368750.0 1.327880859375 -0.82171630859375
6882590625.0 0.50665283203125 -1.3404541015625
6913812500.0 -0.2933349609375 -1.3590087890625
6945034375.0 -1.072021484375 -1.0233154296875
6976256250.0 -1.595947265625 -0.09197998046875
7007478125.0 -1.238037109375 0.93682861328125
7038700000.0 -0.404541015625 1.345703125
7069921875.0 0.36004638671875 1.3271484375
7101143750.0 1.1195068359375 0.97088623046875
7132365625.0 1.6029052734375 0.01458740234375
7163587500.0 1.1593017578125 -1.0216064453125
7194809375.0 0.3028564453125 -1.39990234375
7226031250.0 -0.51318359375 -1.32940673828125
7257253125.0 -1.27105712890625 -0.82489013671875
7288475000.0 -1.562744140625 0.200439453125
7319696875.0 -1.03253173828125 1.1136474609375
7350918750.0 -0.16339111328125 1.44818115234375
7382140625.0 0.718505859375 1.2801513671875
7413362500.0 1.3818359375 0.57568359375
7444584375.0 1.41571044921875 -0.4093017578125
7475806250.0 0.85833740234375 -1.1458740234375
7507028125.0 0.0047607421875 -1.43194580078125
7538250000.0 -0.88897705078125 -1.1253662109375
7569471875.0 -1.337646484375 -0.31170654296875
7600693750.0 -1.20477294921875 0.49969482421875
7631915625.0 -0.71942138671875 1.08685302734375
7663137500.0 0.0811767578125 1.362060546875
7694359375.0 0.942413330078125 0.98223876953125
7725581250.0 1.24786376953125 0.18017578125
7756803125.0 1.0859375 -0.5009765625
7788025000.0 0.67236328125 -1.04736328125
7819246875.0 -0.1241455078125 -1.3529052734375
7850468750.0 -0.99755859375 -0.91680908203125
7881690625.0 -1.23675537109375 -0.1026611328125
7912912500.0 -1.05804443359375 0.55621337890625
7944134375.0 -0.60614013671875 1.1168212890625
7975356250.0 0.27386474609375 1.338134765625
8006578125.0 1.04962158203125 0.779296875
8037800000.0 1.19549560546875 0.01611328125
8069021875.0 1.008544921875 -0.61932373046875
8100243750.0 0.50048828125 -1.1632080078125
8131465625.0 -0.38916015625 -1.25567626953125
8162687500.0 -1.034423828125 -0.6866455078125
8193909375.0 -1.18310546875 0.00872802734375
8225131250.0 -1.020263671875 0.68109130859375
8256353125.0 -0.42156982421875 1.251953125
8287575000.0 0.504638671875 1.22998046875
8318796875.0 1.084716796875 0.636474609375
8350018750.0 1.248291015625 -0.0767822265625
8381240625.0 1.03350830078125 -0.84228515625
8412462500.0 0.25347900390625 -1.37615966796875
8443684375.0 -0.6708984375 -1.17120361328125
8474906250.0 -1.17755126953125 -0.53167724609375
8506128125.0 -1.29962158203125 0.23822021484375
8537350000.0 -0.92474365234375 1.0498046875
8568571875.0 -0.01593017578125 1.396728515625
8599793750.0 0.8043212890625 1.05328369140625
8631015625.0 1.24346923828125 0.3992919921875
8662237500.0 1.28887939453125 -0.43096923828125
8693459375.0 0.73687744140625 -1.1805419921875
8724681250.0 -0.16351318359375 -1.33465576171875
8755903125.0 -0.88250732421875 -0.9595947265625
8787125000.0 -1.309326171875 -0.28131103515625
8818346875.0 -1.2537841796875 0.61962890625
8849568750.0 -0.5570068359375 1.26373291015625
8880790625.0 0.300048828125 1.28924560546875
8912012500.0 0.985626220703125 0.8941650390625
8943234375.0 1.40423583984375 0.12774658203125
8974456250.0 1.16864013671875 -0.8446044921875
9005678125.0 0.34698486328125 -1.31585693359375
9036900000.0 -0.4481201171875 -1.22711181640625
9068121875.0 -1.1041259765625 -0.78704833984375
9099343750.0 -1.44329833984375 0.0994873046875
9130565625.0 -0.9801025390625 1.015625
9161787500.0 -0.15313720703125 1.2852783203125
9193009375.0 0.5552978515625 1.1351318359375
9224231250.0 1.1832275390625 0.6561279296875
9255453125.0 1.4031982421875 -0.2978515625
9286675000.0 0.80780029296875 -1.08837890625
9317896875.0 0.02691650390625 -1.2479248046875
9349118750.0 -0.65728759765625 -1.07220458984375
9380340625.0 -1.26092529296875 -0.51019287109375
9411562500.0 -1.31561279296875 0.481689453125
9442784375.0 -0.6490478515625 1.12109375
9474006250.0 0.09063720703125 1.21368408203125
9505228125.0 0.76959228515625 0.98223876953125
9536450000.0 1.279052734375 0.310791015625
9567671875.0 1.14520263671875 -0.58245849609375
9598893750.0 0.5291748046875 -1.07232666015625
9630115625.0 -0.14471435546875 -1.15997314453125
9661337500.0 -0.822540283203125 -0.9034423828125
9692559375.0 -1.2423095703125 -0.1875
9723781250.0 -1.04498291015625 0.60650634765625
9755003125.0 -0.48492431640625 1.05364990234375
9786225000.0 0.2010498046875 1.16229248046875
9817446875.0 0.898895263671875 0.828216552734375
9848668750.0 1.2020263671875 0.0762939453125
9879890625.0 0.969573974609375 -0.61700439453125
9911112500.0 0.45269775390625 -1.05511474609375
9942334375.0 -0.26983642578125 -1.16253662109375
9973556250.0 -0.948089599609375 -0.738250732421875
10004778125.0 -1.1490478515625 -0.01513671875
10036000000.0 -0.9454345703125 0.619964599609375
10067221875.0 -0.4405517578125 1.1016845703125
10098443750.0 0.37298583984375 1.183349609375
10129665625.0 1.00677490234375 0.6416015625
10160887500.0 1.1217041015625 -0.0540771484375
10192109375.0 0.91845703125 -0.667755126953125
10223331250.0 0.35919189453125 -1.1558837890625
10254553125.0 -0.490478515625 -1.11614990234375
10285775000.0 -0.987884521484375 -0.53424072265625
10316996875.0 -1.06866455078125 0.07781982421875
10348218750.0 -0.900482177734375 0.6717529296875
10379440625.0 -0.32110595703125 1.17852783203125
10410662500.0 0.53118896484375 1.08770751953125
10441884375.0 0.995025634765625 0.521209716796875
10473106250.0 1.1123046875 -0.08587646484375
10504328125.0 0.94989013671875 -0.75775146484375
10535550000.0 0.23748779296875 -1.30029296875
10566771875.0 -0.66094970703125 -1.07818603515625
10597993750.0 -1.0833740234375 -0.45819091796875
10629215625.0 -1.1776123046875 0.20703125
10660437500.0 -0.88824462890625 0.956878662109375
10691659375.0 -0.00555419921875 1.33929443359375
10722881250.0 0.78765869140625 0.952056884765625
10754103125.0 1.123291015625 0.32366943359375
10785325000.0 1.14227294921875 -0.3709716796875
10816546875.0 0.70086669921875 -1.05267333984375
10847768750.0 -0.14703369140625 -1.23199462890625
10878990625.0 -0.80645751953125 -0.844757080078125
10910212500.0 -1.1248779296875 -0.2452392578125
10941434375.0 -1.100341796875 0.48028564453125
10972656250.0 -0.56805419921875 1.089599609375
11003878125.0 0.21966552734375 1.1756591796875
11035100000.0 0.85125732421875 0.823089599609375
11066321875.0 1.224853515625 0.172119140625
11097543750.0 1.1009521484375 -0.68084716796875
11128765625.0 0.38348388671875 -1.204345703125
11159987500.0 -0.3997802734375 -1.14178466796875
11191209375.0 -1.00396728515625 -0.701904296875
11222431250.0 -1.27520751953125 0.09661865234375
11253653125.0 -0.859039306640625 0.897491455078125
11284875000.0 -0.1112060546875 1.13055419921875
11316096875.0 0.5142822265625 0.958709716796875
11347318750.0 1.0052490234375 0.502197265625
11378540625.0 1.1199951171875 -0.273193359375
11409762500.0 0.6339111328125 -0.86175537109375
11440984375.0 0.03546142578125 -0.979736328125
11472206250.0 -0.4830322265625 -0.85198974609375
11503428125.0 -0.954742431640625 -0.4559326171875
11534650000.0 -1.07122802734375 0.29278564453125
11565871875.0 -0.601654052734375 0.858123779296875
11597093750.0 -0.017425537109375 0.994140625
11628315625.0 0.546661376953125 0.877349853515625
11659537500.0 1.06341552734375 0.390869140625
11690759375.0 1.06597900390625 -0.43890380859375
11721981250.0 0.515533447265625 -0.94427490234375
11753203125.0 -0.1077880859375 -1.03900146484375
11784425000.0 -0.728790283203125 -0.81011962890625
11815646875.0 -1.1036376953125 -0.14874267578125
11846868750.0 -0.892547607421875 0.555145263671875
11878090625.0 -0.390716552734375 0.910491943359375
11909312500.0 0.189422607421875 0.986846923828125
11940534375.0 0.784515380859375 0.69482421875
11971756250.0 1.02813720703125 0.03704833984375
12002978125.0 0.80792236328125 -0.54058837890625
12034200000.0 0.381103515625 -0.892181396484375
12065421875.0 -0.2188720703125 -1.0130615234375
12096643750.0 -0.852386474609375 -0.664459228515625
12127865625.0 -1.03521728515625 0.0189208984375
12159087500.0 -0.816192626953125 0.57818603515625
12190309375.0 -0.376708984375 0.978363037109375
12221531250.0 0.34320068359375 1.09051513671875
12252753125.0 0.984649658203125 0.579315185546875
12283975000.0 1.0556640625 -0.1300048828125
12315196875.0 0.800262451171875 -0.68023681640625
12346418750.0 0.2794189453125 -1.09478759765625
12377640625.0 -0.54254150390625 -1.061767578125
12408862500.0 -1.03564453125 -0.4185791015625
12440084375.0 -1.0103759765625 0.2266845703125
12471306250.0 -0.7427978515625 0.738983154296875
12502528125.0 -0.17755126953125 1.12445068359375
12533750000.0 0.623992919921875 0.99481201171875
12564971875.0 1.04425048828125 0.36273193359375
12596193750.0 1.03204345703125 -0.26806640625
12627415625.0 0.748046875 -0.83282470703125
12658637500.0 0.0765380859375 -1.2117919921875
12689859375.0 -0.7406005859375 -0.966705322265625
12721081250.0 -1.1182861328125 -0.304931640625
12752303125.0 -1.10064697265625 0.3865966796875
12783525000.0 -0.68609619140625 1.03460693359375
12814746875.0 0.16815185546875 1.25360107421875
12845968750.0 0.8682861328125 0.809783935546875
12877190625.0 1.1209716796875 0.1693115234375
12908412500.0 1.0582275390625 -0.507568359375
12939634375.0 0.54034423828125 -1.1209716796875
12970856250.0 -0.323974609375 -1.17584228515625
13002078125.0 -0.897979736328125 -0.692535400390625
13033300000.0 -1.10955810546875 -0.08343505859375
13064521875.0 -1.01190185546875 0.59844970703125
13095743750.0 -0.41802978515625 1.159423828125
13126965625.0 0.41400146484375 1.122314453125
13158187500.0 0.9503173828125 0.63128662109375
13189409375.0 1.150634765625 -0.02313232421875
13220631250.0 0.936981201171875 -0.75537109375
13251853125.0 0.2296142578125 -1.177001953125
13283075000.0 -0.5111083984375 -1.020263671875
13314296875.0 -0.99200439453125 -0.527435302734375
13345518750.0 -1.1395263671875 0.18267822265625
