!Created with skrf (http://scikit-rf.org).
# Hz S RI R 50.0 
!freq ReS11 ImS11
45000000.0 -0.07735443115234375 -0.09674453735351562
76221875.0 -0.19655609130859375 -0.0472564697265625
107443750.0 -0.2548980712890625 0.1200103759765625
138665625.0 -0.1479644775390625 0.3289794921875
169887500.0 0.123931884765625 0.417755126953125
201109375.0 0.4222412109375 0.28070068359375
232331250.0 0.579132080078125 -0.057952880859375
263553125.0 0.489654541015625 -0.4535369873046875
294775000.0 0.097900390625 -0.733306884765625
325996875.0 -0.416290283203125 -0.6806640625
357218750.0 -0.807159423828125 -0.296417236328125
388440625.0 -0.886016845703125 0.301605224609375
419662500.0 -0.516845703125 0.867340087890625
450884375.0 0.1741943359375 1.02911376953125
482106250.0 0.799407958984375 0.71234130859375
513328125.0 1.119873046875 0.0863037109375
544550000.0 1.00341796875 -0.68084716796875
575771875.0 0.33538818359375 -1.239013671875
606993750.0 -0.554931640625 -1.17718505859375
638215625.0 -1.1666259765625 -0.589599609375
669437500.0 -1.33990478515625 0.234619140625
700659375.0 -0.970458984375 1.09710693359375
731881250.0 -0.00244140625 1.5433349609375
763103125.0 1.00677490234375 1.1553955078125
794325000.0 1.46917724609375 0.28070068359375
825546875.0 1.366943359375 -0.652587890625
856768750.0 0.793701171875 -1.40185546875
887990625.0 -0.2943115234375 -1.6484375
919212500.0 -1.289306640625 -1.0780029296875
950434375.0 -1.649169921875 -0.05792236328125
981656250.0 -1.38238525390625 0.94781494140625
1012878125.0 -0.5284423828125 1.67254638671875
1044100000.0 0.69842529296875 1.6614990234375
1075321875.0 1.57574462890625 0.81072998046875
1106543750.0 1.70477294921875 -0.314453125
1137765625.0 1.18572998046875 -1.28594970703125
1168987500.0 0.1368408203125 -1.79736328125
1200209375.0 -1.0628662109375 -1.48291015625
1231431250.0 -1.7281494140625 -0.45208740234375
1262653125.0 -1.59368896484375 0.68597412109375
1293875000.0 -0.8507080078125 1.4921875
1325096875.0 0.22943115234375 1.70660400390625
1356318750.0 1.2353515625 1.21600341796875
1387540625.0 1.7398681640625 0.18841552734375
1418762500.0 1.46875 -0.9522705078125
1449984375.0 0.52838134765625 -1.6265869140625
1481206250.0 -0.55078125 -1.55596923828125
1512428125.0 -1.34271240234375 -0.91864013671875
1543650000.0 -1.65576171875 0.0662841796875
1574871875.0 -1.27264404296875 1.1094970703125
1606093750.0 -0.2716064453125 1.63189697265625
1637315625.0 0.7432861328125 1.39984130859375
1668537500.0 1.39630126953125 0.69451904296875
1699759375.0 1.572509765625 -0.2779541015625
1730981250.0 1.06292724609375 -1.2294921875
1762203125.0 0.041015625 -1.5703125
1793425000.0 -0.8563232421875 -1.22564697265625
1824646875.0 -1.39349365234375 -0.5140380859375
1855868750.0 -1.47381591796875 0.4327392578125
1887090625.0 -0.874267578125 1.285400390625
1918312500.0 0.117431640625 1.4862060546875
1949534375.0 0.92193603515625 1.08856201171875
1980756250.0 1.37542724609375 0.36920166015625
2011978125.0 1.3594970703125 -0.532958984375
2043200000.0 0.7490234375 -1.26165771484375
2074421875.0 -0.15753173828125 -1.4326171875
2105643750.0 -0.9600830078125 -1.07122802734375
2136865625.0 -1.44708251953125 -0.30413818359375
2168087500.0 -1.35589599609375 0.6717529296875
2199309375.0 -0.63800048828125 1.35101318359375
2230531250.0 0.28271484375 1.43548583984375
2261753125.0 1.07305908203125 1.0133056640625
2292975000.0 1.51434326171875 0.16925048828125
2324196875.0 1.30462646484375 -0.81903076171875
2355418750.0 0.52447509765625 -1.41943359375
2386640625.0 -0.405029296875 -1.448486328125
2417862500.0 -1.18133544921875 -1.02349853515625
2449084375.0 -1.6055908203125 -0.08282470703125
2480306250.0 -1.3104248046875 0.92486572265625
2511528125.0 -0.49249267578125 1.507080078125
2542750000.0 0.48931884765625 1.53564453125
2573971875.0 1.37060546875 0.96624755859375
2605193750.0 1.7164306640625 -0.11328125
2636415625.0 1.260498046875 -1.15460205078125
2667637500.0 0.30523681640625 -1.66741943359375
2698859375.0 -0.7705078125 -1.53363037109375
2730081250.0 -1.574462890625 -0.73907470703125
2761303125.0 -1.68084716796875 0.3895263671875
2792525000.0 -1.09814453125 1.30865478515625
2823746875.0 -0.10137939453125 1.728759765625
2854968750.0 1.01226806640625 1.45452880859375
2886190625.0 1.69219970703125 0.49017333984375
2917412500.0 1.5987548828125 -0.6182861328125
2948634375.0 0.9388427734375 -1.43402099609375
2979856250.0 -0.110595703125 -1.77703857421875
3011078125.0 -1.24822998046875 -1.34112548828125
3042300000.0 -1.7755126953125 -0.232666015625
3073521875.0 -1.5072021484375 0.83929443359375
3104743750.0 -0.761962890625 1.56878662109375
3135965625.0 0.36260986328125 1.80841064453125
3167187500.0 1.49981689453125 1.1629638671875
3198409375.0 1.81536865234375 -0.0765380859375
3229631250.0 1.34735107421875 -1.081298828125
3260853125.0 0.4881591796875 -1.668212890625
3292075000.0 -0.65435791015625 -1.69622802734375
3323296875.0 -1.6195068359375 -0.8785400390625
3354518750.0 -1.7294921875 0.33013916015625
3385740625.0 -1.1544189453125 1.2335205078125
3416962500.0 -0.23004150390625 1.680908203125
3448184375.0 0.85931396484375 1.52001953125
3479406250.0 1.6341552734375 0.64349365234375
3510628125.0 1.6435546875 -0.49560546875
3541850000.0 0.99951171875 -1.3555908203125
3573071875.0 -0.0081787109375 -1.68109130859375
3604293750.0 -1.02783203125 -1.33642578125
3635515625.0 -1.62579345703125 -0.43829345703125
3666737500.0 -1.5609130859375 0.64697265625
3697959375.0 -0.82403564453125 1.4749755859375
3729181250.0 0.26910400390625 1.63006591796875
3760403125.0 1.15283203125 1.096923828125
3791625000.0 1.55169677734375 0.21722412109375
3822846875.0 1.4002685546875 -0.7603759765625
3854068750.0 0.61895751953125 -1.48077392578125
3885290625.0 -0.42242431640625 -1.4805908203125
3916512500.0 -1.141845703125 -0.90985107421875
3947734375.0 -1.4464111328125 -0.1195068359375
3978956250.0 -1.29608154296875 0.77886962890625
4010178125.0 -0.53033447265625 1.4544677734375
4041400000.0 0.47369384765625 1.41461181640625
4072621875.0 1.1514892578125 0.8468017578125
4103843750.0 1.44329833984375 0.06292724609375
4135065625.0 1.26654052734375 -0.8448486328125
4166287500.0 0.457275390625 -1.49566650390625
4197509375.0 -0.558349609375 -1.4146728515625
4228731250.0 -1.24810791015625 -0.802001953125
4259953125.0 -1.5081787109375 0.071044921875
4291175000.0 -1.18731689453125 1.01019287109375
4322396875.0 -0.2879638671875 1.5262451171875
4353618750.0 0.67352294921875 1.349365234375
4384840625.0 1.3216552734375 0.6962890625
4416062500.0 1.49969482421875 -0.2276611328125
4447284375.0 1.053955078125 -1.10418701171875
4478506250.0 0.171875 -1.494384765625
4509728125.0 -0.73333740234375 -1.306640625
4540950000.0 -1.39306640625 -0.63525390625
4572171875.0 -1.5211181640625 0.359619140625
4603393750.0 -0.97161865234375 1.213134765625
4634615625.0 -0.06072998046875 1.53656005859375
4665837500.0 0.87005615234375 1.3038330078125
4697059375.0 1.54095458984375 0.5150146484375
4728281250.0 1.52783203125 -0.58160400390625
4759503125.0 0.822509765625 -1.36676025390625
4790725000.0 -0.1466064453125 -1.572509765625
4821946875.0 -1.08428955078125 -1.193359375
4853168750.0 -1.61468505859375 -0.2491455078125
4884390625.0 -1.37652587890625 0.79168701171875
4915612500.0 -0.6129150390625 1.41143798828125
4946834375.0 0.32855224609375 1.50799560546875
4978056250.0 1.20623779296875 1.016357421875
5009278125.0 1.560546875 0.0399169921875
5040500000.0 1.22869873046875 -0.8763427734375
5071721875.0 0.50054931640625 -1.4149169921875
5102943750.0 -0.44586181640625 -1.49530029296875
5134165625.0 -1.33489990234375 -0.9044189453125
5165387500.0 -1.56787109375 0.146728515625
5196609375.0 -1.1358642578125 1.00909423828125
5227831250.0 -0.3570556640625 1.505859375
5259053125.0 0.68780517578125 1.49169921875
5290275000.0 1.52154541015625 0.6624755859375
5321496875.0 1.49176025390625 -0.430908203125
5352718750.0 0.92059326171875 -1.1536865234375
5383940625.0 0.09600830078125 -1.49981689453125
5415162500.0 -0.90032958984375 -1.283447265625
5446384375.0 -1.483642578125 -0.36981201171875
5477606250.0 -1.298583984375 0.5662841796875
5508828125.0 -0.7308349609375 1.15106201171875
5540050000.0 0.0543212890625 1.39788818359375
5571271875.0 0.93853759765625 1.10821533203125
5602493750.0 1.4083251953125 0.25958251953125
5633715625.0 1.2313232421875 -0.6124267578125
5664937500.0 0.64794921875 -1.201904296875
5696159375.0 -0.19647216796875 -1.38287353515625
5727381250.0 -1.02362060546875 -0.97833251953125
5758603125.0 -1.39105224609375 -0.14501953125
5789825000.0 -1.19415283203125 0.71820068359375
5821046875.0 -0.5057373046875 1.30731201171875
5852268750.0 0.4105224609375 1.3121337890625
5883490625.0 1.07098388671875 0.77197265625
5914712500.0 1.3021240234375 0.02001953125
5945934375.0 1.09619140625 -0.77642822265625
5977156250.0 0.36102294921875 -1.3125
6008378125.0 -0.50927734375 -1.18218994140625
6039600000.0 -1.02166748046875 -0.648681640625
6070821875.0 -1.2237548828125 -0.0037841796875
6102043750.0 -1.08221435546875 0.76202392578125
6133265625.0 -0.34185791015625 1.34423828125
6164487500.0 0.563232421875 1.1873779296875
6195709375.0 1.070556640625 0.6300048828125
6226931250.0 1.2794189453125 -0.0428466796875
6258153125.0 1.10455322265625 -0.8714599609375
6289375000.0 0.2559814453125 -1.44610595703125
6320596875.0 -0.6895751953125 -1.2064208984375
6351818750.0 -1.199951171875 -0.57171630859375
6383040625.0 -1.35400390625 0.2061767578125
6414262500.0 -0.999755859375 1.057373046875
6445484375.0 -0.07781982421875 1.456298828125
6476706250.0 0.79583740234375 1.14739990234375
6507928125.0 1.29058837890625 0.4696044921875
6539150000.0 1.34722900390625 -0.38671875
6570371875.0 0.84100341796875 -1.14434814453125
6601593750.0 -0.01776123046875 -1.40460205078125
6632815625.0 -0.84014892578125 -1.135986328125
6664037500.0 -1.40087890625 -0.420166015625
6695259375.0 -1.37286376953125 0.56512451171875
6726481250.0 -0.710205078125 1.25091552734375
6757703125.0 0.1309814453125 1.4068603515625
6788925000.0 0.9547119140625 1.130615234375
6820146875.0 1.560791015625 0.2874755859375
6851368750.0 1.326171875 -0.82012939453125
6882590625.0 0.50665283203125 -1.33831787109375
6913812500.0 -0.29205322265625 -1.35601806640625
6945034375.0 -1.06982421875 -1.02154541015625
6976256250.0 -1.5936279296875 -0.09320068359375
7007478125.0 -1.23699951171875 0.935546875
7038700000.0 -0.40191650390625 1.34234619140625
7069921875.0 0.35882568359375 1.3238525390625
7101143750.0 1.11981201171875 0.96722412109375
7132365625.0 1.60089111328125 0.0115966796875
7163587500.0 1.15753173828125 -1.0201416015625
7194809375.0 0.3011474609375 -1.39849853515625
7226031250.0 -0.5093994140625 -1.32574462890625
7257253125.0 -1.2657470703125 -0.82440185546875
7288475000.0 -1.55810546875 0.19866943359375
7319696875.0 -1.02880859375 1.1082763671875
7350918750.0 -0.16278076171875 1.4453125
7382140625.0 0.71490478515625 1.27557373046875
7413362500.0 1.37725830078125 0.576416015625
7444584375.0 1.41339111328125 -0.4068603515625
7475806250.0 0.85870361328125 -1.14337158203125
7507028125.0 0.00408935546875 -1.4298095703125
7538250000.0 -0.8870849609375 -1.12347412109375
7569471875.0 -1.336181640625 -0.3114013671875
7600693750.0 -1.20123291015625 0.49688720703125
7631915625.0 -0.71844482421875 1.085205078125
7663137500.0 0.0806884765625 1.35809326171875
7694359375.0 0.939971923828125 0.98126220703125
7725581250.0 1.24444580078125 0.17926025390625
7756803125.0 1.0816650390625 -0.49884033203125
7788025000.0 0.67010498046875 -1.04315185546875
7819246875.0 -0.12030029296875 -1.34716796875
7850468750.0 -0.993072509765625 -0.916290283203125
7881690625.0 -1.23138427734375 -0.1046142578125
7912912500.0 -1.0545654296875 0.55450439453125
7944134375.0 -0.60498046875 1.1131591796875
7975356250.0 0.27130126953125 1.3348388671875
8006578125.0 1.04742431640625 0.77935791015625
8037800000.0 1.1923828125 0.01751708984375
8069021875.0 1.00653076171875 -0.61761474609375
8100243750.0 0.499755859375 -1.16162109375
8131465625.0 -0.38934326171875 -1.256103515625
8162687500.0 -1.03265380859375 -0.6861572265625
8193909375.0 -1.18115234375 0.0089111328125
8225131250.0 -1.0177001953125 0.67840576171875
8256353125.0 -0.42059326171875 1.24908447265625
8287575000.0 0.5010986328125 1.226318359375
8318796875.0 1.0814208984375 0.63531494140625
8350018750.0 1.24664306640625 -0.0770263671875
8381240625.0 1.03155517578125 -0.83819580078125
8412462500.0 0.254150390625 -1.374755859375
8443684375.0 -0.6683349609375 -1.16943359375
8474906250.0 -1.17474365234375 -0.53271484375
8506128125.0 -1.29876708984375 0.2379150390625
8537350000.0 -0.92431640625 1.04608154296875
8568571875.0 -0.015380859375 1.3948974609375
8599793750.0 0.8026123046875 1.05316162109375
8631015625.0 1.24139404296875 0.3984375
8662237500.0 1.28662109375 -0.43072509765625
8693459375.0 0.7362060546875 -1.17950439453125
8724681250.0 -0.16326904296875 -1.33184814453125
8755903125.0 -0.8826904296875 -0.957733154296875
8787125000.0 -1.30255126953125 -0.28265380859375
8818346875.0 -1.25030517578125 0.61614990234375
8849568750.0 -0.556396484375 1.26055908203125
8880790625.0 0.29779052734375 1.2847900390625
8912012500.0 0.981109619140625 0.8931884765625
8943234375.0 1.39996337890625 0.12860107421875
8974456250.0 1.16754150390625 -0.8399658203125
9005678125.0 0.3486328125 -1.31329345703125
9036900000.0 -0.44415283203125 -1.22393798828125
9068121875.0 -1.10284423828125 -0.78564453125
9099343750.0 -1.44232177734375 0.09814453125
9130565625.0 -0.97979736328125 1.01141357421875
9161787500.0 -0.155029296875 1.28265380859375
9193009375.0 0.55450439453125 1.1351318359375
9224231250.0 1.1806640625 0.65447998046875
9255453125.0 1.3995361328125 -0.296875
9286675000.0 0.80755615234375 -1.08392333984375
9317896875.0 0.0269775390625 -1.24676513671875
9349118750.0 -0.6544189453125 -1.06976318359375
9380340625.0 -1.25799560546875 -0.509521484375
9411562500.0 -1.3116455078125 0.4765625
9442784375.0 -0.64801025390625 1.11859130859375
9474006250.0 0.0885009765625 1.21051025390625
9505228125.0 0.765106201171875 0.980133056640625
9536450000.0 1.27423095703125 0.31396484375
9567671875.0 1.1446533203125 -0.5804443359375
9598893750.0 0.530029296875 -1.0706787109375
9630115625.0 -0.14447021484375 -1.158447265625
9661337500.0 -0.81915283203125 -0.9019775390625
9692559375.0 -1.24005126953125 -0.190185546875
9723781250.0 -1.04364013671875 0.60394287109375
9755003125.0 -0.48626708984375 1.0501708984375
9786225000.0 0.19873046875 1.159423828125
9817446875.0 0.89508056640625 0.828765869140625
9848668750.0 1.19891357421875 0.07763671875
9879890625.0 0.96881103515625 -0.617706298828125
9911112500.0 0.45306396484375 -1.0516357421875
9942334375.0 -0.26873779296875 -1.15924072265625
9973556250.0 -0.9415283203125 -0.739410400390625
10004778125.0 -1.14697265625 -0.0166015625
10036000000.0 -0.9444580078125 0.615234375
10067221875.0 -0.44268798828125 1.09613037109375
10098443750.0 0.37017822265625 1.18243408203125
10129665625.0 1.00384521484375 0.64300537109375
10160887500.0 1.12152099609375 -0.05224609375
10192109375.0 0.917083740234375 -0.663116455078125
10223331250.0 0.3619384765625 -1.15283203125
10254553125.0 -0.48651123046875 -1.1142578125
10285775000.0 -0.98614501953125 -0.534912109375
10316996875.0 -1.06683349609375 0.076416015625
10348218750.0 -0.899871826171875 0.670562744140625
10379440625.0 -0.32232666015625 1.1766357421875
10410662500.0 0.52783203125 1.08599853515625
10441884375.0 0.992584228515625 0.5220947265625
10473106250.0 1.110595703125 -0.08740234375
10504328125.0 0.948760986328125 -0.756134033203125
10535550000.0 0.24041748046875 -1.29498291015625
10566771875.0 -0.65618896484375 -1.07781982421875
10597993750.0 -1.080322265625 -0.45880126953125
10629215625.0 -1.1749267578125 0.204345703125
10660437500.0 -0.888153076171875 0.952301025390625
10691659375.0 -0.01068115234375 1.33642578125
10722881250.0 0.784576416015625 0.953826904296875
10754103125.0 1.11944580078125 0.32501220703125
10785325000.0 1.140380859375 -0.3677978515625
10816546875.0 0.7005615234375 -1.04962158203125
10847768750.0 -0.14593505859375 -1.230224609375
10878990625.0 -0.80352783203125 -0.8438720703125
10910212500.0 -1.1239013671875 -0.244140625
10941434375.0 -1.09759521484375 0.477294921875
10972656250.0 -0.56878662109375 1.08380126953125
11003878125.0 0.2176513671875 1.1748046875
11035100000.0 0.849090576171875 0.822235107421875
11066321875.0 1.220458984375 0.17535400390625
11097543750.0 1.09881591796875 -0.67510986328125
11128765625.0 0.38592529296875 -1.19940185546875
11159987500.0 -0.39471435546875 -1.1387939453125
11191209375.0 -1.00006103515625 -0.702392578125
11222431250.0 -1.27276611328125 0.09295654296875
11253653125.0 -0.8602294921875 0.895263671875
11284875000.0 -0.1131591796875 1.12811279296875
11316096875.0 0.51129150390625 0.9564208984375
11347318750.0 1.0032958984375 0.50299072265625
11378540625.0 1.11767578125 -0.270263671875
11409762500.0 0.6341552734375 -0.859527587890625
11440984375.0 0.03521728515625 -0.9791259765625
11472206250.0 -0.482025146484375 -0.85064697265625
11503428125.0 -0.95306396484375 -0.456085205078125
11534650000.0 -1.069580078125 0.28973388671875
11565871875.0 -0.60223388671875 0.85546875
11597093750.0 -0.01824951171875 0.9913330078125
11628315625.0 0.544189453125 0.875213623046875
11659537500.0 1.06146240234375 0.39251708984375
11690759375.0 1.06488037109375 -0.433837890625
11721981250.0 0.517791748046875 -0.94091796875
11753203125.0 -0.10516357421875 -1.03656005859375
11784425000.0 -0.72528076171875 -0.8092041015625
11815646875.0 -1.101806640625 -0.15045166015625
11846868750.0 -0.891571044921875 0.552581787109375
11878090625.0 -0.39019775390625 0.90887451171875
11909312500.0 0.187896728515625 0.984588623046875
11940534375.0 0.7803955078125 0.695281982421875
11971756250.0 1.02459716796875 0.03973388671875
12002978125.0 0.805938720703125 -0.538330078125
12034200000.0 0.382232666015625 -0.888427734375
12065421875.0 -0.21612548828125 -1.010986328125
12096643750.0 -0.847076416015625 -0.6650390625
12127865625.0 -1.03363037109375 0.01641845703125
12159087500.0 -0.81622314453125 0.575958251953125
12190309375.0 -0.3775634765625 0.975799560546875
12221531250.0 0.3392333984375 1.08782958984375
12252753125.0 0.98162841796875 0.58197021484375
12283975000.0 1.05517578125 -0.12908935546875
12315196875.0 0.800537109375 -0.676971435546875
12346418750.0 0.28167724609375 -1.091552734375
12377640625.0 -0.539306640625 -1.06072998046875
12408862500.0 -1.035888671875 -0.42022705078125
12440084375.0 -1.009033203125 0.22552490234375
12471306250.0 -0.74139404296875 0.7381591796875
12502528125.0 -0.1788330078125 1.12127685546875
12533750000.0 0.6204833984375 0.993896484375
12564971875.0 1.04180908203125 0.36383056640625
12596193750.0 1.02972412109375 -0.26495361328125
12627415625.0 0.747222900390625 -0.827850341796875
12658637500.0 0.0789794921875 -1.20867919921875
12689859375.0 -0.7369384765625 -0.966827392578125
12721081250.0 -1.116943359375 -0.30535888671875
12752303125.0 -1.09857177734375 0.3814697265625
12783525000.0 -0.68707275390625 1.02838134765625
12814746875.0 0.16534423828125 1.25177001953125
12845968750.0 0.863525390625 0.81158447265625
12877190625.0 1.11773681640625 0.17205810546875
12908412500.0 1.05755615234375 -0.50201416015625
12939634375.0 0.54241943359375 -1.116455078125
12970856250.0 -0.32080078125 -1.175537109375
13002078125.0 -0.895172119140625 -0.692535400390625
13033300000.0 -1.10601806640625 -0.08660888671875
13064521875.0 -1.00927734375 0.59417724609375
13095743750.0 -0.420654296875 1.15435791015625
13126965625.0 0.4097900390625 1.1212158203125
13158187500.0 0.9462890625 0.632293701171875
13189409375.0 1.1490478515625 -0.02178955078125
13220631250.0 0.936309814453125 -0.749176025390625
13251853125.0 0.2347412109375 -1.17083740234375
13283075000.0 -0.50726318359375 -1.0201416015625
13314296875.0 -0.987213134765625 -0.530029296875
13345518750.0 -1.13580322265625 0.177490234375
13376740625.0 -0.753204345703125 0.856414794921875
