!Created with skrf (http://scikit-rf.org).
# Hz S RI R 50.0 
!freq ReS11 ImS11
45000000.0 -0.07674789428710938 -0.09702301025390625
76221875.0 -0.19672393798828125 -0.048065185546875
107443750.0 -0.255859375 0.1195068359375
138665625.0 -0.1491546630859375 0.3288116455078125
169887500.0 0.122802734375 0.418731689453125
201109375.0 0.422119140625 0.282623291015625
232331250.0 0.580291748046875 -0.056488037109375
263553125.0 0.4915771484375 -0.45294189453125
294775000.0 0.10015869140625 -0.73382568359375
325996875.0 -0.41497802734375 -0.68328857421875
357218750.0 -0.807769775390625 -0.29949951171875
388440625.0 -0.888519287109375 0.2996826171875
419662500.0 -0.520263671875 0.867279052734375
450884375.0 0.1710205078125 1.03167724609375
482106250.0 0.798736572265625 0.716094970703125
513328125.0 1.1217041015625 0.08978271484375
544550000.0 1.007080078125 -0.67913818359375
575771875.0 0.33966064453125 -1.23980712890625
606993750.0 -0.55218505859375 -1.1810302734375
638215625.0 -1.1669921875 -0.59417724609375
669437500.0 -1.3428955078125 0.2314453125
700659375.0 -0.97467041015625 1.09625244140625
731881250.0 -0.0072021484375 1.5457763671875
763103125.0 1.005126953125 1.16058349609375
794325000.0 1.4710693359375 0.28570556640625
825546875.0 1.37115478515625 -0.65020751953125
856768750.0 0.79840087890625 -1.4022216796875
887990625.0 -0.2900390625 -1.6527099609375
919212500.0 -1.2886962890625 -1.0836181640625
950434375.0 -1.65252685546875 -0.062255859375
981656250.0 -1.38787841796875 0.9459228515625
1012878125.0 -0.5341796875 1.67486572265625
1044100000.0 0.6956787109375 1.667724609375
1075321875.0 1.57684326171875 0.81719970703125
1106543750.0 1.70928955078125 -0.3099365234375
1137765625.0 1.1920166015625 -1.28509521484375
1168987500.0 0.14202880859375 -1.8017578125
1200209375.0 -1.0614013671875 -1.4893798828125
1231431250.0 -1.73077392578125 -0.457763671875
1262653125.0 -1.59857177734375 0.6832275390625
1293875000.0 -0.8570556640625 1.4932861328125
1325096875.0 0.2252197265625 1.71112060546875
1356318750.0 1.23529052734375 1.22210693359375
1387540625.0 1.74359130859375 0.1925048828125
1418762500.0 1.47454833984375 -0.95123291015625
1449984375.0 0.53363037109375 -1.62835693359375
1481206250.0 -0.54754638671875 -1.5604248046875
1512428125.0 -1.34320068359375 -0.92401123046875
1543650000.0 -1.6593017578125 0.06280517578125
1574871875.0 -1.27777099609375 1.108642578125
1606093750.0 -0.2767333984375 1.6341552734375
1637315625.0 0.74078369140625 1.40478515625
1668537500.0 1.39776611328125 0.70013427734375
1699759375.0 1.5762939453125 -0.27520751953125
1730981250.0 1.0684814453125 -1.2298583984375
1762203125.0 0.04522705078125 -1.57342529296875
1793425000.0 -0.85546875 -1.230224609375
1824646875.0 -1.395263671875 -0.51837158203125
1855868750.0 -1.4775390625 0.43060302734375
1887090625.0 -0.879150390625 1.28692626953125
1918312500.0 0.1151123046875 1.49005126953125
1949534375.0 0.92108154296875 1.0924072265625
1980756250.0 1.37713623046875 0.373291015625
2011978125.0 1.36334228515625 -0.53045654296875
2043200000.0 0.7537841796875 -1.26251220703125
2074421875.0 -0.1549072265625 -1.43621826171875
2105643750.0 -0.9603271484375 -1.07611083984375
2136865625.0 -1.4493408203125 -0.30755615234375
2168087500.0 -1.360595703125 0.67010498046875
2199309375.0 -0.64227294921875 1.35296630859375
2230531250.0 0.28021240234375 1.43914794921875
2261753125.0 1.0732421875 1.01776123046875
2292975000.0 1.51702880859375 0.17291259765625
2324196875.0 1.30908203125 -0.81829833984375
2355418750.0 0.52825927734375 -1.42138671875
2386640625.0 -0.40283203125 -1.45184326171875
2417862500.0 -1.18170166015625 -1.02752685546875
2449084375.0 -1.60675048828125 -0.0867919921875
2480306250.0 -1.31475830078125 0.92529296875
2511528125.0 -0.49664306640625 1.51080322265625
2542750000.0 0.48883056640625 1.540771484375
2573971875.0 1.37237548828125 0.97174072265625
2605193750.0 1.720947265625 -0.1103515625
2636415625.0 1.26519775390625 -1.1529541015625
2667637500.0 0.3099365234375 -1.66949462890625
2698859375.0 -0.76806640625 -1.5379638671875
2730081250.0 -1.576171875 -0.744140625
2761303125.0 -1.68597412109375 0.38739013671875
2792525000.0 -1.103515625 1.30987548828125
2823746875.0 -0.1046142578125 1.7333984375
2854968750.0 1.012451171875 1.4600830078125
2886190625.0 1.69537353515625 0.494140625
2917412500.0 1.6046142578125 -0.61724853515625
2948634375.0 0.943359375 -1.43548583984375
2979856250.0 -0.10540771484375 -1.7794189453125
3011078125.0 -1.24822998046875 -1.3468017578125
3042300000.0 -1.7783203125 -0.2371826171875
3073521875.0 -1.51251220703125 0.8377685546875
3104743750.0 -0.76666259765625 1.5703125
3135965625.0 0.35943603515625 1.8123779296875
3167187500.0 1.5013427734375 1.16864013671875
3198409375.0 1.81903076171875 -0.0726318359375
3229631250.0 1.35296630859375 -1.0821533203125
3260853125.0 0.492919921875 -1.67108154296875
3292075000.0 -0.65289306640625 -1.702880859375
3323296875.0 -1.6219482421875 -0.8834228515625
3354518750.0 -1.73529052734375 0.327880859375
3385740625.0 -1.15960693359375 1.2327880859375
3416962500.0 -0.234619140625 1.6839599609375
3448184375.0 0.860595703125 1.52618408203125
3479406250.0 1.6378173828125 0.6478271484375
3510628125.0 1.6480712890625 -0.49444580078125
3541850000.0 1.00360107421875 -1.35650634765625
3573071875.0 -0.00579833984375 -1.6845703125
3604293750.0 -1.02777099609375 -1.34075927734375
3635515625.0 -1.63031005859375 -0.4410400390625
3666737500.0 -1.56597900390625 0.64605712890625
3697959375.0 -0.82781982421875 1.47711181640625
3729181250.0 0.26708984375 1.6343994140625
3760403125.0 1.15240478515625 1.10113525390625
3791625000.0 1.55487060546875 0.22064208984375
3822846875.0 1.40594482421875 -0.76092529296875
3854068750.0 0.62335205078125 -1.48309326171875
3885290625.0 -0.42120361328125 -1.48486328125
3916512500.0 -1.14434814453125 -0.9140625
3947734375.0 -1.44964599609375 -0.12188720703125
3978956250.0 -1.30084228515625 0.77984619140625
4010178125.0 -0.533447265625 1.4573974609375
4041400000.0 0.4736328125 1.41845703125
4072621875.0 1.15338134765625 0.8492431640625
4103843750.0 1.44793701171875 0.064208984375
4135065625.0 1.27044677734375 -0.8468017578125
4166287500.0 0.45928955078125 -1.49835205078125
4197509375.0 -0.55804443359375 -1.4178466796875
4228731250.0 -1.24920654296875 -0.8045654296875
4259953125.0 -1.511474609375 0.0692138671875
4291175000.0 -1.19073486328125 1.00958251953125
4322396875.0 -0.29156494140625 1.5279541015625
4353618750.0 0.6728515625 1.3531494140625
4384840625.0 1.32476806640625 0.6995849609375
4416062500.0 1.50299072265625 -0.2252197265625
4447284375.0 1.0584716796875 -1.10589599609375
4478506250.0 0.17352294921875 -1.4984130859375
4509728125.0 -0.73297119140625 -1.31048583984375
4540950000.0 -1.39556884765625 -0.63824462890625
4572171875.0 -1.526123046875 0.36065673828125
4603393750.0 -0.97467041015625 1.21478271484375
4634615625.0 -0.062255859375 1.53936767578125
4665837500.0 0.871337890625 1.30718994140625
4697059375.0 1.54461669921875 0.516845703125
4728281250.0 1.5323486328125 -0.58294677734375
4759503125.0 0.824951171875 -1.36895751953125
4790725000.0 -0.144287109375 -1.5748291015625
4821946875.0 -1.08453369140625 -1.19696044921875
4853168750.0 -1.6162109375 -0.25250244140625
4884390625.0 -1.3812255859375 0.79443359375
4915612500.0 -0.61505126953125 1.41497802734375
4946834375.0 0.328369140625 1.51324462890625
4978056250.0 1.20654296875 1.02008056640625
5009278125.0 1.565185546875 0.03997802734375
5040500000.0 1.23211669921875 -0.87744140625
5071721875.0 0.50311279296875 -1.41754150390625
5102943750.0 -0.4468994140625 -1.49969482421875
5134165625.0 -1.33837890625 -0.9075927734375
5165387500.0 -1.5712890625 0.14678955078125
5196609375.0 -1.13812255859375 1.01043701171875
5227831250.0 -0.35760498046875 1.51068115234375
5259053125.0 0.68927001953125 1.49517822265625
5290275000.0 1.52435302734375 0.66400146484375
5321496875.0 1.49444580078125 -0.4302978515625
5352718750.0 0.9227294921875 -1.15447998046875
5383940625.0 0.09796142578125 -1.50323486328125
5415162500.0 -0.90167236328125 -1.286865234375
5446384375.0 -1.4873046875 -0.37164306640625
5477606250.0 -1.30206298828125 0.56646728515625
5508828125.0 -0.73382568359375 1.152587890625
5540050000.0 0.0537109375 1.40185546875
5571271875.0 0.94000244140625 1.1114501953125
5602493750.0 1.41162109375 0.26080322265625
5633715625.0 1.23468017578125 -0.61358642578125
5664937500.0 0.65008544921875 -1.20458984375
5696159375.0 -0.1973876953125 -1.38653564453125
5727381250.0 -1.02423095703125 -0.97998046875
5758603125.0 -1.39404296875 -0.145263671875
5789825000.0 -1.19659423828125 0.71954345703125
5821046875.0 -0.50732421875 1.309326171875
5852268750.0 0.41241455078125 1.31524658203125
5883490625.0 1.07293701171875 0.77386474609375
5914712500.0 1.3055419921875 0.01995849609375
5945934375.0 1.09893798828125 -0.7779541015625
5977156250.0 0.3623046875 -1.3140869140625
6008378125.0 -0.5101318359375 -1.18475341796875
6039600000.0 -1.02313232421875 -0.6505126953125
6070821875.0 -1.22589111328125 -0.0045166015625
6102043750.0 -1.085693359375 0.765625
6133265625.0 -0.3419189453125 1.34808349609375
6164487500.0 0.56536865234375 1.1898193359375
6195709375.0 1.07275390625 0.63153076171875
6226931250.0 1.28271484375 -0.042724609375
6258153125.0 1.10650634765625 -0.873291015625
6289375000.0 0.2554931640625 -1.44891357421875
6320596875.0 -0.691650390625 -1.207275390625
6351818750.0 -1.20147705078125 -0.57305908203125
6383040625.0 -1.356689453125 0.20703125
6414262500.0 -1.0008544921875 1.06005859375
6445484375.0 -0.07757568359375 1.45928955078125
6476706250.0 0.79638671875 1.14910888671875
6507928125.0 1.29278564453125 0.47100830078125
6539150000.0 1.35064697265625 -0.3878173828125
6570371875.0 0.84295654296875 -1.14544677734375
6601593750.0 -0.01739501953125 -1.40777587890625
6632815625.0 -0.84173583984375 -1.1380615234375
6664037500.0 -1.40411376953125 -0.42071533203125
6695259375.0 -1.3765869140625 0.568359375
6726481250.0 -0.71099853515625 1.254638671875
6757703125.0 0.13067626953125 1.4095458984375
6788925000.0 0.95751953125 1.1331787109375
6820146875.0 1.56292724609375 0.28759765625
6851368750.0 1.3277587890625 -0.821044921875
6882590625.0 0.50677490234375 -1.34063720703125
6913812500.0 -0.29278564453125 -1.358642578125
6945034375.0 -1.07342529296875 -1.0228271484375
6976256250.0 -1.59600830078125 -0.092529296875
7007478125.0 -1.23834228515625 0.93560791015625
7038700000.0 -0.403076171875 1.3460693359375
7069921875.0 0.3599853515625 1.32757568359375
7101143750.0 1.12200927734375 0.97149658203125
7132365625.0 1.6025390625 0.01458740234375
7163587500.0 1.1600341796875 -1.0213623046875
7194809375.0 0.30206298828125 -1.40203857421875
7226031250.0 -0.51397705078125 -1.3292236328125
7257253125.0 -1.2689208984375 -0.82623291015625
7288475000.0 -1.56085205078125 0.19964599609375
7319696875.0 -1.03106689453125 1.1134033203125
7350918750.0 -0.16259765625 1.44921875
7382140625.0 0.7188720703125 1.27978515625
7413362500.0 1.38214111328125 0.57623291015625
7444584375.0 1.41351318359375 -0.40802001953125
7475806250.0 0.859375 -1.144775390625
7507028125.0 0.00537109375 -1.4329833984375
7538250000.0 -0.89208984375 -1.1268310546875
7569471875.0 -1.33941650390625 -0.31036376953125
7600693750.0 -1.20416259765625 0.4996337890625
7631915625.0 -0.7198486328125 1.08905029296875
7663137500.0 0.0797119140625 1.3616943359375
7694359375.0 0.942962646484375 0.983001708984375
7725581250.0 1.2462158203125 0.18115234375
7756803125.0 1.0853271484375 -0.5006103515625
7788025000.0 0.671875 -1.04913330078125
7819246875.0 -0.12200927734375 -1.3505859375
7850468750.0 -0.9976806640625 -0.917236328125
7881690625.0 -1.23443603515625 -0.10418701171875
7912912500.0 -1.05694580078125 0.5572509765625
7944134375.0 -0.6055908203125 1.11859130859375
7975356250.0 0.2742919921875 1.339111328125
8006578125.0 1.04925537109375 0.7789306640625
8037800000.0 1.1962890625 0.01507568359375
8069021875.0 1.0087890625 -0.6197509765625
8100243750.0 0.4993896484375 -1.16656494140625
8131465625.0 -0.39013671875 -1.25665283203125
8162687500.0 -1.0357666015625 -0.687255859375
8193909375.0 -1.182373046875 0.007568359375
8225131250.0 -1.0213623046875 0.67919921875
8256353125.0 -0.42254638671875 1.2515869140625
8287575000.0 0.50244140625 1.2291259765625
8318796875.0 1.08526611328125 0.63629150390625
8350018750.0 1.24737548828125 -0.07666015625
8381240625.0 1.033935546875 -0.84442138671875
8412462500.0 0.25439453125 -1.37567138671875
8443684375.0 -0.671630859375 -1.171630859375
8474906250.0 -1.17840576171875 -0.53118896484375
8506128125.0 -1.30035400390625 0.2386474609375
8537350000.0 -0.9249267578125 1.04962158203125
8568571875.0 -0.0159912109375 1.39739990234375
8599793750.0 0.8040771484375 1.05377197265625
8631015625.0 1.24334716796875 0.39849853515625
8662237500.0 1.28790283203125 -0.429931640625
8693459375.0 0.7373046875 -1.18084716796875
8724681250.0 -0.16265869140625 -1.33447265625
8755903125.0 -0.8800048828125 -0.960052490234375
8787125000.0 -1.3092041015625 -0.2821044921875
8818346875.0 -1.25390625 0.6177978515625
8849568750.0 -0.557861328125 1.26434326171875
8880790625.0 0.3017578125 1.28912353515625
8912012500.0 0.985137939453125 0.894561767578125
8943234375.0 1.403564453125 0.1278076171875
8974456250.0 1.1676025390625 -0.84259033203125
9005678125.0 0.34765625 -1.31683349609375
9036900000.0 -0.44683837890625 -1.22772216796875
9068121875.0 -1.10626220703125 -0.7860107421875
9099343750.0 -1.4439697265625 0.0999755859375
9130565625.0 -0.9788818359375 1.0146484375
9161787500.0 -0.1536865234375 1.284423828125
9193009375.0 0.557373046875 1.13629150390625
9224231250.0 1.18389892578125 0.65606689453125
9255453125.0 1.40338134765625 -0.297607421875
9286675000.0 0.8082275390625 -1.0880126953125
9317896875.0 0.02691650390625 -1.250244140625
9349118750.0 -0.65570068359375 -1.072509765625
9380340625.0 -1.263671875 -0.51019287109375
9411562500.0 -1.3150634765625 0.48101806640625
9442784375.0 -0.6478271484375 1.122802734375
9474006250.0 0.0885009765625 1.21405029296875
9505228125.0 0.76837158203125 0.9820556640625
9536450000.0 1.2796630859375 0.3111572265625
9567671875.0 1.145751953125 -0.58544921875
9598893750.0 0.52911376953125 -1.072509765625
9630115625.0 -0.14605712890625 -1.1611328125
9661337500.0 -0.822052001953125 -0.903289794921875
9692559375.0 -1.24188232421875 -0.18768310546875
9723781250.0 -1.044677734375 0.606201171875
9755003125.0 -0.4849853515625 1.05426025390625
9786225000.0 0.2005615234375 1.161376953125
9817446875.0 0.90008544921875 0.829315185546875
9848668750.0 1.2015380859375 0.07672119140625
9879890625.0 0.9703369140625 -0.619415283203125
9911112500.0 0.45196533203125 -1.055908203125
9942334375.0 -0.2703857421875 -1.1634521484375
9973556250.0 -0.94659423828125 -0.738494873046875
10004778125.0 -1.1494140625 -0.01611328125
10036000000.0 -0.945709228515625 0.61907958984375
10067221875.0 -0.44036865234375 1.1002197265625
10098443750.0 0.3743896484375 1.18438720703125
10129665625.0 1.00567626953125 0.642333984375
10160887500.0 1.1219482421875 -0.0546875
10192109375.0 0.917510986328125 -0.66400146484375
10223331250.0 0.360107421875 -1.15570068359375
10254553125.0 -0.48931884765625 -1.1156005859375
10285775000.0 -0.988189697265625 -0.534149169921875
10316996875.0 -1.06903076171875 0.07769775390625
10348218750.0 -0.90155029296875 0.67242431640625
10379440625.0 -0.3206787109375 1.18048095703125
10410662500.0 0.5301513671875 1.08758544921875
10441884375.0 0.994293212890625 0.5216064453125
10473106250.0 1.11102294921875 -0.08477783203125
10504328125.0 0.951446533203125 -0.76312255859375
10535550000.0 0.23760986328125 -1.2996826171875
10566771875.0 -0.66156005859375 -1.07818603515625
10597993750.0 -1.0849609375 -0.45855712890625
10629215625.0 -1.17950439453125 0.2091064453125
10660437500.0 -0.88714599609375 0.956146240234375
10691659375.0 -0.0059814453125 1.33740234375
10722881250.0 0.787200927734375 0.951995849609375
10754103125.0 1.12298583984375 0.3233642578125
10785325000.0 1.1409912109375 -0.36944580078125
10816546875.0 0.700439453125 -1.05145263671875
10847768750.0 -0.14599609375 -1.2308349609375
10878990625.0 -0.8048095703125 -0.84454345703125
10910212500.0 -1.1236572265625 -0.2454833984375
10941434375.0 -1.09930419921875 0.47918701171875
10972656250.0 -0.567626953125 1.0894775390625
11003878125.0 0.2193603515625 1.1766357421875
11035100000.0 0.85125732421875 0.82354736328125
11066321875.0 1.22503662109375 0.17279052734375
11097543750.0 1.10009765625 -0.6796875
11128765625.0 0.38427734375 -1.20281982421875
11159987500.0 -0.3984375 -1.14129638671875
11191209375.0 -1.0042724609375 -0.70220947265625
11222431250.0 -1.27587890625 0.09466552734375
11253653125.0 -0.858551025390625 0.89697265625
11284875000.0 -0.11376953125 1.1290283203125
11316096875.0 0.513702392578125 0.957977294921875
11347318750.0 1.00909423828125 0.50054931640625
11378540625.0 1.11895751953125 -0.2723388671875
11409762500.0 0.634552001953125 -0.861358642578125
11440984375.0 0.034912109375 -0.980621337890625
11472206250.0 -0.481170654296875 -0.852447509765625
11503428125.0 -0.955230712890625 -0.455963134765625
11534650000.0 -1.07000732421875 0.2916259765625
11565871875.0 -0.602264404296875 0.8570556640625
11597093750.0 -0.0166015625 0.99517822265625
11628315625.0 0.548065185546875 0.877197265625
11659537500.0 1.06439208984375 0.39080810546875
11690759375.0 1.0657958984375 -0.436767578125
11721981250.0 0.515289306640625 -0.94366455078125
11753203125.0 -0.1080322265625 -1.03936767578125
11784425000.0 -0.728912353515625 -0.81011962890625
11815646875.0 -1.10369873046875 -0.1483154296875
11846868750.0 -0.891082763671875 0.554229736328125
11878090625.0 -0.390167236328125 0.912933349609375
11909312500.0 0.188568115234375 0.987396240234375
11940534375.0 0.78399658203125 0.69512939453125
11971756250.0 1.02728271484375 0.03741455078125
12002978125.0 0.80682373046875 -0.539794921875
12034200000.0 0.381378173828125 -0.891265869140625
12065421875.0 -0.21820068359375 -1.01251220703125
12096643750.0 -0.85272216796875 -0.665313720703125
12127865625.0 -1.03558349609375 0.0198974609375
12159087500.0 -0.81591796875 0.5787353515625
12190309375.0 -0.37725830078125 0.978485107421875
12221531250.0 0.34112548828125 1.0882568359375
12252753125.0 0.984649658203125 0.580108642578125
12283975000.0 1.055908203125 -0.1300048828125
12315196875.0 0.8011474609375 -0.679534912109375
12346418750.0 0.2791748046875 -1.09490966796875
12377640625.0 -0.54266357421875 -1.06219482421875
12408862500.0 -1.03765869140625 -0.41717529296875
12440084375.0 -1.009033203125 0.22576904296875
12471306250.0 -0.741851806640625 0.73834228515625
12502528125.0 -0.17767333984375 1.12384033203125
12533750000.0 0.62554931640625 0.995391845703125
12564971875.0 1.04449462890625 0.36181640625
12596193750.0 1.03192138671875 -0.26763916015625
12627415625.0 0.74786376953125 -0.833343505859375
12658637500.0 0.07647705078125 -1.21142578125
12689859375.0 -0.7410888671875 -0.96734619140625
12721081250.0 -1.12152099609375 -0.30316162109375
12752303125.0 -1.099853515625 0.38592529296875
12783525000.0 -0.68585205078125 1.03436279296875
12814746875.0 0.17022705078125 1.25457763671875
12845968750.0 0.867828369140625 0.80975341796875
12877190625.0 1.12078857421875 0.16986083984375
12908412500.0 1.05712890625 -0.5035400390625
12939634375.0 0.5386962890625 -1.1221923828125
12970856250.0 -0.324462890625 -1.1763916015625
13002078125.0 -0.8974609375 -0.69287109375
13033300000.0 -1.10968017578125 -0.08502197265625
13064521875.0 -1.01092529296875 0.5980224609375
13095743750.0 -0.41741943359375 1.16131591796875
13126965625.0 0.41473388671875 1.1231689453125
13158187500.0 0.952392578125 0.631103515625
13189409375.0 1.1513671875 -0.02294921875
13220631250.0 0.937408447265625 -0.753631591796875
13251853125.0 0.23089599609375 -1.17657470703125
13283075000.0 -0.5123291015625 -1.02130126953125
13314296875.0 -0.9931640625 -0.5281982421875
13345518750.0 -1.137451171875 0.1798095703125
13376740625.0 -0.751708984375 0.863616943359375
