!Created with skrf (http://scikit-rf.org).
# Hz S RI R 50.0 
!freq ReS11 ImS11
45000000.0 -0.07696914672851562 -0.09675979614257812
76221875.0 -0.19628143310546875 -0.04753875732421875
107443750.0 -0.2546539306640625 0.119873046875
138665625.0 -0.14813232421875 0.32861328125
169887500.0 0.12359619140625 0.4170684814453125
201109375.0 0.421478271484375 0.28070068359375
232331250.0 0.5784912109375 -0.0576171875
263553125.0 0.48907470703125 -0.45245361328125
294775000.0 0.098358154296875 -0.73199462890625
325996875.0 -0.4149169921875 -0.679840087890625
357218750.0 -0.805450439453125 -0.296539306640625
388440625.0 -0.88482666015625 0.300628662109375
419662500.0 -0.51666259765625 0.86541748046875
450884375.0 0.1729736328125 1.0277099609375
482106250.0 0.797576904296875 0.71173095703125
513328125.0 1.1182861328125 0.0870361328125
544550000.0 1.0028076171875 -0.679443359375
575771875.0 0.33599853515625 -1.23724365234375
606993750.0 -0.55377197265625 -1.17596435546875
638215625.0 -1.16485595703125 -0.58941650390625
669437500.0 -1.33843994140625 0.23370361328125
700659375.0 -0.9698486328125 1.09521484375
731881250.0 -0.00323486328125 1.54150390625
763103125.0 1.004638671875 1.154296875
794325000.0 1.4671630859375 0.28131103515625
825546875.0 1.36578369140625 -0.65069580078125
856768750.0 0.79364013671875 -1.3992919921875
887990625.0 -0.2926025390625 -1.646484375
919212500.0 -1.28692626953125 -1.07696533203125
950434375.0 -1.64642333984375 -0.0587158203125
981656250.0 -1.38037109375 0.94451904296875
1012878125.0 -0.52911376953125 1.66900634765625
1044100000.0 0.69635009765625 1.65948486328125
1075321875.0 1.572265625 0.81097412109375
1106543750.0 1.7022705078125 -0.31219482421875
1137765625.0 1.18487548828125 -1.28240966796875
1168987500.0 0.137451171875 -1.79443359375
1200209375.0 -1.0606689453125 -1.48126220703125
1231431250.0 -1.72467041015625 -0.45269775390625
1262653125.0 -1.59173583984375 0.68359375
1293875000.0 -0.8504638671875 1.48944091796875
1325096875.0 0.22821044921875 1.70416259765625
1356318750.0 1.2337646484375 1.214599609375
1387540625.0 1.73736572265625 0.1888427734375
1418762500.0 1.46710205078125 -0.95025634765625
1449984375.0 0.5281982421875 -1.6234130859375
1481206250.0 -0.54931640625 -1.5538330078125
1512428125.0 -1.340087890625 -0.91839599609375
1543650000.0 -1.6529541015625 0.06500244140625
1574871875.0 -1.27178955078125 1.10723876953125
1606093750.0 -0.2724609375 1.62921142578125
1637315625.0 0.74102783203125 1.39825439453125
1668537500.0 1.39404296875 0.69451904296875
1699759375.0 1.57080078125 -0.2767333984375
1730981250.0 1.0625 -1.22760009765625
1762203125.0 0.04193115234375 -1.568359375
1793425000.0 -0.8543701171875 -1.22467041015625
1824646875.0 -1.3914794921875 -0.514404296875
1855868750.0 -1.471923828125 0.431640625
1887090625.0 -0.87359619140625 1.28326416015625
1918312500.0 0.11700439453125 1.4847412109375
1949534375.0 0.92010498046875 1.087646484375
1980756250.0 1.3729248046875 0.36962890625
2011978125.0 1.35772705078125 -0.53082275390625
2043200000.0 0.74896240234375 -1.25982666015625
2074421875.0 -0.15692138671875 -1.4312744140625
2105643750.0 -0.95867919921875 -1.07086181640625
2136865625.0 -1.4453125 -0.30474853515625
2168087500.0 -1.35498046875 0.67034912109375
2199309375.0 -0.63818359375 1.34906005859375
2230531250.0 0.281494140625 1.434326171875
2261753125.0 1.071533203125 1.01263427734375
2292975000.0 1.5120849609375 0.17034912109375
2324196875.0 1.30377197265625 -0.81732177734375
2355418750.0 0.52471923828125 -1.41796875
2386640625.0 -0.404052734375 -1.44677734375
2417862500.0 -1.1781005859375 -1.02288818359375
2449084375.0 -1.6024169921875 -0.0838623046875
2480306250.0 -1.30914306640625 0.92218017578125
2511528125.0 -0.49359130859375 1.504638671875
2542750000.0 0.4869384765625 1.53369140625
2573971875.0 1.36865234375 0.96624755859375
2605193750.0 1.71435546875 -0.11181640625
2636415625.0 1.259033203125 -1.15106201171875
2667637500.0 0.30615234375 -1.66412353515625
2698859375.0 -0.767822265625 -1.53118896484375
2730081250.0 -1.57037353515625 -0.7393798828125
2761303125.0 -1.67767333984375 0.3865966796875
2792525000.0 -1.0972900390625 1.3043212890625
2823746875.0 -0.1014404296875 1.72674560546875
2854968750.0 1.010986328125 1.45281982421875
2886190625.0 1.6878662109375 0.49114990234375
2917412500.0 1.59661865234375 -0.6153564453125
2948634375.0 0.93817138671875 -1.42962646484375
2979856250.0 -0.1085205078125 -1.77349853515625
3011078125.0 -1.24566650390625 -1.33984375
3042300000.0 -1.77288818359375 -0.23388671875
3073521875.0 -1.506103515625 0.836669921875
3104743750.0 -0.7615966796875 1.56646728515625
3135965625.0 0.36102294921875 1.80560302734375
3167187500.0 1.4947509765625 1.1619873046875
3198409375.0 1.8118896484375 -0.07476806640625
3229631250.0 1.34613037109375 -1.07977294921875
3260853125.0 0.488525390625 -1.66510009765625
3292075000.0 -0.65240478515625 -1.69390869140625
3323296875.0 -1.61529541015625 -0.87811279296875
3354518750.0 -1.7274169921875 0.328369140625
3385740625.0 -1.1539306640625 1.23016357421875
3416962500.0 -0.23052978515625 1.677978515625
3448184375.0 0.858642578125 1.51885986328125
3479406250.0 1.63262939453125 0.6431884765625
3510628125.0 1.6409912109375 -0.49273681640625
3541850000.0 0.99859619140625 -1.35186767578125
3573071875.0 -0.0064697265625 -1.677978515625
3604293750.0 -1.02606201171875 -1.334716796875
3635515625.0 -1.62457275390625 -0.437744140625
3666737500.0 -1.55865478515625 0.64434814453125
3697959375.0 -0.82318115234375 1.47332763671875
3729181250.0 0.26751708984375 1.6273193359375
3760403125.0 1.1500244140625 1.095947265625
3791625000.0 1.55010986328125 0.217529296875
3822846875.0 1.39898681640625 -0.7598876953125
3854068750.0 0.619873046875 -1.47686767578125
3885290625.0 -0.420166015625 -1.4781494140625
3916512500.0 -1.1397705078125 -0.9100341796875
3947734375.0 -1.44476318359375 -0.11993408203125
3978956250.0 -1.295166015625 0.7772216796875
4010178125.0 -0.53118896484375 1.451171875
4041400000.0 0.4718017578125 1.41278076171875
4072621875.0 1.149658203125 0.8466796875
4103843750.0 1.4422607421875 0.06427001953125
4135065625.0 1.265625 -0.84417724609375
4166287500.0 0.45758056640625 -1.492919921875
4197509375.0 -0.55621337890625 -1.41290283203125
4228731250.0 -1.24481201171875 -0.80133056640625
4259953125.0 -1.50689697265625 0.0706787109375
4291175000.0 -1.18597412109375 1.007080078125
4322396875.0 -0.288818359375 1.52398681640625
4353618750.0 0.66998291015625 1.34710693359375
4384840625.0 1.3193359375 0.6962890625
4416062500.0 1.49725341796875 -0.225341796875
4447284375.0 1.05364990234375 -1.1009521484375
4478506250.0 0.1728515625 -1.49212646484375
4509728125.0 -0.72991943359375 -1.3052978515625
4540950000.0 -1.39068603515625 -0.63531494140625
4572171875.0 -1.51947021484375 0.35784912109375
4603393750.0 -0.97113037109375 1.2103271484375
4634615625.0 -0.0621337890625 1.53350830078125
4665837500.0 0.8681640625 1.30218505859375
4697059375.0 1.53875732421875 0.51458740234375
4728281250.0 1.52667236328125 -0.58074951171875
4759503125.0 0.8226318359375 -1.36383056640625
4790725000.0 -0.1446533203125 -1.57000732421875
4821946875.0 -1.08074951171875 -1.19232177734375
4853168750.0 -1.6116943359375 -0.25091552734375
4884390625.0 -1.3759765625 0.79119873046875
4915612500.0 -0.6123046875 1.41033935546875
4946834375.0 0.3280029296875 1.5068359375
4978056250.0 1.2021484375 1.01544189453125
5009278125.0 1.55950927734375 0.03973388671875
5040500000.0 1.22747802734375 -0.87371826171875
5071721875.0 0.50079345703125 -1.4127197265625
5102943750.0 -0.44549560546875 -1.49481201171875
5134165625.0 -1.33380126953125 -0.9041748046875
5165387500.0 -1.5655517578125 0.14544677734375
5196609375.0 -1.134521484375 1.0078125
5227831250.0 -0.35723876953125 1.50347900390625
5259053125.0 0.686767578125 1.4903564453125
5290275000.0 1.5198974609375 0.662109375
5321496875.0 1.489990234375 -0.4296875
5352718750.0 0.91973876953125 -1.14996337890625
5383940625.0 0.09759521484375 -1.496337890625
5415162500.0 -0.8985595703125 -1.28228759765625
5446384375.0 -1.48150634765625 -0.37017822265625
5477606250.0 -1.2979736328125 0.5648193359375
5508828125.0 -0.7303466796875 1.14892578125
5540050000.0 0.0533447265625 1.39715576171875
5571271875.0 0.93701171875 1.1083984375
5602493750.0 1.40740966796875 0.259521484375
5633715625.0 1.23028564453125 -0.61126708984375
5664937500.0 0.64752197265625 -1.1990966796875
5696159375.0 -0.196044921875 -1.38140869140625
5727381250.0 -1.02105712890625 -0.9774169921875
5758603125.0 -1.3895263671875 -0.1455078125
5789825000.0 -1.19256591796875 0.7158203125
5821046875.0 -0.50616455078125 1.30535888671875
5852268750.0 0.41021728515625 1.311279296875
5883490625.0 1.06951904296875 0.771728515625
5914712500.0 1.30047607421875 0.020263671875
5945934375.0 1.09466552734375 -0.77410888671875
5977156250.0 0.36114501953125 -1.31048583984375
6008378125.0 -0.50775146484375 -1.18060302734375
6039600000.0 -1.01983642578125 -0.64862060546875
6070821875.0 -1.2227783203125 -0.0040283203125
6102043750.0 -1.08258056640625 0.7611083984375
6133265625.0 -0.34228515625 1.341552734375
6164487500.0 0.5616455078125 1.18597412109375
6195709375.0 1.0682373046875 0.63018798828125
6226931250.0 1.27874755859375 -0.04254150390625
6258153125.0 1.10357666015625 -0.86981201171875
6289375000.0 0.25677490234375 -1.44427490234375
6320596875.0 -0.68743896484375 -1.20452880859375
6351818750.0 -1.19854736328125 -0.572021484375
6383040625.0 -1.35247802734375 0.2059326171875
6414262500.0 -0.99908447265625 1.054443359375
6445484375.0 -0.07843017578125 1.45562744140625
6476706250.0 0.7945556640625 1.14691162109375
6507928125.0 1.28973388671875 0.46923828125
6539150000.0 1.34600830078125 -0.385986328125
6570371875.0 0.840576171875 -1.14288330078125
6601593750.0 -0.0169677734375 -1.40338134765625
6632815625.0 -0.837890625 -1.13494873046875
6664037500.0 -1.39947509765625 -0.41986083984375
6695259375.0 -1.372314453125 0.5640869140625
6726481250.0 -0.70953369140625 1.24951171875
6757703125.0 0.13031005859375 1.40557861328125
6788925000.0 0.9537353515625 1.12957763671875
6820146875.0 1.55767822265625 0.2884521484375
6851368750.0 1.32452392578125 -0.81756591796875
6882590625.0 0.50628662109375 -1.33685302734375
6913812500.0 -0.29156494140625 -1.35540771484375
6945034375.0 -1.06793212890625 -1.0206298828125
6976256250.0 -1.58978271484375 -0.09429931640625
7007478125.0 -1.23455810546875 0.92987060546875
7038700000.0 -0.40191650390625 1.3404541015625
7069921875.0 0.3583984375 1.32257080078125
7101143750.0 1.115478515625 0.96783447265625
7132365625.0 1.59686279296875 0.015869140625
7163587500.0 1.1563720703125 -1.01788330078125
7194809375.0 0.30181884765625 -1.3973388671875
7226031250.0 -0.5096435546875 -1.32373046875
7257253125.0 -1.26544189453125 -0.82391357421875
7288475000.0 -1.55706787109375 0.1968994140625
7319696875.0 -1.0284423828125 1.10723876953125
7350918750.0 -0.1644287109375 1.44146728515625
7382140625.0 0.7149658203125 1.27520751953125
7413362500.0 1.37554931640625 0.5762939453125
7444584375.0 1.40960693359375 -0.403564453125
7475806250.0 0.857177734375 -1.14239501953125
7507028125.0 0.0054931640625 -1.42791748046875
7538250000.0 -0.885009765625 -1.12213134765625
7569471875.0 -1.3316650390625 -0.3126220703125
7600693750.0 -1.20123291015625 0.49652099609375
7631915625.0 -0.71795654296875 1.08465576171875
7663137500.0 0.08111572265625 1.35760498046875
7694359375.0 0.9381103515625 0.98052978515625
7725581250.0 1.24188232421875 0.18072509765625
7756803125.0 1.08197021484375 -0.49932861328125
7788025000.0 0.6695556640625 -1.0413818359375
7819246875.0 -0.12005615234375 -1.34521484375
7850468750.0 -0.992034912109375 -0.915557861328125
7881690625.0 -1.22930908203125 -0.10595703125
7912912500.0 -1.0535888671875 0.55230712890625
7944134375.0 -0.60650634765625 1.1104736328125
7975356250.0 0.27154541015625 1.334716796875
8006578125.0 1.0439453125 0.77960205078125
8037800000.0 1.192138671875 0.01708984375
8069021875.0 1.005615234375 -0.61688232421875
8100243750.0 0.49945068359375 -1.16064453125
8131465625.0 -0.38751220703125 -1.25341796875
8162687500.0 -1.030517578125 -0.6865234375
8193909375.0 -1.1790771484375 0.00927734375
8225131250.0 -1.0167236328125 0.677001953125
8256353125.0 -0.42132568359375 1.247314453125
8287575000.0 0.4991455078125 1.22467041015625
8318796875.0 1.0797119140625 0.63592529296875
8350018750.0 1.24322509765625 -0.07562255859375
8381240625.0 1.0301513671875 -0.8375244140625
8412462500.0 0.255126953125 -1.3721923828125
8443684375.0 -0.6673583984375 -1.1693115234375
8474906250.0 -1.17291259765625 -0.5325927734375
8506128125.0 -1.2955322265625 0.23590087890625
8537350000.0 -0.92449951171875 1.04412841796875
8568571875.0 -0.015380859375 1.39385986328125
8599793750.0 0.79779052734375 1.0528564453125
8631015625.0 1.2413330078125 0.39752197265625
8662237500.0 1.2850341796875 -0.42901611328125
8693459375.0 0.735595703125 -1.17486572265625
8724681250.0 -0.1619873046875 -1.3302001953125
8755903125.0 -0.878143310546875 -0.95672607421875
8787125000.0 -1.301025390625 -0.2841796875
8818346875.0 -1.2489013671875 0.61114501953125
8849568750.0 -0.55657958984375 1.25921630859375
8880790625.0 0.29638671875 1.28363037109375
8912012500.0 0.978851318359375 0.89111328125
8943234375.0 1.3968505859375 0.13079833984375
8974456250.0 1.16680908203125 -0.83709716796875
9005678125.0 0.34906005859375 -1.31146240234375
9036900000.0 -0.44342041015625 -1.2235107421875
9068121875.0 -1.10040283203125 -0.78564453125
9099343750.0 -1.4395751953125 0.09625244140625
9130565625.0 -0.97894287109375 1.0081787109375
9161787500.0 -0.15423583984375 1.28167724609375
9193009375.0 0.55242919921875 1.13287353515625
9224231250.0 1.1766357421875 0.6553955078125
9255453125.0 1.3990478515625 -0.295654296875
9286675000.0 0.80609130859375 -1.08380126953125
9317896875.0 0.02630615234375 -1.2467041015625
9349118750.0 -0.653076171875 -1.068603515625
9380340625.0 -1.2554931640625 -0.5098876953125
9411562500.0 -1.3099365234375 0.47412109375
9442784375.0 -0.649169921875 1.11383056640625
9474006250.0 0.087646484375 1.20947265625
9505228125.0 0.765533447265625 0.98046875
9536450000.0 1.27276611328125 0.31329345703125
9567671875.0 1.1431884765625 -0.57916259765625
9598893750.0 0.5294189453125 -1.06719970703125
9630115625.0 -0.1419677734375 -1.15643310546875
9661337500.0 -0.8173828125 -0.902099609375
9692559375.0 -1.23828125 -0.190673828125
9723781250.0 -1.0430908203125 0.60150146484375
9755003125.0 -0.48663330078125 1.04833984375
9786225000.0 0.1962890625 1.15716552734375
9817446875.0 0.89324951171875 0.8277587890625
9848668750.0 1.19677734375 0.07965087890625
9879890625.0 0.967559814453125 -0.6153564453125
9911112500.0 0.4521484375 -1.05078125
9942334375.0 -0.2662353515625 -1.158447265625
9973556250.0 -0.943115234375 -0.73828125
10004778125.0 -1.144775390625 -0.01824951171875
10036000000.0 -0.944305419921875 0.615386962890625
10067221875.0 -0.4420166015625 1.09429931640625
10098443750.0 0.36810302734375 1.18017578125
10129665625.0 0.9998779296875 0.644012451171875
10160887500.0 1.11871337890625 -0.05059814453125
10192109375.0 0.917236328125 -0.663177490234375
10223331250.0 0.36181640625 -1.15118408203125
10254553125.0 -0.48394775390625 -1.11309814453125
10285775000.0 -0.984100341796875 -0.535552978515625
10316996875.0 -1.067138671875 0.0758056640625
10348218750.0 -0.900238037109375 0.67041015625
10379440625.0 -0.3233642578125 1.17279052734375
10410662500.0 0.52691650390625 1.08660888671875
10441884375.0 0.99017333984375 0.521728515625
10473106250.0 1.10858154296875 -0.084716796875
10504328125.0 0.947723388671875 -0.75494384765625
10535550000.0 0.240234375 -1.29412841796875
10566771875.0 -0.65740966796875 -1.07684326171875
10597993750.0 -1.0784912109375 -0.459716796875
10629215625.0 -1.174072265625 0.20416259765625
10660437500.0 -0.8875732421875 0.95068359375
10691659375.0 -0.0108642578125 1.335205078125
10722881250.0 0.7830810546875 0.9525146484375
10754103125.0 1.11859130859375 0.32501220703125
10785325000.0 1.1387939453125 -0.36712646484375
10816546875.0 0.7010498046875 -1.046875
10847768750.0 -0.1448974609375 -1.229248046875
10878990625.0 -0.80169677734375 -0.843353271484375
10910212500.0 -1.1217041015625 -0.24554443359375
10941434375.0 -1.0955810546875 0.47418212890625
10972656250.0 -0.569091796875 1.0821533203125
11003878125.0 0.217041015625 1.17401123046875
11035100000.0 0.845184326171875 0.821685791015625
11066321875.0 1.22052001953125 0.1748046875
11097543750.0 1.0977783203125 -0.67425537109375
11128765625.0 0.3880615234375 -1.19696044921875
11159987500.0 -0.3948974609375 -1.13763427734375
11191209375.0 -0.9969482421875 -0.7020263671875
11222431250.0 -1.27117919921875 0.0911865234375
11253653125.0 -0.859710693359375 0.8927001953125
11284875000.0 -0.11456298828125 1.12677001953125
11316096875.0 0.508087158203125 0.95556640625
11347318750.0 0.999755859375 0.502899169921875
11378540625.0 1.1162109375 -0.26812744140625
11409762500.0 0.63446044921875 -0.858551025390625
11440984375.0 0.036651611328125 -0.977630615234375
11472206250.0 -0.478515625 -0.849395751953125
11503428125.0 -0.952362060546875 -0.45599365234375
11534650000.0 -1.0672607421875 0.2874755859375
11565871875.0 -0.6024169921875 0.852294921875
11597093750.0 -0.0181884765625 0.990997314453125
11628315625.0 0.543365478515625 0.875
11659537500.0 1.0579833984375 0.3929443359375
11690759375.0 1.06488037109375 -0.433349609375
11721981250.0 0.51678466796875 -0.93890380859375
11753203125.0 -0.10601806640625 -1.0357666015625
11784425000.0 -0.724365234375 -0.808197021484375
11815646875.0 -1.09942626953125 -0.15240478515625
11846868750.0 -0.89068603515625 0.550628662109375
11878090625.0 -0.392425537109375 0.908233642578125
11909312500.0 0.185821533203125 0.983428955078125
11940534375.0 0.77923583984375 0.6943359375
11971756250.0 1.02410888671875 0.04071044921875
12002978125.0 0.80572509765625 -0.53643798828125
12034200000.0 0.382354736328125 -0.888031005859375
12065421875.0 -0.21588134765625 -1.010498046875
12096643750.0 -0.847686767578125 -0.665435791015625
12127865625.0 -1.0325927734375 0.01531982421875
12159087500.0 -0.814971923828125 0.575225830078125
12190309375.0 -0.37841796875 0.974151611328125
12221531250.0 0.33770751953125 1.08673095703125
12252753125.0 0.97821044921875 0.58233642578125
12283975000.0 1.05364990234375 -0.12640380859375
12315196875.0 0.800537109375 -0.675750732421875
12346418750.0 0.28179931640625 -1.08978271484375
12377640625.0 -0.53668212890625 -1.06121826171875
12408862500.0 -1.03277587890625 -0.42041015625
12440084375.0 -1.00787353515625 0.224609375
12471306250.0 -0.74249267578125 0.7357177734375
12502528125.0 -0.17999267578125 1.11737060546875
12533750000.0 0.618408203125 0.99407958984375
12564971875.0 1.0406494140625 0.36346435546875
12596193750.0 1.02813720703125 -0.26373291015625
12627415625.0 0.74786376953125 -0.828857421875
12658637500.0 0.07989501953125 -1.204833984375
12689859375.0 -0.734161376953125 -0.96588134765625
12721081250.0 -1.11627197265625 -0.30670166015625
12752303125.0 -1.09637451171875 0.38104248046875
12783525000.0 -0.68719482421875 1.027099609375
12814746875.0 0.1630859375 1.24951171875
12845968750.0 0.860260009765625 0.81109619140625
12877190625.0 1.11663818359375 0.17242431640625
12908412500.0 1.05645751953125 -0.5020751953125
12939634375.0 0.54290771484375 -1.115478515625
12970856250.0 -0.318359375 -1.174560546875
13002078125.0 -0.892913818359375 -0.693603515625
13033300000.0 -1.1051025390625 -0.08740234375
13064521875.0 -1.00860595703125 0.5916748046875
13095743750.0 -0.4215087890625 1.15386962890625
13126965625.0 0.4075927734375 1.119873046875
13158187500.0 0.94647216796875 0.631683349609375
13189409375.0 1.14776611328125 -0.0196533203125
13220631250.0 0.935882568359375 -0.747650146484375
13251853125.0 0.2352294921875 -1.1717529296875
13283075000.0 -0.5057373046875 -1.01910400390625
13314296875.0 -0.98431396484375 -0.52899169921875
13345518750.0 -1.13385009765625 0.1756591796875
13376740625.0 -0.7535400390625 0.85784912109375
