!Created with skrf (http://scikit-rf.org).
# Hz S RI R 50.0 
!freq ReS11 ImS11
45000000.0 -0.07732009887695312 -0.09659957885742188
76221875.0 -0.19654083251953125 -0.0472412109375
107443750.0 -0.2547607421875 0.1200714111328125
138665625.0 -0.1477508544921875 0.328857421875
169887500.0 0.1240997314453125 0.417236328125
201109375.0 0.42218017578125 0.2802734375
232331250.0 0.57891845703125 -0.05810546875
263553125.0 0.4890594482421875 -0.4534759521484375
294775000.0 0.097564697265625 -0.732452392578125
325996875.0 -0.416351318359375 -0.679840087890625
357218750.0 -0.806640625 -0.296142578125
388440625.0 -0.8853759765625 0.301544189453125
419662500.0 -0.516357421875 0.86688232421875
450884375.0 0.1744384765625 1.02850341796875
482106250.0 0.79925537109375 0.7115478515625
513328125.0 1.119384765625 0.0858154296875
544550000.0 1.0028076171875 -0.68072509765625
575771875.0 0.3349609375 -1.23834228515625
606993750.0 -0.55517578125 -1.1763916015625
638215625.0 -1.16632080078125 -0.58892822265625
669437500.0 -1.3392333984375 0.23516845703125
700659375.0 -0.96942138671875 1.09710693359375
731881250.0 -0.0018310546875 1.5426025390625
763103125.0 1.00653076171875 1.15411376953125
794325000.0 1.4683837890625 0.27996826171875
825546875.0 1.3660888671875 -0.6529541015625
856768750.0 0.79229736328125 -1.401611328125
887990625.0 -0.29461669921875 -1.6473388671875
919212500.0 -1.28900146484375 -1.07659912109375
950434375.0 -1.64794921875 -0.05706787109375
981656250.0 -1.380859375 0.94671630859375
1012878125.0 -0.52783203125 1.67169189453125
1044100000.0 0.69854736328125 1.66033935546875
1075321875.0 1.57470703125 0.8096923828125
1106543750.0 1.70343017578125 -0.31463623046875
1137765625.0 1.1845703125 -1.28515625
1168987500.0 0.13623046875 -1.79595947265625
1200209375.0 -1.06280517578125 -1.48138427734375
1231431250.0 -1.72674560546875 -0.45135498046875
1262653125.0 -1.5927734375 0.686279296875
1293875000.0 -0.84967041015625 1.49163818359375
1325096875.0 0.23004150390625 1.7056884765625
1356318750.0 1.235107421875 1.2144775390625
1387540625.0 1.73895263671875 0.18701171875
1418762500.0 1.46771240234375 -0.952392578125
1449984375.0 0.5274658203125 -1.62548828125
1481206250.0 -0.551025390625 -1.55438232421875
1512428125.0 -1.34173583984375 -0.91741943359375
1543650000.0 -1.65435791015625 0.06689453125
1574871875.0 -1.271728515625 1.1099853515625
1606093750.0 -0.2705078125 1.630615234375
1637315625.0 0.74346923828125 1.39837646484375
1668537500.0 1.39556884765625 0.69354248046875
1699759375.0 1.5716552734375 -0.27880859375
1730981250.0 1.06207275390625 -1.2293701171875
1762203125.0 0.04052734375 -1.5693359375
1793425000.0 -0.85675048828125 -1.2244873046875
1824646875.0 -1.392822265625 -0.513671875
1855868750.0 -1.47247314453125 0.43359375
1887090625.0 -0.87310791015625 1.28533935546875
1918312500.0 0.11846923828125 1.48541259765625
1949534375.0 0.9217529296875 1.0877685546875
1980756250.0 1.374755859375 0.36834716796875
2011978125.0 1.3577880859375 -0.5325927734375
2043200000.0 0.7476806640625 -1.261474609375
2074421875.0 -0.157958984375 -1.43182373046875
2105643750.0 -0.960205078125 -1.07086181640625
2136865625.0 -1.4468994140625 -0.3031005859375
2168087500.0 -1.35516357421875 0.67138671875
2199309375.0 -0.63739013671875 1.35076904296875
2230531250.0 0.28277587890625 1.43450927734375
2261753125.0 1.0726318359375 1.01220703125
2292975000.0 1.51361083984375 0.16912841796875
2324196875.0 1.3038330078125 -0.81927490234375
2355418750.0 0.52374267578125 -1.41912841796875
2386640625.0 -0.40545654296875 -1.44732666015625
2417862500.0 -1.18084716796875 -1.0225830078125
2449084375.0 -1.6043701171875 -0.08258056640625
2480306250.0 -1.30950927734375 0.9251708984375
2511528125.0 -0.491943359375 1.5074462890625
2542750000.0 0.48974609375 1.5338134765625
2573971875.0 1.37164306640625 0.96588134765625
2605193750.0 1.71533203125 -0.11358642578125
2636415625.0 1.25933837890625 -1.153564453125
2667637500.0 0.303955078125 -1.6671142578125
2698859375.0 -0.7705078125 -1.53253173828125
2730081250.0 -1.572509765625 -0.7381591796875
2761303125.0 -1.6795654296875 0.3897705078125
2792525000.0 -1.096923828125 1.30841064453125
2823746875.0 -0.09967041015625 1.72802734375
2854968750.0 1.01202392578125 1.45294189453125
2886190625.0 1.69012451171875 0.48974609375
2917412500.0 1.597412109375 -0.6180419921875
2948634375.0 0.937255859375 -1.43328857421875
2979856250.0 -0.1104736328125 -1.7747802734375
3011078125.0 -1.24847412109375 -1.3399658203125
3042300000.0 -1.77276611328125 -0.2330322265625
3073521875.0 -1.50634765625 0.83819580078125
3104743750.0 -0.76068115234375 1.56878662109375
3135965625.0 0.3631591796875 1.80694580078125
3167187500.0 1.49859619140625 1.16204833984375
3198409375.0 1.81427001953125 -0.0770263671875
3229631250.0 1.345947265625 -1.08209228515625
3260853125.0 0.48748779296875 -1.66748046875
3292075000.0 -0.656005859375 -1.69561767578125
3323296875.0 -1.617431640625 -0.87701416015625
3354518750.0 -1.7279052734375 0.3292236328125
3385740625.0 -1.1536865234375 1.231201171875
3416962500.0 -0.22998046875 1.679931640625
3448184375.0 0.85986328125 1.51873779296875
3479406250.0 1.63494873046875 0.642333984375
3510628125.0 1.6412353515625 -0.49566650390625
3541850000.0 0.998046875 -1.354248046875
3573071875.0 -0.0091552734375 -1.6815185546875
3604293750.0 -1.02777099609375 -1.3350830078125
3635515625.0 -1.62530517578125 -0.43701171875
3666737500.0 -1.55999755859375 0.647216796875
3697959375.0 -0.82275390625 1.4754638671875
3729181250.0 0.2696533203125 1.62957763671875
3760403125.0 1.15277099609375 1.095703125
3791625000.0 1.551025390625 0.216552734375
3822846875.0 1.39898681640625 -0.7615966796875
3854068750.0 0.6181640625 -1.48046875
3885290625.0 -0.42169189453125 -1.47906494140625
3916512500.0 -1.14129638671875 -0.9093017578125
3947734375.0 -1.4456787109375 -0.11859130859375
3978956250.0 -1.29571533203125 0.779296875
4010178125.0 -0.52996826171875 1.45269775390625
4041400000.0 0.4730224609375 1.41326904296875
4072621875.0 1.15155029296875 0.8460693359375
4103843750.0 1.4429931640625 0.0626220703125
4135065625.0 1.26593017578125 -0.84539794921875
4166287500.0 0.4564208984375 -1.4947509765625
4197509375.0 -0.558837890625 -1.413818359375
4228731250.0 -1.24749755859375 -0.80126953125
4259953125.0 -1.50830078125 0.07177734375
4291175000.0 -1.18634033203125 1.01031494140625
4322396875.0 -0.28839111328125 1.52410888671875
4353618750.0 0.67340087890625 1.3480224609375
4384840625.0 1.32196044921875 0.6951904296875
4416062500.0 1.49896240234375 -0.22882080078125
4447284375.0 1.05303955078125 -1.10260009765625
4478506250.0 0.1712646484375 -1.4937744140625
4509728125.0 -0.73370361328125 -1.30596923828125
4540950000.0 -1.3919677734375 -0.63458251953125
4572171875.0 -1.5201416015625 0.35980224609375
4603393750.0 -0.9705810546875 1.21221923828125
4634615625.0 -0.060546875 1.53497314453125
4665837500.0 0.86981201171875 1.30224609375
4697059375.0 1.53985595703125 0.51409912109375
4728281250.0 1.52728271484375 -0.5833740234375
4759503125.0 0.82177734375 -1.36566162109375
4790725000.0 -0.1458740234375 -1.57086181640625
4821946875.0 -1.08355712890625 -1.19232177734375
4853168750.0 -1.61077880859375 -0.2506103515625
4884390625.0 -1.3770751953125 0.7940673828125
4915612500.0 -0.61175537109375 1.4117431640625
4946834375.0 0.32965087890625 1.507568359375
4978056250.0 1.2041015625 1.01495361328125
5009278125.0 1.56036376953125 0.03875732421875
5040500000.0 1.22772216796875 -0.87554931640625
5071721875.0 0.50006103515625 -1.4136962890625
5102943750.0 -0.44647216796875 -1.49493408203125
5134165625.0 -1.3341064453125 -0.90460205078125
5165387500.0 -1.56597900390625 0.146240234375
5196609375.0 -1.1348876953125 1.00872802734375
5227831250.0 -0.356689453125 1.5052490234375
5259053125.0 0.688232421875 1.4903564453125
5290275000.0 1.52069091796875 0.66168212890625
5321496875.0 1.49090576171875 -0.43121337890625
5352718750.0 0.9195556640625 -1.1533203125
5383940625.0 0.09521484375 -1.49993896484375
5415162500.0 -0.8997802734375 -1.2818603515625
5446384375.0 -1.48394775390625 -0.3685302734375
5477606250.0 -1.29754638671875 0.5662841796875
5508828125.0 -0.72979736328125 1.150634765625
5540050000.0 0.05474853515625 1.397705078125
5571271875.0 0.93804931640625 1.10784912109375
5602493750.0 1.4068603515625 0.25921630859375
5633715625.0 1.23065185546875 -0.6126708984375
5664937500.0 0.64691162109375 -1.20086669921875
5696159375.0 -0.197509765625 -1.38262939453125
5727381250.0 -1.021728515625 -0.97747802734375
5758603125.0 -1.39117431640625 -0.1439208984375
5789825000.0 -1.19342041015625 0.7181396484375
5821046875.0 -0.50604248046875 1.30560302734375
5852268750.0 0.4111328125 1.3115234375
5883490625.0 1.07177734375 0.77056884765625
5914712500.0 1.30230712890625 0.01800537109375
5945934375.0 1.09466552734375 -0.775146484375
5977156250.0 0.3607177734375 -1.311279296875
6008378125.0 -0.5096435546875 -1.18170166015625
6039600000.0 -1.021240234375 -0.6483154296875
6070821875.0 -1.222900390625 -0.0030517578125
6102043750.0 -1.0821533203125 0.76239013671875
6133265625.0 -0.341064453125 1.3436279296875
6164487500.0 0.56317138671875 1.18609619140625
6195709375.0 1.069580078125 0.62933349609375
6226931250.0 1.27862548828125 -0.04345703125
6258153125.0 1.10369873046875 -0.8712158203125
6289375000.0 0.25543212890625 -1.44500732421875
6320596875.0 -0.68914794921875 -1.205078125
6351818750.0 -1.19921875 -0.5714111328125
6383040625.0 -1.35369873046875 0.20733642578125
6414262500.0 -0.99871826171875 1.05645751953125
6445484375.0 -0.07763671875 1.4560546875
6476706250.0 0.7965087890625 1.14691162109375
6507928125.0 1.2896728515625 0.46923828125
6539150000.0 1.345947265625 -0.38677978515625
6570371875.0 0.8399658203125 -1.1436767578125
6601593750.0 -0.018310546875 -1.4041748046875
6632815625.0 -0.84039306640625 -1.134765625
6664037500.0 -1.4002685546875 -0.41937255859375
6695259375.0 -1.3729248046875 0.56689453125
6726481250.0 -0.70928955078125 1.25030517578125
6757703125.0 0.13018798828125 1.4051513671875
6788925000.0 0.95550537109375 1.12939453125
6820146875.0 1.55865478515625 0.28765869140625
6851368750.0 1.32513427734375 -0.8212890625
6882590625.0 0.50531005859375 -1.33966064453125
6913812500.0 -0.29351806640625 -1.35614013671875
6945034375.0 -1.06890869140625 -1.0203857421875
6976256250.0 -1.59014892578125 -0.09393310546875
7007478125.0 -1.23614501953125 0.93206787109375
7038700000.0 -0.40167236328125 1.34185791015625
7069921875.0 0.3604736328125 1.32318115234375
7101143750.0 1.11810302734375 0.96783447265625
7132365625.0 1.5986328125 0.01220703125
7163587500.0 1.1556396484375 -1.02142333984375
7194809375.0 0.3006591796875 -1.39630126953125
7226031250.0 -0.51275634765625 -1.32537841796875
7257253125.0 -1.26531982421875 -0.82342529296875
7288475000.0 -1.5567626953125 0.19873046875
7319696875.0 -1.028564453125 1.1077880859375
7350918750.0 -0.1629638671875 1.44329833984375
7382140625.0 0.7147216796875 1.27496337890625
7413362500.0 1.37677001953125 0.5753173828125
7444584375.0 1.41143798828125 -0.40643310546875
7475806250.0 0.856201171875 -1.14422607421875
7507028125.0 0.0035400390625 -1.42987060546875
7538250000.0 -0.8873291015625 -1.12298583984375
7569471875.0 -1.33465576171875 -0.3115234375
7600693750.0 -1.201904296875 0.49871826171875
7631915625.0 -0.7169189453125 1.08514404296875
7663137500.0 0.08087158203125 1.356689453125
7694359375.0 0.940521240234375 0.9788818359375
7725581250.0 1.24249267578125 0.1800537109375
7756803125.0 1.0823974609375 -0.49908447265625
7788025000.0 0.6690673828125 -1.0435791015625
7819246875.0 -0.1199951171875 -1.34576416015625
7850468750.0 -0.993927001953125 -0.914886474609375
7881690625.0 -1.2315673828125 -0.10345458984375
7912912500.0 -1.05389404296875 0.55401611328125
7944134375.0 -0.60552978515625 1.1129150390625
7975356250.0 0.2720947265625 1.334228515625
8006578125.0 1.04681396484375 0.77813720703125
8037800000.0 1.1923828125 0.0172119140625
8069021875.0 1.00567626953125 -0.61737060546875
8100243750.0 0.49908447265625 -1.16217041015625
8131465625.0 -0.38690185546875 -1.2529296875
8162687500.0 -1.033447265625 -0.6851806640625
8193909375.0 -1.1796875 0.0089111328125
8225131250.0 -1.01654052734375 0.67681884765625
8256353125.0 -0.4197998046875 1.24847412109375
8287575000.0 0.501953125 1.22607421875
8318796875.0 1.083251953125 0.6346435546875
8350018750.0 1.24407958984375 -0.075439453125
8381240625.0 1.031005859375 -0.84088134765625
8412462500.0 0.2535400390625 -1.3731689453125
8443684375.0 -0.6680908203125 -1.1688232421875
8474906250.0 -1.1744384765625 -0.53192138671875
8506128125.0 -1.29608154296875 0.235595703125
8537350000.0 -0.92449951171875 1.04498291015625
8568571875.0 -0.0146484375 1.39501953125
8599793750.0 0.803955078125 1.0521240234375
8631015625.0 1.24169921875 0.396728515625
8662237500.0 1.28607177734375 -0.430419921875
8693459375.0 0.7353515625 -1.17803955078125
8724681250.0 -0.16400146484375 -1.3326416015625
8755903125.0 -0.8795166015625 -0.9554443359375
8787125000.0 -1.30389404296875 -0.2801513671875
8818346875.0 -1.24993896484375 0.61572265625
8849568750.0 -0.556396484375 1.258544921875
8880790625.0 0.299072265625 1.2840576171875
8912012500.0 0.979827880859375 0.890533447265625
8943234375.0 1.39764404296875 0.129150390625
8974456250.0 1.1654052734375 -0.8387451171875
9005678125.0 0.34832763671875 -1.31182861328125
9036900000.0 -0.444091796875 -1.22406005859375
9068121875.0 -1.1033935546875 -0.78497314453125
9099343750.0 -1.4398193359375 0.09808349609375
9130565625.0 -0.97998046875 1.0115966796875
9161787500.0 -0.155029296875 1.2821044921875
9193009375.0 0.5550537109375 1.13226318359375
9224231250.0 1.1783447265625 0.65484619140625
9255453125.0 1.399169921875 -0.29632568359375
9286675000.0 0.806884765625 -1.08599853515625
9317896875.0 0.0250244140625 -1.2467041015625
9349118750.0 -0.65423583984375 -1.06878662109375
9380340625.0 -1.25640869140625 -0.50927734375
9411562500.0 -1.311279296875 0.479248046875
9442784375.0 -0.64739990234375 1.11700439453125
9474006250.0 0.088623046875 1.2099609375
9505228125.0 0.764892578125 0.97943115234375
9536450000.0 1.27264404296875 0.3134765625
9567671875.0 1.14453125 -0.581787109375
9598893750.0 0.5286865234375 -1.0704345703125
9630115625.0 -0.14422607421875 -1.15789794921875
9661337500.0 -0.816925048828125 -0.90240478515625
9692559375.0 -1.23870849609375 -0.18927001953125
9723781250.0 -1.0435791015625 0.6036376953125
9755003125.0 -0.486572265625 1.04937744140625
9786225000.0 0.19671630859375 1.158203125
9817446875.0 0.895660400390625 0.826629638671875
9848668750.0 1.19842529296875 0.076904296875
9879890625.0 0.968231201171875 -0.61688232421875
9911112500.0 0.45159912109375 -1.051513671875
9942334375.0 -0.267822265625 -1.1575927734375
9973556250.0 -0.94366455078125 -0.7392578125
10004778125.0 -1.14630126953125 -0.01922607421875
10036000000.0 -0.94384765625 0.616973876953125
10067221875.0 -0.441650390625 1.0970458984375
10098443750.0 0.368896484375 1.1793212890625
10129665625.0 1.00347900390625 0.64227294921875
10160887500.0 1.12005615234375 -0.05255126953125
10192109375.0 0.9169921875 -0.66259765625
10223331250.0 0.36090087890625 -1.1533203125
10254553125.0 -0.486572265625 -1.11334228515625
10285775000.0 -0.987030029296875 -0.53466796875
10316996875.0 -1.06646728515625 0.076416015625
10348218750.0 -0.89959716796875 0.669952392578125
10379440625.0 -0.32135009765625 1.17681884765625
10410662500.0 0.5289306640625 1.08538818359375
10441884375.0 0.99169921875 0.52130126953125
10473106250.0 1.108154296875 -0.08392333984375
10504328125.0 0.948516845703125 -0.75628662109375
10535550000.0 0.23895263671875 -1.29437255859375
10566771875.0 -0.65814208984375 -1.0765380859375
10597993750.0 -1.08074951171875 -0.45806884765625
10629215625.0 -1.17529296875 0.20623779296875
10660437500.0 -0.8873291015625 0.951202392578125
10691659375.0 -0.008056640625 1.33697509765625
10722881250.0 0.7840576171875 0.951629638671875
10754103125.0 1.1197509765625 0.323974609375
10785325000.0 1.13824462890625 -0.36773681640625
10816546875.0 0.699951171875 -1.050048828125
10847768750.0 -0.144775390625 -1.22930908203125
10878990625.0 -0.805023193359375 -0.8433837890625
10910212500.0 -1.12359619140625 -0.24346923828125
10941434375.0 -1.09674072265625 0.47802734375
10972656250.0 -0.5679931640625 1.08624267578125
11003878125.0 0.217529296875 1.1729736328125
11035100000.0 0.8497314453125 0.821136474609375
11066321875.0 1.219970703125 0.17523193359375
11097543750.0 1.098388671875 -0.67718505859375
11128765625.0 0.38458251953125 -1.1995849609375
11159987500.0 -0.3961181640625 -1.138427734375
11191209375.0 -0.99993896484375 -0.701751708984375
11222431250.0 -1.27227783203125 0.0933837890625
11253653125.0 -0.858612060546875 0.895233154296875
11284875000.0 -0.113525390625 1.12713623046875
11316096875.0 0.5106201171875 0.95587158203125
11347318750.0 1.002685546875 0.5013427734375
11378540625.0 1.1168212890625 -0.27081298828125
11409762500.0 0.63482666015625 -0.859039306640625
11440984375.0 0.03558349609375 -0.97906494140625
11472206250.0 -0.4818115234375 -0.848876953125
11503428125.0 -0.9541015625 -0.45611572265625
11534650000.0 -1.06903076171875 0.29010009765625
11565871875.0 -0.601715087890625 0.85601806640625
11597093750.0 -0.016998291015625 0.99127197265625
11628315625.0 0.5435791015625 0.87420654296875
11659537500.0 1.0606689453125 0.39129638671875
11690759375.0 1.06494140625 -0.433837890625
11721981250.0 0.51593017578125 -0.942230224609375
11753203125.0 -0.10675048828125 -1.0364990234375
11784425000.0 -0.72406005859375 -0.809295654296875
11815646875.0 -1.1009521484375 -0.1505126953125
11846868750.0 -0.889892578125 0.551239013671875
11878090625.0 -0.39080810546875 0.9085693359375
11909312500.0 0.188079833984375 0.985015869140625
11940534375.0 0.779266357421875 0.695404052734375
11971756250.0 1.02557373046875 0.0399169921875
12002978125.0 0.806610107421875 -0.537933349609375
12034200000.0 0.380706787109375 -0.889678955078125
12065421875.0 -0.2156982421875 -1.009521484375
12096643750.0 -0.84881591796875 -0.665008544921875
12127865625.0 -1.03289794921875 0.0159912109375
12159087500.0 -0.814300537109375 0.574920654296875
12190309375.0 -0.377471923828125 0.973602294921875
12221531250.0 0.33984375 1.08807373046875
12252753125.0 0.98077392578125 0.581298828125
12283975000.0 1.05413818359375 -0.1280517578125
12315196875.0 0.800201416015625 -0.67852783203125
12346418750.0 0.280517578125 -1.09259033203125
12377640625.0 -0.537353515625 -1.06072998046875
12408862500.0 -1.0340576171875 -0.42022705078125
12440084375.0 -1.008056640625 0.22564697265625
12471306250.0 -0.741180419921875 0.736114501953125
12502528125.0 -0.1800537109375 1.11785888671875
12533750000.0 0.620330810546875 0.99322509765625
12564971875.0 1.0418701171875 0.36297607421875
12596193750.0 1.0294189453125 -0.2640380859375
12627415625.0 0.747650146484375 -0.82965087890625
12658637500.0 0.079345703125 -1.2069091796875
12689859375.0 -0.7353515625 -0.966461181640625
12721081250.0 -1.11572265625 -0.30609130859375
12752303125.0 -1.09722900390625 0.38299560546875
12783525000.0 -0.6875 1.0269775390625
12814746875.0 0.1644287109375 1.2509765625
12845968750.0 0.862518310546875 0.8111572265625
12877190625.0 1.117919921875 0.171142578125
12908412500.0 1.05535888671875 -0.501708984375
12939634375.0 0.5438232421875 -1.1160888671875
12970856250.0 -0.3218994140625 -1.1754150390625
13002078125.0 -0.895782470703125 -0.6932373046875
13033300000.0 -1.1063232421875 -0.08642578125
13064521875.0 -1.00848388671875 0.59234619140625
13095743750.0 -0.41961669921875 1.1551513671875
13126965625.0 0.4097900390625 1.12139892578125
13158187500.0 0.94598388671875 0.6318359375
13189409375.0 1.14788818359375 -0.02105712890625
13220631250.0 0.934844970703125 -0.748138427734375
13251853125.0 0.23406982421875 -1.17169189453125
13283075000.0 -0.50750732421875 -1.01953125
13314296875.0 -0.98736572265625 -0.529144287109375
13345518750.0 -1.13665771484375 0.1773681640625
13376740625.0 -0.752838134765625 0.857757568359375
