!Created with skrf (http://scikit-rf.org).
# Hz S RI R 50.0 
!freq ReS11 ImS11
45000000.0 -0.0770263671875 -0.096923828125
76221875.0 -0.19637298583984375 -0.04758453369140625
107443750.0 -0.2547454833984375 0.11981201171875
138665625.0 -0.1481781005859375 0.3286285400390625
169887500.0 0.123809814453125 0.417205810546875
201109375.0 0.4218292236328125 0.280670166015625
232331250.0 0.57855224609375 -0.057830810546875
263553125.0 0.489044189453125 -0.4524688720703125
294775000.0 0.097900390625 -0.73193359375
325996875.0 -0.415435791015625 -0.680084228515625
357218750.0 -0.805999755859375 -0.29632568359375
388440625.0 -0.885009765625 0.30072021484375
419662500.0 -0.516571044921875 0.8660888671875
450884375.0 0.17364501953125 1.028076171875
482106250.0 0.798187255859375 0.711944580078125
513328125.0 1.11865234375 0.0867919921875
544550000.0 1.002685546875 -0.6798095703125
575771875.0 0.33563232421875 -1.23748779296875
606993750.0 -0.553955078125 -1.17626953125
638215625.0 -1.1650390625 -0.58935546875
669437500.0 -1.33868408203125 0.23388671875
700659375.0 -0.969970703125 1.095947265625
731881250.0 -0.003173828125 1.54193115234375
763103125.0 1.005126953125 1.1546630859375
794325000.0 1.46759033203125 0.281005859375
825546875.0 1.36602783203125 -0.65155029296875
856768750.0 0.7933349609375 -1.39996337890625
887990625.0 -0.2930908203125 -1.647216796875
919212500.0 -1.28729248046875 -1.0770263671875
950434375.0 -1.6470947265625 -0.05841064453125
981656250.0 -1.38067626953125 0.94488525390625
1012878125.0 -0.528564453125 1.67034912109375
1044100000.0 0.69683837890625 1.65966796875
1075321875.0 1.57318115234375 0.81036376953125
1106543750.0 1.70257568359375 -0.31329345703125
1137765625.0 1.18487548828125 -1.283447265625
1168987500.0 0.1370849609375 -1.795166015625
1200209375.0 -1.06121826171875 -1.48138427734375
1231431250.0 -1.72601318359375 -0.4521484375
1262653125.0 -1.59210205078125 0.68450927734375
1293875000.0 -0.85052490234375 1.489990234375
1325096875.0 0.22845458984375 1.70452880859375
1356318750.0 1.2340087890625 1.2147216796875
1387540625.0 1.7376708984375 0.18804931640625
1418762500.0 1.46759033203125 -0.95074462890625
1449984375.0 0.52825927734375 -1.6241455078125
1481206250.0 -0.5499267578125 -1.55426025390625
1512428125.0 -1.34100341796875 -0.91802978515625
1543650000.0 -1.65380859375 0.0654296875
1574871875.0 -1.2713623046875 1.1080322265625
1606093750.0 -0.271728515625 1.62945556640625
1637315625.0 0.74176025390625 1.39849853515625
1668537500.0 1.3944091796875 0.6943359375
1699759375.0 1.57122802734375 -0.2772216796875
1730981250.0 1.06231689453125 -1.22833251953125
1762203125.0 0.04119873046875 -1.56903076171875
1793425000.0 -0.85504150390625 -1.22479248046875
1824646875.0 -1.39215087890625 -0.5140380859375
1855868750.0 -1.47210693359375 0.43182373046875
1887090625.0 -0.87371826171875 1.28369140625
1918312500.0 0.11724853515625 1.48492431640625
1949534375.0 0.92071533203125 1.0875244140625
1980756250.0 1.37371826171875 0.36944580078125
2011978125.0 1.35784912109375 -0.531494140625
2043200000.0 0.74853515625 -1.2603759765625
2074421875.0 -0.15704345703125 -1.43145751953125
2105643750.0 -0.95892333984375 -1.070556640625
2136865625.0 -1.445556640625 -0.3038330078125
2168087500.0 -1.3553466796875 0.670166015625
2199309375.0 -0.637939453125 1.34991455078125
2230531250.0 0.2821044921875 1.43438720703125
2261753125.0 1.0712890625 1.0120849609375
2292975000.0 1.5123291015625 0.16986083984375
2324196875.0 1.30364990234375 -0.8184814453125
2355418750.0 0.52435302734375 -1.41851806640625
2386640625.0 -0.40435791015625 -1.44696044921875
2417862500.0 -1.17926025390625 -1.02294921875
2449084375.0 -1.60235595703125 -0.08416748046875
2480306250.0 -1.3095703125 0.9249267578125
2511528125.0 -0.49267578125 1.5068359375
2542750000.0 0.48822021484375 1.53399658203125
2573971875.0 1.36993408203125 0.9666748046875
2605193750.0 1.71502685546875 -0.11273193359375
2636415625.0 1.2598876953125 -1.1512451171875
2667637500.0 0.30535888671875 -1.66534423828125
2698859375.0 -0.7691650390625 -1.531982421875
2730081250.0 -1.57147216796875 -0.73870849609375
2761303125.0 -1.67828369140625 0.38751220703125
2792525000.0 -1.0975341796875 1.30560302734375
2823746875.0 -0.10198974609375 1.72589111328125
2854968750.0 1.01019287109375 1.45306396484375
2886190625.0 1.68890380859375 0.490478515625
2917412500.0 1.596923828125 -0.61651611328125
2948634375.0 0.93768310546875 -1.4320068359375
2979856250.0 -0.1085205078125 -1.773681640625
3011078125.0 -1.24713134765625 -1.34014892578125
3042300000.0 -1.77215576171875 -0.233642578125
3073521875.0 -1.50634765625 0.83734130859375
3104743750.0 -0.76177978515625 1.56573486328125
3135965625.0 0.361572265625 1.8065185546875
3167187500.0 1.49700927734375 1.1622314453125
3198409375.0 1.8126220703125 -0.0751953125
3229631250.0 1.34686279296875 -1.07965087890625
3260853125.0 0.48822021484375 -1.66619873046875
3292075000.0 -0.65411376953125 -1.6954345703125
3323296875.0 -1.6177978515625 -0.876953125
3354518750.0 -1.72772216796875 0.32855224609375
3385740625.0 -1.15362548828125 1.23065185546875
3416962500.0 -0.23089599609375 1.678466796875
3448184375.0 0.85919189453125 1.5185546875
3479406250.0 1.63201904296875 0.6436767578125
3510628125.0 1.640625 -0.49346923828125
3541850000.0 0.9986572265625 -1.35284423828125
3573071875.0 -0.00762939453125 -1.680419921875
3604293750.0 -1.0257568359375 -1.33538818359375
3635515625.0 -1.62469482421875 -0.43798828125
3666737500.0 -1.5592041015625 0.6448974609375
3697959375.0 -0.823486328125 1.4739990234375
3729181250.0 0.2685546875 1.62896728515625
3760403125.0 1.15081787109375 1.09576416015625
3791625000.0 1.54986572265625 0.2176513671875
3822846875.0 1.3995361328125 -0.76019287109375
3854068750.0 0.6190185546875 -1.4775390625
3885290625.0 -0.42022705078125 -1.47796630859375
3916512500.0 -1.13946533203125 -0.9095458984375
3947734375.0 -1.4451904296875 -0.11907958984375
3978956250.0 -1.29522705078125 0.77630615234375
4010178125.0 -0.5308837890625 1.4515380859375
4041400000.0 0.47265625 1.41351318359375
4072621875.0 1.14990234375 0.8463134765625
4103843750.0 1.442626953125 0.06280517578125
4135065625.0 1.265625 -0.844970703125
4166287500.0 0.4571533203125 -1.4937744140625
4197509375.0 -0.55731201171875 -1.41326904296875
4228731250.0 -1.2462158203125 -0.80145263671875
4259953125.0 -1.50634765625 0.07086181640625
4291175000.0 -1.18670654296875 1.0089111328125
4322396875.0 -0.2891845703125 1.52374267578125
4353618750.0 0.67236328125 1.34796142578125
4384840625.0 1.3209228515625 0.6961669921875
4416062500.0 1.49859619140625 -0.22698974609375
4447284375.0 1.053466796875 -1.101806640625
4478506250.0 0.172119140625 -1.4931640625
4509728125.0 -0.7318115234375 -1.30596923828125
4540950000.0 -1.39129638671875 -0.6353759765625
4572171875.0 -1.5211181640625 0.3592529296875
4603393750.0 -0.97174072265625 1.21051025390625
4634615625.0 -0.06085205078125 1.53570556640625
4665837500.0 0.86920166015625 1.30279541015625
4697059375.0 1.53851318359375 0.51483154296875
4728281250.0 1.52667236328125 -0.58148193359375
4759503125.0 0.822509765625 -1.3651123046875
4790725000.0 -0.14501953125 -1.57049560546875
4821946875.0 -1.082275390625 -1.1925048828125
4853168750.0 -1.61090087890625 -0.251708984375
4884390625.0 -1.3763427734375 0.79168701171875
4915612500.0 -0.61224365234375 1.40966796875
4946834375.0 0.3277587890625 1.50628662109375
4978056250.0 1.20330810546875 1.01568603515625
5009278125.0 1.55914306640625 0.0391845703125
5040500000.0 1.2271728515625 -0.87420654296875
5071721875.0 0.5009765625 -1.41192626953125
5102943750.0 -0.445556640625 -1.494873046875
5134165625.0 -1.3338623046875 -0.9039306640625
5165387500.0 -1.56561279296875 0.14569091796875
5196609375.0 -1.134765625 1.00872802734375
5227831250.0 -0.3570556640625 1.50433349609375
5259053125.0 0.68505859375 1.489501953125
5290275000.0 1.5205078125 0.66180419921875
5321496875.0 1.49078369140625 -0.43011474609375
5352718750.0 0.919677734375 -1.15203857421875
5383940625.0 0.09576416015625 -1.49932861328125
5415162500.0 -0.89935302734375 -1.282470703125
5446384375.0 -1.48260498046875 -0.36944580078125
5477606250.0 -1.2972412109375 0.56488037109375
5508828125.0 -0.73046875 1.14984130859375
5540050000.0 0.05401611328125 1.397216796875
5571271875.0 0.93646240234375 1.1072998046875
5602493750.0 1.4061279296875 0.2601318359375
5633715625.0 1.230712890625 -0.61138916015625
5664937500.0 0.6478271484375 -1.19891357421875
5696159375.0 -0.19598388671875 -1.3822021484375
5727381250.0 -1.0198974609375 -0.97772216796875
5758603125.0 -1.38958740234375 -0.1448974609375
5789825000.0 -1.192626953125 0.71673583984375
5821046875.0 -0.50628662109375 1.30560302734375
5852268750.0 0.4110107421875 1.31219482421875
5883490625.0 1.0693359375 0.771240234375
5914712500.0 1.3006591796875 0.0196533203125
5945934375.0 1.0948486328125 -0.77398681640625
5977156250.0 0.36083984375 -1.31121826171875
6008378125.0 -0.50836181640625 -1.18084716796875
6039600000.0 -1.0203857421875 -0.64849853515625
6070821875.0 -1.22259521484375 -0.00439453125
6102043750.0 -1.08184814453125 0.7611083984375
6133265625.0 -0.342041015625 1.3431396484375
6164487500.0 0.5621337890625 1.1861572265625
6195709375.0 1.06884765625 0.6295166015625
6226931250.0 1.27764892578125 -0.0419921875
6258153125.0 1.10321044921875 -0.86981201171875
6289375000.0 0.25640869140625 -1.4447021484375
6320596875.0 -0.68865966796875 -1.20477294921875
6351818750.0 -1.19866943359375 -0.57177734375
6383040625.0 -1.35406494140625 0.2061767578125
6414262500.0 -0.99908447265625 1.05657958984375
6445484375.0 -0.0782470703125 1.455810546875
6476706250.0 0.79443359375 1.1468505859375
6507928125.0 1.2890625 0.4696044921875
6539150000.0 1.346435546875 -0.3863525390625
6570371875.0 0.8404541015625 -1.1427001953125
6601593750.0 -0.017578125 -1.40380859375
6632815625.0 -0.8385009765625 -1.1353759765625
6664037500.0 -1.39947509765625 -0.41973876953125
6695259375.0 -1.37213134765625 0.56561279296875
6726481250.0 -0.70965576171875 1.25018310546875
6757703125.0 0.13031005859375 1.40484619140625
6788925000.0 0.95306396484375 1.12921142578125
6820146875.0 1.55908203125 0.2877197265625
6851368750.0 1.32464599609375 -0.8182373046875
6882590625.0 0.5064697265625 -1.33697509765625
6913812500.0 -0.29205322265625 -1.35565185546875
6945034375.0 -1.0689697265625 -1.02081298828125
6976256250.0 -1.59063720703125 -0.09344482421875
7007478125.0 -1.23480224609375 0.93267822265625
7038700000.0 -0.4013671875 1.34197998046875
7069921875.0 0.3580322265625 1.322021484375
7101143750.0 1.1180419921875 0.967041015625
7132365625.0 1.5972900390625 0.01422119140625
7163587500.0 1.15716552734375 -1.02081298828125
7194809375.0 0.3011474609375 -1.3970947265625
7226031250.0 -0.510009765625 -1.32373046875
7257253125.0 -1.26568603515625 -0.82342529296875
7288475000.0 -1.555908203125 0.197021484375
7319696875.0 -1.02911376953125 1.10894775390625
7350918750.0 -0.16546630859375 1.44146728515625
7382140625.0 0.7144775390625 1.2750244140625
7413362500.0 1.37420654296875 0.57574462890625
7444584375.0 1.40863037109375 -0.4039306640625
7475806250.0 0.857177734375 -1.142822265625
7507028125.0 0.00616455078125 -1.42877197265625
7538250000.0 -0.8861083984375 -1.12347412109375
7569471875.0 -1.3355712890625 -0.31060791015625
7600693750.0 -1.20172119140625 0.49652099609375
7631915625.0 -0.71746826171875 1.0830078125
7663137500.0 0.07958984375 1.356689453125
7694359375.0 0.9390869140625 0.97998046875
7725581250.0 1.2423095703125 0.18109130859375
7756803125.0 1.08123779296875 -0.4996337890625
7788025000.0 0.66949462890625 -1.04180908203125
7819246875.0 -0.11859130859375 -1.34521484375
7850468750.0 -0.991546630859375 -0.91558837890625
7881690625.0 -1.23040771484375 -0.10504150390625
7912912500.0 -1.05328369140625 0.552734375
7944134375.0 -0.6055908203125 1.1114501953125
7975356250.0 0.27142333984375 1.333251953125
8006578125.0 1.04693603515625 0.778564453125
8037800000.0 1.192138671875 0.01629638671875
8069021875.0 1.0059814453125 -0.6158447265625
8100243750.0 0.5003662109375 -1.15997314453125
8131465625.0 -0.386962890625 -1.25311279296875
8162687500.0 -1.02923583984375 -0.68634033203125
8193909375.0 -1.179931640625 0.00799560546875
8225131250.0 -1.0169677734375 0.6771240234375
8256353125.0 -0.42230224609375 1.24737548828125
8287575000.0 0.4991455078125 1.2239990234375
8318796875.0 1.080810546875 0.63446044921875
8350018750.0 1.243408203125 -0.0755615234375
8381240625.0 1.0302734375 -0.83929443359375
8412462500.0 0.2547607421875 -1.372314453125
8443684375.0 -0.66888427734375 -1.169677734375
8474906250.0 -1.17376708984375 -0.5323486328125
8506128125.0 -1.2965087890625 0.23480224609375
8537350000.0 -0.924072265625 1.04583740234375
8568571875.0 -0.0164794921875 1.39190673828125
8599793750.0 0.8017578125 1.0523681640625
8631015625.0 1.239990234375 0.39910888671875
8662237500.0 1.2843017578125 -0.42791748046875
8693459375.0 0.73663330078125 -1.17340087890625
8724681250.0 -0.1605224609375 -1.32965087890625
8755903125.0 -0.87774658203125 -0.95697021484375
8787125000.0 -1.30322265625 -0.28143310546875
8818346875.0 -1.24993896484375 0.6131591796875
8849568750.0 -0.556640625 1.25933837890625
8880790625.0 0.29632568359375 1.28338623046875
8912012500.0 0.977874755859375 0.89208984375
8943234375.0 1.39752197265625 0.12896728515625
8974456250.0 1.16644287109375 -0.83905029296875
9005678125.0 0.3489990234375 -1.3118896484375
9036900000.0 -0.4449462890625 -1.22509765625
9068121875.0 -1.1009521484375 -0.784912109375
9099343750.0 -1.4393310546875 0.09564208984375
9130565625.0 -0.97955322265625 1.010498046875
9161787500.0 -0.15643310546875 1.2808837890625
9193009375.0 0.55401611328125 1.1328125
9224231250.0 1.17901611328125 0.65521240234375
9255453125.0 1.39862060546875 -0.2957763671875
9286675000.0 0.80718994140625 -1.08502197265625
9317896875.0 0.028564453125 -1.24432373046875
9349118750.0 -0.6539306640625 -1.06951904296875
9380340625.0 -1.25604248046875 -0.510498046875
9411562500.0 -1.310546875 0.474853515625
9442784375.0 -0.6478271484375 1.11724853515625
9474006250.0 0.0885009765625 1.21044921875
9505228125.0 0.764556884765625 0.979156494140625
9536450000.0 1.2724609375 0.31451416015625
9567671875.0 1.1436767578125 -0.5789794921875
9598893750.0 0.529052734375 -1.0684814453125
9630115625.0 -0.1424560546875 -1.15673828125
9661337500.0 -0.81549072265625 -0.90240478515625
9692559375.0 -1.23779296875 -0.1915283203125
9723781250.0 -1.04339599609375 0.60369873046875
9755003125.0 -0.48553466796875 1.0506591796875
9786225000.0 0.19757080078125 1.1583251953125
9817446875.0 0.894012451171875 0.828033447265625
9848668750.0 1.19793701171875 0.07806396484375
9879890625.0 0.968414306640625 -0.61602783203125
9911112500.0 0.45294189453125 -1.050537109375
9942334375.0 -0.2662353515625 -1.1578369140625
9973556250.0 -0.94244384765625 -0.737640380859375
10004778125.0 -1.14501953125 -0.017822265625
10036000000.0 -0.944366455078125 0.615753173828125
10067221875.0 -0.44232177734375 1.09576416015625
10098443750.0 0.36688232421875 1.18060302734375
10129665625.0 1.001953125 0.64312744140625
10160887500.0 1.11883544921875 -0.05096435546875
10192109375.0 0.91741943359375 -0.662322998046875
10223331250.0 0.361328125 -1.15106201171875
10254553125.0 -0.48431396484375 -1.1124267578125
10285775000.0 -0.984619140625 -0.53564453125
10316996875.0 -1.06622314453125 0.0755615234375
10348218750.0 -0.900360107421875 0.670440673828125
10379440625.0 -0.32232666015625 1.17529296875
10410662500.0 0.527587890625 1.0858154296875
10441884375.0 0.989990234375 0.52313232421875
10473106250.0 1.10711669921875 -0.0821533203125
10504328125.0 0.94873046875 -0.755401611328125
10535550000.0 0.2396240234375 -1.29345703125
10566771875.0 -0.65533447265625 -1.07757568359375
10597993750.0 -1.08099365234375 -0.4595947265625
10629215625.0 -1.173583984375 0.20318603515625
10660437500.0 -0.887481689453125 0.950225830078125
10691659375.0 -0.00994873046875 1.33538818359375
10722881250.0 0.782989501953125 0.952667236328125
10754103125.0 1.1177978515625 0.3253173828125
10785325000.0 1.1378173828125 -0.3656005859375
10816546875.0 0.700439453125 -1.048095703125
10847768750.0 -0.1458740234375 -1.22906494140625
10878990625.0 -0.803466796875 -0.843902587890625
10910212500.0 -1.1220703125 -0.24609375
10941434375.0 -1.09625244140625 0.47589111328125
10972656250.0 -0.56805419921875 1.0849609375
11003878125.0 0.2158203125 1.1732177734375
11035100000.0 0.84661865234375 0.822174072265625
11066321875.0 1.21990966796875 0.174072265625
11097543750.0 1.09722900390625 -0.67449951171875
11128765625.0 0.387451171875 -1.19659423828125
11159987500.0 -0.39495849609375 -1.13873291015625
11191209375.0 -0.999176025390625 -0.702423095703125
11222431250.0 -1.27142333984375 0.0916748046875
11253653125.0 -0.8585205078125 0.89385986328125
11284875000.0 -0.1162109375 1.1265869140625
11316096875.0 0.510467529296875 0.956451416015625
11347318750.0 1.0001220703125 0.50262451171875
11378540625.0 1.116455078125 -0.26904296875
11409762500.0 0.634613037109375 -0.85906982421875
11440984375.0 0.035980224609375 -0.977630615234375
11472206250.0 -0.479034423828125 -0.84954833984375
11503428125.0 -0.9512939453125 -0.45635986328125
11534650000.0 -1.06768798828125 0.2867431640625
11565871875.0 -0.60223388671875 0.8538818359375
11597093750.0 -0.018341064453125 0.99176025390625
11628315625.0 0.545013427734375 0.875335693359375
11659537500.0 1.0594482421875 0.3914794921875
11690759375.0 1.06439208984375 -0.4329833984375
11721981250.0 0.517120361328125 -0.939910888671875
11753203125.0 -0.10552978515625 -1.036376953125
11784425000.0 -0.7235107421875 -0.809295654296875
11815646875.0 -1.0994873046875 -0.15155029296875
11846868750.0 -0.8914794921875 0.550994873046875
11878090625.0 -0.391326904296875 0.907440185546875
11909312500.0 0.1864013671875 0.983245849609375
11940534375.0 0.77978515625 0.694915771484375
11971756250.0 1.0233154296875 0.0411376953125
12002978125.0 0.8067626953125 -0.536468505859375
12034200000.0 0.381744384765625 -0.88873291015625
12065421875.0 -0.21405029296875 -1.00897216796875
12096643750.0 -0.847076416015625 -0.664947509765625
12127865625.0 -1.03253173828125 0.015625
12159087500.0 -0.814971923828125 0.57586669921875
12190309375.0 -0.378082275390625 0.97430419921875
12221531250.0 0.3375244140625 1.086669921875
12252753125.0 0.97943115234375 0.582427978515625
12283975000.0 1.05450439453125 -0.1275634765625
12315196875.0 0.799407958984375 -0.674163818359375
12346418750.0 0.28131103515625 -1.09063720703125
12377640625.0 -0.53582763671875 -1.06011962890625
12408862500.0 -1.03277587890625 -0.4208984375
12440084375.0 -1.008056640625 0.22357177734375
12471306250.0 -0.74169921875 0.738128662109375
12502528125.0 -0.17999267578125 1.11895751953125
12533750000.0 0.618743896484375 0.992156982421875
12564971875.0 1.040283203125 0.36444091796875
12596193750.0 1.0286865234375 -0.262939453125
12627415625.0 0.74755859375 -0.8277587890625
12658637500.0 0.08135986328125 -1.206298828125
12689859375.0 -0.733978271484375 -0.96759033203125
12721081250.0 -1.11529541015625 -0.30712890625
12752303125.0 -1.0965576171875 0.380126953125
12783525000.0 -0.6885986328125 1.02532958984375
12814746875.0 0.16357421875 1.25018310546875
12845968750.0 0.8623046875 0.811248779296875
12877190625.0 1.11602783203125 0.17242431640625
12908412500.0 1.055908203125 -0.50079345703125
12939634375.0 0.54315185546875 -1.116455078125
12970856250.0 -0.319580078125 -1.17559814453125
13002078125.0 -0.89434814453125 -0.69354248046875
13033300000.0 -1.10498046875 -0.08758544921875
13064521875.0 -1.00823974609375 0.5906982421875
13095743750.0 -0.42071533203125 1.15301513671875
13126965625.0 0.40679931640625 1.11981201171875
13158187500.0 0.947235107421875 0.632843017578125
13189409375.0 1.1468505859375 -0.02008056640625
13220631250.0 0.9364013671875 -0.747100830078125
13251853125.0 0.2354736328125 -1.1702880859375
13283075000.0 -0.5057373046875 -1.01898193359375
13314296875.0 -0.9876708984375 -0.528472900390625
13345518750.0 -1.134765625 0.17694091796875
