!Created with skrf (http://scikit-rf.org).
# Hz S RI R 50.0 
!freq ReS11 ImS11
45000000.0 -0.076812744140625 -0.097076416015625
76221875.0 -0.196868896484375 -0.0478973388671875
107443750.0 -0.25604248046875 0.1194610595703125
138665625.0 -0.149383544921875 0.3291168212890625
169887500.0 0.1226959228515625 0.4189453125
201109375.0 0.4221038818359375 0.2828521728515625
232331250.0 0.580535888671875 -0.0560302734375
263553125.0 0.491943359375 -0.452850341796875
294775000.0 0.100738525390625 -0.734527587890625
325996875.0 -0.41485595703125 -0.684051513671875
357218750.0 -0.808197021484375 -0.300384521484375
388440625.0 -0.889495849609375 0.29931640625
419662500.0 -0.5211181640625 0.867401123046875
450884375.0 0.1705322265625 1.0323486328125
482106250.0 0.79888916015625 0.716949462890625
513328125.0 1.1224365234375 0.0904541015625
544550000.0 1.00811767578125 -0.678955078125
575771875.0 0.34063720703125 -1.239990234375
606993750.0 -0.55181884765625 -1.18170166015625
638215625.0 -1.167236328125 -0.59521484375
669437500.0 -1.34375 0.2305908203125
700659375.0 -0.97601318359375 1.0960693359375
731881250.0 -0.00823974609375 1.5472412109375
763103125.0 1.0045166015625 1.16192626953125
794325000.0 1.471923828125 0.28662109375
825546875.0 1.37274169921875 -0.649658203125
856768750.0 0.800537109375 -1.40289306640625
887990625.0 -0.2891845703125 -1.6539306640625
919212500.0 -1.28948974609375 -1.08551025390625
950434375.0 -1.65380859375 -0.0635986328125
981656250.0 -1.389404296875 0.945556640625
1012878125.0 -0.53594970703125 1.6754150390625
1044100000.0 0.69488525390625 1.66900634765625
1075321875.0 1.57794189453125 0.81854248046875
1106543750.0 1.71099853515625 -0.3094482421875
1137765625.0 1.19384765625 -1.28485107421875
1168987500.0 0.1436767578125 -1.80230712890625
1200209375.0 -1.06134033203125 -1.491455078125
1231431250.0 -1.73187255859375 -0.45892333984375
1262653125.0 -1.6004638671875 0.68255615234375
1293875000.0 -0.8582763671875 1.4931640625
1325096875.0 0.22430419921875 1.71258544921875
1356318750.0 1.23553466796875 1.2237548828125
1387540625.0 1.7445068359375 0.19390869140625
1418762500.0 1.47637939453125 -0.95037841796875
1449984375.0 0.535400390625 -1.6290283203125
1481206250.0 -0.54742431640625 -1.56201171875
1512428125.0 -1.34356689453125 -0.92559814453125
1543650000.0 -1.660400390625 0.06195068359375
1574871875.0 -1.27923583984375 1.10888671875
1606093750.0 -0.2777099609375 1.6348876953125
1637315625.0 0.74053955078125 1.40618896484375
1668537500.0 1.39788818359375 0.70135498046875
1699759375.0 1.57781982421875 -0.27398681640625
1730981250.0 1.06982421875 -1.2301025390625
1762203125.0 0.04608154296875 -1.57427978515625
1793425000.0 -0.8551025390625 -1.23175048828125
1824646875.0 -1.395751953125 -0.5198974609375
1855868750.0 -1.4791259765625 0.4295654296875
1887090625.0 -0.88055419921875 1.28668212890625
1918312500.0 0.11419677734375 1.49114990234375
1949534375.0 0.92132568359375 1.093994140625
1980756250.0 1.37786865234375 0.37408447265625
2011978125.0 1.36456298828125 -0.529541015625
2043200000.0 0.7547607421875 -1.26300048828125
2074421875.0 -0.15399169921875 -1.4371337890625
2105643750.0 -0.9600830078125 -1.07708740234375
2136865625.0 -1.4501953125 -0.3089599609375
2168087500.0 -1.362060546875 0.6693115234375
2199309375.0 -0.64373779296875 1.35333251953125
2230531250.0 0.27960205078125 1.440185546875
2261753125.0 1.0731201171875 1.01861572265625
2292975000.0 1.5177001953125 0.1739501953125
2324196875.0 1.31024169921875 -0.8177490234375
2355418750.0 0.52972412109375 -1.42205810546875
2386640625.0 -0.40167236328125 -1.452392578125
2417862500.0 -1.18255615234375 -1.02935791015625
2449084375.0 -1.6092529296875 -0.08734130859375
2480306250.0 -1.31658935546875 0.92584228515625
2511528125.0 -0.49835205078125 1.5111083984375
2542750000.0 0.48626708984375 1.54144287109375
2573971875.0 1.37335205078125 0.9737548828125
2605193750.0 1.72216796875 -0.10858154296875
2636415625.0 1.26739501953125 -1.1522216796875
2667637500.0 0.31011962890625 -1.671630859375
2698859375.0 -0.76824951171875 -1.53948974609375
2730081250.0 -1.57635498046875 -0.7459716796875
2761303125.0 -1.6868896484375 0.38507080078125
2792525000.0 -1.10540771484375 1.30877685546875
2823746875.0 -0.106689453125 1.73382568359375
2854968750.0 1.01202392578125 1.4619140625
2886190625.0 1.69635009765625 0.49639892578125
2917412500.0 1.60552978515625 -0.61553955078125
2948634375.0 0.94439697265625 -1.4359130859375
2979856250.0 -0.10546875 -1.7822265625
3011078125.0 -1.2486572265625 -1.34820556640625
3042300000.0 -1.7786865234375 -0.23944091796875
3073521875.0 -1.51513671875 0.83819580078125
3104743750.0 -0.768798828125 1.5703125
3135965625.0 0.36029052734375 1.81439208984375
3167187500.0 1.5010986328125 1.17138671875
3198409375.0 1.820068359375 -0.07049560546875
3229631250.0 1.35479736328125 -1.08087158203125
3260853125.0 0.49432373046875 -1.6702880859375
3292075000.0 -0.65252685546875 -1.7037353515625
3323296875.0 -1.62139892578125 -0.88531494140625
3354518750.0 -1.73590087890625 0.32598876953125
3385740625.0 -1.161376953125 1.23291015625
3416962500.0 -0.23565673828125 1.6859130859375
3448184375.0 0.859130859375 1.52752685546875
3479406250.0 1.63946533203125 0.649658203125
3510628125.0 1.648681640625 -0.4927978515625
3541850000.0 1.00494384765625 -1.35699462890625
3573071875.0 -0.004638671875 -1.6861572265625
3604293750.0 -1.028564453125 -1.343017578125
3635515625.0 -1.63165283203125 -0.44293212890625
3666737500.0 -1.56695556640625 0.64447021484375
3697959375.0 -0.82965087890625 1.4788818359375
3729181250.0 0.26568603515625 1.63519287109375
3760403125.0 1.15350341796875 1.102783203125
3791625000.0 1.55609130859375 0.22186279296875
3822846875.0 1.407470703125 -0.760498046875
3854068750.0 0.625244140625 -1.4837646484375
3885290625.0 -0.4189453125 -1.48553466796875
3916512500.0 -1.14312744140625 -0.9158935546875
3947734375.0 -1.45111083984375 -0.12249755859375
3978956250.0 -1.30291748046875 0.7799072265625
4010178125.0 -0.53497314453125 1.45806884765625
4041400000.0 0.47161865234375 1.4190673828125
4072621875.0 1.15338134765625 0.8516845703125
4103843750.0 1.4476318359375 0.066162109375
4135065625.0 1.2725830078125 -0.84619140625
4166287500.0 0.460693359375 -1.49871826171875
4197509375.0 -0.5565185546875 -1.41888427734375
4228731250.0 -1.24896240234375 -0.80633544921875
4259953125.0 -1.5120849609375 0.06817626953125
4291175000.0 -1.1922607421875 1.00994873046875
4322396875.0 -0.29327392578125 1.52911376953125
4353618750.0 0.67181396484375 1.3543701171875
4384840625.0 1.3245849609375 0.70159912109375
4416062500.0 1.50482177734375 -0.22564697265625
4447284375.0 1.06011962890625 -1.10455322265625
4478506250.0 0.17486572265625 -1.4989013671875
4509728125.0 -0.73358154296875 -1.3121337890625
4540950000.0 -1.3975830078125 -0.63946533203125
4572171875.0 -1.5260009765625 0.3587646484375
4603393750.0 -0.9761962890625 1.2132568359375
4634615625.0 -0.0634765625 1.54034423828125
4665837500.0 0.8707275390625 1.30804443359375
4697059375.0 1.54400634765625 0.51885986328125
4728281250.0 1.5333251953125 -0.5806884765625
4759503125.0 0.82720947265625 -1.36810302734375
4790725000.0 -0.14306640625 -1.576416015625
4821946875.0 -1.0841064453125 -1.1990966796875
4853168750.0 -1.61676025390625 -0.2552490234375
4884390625.0 -1.38262939453125 0.792724609375
4915612500.0 -0.61669921875 1.4139404296875
4946834375.0 0.32806396484375 1.51422119140625
4978056250.0 1.2073974609375 1.021728515625
5009278125.0 1.56622314453125 0.041015625
5040500000.0 1.23406982421875 -0.87677001953125
5071721875.0 0.5047607421875 -1.41748046875
5102943750.0 -0.44635009765625 -1.5013427734375
5134165625.0 -1.33856201171875 -0.90911865234375
5165387500.0 -1.57208251953125 0.144775390625
5196609375.0 -1.139892578125 1.010009765625
5227831250.0 -0.36065673828125 1.50860595703125
5259053125.0 0.68780517578125 1.4964599609375
5290275000.0 1.52349853515625 0.66632080078125
5321496875.0 1.49639892578125 -0.4305419921875
5352718750.0 0.925048828125 -1.152587890625
5383940625.0 0.098876953125 -1.5032958984375
5415162500.0 -0.90069580078125 -1.28814697265625
5446384375.0 -1.48699951171875 -0.3736572265625
5477606250.0 -1.30328369140625 0.56549072265625
5508828125.0 -0.7347412109375 1.152099609375
5540050000.0 0.052734375 1.4029541015625
5571271875.0 0.939208984375 1.11297607421875
5602493750.0 1.41162109375 0.2630615234375
5633715625.0 1.23638916015625 -0.61358642578125
5664937500.0 0.651123046875 -1.2037353515625
5696159375.0 -0.1953125 -1.38726806640625
5727381250.0 -1.02239990234375 -0.981689453125
5758603125.0 -1.39483642578125 -0.146484375
5789825000.0 -1.1976318359375 0.71783447265625
5821046875.0 -0.50836181640625 1.31024169921875
5852268750.0 0.4114990234375 1.3160400390625
5883490625.0 1.07318115234375 0.775146484375
5914712500.0 1.30487060546875 0.0225830078125
5945934375.0 1.1002197265625 -0.77728271484375
5977156250.0 0.36358642578125 -1.3157958984375
6008378125.0 -0.5101318359375 -1.18560791015625
6039600000.0 -1.0234375 -0.651611328125
6070821875.0 -1.22711181640625 -0.0062255859375
6102043750.0 -1.0869140625 0.76361083984375
6133265625.0 -0.343994140625 1.3486328125
6164487500.0 0.56414794921875 1.190673828125
6195709375.0 1.07342529296875 0.6324462890625
6226931250.0 1.28387451171875 -0.04217529296875
6258153125.0 1.10821533203125 -0.87310791015625
6289375000.0 0.257080078125 -1.44970703125
6320596875.0 -0.69091796875 -1.20892333984375
6351818750.0 -1.2022705078125 -0.573974609375
6383040625.0 -1.35797119140625 0.20599365234375
6414262500.0 -1.00299072265625 1.05914306640625
6445484375.0 -0.07952880859375 1.45989990234375
6476706250.0 0.7958984375 1.150390625
6507928125.0 1.29229736328125 0.472412109375
6539150000.0 1.3509521484375 -0.38592529296875
6570371875.0 0.8447265625 -1.14556884765625
6601593750.0 -0.01605224609375 -1.40850830078125
6632815625.0 -0.83984375 -1.1397705078125
6664037500.0 -1.404296875 -0.4222412109375
6695259375.0 -1.37811279296875 0.56671142578125
6726481250.0 -0.712646484375 1.254150390625
6757703125.0 0.12982177734375 1.41082763671875
6788925000.0 0.9571533203125 1.13427734375
6820146875.0 1.5638427734375 0.2891845703125
6851368750.0 1.32958984375 -0.8204345703125
6882590625.0 0.50836181640625 -1.341064453125
6913812500.0 -0.29290771484375 -1.35992431640625
6945034375.0 -1.07232666015625 -1.02520751953125
6976256250.0 -1.59619140625 -0.09478759765625
7007478125.0 -1.2403564453125 0.9344482421875
7038700000.0 -0.40325927734375 1.34814453125
7069921875.0 0.3560791015625 1.3270263671875
7101143750.0 1.12054443359375 0.97320556640625
7132365625.0 1.6048583984375 0.01513671875
7163587500.0 1.16156005859375 -1.0201416015625
7194809375.0 0.3040771484375 -1.40087890625
7226031250.0 -0.5126953125 -1.33087158203125
7257253125.0 -1.27069091796875 -0.82672119140625
7288475000.0 -1.56317138671875 0.19903564453125
7319696875.0 -1.033447265625 1.113037109375
7350918750.0 -0.1663818359375 1.44921875
7382140625.0 0.71630859375 1.28125
7413362500.0 1.37994384765625 0.5791015625
7444584375.0 1.41534423828125 -0.40850830078125
7475806250.0 0.8603515625 -1.14794921875
7507028125.0 0.0064697265625 -1.4339599609375
7538250000.0 -0.88824462890625 -1.1258544921875
7569471875.0 -1.34014892578125 -0.31243896484375
7600693750.0 -1.2054443359375 0.49761962890625
7631915625.0 -0.72076416015625 1.08892822265625
7663137500.0 0.07891845703125 1.36297607421875
7694359375.0 0.94061279296875 0.984466552734375
7725581250.0 1.24755859375 0.18280029296875
7756803125.0 1.0869140625 -0.4993896484375
7788025000.0 0.67327880859375 -1.04705810546875
7819246875.0 -0.1207275390625 -1.35198974609375
7850468750.0 -0.99603271484375 -0.91943359375
7881690625.0 -1.23553466796875 -0.106201171875
7912912500.0 -1.058349609375 0.5556640625
7944134375.0 -0.606201171875 1.1181640625
7975356250.0 0.27337646484375 1.33990478515625
8006578125.0 1.04913330078125 0.780517578125
8037800000.0 1.19793701171875 0.01654052734375
8069021875.0 1.01092529296875 -0.62115478515625
8100243750.0 0.50146484375 -1.163818359375
8131465625.0 -0.38800048828125 -1.25738525390625
8162687500.0 -1.03338623046875 -0.6881103515625
8193909375.0 -1.18310546875 0.0072021484375
8225131250.0 -1.02197265625 0.67840576171875
8256353125.0 -0.4232177734375 1.25347900390625
8287575000.0 0.50225830078125 1.22967529296875
8318796875.0 1.08575439453125 0.63775634765625
8350018750.0 1.24951171875 -0.0750732421875
8381240625.0 1.0352783203125 -0.8416748046875
8412462500.0 0.255615234375 -1.3779296875
8443684375.0 -0.67120361328125 -1.17303466796875
8474906250.0 -1.17852783203125 -0.533935546875
8506128125.0 -1.30157470703125 0.235595703125
8537350000.0 -0.92864990234375 1.04827880859375
8568571875.0 -0.01611328125 1.39825439453125
8599793750.0 0.8038330078125 1.056396484375
8631015625.0 1.24224853515625 0.40069580078125
8662237500.0 1.290283203125 -0.42987060546875
8693459375.0 0.73968505859375 -1.17919921875
8724681250.0 -0.16082763671875 -1.3355712890625
8755903125.0 -0.881683349609375 -0.960906982421875
8787125000.0 -1.3072509765625 -0.284423828125
8818346875.0 -1.25506591796875 0.6160888671875
8849568750.0 -0.55902099609375 1.26434326171875
8880790625.0 0.2984619140625 1.28857421875
8912012500.0 0.982513427734375 0.895355224609375
8943234375.0 1.40447998046875 0.12890625
8974456250.0 1.16949462890625 -0.843994140625
9005678125.0 0.34832763671875 -1.318115234375
9036900000.0 -0.44549560546875 -1.22760009765625
9068121875.0 -1.10577392578125 -0.78778076171875
9099343750.0 -1.44677734375 0.09967041015625
9130565625.0 -0.9805908203125 1.0142822265625
9161787500.0 -0.15472412109375 1.28582763671875
9193009375.0 0.55584716796875 1.1363525390625
9224231250.0 1.18109130859375 0.65875244140625
9255453125.0 1.40380859375 -0.29681396484375
9286675000.0 0.8109130859375 -1.0899658203125
9317896875.0 0.02752685546875 -1.25067138671875
9349118750.0 -0.65496826171875 -1.07379150390625
9380340625.0 -1.262939453125 -0.5113525390625
9411562500.0 -1.31549072265625 0.47955322265625
9442784375.0 -0.64923095703125 1.12042236328125
9474006250.0 0.0888671875 1.21502685546875
9505228125.0 0.769256591796875 0.9827880859375
9536450000.0 1.2796630859375 0.31256103515625
9567671875.0 1.14825439453125 -0.583984375
9598893750.0 0.53070068359375 -1.0704345703125
9630115625.0 -0.143798828125 -1.1612548828125
9661337500.0 -0.820404052734375 -0.904510498046875
9692559375.0 -1.24346923828125 -0.188232421875
9723781250.0 -1.046875 0.605224609375
9755003125.0 -0.48773193359375 1.05316162109375
9786225000.0 0.19952392578125 1.16448974609375
9817446875.0 0.89825439453125 0.830413818359375
9848668750.0 1.20123291015625 0.0787353515625
9879890625.0 0.971710205078125 -0.617919921875
9911112500.0 0.4542236328125 -1.0560302734375
9942334375.0 -0.2701416015625 -1.16455078125
9973556250.0 -0.946929931640625 -0.739654541015625
10004778125.0 -1.149169921875 -0.0177001953125
10036000000.0 -0.946929931640625 0.6182861328125
10067221875.0 -0.443359375 1.0985107421875
10098443750.0 0.37261962890625 1.184326171875
10129665625.0 1.006103515625 0.64349365234375
10160887500.0 1.1236572265625 -0.0535888671875
10192109375.0 0.91961669921875 -0.66558837890625
10223331250.0 0.36187744140625 -1.1558837890625
10254553125.0 -0.48822021484375 -1.1168212890625
10285775000.0 -0.986663818359375 -0.536895751953125
10316996875.0 -1.07037353515625 0.07647705078125
10348218750.0 -0.903167724609375 0.671722412109375
10379440625.0 -0.322998046875 1.17999267578125
10410662500.0 0.52935791015625 1.0880126953125
10441884375.0 0.9949951171875 0.522918701171875
10473106250.0 1.11212158203125 -0.08319091796875
10504328125.0 0.951904296875 -0.7591552734375
10535550000.0 0.2398681640625 -1.29833984375
10566771875.0 -0.66021728515625 -1.0792236328125
10597993750.0 -1.08343505859375 -0.45947265625
10629215625.0 -1.17938232421875 0.20635986328125
10660437500.0 -0.889556884765625 0.956146240234375
10691659375.0 -0.00518798828125 1.3409423828125
10722881250.0 0.78741455078125 0.95428466796875
10754103125.0 1.12249755859375 0.3243408203125
10785325000.0 1.1424560546875 -0.36895751953125
10816546875.0 0.70294189453125 -1.05218505859375
10847768750.0 -0.146240234375 -1.23345947265625
10878990625.0 -0.80657958984375 -0.84539794921875
10910212500.0 -1.1260986328125 -0.24627685546875
10941434375.0 -1.1011962890625 0.477783203125
10972656250.0 -0.56866455078125 1.08905029296875
11003878125.0 0.21856689453125 1.177490234375
11035100000.0 0.850921630859375 0.82427978515625
11066321875.0 1.2252197265625 0.1739501953125
11097543750.0 1.1011962890625 -0.67901611328125
11128765625.0 0.3853759765625 -1.20452880859375
11159987500.0 -0.3974609375 -1.141845703125
11191209375.0 -1.002685546875 -0.7042236328125
11222431250.0 -1.27685546875 0.0953369140625
11253653125.0 -0.860137939453125 0.8975830078125
11284875000.0 -0.11541748046875 1.12957763671875
11316096875.0 0.5123291015625 0.95928955078125
11347318750.0 1.0086669921875 0.50286865234375
11378540625.0 1.1207275390625 -0.2716064453125
11409762500.0 0.63702392578125 -0.861602783203125
11440984375.0 0.03643798828125 -0.981231689453125
11472206250.0 -0.4833984375 -0.85333251953125
11503428125.0 -0.957122802734375 -0.456787109375
11534650000.0 -1.07293701171875 0.292236328125
11565871875.0 -0.602874755859375 0.857269287109375
11597093750.0 -0.0184326171875 0.995361328125
11628315625.0 0.545867919921875 0.8778076171875
11659537500.0 1.06536865234375 0.3919677734375
11690759375.0 1.0675048828125 -0.43707275390625
11721981250.0 0.517578125 -0.94500732421875
11753203125.0 -0.10675048828125 -1.04010009765625
11784425000.0 -0.728363037109375 -0.811370849609375
11815646875.0 -1.10638427734375 -0.14910888671875
11846868750.0 -0.893280029296875 0.55499267578125
11878090625.0 -0.391448974609375 0.912353515625
11909312500.0 0.187591552734375 0.987396240234375
11940534375.0 0.784759521484375 0.69671630859375
11971756250.0 1.02752685546875 0.03887939453125
12002978125.0 0.80810546875 -0.539306640625
12034200000.0 0.382568359375 -0.891815185546875
12065421875.0 -0.216796875 -1.0133056640625
12096643750.0 -0.851654052734375 -0.6656494140625
12127865625.0 -1.037841796875 0.01885986328125
12159087500.0 -0.81585693359375 0.576568603515625
12190309375.0 -0.378143310546875 0.979736328125
12221531250.0 0.3427734375 1.091552734375
12252753125.0 0.9840087890625 0.581817626953125
12283975000.0 1.0565185546875 -0.12908935546875
12315196875.0 0.8023681640625 -0.680511474609375
12346418750.0 0.28314208984375 -1.09429931640625
12377640625.0 -0.54278564453125 -1.062255859375
12408862500.0 -1.0380859375 -0.4183349609375
12440084375.0 -1.010498046875 0.2254638671875
12471306250.0 -0.743743896484375 0.741729736328125
12502528125.0 -0.17877197265625 1.1240234375
12533750000.0 0.623687744140625 0.996368408203125
12564971875.0 1.044189453125 0.36297607421875
12596193750.0 1.0333251953125 -0.26641845703125
12627415625.0 0.749908447265625 -0.8323974609375
12658637500.0 0.0794677734375 -1.210205078125
12689859375.0 -0.739532470703125 -0.968048095703125
12721081250.0 -1.120361328125 -0.30523681640625
12752303125.0 -1.1011962890625 0.38507080078125
12783525000.0 -0.687744140625 1.03204345703125
12814746875.0 0.16900634765625 1.255615234375
12845968750.0 0.86663818359375 0.812896728515625
12877190625.0 1.12176513671875 0.17059326171875
12908412500.0 1.05987548828125 -0.5045166015625
12939634375.0 0.54345703125 -1.120361328125
12970856250.0 -0.32281494140625 -1.17706298828125
13002078125.0 -0.89715576171875 -0.693817138671875
13033300000.0 -1.1080322265625 -0.08740234375
13064521875.0 -1.0120849609375 0.5968017578125
13095743750.0 -0.41986083984375 1.15911865234375
13126965625.0 0.41180419921875 1.1226806640625
13158187500.0 0.949798583984375 0.63330078125
13189409375.0 1.1524658203125 -0.02288818359375
13220631250.0 0.93853759765625 -0.75244140625
13251853125.0 0.23309326171875 -1.17578125
13283075000.0 -0.5103759765625 -1.02301025390625
13314296875.0 -0.991546630859375 -0.529632568359375
13345518750.0 -1.1400146484375 0.18096923828125
