!Created with skrf (http://scikit-rf.org).
# Hz S RI R 50.0 
!freq ReS11 ImS11
45000000.0 -0.07698440551757812 -0.09676742553710938
76221875.0 -0.19626617431640625 -0.0476531982421875
107443750.0 -0.254669189453125 0.1194305419921875
138665625.0 -0.148162841796875 0.32843017578125
169887500.0 0.1234283447265625 0.417266845703125
201109375.0 0.421478271484375 0.2808074951171875
232331250.0 0.578521728515625 -0.057342529296875
263553125.0 0.4892425537109375 -0.452239990234375
294775000.0 0.098846435546875 -0.732025146484375
325996875.0 -0.414947509765625 -0.6802978515625
357218750.0 -0.80535888671875 -0.297119140625
388440625.0 -0.884857177734375 0.299957275390625
419662500.0 -0.51727294921875 0.865325927734375
450884375.0 0.172607421875 1.02813720703125
482106250.0 0.797393798828125 0.712310791015625
513328125.0 1.1182861328125 0.08746337890625
544550000.0 1.0030517578125 -0.6788330078125
575771875.0 0.33673095703125 -1.237060546875
606993750.0 -0.552978515625 -1.1766357421875
638215625.0 -1.16455078125 -0.59033203125
669437500.0 -1.33856201171875 0.2330322265625
700659375.0 -0.970458984375 1.0948486328125
731881250.0 -0.00421142578125 1.54150390625
763103125.0 1.004150390625 1.15496826171875
794325000.0 1.467041015625 0.28192138671875
825546875.0 1.36602783203125 -0.65057373046875
856768750.0 0.7943115234375 -1.3983154296875
887990625.0 -0.2913818359375 -1.6466064453125
919212500.0 -1.28631591796875 -1.077880859375
950434375.0 -1.64654541015625 -0.0595703125
981656250.0 -1.380615234375 0.94403076171875
1012878125.0 -0.52960205078125 1.66925048828125
1044100000.0 0.69525146484375 1.65997314453125
1075321875.0 1.57177734375 0.8116455078125
1106543750.0 1.702880859375 -0.3116455078125
1137765625.0 1.1856689453125 -1.28155517578125
1168987500.0 0.13873291015625 -1.794677734375
1200209375.0 -1.05950927734375 -1.48187255859375
1231431250.0 -1.72412109375 -0.45367431640625
1262653125.0 -1.59228515625 0.68243408203125
1293875000.0 -0.8515625 1.4891357421875
1325096875.0 0.22711181640625 1.70428466796875
1356318750.0 1.2333984375 1.21539306640625
1387540625.0 1.73760986328125 0.1890869140625
1418762500.0 1.4677734375 -0.94921875
1449984375.0 0.529296875 -1.6236572265625
1481206250.0 -0.5484619140625 -1.55377197265625
1512428125.0 -1.33984375 -0.9189453125
1543650000.0 -1.65350341796875 0.064208984375
1574871875.0 -1.2718505859375 1.10650634765625
1606093750.0 -0.27349853515625 1.6292724609375
1637315625.0 0.74053955078125 1.3985595703125
1668537500.0 1.3936767578125 0.69549560546875
1699759375.0 1.57110595703125 -0.27642822265625
1730981250.0 1.06317138671875 -1.22735595703125
1762203125.0 0.0428466796875 -1.56829833984375
1793425000.0 -0.8543701171875 -1.22515869140625
1824646875.0 -1.39117431640625 -0.514892578125
1855868750.0 -1.47216796875 0.43109130859375
1887090625.0 -0.8740234375 1.28369140625
1918312500.0 0.11651611328125 1.484375
1949534375.0 0.919677734375 1.08770751953125
1980756250.0 1.37286376953125 0.3699951171875
2011978125.0 1.3577880859375 -0.5301513671875
2043200000.0 0.7493896484375 -1.25927734375
2074421875.0 -0.156494140625 -1.4315185546875
2105643750.0 -0.9588623046875 -1.07147216796875
2136865625.0 -1.44512939453125 -0.304931640625
2168087500.0 -1.35546875 0.6697998046875
2199309375.0 -0.638671875 1.34942626953125
2230531250.0 0.28094482421875 1.43414306640625
2261753125.0 1.070556640625 1.0125732421875
2292975000.0 1.51263427734375 0.17041015625
2324196875.0 1.3038330078125 -0.817138671875
2355418750.0 0.52508544921875 -1.41778564453125
2386640625.0 -0.40338134765625 -1.44720458984375
2417862500.0 -1.177978515625 -1.02301025390625
2449084375.0 -1.60150146484375 -0.08563232421875
2480306250.0 -1.31024169921875 0.92315673828125
2511528125.0 -0.49395751953125 1.504638671875
2542750000.0 0.48651123046875 1.53399658203125
2573971875.0 1.36785888671875 0.96673583984375
2605193750.0 1.71405029296875 -0.11163330078125
2636415625.0 1.25970458984375 -1.1497802734375
2667637500.0 0.30670166015625 -1.66473388671875
2698859375.0 -0.76708984375 -1.53173828125
2730081250.0 -1.5699462890625 -0.73968505859375
2761303125.0 -1.6783447265625 0.38671875
2792525000.0 -1.09783935546875 1.30389404296875
2823746875.0 -0.102294921875 1.72637939453125
2854968750.0 1.0089111328125 1.4530029296875
2886190625.0 1.6883544921875 0.49127197265625
2917412500.0 1.59796142578125 -0.617431640625
2948634375.0 0.93817138671875 -1.42950439453125
2979856250.0 -0.10711669921875 -1.77301025390625
3011078125.0 -1.24462890625 -1.34063720703125
3042300000.0 -1.7718505859375 -0.23486328125
3073521875.0 -1.5064697265625 0.83636474609375
3104743750.0 -0.7620849609375 1.565185546875
3135965625.0 0.3607177734375 1.8055419921875
3167187500.0 1.49676513671875 1.16265869140625
3198409375.0 1.8123779296875 -0.07427978515625
3229631250.0 1.346923828125 -1.0792236328125
3260853125.0 0.48876953125 -1.66583251953125
3292075000.0 -0.65252685546875 -1.6942138671875
3323296875.0 -1.61517333984375 -0.8787841796875
3354518750.0 -1.727294921875 0.32769775390625
3385740625.0 -1.1546630859375 1.22906494140625
3416962500.0 -0.23260498046875 1.67681884765625
3448184375.0 0.857421875 1.51922607421875
3479406250.0 1.63262939453125 0.643798828125
3510628125.0 1.641845703125 -0.49432373046875
3541850000.0 0.99847412109375 -1.3524169921875
3573071875.0 -0.00616455078125 -1.67889404296875
3604293750.0 -1.02496337890625 -1.335693359375
3635515625.0 -1.62554931640625 -0.4381103515625
3666737500.0 -1.5592041015625 0.6446533203125
3697959375.0 -0.82427978515625 1.47314453125
3729181250.0 0.26702880859375 1.62762451171875
3760403125.0 1.1492919921875 1.09649658203125
3791625000.0 1.54803466796875 0.21905517578125
3822846875.0 1.3997802734375 -0.75848388671875
3854068750.0 0.6201171875 -1.47772216796875
3885290625.0 -0.4183349609375 -1.47802734375
3916512500.0 -1.13909912109375 -0.91009521484375
3947734375.0 -1.4453125 -0.11993408203125
3978956250.0 -1.29498291015625 0.7752685546875
4010178125.0 -0.53094482421875 1.45147705078125
4041400000.0 0.4716796875 1.41278076171875
4072621875.0 1.14898681640625 0.84722900390625
4103843750.0 1.44244384765625 0.06365966796875
4135065625.0 1.26593017578125 -0.84417724609375
4166287500.0 0.4573974609375 -1.49261474609375
4197509375.0 -0.55450439453125 -1.412353515625
4228731250.0 -1.24530029296875 -0.80224609375
4259953125.0 -1.50634765625 0.0694580078125
4291175000.0 -1.18695068359375 1.00775146484375
4322396875.0 -0.29022216796875 1.52215576171875
4353618750.0 0.67120361328125 1.34771728515625
4384840625.0 1.31988525390625 0.69677734375
4416062500.0 1.4986572265625 -0.2259521484375
4447284375.0 1.053955078125 -1.102294921875
4478506250.0 0.1737060546875 -1.4920654296875
4509728125.0 -0.73114013671875 -1.305908203125
4540950000.0 -1.39105224609375 -0.6356201171875
4572171875.0 -1.52020263671875 0.3585205078125
4603393750.0 -0.9715576171875 1.2098388671875
4634615625.0 -0.06231689453125 1.53411865234375
4665837500.0 0.86834716796875 1.30255126953125
4697059375.0 1.53924560546875 0.51513671875
4728281250.0 1.5267333984375 -0.58172607421875
4759503125.0 0.8223876953125 -1.364013671875
4790725000.0 -0.14453125 -1.5701904296875
4821946875.0 -1.08123779296875 -1.192626953125
4853168750.0 -1.60980224609375 -0.25189208984375
4884390625.0 -1.37628173828125 0.79119873046875
4915612500.0 -0.61334228515625 1.41015625
4946834375.0 0.32720947265625 1.50689697265625
4978056250.0 1.20269775390625 1.01593017578125
5009278125.0 1.55938720703125 0.03961181640625
5040500000.0 1.22760009765625 -0.873291015625
5071721875.0 0.50244140625 -1.4124755859375
5102943750.0 -0.444091796875 -1.494873046875
5134165625.0 -1.3349609375 -0.90472412109375
5165387500.0 -1.5655517578125 0.14483642578125
5196609375.0 -1.134521484375 1.00732421875
5227831250.0 -0.3577880859375 1.50372314453125
5259053125.0 0.68646240234375 1.48974609375
5290275000.0 1.5191650390625 0.662353515625
5321496875.0 1.48974609375 -0.4283447265625
5352718750.0 0.919921875 -1.15093994140625
5383940625.0 0.0975341796875 -1.498046875
5415162500.0 -0.89892578125 -1.2823486328125
5446384375.0 -1.48175048828125 -0.37066650390625
5477606250.0 -1.29718017578125 0.564208984375
5508828125.0 -0.73095703125 1.1483154296875
5540050000.0 0.0537109375 1.39739990234375
5571271875.0 0.9368896484375 1.10791015625
5602493750.0 1.40557861328125 0.2603759765625
5633715625.0 1.230712890625 -0.611328125
5664937500.0 0.6475830078125 -1.19970703125
5696159375.0 -0.19610595703125 -1.38201904296875
5727381250.0 -1.020263671875 -0.97760009765625
5758603125.0 -1.38970947265625 -0.14501953125
5789825000.0 -1.192626953125 0.7156982421875
5821046875.0 -0.50665283203125 1.3040771484375
5852268750.0 0.4107666015625 1.31109619140625
5883490625.0 1.06982421875 0.770751953125
5914712500.0 1.30047607421875 0.02069091796875
5945934375.0 1.094970703125 -0.77362060546875
5977156250.0 0.36163330078125 -1.31011962890625
6008378125.0 -0.5079345703125 -1.1806640625
6039600000.0 -1.01959228515625 -0.64892578125
6070821875.0 -1.22265625 -0.0048828125
6102043750.0 -1.08221435546875 0.7608642578125
6133265625.0 -0.34228515625 1.34234619140625
6164487500.0 0.56207275390625 1.18634033203125
6195709375.0 1.0684814453125 0.629638671875
6226931250.0 1.2781982421875 -0.04241943359375
6258153125.0 1.1036376953125 -0.86962890625
6289375000.0 0.25677490234375 -1.443603515625
6320596875.0 -0.6871337890625 -1.204345703125
6351818750.0 -1.19842529296875 -0.57159423828125
6383040625.0 -1.35284423828125 0.206298828125
6414262500.0 -0.99908447265625 1.0545654296875
6445484375.0 -0.07904052734375 1.45416259765625
6476706250.0 0.79449462890625 1.14727783203125
6507928125.0 1.2879638671875 0.47003173828125
6539150000.0 1.346435546875 -0.386474609375
6570371875.0 0.84039306640625 -1.1419677734375
6601593750.0 -0.0157470703125 -1.40277099609375
6632815625.0 -0.83758544921875 -1.1351318359375
6664037500.0 -1.40020751953125 -0.420654296875
6695259375.0 -1.37213134765625 0.56463623046875
6726481250.0 -0.7099609375 1.2493896484375
6757703125.0 0.12982177734375 1.40484619140625
6788925000.0 0.95306396484375 1.12939453125
6820146875.0 1.55908203125 0.28765869140625
6851368750.0 1.32464599609375 -0.81878662109375
6882590625.0 0.50634765625 -1.3360595703125
6913812500.0 -0.29119873046875 -1.3546142578125
6945034375.0 -1.06829833984375 -1.02069091796875
6976256250.0 -1.59014892578125 -0.0936279296875
7007478125.0 -1.2344970703125 0.931396484375
7038700000.0 -0.40374755859375 1.339111328125
7069921875.0 0.35760498046875 1.32177734375
7101143750.0 1.1153564453125 0.9674072265625
7132365625.0 1.597900390625 0.01605224609375
7163587500.0 1.15625 -1.01629638671875
7194809375.0 0.30242919921875 -1.395751953125
7226031250.0 -0.5115966796875 -1.3248291015625
7257253125.0 -1.2633056640625 -0.823974609375
7288475000.0 -1.5565185546875 0.1949462890625
7319696875.0 -1.0291748046875 1.107421875
7350918750.0 -0.16534423828125 1.441650390625
7382140625.0 0.71368408203125 1.27532958984375
7413362500.0 1.37188720703125 0.57623291015625
7444584375.0 1.409912109375 -0.404541015625
7475806250.0 0.85736083984375 -1.1417236328125
7507028125.0 0.0062255859375 -1.4278564453125
7538250000.0 -0.885986328125 -1.123046875
7569471875.0 -1.33404541015625 -0.310791015625
7600693750.0 -1.20098876953125 0.496337890625
7631915625.0 -0.71771240234375 1.08306884765625
7663137500.0 0.07977294921875 1.35711669921875
7694359375.0 0.938995361328125 0.979705810546875
7725581250.0 1.24176025390625 0.18133544921875
7756803125.0 1.08111572265625 -0.49847412109375
7788025000.0 0.67010498046875 -1.041748046875
7819246875.0 -0.121337890625 -1.34710693359375
7850468750.0 -0.992218017578125 -0.9156494140625
7881690625.0 -1.22930908203125 -0.10577392578125
7912912500.0 -1.052978515625 0.55267333984375
7944134375.0 -0.6051025390625 1.113037109375
7975356250.0 0.27117919921875 1.33441162109375
8006578125.0 1.04534912109375 0.7774658203125
8037800000.0 1.1912841796875 0.01751708984375
8069021875.0 1.0054931640625 -0.61578369140625
8100243750.0 0.50054931640625 -1.15692138671875
8131465625.0 -0.38677978515625 -1.253173828125
8162687500.0 -1.02911376953125 -0.68621826171875
8193909375.0 -1.1796875 0.00799560546875
8225131250.0 -1.0172119140625 0.67535400390625
8256353125.0 -0.42138671875 1.2481689453125
8287575000.0 0.49969482421875 1.224365234375
8318796875.0 1.08099365234375 0.63543701171875
8350018750.0 1.2427978515625 -0.07342529296875
8381240625.0 1.03045654296875 -0.83673095703125
8412462500.0 0.25518798828125 -1.37103271484375
8443684375.0 -0.66741943359375 -1.1683349609375
8474906250.0 -1.17425537109375 -0.533203125
8506128125.0 -1.29632568359375 0.2354736328125
8537350000.0 -0.92425537109375 1.04296875
8568571875.0 -0.01678466796875 1.3929443359375
8599793750.0 0.80230712890625 1.05316162109375
8631015625.0 1.23956298828125 0.398193359375
8662237500.0 1.2845458984375 -0.4267578125
8693459375.0 0.73675537109375 -1.17523193359375
8724681250.0 -0.16094970703125 -1.3299560546875
8755903125.0 -0.878692626953125 -0.957122802734375
8787125000.0 -1.3040771484375 -0.28106689453125
8818346875.0 -1.2501220703125 0.61578369140625
8849568750.0 -0.55694580078125 1.2578125
8880790625.0 0.2982177734375 1.28424072265625
8912012500.0 0.97991943359375 0.891815185546875
8943234375.0 1.39666748046875 0.12921142578125
8974456250.0 1.1656494140625 -0.83856201171875
9005678125.0 0.3492431640625 -1.31072998046875
9036900000.0 -0.44378662109375 -1.22314453125
9068121875.0 -1.09942626953125 -0.78521728515625
9099343750.0 -1.438232421875 0.0958251953125
9130565625.0 -0.98028564453125 1.0108642578125
9161787500.0 -0.15643310546875 1.28118896484375
9193009375.0 0.5538330078125 1.13232421875
9224231250.0 1.17950439453125 0.65496826171875
9255453125.0 1.39715576171875 -0.2939453125
9286675000.0 0.80670166015625 -1.083740234375
9317896875.0 0.02813720703125 -1.24481201171875
9349118750.0 -0.65191650390625 -1.06939697265625
9380340625.0 -1.2578125 -0.50927734375
9411562500.0 -1.3101806640625 0.47589111328125
9442784375.0 -0.648193359375 1.1146240234375
9474006250.0 0.08837890625 1.2103271484375
9505228125.0 0.762176513671875 0.979583740234375
9536450000.0 1.2725830078125 0.3133544921875
9567671875.0 1.14263916015625 -0.58001708984375
9598893750.0 0.52886962890625 -1.06671142578125
9630115625.0 -0.1436767578125 -1.15606689453125
9661337500.0 -0.815704345703125 -0.902374267578125
9692559375.0 -1.2376708984375 -0.191162109375
9723781250.0 -1.0428466796875 0.60125732421875
9755003125.0 -0.486572265625 1.0484619140625
9786225000.0 0.1968994140625 1.15771484375
9817446875.0 0.891571044921875 0.826873779296875
9848668750.0 1.1982421875 0.07806396484375
9879890625.0 0.967987060546875 -0.614288330078125
9911112500.0 0.4520263671875 -1.0521240234375
9942334375.0 -0.26617431640625 -1.15924072265625
9973556250.0 -0.942169189453125 -0.738800048828125
10004778125.0 -1.1453857421875 -0.01824951171875
10036000000.0 -0.943634033203125 0.6148681640625
10067221875.0 -0.44140625 1.095458984375
10098443750.0 0.3704833984375 1.18048095703125
10129665625.0 1.00115966796875 0.64227294921875
10160887500.0 1.11981201171875 -0.05029296875
10192109375.0 0.916473388671875 -0.660125732421875
10223331250.0 0.361328125 -1.15118408203125
10254553125.0 -0.486572265625 -1.11370849609375
10285775000.0 -0.984466552734375 -0.53485107421875
10316996875.0 -1.064453125 0.075439453125
10348218750.0 -0.899627685546875 0.66876220703125
10379440625.0 -0.3231201171875 1.1739501953125
10410662500.0 0.525146484375 1.084228515625
10441884375.0 0.992523193359375 0.521087646484375
10473106250.0 1.10919189453125 -0.0848388671875
10504328125.0 0.9490966796875 -0.7557373046875
10535550000.0 0.24029541015625 -1.2940673828125
10566771875.0 -0.65582275390625 -1.07684326171875
10597993750.0 -1.0804443359375 -0.4588623046875
10629215625.0 -1.17462158203125 0.20489501953125
10660437500.0 -0.886749267578125 0.9501953125
10691659375.0 -0.0096435546875 1.333984375
10722881250.0 0.7833251953125 0.9515380859375
10754103125.0 1.1171875 0.3248291015625
10785325000.0 1.1378173828125 -0.36529541015625
10816546875.0 0.700439453125 -1.04754638671875
10847768750.0 -0.14501953125 -1.229248046875
10878990625.0 -0.79998779296875 -0.843780517578125
10910212500.0 -1.1209716796875 -0.24627685546875
10941434375.0 -1.09722900390625 0.47662353515625
10972656250.0 -0.5679931640625 1.08404541015625
11003878125.0 0.217041015625 1.173828125
11035100000.0 0.8477783203125 0.8214111328125
11066321875.0 1.21990966796875 0.17449951171875
11097543750.0 1.0972900390625 -0.67437744140625
11128765625.0 0.38519287109375 -1.19866943359375
11159987500.0 -0.3961181640625 -1.13763427734375
11191209375.0 -0.996917724609375 -0.701873779296875
11222431250.0 -1.272216796875 0.09429931640625
11253653125.0 -0.857666015625 0.892791748046875
11284875000.0 -0.11505126953125 1.125244140625
11316096875.0 0.510284423828125 0.956512451171875
11347318750.0 1.0025634765625 0.50189208984375
11378540625.0 1.114990234375 -0.26788330078125
11409762500.0 0.63494873046875 -0.856597900390625
11440984375.0 0.035980224609375 -0.97808837890625
11472206250.0 -0.4793701171875 -0.849517822265625
11503428125.0 -0.953399658203125 -0.455902099609375
11534650000.0 -1.06732177734375 0.286376953125
11565871875.0 -0.60174560546875 0.853546142578125
11597093750.0 -0.01849365234375 0.99090576171875
11628315625.0 0.5440673828125 0.874542236328125
11659537500.0 1.0589599609375 0.393310546875
11690759375.0 1.06500244140625 -0.43408203125
11721981250.0 0.516876220703125 -0.941131591796875
11753203125.0 -0.1055908203125 -1.03643798828125
11784425000.0 -0.7227783203125 -0.80755615234375
11815646875.0 -1.0987548828125 -0.15228271484375
11846868750.0 -0.89068603515625 0.548431396484375
11878090625.0 -0.3909912109375 0.90869140625
11909312500.0 0.18670654296875 0.983856201171875
11940534375.0 0.780181884765625 0.69512939453125
11971756250.0 1.0235595703125 0.04052734375
12002978125.0 0.8065185546875 -0.53466796875
12034200000.0 0.382049560546875 -0.888763427734375
12065421875.0 -0.21453857421875 -1.0089111328125
12096643750.0 -0.847564697265625 -0.66436767578125
12127865625.0 -1.03253173828125 0.01556396484375
12159087500.0 -0.81475830078125 0.574462890625
12190309375.0 -0.37762451171875 0.973388671875
12221531250.0 0.33740234375 1.08721923828125
12252753125.0 0.978271484375 0.58221435546875
12283975000.0 1.05340576171875 -0.127685546875
12315196875.0 0.79925537109375 -0.675323486328125
12346418750.0 0.28021240234375 -1.09149169921875
12377640625.0 -0.53692626953125 -1.05938720703125
12408862500.0 -1.03314208984375 -0.4193115234375
12440084375.0 -1.00714111328125 0.22314453125
12471306250.0 -0.740875244140625 0.73681640625
12502528125.0 -0.18072509765625 1.1192626953125
12533750000.0 0.619140625 0.9931640625
12564971875.0 1.0401611328125 0.36297607421875
12596193750.0 1.02935791015625 -0.2642822265625
12627415625.0 0.747650146484375 -0.827789306640625
12658637500.0 0.08026123046875 -1.20611572265625
12689859375.0 -0.735443115234375 -0.9659423828125
12721081250.0 -1.11822509765625 -0.30474853515625
12752303125.0 -1.09735107421875 0.38177490234375
12783525000.0 -0.6878662109375 1.02740478515625
12814746875.0 0.16357421875 1.24896240234375
12845968750.0 0.863983154296875 0.810546875
12877190625.0 1.11663818359375 0.1717529296875
12908412500.0 1.05560302734375 -0.50030517578125
12939634375.0 0.54180908203125 -1.11688232421875
12970856250.0 -0.32098388671875 -1.17449951171875
13002078125.0 -0.892364501953125 -0.692901611328125
13033300000.0 -1.10546875 -0.08673095703125
13064521875.0 -1.00830078125 0.59259033203125
13095743750.0 -0.4207763671875 1.1529541015625
13126965625.0 0.4066162109375 1.1201171875
13158187500.0 0.945587158203125 0.631378173828125
13189409375.0 1.14715576171875 -0.0213623046875
13220631250.0 0.936004638671875 -0.74761962890625
13251853125.0 0.23455810546875 -1.1719970703125
13283075000.0 -0.5072021484375 -1.0186767578125
13314296875.0 -0.98724365234375 -0.52874755859375
13345518750.0 -1.13385009765625 0.17596435546875
13376740625.0 -0.75341796875 0.85638427734375
