!Created with skrf (http://scikit-rf.org).
# Hz S RI R 50.0 
!freq ReS11 ImS11
45000000.0 -0.0771636962890625 -0.096893310546875
76221875.0 -0.19655609130859375 -0.04729461669921875
107443750.0 -0.254974365234375 0.12017822265625
138665625.0 -0.1479339599609375 0.32867431640625
169887500.0 0.12396240234375 0.4175262451171875
201109375.0 0.4222412109375 0.2806854248046875
232331250.0 0.5791015625 -0.0579833984375
263553125.0 0.4894561767578125 -0.45318603515625
294775000.0 0.097869873046875 -0.733062744140625
325996875.0 -0.41619873046875 -0.680694580078125
357218750.0 -0.807037353515625 -0.296478271484375
388440625.0 -0.885894775390625 0.30133056640625
419662500.0 -0.5167236328125 0.867279052734375
450884375.0 0.174072265625 1.0291748046875
482106250.0 0.799346923828125 0.71221923828125
513328125.0 1.11981201171875 0.08642578125
544550000.0 1.00360107421875 -0.6807861328125
575771875.0 0.33575439453125 -1.23870849609375
606993750.0 -0.5546875 -1.17706298828125
638215625.0 -1.16644287109375 -0.589599609375
669437500.0 -1.3397216796875 0.2347412109375
700659375.0 -0.97052001953125 1.09716796875
731881250.0 -0.00274658203125 1.54327392578125
763103125.0 1.00640869140625 1.1551513671875
794325000.0 1.46917724609375 0.28076171875
825546875.0 1.36724853515625 -0.652587890625
856768750.0 0.79364013671875 -1.4014892578125
887990625.0 -0.2939453125 -1.64825439453125
919212500.0 -1.289306640625 -1.0775146484375
950434375.0 -1.6488037109375 -0.05755615234375
981656250.0 -1.382080078125 0.94677734375
1012878125.0 -0.52850341796875 1.67266845703125
1044100000.0 0.6982421875 1.6614990234375
1075321875.0 1.57525634765625 0.8109130859375
1106543750.0 1.70477294921875 -0.314208984375
1137765625.0 1.185791015625 -1.28497314453125
1168987500.0 0.13665771484375 -1.79730224609375
1200209375.0 -1.06298828125 -1.482666015625
1231431250.0 -1.7276611328125 -0.452392578125
1262653125.0 -1.59368896484375 0.68658447265625
1293875000.0 -0.85101318359375 1.49176025390625
1325096875.0 0.22930908203125 1.70672607421875
1356318750.0 1.23590087890625 1.21551513671875
1387540625.0 1.73956298828125 0.18780517578125
1418762500.0 1.46875 -0.9521484375
1449984375.0 0.52850341796875 -1.62603759765625
1481206250.0 -0.5504150390625 -1.555419921875
1512428125.0 -1.3426513671875 -0.9185791015625
1543650000.0 -1.655517578125 0.06646728515625
1574871875.0 -1.27239990234375 1.109619140625
1606093750.0 -0.27197265625 1.63116455078125
1637315625.0 0.74310302734375 1.399658203125
1668537500.0 1.39630126953125 0.69464111328125
1699759375.0 1.5728759765625 -0.27825927734375
1730981250.0 1.06298828125 -1.22998046875
1762203125.0 0.04083251953125 -1.5701904296875
1793425000.0 -0.856201171875 -1.2254638671875
1824646875.0 -1.393310546875 -0.51397705078125
1855868750.0 -1.47344970703125 0.43280029296875
1887090625.0 -0.87445068359375 1.28533935546875
1918312500.0 0.11749267578125 1.48651123046875
1949534375.0 0.92181396484375 1.08843994140625
1980756250.0 1.375244140625 0.36932373046875
2011978125.0 1.35888671875 -0.53271484375
2043200000.0 0.7490234375 -1.2620849609375
2074421875.0 -0.1578369140625 -1.43255615234375
2105643750.0 -0.96038818359375 -1.07159423828125
2136865625.0 -1.44708251953125 -0.3040771484375
2168087500.0 -1.35638427734375 0.671875
2199309375.0 -0.6380615234375 1.350830078125
2230531250.0 0.2825927734375 1.43560791015625
2261753125.0 1.07318115234375 1.01287841796875
2292975000.0 1.51361083984375 0.169677734375
2324196875.0 1.30474853515625 -0.8193359375
2355418750.0 0.5244140625 -1.41961669921875
2386640625.0 -0.40435791015625 -1.44830322265625
2417862500.0 -1.1802978515625 -1.0238037109375
2449084375.0 -1.6046142578125 -0.082763671875
2480306250.0 -1.31097412109375 0.925537109375
2511528125.0 -0.49298095703125 1.5067138671875
2542750000.0 0.48931884765625 1.53515625
2573971875.0 1.37060546875 0.96722412109375
2605193750.0 1.717041015625 -0.11370849609375
2636415625.0 1.2601318359375 -1.1524658203125
2667637500.0 0.3055419921875 -1.6671142578125
2698859375.0 -0.770263671875 -1.53338623046875
2730081250.0 -1.57305908203125 -0.739013671875
2761303125.0 -1.680908203125 0.38958740234375
2792525000.0 -1.09759521484375 1.307373046875
2823746875.0 -0.101806640625 1.72845458984375
2854968750.0 1.01171875 1.4537353515625
2886190625.0 1.69049072265625 0.49053955078125
2917412500.0 1.59918212890625 -0.6185302734375
2948634375.0 0.93841552734375 -1.4337158203125
2979856250.0 -0.10894775390625 -1.77490234375
3011078125.0 -1.2470703125 -1.340576171875
3042300000.0 -1.77410888671875 -0.2333984375
3073521875.0 -1.50732421875 0.83831787109375
3104743750.0 -0.7615966796875 1.5701904296875
3135965625.0 0.36279296875 1.80810546875
3167187500.0 1.4989013671875 1.1627197265625
3198409375.0 1.81475830078125 -0.07666015625
3229631250.0 1.34783935546875 -1.08221435546875
3260853125.0 0.4884033203125 -1.66827392578125
3292075000.0 -0.65399169921875 -1.6956787109375
3323296875.0 -1.61932373046875 -0.8778076171875
3354518750.0 -1.7286376953125 0.3294677734375
3385740625.0 -1.15423583984375 1.23187255859375
3416962500.0 -0.230224609375 1.6800537109375
3448184375.0 0.85968017578125 1.52044677734375
3479406250.0 1.63531494140625 0.64300537109375
3510628125.0 1.64215087890625 -0.49432373046875
3541850000.0 0.99932861328125 -1.35504150390625
3573071875.0 -0.00823974609375 -1.68121337890625
3604293750.0 -1.028564453125 -1.33624267578125
3635515625.0 -1.62640380859375 -0.4376220703125
3666737500.0 -1.5601806640625 0.64556884765625
3697959375.0 -0.823486328125 1.4766845703125
3729181250.0 0.26885986328125 1.62994384765625
3760403125.0 1.152099609375 1.09710693359375
3791625000.0 1.55078125 0.21771240234375
3822846875.0 1.40008544921875 -0.760986328125
3854068750.0 0.6190185546875 -1.48004150390625
3885290625.0 -0.42169189453125 -1.48028564453125
3916512500.0 -1.14190673828125 -0.90997314453125
3947734375.0 -1.4461669921875 -0.11981201171875
3978956250.0 -1.29620361328125 0.7789306640625
4010178125.0 -0.53045654296875 1.4537353515625
4041400000.0 0.47271728515625 1.41387939453125
4072621875.0 1.1513671875 0.8468017578125
4103843750.0 1.44488525390625 0.06256103515625
4135065625.0 1.26678466796875 -0.845703125
4166287500.0 0.45751953125 -1.49493408203125
4197509375.0 -0.558349609375 -1.41436767578125
4228731250.0 -1.24774169921875 -0.80230712890625
4259953125.0 -1.50897216796875 0.07159423828125
4291175000.0 -1.18768310546875 1.011474609375
4322396875.0 -0.2890625 1.52532958984375
4353618750.0 0.6729736328125 1.3487548828125
4384840625.0 1.322509765625 0.69647216796875
4416062500.0 1.5 -0.22833251953125
4447284375.0 1.0543212890625 -1.103515625
4478506250.0 0.172119140625 -1.4942626953125
4509728125.0 -0.7322998046875 -1.30633544921875
4540950000.0 -1.39276123046875 -0.63525390625
4572171875.0 -1.52099609375 0.35882568359375
4603393750.0 -0.9718017578125 1.21234130859375
4634615625.0 -0.0614013671875 1.53570556640625
4665837500.0 0.87030029296875 1.3035888671875
4697059375.0 1.54052734375 0.5150146484375
4728281250.0 1.5283203125 -0.58209228515625
4759503125.0 0.822509765625 -1.36737060546875
4790725000.0 -0.1456298828125 -1.5721435546875
4821946875.0 -1.083251953125 -1.19281005859375
4853168750.0 -1.6126708984375 -0.25048828125
4884390625.0 -1.3768310546875 0.7930908203125
4915612500.0 -0.61297607421875 1.41192626953125
4946834375.0 0.329345703125 1.50872802734375
4978056250.0 1.20458984375 1.0159912109375
5009278125.0 1.56158447265625 0.03900146484375
5040500000.0 1.22833251953125 -0.87530517578125
5071721875.0 0.501220703125 -1.4139404296875
5102943750.0 -0.44647216796875 -1.49560546875
5134165625.0 -1.3348388671875 -0.90460205078125
5165387500.0 -1.5677490234375 0.14630126953125
5196609375.0 -1.1357421875 1.0091552734375
5227831250.0 -0.3575439453125 1.50592041015625
5259053125.0 0.688232421875 1.49176025390625
5290275000.0 1.52142333984375 0.66259765625
5321496875.0 1.4923095703125 -0.43145751953125
5352718750.0 0.920654296875 -1.1534423828125
5383940625.0 0.0958251953125 -1.500244140625
5415162500.0 -0.900634765625 -1.28277587890625
5446384375.0 -1.48358154296875 -0.36962890625
5477606250.0 -1.29876708984375 0.56671142578125
5508828125.0 -0.73095703125 1.1507568359375
5540050000.0 0.0537109375 1.39764404296875
5571271875.0 0.93695068359375 1.1082763671875
5602493750.0 1.4073486328125 0.25982666015625
5633715625.0 1.23126220703125 -0.6126708984375
5664937500.0 0.64752197265625 -1.2012939453125
5696159375.0 -0.196533203125 -1.38348388671875
5727381250.0 -1.0220947265625 -0.97857666015625
5758603125.0 -1.39178466796875 -0.14447021484375
5789825000.0 -1.19378662109375 0.7171630859375
5821046875.0 -0.50628662109375 1.30755615234375
5852268750.0 0.410888671875 1.31201171875
5883490625.0 1.07122802734375 0.77178955078125
5914712500.0 1.30169677734375 0.02032470703125
5945934375.0 1.095458984375 -0.77459716796875
5977156250.0 0.3609619140625 -1.31207275390625
6008378125.0 -0.50933837890625 -1.18206787109375
6039600000.0 -1.02105712890625 -0.648681640625
6070821875.0 -1.2237548828125 -0.0037841796875
6102043750.0 -1.08319091796875 0.76263427734375
6133265625.0 -0.342041015625 1.34405517578125
6164487500.0 0.56402587890625 1.1876220703125
6195709375.0 1.07073974609375 0.62921142578125
6226931250.0 1.27935791015625 -0.04302978515625
6258153125.0 1.1041259765625 -0.87109375
6289375000.0 0.2562255859375 -1.4462890625
6320596875.0 -0.6895751953125 -1.2060546875
6351818750.0 -1.20135498046875 -0.5716552734375
6383040625.0 -1.35546875 0.2073974609375
6414262500.0 -1.0 1.05780029296875
6445484375.0 -0.07861328125 1.45648193359375
6476706250.0 0.79583740234375 1.14764404296875
6507928125.0 1.290771484375 0.469970703125
6539150000.0 1.3475341796875 -0.38739013671875
6570371875.0 0.84112548828125 -1.14324951171875
6601593750.0 -0.01788330078125 -1.40509033203125
6632815625.0 -0.83905029296875 -1.1353759765625
6664037500.0 -1.3994140625 -0.4200439453125
6695259375.0 -1.3739013671875 0.56689453125
6726481250.0 -0.710205078125 1.25079345703125
6757703125.0 0.1314697265625 1.40728759765625
6788925000.0 0.9541015625 1.13006591796875
6820146875.0 1.5601806640625 0.2880859375
6851368750.0 1.32586669921875 -0.81903076171875
6882590625.0 0.50634765625 -1.3387451171875
6913812500.0 -0.292236328125 -1.35577392578125
6945034375.0 -1.0699462890625 -1.021728515625
6976256250.0 -1.59259033203125 -0.09271240234375
7007478125.0 -1.23675537109375 0.932861328125
7038700000.0 -0.40191650390625 1.343017578125
7069921875.0 0.3587646484375 1.323486328125
7101143750.0 1.1175537109375 0.96795654296875
7132365625.0 1.59942626953125 0.01336669921875
7163587500.0 1.15643310546875 -1.0203857421875
7194809375.0 0.30145263671875 -1.39703369140625
7226031250.0 -0.51007080078125 -1.32415771484375
7257253125.0 -1.267333984375 -0.82318115234375
7288475000.0 -1.5579833984375 0.197265625
7319696875.0 -1.02880859375 1.10943603515625
7350918750.0 -0.1639404296875 1.4443359375
7382140625.0 0.71685791015625 1.27618408203125
7413362500.0 1.37774658203125 0.57720947265625
7444584375.0 1.41217041015625 -0.40777587890625
7475806250.0 0.8577880859375 -1.142578125
7507028125.0 0.00567626953125 -1.42901611328125
7538250000.0 -0.88671875 -1.12396240234375
7569471875.0 -1.33642578125 -0.3099365234375
7600693750.0 -1.20233154296875 0.498291015625
7631915625.0 -0.7177734375 1.0858154296875
7663137500.0 0.08026123046875 1.35821533203125
7694359375.0 0.938629150390625 0.9803466796875
7725581250.0 1.24444580078125 0.17919921875
7756803125.0 1.08221435546875 -0.49957275390625
7788025000.0 0.6705322265625 -1.04278564453125
7819246875.0 -0.1185302734375 -1.34539794921875
7850468750.0 -0.992431640625 -0.915771484375
7881690625.0 -1.2305908203125 -0.10565185546875
7912912500.0 -1.054931640625 0.553955078125
7944134375.0 -0.60638427734375 1.11273193359375
7975356250.0 0.27001953125 1.33575439453125
8006578125.0 1.04833984375 0.77923583984375
8037800000.0 1.1953125 0.015625
8069021875.0 1.0067138671875 -0.6190185546875
8100243750.0 0.49957275390625 -1.16168212890625
8131465625.0 -0.3883056640625 -1.2554931640625
8162687500.0 -1.03302001953125 -0.68536376953125
8193909375.0 -1.18035888671875 0.0089111328125
8225131250.0 -1.017822265625 0.67901611328125
8256353125.0 -0.4205322265625 1.24957275390625
8287575000.0 0.5006103515625 1.22613525390625
8318796875.0 1.0826416015625 0.6356201171875
8350018750.0 1.24481201171875 -0.07586669921875
8381240625.0 1.0311279296875 -0.83941650390625
8412462500.0 0.25445556640625 -1.372802734375
8443684375.0 -0.66961669921875 -1.16943359375
8474906250.0 -1.17535400390625 -0.53204345703125
8506128125.0 -1.29803466796875 0.2369384765625
8537350000.0 -0.92498779296875 1.04669189453125
8568571875.0 -0.01611328125 1.395263671875
8599793750.0 0.80108642578125 1.052978515625
8631015625.0 1.2403564453125 0.3988037109375
8662237500.0 1.286376953125 -0.43182373046875
8693459375.0 0.7362060546875 -1.17755126953125
8724681250.0 -0.16241455078125 -1.33135986328125
8755903125.0 -0.88092041015625 -0.957366943359375
8787125000.0 -1.3028564453125 -0.282470703125
8818346875.0 -1.250244140625 0.6160888671875
8849568750.0 -0.5557861328125 1.2607421875
8880790625.0 0.30059814453125 1.28619384765625
8912012500.0 0.979827880859375 0.89141845703125
8943234375.0 1.3997802734375 0.1278076171875
8974456250.0 1.16656494140625 -0.83929443359375
9005678125.0 0.3482666015625 -1.3140869140625
9036900000.0 -0.44500732421875 -1.22564697265625
9068121875.0 -1.10040283203125 -0.78607177734375
9099343750.0 -1.44036865234375 0.0970458984375
9130565625.0 -0.9798583984375 1.012939453125
9161787500.0 -0.15313720703125 1.28375244140625
9193009375.0 0.5557861328125 1.134033203125
9224231250.0 1.1795654296875 0.65478515625
9255453125.0 1.400146484375 -0.2972412109375
9286675000.0 0.80670166015625 -1.0863037109375
9317896875.0 0.02569580078125 -1.2481689453125
9349118750.0 -0.65618896484375 -1.070068359375
9380340625.0 -1.25775146484375 -0.5096435546875
9411562500.0 -1.31097412109375 0.4765625
9442784375.0 -0.6483154296875 1.11578369140625
9474006250.0 0.08941650390625 1.21282958984375
9505228125.0 0.763092041015625 0.981048583984375
9536450000.0 1.27520751953125 0.31317138671875
9567671875.0 1.14434814453125 -0.58172607421875
9598893750.0 0.5306396484375 -1.06707763671875
9630115625.0 -0.14306640625 -1.1573486328125
9661337500.0 -0.817535400390625 -0.902923583984375
9692559375.0 -1.24072265625 -0.1895751953125
9723781250.0 -1.0435791015625 0.60302734375
9755003125.0 -0.486328125 1.05126953125
9786225000.0 0.19830322265625 1.16058349609375
9817446875.0 0.89434814453125 0.827850341796875
9848668750.0 1.1968994140625 0.0784912109375
9879890625.0 0.969512939453125 -0.616729736328125
9911112500.0 0.45111083984375 -1.053955078125
9942334375.0 -0.268310546875 -1.159423828125
9973556250.0 -0.942230224609375 -0.737945556640625
10004778125.0 -1.146240234375 -0.01739501953125
10036000000.0 -0.943695068359375 0.616546630859375
10067221875.0 -0.4420166015625 1.0977783203125
10098443750.0 0.3671875 1.18084716796875
10129665625.0 1.00323486328125 0.64361572265625
10160887500.0 1.121337890625 -0.0523681640625
10192109375.0 0.917633056640625 -0.6634521484375
10223331250.0 0.3624267578125 -1.1512451171875
10254553125.0 -0.48583984375 -1.1138916015625
10285775000.0 -0.986785888671875 -0.536041259765625
10316996875.0 -1.06842041015625 0.0780029296875
10348218750.0 -0.899993896484375 0.67083740234375
10379440625.0 -0.32220458984375 1.1748046875
10410662500.0 0.52838134765625 1.08538818359375
10441884375.0 0.9931640625 0.521392822265625
10473106250.0 1.10992431640625 -0.085205078125
10504328125.0 0.949249267578125 -0.758514404296875
10535550000.0 0.23980712890625 -1.2940673828125
10566771875.0 -0.65875244140625 -1.07733154296875
10597993750.0 -1.08056640625 -0.45965576171875
10629215625.0 -1.17523193359375 0.20404052734375
10660437500.0 -0.888427734375 0.949951171875
10691659375.0 -0.0106201171875 1.3355712890625
10722881250.0 0.7833251953125 0.9541015625
10754103125.0 1.12042236328125 0.32440185546875
10785325000.0 1.14019775390625 -0.3681640625
10816546875.0 0.700439453125 -1.0513916015625
10847768750.0 -0.14593505859375 -1.23040771484375
10878990625.0 -0.803131103515625 -0.8450927734375
10910212500.0 -1.12493896484375 -0.2440185546875
10941434375.0 -1.09808349609375 0.4776611328125
10972656250.0 -0.56805419921875 1.0858154296875
11003878125.0 0.216796875 1.1732177734375
11035100000.0 0.849578857421875 0.82177734375
11066321875.0 1.22247314453125 0.17340087890625
11097543750.0 1.099609375 -0.67572021484375
11128765625.0 0.3865966796875 -1.19866943359375
11159987500.0 -0.39739990234375 -1.13946533203125
11191209375.0 -1.00262451171875 -0.70281982421875
11222431250.0 -1.27252197265625 0.0931396484375
11253653125.0 -0.860137939453125 0.89459228515625
11284875000.0 -0.1143798828125 1.12713623046875
11316096875.0 0.510009765625 0.9561767578125
11347318750.0 1.00360107421875 0.50341796875
11378540625.0 1.1171875 -0.2686767578125
11409762500.0 0.63458251953125 -0.85968017578125
11440984375.0 0.03472900390625 -0.97991943359375
11472206250.0 -0.481964111328125 -0.850555419921875
11503428125.0 -0.9532470703125 -0.455108642578125
11534650000.0 -1.06939697265625 0.2884521484375
11565871875.0 -0.602783203125 0.8551025390625
11597093750.0 -0.01806640625 0.99169921875
11628315625.0 0.5438232421875 0.874847412109375
11659537500.0 1.06085205078125 0.392333984375
11690759375.0 1.06561279296875 -0.4337158203125
11721981250.0 0.517669677734375 -0.9404296875
11753203125.0 -0.10516357421875 -1.0367431640625
11784425000.0 -0.723602294921875 -0.8084716796875
11815646875.0 -1.10089111328125 -0.151123046875
11846868750.0 -0.89117431640625 0.551361083984375
11878090625.0 -0.390777587890625 0.90936279296875
11909312500.0 0.1868896484375 0.984832763671875
11940534375.0 0.781463623046875 0.69464111328125
11971756250.0 1.02471923828125 0.0391845703125
12002978125.0 0.80621337890625 -0.538177490234375
12034200000.0 0.382049560546875 -0.88848876953125
12065421875.0 -0.21490478515625 -1.0096435546875
12096643750.0 -0.8463134765625 -0.66644287109375
12127865625.0 -1.03411865234375 0.0164794921875
12159087500.0 -0.816192626953125 0.577362060546875
12190309375.0 -0.377166748046875 0.976043701171875
12221531250.0 0.338134765625 1.088134765625
12252753125.0 0.979095458984375 0.58270263671875
12283975000.0 1.05413818359375 -0.1275634765625
12315196875.0 0.80059814453125 -0.677032470703125
12346418750.0 0.2813720703125 -1.09173583984375
12377640625.0 -0.5390625 -1.06103515625
12408862500.0 -1.0338134765625 -0.4202880859375
12440084375.0 -1.00921630859375 0.22528076171875
12471306250.0 -0.742095947265625 0.737579345703125
12502528125.0 -0.17901611328125 1.1207275390625
12533750000.0 0.620391845703125 0.993408203125
12564971875.0 1.04119873046875 0.3641357421875
12596193750.0 1.029052734375 -0.2640380859375
12627415625.0 0.74774169921875 -0.82672119140625
12658637500.0 0.0799560546875 -1.2073974609375
12689859375.0 -0.7357177734375 -0.96612548828125
12721081250.0 -1.11737060546875 -0.305908203125
12752303125.0 -1.098876953125 0.38262939453125
12783525000.0 -0.68768310546875 1.027099609375
12814746875.0 0.16455078125 1.2518310546875
12845968750.0 0.863616943359375 0.812255859375
12877190625.0 1.1185302734375 0.1708984375
12908412500.0 1.05499267578125 -0.50091552734375
12939634375.0 0.54351806640625 -1.11572265625
12970856250.0 -0.3201904296875 -1.17596435546875
13002078125.0 -0.8951416015625 -0.6934814453125
13033300000.0 -1.106689453125 -0.08551025390625
13064521875.0 -1.00927734375 0.5926513671875
13095743750.0 -0.420654296875 1.1549072265625
13126965625.0 0.4085693359375 1.1214599609375
13158187500.0 0.947784423828125 0.632232666015625
13189409375.0 1.14739990234375 -0.0201416015625
13220631250.0 0.936676025390625 -0.748809814453125
13251853125.0 0.23492431640625 -1.1719970703125
13283075000.0 -0.50701904296875 -1.01983642578125
13314296875.0 -0.989105224609375 -0.529022216796875
13345518750.0 -1.13519287109375 0.17608642578125
13376740625.0 -0.752716064453125 0.856231689453125
13407962500.0 -0.05902099609375 1.0673828125
