!Created with skrf (http://scikit-rf.org).
# Hz S RI R 50.0 
!freq ReS11 ImS11
45000000.0 -0.07719802856445312 -0.09694671630859375
76221875.0 -0.197296142578125 -0.04761505126953125
107443750.0 -0.2559661865234375 0.1204681396484375
138665625.0 -0.1485443115234375 0.32977294921875
169887500.0 0.12396240234375 0.4189605712890625
201109375.0 0.423187255859375 0.282012939453125
232331250.0 0.580963134765625 -0.0576171875
263553125.0 0.4913330078125 -0.4549102783203125
294775000.0 0.098541259765625 -0.735321044921875
325996875.0 -0.41741943359375 -0.68359375
357218750.0 -0.810150146484375 -0.29852294921875
388440625.0 -0.889678955078125 0.30194091796875
419662500.0 -0.51959228515625 0.8699951171875
450884375.0 0.17364501953125 1.03265380859375
482106250.0 0.8013916015625 0.715484619140625
513328125.0 1.12359619140625 0.087646484375
544550000.0 1.0072021484375 -0.68231201171875
575771875.0 0.33740234375 -1.2421875
606993750.0 -0.5552978515625 -1.18121337890625
638215625.0 -1.16943359375 -0.5926513671875
669437500.0 -1.34393310546875 0.23388671875
700659375.0 -0.97418212890625 1.09918212890625
731881250.0 -0.00445556640625 1.54754638671875
763103125.0 1.008056640625 1.16033935546875
794325000.0 1.4735107421875 0.28350830078125
825546875.0 1.3719482421875 -0.6533203125
856768750.0 0.7972412109375 -1.4066162109375
887990625.0 -0.29449462890625 -1.65484619140625
919212500.0 -1.29364013671875 -1.08319091796875
950434375.0 -1.65576171875 -0.05914306640625
981656250.0 -1.3885498046875 0.95062255859375
1012878125.0 -0.5316162109375 1.67919921875
1044100000.0 0.70037841796875 1.66943359375
1075321875.0 1.5819091796875 0.81512451171875
1106543750.0 1.711669921875 -0.31439208984375
1137765625.0 1.1910400390625 -1.28887939453125
1168987500.0 0.13873291015625 -1.80450439453125
1200209375.0 -1.06640625 -1.49005126953125
1231431250.0 -1.73480224609375 -0.45513916015625
1262653125.0 -1.60009765625 0.6875
1293875000.0 -0.8548583984375 1.4971923828125
1325096875.0 0.2283935546875 1.7127685546875
1356318750.0 1.2392578125 1.22186279296875
1387540625.0 1.74652099609375 0.1904296875
1418762500.0 1.475341796875 -0.9547119140625
1449984375.0 0.53155517578125 -1.6322021484375
1481206250.0 -0.55157470703125 -1.56182861328125
1512428125.0 -1.34722900390625 -0.92279052734375
1543650000.0 -1.662109375 0.0657958984375
1574871875.0 -1.27752685546875 1.1124267578125
1606093750.0 -0.27362060546875 1.63671875
1637315625.0 0.744873046875 1.4052734375
1668537500.0 1.40106201171875 0.69805908203125
1699759375.0 1.57830810546875 -0.27850341796875
1730981250.0 1.06744384765625 -1.2330322265625
1762203125.0 0.04241943359375 -1.5753173828125
1793425000.0 -0.85772705078125 -1.230224609375
1824646875.0 -1.3974609375 -0.51708984375
1855868750.0 -1.478759765625 0.4324951171875
1887090625.0 -0.87890625 1.28912353515625
1918312500.0 0.11669921875 1.4921875
1949534375.0 0.92431640625 1.09295654296875
1980756250.0 1.38006591796875 0.371337890625
2011978125.0 1.36431884765625 -0.533447265625
2043200000.0 0.75238037109375 -1.265869140625
2074421875.0 -0.15753173828125 -1.4373779296875
2105643750.0 -0.9632568359375 -1.07574462890625
2136865625.0 -1.45159912109375 -0.3060302734375
2168087500.0 -1.36138916015625 0.673095703125
2199309375.0 -0.64105224609375 1.35498046875
2230531250.0 0.28240966796875 1.44012451171875
2261753125.0 1.07562255859375 1.01678466796875
2292975000.0 1.51849365234375 0.17108154296875
2324196875.0 1.30938720703125 -0.820556640625
2355418750.0 0.52734375 -1.4237060546875
2386640625.0 -0.40496826171875 -1.45330810546875
2417862500.0 -1.1864013671875 -1.028564453125
2449084375.0 -1.61090087890625 -0.08392333984375
2480306250.0 -1.31640625 0.93017578125
2511528125.0 -0.4945068359375 1.51397705078125
2542750000.0 0.4912109375 1.54193115234375
2573971875.0 1.37744140625 0.97186279296875
2605193750.0 1.72369384765625 -0.113037109375
2636415625.0 1.26568603515625 -1.15728759765625
2667637500.0 0.306884765625 -1.67401123046875
2698859375.0 -0.77337646484375 -1.5396728515625
2730081250.0 -1.579345703125 -0.7427978515625
2761303125.0 -1.6875 0.38995361328125
2792525000.0 -1.102783203125 1.31378173828125
2823746875.0 -0.102294921875 1.735595703125
2854968750.0 1.015869140625 1.46063232421875
2886190625.0 1.6982421875 0.49359130859375
2917412500.0 1.60614013671875 -0.62152099609375
2948634375.0 0.94281005859375 -1.440185546875
2979856250.0 -0.1092529296875 -1.783447265625
3011078125.0 -1.2540283203125 -1.346923828125
3042300000.0 -1.78192138671875 -0.23443603515625
3073521875.0 -1.51409912109375 0.84124755859375
3104743750.0 -0.7652587890625 1.5745849609375
3135965625.0 0.36328125 1.81640625
3167187500.0 1.5042724609375 1.168701171875
3198409375.0 1.8218994140625 -0.07574462890625
3229631250.0 1.35369873046875 -1.085693359375
3260853125.0 0.4908447265625 -1.6751708984375
3292075000.0 -0.657470703125 -1.703369140625
3323296875.0 -1.6260986328125 -0.88226318359375
3354518750.0 -1.73638916015625 0.3310546875
3385740625.0 -1.15972900390625 1.2374267578125
3416962500.0 -0.231689453125 1.68841552734375
3448184375.0 0.86285400390625 1.5269775390625
3479406250.0 1.6416015625 0.64678955078125
3510628125.0 1.65020751953125 -0.4970703125
3541850000.0 1.00335693359375 -1.36053466796875
3573071875.0 -0.0074462890625 -1.68853759765625
3604293750.0 -1.0316162109375 -1.3419189453125
3635515625.0 -1.63360595703125 -0.43914794921875
3666737500.0 -1.56732177734375 0.64886474609375
3697959375.0 -0.82708740234375 1.48223876953125
3729181250.0 0.27032470703125 1.63677978515625
3760403125.0 1.15704345703125 1.10186767578125
3791625000.0 1.55767822265625 0.21905517578125
3822846875.0 1.406982421875 -0.76373291015625
3854068750.0 0.6217041015625 -1.48602294921875
3885290625.0 -0.42291259765625 -1.4852294921875
3916512500.0 -1.1461181640625 -0.913818359375
3947734375.0 -1.4530029296875 -0.11932373046875
3978956250.0 -1.30224609375 0.78216552734375
4010178125.0 -0.53277587890625 1.4598388671875
4041400000.0 0.47503662109375 1.41912841796875
4072621875.0 1.15533447265625 0.8497314453125
4103843750.0 1.448974609375 0.063232421875
4135065625.0 1.2716064453125 -0.849853515625
4166287500.0 0.4588623046875 -1.50067138671875
4197509375.0 -0.55999755859375 -1.41912841796875
4228731250.0 -1.252197265625 -0.80462646484375
4259953125.0 -1.51446533203125 0.07177734375
4291175000.0 -1.19219970703125 1.01348876953125
4322396875.0 -0.2904052734375 1.530517578125
4353618750.0 0.6766357421875 1.3544921875
4384840625.0 1.325927734375 0.6983642578125
4416062500.0 1.50531005859375 -0.2288818359375
4447284375.0 1.057861328125 -1.1083984375
4478506250.0 0.17242431640625 -1.5001220703125
4509728125.0 -0.735595703125 -1.31182861328125
4540950000.0 -1.3984375 -0.63848876953125
4572171875.0 -1.5272216796875 0.36224365234375
4603393750.0 -0.97503662109375 1.21649169921875
4634615625.0 -0.06103515625 1.54205322265625
4665837500.0 0.8717041015625 1.3082275390625
4697059375.0 1.54522705078125 0.51739501953125
4728281250.0 1.5330810546875 -0.58404541015625
4759503125.0 0.82513427734375 -1.37200927734375
4790725000.0 -0.14581298828125 -1.5770263671875
4821946875.0 -1.0872802734375 -1.197998046875
4853168750.0 -1.61968994140625 -0.25054931640625
4884390625.0 -1.38238525390625 0.79632568359375
4915612500.0 -0.61444091796875 1.416748046875
4946834375.0 0.329833984375 1.51348876953125
4978056250.0 1.2080078125 1.0201416015625
5009278125.0 1.56634521484375 0.03900146484375
5040500000.0 1.23291015625 -0.8787841796875
5071721875.0 0.50238037109375 -1.419189453125
5102943750.0 -0.44842529296875 -1.50146484375
5134165625.0 -1.34039306640625 -0.90802001953125
5165387500.0 -1.57373046875 0.1475830078125
5196609375.0 -1.1396484375 1.01214599609375
5227831250.0 -0.358154296875 1.5108642578125
5259053125.0 0.6907958984375 1.4971923828125
5290275000.0 1.52606201171875 0.66497802734375
5321496875.0 1.4969482421875 -0.4322509765625
5352718750.0 0.92340087890625 -1.15692138671875
5383940625.0 0.09674072265625 -1.50531005859375
5415162500.0 -0.9034423828125 -1.28692626953125
5446384375.0 -1.48876953125 -0.37103271484375
5477606250.0 -1.30255126953125 0.568115234375
5508828125.0 -0.73333740234375 1.1551513671875
5540050000.0 0.05462646484375 1.4031982421875
5571271875.0 0.9412841796875 1.1121826171875
5602493750.0 1.41265869140625 0.26055908203125
5633715625.0 1.23565673828125 -0.61474609375
5664937500.0 0.65020751953125 -1.20477294921875
5696159375.0 -0.1982421875 -1.3890380859375
5727381250.0 -1.0257568359375 -0.98126220703125
5758603125.0 -1.395751953125 -0.1455078125
5789825000.0 -1.19818115234375 0.7210693359375
5821046875.0 -0.50732421875 1.3133544921875
5852268750.0 0.4130859375 1.31787109375
5883490625.0 1.07562255859375 0.77435302734375
5914712500.0 1.3077392578125 0.01910400390625
5945934375.0 1.10009765625 -0.77947998046875
5977156250.0 0.361572265625 -1.3170166015625
6008378125.0 -0.51171875 -1.1856689453125
6039600000.0 -1.02593994140625 -0.650634765625
6070821875.0 -1.22760009765625 -0.0037841796875
6102043750.0 -1.0867919921875 0.76605224609375
6133265625.0 -0.34228515625 1.34906005859375
6164487500.0 0.5660400390625 1.190673828125
6195709375.0 1.0743408203125 0.6314697265625
6226931250.0 1.283447265625 -0.0428466796875
6258153125.0 1.10760498046875 -0.87384033203125
6289375000.0 0.256103515625 -1.45098876953125
6320596875.0 -0.6915283203125 -1.20941162109375
6351818750.0 -1.203857421875 -0.57305908203125
6383040625.0 -1.35882568359375 0.207763671875
6414262500.0 -1.00274658203125 1.0614013671875
6445484375.0 -0.07769775390625 1.46185302734375
6476706250.0 0.79937744140625 1.1510009765625
6507928125.0 1.2943115234375 0.47119140625
6539150000.0 1.3519287109375 -0.38800048828125
6570371875.0 0.84307861328125 -1.147705078125
6601593750.0 -0.0184326171875 -1.409423828125
6632815625.0 -0.84307861328125 -1.1395263671875
6664037500.0 -1.40594482421875 -0.42059326171875
6695259375.0 -1.377685546875 0.5692138671875
6726481250.0 -0.71173095703125 1.25628662109375
6757703125.0 0.13189697265625 1.41180419921875
6788925000.0 0.9581298828125 1.13336181640625
6820146875.0 1.565185546875 0.2884521484375
6851368750.0 1.32989501953125 -0.82244873046875
6882590625.0 0.50799560546875 -1.3419189453125
6913812500.0 -0.293212890625 -1.36041259765625
6945034375.0 -1.074462890625 -1.02496337890625
6976256250.0 -1.59735107421875 -0.09271240234375
7007478125.0 -1.24017333984375 0.9368896484375
7038700000.0 -0.4027099609375 1.3468017578125
7069921875.0 0.36181640625 1.32891845703125
7101143750.0 1.1226806640625 0.97198486328125
7132365625.0 1.6063232421875 0.01287841796875
7163587500.0 1.16094970703125 -1.0255126953125
7194809375.0 0.303466796875 -1.40118408203125
7226031250.0 -0.5133056640625 -1.3291015625
7257253125.0 -1.2723388671875 -0.8265380859375
7288475000.0 -1.56341552734375 0.20062255859375
7319696875.0 -1.03289794921875 1.11431884765625
7350918750.0 -0.16387939453125 1.450439453125
7382140625.0 0.7181396484375 1.28021240234375
7413362500.0 1.3824462890625 0.57806396484375
7444584375.0 1.4168701171875 -0.40924072265625
7475806250.0 0.860595703125 -1.14898681640625
7507028125.0 0.00494384765625 -1.43353271484375
7538250000.0 -0.89385986328125 -1.12811279296875
7569471875.0 -1.341064453125 -0.31134033203125
7600693750.0 -1.2066650390625 0.500244140625
7631915625.0 -0.72113037109375 1.09088134765625
7663137500.0 0.08087158203125 1.36346435546875
7694359375.0 0.944061279296875 0.98321533203125
7725581250.0 1.24920654296875 0.18121337890625
7756803125.0 1.087158203125 -0.5023193359375
7788025000.0 0.6717529296875 -1.04827880859375
7819246875.0 -0.12261962890625 -1.3533935546875
7850468750.0 -0.996246337890625 -0.9189453125
7881690625.0 -1.23736572265625 -0.10400390625
7912912500.0 -1.05859375 0.55712890625
7944134375.0 -0.60736083984375 1.1175537109375
7975356250.0 0.2740478515625 1.3406982421875
8006578125.0 1.05145263671875 0.78082275390625
8037800000.0 1.19903564453125 0.0145263671875
8069021875.0 1.0106201171875 -0.62139892578125
8100243750.0 0.50079345703125 -1.16778564453125
8131465625.0 -0.3900146484375 -1.2586669921875
8162687500.0 -1.037353515625 -0.68804931640625
8193909375.0 -1.18499755859375 0.0093994140625
8225131250.0 -1.0211181640625 0.6800537109375
8256353125.0 -0.42303466796875 1.254150390625
8287575000.0 0.5047607421875 1.23004150390625
8318796875.0 1.09039306640625 0.63665771484375
8350018750.0 1.24896240234375 -0.0760498046875
8381240625.0 1.03460693359375 -0.84356689453125
8412462500.0 0.25299072265625 -1.380615234375
8443684375.0 -0.67266845703125 -1.17425537109375
8474906250.0 -1.17974853515625 -0.532958984375
8506128125.0 -1.3028564453125 0.23834228515625
8537350000.0 -0.92669677734375 1.0516357421875
8568571875.0 -0.0167236328125 1.39892578125
8599793750.0 0.80487060546875 1.05596923828125
8631015625.0 1.2469482421875 0.39874267578125
8662237500.0 1.28973388671875 -0.4306640625
8693459375.0 0.73931884765625 -1.1822509765625
8724681250.0 -0.16387939453125 -1.33587646484375
8755903125.0 -0.88299560546875 -0.9605712890625
8787125000.0 -1.30950927734375 -0.28271484375
8818346875.0 -1.255859375 0.61883544921875
8849568750.0 -0.5574951171875 1.2667236328125
8880790625.0 0.30023193359375 1.2894287109375
8912012500.0 0.986602783203125 0.89599609375
8943234375.0 1.40472412109375 0.12841796875
8974456250.0 1.17108154296875 -0.844482421875
9005678125.0 0.34893798828125 -1.3179931640625
9036900000.0 -0.44903564453125 -1.229248046875
9068121875.0 -1.1087646484375 -0.78759765625
9099343750.0 -1.447021484375 0.10052490234375
9130565625.0 -0.981689453125 1.0167236328125
9161787500.0 -0.154541015625 1.2864990234375
9193009375.0 0.55859375 1.1385498046875
9224231250.0 1.1839599609375 0.6578369140625
9255453125.0 1.40472412109375 -0.29833984375
9286675000.0 0.80908203125 -1.08929443359375
9317896875.0 0.0247802734375 -1.25201416015625
9349118750.0 -0.65863037109375 -1.0736083984375
9380340625.0 -1.26397705078125 -0.51025390625
9411562500.0 -1.31585693359375 0.4796142578125
9442784375.0 -0.6500244140625 1.12005615234375
9474006250.0 0.089599609375 1.21575927734375
9505228125.0 0.76861572265625 0.983367919921875
9536450000.0 1.28076171875 0.31292724609375
9567671875.0 1.147705078125 -0.5826416015625
9598893750.0 0.5302734375 -1.07470703125
9630115625.0 -0.14654541015625 -1.16357421875
9661337500.0 -0.82318115234375 -0.905426025390625
9692559375.0 -1.24334716796875 -0.1900634765625
9723781250.0 -1.0458984375 0.606201171875
9755003125.0 -0.4864501953125 1.05572509765625
9786225000.0 0.2003173828125 1.163818359375
9817446875.0 0.901580810546875 0.829376220703125
9848668750.0 1.2034912109375 0.07666015625
9879890625.0 0.971038818359375 -0.619232177734375
9911112500.0 0.45184326171875 -1.05706787109375
9942334375.0 -0.270263671875 -1.1640625
9973556250.0 -0.94744873046875 -0.739654541015625
10004778125.0 -1.151611328125 -0.014892578125
10036000000.0 -0.947723388671875 0.619659423828125
10067221875.0 -0.44317626953125 1.1009521484375
10098443750.0 0.3734130859375 1.1859130859375
10129665625.0 1.006591796875 0.64404296875
10160887500.0 1.124267578125 -0.0545654296875
10192109375.0 0.920074462890625 -0.66619873046875
10223331250.0 0.3602294921875 -1.1588134765625
10254553125.0 -0.48931884765625 -1.1173095703125
10285775000.0 -0.990020751953125 -0.535614013671875
10316996875.0 -1.07012939453125 0.0780029296875
10348218750.0 -0.9024658203125 0.67401123046875
10379440625.0 -0.322021484375 1.18084716796875
10410662500.0 0.5303955078125 1.08990478515625
10441884375.0 0.996795654296875 0.52227783203125
10473106250.0 1.11273193359375 -0.08514404296875
10504328125.0 0.9525146484375 -0.761322021484375
10535550000.0 0.23919677734375 -1.3013916015625
10566771875.0 -0.6632080078125 -1.08001708984375
10597993750.0 -1.08453369140625 -0.46002197265625
10629215625.0 -1.1798095703125 0.20758056640625
10660437500.0 -0.89068603515625 0.955596923828125
10691659375.0 -0.0078125 1.34161376953125
10722881250.0 0.788055419921875 0.95526123046875
10754103125.0 1.12359619140625 0.32525634765625
10785325000.0 1.14288330078125 -0.3690185546875
10816546875.0 0.70245361328125 -1.05560302734375
10847768750.0 -0.14764404296875 -1.23333740234375
10878990625.0 -0.80767822265625 -0.845855712890625
10910212500.0 -1.127197265625 -0.244873046875
10941434375.0 -1.10174560546875 0.4794921875
10972656250.0 -0.5679931640625 1.09051513671875
11003878125.0 0.22021484375 1.17822265625
11035100000.0 0.850799560546875 0.8243408203125
11066321875.0 1.2259521484375 0.17413330078125
11097543750.0 1.1016845703125 -0.67962646484375
11128765625.0 0.38580322265625 -1.20458984375
11159987500.0 -0.401611328125 -1.14373779296875
11191209375.0 -1.0054931640625 -0.70318603515625
11222431250.0 -1.2767333984375 0.0946044921875
11253653125.0 -0.86181640625 0.89898681640625
11284875000.0 -0.11297607421875 1.13177490234375
11316096875.0 0.5146484375 0.959625244140625
11347318750.0 1.00701904296875 0.50262451171875
11378540625.0 1.11993408203125 -0.2716064453125
11409762500.0 0.6363525390625 -0.86480712890625
11440984375.0 0.034881591796875 -0.98248291015625
11472206250.0 -0.484588623046875 -0.852752685546875
11503428125.0 -0.958831787109375 -0.456451416015625
11534650000.0 -1.07232666015625 0.29229736328125
11565871875.0 -0.603485107421875 0.858551025390625
11597093750.0 -0.0169677734375 0.995330810546875
11628315625.0 0.548095703125 0.877838134765625
11659537500.0 1.06500244140625 0.39276123046875
11690759375.0 1.06756591796875 -0.4349365234375
11721981250.0 0.517913818359375 -0.944427490234375
11753203125.0 -0.106689453125 -1.04058837890625
11784425000.0 -0.72882080078125 -0.811553955078125
11815646875.0 -1.1065673828125 -0.14984130859375
11846868750.0 -0.8944091796875 0.55474853515625
11878090625.0 -0.3917236328125 0.9129638671875
11909312500.0 0.1868896484375 0.98797607421875
11940534375.0 0.7843017578125 0.697052001953125
11971756250.0 1.0294189453125 0.03839111328125
12002978125.0 0.808563232421875 -0.54193115234375
12034200000.0 0.382354736328125 -0.89093017578125
12065421875.0 -0.21685791015625 -1.012939453125
12096643750.0 -0.8514404296875 -0.666351318359375
12127865625.0 -1.0367431640625 0.01776123046875
12159087500.0 -0.81744384765625 0.578460693359375
12190309375.0 -0.3779296875 0.977630615234375
12221531250.0 0.34228515625 1.09112548828125
12252753125.0 0.9853515625 0.58233642578125
12283975000.0 1.05877685546875 -0.13006591796875
12315196875.0 0.802154541015625 -0.67962646484375
12346418750.0 0.2811279296875 -1.0968017578125
12377640625.0 -0.54364013671875 -1.06494140625
12408862500.0 -1.03961181640625 -0.419677734375
12440084375.0 -1.01116943359375 0.225341796875
12471306250.0 -0.743896484375 0.741058349609375
12502528125.0 -0.1793212890625 1.12445068359375
12533750000.0 0.624114990234375 0.9959716796875
12564971875.0 1.0455322265625 0.36395263671875
12596193750.0 1.032958984375 -0.26678466796875
12627415625.0 0.749786376953125 -0.8306884765625
12658637500.0 0.0787353515625 -1.2127685546875
12689859375.0 -0.739898681640625 -0.96856689453125
12721081250.0 -1.12109375 -0.30535888671875
12752303125.0 -1.10205078125 0.38525390625
12783525000.0 -0.688720703125 1.03375244140625
12814746875.0 0.1676025390625 1.2568359375
12845968750.0 0.86920166015625 0.813323974609375
12877190625.0 1.122314453125 0.1715087890625
12908412500.0 1.0592041015625 -0.50457763671875
12939634375.0 0.543701171875 -1.12188720703125
12970856250.0 -0.3253173828125 -1.178955078125
13002078125.0 -0.899658203125 -0.694976806640625
13033300000.0 -1.10992431640625 -0.08599853515625
13064521875.0 -1.012451171875 0.598388671875
13095743750.0 -0.4197998046875 1.15936279296875
13126965625.0 0.4127197265625 1.12432861328125
13158187500.0 0.951568603515625 0.632843017578125
13189409375.0 1.1517333984375 -0.02288818359375
13220631250.0 0.938568115234375 -0.75250244140625
13251853125.0 0.2325439453125 -1.177001953125
13283075000.0 -0.510498046875 -1.02294921875
13314296875.0 -0.99224853515625 -0.529541015625
13345518750.0 -1.140625 0.17999267578125
13376740625.0 -0.7545166015625 0.86248779296875
13407962500.0 -0.05712890625 1.07171630859375
