!Created with skrf (http://scikit-rf.org).
# Hz S RI R 50.0 
!freq ReS11 ImS11
45000000.0 -0.07711029052734375 -0.09679794311523438
76221875.0 -0.1964874267578125 -0.04726409912109375
107443750.0 -0.25506591796875 0.1200408935546875
138665625.0 -0.1479034423828125 0.3288421630859375
169887500.0 0.123870849609375 0.4173431396484375
201109375.0 0.4222259521484375 0.2806243896484375
232331250.0 0.5791015625 -0.05792236328125
263553125.0 0.4894256591796875 -0.4531097412109375
294775000.0 0.0980224609375 -0.7330322265625
325996875.0 -0.416229248046875 -0.680633544921875
357218750.0 -0.806732177734375 -0.2967529296875
388440625.0 -0.885833740234375 0.3013916015625
419662500.0 -0.516998291015625 0.866790771484375
450884375.0 0.17388916015625 1.0291748046875
482106250.0 0.7991943359375 0.712127685546875
513328125.0 1.11956787109375 0.086669921875
544550000.0 1.0035400390625 -0.680908203125
575771875.0 0.3355712890625 -1.238525390625
606993750.0 -0.5548095703125 -1.17694091796875
638215625.0 -1.16619873046875 -0.589599609375
669437500.0 -1.33966064453125 0.2347412109375
700659375.0 -0.9703369140625 1.096923828125
731881250.0 -0.0025634765625 1.54296875
763103125.0 1.0062255859375 1.15521240234375
794325000.0 1.46893310546875 0.28082275390625
825546875.0 1.36688232421875 -0.65179443359375
856768750.0 0.79339599609375 -1.4013671875
887990625.0 -0.2940673828125 -1.6480712890625
919212500.0 -1.2890625 -1.07781982421875
950434375.0 -1.64862060546875 -0.05792236328125
981656250.0 -1.38214111328125 0.947021484375
1012878125.0 -0.5289306640625 1.67254638671875
1044100000.0 0.69805908203125 1.66119384765625
1075321875.0 1.5750732421875 0.8109130859375
1106543750.0 1.7042236328125 -0.31396484375
1137765625.0 1.185791015625 -1.285888671875
1168987500.0 0.13690185546875 -1.79681396484375
1200209375.0 -1.0628662109375 -1.48291015625
1231431250.0 -1.72802734375 -0.45233154296875
1262653125.0 -1.593505859375 0.685791015625
1293875000.0 -0.85028076171875 1.4918212890625
1325096875.0 0.22900390625 1.70599365234375
1356318750.0 1.2352294921875 1.21551513671875
1387540625.0 1.7392578125 0.18798828125
1418762500.0 1.46832275390625 -0.95208740234375
1449984375.0 0.52825927734375 -1.625732421875
1481206250.0 -0.55084228515625 -1.5550537109375
1512428125.0 -1.34222412109375 -0.91876220703125
1543650000.0 -1.655517578125 0.06671142578125
1574871875.0 -1.2720947265625 1.1094970703125
1606093750.0 -0.27154541015625 1.6314697265625
1637315625.0 0.74273681640625 1.39959716796875
1668537500.0 1.39556884765625 0.69488525390625
1699759375.0 1.57257080078125 -0.2781982421875
1730981250.0 1.06298828125 -1.22967529296875
1762203125.0 0.041015625 -1.56988525390625
1793425000.0 -0.85577392578125 -1.2254638671875
1824646875.0 -1.39306640625 -0.51409912109375
1855868750.0 -1.47314453125 0.432373046875
1887090625.0 -0.87420654296875 1.2850341796875
1918312500.0 0.117919921875 1.486328125
1949534375.0 0.92181396484375 1.0882568359375
1980756250.0 1.3751220703125 0.36944580078125
2011978125.0 1.3592529296875 -0.53240966796875
2043200000.0 0.74884033203125 -1.26153564453125
2074421875.0 -0.15771484375 -1.43212890625
2105643750.0 -0.960205078125 -1.0711669921875
2136865625.0 -1.4468994140625 -0.303955078125
2168087500.0 -1.35638427734375 0.67144775390625
2199309375.0 -0.63818359375 1.35089111328125
2230531250.0 0.2823486328125 1.4351806640625
2261753125.0 1.07220458984375 1.01324462890625
2292975000.0 1.513427734375 0.16973876953125
2324196875.0 1.3048095703125 -0.8192138671875
2355418750.0 0.5245361328125 -1.41949462890625
2386640625.0 -0.40447998046875 -1.44818115234375
2417862500.0 -1.18084716796875 -1.0234375
2449084375.0 -1.6044921875 -0.08319091796875
2480306250.0 -1.310546875 0.926025390625
2511528125.0 -0.49285888671875 1.5074462890625
2542750000.0 0.48822021484375 1.535400390625
2573971875.0 1.37188720703125 0.966552734375
2605193750.0 1.71661376953125 -0.1136474609375
2636415625.0 1.26068115234375 -1.1527099609375
2667637500.0 0.3057861328125 -1.66680908203125
2698859375.0 -0.7705078125 -1.533203125
2730081250.0 -1.573486328125 -0.7391357421875
2761303125.0 -1.680419921875 0.38934326171875
2792525000.0 -1.097900390625 1.3076171875
2823746875.0 -0.10015869140625 1.72955322265625
2854968750.0 1.013671875 1.4547119140625
2886190625.0 1.6900634765625 0.4906005859375
2917412500.0 1.598388671875 -0.6175537109375
2948634375.0 0.9385986328125 -1.4322509765625
2979856250.0 -0.1092529296875 -1.77569580078125
3011078125.0 -1.247314453125 -1.34149169921875
3042300000.0 -1.77508544921875 -0.233154296875
3073521875.0 -1.50701904296875 0.83734130859375
3104743750.0 -0.76220703125 1.567626953125
3135965625.0 0.3624267578125 1.8076171875
3167187500.0 1.49884033203125 1.16302490234375
3198409375.0 1.81512451171875 -0.076171875
3229631250.0 1.34771728515625 -1.08221435546875
3260853125.0 0.48858642578125 -1.6680908203125
3292075000.0 -0.656005859375 -1.6961669921875
3323296875.0 -1.61993408203125 -0.8782958984375
3354518750.0 -1.72943115234375 0.32977294921875
3385740625.0 -1.154296875 1.23138427734375
3416962500.0 -0.2308349609375 1.680419921875
3448184375.0 0.8599853515625 1.5205078125
3479406250.0 1.6353759765625 0.64337158203125
3510628125.0 1.642822265625 -0.49505615234375
3541850000.0 0.9989013671875 -1.35565185546875
3573071875.0 -0.00848388671875 -1.681640625
3604293750.0 -1.02740478515625 -1.33612060546875
3635515625.0 -1.62530517578125 -0.43829345703125
3666737500.0 -1.56072998046875 0.64593505859375
3697959375.0 -0.823486328125 1.47705078125
3729181250.0 0.2685546875 1.62933349609375
3760403125.0 1.1531982421875 1.09710693359375
3791625000.0 1.55133056640625 0.21722412109375
3822846875.0 1.40081787109375 -0.76104736328125
3854068750.0 0.61907958984375 -1.4801025390625
3885290625.0 -0.42132568359375 -1.4801025390625
3916512500.0 -1.1417236328125 -0.90948486328125
3947734375.0 -1.44769287109375 -0.11810302734375
3978956250.0 -1.29656982421875 0.779296875
4010178125.0 -0.5306396484375 1.452880859375
4041400000.0 0.47369384765625 1.41455078125
4072621875.0 1.15155029296875 0.8470458984375
4103843750.0 1.44342041015625 0.06298828125
4135065625.0 1.266845703125 -0.84539794921875
4166287500.0 0.45709228515625 -1.49468994140625
4197509375.0 -0.5570068359375 -1.4139404296875
4228731250.0 -1.247802734375 -0.8018798828125
4259953125.0 -1.5086669921875 0.07135009765625
4291175000.0 -1.18768310546875 1.0108642578125
4322396875.0 -0.28778076171875 1.5264892578125
4353618750.0 0.6724853515625 1.348876953125
4384840625.0 1.3204345703125 0.69677734375
4416062500.0 1.50048828125 -0.22918701171875
4447284375.0 1.05389404296875 -1.10418701171875
4478506250.0 0.171875 -1.49493408203125
4509728125.0 -0.73199462890625 -1.306640625
4540950000.0 -1.39288330078125 -0.63482666015625
4572171875.0 -1.52130126953125 0.36016845703125
4603393750.0 -0.97161865234375 1.212158203125
4634615625.0 -0.06048583984375 1.537109375
4665837500.0 0.8697509765625 1.3035888671875
4697059375.0 1.5401611328125 0.51556396484375
4728281250.0 1.5279541015625 -0.58197021484375
4759503125.0 0.82220458984375 -1.36614990234375
4790725000.0 -0.14630126953125 -1.57244873046875
4821946875.0 -1.0828857421875 -1.19317626953125
4853168750.0 -1.61431884765625 -0.25
4884390625.0 -1.37701416015625 0.79290771484375
4915612500.0 -0.61260986328125 1.41217041015625
4946834375.0 0.32965087890625 1.50811767578125
4978056250.0 1.2032470703125 1.0166015625
5009278125.0 1.560791015625 0.03912353515625
5040500000.0 1.2281494140625 -0.8756103515625
5071721875.0 0.5009765625 -1.41387939453125
5102943750.0 -0.4468994140625 -1.49542236328125
5134165625.0 -1.334716796875 -0.90484619140625
5165387500.0 -1.56768798828125 0.14605712890625
5196609375.0 -1.13592529296875 1.00897216796875
5227831250.0 -0.357177734375 1.50555419921875
5259053125.0 0.687744140625 1.49139404296875
5290275000.0 1.52081298828125 0.6624755859375
5321496875.0 1.4925537109375 -0.430908203125
5352718750.0 0.92041015625 -1.1534423828125
5383940625.0 0.095703125 -1.5003662109375
5415162500.0 -0.89971923828125 -1.28277587890625
5446384375.0 -1.48333740234375 -0.3697509765625
5477606250.0 -1.29833984375 0.5662841796875
5508828125.0 -0.73089599609375 1.150390625
5540050000.0 0.0545654296875 1.398193359375
5571271875.0 0.93817138671875 1.108642578125
5602493750.0 1.40789794921875 0.2596435546875
5633715625.0 1.2318115234375 -0.61199951171875
5664937500.0 0.648681640625 -1.1998291015625
5696159375.0 -0.1953125 -1.38262939453125
5727381250.0 -1.02093505859375 -0.97784423828125
5758603125.0 -1.39068603515625 -0.14581298828125
5789825000.0 -1.193603515625 0.71746826171875
5821046875.0 -0.50616455078125 1.30767822265625
5852268750.0 0.410888671875 1.31256103515625
5883490625.0 1.0712890625 0.77191162109375
5914712500.0 1.30242919921875 0.0196533203125
5945934375.0 1.095458984375 -0.77496337890625
5977156250.0 0.36083984375 -1.3118896484375
6008378125.0 -0.5091552734375 -1.18194580078125
6039600000.0 -1.022216796875 -0.64892578125
6070821875.0 -1.2235107421875 -0.00457763671875
6102043750.0 -1.08251953125 0.76226806640625
6133265625.0 -0.341552734375 1.34429931640625
6164487500.0 0.5623779296875 1.18670654296875
6195709375.0 1.070068359375 0.62982177734375
6226931250.0 1.2789306640625 -0.04241943359375
6258153125.0 1.10394287109375 -0.87066650390625
6289375000.0 0.256591796875 -1.4454345703125
6320596875.0 -0.6881103515625 -1.20574951171875
6351818750.0 -1.19927978515625 -0.57244873046875
6383040625.0 -1.35394287109375 0.2061767578125
6414262500.0 -0.99993896484375 1.05615234375
6445484375.0 -0.078369140625 1.456298828125
6476706250.0 0.7947998046875 1.14788818359375
6507928125.0 1.2901611328125 0.47021484375
6539150000.0 1.3477783203125 -0.3870849609375
6570371875.0 0.84088134765625 -1.14312744140625
6601593750.0 -0.018310546875 -1.40472412109375
6632815625.0 -0.83935546875 -1.13543701171875
6664037500.0 -1.400634765625 -0.42034912109375
6695259375.0 -1.373291015625 0.56591796875
6726481250.0 -0.7098388671875 1.25146484375
6757703125.0 0.13043212890625 1.40606689453125
6788925000.0 0.95404052734375 1.13006591796875
6820146875.0 1.5589599609375 0.28863525390625
6851368750.0 1.32598876953125 -0.81903076171875
6882590625.0 0.50640869140625 -1.33917236328125
6913812500.0 -0.29278564453125 -1.35662841796875
6945034375.0 -1.07073974609375 -1.021728515625
6976256250.0 -1.5921630859375 -0.09307861328125
7007478125.0 -1.23626708984375 0.93115234375
7038700000.0 -0.40338134765625 1.34185791015625
7069921875.0 0.35858154296875 1.322265625
7101143750.0 1.11895751953125 0.96923828125
7132365625.0 1.59881591796875 0.013671875
7163587500.0 1.1571044921875 -1.02093505859375
7194809375.0 0.3013916015625 -1.39874267578125
7226031250.0 -0.511962890625 -1.32537841796875
7257253125.0 -1.26617431640625 -0.82452392578125
7288475000.0 -1.5582275390625 0.19818115234375
7319696875.0 -1.03009033203125 1.1085205078125
7350918750.0 -0.16583251953125 1.44403076171875
7382140625.0 0.71630859375 1.27679443359375
7413362500.0 1.377197265625 0.5758056640625
7444584375.0 1.41217041015625 -0.4075927734375
7475806250.0 0.85833740234375 -1.14239501953125
7507028125.0 0.0048828125 -1.43011474609375
7538250000.0 -0.888671875 -1.12371826171875
7569471875.0 -1.3358154296875 -0.310546875
7600693750.0 -1.2041015625 0.50006103515625
7631915625.0 -0.7181396484375 1.0880126953125
7663137500.0 0.07952880859375 1.3580322265625
7694359375.0 0.939544677734375 0.979583740234375
7725581250.0 1.243408203125 0.18011474609375
7756803125.0 1.0828857421875 -0.50018310546875
7788025000.0 0.669921875 -1.04315185546875
7819246875.0 -0.12127685546875 -1.34649658203125
7850468750.0 -0.9925537109375 -0.915130615234375
7881690625.0 -1.23162841796875 -0.10430908203125
7912912500.0 -1.05487060546875 0.55303955078125
7944134375.0 -0.60595703125 1.11370849609375
7975356250.0 0.27069091796875 1.33502197265625
8006578125.0 1.0462646484375 0.77923583984375
8037800000.0 1.1949462890625 0.01580810546875
8069021875.0 1.00640869140625 -0.618408203125
8100243750.0 0.50006103515625 -1.16107177734375
8131465625.0 -0.38848876953125 -1.255126953125
8162687500.0 -1.03289794921875 -0.68560791015625
8193909375.0 -1.18048095703125 0.0093994140625
8225131250.0 -1.0172119140625 0.677978515625
8256353125.0 -0.42108154296875 1.25
8287575000.0 0.50225830078125 1.2264404296875
8318796875.0 1.08154296875 0.63604736328125
8350018750.0 1.2462158203125 -0.076171875
8381240625.0 1.0308837890625 -0.83807373046875
8412462500.0 0.2554931640625 -1.37298583984375
8443684375.0 -0.6695556640625 -1.1700439453125
8474906250.0 -1.173583984375 -0.53289794921875
8506128125.0 -1.29779052734375 0.23681640625
8537350000.0 -0.92425537109375 1.0462646484375
8568571875.0 -0.01727294921875 1.394775390625
8599793750.0 0.80084228515625 1.053955078125
8631015625.0 1.24176025390625 0.39825439453125
8662237500.0 1.28643798828125 -0.4305419921875
8693459375.0 0.736328125 -1.17742919921875
8724681250.0 -0.16131591796875 -1.33172607421875
8755903125.0 -0.879486083984375 -0.95635986328125
8787125000.0 -1.30340576171875 -0.28253173828125
8818346875.0 -1.25091552734375 0.61541748046875
8849568750.0 -0.5574951171875 1.25958251953125
8880790625.0 0.2982177734375 1.28448486328125
8912012500.0 0.979583740234375 0.892242431640625
8943234375.0 1.3990478515625 0.1292724609375
8974456250.0 1.16656494140625 -0.83447265625
9005678125.0 0.34881591796875 -1.31292724609375
9036900000.0 -0.44537353515625 -1.22552490234375
9068121875.0 -1.10052490234375 -0.7862548828125
9099343750.0 -1.44183349609375 0.09722900390625
9130565625.0 -0.98046875 1.01177978515625
9161787500.0 -0.154541015625 1.28192138671875
9193009375.0 0.554443359375 1.1334228515625
9224231250.0 1.17974853515625 0.655029296875
9255453125.0 1.40087890625 -0.29656982421875
9286675000.0 0.80670166015625 -1.08587646484375
9317896875.0 0.02728271484375 -1.246826171875
9349118750.0 -0.65386962890625 -1.0692138671875
9380340625.0 -1.2559814453125 -0.5106201171875
9411562500.0 -1.31109619140625 0.4742431640625
9442784375.0 -0.6483154296875 1.11639404296875
9474006250.0 0.08935546875 1.21142578125
9505228125.0 0.762969970703125 0.98040771484375
9536450000.0 1.275146484375 0.3131103515625
9567671875.0 1.14410400390625 -0.5792236328125
9598893750.0 0.52911376953125 -1.0704345703125
9630115625.0 -0.1431884765625 -1.15692138671875
9661337500.0 -0.817138671875 -0.90338134765625
9692559375.0 -1.23919677734375 -0.1895751953125
9723781250.0 -1.04425048828125 0.60491943359375
9755003125.0 -0.48699951171875 1.04913330078125
9786225000.0 0.19903564453125 1.160400390625
9817446875.0 0.895355224609375 0.827667236328125
9848668750.0 1.197509765625 0.0787353515625
9879890625.0 0.968414306640625 -0.6153564453125
9911112500.0 0.45220947265625 -1.05126953125
9942334375.0 -0.26824951171875 -1.1597900390625
9973556250.0 -0.94317626953125 -0.737762451171875
10004778125.0 -1.14593505859375 -0.0185546875
10036000000.0 -0.94482421875 0.616668701171875
10067221875.0 -0.44232177734375 1.09661865234375
10098443750.0 0.3687744140625 1.18060302734375
10129665625.0 1.002197265625 0.6441650390625
10160887500.0 1.1202392578125 -0.0513916015625
10192109375.0 0.918060302734375 -0.6624755859375
10223331250.0 0.36181640625 -1.152099609375
10254553125.0 -0.4853515625 -1.1141357421875
10285775000.0 -0.9857177734375 -0.53570556640625
10316996875.0 -1.06756591796875 0.07781982421875
10348218750.0 -0.899749755859375 0.668487548828125
10379440625.0 -0.32098388671875 1.17578125
10410662500.0 0.52789306640625 1.08624267578125
10441884375.0 0.99176025390625 0.52252197265625
10473106250.0 1.109619140625 -0.083740234375
10504328125.0 0.94891357421875 -0.75689697265625
10535550000.0 0.239990234375 -1.2943115234375
10566771875.0 -0.65692138671875 -1.0777587890625
10597993750.0 -1.08038330078125 -0.4588623046875
10629215625.0 -1.17510986328125 0.20562744140625
10660437500.0 -0.8875732421875 0.948760986328125
10691659375.0 -0.0106201171875 1.3355712890625
10722881250.0 0.784942626953125 0.952362060546875
10754103125.0 1.1197509765625 0.32489013671875
10785325000.0 1.13922119140625 -0.3677978515625
10816546875.0 0.70111083984375 -1.0499267578125
10847768750.0 -0.14642333984375 -1.23004150390625
10878990625.0 -0.8031005859375 -0.84423828125
10910212500.0 -1.12396240234375 -0.244384765625
10941434375.0 -1.0977783203125 0.47705078125
10972656250.0 -0.5689697265625 1.08673095703125
11003878125.0 0.21893310546875 1.17510986328125
11035100000.0 0.846710205078125 0.821380615234375
11066321875.0 1.22125244140625 0.1741943359375
11097543750.0 1.0986328125 -0.6767578125
11128765625.0 0.3873291015625 -1.197998046875
11159987500.0 -0.39605712890625 -1.13897705078125
11191209375.0 -0.9996337890625 -0.703155517578125
11222431250.0 -1.2723388671875 0.09246826171875
11253653125.0 -0.860443115234375 0.894378662109375
11284875000.0 -0.11529541015625 1.12640380859375
11316096875.0 0.511688232421875 0.95672607421875
11347318750.0 1.0020751953125 0.501953125
11378540625.0 1.11700439453125 -0.26800537109375
11409762500.0 0.63580322265625 -0.85992431640625
11440984375.0 0.035003662109375 -0.979248046875
11472206250.0 -0.48248291015625 -0.850341796875
11503428125.0 -0.9521484375 -0.45623779296875
11534650000.0 -1.0693359375 0.287353515625
11565871875.0 -0.602783203125 0.854339599609375
11597093750.0 -0.0191650390625 0.991363525390625
11628315625.0 0.543975830078125 0.875640869140625
11659537500.0 1.0606689453125 0.3924560546875
11690759375.0 1.06500244140625 -0.43328857421875
11721981250.0 0.517578125 -0.94036865234375
11753203125.0 -0.1048583984375 -1.0367431640625
11784425000.0 -0.724700927734375 -0.80865478515625
11815646875.0 -1.10107421875 -0.1512451171875
11846868750.0 -0.89154052734375 0.551025390625
11878090625.0 -0.391510009765625 0.908966064453125
11909312500.0 0.18621826171875 0.984832763671875
11940534375.0 0.781036376953125 0.6953125
11971756250.0 1.0263671875 0.03973388671875
12002978125.0 0.806976318359375 -0.537139892578125
12034200000.0 0.381500244140625 -0.888427734375
12065421875.0 -0.2156982421875 -1.0108642578125
12096643750.0 -0.846343994140625 -0.665863037109375
12127865625.0 -1.03399658203125 0.01641845703125
12159087500.0 -0.815155029296875 0.575927734375
12190309375.0 -0.378021240234375 0.975128173828125
12221531250.0 0.338623046875 1.08935546875
12252753125.0 0.9793701171875 0.5821533203125
12283975000.0 1.0545654296875 -0.127197265625
12315196875.0 0.800811767578125 -0.6756591796875
12346418750.0 0.281494140625 -1.0911865234375
12377640625.0 -0.53900146484375 -1.06109619140625
12408862500.0 -1.03363037109375 -0.4202880859375
12440084375.0 -1.008056640625 0.224365234375
12471306250.0 -0.742584228515625 0.738006591796875
12502528125.0 -0.17974853515625 1.11968994140625
12533750000.0 0.62030029296875 0.993988037109375
12564971875.0 1.04241943359375 0.3646240234375
12596193750.0 1.029052734375 -0.263427734375
12627415625.0 0.748687744140625 -0.827728271484375
12658637500.0 0.08197021484375 -1.20660400390625
12689859375.0 -0.734771728515625 -0.967041015625
12721081250.0 -1.11627197265625 -0.3065185546875
12752303125.0 -1.09759521484375 0.3819580078125
12783525000.0 -0.68817138671875 1.02606201171875
12814746875.0 0.16485595703125 1.25189208984375
12845968750.0 0.863616943359375 0.811676025390625
12877190625.0 1.1173095703125 0.1727294921875
12908412500.0 1.05548095703125 -0.5010986328125
12939634375.0 0.54315185546875 -1.115234375
12970856250.0 -0.32183837890625 -1.1766357421875
13002078125.0 -0.8939208984375 -0.692901611328125
13033300000.0 -1.105712890625 -0.0863037109375
13064521875.0 -1.0103759765625 0.593017578125
13095743750.0 -0.42034912109375 1.15643310546875
13126965625.0 0.40850830078125 1.1201171875
13158187500.0 0.94891357421875 0.631683349609375
13189409375.0 1.149169921875 -0.02239990234375
13220631250.0 0.936431884765625 -0.747406005859375
13251853125.0 0.23529052734375 -1.17205810546875
13283075000.0 -0.508544921875 -1.02142333984375
13314296875.0 -0.987213134765625 -0.52935791015625
13345518750.0 -1.1358642578125 0.17706298828125
13376740625.0 -0.753936767578125 0.857330322265625
