!Created with skrf (http://scikit-rf.org).
# Hz S RI R 50.0 
!freq ReS11 ImS11
45000000.0 -0.07699966430664062 -0.0968017578125
76221875.0 -0.19618988037109375 -0.04750823974609375
107443750.0 -0.2547454833984375 0.1198272705078125
138665625.0 -0.14788818359375 0.3282470703125
169887500.0 0.123626708984375 0.4170989990234375
201109375.0 0.4216766357421875 0.2806854248046875
232331250.0 0.578521728515625 -0.0576171875
263553125.0 0.4892120361328125 -0.4525299072265625
294775000.0 0.0986328125 -0.732086181640625
325996875.0 -0.415191650390625 -0.679901123046875
357218750.0 -0.80548095703125 -0.296478271484375
388440625.0 -0.884735107421875 0.300262451171875
419662500.0 -0.516693115234375 0.8658447265625
450884375.0 0.17327880859375 1.02777099609375
482106250.0 0.79791259765625 0.7119140625
513328125.0 1.11822509765625 0.08709716796875
544550000.0 1.0028076171875 -0.67919921875
575771875.0 0.3359375 -1.237060546875
606993750.0 -0.553466796875 -1.17584228515625
638215625.0 -1.164794921875 -0.589599609375
669437500.0 -1.33831787109375 0.2335205078125
700659375.0 -0.9697265625 1.09521484375
731881250.0 -0.00341796875 1.5413818359375
763103125.0 1.0048828125 1.15435791015625
794325000.0 1.467041015625 0.28143310546875
825546875.0 1.36566162109375 -0.65106201171875
856768750.0 0.79351806640625 -1.39886474609375
887990625.0 -0.2919921875 -1.64599609375
919212500.0 -1.287109375 -1.07708740234375
950434375.0 -1.646484375 -0.05859375
981656250.0 -1.3804931640625 0.94488525390625
1012878125.0 -0.52862548828125 1.67034912109375
1044100000.0 0.696044921875 1.65948486328125
1075321875.0 1.57257080078125 0.810791015625
1106543750.0 1.70220947265625 -0.3126220703125
1137765625.0 1.1846923828125 -1.2823486328125
1168987500.0 0.1376953125 -1.794677734375
1200209375.0 -1.06060791015625 -1.48126220703125
1231431250.0 -1.72442626953125 -0.45281982421875
1262653125.0 -1.592041015625 0.6837158203125
1293875000.0 -0.85076904296875 1.48992919921875
1325096875.0 0.22821044921875 1.70428466796875
1356318750.0 1.23333740234375 1.214599609375
1387540625.0 1.7373046875 0.18878173828125
1418762500.0 1.466796875 -0.949951171875
1449984375.0 0.5284423828125 -1.62384033203125
1481206250.0 -0.549072265625 -1.55364990234375
1512428125.0 -1.34014892578125 -0.91827392578125
1543650000.0 -1.653076171875 0.0650634765625
1574871875.0 -1.2713623046875 1.1070556640625
1606093750.0 -0.2725830078125 1.62890625
1637315625.0 0.7412109375 1.3985595703125
1668537500.0 1.39404296875 0.694580078125
1699759375.0 1.57049560546875 -0.27655029296875
1730981250.0 1.0625 -1.22747802734375
1762203125.0 0.04217529296875 -1.56805419921875
1793425000.0 -0.85455322265625 -1.22454833984375
1824646875.0 -1.39141845703125 -0.5142822265625
1855868750.0 -1.47186279296875 0.43194580078125
1887090625.0 -0.8736572265625 1.282958984375
1918312500.0 0.116943359375 1.48468017578125
1949534375.0 0.919921875 1.08740234375
1980756250.0 1.37322998046875 0.36944580078125
2011978125.0 1.357666015625 -0.53118896484375
2043200000.0 0.748779296875 -1.2598876953125
2074421875.0 -0.15667724609375 -1.43115234375
2105643750.0 -0.95892333984375 -1.0709228515625
2136865625.0 -1.4449462890625 -0.3045654296875
2168087500.0 -1.35491943359375 0.67022705078125
2199309375.0 -0.637939453125 1.34942626953125
2230531250.0 0.28143310546875 1.43365478515625
2261753125.0 1.07098388671875 1.0126953125
2292975000.0 1.5120849609375 0.16973876953125
2324196875.0 1.3037109375 -0.8179931640625
2355418750.0 0.524169921875 -1.418212890625
2386640625.0 -0.4034423828125 -1.44647216796875
2417862500.0 -1.178955078125 -1.02252197265625
2449084375.0 -1.60223388671875 -0.0848388671875
2480306250.0 -1.30914306640625 0.9232177734375
2511528125.0 -0.4931640625 1.50531005859375
2542750000.0 0.4873046875 1.5330810546875
2573971875.0 1.36883544921875 0.96649169921875
2605193750.0 1.71337890625 -0.1112060546875
2636415625.0 1.2589111328125 -1.15032958984375
2667637500.0 0.30560302734375 -1.66375732421875
2698859375.0 -0.7684326171875 -1.531494140625
2730081250.0 -1.57073974609375 -0.73956298828125
2761303125.0 -1.67864990234375 0.3868408203125
2792525000.0 -1.09735107421875 1.3048095703125
2823746875.0 -0.10247802734375 1.72625732421875
2854968750.0 1.0103759765625 1.45257568359375
2886190625.0 1.68780517578125 0.49090576171875
2917412500.0 1.59637451171875 -0.61505126953125
2948634375.0 0.93798828125 -1.429443359375
2979856250.0 -0.10711669921875 -1.77178955078125
3011078125.0 -1.244384765625 -1.340087890625
3042300000.0 -1.77117919921875 -0.23468017578125
3073521875.0 -1.50616455078125 0.83740234375
3104743750.0 -0.76177978515625 1.5657958984375
3135965625.0 0.3619384765625 1.8060302734375
3167187500.0 1.495849609375 1.16241455078125
3198409375.0 1.81201171875 -0.07452392578125
3229631250.0 1.34613037109375 -1.0799560546875
3260853125.0 0.48870849609375 -1.66473388671875
3292075000.0 -0.65301513671875 -1.69439697265625
3323296875.0 -1.6173095703125 -0.8778076171875
3354518750.0 -1.72723388671875 0.32843017578125
3385740625.0 -1.15386962890625 1.22772216796875
3416962500.0 -0.23138427734375 1.67803955078125
3448184375.0 0.85736083984375 1.5184326171875
3479406250.0 1.63311767578125 0.6431884765625
3510628125.0 1.64117431640625 -0.49407958984375
3541850000.0 0.99859619140625 -1.35125732421875
3573071875.0 -0.0078125 -1.6787109375
3604293750.0 -1.0255126953125 -1.33489990234375
3635515625.0 -1.62432861328125 -0.43743896484375
3666737500.0 -1.55938720703125 0.6446533203125
3697959375.0 -0.82415771484375 1.47186279296875
3729181250.0 0.26690673828125 1.62701416015625
3760403125.0 1.14990234375 1.09613037109375
3791625000.0 1.54931640625 0.21807861328125
3822846875.0 1.398681640625 -0.75897216796875
3854068750.0 0.6190185546875 -1.47784423828125
3885290625.0 -0.41876220703125 -1.4775390625
3916512500.0 -1.13934326171875 -0.90972900390625
3947734375.0 -1.44549560546875 -0.11895751953125
3978956250.0 -1.294921875 0.7777099609375
4010178125.0 -0.53057861328125 1.451904296875
4041400000.0 0.4715576171875 1.41265869140625
4072621875.0 1.14947509765625 0.84613037109375
4103843750.0 1.4420166015625 0.06353759765625
4135065625.0 1.26580810546875 -0.84478759765625
4166287500.0 0.45794677734375 -1.491943359375
4197509375.0 -0.555908203125 -1.41265869140625
4228731250.0 -1.24493408203125 -0.8018798828125
4259953125.0 -1.506591796875 0.07000732421875
4291175000.0 -1.18658447265625 1.00830078125
4322396875.0 -0.2891845703125 1.5233154296875
4353618750.0 0.6712646484375 1.347900390625
4384840625.0 1.3189697265625 0.69671630859375
4416062500.0 1.49798583984375 -0.22674560546875
4447284375.0 1.053466796875 -1.10089111328125
4478506250.0 0.17193603515625 -1.49298095703125
4509728125.0 -0.73077392578125 -1.30548095703125
4540950000.0 -1.3902587890625 -0.6353759765625
4572171875.0 -1.52001953125 0.35845947265625
4603393750.0 -0.971435546875 1.20928955078125
4634615625.0 -0.0616455078125 1.53399658203125
4665837500.0 0.86773681640625 1.30194091796875
4697059375.0 1.5380859375 0.5150146484375
4728281250.0 1.52685546875 -0.58099365234375
4759503125.0 0.82220458984375 -1.36492919921875
4790725000.0 -0.1446533203125 -1.56988525390625
4821946875.0 -1.0823974609375 -1.192626953125
4853168750.0 -1.60968017578125 -0.251220703125
4884390625.0 -1.375244140625 0.790283203125
4915612500.0 -0.6129150390625 1.409912109375
4946834375.0 0.32684326171875 1.50604248046875
4978056250.0 1.20343017578125 1.01544189453125
5009278125.0 1.55902099609375 0.039794921875
5040500000.0 1.2275390625 -0.87432861328125
5071721875.0 0.50079345703125 -1.4122314453125
5102943750.0 -0.44500732421875 -1.4942626953125
5134165625.0 -1.33331298828125 -0.90423583984375
5165387500.0 -1.56439208984375 0.14385986328125
5196609375.0 -1.135009765625 1.00726318359375
5227831250.0 -0.357421875 1.50311279296875
5259053125.0 0.68682861328125 1.49017333984375
5290275000.0 1.5189208984375 0.66229248046875
5321496875.0 1.49017333984375 -0.42919921875
5352718750.0 0.91973876953125 -1.14984130859375
5383940625.0 0.096435546875 -1.49749755859375
5415162500.0 -0.8988037109375 -1.2816162109375
5446384375.0 -1.4815673828125 -0.37005615234375
5477606250.0 -1.29718017578125 0.56549072265625
5508828125.0 -0.73052978515625 1.1490478515625
5540050000.0 0.05340576171875 1.39630126953125
5571271875.0 0.9373779296875 1.10736083984375
5602493750.0 1.40594482421875 0.260009765625
5633715625.0 1.22998046875 -0.6104736328125
5664937500.0 0.6470947265625 -1.1998291015625
5696159375.0 -0.19512939453125 -1.38140869140625
5727381250.0 -1.01983642578125 -0.9774169921875
5758603125.0 -1.38885498046875 -0.1455078125
5789825000.0 -1.19244384765625 0.7161865234375
5821046875.0 -0.505859375 1.30487060546875
5852268750.0 0.4112548828125 1.31201171875
5883490625.0 1.06866455078125 0.77142333984375
5914712500.0 1.3017578125 0.0191650390625
5945934375.0 1.09521484375 -0.774658203125
5977156250.0 0.36126708984375 -1.31060791015625
6008378125.0 -0.50726318359375 -1.18017578125
6039600000.0 -1.02032470703125 -0.64849853515625
6070821875.0 -1.22222900390625 -0.00482177734375
6102043750.0 -1.08197021484375 0.7611083984375
6133265625.0 -0.3421630859375 1.34228515625
6164487500.0 0.5625 1.1864013671875
6195709375.0 1.06903076171875 0.62957763671875
6226931250.0 1.27764892578125 -0.04168701171875
6258153125.0 1.1031494140625 -0.8699951171875
6289375000.0 0.25616455078125 -1.44476318359375
6320596875.0 -0.68768310546875 -1.20465087890625
6351818750.0 -1.1978759765625 -0.57159423828125
6383040625.0 -1.35369873046875 0.20648193359375
6414262500.0 -0.99896240234375 1.05419921875
6445484375.0 -0.07928466796875 1.455078125
6476706250.0 0.794189453125 1.1468505859375
6507928125.0 1.2886962890625 0.46978759765625
6539150000.0 1.345458984375 -0.385498046875
6570371875.0 0.84051513671875 -1.14202880859375
6601593750.0 -0.017333984375 -1.40362548828125
6632815625.0 -0.8389892578125 -1.13555908203125
6664037500.0 -1.39898681640625 -0.4205322265625
6695259375.0 -1.3720703125 0.5648193359375
6726481250.0 -0.71002197265625 1.24932861328125
6757703125.0 0.13055419921875 1.40521240234375
6788925000.0 0.9542236328125 1.1297607421875
6820146875.0 1.55853271484375 0.28753662109375
6851368750.0 1.32391357421875 -0.8177490234375
6882590625.0 0.50628662109375 -1.3367919921875
6913812500.0 -0.291015625 -1.35498046875
6945034375.0 -1.068115234375 -1.02093505859375
6976256250.0 -1.59002685546875 -0.093994140625
7007478125.0 -1.234619140625 0.930908203125
7038700000.0 -0.4024658203125 1.34051513671875
7069921875.0 0.359130859375 1.3226318359375
7101143750.0 1.1148681640625 0.9674072265625
7132365625.0 1.59710693359375 0.01495361328125
7163587500.0 1.15625 -1.01873779296875
7194809375.0 0.3011474609375 -1.3968505859375
7226031250.0 -0.51007080078125 -1.3231201171875
7257253125.0 -1.2623291015625 -0.82391357421875
7288475000.0 -1.55609130859375 0.197265625
7319696875.0 -1.0291748046875 1.1080322265625
7350918750.0 -0.16448974609375 1.4417724609375
7382140625.0 0.71331787109375 1.2745361328125
7413362500.0 1.375 0.57611083984375
7444584375.0 1.41046142578125 -0.40625
7475806250.0 0.8572998046875 -1.14044189453125
7507028125.0 0.007568359375 -1.4261474609375
7538250000.0 -0.88800048828125 -1.1236572265625
7569471875.0 -1.33489990234375 -0.3106689453125
7600693750.0 -1.20159912109375 0.49615478515625
7631915625.0 -0.7166748046875 1.08428955078125
7663137500.0 0.080078125 1.357421875
7694359375.0 0.93878173828125 0.97998046875
7725581250.0 1.24090576171875 0.18084716796875
7756803125.0 1.0814208984375 -0.49713134765625
7788025000.0 0.6702880859375 -1.04095458984375
7819246875.0 -0.1192626953125 -1.34613037109375
7850468750.0 -0.9891357421875 -0.9150390625
7881690625.0 -1.22918701171875 -0.10589599609375
7912912500.0 -1.05291748046875 0.5517578125
7944134375.0 -0.6051025390625 1.11138916015625
7975356250.0 0.26995849609375 1.3336181640625
8006578125.0 1.0445556640625 0.7781982421875
8037800000.0 1.19091796875 0.01702880859375
8069021875.0 1.0062255859375 -0.6171875
8100243750.0 0.499267578125 -1.1605224609375
8131465625.0 -0.38671875 -1.25323486328125
8162687500.0 -1.03118896484375 -0.685546875
8193909375.0 -1.18011474609375 0.0089111328125
8225131250.0 -1.01708984375 0.6767578125
8256353125.0 -0.42120361328125 1.24700927734375
8287575000.0 0.49884033203125 1.2244873046875
8318796875.0 1.0804443359375 0.63482666015625
8350018750.0 1.24444580078125 -0.07489013671875
8381240625.0 1.02972412109375 -0.83868408203125
8412462500.0 0.255615234375 -1.370849609375
8443684375.0 -0.66790771484375 -1.16864013671875
8474906250.0 -1.171142578125 -0.53314208984375
8506128125.0 -1.29681396484375 0.2359619140625
8537350000.0 -0.92401123046875 1.04364013671875
8568571875.0 -0.0169677734375 1.3927001953125
8599793750.0 0.80267333984375 1.052734375
8631015625.0 1.23956298828125 0.39935302734375
8662237500.0 1.2838134765625 -0.42828369140625
8693459375.0 0.735595703125 -1.17620849609375
8724681250.0 -0.1622314453125 -1.3309326171875
8755903125.0 -0.8782958984375 -0.95745849609375
8787125000.0 -1.30096435546875 -0.2833251953125
8818346875.0 -1.2498779296875 0.61566162109375
8849568750.0 -0.556640625 1.26031494140625
8880790625.0 0.296142578125 1.28265380859375
8912012500.0 0.980621337890625 0.89111328125
8943234375.0 1.3970947265625 0.1297607421875
8974456250.0 1.166259765625 -0.8370361328125
9005678125.0 0.3487548828125 -1.31268310546875
9036900000.0 -0.44189453125 -1.22430419921875
9068121875.0 -1.10125732421875 -0.78497314453125
9099343750.0 -1.44073486328125 0.0977783203125
9130565625.0 -0.9796142578125 1.0107421875
9161787500.0 -0.15533447265625 1.28118896484375
9193009375.0 0.55340576171875 1.1329345703125
9224231250.0 1.17681884765625 0.65411376953125
9255453125.0 1.39764404296875 -0.29473876953125
9286675000.0 0.8076171875 -1.081787109375
9317896875.0 0.02801513671875 -1.24432373046875
9349118750.0 -0.65338134765625 -1.0682373046875
9380340625.0 -1.255615234375 -0.5107421875
9411562500.0 -1.31024169921875 0.47540283203125
9442784375.0 -0.6484375 1.1141357421875
9474006250.0 0.087890625 1.2100830078125
9505228125.0 0.763671875 0.979461669921875
9536450000.0 1.2738037109375 0.31329345703125
9567671875.0 1.1436767578125 -0.579345703125
9598893750.0 0.52947998046875 -1.06866455078125
9630115625.0 -0.14361572265625 -1.15777587890625
9661337500.0 -0.8155517578125 -0.90228271484375
9692559375.0 -1.2369384765625 -0.1910400390625
9723781250.0 -1.04315185546875 0.602294921875
9755003125.0 -0.48565673828125 1.04876708984375
9786225000.0 0.19775390625 1.15826416015625
9817446875.0 0.89495849609375 0.827850341796875
9848668750.0 1.19586181640625 0.080078125
9879890625.0 0.967041015625 -0.614715576171875
9911112500.0 0.45159912109375 -1.05084228515625
9942334375.0 -0.26641845703125 -1.15771484375
9973556250.0 -0.941375732421875 -0.7379150390625
10004778125.0 -1.14544677734375 -0.01800537109375
10036000000.0 -0.94384765625 0.614776611328125
10067221875.0 -0.44244384765625 1.09417724609375
10098443750.0 0.3670654296875 1.1798095703125
10129665625.0 1.00042724609375 0.64300537109375
10160887500.0 1.1185302734375 -0.0501708984375
10192109375.0 0.91693115234375 -0.659820556640625
10223331250.0 0.361083984375 -1.1519775390625
10254553125.0 -0.4837646484375 -1.11322021484375
10285775000.0 -0.9837646484375 -0.53558349609375
10316996875.0 -1.06573486328125 0.0751953125
10348218750.0 -0.899749755859375 0.670654296875
10379440625.0 -0.32293701171875 1.1729736328125
10410662500.0 0.525634765625 1.08465576171875
10441884375.0 0.990478515625 0.522216796875
10473106250.0 1.10809326171875 -0.08282470703125
10504328125.0 0.948516845703125 -0.75592041015625
10535550000.0 0.2401123046875 -1.29351806640625
10566771875.0 -0.657958984375 -1.07696533203125
10597993750.0 -1.07916259765625 -0.45855712890625
10629215625.0 -1.17449951171875 0.20501708984375
10660437500.0 -0.88720703125 0.95111083984375
10691659375.0 -0.01092529296875 1.33575439453125
10722881250.0 0.78271484375 0.952392578125
10754103125.0 1.117919921875 0.324462890625
10785325000.0 1.1385498046875 -0.36553955078125
10816546875.0 0.70050048828125 -1.04852294921875
10847768750.0 -0.14599609375 -1.22998046875
10878990625.0 -0.80078125 -0.84368896484375
10910212500.0 -1.1212158203125 -0.2459716796875
10941434375.0 -1.096923828125 0.476806640625
10972656250.0 -0.5684814453125 1.082763671875
11003878125.0 0.2164306640625 1.17291259765625
11035100000.0 0.8460693359375 0.821502685546875
11066321875.0 1.218505859375 0.175048828125
11097543750.0 1.09783935546875 -0.6759033203125
11128765625.0 0.3853759765625 -1.19940185546875
11159987500.0 -0.393310546875 -1.13775634765625
11191209375.0 -0.99835205078125 -0.702880859375
11222431250.0 -1.27130126953125 0.0926513671875
11253653125.0 -0.859039306640625 0.8944091796875
11284875000.0 -0.1148681640625 1.126708984375
11316096875.0 0.509918212890625 0.95574951171875
11347318750.0 1.00177001953125 0.50311279296875
11378540625.0 1.11651611328125 -0.26751708984375
11409762500.0 0.63519287109375 -0.85784912109375
11440984375.0 0.03704833984375 -0.976470947265625
11472206250.0 -0.480224609375 -0.8492431640625
11503428125.0 -0.952178955078125 -0.456451416015625
11534650000.0 -1.0667724609375 0.287109375
11565871875.0 -0.602142333984375 0.85491943359375
11597093750.0 -0.019195556640625 0.990081787109375
11628315625.0 0.543060302734375 0.87457275390625
11659537500.0 1.05902099609375 0.39251708984375
11690759375.0 1.06439208984375 -0.43292236328125
11721981250.0 0.5174560546875 -0.939361572265625
11753203125.0 -0.1053466796875 -1.03594970703125
11784425000.0 -0.72235107421875 -0.807861328125
11815646875.0 -1.10009765625 -0.1512451171875
11846868750.0 -0.890472412109375 0.549468994140625
11878090625.0 -0.391082763671875 0.90826416015625
11909312500.0 0.185394287109375 0.9830322265625
11940534375.0 0.77899169921875 0.6942138671875
11971756250.0 1.0255126953125 0.0401611328125
12002978125.0 0.805938720703125 -0.53680419921875
12034200000.0 0.382293701171875 -0.88702392578125
12065421875.0 -0.2137451171875 -1.00823974609375
12096643750.0 -0.846435546875 -0.664886474609375
12127865625.0 -1.0333251953125 0.015869140625
12159087500.0 -0.814697265625 0.57342529296875
12190309375.0 -0.377655029296875 0.97430419921875
12221531250.0 0.3388671875 1.08740234375
12252753125.0 0.978790283203125 0.58148193359375
12283975000.0 1.05413818359375 -0.12738037109375
12315196875.0 0.799774169921875 -0.674560546875
12346418750.0 0.28173828125 -1.09063720703125
12377640625.0 -0.53643798828125 -1.0601806640625
12408862500.0 -1.035400390625 -0.419677734375
12440084375.0 -1.00830078125 0.224365234375
12471306250.0 -0.74237060546875 0.735137939453125
12502528125.0 -0.17938232421875 1.11932373046875
12533750000.0 0.6190185546875 0.9930419921875
12564971875.0 1.0390625 0.36456298828125
12596193750.0 1.029541015625 -0.26458740234375
12627415625.0 0.74664306640625 -0.8277587890625
12658637500.0 0.08111572265625 -1.20635986328125
12689859375.0 -0.7357177734375 -0.965850830078125
12721081250.0 -1.1153564453125 -0.306884765625
12752303125.0 -1.096435546875 0.38104248046875
12783525000.0 -0.68707275390625 1.02490234375
12814746875.0 0.16424560546875 1.25
12845968750.0 0.862060546875 0.81170654296875
12877190625.0 1.11578369140625 0.1724853515625
12908412500.0 1.05450439453125 -0.5008544921875
12939634375.0 0.5433349609375 -1.114013671875
12970856250.0 -0.32073974609375 -1.1748046875
13002078125.0 -0.89361572265625 -0.693389892578125
13033300000.0 -1.1051025390625 -0.08819580078125
13064521875.0 -1.00823974609375 0.5926513671875
13095743750.0 -0.42022705078125 1.15411376953125
13126965625.0 0.40753173828125 1.1201171875
13158187500.0 0.945220947265625 0.63177490234375
13189409375.0 1.14764404296875 -0.02166748046875
13220631250.0 0.935577392578125 -0.74591064453125
13251853125.0 0.23504638671875 -1.17108154296875
13283075000.0 -0.50469970703125 -1.018798828125
13314296875.0 -0.987640380859375 -0.52874755859375
13345518750.0 -1.13275146484375 0.1751708984375
13376740625.0 -0.753021240234375 0.855255126953125
13407962500.0 -0.06005859375 1.06573486328125
