!Created with skrf (http://scikit-rf.org).
# Hz S RI R 50.0 
!freq ReS11 ImS11
45000000.0 -0.07688522338867188 -0.096923828125
76221875.0 -0.19626617431640625 -0.04755401611328125
107443750.0 -0.254852294921875 0.1196441650390625
138665625.0 -0.148345947265625 0.328125
169887500.0 0.1233367919921875 0.41754150390625
201109375.0 0.4215087890625 0.2810821533203125
232331250.0 0.578643798828125 -0.057342529296875
263553125.0 0.4893798828125 -0.45208740234375
294775000.0 0.09893798828125 -0.73193359375
325996875.0 -0.41473388671875 -0.680328369140625
357218750.0 -0.805328369140625 -0.2972412109375
388440625.0 -0.885040283203125 0.300018310546875
419662500.0 -0.51739501953125 0.865264892578125
450884375.0 0.17230224609375 1.0281982421875
482106250.0 0.797454833984375 0.712554931640625
513328125.0 1.118408203125 0.08782958984375
544550000.0 1.003173828125 -0.6783447265625
575771875.0 0.33685302734375 -1.23651123046875
606993750.0 -0.55291748046875 -1.17669677734375
638215625.0 -1.16461181640625 -0.59063720703125
669437500.0 -1.3389892578125 0.23291015625
700659375.0 -0.97052001953125 1.09527587890625
731881250.0 -0.00457763671875 1.5418701171875
763103125.0 1.00433349609375 1.15533447265625
794325000.0 1.46728515625 0.2823486328125
825546875.0 1.3662109375 -0.64990234375
856768750.0 0.7947998046875 -1.39837646484375
887990625.0 -0.291259765625 -1.6466064453125
919212500.0 -1.28582763671875 -1.07806396484375
950434375.0 -1.64654541015625 -0.05950927734375
981656250.0 -1.38140869140625 0.944091796875
1012878125.0 -0.52984619140625 1.6693115234375
1044100000.0 0.695068359375 1.6602783203125
1075321875.0 1.572265625 0.8118896484375
1106543750.0 1.70294189453125 -0.31158447265625
1137765625.0 1.18609619140625 -1.2818603515625
1168987500.0 0.1390380859375 -1.79461669921875
1200209375.0 -1.0596923828125 -1.48260498046875
1231431250.0 -1.72515869140625 -0.45355224609375
1262653125.0 -1.5927734375 0.6829833984375
1293875000.0 -0.85174560546875 1.48931884765625
1325096875.0 0.2271728515625 1.70501708984375
1356318750.0 1.2330322265625 1.21600341796875
1387540625.0 1.737548828125 0.18939208984375
1418762500.0 1.4678955078125 -0.94964599609375
1449984375.0 0.52935791015625 -1.62335205078125
1481206250.0 -0.54827880859375 -1.553955078125
1512428125.0 -1.33966064453125 -0.9190673828125
1543650000.0 -1.6534423828125 0.0640869140625
1574871875.0 -1.27227783203125 1.1064453125
1606093750.0 -0.273681640625 1.6292724609375
1637315625.0 0.74066162109375 1.399169921875
1668537500.0 1.39404296875 0.69537353515625
1699759375.0 1.5714111328125 -0.2760009765625
1730981250.0 1.06378173828125 -1.22662353515625
1762203125.0 0.0430908203125 -1.568359375
1793425000.0 -0.8541259765625 -1.22515869140625
1824646875.0 -1.39154052734375 -0.51519775390625
1855868750.0 -1.4722900390625 0.43121337890625
1887090625.0 -0.87432861328125 1.2835693359375
1918312500.0 0.11651611328125 1.4847412109375
1949534375.0 0.92010498046875 1.088134765625
1980756250.0 1.37298583984375 0.3704833984375
2011978125.0 1.35809326171875 -0.52996826171875
2043200000.0 0.74981689453125 -1.25958251953125
2074421875.0 -0.1558837890625 -1.4315185546875
2105643750.0 -0.95880126953125 -1.07183837890625
2136865625.0 -1.4454345703125 -0.30511474609375
2168087500.0 -1.35546875 0.669921875
2199309375.0 -0.63897705078125 1.34893798828125
2230531250.0 0.28082275390625 1.4344482421875
2261753125.0 1.07098388671875 1.01324462890625
2292975000.0 1.5128173828125 0.1707763671875
2324196875.0 1.3043212890625 -0.81719970703125
2355418750.0 0.52520751953125 -1.41796875
2386640625.0 -0.40362548828125 -1.447509765625
2417862500.0 -1.1778564453125 -1.023193359375
2449084375.0 -1.60174560546875 -0.085205078125
2480306250.0 -1.3101806640625 0.92303466796875
2511528125.0 -0.49383544921875 1.5057373046875
2542750000.0 0.48577880859375 1.5335693359375
2573971875.0 1.36724853515625 0.96710205078125
2605193750.0 1.7132568359375 -0.1104736328125
2636415625.0 1.2598876953125 -1.149658203125
2667637500.0 0.30718994140625 -1.66412353515625
2698859375.0 -0.7679443359375 -1.53271484375
2730081250.0 -1.56988525390625 -0.74066162109375
2761303125.0 -1.67913818359375 0.38690185546875
2792525000.0 -1.09832763671875 1.30413818359375
2823746875.0 -0.10302734375 1.72637939453125
2854968750.0 1.008544921875 1.45343017578125
2886190625.0 1.6888427734375 0.49200439453125
2917412500.0 1.59735107421875 -0.61541748046875
2948634375.0 0.93865966796875 -1.4295654296875
2979856250.0 -0.1070556640625 -1.7740478515625
3011078125.0 -1.243896484375 -1.34039306640625
3042300000.0 -1.77203369140625 -0.2349853515625
3073521875.0 -1.50726318359375 0.8377685546875
3104743750.0 -0.7628173828125 1.5657958984375
3135965625.0 0.359619140625 1.80517578125
3167187500.0 1.49627685546875 1.16278076171875
3198409375.0 1.812255859375 -0.07415771484375
3229631250.0 1.34716796875 -1.0791015625
3260853125.0 0.48944091796875 -1.66448974609375
3292075000.0 -0.65362548828125 -1.69512939453125
3323296875.0 -1.61541748046875 -0.87908935546875
3354518750.0 -1.72705078125 0.32708740234375
3385740625.0 -1.154541015625 1.227783203125
3416962500.0 -0.2318115234375 1.6788330078125
3448184375.0 0.85791015625 1.519287109375
3479406250.0 1.63336181640625 0.64404296875
3510628125.0 1.6412353515625 -0.4932861328125
3541850000.0 0.99981689453125 -1.35223388671875
3573071875.0 -0.0067138671875 -1.67889404296875
3604293750.0 -1.02557373046875 -1.3355712890625
3635515625.0 -1.6241455078125 -0.43902587890625
3666737500.0 -1.55963134765625 0.644775390625
3697959375.0 -0.824462890625 1.47344970703125
3729181250.0 0.2664794921875 1.6279296875
3760403125.0 1.14947509765625 1.09661865234375
3791625000.0 1.54949951171875 0.21844482421875
3822846875.0 1.3994140625 -0.75811767578125
3854068750.0 0.61981201171875 -1.47821044921875
3885290625.0 -0.419921875 -1.4791259765625
3916512500.0 -1.13873291015625 -0.9100341796875
3947734375.0 -1.444580078125 -0.12103271484375
3978956250.0 -1.29547119140625 0.77618408203125
4010178125.0 -0.531005859375 1.45166015625
4041400000.0 0.472412109375 1.413330078125
4072621875.0 1.14990234375 0.84722900390625
4103843750.0 1.44244384765625 0.063720703125
4135065625.0 1.26611328125 -0.84356689453125
4166287500.0 0.457763671875 -1.49249267578125
4197509375.0 -0.556640625 -1.4136962890625
4228731250.0 -1.24505615234375 -0.80218505859375
4259953125.0 -1.50677490234375 0.06988525390625
4291175000.0 -1.1866455078125 1.00701904296875
4322396875.0 -0.28961181640625 1.523681640625
4353618750.0 0.67071533203125 1.3486328125
4384840625.0 1.31878662109375 0.69744873046875
4416062500.0 1.49896240234375 -0.2261962890625
4447284375.0 1.0543212890625 -1.101318359375
4478506250.0 0.1732177734375 -1.49261474609375
4509728125.0 -0.7308349609375 -1.3057861328125
4540950000.0 -1.3902587890625 -0.63555908203125
4572171875.0 -1.52081298828125 0.3587646484375
4603393750.0 -0.971923828125 1.21014404296875
4634615625.0 -0.0615234375 1.53533935546875
4665837500.0 0.86798095703125 1.30267333984375
4697059375.0 1.537841796875 0.5150146484375
4728281250.0 1.5272216796875 -0.58135986328125
4759503125.0 0.8223876953125 -1.364990234375
4790725000.0 -0.14520263671875 -1.57110595703125
4821946875.0 -1.0806884765625 -1.19256591796875
4853168750.0 -1.61004638671875 -0.25164794921875
4884390625.0 -1.37652587890625 0.79132080078125
4915612500.0 -0.61376953125 1.4100341796875
4946834375.0 0.32757568359375 1.507080078125
4978056250.0 1.20355224609375 1.0162353515625
5009278125.0 1.55889892578125 0.04052734375
5040500000.0 1.22772216796875 -0.87408447265625
5071721875.0 0.501708984375 -1.41253662109375
5102943750.0 -0.44537353515625 -1.4949951171875
5134165625.0 -1.33392333984375 -0.90435791015625
5165387500.0 -1.566162109375 0.14520263671875
5196609375.0 -1.1353759765625 1.0078125
5227831250.0 -0.35748291015625 1.5037841796875
5259053125.0 0.68536376953125 1.49017333984375
5290275000.0 1.51910400390625 0.66241455078125
5321496875.0 1.48992919921875 -0.4288330078125
5352718750.0 0.91973876953125 -1.15106201171875
5383940625.0 0.09686279296875 -1.4981689453125
5415162500.0 -0.8980712890625 -1.28216552734375
5446384375.0 -1.48291015625 -0.37030029296875
5477606250.0 -1.29705810546875 0.56451416015625
5508828125.0 -0.73101806640625 1.14825439453125
5540050000.0 0.0537109375 1.3973388671875
5571271875.0 0.9365234375 1.1082763671875
5602493750.0 1.40618896484375 0.26080322265625
5633715625.0 1.2308349609375 -0.611083984375
5664937500.0 0.64794921875 -1.19891357421875
5696159375.0 -0.19647216796875 -1.382080078125
5727381250.0 -1.019287109375 -0.977294921875
5758603125.0 -1.38995361328125 -0.14501953125
5789825000.0 -1.193115234375 0.7166748046875
5821046875.0 -0.505859375 1.30572509765625
5852268750.0 0.41131591796875 1.31146240234375
5883490625.0 1.06884765625 0.771484375
5914712500.0 1.30078125 0.02056884765625
5945934375.0 1.094970703125 -0.7735595703125
5977156250.0 0.3612060546875 -1.31103515625
6008378125.0 -0.50762939453125 -1.1810302734375
6039600000.0 -1.01995849609375 -0.64910888671875
6070821875.0 -1.2222900390625 -0.00518798828125
6102043750.0 -1.08209228515625 0.7608642578125
6133265625.0 -0.342041015625 1.34320068359375
6164487500.0 0.5614013671875 1.1859130859375
6195709375.0 1.0689697265625 0.62969970703125
6226931250.0 1.278076171875 -0.04156494140625
6258153125.0 1.1033935546875 -0.86956787109375
6289375000.0 0.25579833984375 -1.44580078125
6320596875.0 -0.6881103515625 -1.205078125
6351818750.0 -1.19842529296875 -0.5716552734375
6383040625.0 -1.3524169921875 0.20489501953125
6414262500.0 -0.99981689453125 1.05633544921875
6445484375.0 -0.07867431640625 1.45526123046875
6476706250.0 0.79376220703125 1.14691162109375
6507928125.0 1.2884521484375 0.47015380859375
6539150000.0 1.345703125 -0.38494873046875
6570371875.0 0.84051513671875 -1.142333984375
6601593750.0 -0.01739501953125 -1.40386962890625
6632815625.0 -0.83831787109375 -1.13507080078125
6664037500.0 -1.39935302734375 -0.419921875
6695259375.0 -1.372802734375 0.56573486328125
6726481250.0 -0.70965576171875 1.2509765625
6757703125.0 0.12939453125 1.405029296875
6788925000.0 0.95330810546875 1.12939453125
6820146875.0 1.55859375 0.28790283203125
6851368750.0 1.32452392578125 -0.81689453125
6882590625.0 0.50579833984375 -1.33758544921875
6913812500.0 -0.29150390625 -1.354736328125
6945034375.0 -1.0684814453125 -1.02105712890625
6976256250.0 -1.5902099609375 -0.0941162109375
7007478125.0 -1.235595703125 0.93072509765625
7038700000.0 -0.40106201171875 1.34228515625
7069921875.0 0.35650634765625 1.32147216796875
7101143750.0 1.11444091796875 0.96832275390625
7132365625.0 1.59722900390625 0.01708984375
7163587500.0 1.1572265625 -1.0191650390625
7194809375.0 0.30291748046875 -1.39532470703125
7226031250.0 -0.51019287109375 -1.3245849609375
7257253125.0 -1.26611328125 -0.82366943359375
7288475000.0 -1.55657958984375 0.19647216796875
7319696875.0 -1.02899169921875 1.1085205078125
7350918750.0 -0.1671142578125 1.44061279296875
7382140625.0 0.712890625 1.274658203125
7413362500.0 1.3746337890625 0.57696533203125
7444584375.0 1.409912109375 -0.4041748046875
7475806250.0 0.85711669921875 -1.140869140625
7507028125.0 0.00714111328125 -1.42742919921875
7538250000.0 -0.88433837890625 -1.1219482421875
7569471875.0 -1.33282470703125 -0.3115234375
7600693750.0 -1.2003173828125 0.49407958984375
7631915625.0 -0.7174072265625 1.08319091796875
7663137500.0 0.08013916015625 1.3568115234375
7694359375.0 0.93719482421875 0.98065185546875
7725581250.0 1.24224853515625 0.18096923828125
7756803125.0 1.08184814453125 -0.49884033203125
7788025000.0 0.66949462890625 -1.04339599609375
7819246875.0 -0.11920166015625 -1.344970703125
7850468750.0 -0.99072265625 -0.915435791015625
7881690625.0 -1.2308349609375 -0.10516357421875
7912912500.0 -1.05340576171875 0.5531005859375
7944134375.0 -0.60418701171875 1.11212158203125
7975356250.0 0.27105712890625 1.3338623046875
8006578125.0 1.0460205078125 0.7784423828125
8037800000.0 1.1923828125 0.0177001953125
8069021875.0 1.0054931640625 -0.6170654296875
8100243750.0 0.4990234375 -1.16009521484375
8131465625.0 -0.38714599609375 -1.25384521484375
8162687500.0 -1.0311279296875 -0.68707275390625
8193909375.0 -1.17950439453125 0.00787353515625
8225131250.0 -1.01800537109375 0.677001953125
8256353125.0 -0.4217529296875 1.24639892578125
8287575000.0 0.49884033203125 1.225830078125
8318796875.0 1.08160400390625 0.63629150390625
8350018750.0 1.243408203125 -0.07403564453125
8381240625.0 1.0313720703125 -0.83758544921875
8412462500.0 0.253173828125 -1.373046875
8443684375.0 -0.6689453125 -1.1690673828125
8474906250.0 -1.1751708984375 -0.53131103515625
8506128125.0 -1.29730224609375 0.23590087890625
8537350000.0 -0.92327880859375 1.044677734375
8568571875.0 -0.01690673828125 1.3929443359375
8599793750.0 0.799560546875 1.052978515625
8631015625.0 1.24029541015625 0.3985595703125
8662237500.0 1.28363037109375 -0.42730712890625
8693459375.0 0.73553466796875 -1.176513671875
8724681250.0 -0.1610107421875 -1.3289794921875
8755903125.0 -0.876983642578125 -0.95745849609375
8787125000.0 -1.3028564453125 -0.283203125
8818346875.0 -1.2503662109375 0.61505126953125
8849568750.0 -0.5567626953125 1.260009765625
8880790625.0 0.2977294921875 1.28472900390625
8912012500.0 0.98126220703125 0.89178466796875
8943234375.0 1.39703369140625 0.12908935546875
8974456250.0 1.16546630859375 -0.8358154296875
9005678125.0 0.3480224609375 -1.311767578125
9036900000.0 -0.444580078125 -1.2244873046875
9068121875.0 -1.10028076171875 -0.78546142578125
9099343750.0 -1.43951416015625 0.09765625
9130565625.0 -0.9776611328125 1.0111083984375
9161787500.0 -0.1553955078125 1.28143310546875
9193009375.0 0.5537109375 1.1326904296875
9224231250.0 1.17742919921875 0.6551513671875
9255453125.0 1.39794921875 -0.29461669921875
9286675000.0 0.806884765625 -1.0830078125
9317896875.0 0.02862548828125 -1.2449951171875
9349118750.0 -0.6524658203125 -1.0687255859375
9380340625.0 -1.256591796875 -0.50909423828125
9411562500.0 -1.31011962890625 0.47540283203125
9442784375.0 -0.64892578125 1.11236572265625
9474006250.0 0.08819580078125 1.209716796875
9505228125.0 0.763031005859375 0.979400634765625
9536450000.0 1.27325439453125 0.31396484375
9567671875.0 1.14349365234375 -0.5811767578125
9598893750.0 0.53009033203125 -1.0662841796875
9630115625.0 -0.141845703125 -1.156005859375
9661337500.0 -0.815032958984375 -0.902496337890625
9692559375.0 -1.2366943359375 -0.19097900390625
9723781250.0 -1.04290771484375 0.60150146484375
9755003125.0 -0.4859619140625 1.04888916015625
9786225000.0 0.197265625 1.15802001953125
9817446875.0 0.892578125 0.827239990234375
9848668750.0 1.1959228515625 0.07965087890625
9879890625.0 0.967010498046875 -0.614044189453125
9911112500.0 0.45196533203125 -1.05010986328125
9942334375.0 -0.266845703125 -1.15850830078125
9973556250.0 -0.94189453125 -0.7386474609375
10004778125.0 -1.14630126953125 -0.0185546875
10036000000.0 -0.9439697265625 0.615386962890625
10067221875.0 -0.44183349609375 1.09710693359375
10098443750.0 0.3692626953125 1.18170166015625
10129665625.0 1.0010986328125 0.64312744140625
10160887500.0 1.118408203125 -0.0509033203125
10192109375.0 0.916839599609375 -0.66278076171875
10223331250.0 0.36151123046875 -1.15057373046875
10254553125.0 -0.48419189453125 -1.11260986328125
10285775000.0 -0.983917236328125 -0.5352783203125
10316996875.0 -1.0657958984375 0.07550048828125
10348218750.0 -0.899627685546875 0.667327880859375
10379440625.0 -0.32196044921875 1.17425537109375
10410662500.0 0.5247802734375 1.08526611328125
10441884375.0 0.99090576171875 0.522613525390625
10473106250.0 1.1072998046875 -0.08331298828125
10504328125.0 0.949371337890625 -0.75579833984375
10535550000.0 0.24005126953125 -1.2930908203125
10566771875.0 -0.656005859375 -1.075927734375
10597993750.0 -1.08074951171875 -0.457763671875
10629215625.0 -1.17376708984375 0.20428466796875
10660437500.0 -0.88702392578125 0.950714111328125
10691659375.0 -0.01092529296875 1.334716796875
10722881250.0 0.783660888671875 0.9517822265625
10754103125.0 1.11822509765625 0.3251953125
10785325000.0 1.13818359375 -0.364990234375
10816546875.0 0.7008056640625 -1.04620361328125
10847768750.0 -0.14501953125 -1.22802734375
10878990625.0 -0.802581787109375 -0.843994140625
10910212500.0 -1.12255859375 -0.24627685546875
10941434375.0 -1.09686279296875 0.47711181640625
10972656250.0 -0.56793212890625 1.08477783203125
11003878125.0 0.21661376953125 1.17315673828125
11035100000.0 0.84844970703125 0.820953369140625
11066321875.0 1.2197265625 0.175537109375
11097543750.0 1.09808349609375 -0.6773681640625
11128765625.0 0.38592529296875 -1.19677734375
11159987500.0 -0.3951416015625 -1.1375732421875
11191209375.0 -0.998260498046875 -0.7022705078125
11222431250.0 -1.2705078125 0.09271240234375
11253653125.0 -0.859283447265625 0.892364501953125
11284875000.0 -0.11468505859375 1.12567138671875
11316096875.0 0.5103759765625 0.956024169921875
11347318750.0 1.002685546875 0.50201416015625
11378540625.0 1.116455078125 -0.26971435546875
11409762500.0 0.63427734375 -0.859466552734375
11440984375.0 0.03515625 -0.97802734375
11472206250.0 -0.480438232421875 -0.85009765625
11503428125.0 -0.951629638671875 -0.456451416015625
11534650000.0 -1.0679931640625 0.28857421875
11565871875.0 -0.60211181640625 0.853668212890625
11597093750.0 -0.019134521484375 0.990142822265625
11628315625.0 0.543243408203125 0.87530517578125
11659537500.0 1.058837890625 0.39208984375
11690759375.0 1.0635986328125 -0.43292236328125
11721981250.0 0.51702880859375 -0.93951416015625
11753203125.0 -0.10565185546875 -1.03662109375
11784425000.0 -0.724273681640625 -0.808441162109375
11815646875.0 -1.10009765625 -0.1510009765625
11846868750.0 -0.89019775390625 0.55145263671875
11878090625.0 -0.390899658203125 0.908416748046875
11909312500.0 0.184906005859375 0.982086181640625
11940534375.0 0.779266357421875 0.6944580078125
11971756250.0 1.023193359375 0.04119873046875
12002978125.0 0.80670166015625 -0.536102294921875
12034200000.0 0.381561279296875 -0.888641357421875
12065421875.0 -0.21490478515625 -1.00994873046875
12096643750.0 -0.8472900390625 -0.664337158203125
12127865625.0 -1.03369140625 0.01629638671875
12159087500.0 -0.81524658203125 0.57330322265625
12190309375.0 -0.377716064453125 0.97412109375
12221531250.0 0.3367919921875 1.0860595703125
12252753125.0 0.97900390625 0.581207275390625
12283975000.0 1.0540771484375 -0.128173828125
12315196875.0 0.798919677734375 -0.674163818359375
12346418750.0 0.28131103515625 -1.09039306640625
12377640625.0 -0.537841796875 -1.05999755859375
12408862500.0 -1.03173828125 -0.4202880859375
12440084375.0 -1.00787353515625 0.22344970703125
12471306250.0 -0.742095947265625 0.735748291015625
12502528125.0 -0.1805419921875 1.11962890625
12533750000.0 0.618560791015625 0.992645263671875
12564971875.0 1.04156494140625 0.36328125
12596193750.0 1.02838134765625 -0.2630615234375
12627415625.0 0.7474365234375 -0.8289794921875
12658637500.0 0.08087158203125 -1.20660400390625
12689859375.0 -0.735382080078125 -0.965484619140625
12721081250.0 -1.115478515625 -0.3065185546875
12752303125.0 -1.0968017578125 0.3812255859375
12783525000.0 -0.685546875 1.02667236328125
12814746875.0 0.16448974609375 1.24969482421875
12845968750.0 0.864105224609375 0.81048583984375
12877190625.0 1.1165771484375 0.17242431640625
12908412500.0 1.0543212890625 -0.49993896484375
12939634375.0 0.54266357421875 -1.11468505859375
12970856250.0 -0.320556640625 -1.175048828125
13002078125.0 -0.894317626953125 -0.692962646484375
13033300000.0 -1.10430908203125 -0.08734130859375
13064521875.0 -1.009521484375 0.5941162109375
13095743750.0 -0.418701171875 1.15460205078125
13126965625.0 0.408447265625 1.1190185546875
13158187500.0 0.946258544921875 0.6317138671875
13189409375.0 1.14788818359375 -0.02056884765625
13220631250.0 0.93585205078125 -0.74658203125
13251853125.0 0.2340087890625 -1.17108154296875
13283075000.0 -0.5048828125 -1.018310546875
13314296875.0 -0.985565185546875 -0.52978515625
13345518750.0 -1.13433837890625 0.1773681640625
