!Created with skrf (http://scikit-rf.org).
# Hz S RI R 50.0 
!freq ReS11 ImS11
45000000.0 -0.07691574096679688 -0.09678268432617188
76221875.0 -0.196197509765625 -0.04763031005859375
107443750.0 -0.25494384765625 0.1192779541015625
138665625.0 -0.148345947265625 0.3281097412109375
169887500.0 0.123291015625 0.4172821044921875
201109375.0 0.4215240478515625 0.2808837890625
232331250.0 0.578460693359375 -0.057373046875
263553125.0 0.4894561767578125 -0.452239990234375
294775000.0 0.098785400390625 -0.73199462890625
325996875.0 -0.41461181640625 -0.680328369140625
357218750.0 -0.8052978515625 -0.297332763671875
388440625.0 -0.885040283203125 0.30010986328125
419662500.0 -0.517333984375 0.865570068359375
450884375.0 0.17236328125 1.0279541015625
482106250.0 0.79742431640625 0.712432861328125
513328125.0 1.11834716796875 0.08782958984375
544550000.0 1.00311279296875 -0.67877197265625
575771875.0 0.33685302734375 -1.2369384765625
606993750.0 -0.55267333984375 -1.176513671875
638215625.0 -1.164794921875 -0.5904541015625
669437500.0 -1.3388671875 0.233154296875
700659375.0 -0.970458984375 1.0948486328125
731881250.0 -0.00421142578125 1.54180908203125
763103125.0 1.00421142578125 1.15521240234375
794325000.0 1.46728515625 0.28204345703125
825546875.0 1.36614990234375 -0.6500244140625
856768750.0 0.79443359375 -1.39837646484375
887990625.0 -0.291015625 -1.64654541015625
919212500.0 -1.28564453125 -1.07769775390625
950434375.0 -1.64630126953125 -0.059814453125
981656250.0 -1.380859375 0.9439697265625
1012878125.0 -0.52947998046875 1.66961669921875
1044100000.0 0.6949462890625 1.66015625
1075321875.0 1.57171630859375 0.8116455078125
1106543750.0 1.70281982421875 -0.3118896484375
1137765625.0 1.1856689453125 -1.2811279296875
1168987500.0 0.13897705078125 -1.794677734375
1200209375.0 -1.05950927734375 -1.48223876953125
1231431250.0 -1.72479248046875 -0.45355224609375
1262653125.0 -1.59246826171875 0.6827392578125
1293875000.0 -0.851318359375 1.48919677734375
1325096875.0 0.227294921875 1.70465087890625
1356318750.0 1.23321533203125 1.21575927734375
1387540625.0 1.73760986328125 0.18939208984375
1418762500.0 1.46771240234375 -0.949462890625
1449984375.0 0.52886962890625 -1.62298583984375
1481206250.0 -0.54833984375 -1.55389404296875
1512428125.0 -1.3394775390625 -0.91912841796875
1543650000.0 -1.653076171875 0.06439208984375
1574871875.0 -1.2724609375 1.1065673828125
1606093750.0 -0.27325439453125 1.629150390625
1637315625.0 0.740478515625 1.39910888671875
1668537500.0 1.3936767578125 0.69561767578125
1699759375.0 1.571533203125 -0.2763671875
1730981250.0 1.0633544921875 -1.2271728515625
1762203125.0 0.04290771484375 -1.5682373046875
1793425000.0 -0.85418701171875 -1.22528076171875
1824646875.0 -1.39129638671875 -0.51470947265625
1855868750.0 -1.47216796875 0.43115234375
1887090625.0 -0.8741455078125 1.28289794921875
1918312500.0 0.116455078125 1.48468017578125
1949534375.0 0.91961669921875 1.08795166015625
1980756250.0 1.37274169921875 0.3699951171875
2011978125.0 1.35809326171875 -0.53033447265625
2043200000.0 0.749755859375 -1.25933837890625
2074421875.0 -0.156005859375 -1.4315185546875
2105643750.0 -0.95867919921875 -1.07159423828125
2136865625.0 -1.4454345703125 -0.30517578125
2168087500.0 -1.35546875 0.669921875
2199309375.0 -0.63861083984375 1.349365234375
2230531250.0 0.2806396484375 1.4342041015625
2261753125.0 1.07073974609375 1.01318359375
2292975000.0 1.51226806640625 0.17071533203125
2324196875.0 1.3040771484375 -0.81732177734375
2355418750.0 0.52490234375 -1.4180908203125
2386640625.0 -0.40283203125 -1.44677734375
2417862500.0 -1.1785888671875 -1.02313232421875
2449084375.0 -1.60186767578125 -0.08514404296875
2480306250.0 -1.309814453125 0.923583984375
2511528125.0 -0.49444580078125 1.5042724609375
2542750000.0 0.48748779296875 1.5343017578125
2573971875.0 1.367919921875 0.9674072265625
2605193750.0 1.71502685546875 -0.11187744140625
2636415625.0 1.2596435546875 -1.14923095703125
2667637500.0 0.306640625 -1.664306640625
2698859375.0 -0.76702880859375 -1.53155517578125
2730081250.0 -1.56964111328125 -0.74053955078125
2761303125.0 -1.6787109375 0.38665771484375
2792525000.0 -1.0982666015625 1.30438232421875
2823746875.0 -0.10333251953125 1.7259521484375
2854968750.0 1.009033203125 1.45355224609375
2886190625.0 1.68902587890625 0.49078369140625
2917412500.0 1.59722900390625 -0.615234375
2948634375.0 0.9381103515625 -1.43048095703125
2979856250.0 -0.10626220703125 -1.77264404296875
3011078125.0 -1.24493408203125 -1.3399658203125
3042300000.0 -1.77227783203125 -0.2349853515625
3073521875.0 -1.50640869140625 0.83538818359375
3104743750.0 -0.76324462890625 1.5640869140625
3135965625.0 0.359619140625 1.80535888671875
3167187500.0 1.49505615234375 1.16278076171875
3198409375.0 1.8126220703125 -0.0740966796875
3229631250.0 1.34722900390625 -1.07806396484375
3260853125.0 0.49029541015625 -1.664306640625
3292075000.0 -0.65313720703125 -1.69549560546875
3323296875.0 -1.6162109375 -0.87872314453125
3354518750.0 -1.72705078125 0.32659912109375
3385740625.0 -1.154296875 1.22930908203125
3416962500.0 -0.23138427734375 1.678955078125
3448184375.0 0.85809326171875 1.519287109375
3479406250.0 1.63238525390625 0.64398193359375
3510628125.0 1.64105224609375 -0.49298095703125
3541850000.0 0.99847412109375 -1.35205078125
3573071875.0 -0.00665283203125 -1.67950439453125
3604293750.0 -1.02545166015625 -1.33587646484375
3635515625.0 -1.624755859375 -0.4381103515625
3666737500.0 -1.55877685546875 0.6436767578125
3697959375.0 -0.82415771484375 1.4727783203125
3729181250.0 0.2664794921875 1.627685546875
3760403125.0 1.14947509765625 1.0970458984375
3791625000.0 1.54937744140625 0.218505859375
3822846875.0 1.39886474609375 -0.75799560546875
3854068750.0 0.62054443359375 -1.4779052734375
3885290625.0 -0.420654296875 -1.47906494140625
3916512500.0 -1.1383056640625 -0.90966796875
3947734375.0 -1.4453125 -0.12042236328125
3978956250.0 -1.2952880859375 0.77685546875
4010178125.0 -0.53155517578125 1.45068359375
4041400000.0 0.47222900390625 1.41363525390625
4072621875.0 1.14935302734375 0.846923828125
4103843750.0 1.44134521484375 0.06463623046875
4135065625.0 1.26617431640625 -0.8443603515625
4166287500.0 0.4576416015625 -1.493408203125
4197509375.0 -0.5552978515625 -1.41302490234375
4228731250.0 -1.2452392578125 -0.80206298828125
4259953125.0 -1.50604248046875 0.06939697265625
4291175000.0 -1.18701171875 1.0086669921875
4322396875.0 -0.29010009765625 1.52392578125
4353618750.0 0.67010498046875 1.34759521484375
4384840625.0 1.3187255859375 0.69683837890625
4416062500.0 1.4989013671875 -0.2271728515625
4447284375.0 1.053955078125 -1.10076904296875
4478506250.0 0.173583984375 -1.4927978515625
4509728125.0 -0.72967529296875 -1.3052978515625
4540950000.0 -1.3912353515625 -0.6356201171875
4572171875.0 -1.52008056640625 0.358642578125
4603393750.0 -0.97186279296875 1.2099609375
4634615625.0 -0.06170654296875 1.53564453125
4665837500.0 0.86798095703125 1.30322265625
4697059375.0 1.5374755859375 0.5157470703125
4728281250.0 1.52685546875 -0.58099365234375
4759503125.0 0.82208251953125 -1.36431884765625
4790725000.0 -0.14434814453125 -1.5701904296875
4821946875.0 -1.080810546875 -1.19268798828125
4853168750.0 -1.610595703125 -0.25103759765625
4884390625.0 -1.37689208984375 0.79205322265625
4915612500.0 -0.6134033203125 1.4102783203125
4946834375.0 0.32666015625 1.50714111328125
4978056250.0 1.20208740234375 1.01611328125
5009278125.0 1.55908203125 0.04010009765625
5040500000.0 1.2283935546875 -0.87396240234375
5071721875.0 0.5020751953125 -1.41180419921875
5102943750.0 -0.44427490234375 -1.494140625
5134165625.0 -1.3348388671875 -0.90478515625
5165387500.0 -1.56573486328125 0.145263671875
5196609375.0 -1.13446044921875 1.00653076171875
5227831250.0 -0.35784912109375 1.50360107421875
5259053125.0 0.68707275390625 1.4908447265625
5290275000.0 1.51904296875 0.6622314453125
5321496875.0 1.48968505859375 -0.42803955078125
5352718750.0 0.920166015625 -1.15020751953125
5383940625.0 0.09710693359375 -1.49761962890625
5415162500.0 -0.8994140625 -1.282958984375
5446384375.0 -1.48175048828125 -0.37078857421875
5477606250.0 -1.29754638671875 0.56536865234375
5508828125.0 -0.73095703125 1.14849853515625
5540050000.0 0.0538330078125 1.39642333984375
5571271875.0 0.93695068359375 1.10845947265625
5602493750.0 1.4068603515625 0.25994873046875
5633715625.0 1.2308349609375 -0.611328125
5664937500.0 0.64739990234375 -1.20013427734375
5696159375.0 -0.19683837890625 -1.38189697265625
5727381250.0 -1.020751953125 -0.9776611328125
5758603125.0 -1.39007568359375 -0.14447021484375
5789825000.0 -1.19281005859375 0.716796875
5821046875.0 -0.50579833984375 1.3045654296875
5852268750.0 0.4102783203125 1.3116455078125
5883490625.0 1.06939697265625 0.77099609375
5914712500.0 1.30078125 0.020751953125
5945934375.0 1.09564208984375 -0.774658203125
5977156250.0 0.3616943359375 -1.31024169921875
6008378125.0 -0.5084228515625 -1.18084716796875
6039600000.0 -1.01971435546875 -0.649169921875
6070821875.0 -1.22296142578125 -0.00482177734375
6102043750.0 -1.082275390625 0.76153564453125
6133265625.0 -0.34234619140625 1.34295654296875
6164487500.0 0.5623779296875 1.186279296875
6195709375.0 1.0692138671875 0.62933349609375
6226931250.0 1.2781982421875 -0.0421142578125
6258153125.0 1.10302734375 -0.869384765625
6289375000.0 0.25665283203125 -1.44366455078125
6320596875.0 -0.6875 -1.2044677734375
6351818750.0 -1.19818115234375 -0.57171630859375
6383040625.0 -1.35211181640625 0.2054443359375
6414262500.0 -0.99908447265625 1.05450439453125
6445484375.0 -0.07965087890625 1.4534912109375
6476706250.0 0.7940673828125 1.14697265625
6507928125.0 1.28863525390625 0.469970703125
6539150000.0 1.34613037109375 -0.38604736328125
6570371875.0 0.840576171875 -1.1416015625
6601593750.0 -0.0166015625 -1.4033203125
6632815625.0 -0.83868408203125 -1.1351318359375
6664037500.0 -1.399658203125 -0.42041015625
6695259375.0 -1.373046875 0.56536865234375
6726481250.0 -0.7098388671875 1.250244140625
6757703125.0 0.1300048828125 1.4053955078125
6788925000.0 0.95306396484375 1.12982177734375
6820146875.0 1.558349609375 0.28765869140625
6851368750.0 1.32421875 -0.81890869140625
6882590625.0 0.50665283203125 -1.33563232421875
6913812500.0 -0.2908935546875 -1.354248046875
6945034375.0 -1.0682373046875 -1.0203857421875
6976256250.0 -1.59100341796875 -0.09307861328125
7007478125.0 -1.23468017578125 0.92962646484375
7038700000.0 -0.40228271484375 1.3409423828125
7069921875.0 0.35626220703125 1.3209228515625
7101143750.0 1.11553955078125 0.967529296875
7132365625.0 1.59747314453125 0.01513671875
7163587500.0 1.1573486328125 -1.01995849609375
7194809375.0 0.30230712890625 -1.3961181640625
7226031250.0 -0.50921630859375 -1.323486328125
7257253125.0 -1.267333984375 -0.82293701171875
7288475000.0 -1.55621337890625 0.197021484375
7319696875.0 -1.02886962890625 1.1094970703125
7350918750.0 -0.16595458984375 1.44049072265625
7382140625.0 0.71392822265625 1.27593994140625
7413362500.0 1.37353515625 0.5758056640625
7444584375.0 1.4100341796875 -0.4053955078125
7475806250.0 0.85687255859375 -1.1417236328125
7507028125.0 0.00494384765625 -1.4283447265625
7538250000.0 -0.88543701171875 -1.1231689453125
7569471875.0 -1.3338623046875 -0.31182861328125
7600693750.0 -1.20062255859375 0.49566650390625
7631915625.0 -0.717041015625 1.08502197265625
7663137500.0 0.0792236328125 1.35736083984375
7694359375.0 0.93963623046875 0.97918701171875
7725581250.0 1.24188232421875 0.18072509765625
7756803125.0 1.0826416015625 -0.49896240234375
7788025000.0 0.66998291015625 -1.04046630859375
7819246875.0 -0.1195068359375 -1.34600830078125
7850468750.0 -0.991973876953125 -0.914794921875
7881690625.0 -1.22979736328125 -0.10614013671875
7912912500.0 -1.053955078125 0.553466796875
7944134375.0 -0.60498046875 1.11029052734375
7975356250.0 0.27191162109375 1.3341064453125
8006578125.0 1.0445556640625 0.778076171875
8037800000.0 1.1925048828125 0.0172119140625
8069021875.0 1.0057373046875 -0.6160888671875
8100243750.0 0.49945068359375 -1.16058349609375
8131465625.0 -0.38543701171875 -1.2537841796875
8162687500.0 -1.03094482421875 -0.68658447265625
8193909375.0 -1.177978515625 0.0076904296875
8225131250.0 -1.01763916015625 0.6787109375
8256353125.0 -0.42236328125 1.24700927734375
8287575000.0 0.498779296875 1.225341796875
8318796875.0 1.08050537109375 0.63580322265625
8350018750.0 1.2431640625 -0.07379150390625
8381240625.0 1.03118896484375 -0.83746337890625
8412462500.0 0.25421142578125 -1.37274169921875
8443684375.0 -0.66693115234375 -1.16912841796875
8474906250.0 -1.17401123046875 -0.53204345703125
8506128125.0 -1.29742431640625 0.23681640625
8537350000.0 -0.9228515625 1.0435791015625
8568571875.0 -0.0152587890625 1.39434814453125
8599793750.0 0.79913330078125 1.05230712890625
8631015625.0 1.23944091796875 0.3980712890625
8662237500.0 1.28497314453125 -0.42803955078125
8693459375.0 0.73614501953125 -1.17578125
8724681250.0 -0.15985107421875 -1.328857421875
8755903125.0 -0.879913330078125 -0.95672607421875
8787125000.0 -1.302978515625 -0.28106689453125
8818346875.0 -1.25006103515625 0.61322021484375
8849568750.0 -0.55731201171875 1.25933837890625
8880790625.0 0.297119140625 1.28375244140625
8912012500.0 0.978668212890625 0.89208984375
8943234375.0 1.39739990234375 0.12933349609375
8974456250.0 1.16632080078125 -0.84027099609375
9005678125.0 0.34844970703125 -1.3116455078125
9036900000.0 -0.44268798828125 -1.223876953125
9068121875.0 -1.09906005859375 -0.78485107421875
9099343750.0 -1.43853759765625 0.0943603515625
9130565625.0 -0.97930908203125 1.01043701171875
9161787500.0 -0.15386962890625 1.2823486328125
9193009375.0 0.55303955078125 1.1334228515625
9224231250.0 1.17779541015625 0.6549072265625
9255453125.0 1.39886474609375 -0.29522705078125
9286675000.0 0.80718994140625 -1.085693359375
9317896875.0 0.0272216796875 -1.24432373046875
9349118750.0 -0.65350341796875 -1.06939697265625
9380340625.0 -1.256103515625 -0.509765625
9411562500.0 -1.31085205078125 0.474853515625
9442784375.0 -0.6475830078125 1.1141357421875
9474006250.0 0.08905029296875 1.2100830078125
9505228125.0 0.763702392578125 0.9796142578125
9536450000.0 1.27362060546875 0.311279296875
9567671875.0 1.142822265625 -0.57763671875
9598893750.0 0.53094482421875 -1.067138671875
9630115625.0 -0.143798828125 -1.1568603515625
9661337500.0 -0.818115234375 -0.90167236328125
9692559375.0 -1.2374267578125 -0.190185546875
9723781250.0 -1.04193115234375 0.6014404296875
9755003125.0 -0.486083984375 1.04876708984375
9786225000.0 0.19781494140625 1.15869140625
9817446875.0 0.89276123046875 0.82794189453125
9848668750.0 1.19403076171875 0.08050537109375
9879890625.0 0.967437744140625 -0.615234375
9911112500.0 0.452880859375 -1.05059814453125
9942334375.0 -0.2669677734375 -1.1590576171875
9973556250.0 -0.942962646484375 -0.737579345703125
10004778125.0 -1.1439208984375 -0.01849365234375
10036000000.0 -0.9429931640625 0.615020751953125
10067221875.0 -0.44207763671875 1.09552001953125
10098443750.0 0.36968994140625 1.18084716796875
10129665625.0 1.0020751953125 0.64361572265625
10160887500.0 1.119384765625 -0.051513671875
10192109375.0 0.917083740234375 -0.66192626953125
10223331250.0 0.36126708984375 -1.1512451171875
10254553125.0 -0.48541259765625 -1.1131591796875
10285775000.0 -0.9835205078125 -0.535308837890625
10316996875.0 -1.06536865234375 0.07464599609375
10348218750.0 -0.89971923828125 0.669677734375
10379440625.0 -0.3233642578125 1.1722412109375
10410662500.0 0.52642822265625 1.0853271484375
10441884375.0 0.99249267578125 0.520782470703125
10473106250.0 1.10736083984375 -0.0831298828125
10504328125.0 0.948577880859375 -0.7545166015625
10535550000.0 0.2392578125 -1.294921875
10566771875.0 -0.65765380859375 -1.07623291015625
10597993750.0 -1.08123779296875 -0.4573974609375
10629215625.0 -1.17498779296875 0.20501708984375
10660437500.0 -0.886566162109375 0.94927978515625
10691659375.0 -0.0103759765625 1.33453369140625
10722881250.0 0.784027099609375 0.950897216796875
10754103125.0 1.1185302734375 0.3253173828125
10785325000.0 1.1376953125 -0.36529541015625
10816546875.0 0.69970703125 -1.04730224609375
10847768750.0 -0.14324951171875 -1.22808837890625
10878990625.0 -0.80108642578125 -0.843963623046875
10910212500.0 -1.12188720703125 -0.24560546875
10941434375.0 -1.09674072265625 0.47576904296875
10972656250.0 -0.56817626953125 1.0833740234375
11003878125.0 0.21533203125 1.1727294921875
11035100000.0 0.8468017578125 0.821929931640625
11066321875.0 1.22003173828125 0.174072265625
11097543750.0 1.0968017578125 -0.67523193359375
11128765625.0 0.3857421875 -1.19677734375
11159987500.0 -0.3978271484375 -1.13861083984375
11191209375.0 -0.999542236328125 -0.701171875
11222431250.0 -1.27142333984375 0.09246826171875
11253653125.0 -0.858154296875 0.892242431640625
11284875000.0 -0.114501953125 1.12579345703125
11316096875.0 0.511138916015625 0.955841064453125
11347318750.0 1.000732421875 0.50213623046875
11378540625.0 1.11688232421875 -0.26934814453125
11409762500.0 0.634490966796875 -0.8602294921875
11440984375.0 0.035858154296875 -0.977508544921875
11472206250.0 -0.479888916015625 -0.850006103515625
11503428125.0 -0.9521484375 -0.456390380859375
11534650000.0 -1.06866455078125 0.2880859375
11565871875.0 -0.601806640625 0.853546142578125
11597093750.0 -0.0191650390625 0.99053955078125
11628315625.0 0.544769287109375 0.874908447265625
11659537500.0 1.05914306640625 0.3936767578125
11690759375.0 1.0645751953125 -0.43310546875
11721981250.0 0.51702880859375 -0.939788818359375
11753203125.0 -0.10577392578125 -1.03631591796875
11784425000.0 -0.723114013671875 -0.807586669921875
11815646875.0 -1.1005859375 -0.15093994140625
11846868750.0 -0.890380859375 0.55029296875
11878090625.0 -0.39068603515625 0.909027099609375
11909312500.0 0.186187744140625 0.983306884765625
11940534375.0 0.78033447265625 0.69573974609375
11971756250.0 1.0238037109375 0.0404052734375
12002978125.0 0.80584716796875 -0.53662109375
12034200000.0 0.382293701171875 -0.888946533203125
12065421875.0 -0.21435546875 -1.00946044921875
12096643750.0 -0.845794677734375 -0.66485595703125
12127865625.0 -1.0335693359375 0.0172119140625
12159087500.0 -0.814788818359375 0.57635498046875
12190309375.0 -0.377532958984375 0.974609375
12221531250.0 0.3404541015625 1.08892822265625
12252753125.0 0.977935791015625 0.580902099609375
12283975000.0 1.05340576171875 -0.1275634765625
12315196875.0 0.799041748046875 -0.6754150390625
12346418750.0 0.28179931640625 -1.0897216796875
12377640625.0 -0.53741455078125 -1.05950927734375
12408862500.0 -1.03302001953125 -0.419921875
12440084375.0 -1.00811767578125 0.22430419921875
12471306250.0 -0.74127197265625 0.73822021484375
12502528125.0 -0.17901611328125 1.12054443359375
12533750000.0 0.62103271484375 0.993011474609375
12564971875.0 1.03985595703125 0.3634033203125
12596193750.0 1.0283203125 -0.26434326171875
12627415625.0 0.748077392578125 -0.829315185546875
12658637500.0 0.0802001953125 -1.20587158203125
12689859375.0 -0.734832763671875 -0.966156005859375
12721081250.0 -1.11614990234375 -0.30584716796875
12752303125.0 -1.0966796875 0.382080078125
12783525000.0 -0.68670654296875 1.02703857421875
12814746875.0 0.1629638671875 1.24932861328125
12845968750.0 0.8626708984375 0.809967041015625
12877190625.0 1.11627197265625 0.17193603515625
12908412500.0 1.054931640625 -0.50140380859375
12939634375.0 0.54241943359375 -1.1170654296875
12970856250.0 -0.32159423828125 -1.17449951171875
13002078125.0 -0.892242431640625 -0.69281005859375
13033300000.0 -1.10357666015625 -0.08795166015625
13064521875.0 -1.00836181640625 0.593017578125
13095743750.0 -0.419189453125 1.15643310546875
13126965625.0 0.4091796875 1.11981201171875
13158187500.0 0.94671630859375 0.6309814453125
13189409375.0 1.14697265625 -0.0206298828125
13220631250.0 0.93634033203125 -0.749664306640625
13251853125.0 0.2354736328125 -1.1707763671875
13283075000.0 -0.507568359375 -1.019287109375
13314296875.0 -0.987274169921875 -0.529327392578125
13345518750.0 -1.1329345703125 0.17657470703125
