!Created with skrf (http://scikit-rf.org).
# Hz S RI R 50.0 
!freq ReS11 ImS11
45000000.0 -0.0771026611328125 -0.0968017578125
76221875.0 -0.1963043212890625 -0.04744720458984375
107443750.0 -0.2548675537109375 0.11981201171875
138665625.0 -0.14801025390625 0.3284912109375
169887500.0 0.1236419677734375 0.4174041748046875
201109375.0 0.4216766357421875 0.280731201171875
232331250.0 0.57861328125 -0.057647705078125
263553125.0 0.489105224609375 -0.452728271484375
294775000.0 0.098114013671875 -0.73223876953125
325996875.0 -0.415496826171875 -0.68017578125
357218750.0 -0.805816650390625 -0.2965087890625
388440625.0 -0.88494873046875 0.30096435546875
419662500.0 -0.51666259765625 0.865814208984375
450884375.0 0.17340087890625 1.02801513671875
482106250.0 0.798248291015625 0.71185302734375
513328125.0 1.1185302734375 0.08685302734375
544550000.0 1.0028076171875 -0.6798095703125
575771875.0 0.3358154296875 -1.237548828125
606993750.0 -0.55389404296875 -1.17626953125
638215625.0 -1.1650390625 -0.5892333984375
669437500.0 -1.33880615234375 0.23394775390625
700659375.0 -0.96990966796875 1.09552001953125
731881250.0 -0.00341796875 1.541748046875
763103125.0 1.005126953125 1.15447998046875
794325000.0 1.467529296875 0.28076171875
825546875.0 1.36572265625 -0.65118408203125
856768750.0 0.79351806640625 -1.3992919921875
887990625.0 -0.29315185546875 -1.64703369140625
919212500.0 -1.28741455078125 -1.0771484375
950434375.0 -1.647216796875 -0.05828857421875
981656250.0 -1.38067626953125 0.945068359375
1012878125.0 -0.5286865234375 1.67022705078125
1044100000.0 0.69671630859375 1.6595458984375
1075321875.0 1.57305908203125 0.81072998046875
1106543750.0 1.70257568359375 -0.313232421875
1137765625.0 1.18499755859375 -1.28302001953125
1168987500.0 0.136962890625 -1.7952880859375
1200209375.0 -1.0609130859375 -1.481689453125
1231431250.0 -1.72552490234375 -0.4525146484375
1262653125.0 -1.59222412109375 0.6844482421875
1293875000.0 -0.85076904296875 1.489990234375
1325096875.0 0.228271484375 1.70465087890625
1356318750.0 1.234130859375 1.21466064453125
1387540625.0 1.73748779296875 0.188232421875
1418762500.0 1.46734619140625 -0.95037841796875
1449984375.0 0.52838134765625 -1.6240234375
1481206250.0 -0.5498046875 -1.55438232421875
1512428125.0 -1.34039306640625 -0.9180908203125
1543650000.0 -1.65374755859375 0.06585693359375
1574871875.0 -1.271728515625 1.108154296875
1606093750.0 -0.27191162109375 1.62939453125
1637315625.0 0.7415771484375 1.39862060546875
1668537500.0 1.39453125 0.69476318359375
1699759375.0 1.5712890625 -0.27740478515625
1730981250.0 1.06231689453125 -1.22784423828125
1762203125.0 0.04168701171875 -1.56829833984375
1793425000.0 -0.85479736328125 -1.22467041015625
1824646875.0 -1.3917236328125 -0.51409912109375
1855868750.0 -1.47174072265625 0.431396484375
1887090625.0 -0.8736572265625 1.2840576171875
1918312500.0 0.11712646484375 1.48480224609375
1949534375.0 0.92059326171875 1.08770751953125
1980756250.0 1.37371826171875 0.3692626953125
2011978125.0 1.35772705078125 -0.53118896484375
2043200000.0 0.748779296875 -1.25982666015625
2074421875.0 -0.157470703125 -1.4315185546875
2105643750.0 -0.95904541015625 -1.07110595703125
2136865625.0 -1.44580078125 -0.30413818359375
2168087500.0 -1.35540771484375 0.67034912109375
2199309375.0 -0.6376953125 1.3497314453125
2230531250.0 0.28167724609375 1.43414306640625
2261753125.0 1.07147216796875 1.01263427734375
2292975000.0 1.51239013671875 0.17022705078125
2324196875.0 1.3035888671875 -0.81787109375
2355418750.0 0.524169921875 -1.4185791015625
2386640625.0 -0.40423583984375 -1.447265625
2417862500.0 -1.17877197265625 -1.0223388671875
2449084375.0 -1.6031494140625 -0.08355712890625
2480306250.0 -1.3092041015625 0.92449951171875
2511528125.0 -0.49273681640625 1.5057373046875
2542750000.0 0.487548828125 1.53326416015625
2573971875.0 1.36920166015625 0.96636962890625
2605193750.0 1.713623046875 -0.11126708984375
2636415625.0 1.25958251953125 -1.149658203125
2667637500.0 0.3052978515625 -1.6644287109375
2698859375.0 -0.7685546875 -1.53155517578125
2730081250.0 -1.57012939453125 -0.73907470703125
2761303125.0 -1.6783447265625 0.38739013671875
2792525000.0 -1.0966796875 1.30523681640625
2823746875.0 -0.10107421875 1.72711181640625
2854968750.0 1.010498046875 1.4521484375
2886190625.0 1.68829345703125 0.49090576171875
2917412500.0 1.59698486328125 -0.6160888671875
2948634375.0 0.9375 -1.42987060546875
2979856250.0 -0.10821533203125 -1.7733154296875
3011078125.0 -1.24462890625 -1.34014892578125
3042300000.0 -1.7718505859375 -0.2344970703125
3073521875.0 -1.5064697265625 0.83697509765625
3104743750.0 -0.76220703125 1.56597900390625
3135965625.0 0.36077880859375 1.8045654296875
3167187500.0 1.49676513671875 1.1619873046875
3198409375.0 1.8133544921875 -0.0760498046875
3229631250.0 1.3460693359375 -1.07977294921875
3260853125.0 0.48870849609375 -1.665283203125
3292075000.0 -0.65472412109375 -1.69500732421875
3323296875.0 -1.61651611328125 -0.87762451171875
3354518750.0 -1.72735595703125 0.328369140625
3385740625.0 -1.1536865234375 1.230224609375
3416962500.0 -0.231201171875 1.6787109375
3448184375.0 0.85791015625 1.5186767578125
3479406250.0 1.63323974609375 0.6429443359375
3510628125.0 1.64202880859375 -0.49578857421875
3541850000.0 0.99847412109375 -1.353271484375
3573071875.0 -0.00689697265625 -1.678955078125
3604293750.0 -1.02532958984375 -1.33538818359375
3635515625.0 -1.62408447265625 -0.43804931640625
3666737500.0 -1.559326171875 0.6456298828125
3697959375.0 -0.8238525390625 1.47314453125
3729181250.0 0.2672119140625 1.6273193359375
3760403125.0 1.1502685546875 1.0960693359375
3791625000.0 1.548828125 0.218505859375
3822846875.0 1.39923095703125 -0.7601318359375
3854068750.0 0.619140625 -1.478271484375
3885290625.0 -0.4202880859375 -1.47845458984375
3916512500.0 -1.13958740234375 -0.909423828125
3947734375.0 -1.44525146484375 -0.11944580078125
3978956250.0 -1.295166015625 0.77764892578125
4010178125.0 -0.5308837890625 1.45166015625
4041400000.0 0.47174072265625 1.41302490234375
4072621875.0 1.14984130859375 0.84649658203125
4103843750.0 1.442626953125 0.0634765625
4135065625.0 1.26568603515625 -0.84381103515625
4166287500.0 0.456787109375 -1.49444580078125
4197509375.0 -0.5565185546875 -1.4129638671875
4228731250.0 -1.24468994140625 -0.80224609375
4259953125.0 -1.50634765625 0.070068359375
4291175000.0 -1.1868896484375 1.00958251953125
4322396875.0 -0.28948974609375 1.52386474609375
4353618750.0 0.671875 1.34783935546875
4384840625.0 1.3201904296875 0.696044921875
4416062500.0 1.4979248046875 -0.22698974609375
4447284375.0 1.0535888671875 -1.10260009765625
4478506250.0 0.171630859375 -1.49322509765625
4509728125.0 -0.73138427734375 -1.30584716796875
4540950000.0 -1.39141845703125 -0.63507080078125
4572171875.0 -1.520263671875 0.35870361328125
4603393750.0 -0.9710693359375 1.2095947265625
4634615625.0 -0.06146240234375 1.53424072265625
4665837500.0 0.86865234375 1.30206298828125
4697059375.0 1.53900146484375 0.51409912109375
4728281250.0 1.5264892578125 -0.58123779296875
4759503125.0 0.82244873046875 -1.36444091796875
4790725000.0 -0.14501953125 -1.57061767578125
4821946875.0 -1.08123779296875 -1.19183349609375
4853168750.0 -1.61090087890625 -0.2508544921875
4884390625.0 -1.3759765625 0.791748046875
4915612500.0 -0.6129150390625 1.40997314453125
4946834375.0 0.32757568359375 1.50634765625
4978056250.0 1.203369140625 1.01580810546875
5009278125.0 1.5592041015625 0.03961181640625
5040500000.0 1.227294921875 -0.87384033203125
5071721875.0 0.50067138671875 -1.41302490234375
5102943750.0 -0.4464111328125 -1.49432373046875
5134165625.0 -1.33245849609375 -0.9046630859375
5165387500.0 -1.56597900390625 0.14508056640625
5196609375.0 -1.13519287109375 1.00732421875
5227831250.0 -0.357177734375 1.5048828125
5259053125.0 0.68621826171875 1.49017333984375
5290275000.0 1.5198974609375 0.6617431640625
5321496875.0 1.49072265625 -0.42962646484375
5352718750.0 0.91973876953125 -1.15155029296875
5383940625.0 0.09674072265625 -1.498779296875
5415162500.0 -0.899169921875 -1.28167724609375
5446384375.0 -1.48193359375 -0.36981201171875
5477606250.0 -1.297119140625 0.56439208984375
5508828125.0 -0.73040771484375 1.14996337890625
5540050000.0 0.05401611328125 1.396484375
5571271875.0 0.93743896484375 1.10736083984375
5602493750.0 1.4058837890625 0.26043701171875
5633715625.0 1.2303466796875 -0.6107177734375
5664937500.0 0.64788818359375 -1.19927978515625
5696159375.0 -0.1962890625 -1.38140869140625
5727381250.0 -1.02093505859375 -0.97723388671875
5758603125.0 -1.38946533203125 -0.14520263671875
5789825000.0 -1.1927490234375 0.716796875
5821046875.0 -0.50592041015625 1.3056640625
5852268750.0 0.41058349609375 1.31146240234375
5883490625.0 1.06939697265625 0.77117919921875
5914712500.0 1.30078125 0.0198974609375
5945934375.0 1.09515380859375 -0.7745361328125
5977156250.0 0.36090087890625 -1.31072998046875
6008378125.0 -0.5081787109375 -1.18115234375
6039600000.0 -1.0213623046875 -0.648193359375
6070821875.0 -1.222900390625 -0.004638671875
6102043750.0 -1.08197021484375 0.7611083984375
6133265625.0 -0.3421630859375 1.34283447265625
6164487500.0 0.5628662109375 1.18658447265625
6195709375.0 1.06915283203125 0.6295166015625
6226931250.0 1.2784423828125 -0.04278564453125
6258153125.0 1.10333251953125 -0.8695068359375
6289375000.0 0.25640869140625 -1.44384765625
6320596875.0 -0.68829345703125 -1.20489501953125
6351818750.0 -1.19903564453125 -0.5718994140625
6383040625.0 -1.35321044921875 0.2064208984375
6414262500.0 -0.9989013671875 1.05499267578125
6445484375.0 -0.07867431640625 1.45556640625
6476706250.0 0.794677734375 1.14691162109375
6507928125.0 1.2877197265625 0.469970703125
6539150000.0 1.34588623046875 -0.38555908203125
6570371875.0 0.8404541015625 -1.1435546875
6601593750.0 -0.01739501953125 -1.40350341796875
6632815625.0 -0.83843994140625 -1.1348876953125
6664037500.0 -1.3990478515625 -0.42034912109375
6695259375.0 -1.3724365234375 0.564697265625
6726481250.0 -0.70977783203125 1.25030517578125
6757703125.0 0.1302490234375 1.40557861328125
6788925000.0 0.955078125 1.1297607421875
6820146875.0 1.5574951171875 0.2879638671875
6851368750.0 1.32464599609375 -0.817626953125
6882590625.0 0.5057373046875 -1.33746337890625
6913812500.0 -0.29193115234375 -1.35528564453125
6945034375.0 -1.06671142578125 -1.02044677734375
6976256250.0 -1.59051513671875 -0.0941162109375
7007478125.0 -1.23394775390625 0.92974853515625
7038700000.0 -0.40142822265625 1.3421630859375
7069921875.0 0.357666015625 1.32147216796875
7101143750.0 1.11529541015625 0.9683837890625
7132365625.0 1.59539794921875 0.01544189453125
7163587500.0 1.15655517578125 -1.021240234375
7194809375.0 0.30157470703125 -1.39617919921875
7226031250.0 -0.5120849609375 -1.323974609375
7257253125.0 -1.26678466796875 -0.824462890625
7288475000.0 -1.55712890625 0.19757080078125
7319696875.0 -1.030029296875 1.106201171875
7350918750.0 -0.1650390625 1.44219970703125
7382140625.0 0.7139892578125 1.2745361328125
7413362500.0 1.37445068359375 0.576171875
7444584375.0 1.409423828125 -0.403564453125
7475806250.0 0.8572998046875 -1.1424560546875
7507028125.0 0.00469970703125 -1.427978515625
7538250000.0 -0.8861083984375 -1.12451171875
7569471875.0 -1.33331298828125 -0.31103515625
7600693750.0 -1.20166015625 0.49658203125
7631915625.0 -0.716796875 1.08551025390625
7663137500.0 0.08013916015625 1.35675048828125
7694359375.0 0.937744140625 0.9796142578125
7725581250.0 1.24261474609375 0.18011474609375
7756803125.0 1.0816650390625 -0.49945068359375
7788025000.0 0.6693115234375 -1.04058837890625
7819246875.0 -0.12005615234375 -1.34503173828125
7850468750.0 -0.99127197265625 -0.91534423828125
7881690625.0 -1.23077392578125 -0.10516357421875
7912912500.0 -1.053466796875 0.55242919921875
7944134375.0 -0.6053466796875 1.11041259765625
7975356250.0 0.27008056640625 1.33343505859375
8006578125.0 1.04541015625 0.77838134765625
8037800000.0 1.19171142578125 0.01641845703125
8069021875.0 1.00543212890625 -0.61627197265625
8100243750.0 0.50115966796875 -1.15692138671875
8131465625.0 -0.387939453125 -1.2542724609375
8162687500.0 -1.02984619140625 -0.68646240234375
8193909375.0 -1.17987060546875 0.00775146484375
8225131250.0 -1.01727294921875 0.67706298828125
8256353125.0 -0.4212646484375 1.24774169921875
8287575000.0 0.49981689453125 1.224853515625
8318796875.0 1.0806884765625 0.63421630859375
8350018750.0 1.2431640625 -0.07452392578125
8381240625.0 1.02984619140625 -0.837158203125
8412462500.0 0.25390625 -1.3714599609375
8443684375.0 -0.6666259765625 -1.16876220703125
8474906250.0 -1.17327880859375 -0.5316162109375
8506128125.0 -1.29742431640625 0.2369384765625
8537350000.0 -0.9239501953125 1.044677734375
8568571875.0 -0.01666259765625 1.39263916015625
8599793750.0 0.7998046875 1.05230712890625
8631015625.0 1.23822021484375 0.39990234375
8662237500.0 1.28546142578125 -0.42938232421875
8693459375.0 0.7359619140625 -1.17578125
8724681250.0 -0.1624755859375 -1.3297119140625
8755903125.0 -0.878265380859375 -0.956695556640625
8787125000.0 -1.30316162109375 -0.281494140625
8818346875.0 -1.25042724609375 0.614501953125
8849568750.0 -0.556884765625 1.25927734375
8880790625.0 0.29876708984375 1.2835693359375
8912012500.0 0.9794921875 0.892120361328125
8943234375.0 1.399169921875 0.12835693359375
8974456250.0 1.166259765625 -0.8372802734375
9005678125.0 0.349609375 -1.30999755859375
9036900000.0 -0.446044921875 -1.22515869140625
9068121875.0 -1.10076904296875 -0.7864990234375
9099343750.0 -1.4400634765625 0.0970458984375
9130565625.0 -0.979248046875 1.009521484375
9161787500.0 -0.15399169921875 1.283203125
9193009375.0 0.5531005859375 1.13348388671875
9224231250.0 1.1785888671875 0.6552734375
9255453125.0 1.39862060546875 -0.297119140625
9286675000.0 0.80670166015625 -1.084228515625
9317896875.0 0.02679443359375 -1.24609375
9349118750.0 -0.65008544921875 -1.068359375
9380340625.0 -1.256591796875 -0.51043701171875
9411562500.0 -1.30938720703125 0.4752197265625
9442784375.0 -0.64862060546875 1.1143798828125
9474006250.0 0.08837890625 1.210205078125
9505228125.0 0.76458740234375 0.979248046875
9536450000.0 1.2720947265625 0.3135986328125
9567671875.0 1.14306640625 -0.57989501953125
9598893750.0 0.528076171875 -1.068115234375
9630115625.0 -0.14471435546875 -1.1583251953125
9661337500.0 -0.816650390625 -0.90142822265625
9692559375.0 -1.23779296875 -0.19134521484375
9723781250.0 -1.042724609375 0.60174560546875
9755003125.0 -0.48583984375 1.04827880859375
9786225000.0 0.19866943359375 1.15899658203125
9817446875.0 0.89642333984375 0.82733154296875
9848668750.0 1.19720458984375 0.078857421875
9879890625.0 0.968414306640625 -0.616851806640625
9911112500.0 0.45220947265625 -1.051513671875
9942334375.0 -0.26544189453125 -1.1583251953125
9973556250.0 -0.944427490234375 -0.73797607421875
10004778125.0 -1.1453857421875 -0.01812744140625
10036000000.0 -0.9437255859375 0.615447998046875
10067221875.0 -0.4417724609375 1.0950927734375
10098443750.0 0.36871337890625 1.18145751953125
10129665625.0 1.00201416015625 0.64337158203125
10160887500.0 1.1187744140625 -0.0509033203125
10192109375.0 0.9176025390625 -0.6627197265625
10223331250.0 0.361572265625 -1.1514892578125
10254553125.0 -0.48309326171875 -1.1131591796875
10285775000.0 -0.98480224609375 -0.53558349609375
10316996875.0 -1.06610107421875 0.07598876953125
10348218750.0 -0.89959716796875 0.668731689453125
10379440625.0 -0.32177734375 1.1756591796875
10410662500.0 0.5260009765625 1.08367919921875
10441884375.0 0.991546630859375 0.521484375
10473106250.0 1.10723876953125 -0.0831298828125
10504328125.0 0.948974609375 -0.757080078125
10535550000.0 0.240234375 -1.29351806640625
10566771875.0 -0.6556396484375 -1.07696533203125
10597993750.0 -1.07928466796875 -0.45947265625
10629215625.0 -1.1724853515625 0.20263671875
10660437500.0 -0.887542724609375 0.950439453125
10691659375.0 -0.012451171875 1.33197021484375
10722881250.0 0.78302001953125 0.951629638671875
10754103125.0 1.1180419921875 0.3253173828125
10785325000.0 1.138427734375 -0.36712646484375
10816546875.0 0.70086669921875 -1.0478515625
10847768750.0 -0.1448974609375 -1.22882080078125
10878990625.0 -0.800933837890625 -0.843658447265625
10910212500.0 -1.12261962890625 -0.244873046875
10941434375.0 -1.0968017578125 0.4761962890625
10972656250.0 -0.5689697265625 1.0830078125
11003878125.0 0.2166748046875 1.17352294921875
11035100000.0 0.84686279296875 0.821075439453125
11066321875.0 1.2205810546875 0.1739501953125
11097543750.0 1.0985107421875 -0.67852783203125
11128765625.0 0.38604736328125 -1.19635009765625
11159987500.0 -0.39459228515625 -1.137939453125
11191209375.0 -1.0001220703125 -0.70269775390625
11222431250.0 -1.27105712890625 0.091796875
11253653125.0 -0.859100341796875 0.894317626953125
11284875000.0 -0.1156005859375 1.12481689453125
11316096875.0 0.510955810546875 0.95672607421875
11347318750.0 1.0015869140625 0.50238037109375
11378540625.0 1.1170654296875 -0.2696533203125
11409762500.0 0.63470458984375 -0.85772705078125
11440984375.0 0.036651611328125 -0.976959228515625
11472206250.0 -0.48052978515625 -0.850128173828125
11503428125.0 -0.95196533203125 -0.457794189453125
11534650000.0 -1.06805419921875 0.28668212890625
11565871875.0 -0.601837158203125 0.85418701171875
11597093750.0 -0.01849365234375 0.992279052734375
11628315625.0 0.543212890625 0.874755859375
11659537500.0 1.0599365234375 0.3927001953125
11690759375.0 1.06463623046875 -0.433349609375
11721981250.0 0.5179443359375 -0.9404296875
11753203125.0 -0.1046142578125 -1.03570556640625
11784425000.0 -0.723388671875 -0.808013916015625
11815646875.0 -1.100341796875 -0.1500244140625
11846868750.0 -0.890899658203125 0.5489501953125
11878090625.0 -0.3916015625 0.90875244140625
11909312500.0 0.186920166015625 0.98455810546875
11940534375.0 0.7799072265625 0.695220947265625
11971756250.0 1.02392578125 0.041015625
12002978125.0 0.805877685546875 -0.535125732421875
12034200000.0 0.38104248046875 -0.88983154296875
12065421875.0 -0.21453857421875 -1.00872802734375
12096643750.0 -0.84698486328125 -0.665435791015625
12127865625.0 -1.03369140625 0.016357421875
12159087500.0 -0.815521240234375 0.574737548828125
12190309375.0 -0.378173828125 0.97412109375
12221531250.0 0.34002685546875 1.08819580078125
12252753125.0 0.97991943359375 0.581451416015625
12283975000.0 1.05413818359375 -0.12786865234375
12315196875.0 0.800079345703125 -0.675506591796875
12346418750.0 0.28045654296875 -1.0909423828125
12377640625.0 -0.5361328125 -1.058837890625
12408862500.0 -1.03289794921875 -0.420654296875
12440084375.0 -1.00775146484375 0.22369384765625
12471306250.0 -0.74267578125 0.73565673828125
12502528125.0 -0.1805419921875 1.11773681640625
12533750000.0 0.618682861328125 0.99407958984375
12564971875.0 1.04046630859375 0.3646240234375
12596193750.0 1.0281982421875 -0.26300048828125
12627415625.0 0.748199462890625 -0.8282470703125
12658637500.0 0.0799560546875 -1.20623779296875
12689859375.0 -0.735443115234375 -0.96551513671875
12721081250.0 -1.1156005859375 -0.3057861328125
12752303125.0 -1.09747314453125 0.3818359375
12783525000.0 -0.686767578125 1.0277099609375
12814746875.0 0.16339111328125 1.25103759765625
12845968750.0 0.86248779296875 0.81195068359375
12877190625.0 1.11773681640625 0.171630859375
12908412500.0 1.05535888671875 -0.50115966796875
12939634375.0 0.54327392578125 -1.11492919921875
12970856250.0 -0.318603515625 -1.17340087890625
13002078125.0 -0.893402099609375 -0.6937255859375
13033300000.0 -1.1043701171875 -0.0869140625
13064521875.0 -1.00885009765625 0.59173583984375
13095743750.0 -0.4207763671875 1.15386962890625
13126965625.0 0.40673828125 1.11956787109375
13158187500.0 0.946075439453125 0.632049560546875
13189409375.0 1.1468505859375 -0.02105712890625
13220631250.0 0.9365234375 -0.7467041015625
13251853125.0 0.23455810546875 -1.1702880859375
13283075000.0 -0.5068359375 -1.01849365234375
13314296875.0 -0.9847412109375 -0.52923583984375
13345518750.0 -1.13458251953125 0.1763916015625
13376740625.0 -0.752899169921875 0.858001708984375
