!Created with skrf (http://scikit-rf.org).
# Hz S RI R 50.0 
!freq ReS11 ImS11
45000000.0 -0.07685089111328125 -0.09681320190429688
76221875.0 -0.19620513916015625 -0.04770660400390625
107443750.0 -0.2550201416015625 0.1195526123046875
138665625.0 -0.1485137939453125 0.3281097412109375
169887500.0 0.1231231689453125 0.417266845703125
201109375.0 0.421417236328125 0.28125
232331250.0 0.5787353515625 -0.057037353515625
263553125.0 0.4898529052734375 -0.4519195556640625
294775000.0 0.09918212890625 -0.731842041015625
325996875.0 -0.414520263671875 -0.680694580078125
357218750.0 -0.805511474609375 -0.297821044921875
388440625.0 -0.885528564453125 0.299407958984375
419662500.0 -0.51812744140625 0.865203857421875
450884375.0 0.171630859375 1.028564453125
482106250.0 0.7972412109375 0.713134765625
513328125.0 1.11859130859375 0.08837890625
544550000.0 1.00372314453125 -0.67840576171875
575771875.0 0.3377685546875 -1.237060546875
606993750.0 -0.55218505859375 -1.17730712890625
638215625.0 -1.16455078125 -0.59124755859375
669437500.0 -1.33935546875 0.232177734375
700659375.0 -0.971435546875 1.09466552734375
731881250.0 -0.00531005859375 1.54229736328125
763103125.0 1.00372314453125 1.15606689453125
794325000.0 1.4674072265625 0.28314208984375
825546875.0 1.36669921875 -0.64935302734375
856768750.0 0.79541015625 -1.39794921875
887990625.0 -0.2904052734375 -1.6478271484375
919212500.0 -1.2857666015625 -1.07891845703125
950434375.0 -1.64666748046875 -0.060791015625
981656250.0 -1.3822021484375 0.94354248046875
1012878125.0 -0.5311279296875 1.66912841796875
1044100000.0 0.69415283203125 1.6611328125
1075321875.0 1.5721435546875 0.81304931640625
1106543750.0 1.70361328125 -0.3109130859375
1137765625.0 1.18719482421875 -1.281494140625
1168987500.0 0.14019775390625 -1.79522705078125
1200209375.0 -1.0589599609375 -1.48333740234375
1231431250.0 -1.72515869140625 -0.45489501953125
1262653125.0 -1.59393310546875 0.68157958984375
1293875000.0 -0.852783203125 1.48895263671875
1325096875.0 0.22637939453125 1.70526123046875
1356318750.0 1.232666015625 1.21673583984375
1387540625.0 1.73779296875 0.1903076171875
1418762500.0 1.4683837890625 -0.94927978515625
1449984375.0 0.5302734375 -1.62384033203125
1481206250.0 -0.54736328125 -1.55487060546875
1512428125.0 -1.3394775390625 -0.91998291015625
1543650000.0 -1.654052734375 0.06365966796875
1574871875.0 -1.27313232421875 1.10662841796875
1606093750.0 -0.2745361328125 1.62908935546875
1637315625.0 0.73992919921875 1.39990234375
1668537500.0 1.39404296875 0.69671630859375
1699759375.0 1.572021484375 -0.275634765625
1730981250.0 1.06439208984375 -1.22735595703125
1762203125.0 0.0438232421875 -1.56903076171875
1793425000.0 -0.8533935546875 -1.2261962890625
1824646875.0 -1.39154052734375 -0.5159912109375
1855868750.0 -1.47314453125 0.430908203125
1887090625.0 -0.875 1.283203125
1918312500.0 0.1160888671875 1.4853515625
1949534375.0 0.91949462890625 1.0885009765625
1980756250.0 1.37310791015625 0.3709716796875
2011978125.0 1.3585205078125 -0.529541015625
2043200000.0 0.7508544921875 -1.2596435546875
2074421875.0 -0.155029296875 -1.4320068359375
2105643750.0 -0.95843505859375 -1.07232666015625
2136865625.0 -1.44580078125 -0.30560302734375
2168087500.0 -1.3564453125 0.669189453125
2199309375.0 -0.6396484375 1.34942626953125
2230531250.0 0.28033447265625 1.43524169921875
2261753125.0 1.0704345703125 1.0137939453125
2292975000.0 1.51312255859375 0.17144775390625
2324196875.0 1.30487060546875 -0.816650390625
2355418750.0 0.52606201171875 -1.4178466796875
2386640625.0 -0.402587890625 -1.44744873046875
2417862500.0 -1.17852783203125 -1.0235595703125
2449084375.0 -1.602294921875 -0.08648681640625
2480306250.0 -1.31060791015625 0.92266845703125
2511528125.0 -0.49505615234375 1.505859375
2542750000.0 0.48699951171875 1.53497314453125
2573971875.0 1.3681640625 0.9676513671875
2605193750.0 1.7139892578125 -0.10888671875
2636415625.0 1.26031494140625 -1.14971923828125
2667637500.0 0.30755615234375 -1.66448974609375
2698859375.0 -0.76605224609375 -1.53277587890625
2730081250.0 -1.5703125 -0.740966796875
2761303125.0 -1.6785888671875 0.38519287109375
2792525000.0 -1.09930419921875 1.30340576171875
2823746875.0 -0.1046142578125 1.72613525390625
2854968750.0 1.0096435546875 1.45452880859375
2886190625.0 1.688232421875 0.4925537109375
2917412500.0 1.59796142578125 -0.61492919921875
2948634375.0 0.939453125 -1.429931640625
2979856250.0 -0.1063232421875 -1.77398681640625
3011078125.0 -1.2437744140625 -1.3416748046875
3042300000.0 -1.7728271484375 -0.23614501953125
3073521875.0 -1.507568359375 0.83514404296875
3104743750.0 -0.76324462890625 1.56536865234375
3135965625.0 0.36029052734375 1.80712890625
3167187500.0 1.49578857421875 1.16387939453125
3198409375.0 1.812744140625 -0.072998046875
3229631250.0 1.3480224609375 -1.07830810546875
3260853125.0 0.49072265625 -1.66461181640625
3292075000.0 -0.6513671875 -1.69549560546875
3323296875.0 -1.61663818359375 -0.88006591796875
3354518750.0 -1.72723388671875 0.32525634765625
3385740625.0 -1.15509033203125 1.22900390625
3416962500.0 -0.23284912109375 1.678466796875
3448184375.0 0.8582763671875 1.5203857421875
3479406250.0 1.63323974609375 0.645263671875
3510628125.0 1.642333984375 -0.4925537109375
3541850000.0 1.00018310546875 -1.35235595703125
3573071875.0 -0.00653076171875 -1.6795654296875
3604293750.0 -1.0250244140625 -1.336669921875
3635515625.0 -1.624755859375 -0.43963623046875
3666737500.0 -1.56024169921875 0.6444091796875
3697959375.0 -0.82550048828125 1.47198486328125
3729181250.0 0.2662353515625 1.62823486328125
3760403125.0 1.1490478515625 1.0977783203125
3791625000.0 1.550537109375 0.2191162109375
3822846875.0 1.400390625 -0.75836181640625
3854068750.0 0.6212158203125 -1.4786376953125
3885290625.0 -0.41864013671875 -1.47894287109375
3916512500.0 -1.13922119140625 -0.911376953125
3947734375.0 -1.4451904296875 -0.12127685546875
3978956250.0 -1.29608154296875 0.77716064453125
4010178125.0 -0.531494140625 1.45208740234375
4041400000.0 0.47210693359375 1.41424560546875
4072621875.0 1.14898681640625 0.84747314453125
4103843750.0 1.4427490234375 0.06475830078125
4135065625.0 1.266357421875 -0.8424072265625
4166287500.0 0.458251953125 -1.49334716796875
4197509375.0 -0.55474853515625 -1.41363525390625
4228731250.0 -1.24578857421875 -0.802734375
4259953125.0 -1.50689697265625 0.0687255859375
4291175000.0 -1.1871337890625 1.00750732421875
4322396875.0 -0.2899169921875 1.5244140625
4353618750.0 0.67041015625 1.34832763671875
4384840625.0 1.31964111328125 0.6971435546875
4416062500.0 1.49884033203125 -0.22552490234375
4447284375.0 1.05462646484375 -1.10089111328125
4478506250.0 0.17413330078125 -1.49224853515625
4509728125.0 -0.7298583984375 -1.3065185546875
4540950000.0 -1.3909912109375 -0.6365966796875
4572171875.0 -1.5201416015625 0.35748291015625
4603393750.0 -0.97259521484375 1.21002197265625
4634615625.0 -0.062744140625 1.53466796875
4665837500.0 0.86834716796875 1.3040771484375
4697059375.0 1.5382080078125 0.516845703125
4728281250.0 1.52752685546875 -0.58001708984375
4759503125.0 0.82305908203125 -1.36407470703125
4790725000.0 -0.1441650390625 -1.5706787109375
4821946875.0 -1.08038330078125 -1.19378662109375
4853168750.0 -1.61065673828125 -0.25286865234375
4884390625.0 -1.37713623046875 0.79150390625
4915612500.0 -0.61419677734375 1.4110107421875
4946834375.0 0.3272705078125 1.5079345703125
4978056250.0 1.20391845703125 1.017333984375
5009278125.0 1.56024169921875 0.04022216796875
5040500000.0 1.2283935546875 -0.8739013671875
5071721875.0 0.50201416015625 -1.41314697265625
5102943750.0 -0.4439697265625 -1.4954833984375
5134165625.0 -1.3336181640625 -0.905517578125
5165387500.0 -1.56573486328125 0.14434814453125
5196609375.0 -1.13555908203125 1.00616455078125
5227831250.0 -0.358642578125 1.50494384765625
5259053125.0 0.6866455078125 1.49102783203125
5290275000.0 1.51953125 0.663330078125
5321496875.0 1.48980712890625 -0.42852783203125
5352718750.0 0.9210205078125 -1.15191650390625
5383940625.0 0.09796142578125 -1.4986572265625
5415162500.0 -0.8984375 -1.283447265625
5446384375.0 -1.482421875 -0.37127685546875
5477606250.0 -1.2982177734375 0.56427001953125
5508828125.0 -0.73187255859375 1.14874267578125
5540050000.0 0.05316162109375 1.3973388671875
5571271875.0 0.937255859375 1.10894775390625
5602493750.0 1.40692138671875 0.260498046875
5633715625.0 1.2313232421875 -0.61151123046875
5664937500.0 0.6484375 -1.20001220703125
5696159375.0 -0.19610595703125 -1.38238525390625
5727381250.0 -1.02008056640625 -0.97796630859375
5758603125.0 -1.38983154296875 -0.14581298828125
5789825000.0 -1.19293212890625 0.71600341796875
5821046875.0 -0.50653076171875 1.3055419921875
5852268750.0 0.40936279296875 1.311279296875
5883490625.0 1.068603515625 0.7720947265625
5914712500.0 1.30126953125 0.02056884765625
5945934375.0 1.0958251953125 -0.77459716796875
5977156250.0 0.36236572265625 -1.30999755859375
6008378125.0 -0.5072021484375 -1.18145751953125
6039600000.0 -1.02117919921875 -0.64910888671875
6070821875.0 -1.223388671875 -0.0050048828125
6102043750.0 -1.08282470703125 0.76055908203125
6133265625.0 -0.3424072265625 1.34344482421875
6164487500.0 0.5618896484375 1.18707275390625
6195709375.0 1.06939697265625 0.63043212890625
6226931250.0 1.27880859375 -0.04193115234375
6258153125.0 1.10357666015625 -0.868896484375
6289375000.0 0.2569580078125 -1.444580078125
6320596875.0 -0.6885986328125 -1.20550537109375
6351818750.0 -1.1978759765625 -0.57232666015625
6383040625.0 -1.35296630859375 0.2054443359375
6414262500.0 -0.99908447265625 1.0548095703125
6445484375.0 -0.07977294921875 1.455322265625
6476706250.0 0.79376220703125 1.14727783203125
6507928125.0 1.289306640625 0.47052001953125
6539150000.0 1.34637451171875 -0.3853759765625
6570371875.0 0.8414306640625 -1.14208984375
6601593750.0 -0.01593017578125 -1.4029541015625
6632815625.0 -0.83819580078125 -1.1357421875
6664037500.0 -1.40032958984375 -0.420166015625
6695259375.0 -1.37249755859375 0.564453125
6726481250.0 -0.71038818359375 1.2501220703125
6757703125.0 0.12908935546875 1.4051513671875
6788925000.0 0.95416259765625 1.13043212890625
6820146875.0 1.558349609375 0.2884521484375
6851368750.0 1.3251953125 -0.817626953125
6882590625.0 0.506591796875 -1.3369140625
6913812500.0 -0.29119873046875 -1.3551025390625
6945034375.0 -1.068603515625 -1.021728515625
6976256250.0 -1.59063720703125 -0.0946044921875
7007478125.0 -1.2342529296875 0.929931640625
7038700000.0 -0.40399169921875 1.340087890625
7069921875.0 0.35687255859375 1.3221435546875
7101143750.0 1.11663818359375 0.96881103515625
7132365625.0 1.59527587890625 0.01654052734375
7163587500.0 1.1572265625 -1.020751953125
7194809375.0 0.302734375 -1.3963623046875
7226031250.0 -0.5118408203125 -1.32415771484375
7257253125.0 -1.26446533203125 -0.8251953125
7288475000.0 -1.55743408203125 0.19732666015625
7319696875.0 -1.029052734375 1.10888671875
7350918750.0 -0.1644287109375 1.44207763671875
7382140625.0 0.71368408203125 1.2762451171875
7413362500.0 1.3758544921875 0.575927734375
7444584375.0 1.41082763671875 -0.4051513671875
7475806250.0 0.85821533203125 -1.1397705078125
7507028125.0 0.00811767578125 -1.4281005859375
7538250000.0 -0.88623046875 -1.1234130859375
7569471875.0 -1.33331298828125 -0.3131103515625
7600693750.0 -1.201416015625 0.4967041015625
7631915625.0 -0.71832275390625 1.0833740234375
7663137500.0 0.07904052734375 1.3572998046875
7694359375.0 0.93707275390625 0.980224609375
7725581250.0 1.24322509765625 0.18255615234375
7756803125.0 1.08245849609375 -0.4971923828125
7788025000.0 0.67022705078125 -1.04302978515625
7819246875.0 -0.119873046875 -1.3458251953125
7850468750.0 -0.99053955078125 -0.91619873046875
7881690625.0 -1.2310791015625 -0.10400390625
7912912500.0 -1.054443359375 0.55224609375
7944134375.0 -0.606201171875 1.11083984375
7975356250.0 0.269287109375 1.3333740234375
8006578125.0 1.04632568359375 0.77862548828125
8037800000.0 1.19287109375 0.0162353515625
8069021875.0 1.00592041015625 -0.6156005859375
8100243750.0 0.5001220703125 -1.1602783203125
8131465625.0 -0.384521484375 -1.25299072265625
8162687500.0 -1.0306396484375 -0.68707275390625
8193909375.0 -1.17889404296875 0.00628662109375
8225131250.0 -1.01678466796875 0.67535400390625
8256353125.0 -0.42236328125 1.2467041015625
8287575000.0 0.49896240234375 1.2254638671875
8318796875.0 1.0811767578125 0.63616943359375
8350018750.0 1.2447509765625 -0.0750732421875
8381240625.0 1.03167724609375 -0.8377685546875
8412462500.0 0.25408935546875 -1.37335205078125
8443684375.0 -0.667724609375 -1.1707763671875
8474906250.0 -1.17333984375 -0.53216552734375
8506128125.0 -1.29638671875 0.23583984375
8537350000.0 -0.92388916015625 1.04376220703125
8568571875.0 -0.0172119140625 1.39263916015625
8599793750.0 0.80059814453125 1.05303955078125
8631015625.0 1.24072265625 0.39813232421875
8662237500.0 1.2838134765625 -0.42620849609375
8693459375.0 0.7374267578125 -1.175048828125
8724681250.0 -0.16107177734375 -1.33203125
8755903125.0 -0.879180908203125 -0.957672119140625
8787125000.0 -1.30230712890625 -0.282958984375
8818346875.0 -1.2496337890625 0.61334228515625
8849568750.0 -0.5567626953125 1.26019287109375
8880790625.0 0.2962646484375 1.28369140625
8912012500.0 0.98101806640625 0.891510009765625
8943234375.0 1.39984130859375 0.1280517578125
8974456250.0 1.167236328125 -0.836669921875
9005678125.0 0.34912109375 -1.311767578125
9036900000.0 -0.44525146484375 -1.22479248046875
9068121875.0 -1.0994873046875 -0.78631591796875
9099343750.0 -1.44000244140625 0.09649658203125
9130565625.0 -0.9791259765625 1.009765625
9161787500.0 -0.155029296875 1.2802734375
9193009375.0 0.553466796875 1.13336181640625
9224231250.0 1.17840576171875 0.654541015625
9255453125.0 1.398681640625 -0.2938232421875
9286675000.0 0.806884765625 -1.08428955078125
9317896875.0 0.0277099609375 -1.24652099609375
9349118750.0 -0.6527099609375 -1.0699462890625
9380340625.0 -1.25592041015625 -0.51123046875
9411562500.0 -1.31109619140625 0.475341796875
9442784375.0 -0.64764404296875 1.11468505859375
9474006250.0 0.087158203125 1.2098388671875
9505228125.0 0.764129638671875 0.979583740234375
9536450000.0 1.2740478515625 0.31329345703125
9567671875.0 1.14349365234375 -0.57891845703125
9598893750.0 0.5286865234375 -1.0682373046875
9630115625.0 -0.1417236328125 -1.15655517578125
9661337500.0 -0.81671142578125 -0.90252685546875
9692559375.0 -1.23687744140625 -0.19073486328125
9723781250.0 -1.0428466796875 0.6019287109375
9755003125.0 -0.4866943359375 1.048095703125
9786225000.0 0.196044921875 1.1578369140625
9817446875.0 0.891937255859375 0.828033447265625
9848668750.0 1.1968994140625 0.0789794921875
9879890625.0 0.968902587890625 -0.615753173828125
9911112500.0 0.4527587890625 -1.051025390625
9942334375.0 -0.26678466796875 -1.15826416015625
9973556250.0 -0.942291259765625 -0.739288330078125
10004778125.0 -1.1446533203125 -0.0189208984375
10036000000.0 -0.944183349609375 0.61517333984375
10067221875.0 -0.44287109375 1.0958251953125
10098443750.0 0.369384765625 1.180419921875
10129665625.0 1.00140380859375 0.642578125
10160887500.0 1.11956787109375 -0.0521240234375
10192109375.0 0.9168701171875 -0.66265869140625
10223331250.0 0.3626708984375 -1.1500244140625
10254553125.0 -0.4862060546875 -1.11370849609375
10285775000.0 -0.984375 -0.53564453125
10316996875.0 -1.0675048828125 0.0775146484375
10348218750.0 -0.9002685546875 0.66925048828125
10379440625.0 -0.32275390625 1.174560546875
10410662500.0 0.5262451171875 1.08453369140625
10441884375.0 0.991607666015625 0.52294921875
10473106250.0 1.1087646484375 -0.08282470703125
10504328125.0 0.9488525390625 -0.756134033203125
10535550000.0 0.2401123046875 -1.29412841796875
10566771875.0 -0.656005859375 -1.07647705078125
10597993750.0 -1.08001708984375 -0.4591064453125
10629215625.0 -1.1737060546875 0.203857421875
10660437500.0 -0.88702392578125 0.949127197265625
10691659375.0 -0.00885009765625 1.33428955078125
10722881250.0 0.782501220703125 0.95159912109375
10754103125.0 1.11773681640625 0.32562255859375
10785325000.0 1.13812255859375 -0.364990234375
10816546875.0 0.70068359375 -1.0477294921875
10847768750.0 -0.1453857421875 -1.2293701171875
10878990625.0 -0.801055908203125 -0.84320068359375
10910212500.0 -1.1217041015625 -0.245361328125
10941434375.0 -1.096435546875 0.47564697265625
10972656250.0 -0.56890869140625 1.085205078125
11003878125.0 0.217529296875 1.17510986328125
11035100000.0 0.8468017578125 0.8218994140625
11066321875.0 1.22088623046875 0.17431640625
11097543750.0 1.096923828125 -0.67620849609375
11128765625.0 0.38623046875 -1.197998046875
11159987500.0 -0.3948974609375 -1.13873291015625
11191209375.0 -0.999420166015625 -0.701995849609375
11222431250.0 -1.27081298828125 0.0921630859375
11253653125.0 -0.858367919921875 0.89483642578125
11284875000.0 -0.11492919921875 1.12542724609375
11316096875.0 0.50921630859375 0.955657958984375
11347318750.0 1.0006103515625 0.50244140625
11378540625.0 1.11541748046875 -0.26727294921875
11409762500.0 0.63446044921875 -0.859954833984375
11440984375.0 0.03643798828125 -0.977752685546875
11472206250.0 -0.48016357421875 -0.849334716796875
11503428125.0 -0.952972412109375 -0.4569091796875
11534650000.0 -1.06939697265625 0.28839111328125
11565871875.0 -0.602508544921875 0.8524169921875
11597093750.0 -0.019012451171875 0.991058349609375
11628315625.0 0.543609619140625 0.875335693359375
11659537500.0 1.059326171875 0.39215087890625
11690759375.0 1.06451416015625 -0.43280029296875
11721981250.0 0.517333984375 -0.94110107421875
11753203125.0 -0.1060791015625 -1.0372314453125
11784425000.0 -0.7236328125 -0.8084716796875
11815646875.0 -1.100830078125 -0.15118408203125
11846868750.0 -0.89068603515625 0.550872802734375
11878090625.0 -0.391845703125 0.9075927734375
11909312500.0 0.186309814453125 0.983673095703125
11940534375.0 0.77899169921875 0.694854736328125
11971756250.0 1.02337646484375 0.0401611328125
12002978125.0 0.806549072265625 -0.535980224609375
12034200000.0 0.38232421875 -0.888427734375
12065421875.0 -0.2149658203125 -1.01031494140625
12096643750.0 -0.848419189453125 -0.664794921875
12127865625.0 -1.03192138671875 0.01605224609375
12159087500.0 -0.814300537109375 0.574310302734375
12190309375.0 -0.377716064453125 0.974273681640625
12221531250.0 0.3408203125 1.08892822265625
12252753125.0 0.9794921875 0.5811767578125
12283975000.0 1.05511474609375 -0.12945556640625
12315196875.0 0.800262451171875 -0.677581787109375
12346418750.0 0.2818603515625 -1.0894775390625
12377640625.0 -0.53863525390625 -1.0604248046875
12408862500.0 -1.033447265625 -0.41961669921875
12440084375.0 -1.0091552734375 0.224853515625
12471306250.0 -0.7413330078125 0.736572265625
12502528125.0 -0.17962646484375 1.119384765625
12533750000.0 0.619781494140625 0.9930419921875
12564971875.0 1.040283203125 0.36395263671875
12596193750.0 1.0301513671875 -0.2650146484375
12627415625.0 0.748504638671875 -0.828521728515625
12658637500.0 0.07916259765625 -1.207275390625
12689859375.0 -0.734283447265625 -0.966766357421875
12721081250.0 -1.11798095703125 -0.30572509765625
12752303125.0 -1.09759521484375 0.3817138671875
12783525000.0 -0.68658447265625 1.02899169921875
12814746875.0 0.16436767578125 1.251953125
12845968750.0 0.8631591796875 0.811004638671875
12877190625.0 1.1175537109375 0.1715087890625
12908412500.0 1.05462646484375 -0.4990234375
12939634375.0 0.54241943359375 -1.115966796875
12970856250.0 -0.3187255859375 -1.17352294921875
13002078125.0 -0.89361572265625 -0.693206787109375
13033300000.0 -1.10491943359375 -0.08746337890625
13064521875.0 -1.00946044921875 0.59283447265625
13095743750.0 -0.42193603515625 1.15240478515625
13126965625.0 0.409423828125 1.1207275390625
13158187500.0 0.948272705078125 0.63238525390625
13189409375.0 1.149169921875 -0.0216064453125
13220631250.0 0.93609619140625 -0.748077392578125
13251853125.0 0.2352294921875 -1.17230224609375
13283075000.0 -0.5068359375 -1.018798828125
13314296875.0 -0.9864501953125 -0.52886962890625
13345518750.0 -1.1336669921875 0.1759033203125
