!Created with skrf (http://scikit-rf.org).
# Hz S RI R 50.0 
!freq ReS11 ImS11
45000000.0 -0.076995849609375 -0.0969085693359375
76221875.0 -0.19628143310546875 -0.0474853515625
107443750.0 -0.254608154296875 0.11956787109375
138665625.0 -0.14813232421875 0.3283538818359375
169887500.0 0.123504638671875 0.41717529296875
201109375.0 0.4215545654296875 0.2805023193359375
232331250.0 0.578460693359375 -0.05755615234375
263553125.0 0.4889678955078125 -0.4525299072265625
294775000.0 0.098114013671875 -0.731903076171875
325996875.0 -0.4151611328125 -0.679656982421875
357218750.0 -0.80572509765625 -0.296630859375
388440625.0 -0.884735107421875 0.300567626953125
419662500.0 -0.5166015625 0.86566162109375
450884375.0 0.17315673828125 1.02777099609375
482106250.0 0.797637939453125 0.711822509765625
513328125.0 1.118408203125 0.08685302734375
544550000.0 1.00250244140625 -0.6793212890625
575771875.0 0.3360595703125 -1.23681640625
606993750.0 -0.553466796875 -1.17596435546875
638215625.0 -1.16461181640625 -0.58953857421875
669437500.0 -1.33831787109375 0.2337646484375
700659375.0 -0.9697265625 1.09515380859375
731881250.0 -0.0032958984375 1.54168701171875
763103125.0 1.0047607421875 1.154296875
794325000.0 1.46710205078125 0.28118896484375
825546875.0 1.36541748046875 -0.65087890625
856768750.0 0.79364013671875 -1.39886474609375
887990625.0 -0.2926025390625 -1.64630126953125
919212500.0 -1.28662109375 -1.0770263671875
950434375.0 -1.64593505859375 -0.05902099609375
981656250.0 -1.38043212890625 0.94439697265625
1012878125.0 -0.52862548828125 1.66912841796875
1044100000.0 0.69598388671875 1.6593017578125
1075321875.0 1.571533203125 0.810546875
1106543750.0 1.7022705078125 -0.3125
1137765625.0 1.18487548828125 -1.28265380859375
1168987500.0 0.13818359375 -1.794189453125
1200209375.0 -1.05987548828125 -1.48138427734375
1231431250.0 -1.724853515625 -0.45257568359375
1262653125.0 -1.59149169921875 0.6834716796875
1293875000.0 -0.850341796875 1.4896240234375
1325096875.0 0.2283935546875 1.70367431640625
1356318750.0 1.23358154296875 1.21453857421875
1387540625.0 1.7373046875 0.1883544921875
1418762500.0 1.46673583984375 -0.95037841796875
1449984375.0 0.52813720703125 -1.62322998046875
1481206250.0 -0.5489501953125 -1.553466796875
1512428125.0 -1.339599609375 -0.9180908203125
1543650000.0 -1.65277099609375 0.06500244140625
1574871875.0 -1.27105712890625 1.1068115234375
1606093750.0 -0.27252197265625 1.6290283203125
1637315625.0 0.7415771484375 1.3983154296875
1668537500.0 1.39434814453125 0.6947021484375
1699759375.0 1.570556640625 -0.277099609375
1730981250.0 1.062255859375 -1.2274169921875
1762203125.0 0.041748046875 -1.56829833984375
1793425000.0 -0.8546142578125 -1.224853515625
1824646875.0 -1.39117431640625 -0.51397705078125
1855868750.0 -1.47174072265625 0.4324951171875
1887090625.0 -0.87347412109375 1.2833251953125
1918312500.0 0.11712646484375 1.48431396484375
1949534375.0 0.92041015625 1.08721923828125
1980756250.0 1.37310791015625 0.369384765625
2011978125.0 1.357421875 -0.53082275390625
2043200000.0 0.7486572265625 -1.259521484375
2074421875.0 -0.15673828125 -1.4310302734375
2105643750.0 -0.95849609375 -1.0706787109375
2136865625.0 -1.44525146484375 -0.304443359375
2168087500.0 -1.35504150390625 0.67047119140625
2199309375.0 -0.63818359375 1.34930419921875
2230531250.0 0.2816162109375 1.4337158203125
2261753125.0 1.07098388671875 1.012451171875
2292975000.0 1.51251220703125 0.1700439453125
2324196875.0 1.30340576171875 -0.81744384765625
2355418750.0 0.52447509765625 -1.417236328125
2386640625.0 -0.404296875 -1.44683837890625
2417862500.0 -1.1773681640625 -1.02313232421875
2449084375.0 -1.6011962890625 -0.084716796875
2480306250.0 -1.30926513671875 0.92474365234375
2511528125.0 -0.49346923828125 1.50390625
2542750000.0 0.48748779296875 1.53338623046875
2573971875.0 1.367919921875 0.9661865234375
2605193750.0 1.7138671875 -0.112548828125
2636415625.0 1.25860595703125 -1.150146484375
2667637500.0 0.30615234375 -1.66400146484375
2698859375.0 -0.76837158203125 -1.53204345703125
2730081250.0 -1.5701904296875 -0.739501953125
2761303125.0 -1.67742919921875 0.38739013671875
2792525000.0 -1.0977783203125 1.30426025390625
2823746875.0 -0.10186767578125 1.72589111328125
2854968750.0 1.00848388671875 1.45245361328125
2886190625.0 1.68756103515625 0.491455078125
2917412500.0 1.59625244140625 -0.61578369140625
2948634375.0 0.9375 -1.4302978515625
2979856250.0 -0.10821533203125 -1.77325439453125
3011078125.0 -1.24420166015625 -1.33966064453125
3042300000.0 -1.77227783203125 -0.23406982421875
3073521875.0 -1.505615234375 0.835693359375
3104743750.0 -0.76153564453125 1.56536865234375
3135965625.0 0.361328125 1.80511474609375
3167187500.0 1.49688720703125 1.16204833984375
3198409375.0 1.81072998046875 -0.07354736328125
3229631250.0 1.34588623046875 -1.07861328125
3260853125.0 0.48876953125 -1.6640625
3292075000.0 -0.65362548828125 -1.6942138671875
3323296875.0 -1.6162109375 -0.8782958984375
3354518750.0 -1.72637939453125 0.328125
3385740625.0 -1.15338134765625 1.2271728515625
3416962500.0 -0.2313232421875 1.67852783203125
3448184375.0 0.858154296875 1.518798828125
3479406250.0 1.63232421875 0.64349365234375
3510628125.0 1.6397705078125 -0.49359130859375
3541850000.0 0.99822998046875 -1.3515625
3573071875.0 -0.00732421875 -1.67901611328125
3604293750.0 -1.02606201171875 -1.33453369140625
3635515625.0 -1.62353515625 -0.43792724609375
3666737500.0 -1.5579833984375 0.6431884765625
3697959375.0 -0.82373046875 1.472900390625
3729181250.0 0.2666015625 1.62701416015625
3760403125.0 1.15020751953125 1.09619140625
3791625000.0 1.548828125 0.21868896484375
3822846875.0 1.39837646484375 -0.7586669921875
3854068750.0 0.61932373046875 -1.47808837890625
3885290625.0 -0.41912841796875 -1.47784423828125
3916512500.0 -1.138671875 -0.908935546875
3947734375.0 -1.44549560546875 -0.119384765625
3978956250.0 -1.294677734375 0.77655029296875
4010178125.0 -0.53082275390625 1.4517822265625
4041400000.0 0.4718017578125 1.41265869140625
4072621875.0 1.14935302734375 0.84637451171875
4103843750.0 1.44189453125 0.0634765625
4135065625.0 1.26507568359375 -0.84307861328125
4166287500.0 0.45672607421875 -1.493896484375
4197509375.0 -0.55670166015625 -1.41265869140625
4228731250.0 -1.24664306640625 -0.8017578125
4259953125.0 -1.5064697265625 0.07061767578125
4291175000.0 -1.1864013671875 1.0081787109375
4322396875.0 -0.28887939453125 1.5242919921875
4353618750.0 0.67144775390625 1.3477783203125
4384840625.0 1.31964111328125 0.69598388671875
4416062500.0 1.49713134765625 -0.2259521484375
4447284375.0 1.0531005859375 -1.1016845703125
4478506250.0 0.17230224609375 -1.492431640625
4509728125.0 -0.730712890625 -1.30535888671875
4540950000.0 -1.39111328125 -0.63494873046875
4572171875.0 -1.51910400390625 0.3580322265625
4603393750.0 -0.97137451171875 1.21044921875
4634615625.0 -0.06146240234375 1.53472900390625
4665837500.0 0.86859130859375 1.302001953125
4697059375.0 1.53912353515625 0.5142822265625
4728281250.0 1.5262451171875 -0.58056640625
4759503125.0 0.8221435546875 -1.36358642578125
4790725000.0 -0.14447021484375 -1.56939697265625
4821946875.0 -1.080810546875 -1.1923828125
4853168750.0 -1.6092529296875 -0.25146484375
4884390625.0 -1.3760986328125 0.7919921875
4915612500.0 -0.6126708984375 1.41064453125
4946834375.0 0.3284912109375 1.50738525390625
4978056250.0 1.20269775390625 1.01556396484375
5009278125.0 1.5579833984375 0.0400390625
5040500000.0 1.22705078125 -0.87310791015625
5071721875.0 0.50115966796875 -1.41143798828125
5102943750.0 -0.4454345703125 -1.4942626953125
5134165625.0 -1.33367919921875 -0.90435791015625
5165387500.0 -1.56597900390625 0.14599609375
5196609375.0 -1.13433837890625 1.0076904296875
5227831250.0 -0.3575439453125 1.50323486328125
5259053125.0 0.68572998046875 1.4893798828125
5290275000.0 1.51873779296875 0.66259765625
5321496875.0 1.49078369140625 -0.43035888671875
5352718750.0 0.91925048828125 -1.1507568359375
5383940625.0 0.0968017578125 -1.498291015625
5415162500.0 -0.9000244140625 -1.282470703125
5446384375.0 -1.481201171875 -0.370361328125
5477606250.0 -1.29681396484375 0.5645751953125
5508828125.0 -0.7303466796875 1.1490478515625
5540050000.0 0.05352783203125 1.3968505859375
5571271875.0 0.93731689453125 1.10748291015625
5602493750.0 1.40618896484375 0.26025390625
5633715625.0 1.230712890625 -0.61163330078125
5664937500.0 0.646728515625 -1.2001953125
5696159375.0 -0.19580078125 -1.380859375
5727381250.0 -1.0194091796875 -0.977294921875
5758603125.0 -1.38970947265625 -0.145263671875
5789825000.0 -1.19244384765625 0.716064453125
5821046875.0 -0.5057373046875 1.30462646484375
5852268750.0 0.41015625 1.31072998046875
5883490625.0 1.06805419921875 0.7713623046875
5914712500.0 1.301025390625 0.02044677734375
5945934375.0 1.0948486328125 -0.77252197265625
5977156250.0 0.36151123046875 -1.30938720703125
6008378125.0 -0.5079345703125 -1.18060302734375
6039600000.0 -1.01959228515625 -0.64849853515625
6070821875.0 -1.22235107421875 -0.0047607421875
6102043750.0 -1.08154296875 0.760986328125
6133265625.0 -0.34197998046875 1.34246826171875
6164487500.0 0.5615234375 1.18536376953125
6195709375.0 1.069091796875 0.62933349609375
6226931250.0 1.2772216796875 -0.041748046875
6258153125.0 1.1033935546875 -0.870361328125
6289375000.0 0.256591796875 -1.443603515625
6320596875.0 -0.68817138671875 -1.20465087890625
6351818750.0 -1.1983642578125 -0.57159423828125
6383040625.0 -1.3525390625 0.206298828125
6414262500.0 -0.99884033203125 1.05535888671875
6445484375.0 -0.0787353515625 1.45465087890625
6476706250.0 0.7933349609375 1.14630126953125
6507928125.0 1.2896728515625 0.4693603515625
6539150000.0 1.34515380859375 -0.384765625
6570371875.0 0.84027099609375 -1.14178466796875
6601593750.0 -0.01654052734375 -1.40301513671875
6632815625.0 -0.8377685546875 -1.13580322265625
6664037500.0 -1.39862060546875 -0.4200439453125
6695259375.0 -1.3721923828125 0.5648193359375
6726481250.0 -0.7100830078125 1.24859619140625
6757703125.0 0.13006591796875 1.4046630859375
6788925000.0 0.9530029296875 1.129150390625
6820146875.0 1.5565185546875 0.28887939453125
6851368750.0 1.32452392578125 -0.81707763671875
6882590625.0 0.5062255859375 -1.33636474609375
6913812500.0 -0.29144287109375 -1.35479736328125
6945034375.0 -1.06744384765625 -1.02105712890625
6976256250.0 -1.5906982421875 -0.09375
7007478125.0 -1.2340087890625 0.92974853515625
7038700000.0 -0.40185546875 1.3408203125
7069921875.0 0.35723876953125 1.321533203125
7101143750.0 1.116455078125 0.96783447265625
7132365625.0 1.595458984375 0.01617431640625
7163587500.0 1.1549072265625 -1.0172119140625
7194809375.0 0.3021240234375 -1.39508056640625
7226031250.0 -0.51177978515625 -1.3248291015625
7257253125.0 -1.26409912109375 -0.8245849609375
7288475000.0 -1.55718994140625 0.19757080078125
7319696875.0 -1.028564453125 1.10675048828125
7350918750.0 -0.16448974609375 1.44134521484375
7382140625.0 0.714599609375 1.27471923828125
7413362500.0 1.3731689453125 0.57672119140625
7444584375.0 1.41107177734375 -0.40692138671875
7475806250.0 0.856689453125 -1.1400146484375
7507028125.0 0.00555419921875 -1.42828369140625
7538250000.0 -0.88629150390625 -1.1221923828125
7569471875.0 -1.33551025390625 -0.31085205078125
7600693750.0 -1.199951171875 0.49444580078125
7631915625.0 -0.717041015625 1.0831298828125
7663137500.0 0.07952880859375 1.35552978515625
7694359375.0 0.939208984375 0.97894287109375
7725581250.0 1.2418212890625 0.1805419921875
7756803125.0 1.082275390625 -0.50006103515625
7788025000.0 0.66943359375 -1.04132080078125
7819246875.0 -0.11761474609375 -1.34375
7850468750.0 -0.9903564453125 -0.9158935546875
7881690625.0 -1.22943115234375 -0.10504150390625
7912912500.0 -1.05267333984375 0.55389404296875
7944134375.0 -0.6053466796875 1.112548828125
7975356250.0 0.26953125 1.3333740234375
8006578125.0 1.04559326171875 0.7783203125
8037800000.0 1.192138671875 0.0167236328125
8069021875.0 1.0059814453125 -0.6170654296875
8100243750.0 0.499267578125 -1.16162109375
8131465625.0 -0.3865966796875 -1.253173828125
8162687500.0 -1.03021240234375 -0.68585205078125
8193909375.0 -1.1795654296875 0.00775146484375
8225131250.0 -1.01715087890625 0.67706298828125
8256353125.0 -0.42181396484375 1.245849609375
8287575000.0 0.500244140625 1.22442626953125
8318796875.0 1.0816650390625 0.63519287109375
8350018750.0 1.2432861328125 -0.0750732421875
8381240625.0 1.0302734375 -0.836669921875
8412462500.0 0.2532958984375 -1.37237548828125
8443684375.0 -0.66937255859375 -1.16949462890625
8474906250.0 -1.17315673828125 -0.5321044921875
8506128125.0 -1.296875 0.23699951171875
8537350000.0 -0.92340087890625 1.04351806640625
8568571875.0 -0.01605224609375 1.39178466796875
8599793750.0 0.80029296875 1.052490234375
8631015625.0 1.2384033203125 0.3990478515625
8662237500.0 1.28271484375 -0.4259033203125
8693459375.0 0.73614501953125 -1.17572021484375
8724681250.0 -0.1622314453125 -1.331298828125
8755903125.0 -0.87933349609375 -0.9566650390625
8787125000.0 -1.30157470703125 -0.28173828125
8818346875.0 -1.248779296875 0.61309814453125
8849568750.0 -0.55694580078125 1.25872802734375
8880790625.0 0.2967529296875 1.28289794921875
8912012500.0 0.980255126953125 0.892303466796875
8943234375.0 1.3966064453125 0.12945556640625
8974456250.0 1.166015625 -0.83612060546875
9005678125.0 0.34820556640625 -1.312255859375
9036900000.0 -0.4434814453125 -1.22308349609375
9068121875.0 -1.1015625 -0.78448486328125
9099343750.0 -1.43695068359375 0.0965576171875
9130565625.0 -0.97991943359375 1.0091552734375
9161787500.0 -0.15582275390625 1.27984619140625
9193009375.0 0.5533447265625 1.1329345703125
9224231250.0 1.178466796875 0.65386962890625
9255453125.0 1.39642333984375 -0.29278564453125
9286675000.0 0.80633544921875 -1.08489990234375
9317896875.0 0.02801513671875 -1.24530029296875
9349118750.0 -0.65234375 -1.06817626953125
9380340625.0 -1.25634765625 -0.51007080078125
9411562500.0 -1.3084716796875 0.4742431640625
9442784375.0 -0.64776611328125 1.11669921875
9474006250.0 0.0877685546875 1.2088623046875
9505228125.0 0.763031005859375 0.97900390625
9536450000.0 1.27227783203125 0.31317138671875
9567671875.0 1.1435546875 -0.57928466796875
9598893750.0 0.52911376953125 -1.06573486328125
9630115625.0 -0.1434326171875 -1.1571044921875
9661337500.0 -0.818511962890625 -0.902069091796875
9692559375.0 -1.2362060546875 -0.19195556640625
9723781250.0 -1.04339599609375 0.6026611328125
9755003125.0 -0.48614501953125 1.0484619140625
9786225000.0 0.1961669921875 1.15655517578125
9817446875.0 0.89263916015625 0.8275146484375
9848668750.0 1.19708251953125 0.0792236328125
9879890625.0 0.967803955078125 -0.614471435546875
9911112500.0 0.45220947265625 -1.0506591796875
9942334375.0 -0.2667236328125 -1.15777587890625
9973556250.0 -0.943389892578125 -0.73870849609375
10004778125.0 -1.14642333984375 -0.0172119140625
10036000000.0 -0.943878173828125 0.6143798828125
10067221875.0 -0.4415283203125 1.095703125
10098443750.0 0.3673095703125 1.18048095703125
10129665625.0 1.0020751953125 0.64251708984375
10160887500.0 1.117431640625 -0.05096435546875
10192109375.0 0.916595458984375 -0.659027099609375
10223331250.0 0.36187744140625 -1.1512451171875
10254553125.0 -0.48492431640625 -1.1121826171875
10285775000.0 -0.984344482421875 -0.535430908203125
10316996875.0 -1.06536865234375 0.07574462890625
10348218750.0 -0.9000244140625 0.670166015625
10379440625.0 -0.32244873046875 1.17340087890625
10410662500.0 0.5257568359375 1.08538818359375
10441884375.0 0.9923095703125 0.52117919921875
10473106250.0 1.1082763671875 -0.0841064453125
10504328125.0 0.94873046875 -0.7559814453125
10535550000.0 0.24017333984375 -1.2930908203125
10566771875.0 -0.65582275390625 -1.0772705078125
10597993750.0 -1.07818603515625 -0.4598388671875
10629215625.0 -1.173583984375 0.20440673828125
10660437500.0 -0.886993408203125 0.94915771484375
10691659375.0 -0.0108642578125 1.33380126953125
10722881250.0 0.784149169921875 0.952056884765625
10754103125.0 1.11834716796875 0.325927734375
10785325000.0 1.13751220703125 -0.36663818359375
10816546875.0 0.70068359375 -1.04583740234375
10847768750.0 -0.1444091796875 -1.22894287109375
10878990625.0 -0.8018798828125 -0.84332275390625
10910212500.0 -1.1220703125 -0.2452392578125
10941434375.0 -1.097412109375 0.4774169921875
10972656250.0 -0.5673828125 1.08319091796875
11003878125.0 0.2161865234375 1.173583984375
11035100000.0 0.84686279296875 0.82183837890625
11066321875.0 1.22021484375 0.17449951171875
11097543750.0 1.09771728515625 -0.6744384765625
11128765625.0 0.3870849609375 -1.196533203125
11159987500.0 -0.39544677734375 -1.13800048828125
11191209375.0 -0.99908447265625 -0.70330810546875
11222431250.0 -1.27142333984375 0.09228515625
11253653125.0 -0.85906982421875 0.894989013671875
11284875000.0 -0.115234375 1.12506103515625
11316096875.0 0.5091552734375 0.9547119140625
11347318750.0 1.00238037109375 0.5020751953125
11378540625.0 1.11676025390625 -0.26953125
11409762500.0 0.63409423828125 -0.859039306640625
11440984375.0 0.035400390625 -0.977386474609375
11472206250.0 -0.478759765625 -0.8489990234375
11503428125.0 -0.951263427734375 -0.45635986328125
11534650000.0 -1.0677490234375 0.2872314453125
11565871875.0 -0.602691650390625 0.8526611328125
11597093750.0 -0.018310546875 0.991363525390625
11628315625.0 0.5433349609375 0.874725341796875
11659537500.0 1.05828857421875 0.39208984375
11690759375.0 1.0654296875 -0.432861328125
11721981250.0 0.5172119140625 -0.938995361328125
11753203125.0 -0.104736328125 -1.03594970703125
11784425000.0 -0.7247314453125 -0.80841064453125
11815646875.0 -1.099853515625 -0.1514892578125
11846868750.0 -0.890869140625 0.551055908203125
11878090625.0 -0.39154052734375 0.90838623046875
11909312500.0 0.18634033203125 0.983306884765625
11940534375.0 0.779327392578125 0.6934814453125
11971756250.0 1.0242919921875 0.0399169921875
12002978125.0 0.80615234375 -0.53857421875
12034200000.0 0.382110595703125 -0.88775634765625
12065421875.0 -0.2152099609375 -1.01007080078125
12096643750.0 -0.846160888671875 -0.665130615234375
12127865625.0 -1.03265380859375 0.0164794921875
12159087500.0 -0.81463623046875 0.573516845703125
12190309375.0 -0.3773193359375 0.97479248046875
12221531250.0 0.33966064453125 1.08770751953125
12252753125.0 0.97894287109375 0.58233642578125
12283975000.0 1.05389404296875 -0.126708984375
12315196875.0 0.799560546875 -0.676422119140625
12346418750.0 0.28143310546875 -1.09051513671875
12377640625.0 -0.53753662109375 -1.06011962890625
12408862500.0 -1.0343017578125 -0.419189453125
12440084375.0 -1.00775146484375 0.2244873046875
12471306250.0 -0.74163818359375 0.735382080078125
12502528125.0 -0.18017578125 1.11859130859375
12533750000.0 0.618255615234375 0.993438720703125
12564971875.0 1.0400390625 0.3643798828125
12596193750.0 1.02801513671875 -0.26336669921875
12627415625.0 0.74688720703125 -0.82861328125
12658637500.0 0.0802001953125 -1.20623779296875
12689859375.0 -0.73406982421875 -0.966033935546875
12721081250.0 -1.1160888671875 -0.30633544921875
12752303125.0 -1.0958251953125 0.37982177734375
12783525000.0 -0.6873779296875 1.02532958984375
12814746875.0 0.162353515625 1.24932861328125
12845968750.0 0.86077880859375 0.812042236328125
12877190625.0 1.1187744140625 0.1705322265625
12908412500.0 1.05535888671875 -0.50042724609375
12939634375.0 0.5428466796875 -1.11669921875
12970856250.0 -0.31878662109375 -1.1748046875
13002078125.0 -0.893585205078125 -0.693939208984375
13033300000.0 -1.103759765625 -0.08807373046875
13064521875.0 -1.00885009765625 0.5906982421875
13095743750.0 -0.420166015625 1.154052734375
13126965625.0 0.40643310546875 1.118896484375
13158187500.0 0.94573974609375 0.63177490234375
13189409375.0 1.147216796875 -0.02142333984375
13220631250.0 0.935028076171875 -0.74530029296875
13251853125.0 0.2354736328125 -1.1700439453125
13283075000.0 -0.5052490234375 -1.01776123046875
13314296875.0 -0.985504150390625 -0.528839111328125
13345518750.0 -1.13385009765625 0.17559814453125
13376740625.0 -0.75244140625 0.85675048828125
