!Created with skrf (http://scikit-rf.org).
# Hz S RI R 50.0 
!freq ReS11 ImS11
45000000.0 -0.07691192626953125 -0.09695816040039062
76221875.0 -0.196197509765625 -0.0477294921875
107443750.0 -0.2547149658203125 0.1195220947265625
138665625.0 -0.148284912109375 0.3282470703125
169887500.0 0.1232757568359375 0.41717529296875
201109375.0 0.4215087890625 0.280914306640625
232331250.0 0.578582763671875 -0.05731201171875
263553125.0 0.4893341064453125 -0.4521636962890625
294775000.0 0.0987548828125 -0.73193359375
325996875.0 -0.414703369140625 -0.679840087890625
357218750.0 -0.80548095703125 -0.297210693359375
388440625.0 -0.884979248046875 0.2998046875
419662500.0 -0.51727294921875 0.865203857421875
450884375.0 0.172607421875 1.02801513671875
482106250.0 0.797332763671875 0.71240234375
513328125.0 1.118408203125 0.08770751953125
544550000.0 1.00323486328125 -0.67889404296875
575771875.0 0.3367919921875 -1.23675537109375
606993750.0 -0.55267333984375 -1.1766357421875
638215625.0 -1.16455078125 -0.59051513671875
669437500.0 -1.33880615234375 0.23309326171875
700659375.0 -0.97064208984375 1.0948486328125
731881250.0 -0.00433349609375 1.54180908203125
763103125.0 1.00445556640625 1.15533447265625
794325000.0 1.4671630859375 0.28192138671875
825546875.0 1.36614990234375 -0.65008544921875
856768750.0 0.79486083984375 -1.39849853515625
887990625.0 -0.2911376953125 -1.6466064453125
919212500.0 -1.28594970703125 -1.07818603515625
950434375.0 -1.6461181640625 -0.06011962890625
981656250.0 -1.38128662109375 0.94378662109375
1012878125.0 -0.5303955078125 1.66912841796875
1044100000.0 0.6947021484375 1.66015625
1075321875.0 1.57177734375 0.81195068359375
1106543750.0 1.7027587890625 -0.311279296875
1137765625.0 1.18572998046875 -1.28173828125
1168987500.0 0.13873291015625 -1.79486083984375
1200209375.0 -1.059326171875 -1.4822998046875
1231431250.0 -1.7247314453125 -0.45391845703125
1262653125.0 -1.59259033203125 0.68304443359375
1293875000.0 -0.85186767578125 1.489013671875
1325096875.0 0.2266845703125 1.7044677734375
1356318750.0 1.23291015625 1.215576171875
1387540625.0 1.73773193359375 0.189453125
1418762500.0 1.4674072265625 -0.94976806640625
1449984375.0 0.529296875 -1.62322998046875
1481206250.0 -0.54827880859375 -1.5537109375
1512428125.0 -1.33966064453125 -0.91864013671875
1543650000.0 -1.6531982421875 0.06439208984375
1574871875.0 -1.27215576171875 1.10662841796875
1606093750.0 -0.27337646484375 1.6292724609375
1637315625.0 0.7406005859375 1.39886474609375
1668537500.0 1.39404296875 0.6953125
1699759375.0 1.5712890625 -0.2763671875
1730981250.0 1.0633544921875 -1.22747802734375
1762203125.0 0.0428466796875 -1.5684814453125
1793425000.0 -0.85418701171875 -1.2254638671875
1824646875.0 -1.3914794921875 -0.51483154296875
1855868750.0 -1.47210693359375 0.43115234375
1887090625.0 -0.87432861328125 1.28326416015625
1918312500.0 0.11639404296875 1.48480224609375
1949534375.0 0.919677734375 1.08782958984375
1980756250.0 1.373046875 0.37030029296875
2011978125.0 1.35791015625 -0.5299072265625
2043200000.0 0.74981689453125 -1.2593994140625
2074421875.0 -0.15606689453125 -1.4317626953125
2105643750.0 -0.95831298828125 -1.0718994140625
2136865625.0 -1.44500732421875 -0.30560302734375
2168087500.0 -1.3555908203125 0.66943359375
2199309375.0 -0.638916015625 1.3492431640625
2230531250.0 0.28057861328125 1.43414306640625
2261753125.0 1.07110595703125 1.01312255859375
2292975000.0 1.51263427734375 0.1708984375
2324196875.0 1.3043212890625 -0.81744384765625
2355418750.0 0.52496337890625 -1.41778564453125
2386640625.0 -0.40362548828125 -1.44744873046875
2417862500.0 -1.17779541015625 -1.02337646484375
2449084375.0 -1.602294921875 -0.08502197265625
2480306250.0 -1.309814453125 0.9234619140625
2511528125.0 -0.49481201171875 1.50421142578125
2542750000.0 0.48687744140625 1.5341796875
2573971875.0 1.3690185546875 0.96673583984375
2605193750.0 1.71380615234375 -0.1107177734375
2636415625.0 1.260009765625 -1.1495361328125
2667637500.0 0.30657958984375 -1.6646728515625
2698859375.0 -0.7667236328125 -1.53228759765625
2730081250.0 -1.5699462890625 -0.74041748046875
2761303125.0 -1.67755126953125 0.38519287109375
2792525000.0 -1.098388671875 1.30419921875
2823746875.0 -0.103271484375 1.726318359375
2854968750.0 1.0091552734375 1.45318603515625
2886190625.0 1.68890380859375 0.49169921875
2917412500.0 1.59747314453125 -0.6162109375
2948634375.0 0.93865966796875 -1.4296875
2979856250.0 -0.10693359375 -1.77276611328125
3011078125.0 -1.243408203125 -1.3402099609375
3042300000.0 -1.7720947265625 -0.23516845703125
3073521875.0 -1.50677490234375 0.8360595703125
3104743750.0 -0.7626953125 1.56524658203125
3135965625.0 0.36004638671875 1.805908203125
3167187500.0 1.4959716796875 1.163330078125
3198409375.0 1.81219482421875 -0.07391357421875
3229631250.0 1.34735107421875 -1.079345703125
3260853125.0 0.48931884765625 -1.6654052734375
3292075000.0 -0.652587890625 -1.69476318359375
3323296875.0 -1.61572265625 -0.8790283203125
3354518750.0 -1.72772216796875 0.327392578125
3385740625.0 -1.154296875 1.22894287109375
3416962500.0 -0.23211669921875 1.678466796875
3448184375.0 0.8577880859375 1.5191650390625
3479406250.0 1.63238525390625 0.6439208984375
3510628125.0 1.64178466796875 -0.4945068359375
3541850000.0 0.99945068359375 -1.3516845703125
3573071875.0 -0.007080078125 -1.67974853515625
3604293750.0 -1.0257568359375 -1.33563232421875
3635515625.0 -1.6243896484375 -0.4385986328125
3666737500.0 -1.559814453125 0.644775390625
3697959375.0 -0.82403564453125 1.47314453125
3729181250.0 0.26702880859375 1.62762451171875
3760403125.0 1.14984130859375 1.09674072265625
3791625000.0 1.5491943359375 0.21881103515625
3822846875.0 1.39971923828125 -0.75830078125
3854068750.0 0.62030029296875 -1.47821044921875
3885290625.0 -0.4176025390625 -1.4783935546875
3916512500.0 -1.13909912109375 -0.91033935546875
3947734375.0 -1.4453125 -0.119873046875
3978956250.0 -1.295654296875 0.77734375
4010178125.0 -0.5316162109375 1.451171875
4041400000.0 0.471435546875 1.4130859375
4072621875.0 1.150146484375 0.84674072265625
4103843750.0 1.443115234375 0.06298828125
4135065625.0 1.2659912109375 -0.8431396484375
4166287500.0 0.45751953125 -1.49322509765625
4197509375.0 -0.55621337890625 -1.41326904296875
4228731250.0 -1.24481201171875 -0.802001953125
4259953125.0 -1.50665283203125 0.069580078125
4291175000.0 -1.18658447265625 1.0079345703125
4322396875.0 -0.2901611328125 1.5234375
4353618750.0 0.6710205078125 1.3486328125
4384840625.0 1.3199462890625 0.69677734375
4416062500.0 1.4990234375 -0.226806640625
4447284375.0 1.053955078125 -1.10223388671875
4478506250.0 0.17333984375 -1.49285888671875
4509728125.0 -0.73052978515625 -1.3055419921875
4540950000.0 -1.39117431640625 -0.6351318359375
4572171875.0 -1.5203857421875 0.35888671875
4603393750.0 -0.97198486328125 1.20953369140625
4634615625.0 -0.06158447265625 1.5352783203125
4665837500.0 0.8685302734375 1.30291748046875
4697059375.0 1.53765869140625 0.51556396484375
4728281250.0 1.52679443359375 -0.5804443359375
4759503125.0 0.82257080078125 -1.36370849609375
4790725000.0 -0.143798828125 -1.56951904296875
4821946875.0 -1.08099365234375 -1.19268798828125
4853168750.0 -1.61029052734375 -0.25213623046875
4884390625.0 -1.37579345703125 0.79046630859375
4915612500.0 -0.61376953125 1.40869140625
4946834375.0 0.32781982421875 1.50775146484375
4978056250.0 1.2034912109375 1.01629638671875
5009278125.0 1.55999755859375 0.03985595703125
5040500000.0 1.22760009765625 -0.8734130859375
5071721875.0 0.50152587890625 -1.412353515625
5102943750.0 -0.44622802734375 -1.495849609375
5134165625.0 -1.33343505859375 -0.905029296875
5165387500.0 -1.5654296875 0.14398193359375
5196609375.0 -1.1348876953125 1.0072021484375
5227831250.0 -0.357421875 1.5032958984375
5259053125.0 0.6865234375 1.49053955078125
5290275000.0 1.51904296875 0.66253662109375
5321496875.0 1.4901123046875 -0.42950439453125
5352718750.0 0.92034912109375 -1.150146484375
5383940625.0 0.097412109375 -1.497802734375
5415162500.0 -0.89849853515625 -1.28277587890625
5446384375.0 -1.4820556640625 -0.3707275390625
5477606250.0 -1.297607421875 0.56439208984375
5508828125.0 -0.73046875 1.149658203125
5540050000.0 0.05340576171875 1.39697265625
5571271875.0 0.937255859375 1.10772705078125
5602493750.0 1.406494140625 0.260498046875
5633715625.0 1.2305908203125 -0.61029052734375
5664937500.0 0.6480712890625 -1.19970703125
5696159375.0 -0.19573974609375 -1.3818359375
5727381250.0 -1.02032470703125 -0.97723388671875
5758603125.0 -1.38909912109375 -0.1458740234375
5789825000.0 -1.192626953125 0.716064453125
5821046875.0 -0.506591796875 1.30438232421875
5852268750.0 0.4105224609375 1.31195068359375
5883490625.0 1.0694580078125 0.7713623046875
5914712500.0 1.30084228515625 0.02056884765625
5945934375.0 1.09552001953125 -0.7750244140625
5977156250.0 0.36151123046875 -1.310302734375
6008378125.0 -0.5078125 -1.18084716796875
6039600000.0 -1.02032470703125 -0.64898681640625
6070821875.0 -1.222900390625 -0.00469970703125
6102043750.0 -1.082275390625 0.76116943359375
6133265625.0 -0.342529296875 1.34271240234375
6164487500.0 0.56195068359375 1.1861572265625
6195709375.0 1.06878662109375 0.62982177734375
6226931250.0 1.27813720703125 -0.0421142578125
6258153125.0 1.10369873046875 -0.87042236328125
6289375000.0 0.2559814453125 -1.4442138671875
6320596875.0 -0.68798828125 -1.20477294921875
6351818750.0 -1.198486328125 -0.57147216796875
6383040625.0 -1.3526611328125 0.20635986328125
6414262500.0 -0.99884033203125 1.0557861328125
6445484375.0 -0.0791015625 1.45458984375
6476706250.0 0.79443359375 1.1473388671875
6507928125.0 1.28857421875 0.46966552734375
6539150000.0 1.34564208984375 -0.3843994140625
6570371875.0 0.84002685546875 -1.14251708984375
6601593750.0 -0.0164794921875 -1.40301513671875
6632815625.0 -0.83892822265625 -1.13568115234375
6664037500.0 -1.39971923828125 -0.4202880859375
6695259375.0 -1.37213134765625 0.56524658203125
6726481250.0 -0.709716796875 1.25042724609375
6757703125.0 0.130615234375 1.40521240234375
6788925000.0 0.95367431640625 1.1297607421875
6820146875.0 1.5574951171875 0.28790283203125
6851368750.0 1.32464599609375 -0.8172607421875
6882590625.0 0.50616455078125 -1.33648681640625
6913812500.0 -0.29168701171875 -1.35552978515625
6945034375.0 -1.06842041015625 -1.0205078125
6976256250.0 -1.5908203125 -0.093505859375
7007478125.0 -1.23577880859375 0.93267822265625
7038700000.0 -0.402587890625 1.34136962890625
7069921875.0 0.35723876953125 1.32171630859375
7101143750.0 1.115478515625 0.9677734375
7132365625.0 1.59661865234375 0.01458740234375
7163587500.0 1.1571044921875 -1.0169677734375
7194809375.0 0.3021240234375 -1.39569091796875
7226031250.0 -0.50994873046875 -1.3240966796875
7257253125.0 -1.26300048828125 -0.82330322265625
7288475000.0 -1.5567626953125 0.19659423828125
7319696875.0 -1.02783203125 1.1075439453125
7350918750.0 -0.16400146484375 1.4429931640625
7382140625.0 0.7127685546875 1.2744140625
7413362500.0 1.37493896484375 0.57623291015625
7444584375.0 1.40911865234375 -0.40447998046875
7475806250.0 0.857177734375 -1.14337158203125
7507028125.0 0.0067138671875 -1.42669677734375
7538250000.0 -0.88531494140625 -1.12298583984375
7569471875.0 -1.33544921875 -0.3101806640625
7600693750.0 -1.2015380859375 0.4969482421875
7631915625.0 -0.7176513671875 1.08428955078125
7663137500.0 0.07843017578125 1.355224609375
7694359375.0 0.935394287109375 0.979461669921875
7725581250.0 1.24151611328125 0.18084716796875
7756803125.0 1.08099365234375 -0.4970703125
7788025000.0 0.66961669921875 -1.04168701171875
7819246875.0 -0.119384765625 -1.34490966796875
7850468750.0 -0.991424560546875 -0.91485595703125
7881690625.0 -1.23187255859375 -0.10498046875
7912912500.0 -1.05316162109375 0.55230712890625
7944134375.0 -0.60595703125 1.11004638671875
7975356250.0 0.2711181640625 1.33367919921875
8006578125.0 1.04461669921875 0.7774658203125
8037800000.0 1.1917724609375 0.01739501953125
8069021875.0 1.00543212890625 -0.61553955078125
8100243750.0 0.49993896484375 -1.15936279296875
8131465625.0 -0.386474609375 -1.25311279296875
8162687500.0 -1.03118896484375 -0.68621826171875
8193909375.0 -1.17987060546875 0.00701904296875
8225131250.0 -1.01776123046875 0.6773681640625
8256353125.0 -0.421630859375 1.246337890625
8287575000.0 0.50146484375 1.2259521484375
8318796875.0 1.0811767578125 0.63568115234375
8350018750.0 1.24591064453125 -0.076904296875
8381240625.0 1.0301513671875 -0.83905029296875
8412462500.0 0.25445556640625 -1.37322998046875
8443684375.0 -0.66754150390625 -1.168212890625
8474906250.0 -1.17291259765625 -0.5322265625
8506128125.0 -1.29534912109375 0.23345947265625
8537350000.0 -0.92376708984375 1.044921875
8568571875.0 -0.01507568359375 1.39385986328125
8599793750.0 0.8026123046875 1.052490234375
8631015625.0 1.2401123046875 0.3983154296875
8662237500.0 1.2841796875 -0.42864990234375
8693459375.0 0.7364501953125 -1.1767578125
8724681250.0 -0.16119384765625 -1.330078125
8755903125.0 -0.878692626953125 -0.95654296875
8787125000.0 -1.3031005859375 -0.28271484375
8818346875.0 -1.2490234375 0.6123046875
8849568750.0 -0.556884765625 1.25982666015625
8880790625.0 0.2989501953125 1.28466796875
8912012500.0 0.980072021484375 0.89129638671875
8943234375.0 1.39910888671875 0.1292724609375
8974456250.0 1.16754150390625 -0.8388671875
9005678125.0 0.34869384765625 -1.310302734375
9036900000.0 -0.4432373046875 -1.2236328125
9068121875.0 -1.0994873046875 -0.78509521484375
9099343750.0 -1.439208984375 0.096923828125
9130565625.0 -0.97943115234375 1.00897216796875
9161787500.0 -0.15496826171875 1.2816162109375
9193009375.0 0.5535888671875 1.1328125
9224231250.0 1.17767333984375 0.655029296875
9255453125.0 1.39813232421875 -0.296630859375
9286675000.0 0.806396484375 -1.08551025390625
9317896875.0 0.0269775390625 -1.2454833984375
9349118750.0 -0.65325927734375 -1.06964111328125
9380340625.0 -1.25628662109375 -0.50885009765625
9411562500.0 -1.31011962890625 0.474365234375
9442784375.0 -0.64910888671875 1.11431884765625
9474006250.0 0.08758544921875 1.21002197265625
9505228125.0 0.762420654296875 0.97955322265625
9536450000.0 1.2716064453125 0.31353759765625
9567671875.0 1.14306640625 -0.5775146484375
9598893750.0 0.52911376953125 -1.0692138671875
9630115625.0 -0.1431884765625 -1.1566162109375
9661337500.0 -0.81744384765625 -0.90240478515625
9692559375.0 -1.23651123046875 -0.19091796875
9723781250.0 -1.04351806640625 0.6019287109375
9755003125.0 -0.486083984375 1.0489501953125
9786225000.0 0.1964111328125 1.15728759765625
9817446875.0 0.892364501953125 0.828033447265625
9848668750.0 1.1971435546875 0.0791015625
9879890625.0 0.9677734375 -0.615020751953125
9911112500.0 0.452392578125 -1.0513916015625
9942334375.0 -0.26507568359375 -1.157470703125
9973556250.0 -0.9429931640625 -0.738006591796875
10004778125.0 -1.1446533203125 -0.0186767578125
10036000000.0 -0.944610595703125 0.614959716796875
10067221875.0 -0.44232177734375 1.095458984375
10098443750.0 0.36810302734375 1.17938232421875
10129665625.0 1.00225830078125 0.6429443359375
10160887500.0 1.119384765625 -0.05255126953125
10192109375.0 0.916961669921875 -0.66156005859375
10223331250.0 0.3614501953125 -1.1505126953125
10254553125.0 -0.482666015625 -1.11322021484375
10285775000.0 -0.983795166015625 -0.5355224609375
10316996875.0 -1.06634521484375 0.07611083984375
10348218750.0 -0.899627685546875 0.66815185546875
10379440625.0 -0.32281494140625 1.1739501953125
10410662500.0 0.52691650390625 1.08447265625
10441884375.0 0.9912109375 0.52099609375
10473106250.0 1.10760498046875 -0.08343505859375
10504328125.0 0.949188232421875 -0.756103515625
10535550000.0 0.23968505859375 -1.29443359375
10566771875.0 -0.65496826171875 -1.07574462890625
10597993750.0 -1.08203125 -0.45843505859375
10629215625.0 -1.17535400390625 0.20654296875
10660437500.0 -0.887176513671875 0.9521484375
10691659375.0 -0.01092529296875 1.3336181640625
10722881250.0 0.783966064453125 0.9520263671875
10754103125.0 1.117919921875 0.32464599609375
10785325000.0 1.13885498046875 -0.3670654296875
10816546875.0 0.701416015625 -1.04730224609375
10847768750.0 -0.14520263671875 -1.22955322265625
10878990625.0 -0.803131103515625 -0.843048095703125
10910212500.0 -1.12164306640625 -0.245849609375
10941434375.0 -1.0972900390625 0.477783203125
10972656250.0 -0.568115234375 1.084716796875
11003878125.0 0.2164306640625 1.17315673828125
11035100000.0 0.8465576171875 0.821380615234375
11066321875.0 1.22198486328125 0.17315673828125
11097543750.0 1.0985107421875 -0.67681884765625
11128765625.0 0.38580322265625 -1.19781494140625
11159987500.0 -0.39398193359375 -1.13763427734375
11191209375.0 -0.998748779296875 -0.702178955078125
11222431250.0 -1.27056884765625 0.09259033203125
11253653125.0 -0.858642578125 0.891998291015625
11284875000.0 -0.11468505859375 1.12506103515625
11316096875.0 0.51043701171875 0.955352783203125
11347318750.0 1.003173828125 0.501708984375
11378540625.0 1.11553955078125 -0.26800537109375
11409762500.0 0.635101318359375 -0.8597412109375
11440984375.0 0.03631591796875 -0.977325439453125
11472206250.0 -0.4808349609375 -0.85003662109375
11503428125.0 -0.952239990234375 -0.456573486328125
11534650000.0 -1.06744384765625 0.286376953125
11565871875.0 -0.601776123046875 0.85406494140625
11597093750.0 -0.0189208984375 0.991119384765625
11628315625.0 0.544036865234375 0.87451171875
11659537500.0 1.05975341796875 0.39239501953125
11690759375.0 1.06396484375 -0.43341064453125
11721981250.0 0.517120361328125 -0.939117431640625
11753203125.0 -0.1048583984375 -1.03515625
11784425000.0 -0.723114013671875 -0.808685302734375
11815646875.0 -1.099609375 -0.1507568359375
11846868750.0 -0.890960693359375 0.55072021484375
11878090625.0 -0.39111328125 0.907867431640625
11909312500.0 0.185699462890625 0.98309326171875
11940534375.0 0.781097412109375 0.69439697265625
11971756250.0 1.022705078125 0.04150390625
12002978125.0 0.805755615234375 -0.536407470703125
12034200000.0 0.381683349609375 -0.887542724609375
12065421875.0 -0.21466064453125 -1.00994873046875
12096643750.0 -0.846954345703125 -0.664886474609375
12127865625.0 -1.03289794921875 0.0152587890625
12159087500.0 -0.814056396484375 0.5736083984375
12190309375.0 -0.3780517578125 0.97357177734375
12221531250.0 0.339599609375 1.08624267578125
12252753125.0 0.97918701171875 0.58135986328125
12283975000.0 1.05364990234375 -0.12872314453125
12315196875.0 0.79937744140625 -0.67401123046875
12346418750.0 0.28082275390625 -1.091064453125
12377640625.0 -0.53692626953125 -1.0595703125
12408862500.0 -1.0335693359375 -0.4195556640625
12440084375.0 -1.00830078125 0.2230224609375
12471306250.0 -0.741363525390625 0.737030029296875
12502528125.0 -0.1800537109375 1.11968994140625
12533750000.0 0.61993408203125 0.9931640625
12564971875.0 1.04071044921875 0.36383056640625
12596193750.0 1.03009033203125 -0.26531982421875
12627415625.0 0.748809814453125 -0.829376220703125
12658637500.0 0.0799560546875 -1.20703125
12689859375.0 -0.73284912109375 -0.96636962890625
12721081250.0 -1.11669921875 -0.3057861328125
12752303125.0 -1.09765625 0.38360595703125
12783525000.0 -0.68603515625 1.02740478515625
12814746875.0 0.1649169921875 1.2510986328125
12845968750.0 0.863525390625 0.810577392578125
12877190625.0 1.1162109375 0.1719970703125
12908412500.0 1.0545654296875 -0.50146484375
12939634375.0 0.5421142578125 -1.116455078125
12970856250.0 -0.31976318359375 -1.175048828125
13002078125.0 -0.892364501953125 -0.693756103515625
13033300000.0 -1.10546875 -0.08599853515625
13064521875.0 -1.0084228515625 0.5926513671875
13095743750.0 -0.42034912109375 1.15374755859375
13126965625.0 0.406494140625 1.11956787109375
13158187500.0 0.946044921875 0.631744384765625
13189409375.0 1.1470947265625 -0.022216796875
13220631250.0 0.935760498046875 -0.74835205078125
13251853125.0 0.23419189453125 -1.17242431640625
13283075000.0 -0.5064697265625 -1.0186767578125
13314296875.0 -0.985504150390625 -0.528839111328125
13345518750.0 -1.13446044921875 0.176513671875
13376740625.0 -0.752655029296875 0.856231689453125
