!Created with skrf (http://scikit-rf.org).
# Hz S RI R 50.0 
!freq ReS11 ImS11
45000000.0 -0.076568603515625 -0.09714889526367188
76221875.0 -0.19676971435546875 -0.0482025146484375
107443750.0 -0.2561492919921875 0.119293212890625
138665625.0 -0.1494293212890625 0.3289947509765625
169887500.0 0.1224822998046875 0.4190673828125
201109375.0 0.4220733642578125 0.2830047607421875
232331250.0 0.58074951171875 -0.05572509765625
263553125.0 0.4922943115234375 -0.452728271484375
294775000.0 0.100921630859375 -0.73455810546875
325996875.0 -0.41485595703125 -0.684234619140625
357218750.0 -0.808258056640625 -0.3004150390625
388440625.0 -0.889556884765625 0.298980712890625
419662500.0 -0.52166748046875 0.867431640625
450884375.0 0.17010498046875 1.0328369140625
482106250.0 0.798614501953125 0.717315673828125
513328125.0 1.1226806640625 0.0908203125
544550000.0 1.00836181640625 -0.6783447265625
575771875.0 0.34100341796875 -1.23968505859375
606993750.0 -0.5511474609375 -1.18194580078125
638215625.0 -1.16693115234375 -0.59576416015625
669437500.0 -1.34405517578125 0.23016357421875
700659375.0 -0.97650146484375 1.09564208984375
731881250.0 -0.0089111328125 1.54656982421875
763103125.0 1.00457763671875 1.16241455078125
794325000.0 1.47186279296875 0.2872314453125
825546875.0 1.373046875 -0.6492919921875
856768750.0 0.8009033203125 -1.402587890625
887990625.0 -0.28875732421875 -1.65411376953125
919212500.0 -1.2891845703125 -1.08612060546875
950434375.0 -1.65435791015625 -0.06396484375
981656250.0 -1.3896484375 0.94500732421875
1012878125.0 -0.53631591796875 1.67633056640625
1044100000.0 0.69476318359375 1.66986083984375
1075321875.0 1.578125 0.819091796875
1106543750.0 1.71148681640625 -0.30902099609375
1137765625.0 1.19415283203125 -1.28466796875
1168987500.0 0.144287109375 -1.80267333984375
1200209375.0 -1.06109619140625 -1.49163818359375
1231431250.0 -1.73211669921875 -0.4595947265625
1262653125.0 -1.6009521484375 0.68206787109375
1293875000.0 -0.85894775390625 1.49310302734375
1325096875.0 0.2235107421875 1.71282958984375
1356318750.0 1.23480224609375 1.22406005859375
1387540625.0 1.74444580078125 0.1949462890625
1418762500.0 1.476806640625 -0.94927978515625
1449984375.0 0.53582763671875 -1.629150390625
1481206250.0 -0.546630859375 -1.562255859375
1512428125.0 -1.34326171875 -0.92626953125
1543650000.0 -1.6602783203125 0.06097412109375
1574871875.0 -1.27972412109375 1.1083984375
1606093750.0 -0.27838134765625 1.6351318359375
1637315625.0 0.7403564453125 1.40618896484375
1668537500.0 1.3978271484375 0.70172119140625
1699759375.0 1.5782470703125 -0.2734375
1730981250.0 1.07012939453125 -1.22955322265625
1762203125.0 0.0467529296875 -1.57452392578125
1793425000.0 -0.85479736328125 -1.2318115234375
1824646875.0 -1.39605712890625 -0.5203857421875
1855868750.0 -1.47882080078125 0.42828369140625
1887090625.0 -0.8809814453125 1.2867431640625
1918312500.0 0.11328125 1.49102783203125
1949534375.0 0.9215087890625 1.0943603515625
1980756250.0 1.37762451171875 0.37469482421875
2011978125.0 1.3646240234375 -0.5294189453125
2043200000.0 0.7552490234375 -1.26300048828125
2074421875.0 -0.15374755859375 -1.43731689453125
2105643750.0 -0.95941162109375 -1.07769775390625
2136865625.0 -1.4501953125 -0.30950927734375
2168087500.0 -1.3624267578125 0.66949462890625
2199309375.0 -0.64398193359375 1.35321044921875
2230531250.0 0.2791748046875 1.440673828125
2261753125.0 1.0728759765625 1.018798828125
2292975000.0 1.51806640625 0.1739501953125
2324196875.0 1.310791015625 -0.8177490234375
2355418750.0 0.5301513671875 -1.421875
2386640625.0 -0.4014892578125 -1.45343017578125
2417862500.0 -1.18243408203125 -1.0291748046875
2449084375.0 -1.60992431640625 -0.08685302734375
2480306250.0 -1.31695556640625 0.923828125
2511528125.0 -0.49920654296875 1.5103759765625
2542750000.0 0.48638916015625 1.5421142578125
2573971875.0 1.3720703125 0.97393798828125
2605193750.0 1.72216796875 -0.1082763671875
2636415625.0 1.26800537109375 -1.15362548828125
2667637500.0 0.31158447265625 -1.671142578125
2698859375.0 -0.7674560546875 -1.53955078125
2730081250.0 -1.57635498046875 -0.7469482421875
2761303125.0 -1.6868896484375 0.38507080078125
2792525000.0 -1.10595703125 1.30908203125
2823746875.0 -0.10662841796875 1.73455810546875
2854968750.0 1.01226806640625 1.46234130859375
2886190625.0 1.69647216796875 0.49664306640625
2917412500.0 1.606689453125 -0.616455078125
2948634375.0 0.9454345703125 -1.435791015625
2979856250.0 -0.10321044921875 -1.78155517578125
3011078125.0 -1.2479248046875 -1.348388671875
3042300000.0 -1.77935791015625 -0.23980712890625
3073521875.0 -1.51446533203125 0.83624267578125
3104743750.0 -0.76922607421875 1.5718994140625
3135965625.0 0.35845947265625 1.815185546875
3167187500.0 1.4998779296875 1.17120361328125
3198409375.0 1.82110595703125 -0.07183837890625
3229631250.0 1.3553466796875 -1.08135986328125
3260853125.0 0.49468994140625 -1.6722412109375
3292075000.0 -0.653076171875 -1.70458984375
3323296875.0 -1.6224365234375 -0.88623046875
3354518750.0 -1.73651123046875 0.32611083984375
3385740625.0 -1.1622314453125 1.2322998046875
3416962500.0 -0.235107421875 1.6865234375
3448184375.0 0.86053466796875 1.5281982421875
3479406250.0 1.6392822265625 0.64971923828125
3510628125.0 1.65008544921875 -0.493896484375
3541850000.0 1.0062255859375 -1.3572998046875
3573071875.0 -0.00439453125 -1.68634033203125
3604293750.0 -1.02813720703125 -1.34295654296875
3635515625.0 -1.63128662109375 -0.4429931640625
3666737500.0 -1.56756591796875 0.64508056640625
3697959375.0 -0.830078125 1.47747802734375
3729181250.0 0.264892578125 1.63531494140625
3760403125.0 1.15240478515625 1.10333251953125
3791625000.0 1.55645751953125 0.22222900390625
3822846875.0 1.4075927734375 -0.76019287109375
3854068750.0 0.6248779296875 -1.4842529296875
3885290625.0 -0.419189453125 -1.48590087890625
3916512500.0 -1.14300537109375 -0.9156494140625
3947734375.0 -1.4515380859375 -0.1229248046875
3978956250.0 -1.3026123046875 0.77880859375
4010178125.0 -0.53485107421875 1.4586181640625
4041400000.0 0.47357177734375 1.42022705078125
4072621875.0 1.153564453125 0.85186767578125
4103843750.0 1.4481201171875 0.06634521484375
4135065625.0 1.272705078125 -0.84649658203125
4166287500.0 0.4610595703125 -1.499755859375
4197509375.0 -0.5567626953125 -1.41937255859375
4228731250.0 -1.249267578125 -0.80615234375
4259953125.0 -1.51220703125 0.0675048828125
4291175000.0 -1.19317626953125 1.01043701171875
4322396875.0 -0.29296875 1.5299072265625
4353618750.0 0.67266845703125 1.35443115234375
4384840625.0 1.3248291015625 0.70123291015625
4416062500.0 1.5052490234375 -0.22509765625
4447284375.0 1.05950927734375 -1.10382080078125
4478506250.0 0.1751708984375 -1.49884033203125
4509728125.0 -0.732421875 -1.31231689453125
4540950000.0 -1.39801025390625 -0.6390380859375
4572171875.0 -1.52667236328125 0.35894775390625
4603393750.0 -0.9766845703125 1.21368408203125
4634615625.0 -0.063232421875 1.54107666015625
4665837500.0 0.87030029296875 1.308837890625
4697059375.0 1.54473876953125 0.518310546875
4728281250.0 1.53399658203125 -0.58184814453125
4759503125.0 0.82659912109375 -1.36834716796875
4790725000.0 -0.1419677734375 -1.57562255859375
4821946875.0 -1.08447265625 -1.19879150390625
4853168750.0 -1.6170654296875 -0.254150390625
4884390625.0 -1.38287353515625 0.79345703125
4915612500.0 -0.6168212890625 1.41546630859375
4946834375.0 0.32830810546875 1.5145263671875
4978056250.0 1.20709228515625 1.02227783203125
5009278125.0 1.56683349609375 0.0413818359375
5040500000.0 1.23370361328125 -0.87640380859375
5071721875.0 0.504638671875 -1.41802978515625
5102943750.0 -0.44586181640625 -1.5009765625
5134165625.0 -1.3397216796875 -0.90875244140625
5165387500.0 -1.57135009765625 0.14373779296875
5196609375.0 -1.13995361328125 1.00982666015625
5227831250.0 -0.36004638671875 1.5098876953125
5259053125.0 0.688232421875 1.49700927734375
5290275000.0 1.52587890625 0.66571044921875
5321496875.0 1.49658203125 -0.42987060546875
5352718750.0 0.92462158203125 -1.1552734375
5383940625.0 0.09954833984375 -1.50335693359375
5415162500.0 -0.90008544921875 -1.28851318359375
5446384375.0 -1.48809814453125 -0.37359619140625
5477606250.0 -1.303466796875 0.56585693359375
5508828125.0 -0.7352294921875 1.15277099609375
5540050000.0 0.0516357421875 1.4027099609375
5571271875.0 0.93994140625 1.11358642578125
5602493750.0 1.4122314453125 0.26226806640625
5633715625.0 1.2364501953125 -0.6124267578125
5664937500.0 0.65130615234375 -1.20391845703125
5696159375.0 -0.1973876953125 -1.3885498046875
5727381250.0 -1.02410888671875 -0.98211669921875
5758603125.0 -1.395263671875 -0.146728515625
5789825000.0 -1.19781494140625 0.7188720703125
5821046875.0 -0.50897216796875 1.309814453125
5852268750.0 0.41143798828125 1.31695556640625
5883490625.0 1.07275390625 0.77520751953125
5914712500.0 1.30615234375 0.02117919921875
5945934375.0 1.1004638671875 -0.777099609375
5977156250.0 0.3634033203125 -1.31536865234375
6008378125.0 -0.510009765625 -1.1856689453125
6039600000.0 -1.024169921875 -0.65142822265625
6070821875.0 -1.227783203125 -0.00567626953125
6102043750.0 -1.0872802734375 0.76324462890625
6133265625.0 -0.34405517578125 1.34759521484375
6164487500.0 0.56414794921875 1.190673828125
6195709375.0 1.072265625 0.63226318359375
6226931250.0 1.283447265625 -0.041748046875
6258153125.0 1.1087646484375 -0.87353515625
6289375000.0 0.25701904296875 -1.449462890625
6320596875.0 -0.69000244140625 -1.20892333984375
6351818750.0 -1.20263671875 -0.5733642578125
6383040625.0 -1.3575439453125 0.20562744140625
6414262500.0 -1.002685546875 1.058349609375
6445484375.0 -0.078857421875 1.46014404296875
6476706250.0 0.79779052734375 1.1510009765625
6507928125.0 1.29296875 0.47186279296875
6539150000.0 1.35162353515625 -0.3868408203125
6570371875.0 0.8441162109375 -1.146484375
6601593750.0 -0.01593017578125 -1.407470703125
6632815625.0 -0.8414306640625 -1.14013671875
6664037500.0 -1.405029296875 -0.4222412109375
6695259375.0 -1.37823486328125 0.56732177734375
6726481250.0 -0.7132568359375 1.25286865234375
6757703125.0 0.1302490234375 1.410888671875
6788925000.0 0.95684814453125 1.13482666015625
6820146875.0 1.5650634765625 0.288818359375
6851368750.0 1.3289794921875 -0.82037353515625
6882590625.0 0.50836181640625 -1.34173583984375
6913812500.0 -0.2913818359375 -1.3599853515625
6945034375.0 -1.0714111328125 -1.0247802734375
6976256250.0 -1.5965576171875 -0.09405517578125
7007478125.0 -1.23974609375 0.93426513671875
7038700000.0 -0.40374755859375 1.34722900390625
7069921875.0 0.3570556640625 1.32684326171875
7101143750.0 1.12109375 0.97259521484375
7132365625.0 1.6053466796875 0.01373291015625
7163587500.0 1.16156005859375 -1.024658203125
7194809375.0 0.3050537109375 -1.40155029296875
7226031250.0 -0.51263427734375 -1.33013916015625
7257253125.0 -1.27044677734375 -0.82843017578125
7288475000.0 -1.56256103515625 0.19879150390625
7319696875.0 -1.03363037109375 1.10943603515625
7350918750.0 -0.1650390625 1.44964599609375
7382140625.0 0.7164306640625 1.28143310546875
7413362500.0 1.37994384765625 0.57952880859375
7444584375.0 1.41522216796875 -0.4052734375
7475806250.0 0.86102294921875 -1.14581298828125
7507028125.0 0.0068359375 -1.43206787109375
7538250000.0 -0.88836669921875 -1.1280517578125
7569471875.0 -1.3392333984375 -0.31256103515625
7600693750.0 -1.2066650390625 0.49896240234375
7631915625.0 -0.72174072265625 1.0875244140625
7663137500.0 0.07916259765625 1.36309814453125
7694359375.0 0.94140625 0.9842529296875
7725581250.0 1.24749755859375 0.18206787109375
7756803125.0 1.08697509765625 -0.4991455078125
7788025000.0 0.6734619140625 -1.04656982421875
7819246875.0 -0.12103271484375 -1.35223388671875
7850468750.0 -0.99713134765625 -0.9200439453125
7881690625.0 -1.2373046875 -0.10418701171875
7912912500.0 -1.05859375 0.55596923828125
7944134375.0 -0.60699462890625 1.11712646484375
7975356250.0 0.27392578125 1.34027099609375
8006578125.0 1.048828125 0.78106689453125
8037800000.0 1.196533203125 0.0166015625
8069021875.0 1.0103759765625 -0.62005615234375
8100243750.0 0.5008544921875 -1.163818359375
8131465625.0 -0.38775634765625 -1.25732421875
8162687500.0 -1.03460693359375 -0.68865966796875
8193909375.0 -1.18389892578125 0.00677490234375
8225131250.0 -1.02197265625 0.67926025390625
8256353125.0 -0.42218017578125 1.25408935546875
8287575000.0 0.503662109375 1.2313232421875
8318796875.0 1.08441162109375 0.6375732421875
8350018750.0 1.24847412109375 -0.0748291015625
8381240625.0 1.0350341796875 -0.8428955078125
8412462500.0 0.25421142578125 -1.37908935546875
8443684375.0 -0.67169189453125 -1.1729736328125
8474906250.0 -1.17877197265625 -0.5340576171875
8506128125.0 -1.3009033203125 0.23797607421875
8537350000.0 -0.9273681640625 1.04974365234375
8568571875.0 -0.01605224609375 1.3973388671875
8599793750.0 0.8031005859375 1.0560302734375
8631015625.0 1.2451171875 0.399169921875
8662237500.0 1.28936767578125 -0.4290771484375
8693459375.0 0.739501953125 -1.18170166015625
8724681250.0 -0.1617431640625 -1.3348388671875
8755903125.0 -0.88336181640625 -0.96173095703125
8787125000.0 -1.30718994140625 -0.2840576171875
8818346875.0 -1.25482177734375 0.616455078125
8849568750.0 -0.55810546875 1.26763916015625
8880790625.0 0.299560546875 1.28997802734375
8912012500.0 0.983856201171875 0.894989013671875
8943234375.0 1.40557861328125 0.12799072265625
8974456250.0 1.169677734375 -0.84197998046875
9005678125.0 0.3472900390625 -1.31842041015625
9036900000.0 -0.4466552734375 -1.22784423828125
9068121875.0 -1.10540771484375 -0.7874755859375
9099343750.0 -1.4451904296875 0.09844970703125
9130565625.0 -0.9814453125 1.0157470703125
9161787500.0 -0.1561279296875 1.28387451171875
9193009375.0 0.555419921875 1.13641357421875
9224231250.0 1.18133544921875 0.65850830078125
9255453125.0 1.40576171875 -0.29815673828125
9286675000.0 0.8095703125 -1.087890625
9317896875.0 0.025634765625 -1.25225830078125
9349118750.0 -0.65643310546875 -1.07366943359375
9380340625.0 -1.26220703125 -0.5123291015625
9411562500.0 -1.316162109375 0.479736328125
9442784375.0 -0.64935302734375 1.121337890625
9474006250.0 0.08868408203125 1.21533203125
9505228125.0 0.769012451171875 0.983154296875
9536450000.0 1.279296875 0.3125
9567671875.0 1.14739990234375 -0.585205078125
9598893750.0 0.53045654296875 -1.07159423828125
9630115625.0 -0.14404296875 -1.1612548828125
9661337500.0 -0.82012939453125 -0.905120849609375
9692559375.0 -1.2423095703125 -0.18994140625
9723781250.0 -1.0457763671875 0.60467529296875
9755003125.0 -0.486572265625 1.0538330078125
9786225000.0 0.19921875 1.16363525390625
9817446875.0 0.8990478515625 0.830780029296875
9848668750.0 1.20208740234375 0.07708740234375
9879890625.0 0.970306396484375 -0.61798095703125
9911112500.0 0.4534912109375 -1.055908203125
9942334375.0 -0.27081298828125 -1.16485595703125
9973556250.0 -0.9471435546875 -0.740203857421875
10004778125.0 -1.1500244140625 -0.01580810546875
10036000000.0 -0.946868896484375 0.617889404296875
10067221875.0 -0.4420166015625 1.09991455078125
10098443750.0 0.3741455078125 1.186279296875
10129665625.0 1.005859375 0.643310546875
10160887500.0 1.1234130859375 -0.054443359375
10192109375.0 0.919097900390625 -0.66546630859375
10223331250.0 0.3619384765625 -1.1551513671875
10254553125.0 -0.4886474609375 -1.11627197265625
10285775000.0 -0.98785400390625 -0.535430908203125
10316996875.0 -1.0694580078125 0.0767822265625
10348218750.0 -0.902191162109375 0.673248291015625
10379440625.0 -0.3216552734375 1.18072509765625
10410662500.0 0.52783203125 1.0888671875
10441884375.0 0.9947509765625 0.522735595703125
10473106250.0 1.11151123046875 -0.0849609375
10504328125.0 0.9520263671875 -0.760467529296875
10535550000.0 0.2386474609375 -1.29949951171875
10566771875.0 -0.66070556640625 -1.07965087890625
10597993750.0 -1.0821533203125 -0.4598388671875
10629215625.0 -1.1793212890625 0.2069091796875
10660437500.0 -0.890716552734375 0.95599365234375
10691659375.0 -0.00701904296875 1.3387451171875
10722881250.0 0.787322998046875 0.954071044921875
10754103125.0 1.12286376953125 0.32525634765625
10785325000.0 1.1431884765625 -0.36956787109375
10816546875.0 0.7020263671875 -1.0535888671875
10847768750.0 -0.14556884765625 -1.2313232421875
10878990625.0 -0.806640625 -0.845458984375
10910212500.0 -1.1268310546875 -0.245361328125
10941434375.0 -1.10174560546875 0.4781494140625
10972656250.0 -0.56854248046875 1.08917236328125
11003878125.0 0.2188720703125 1.177734375
11035100000.0 0.851654052734375 0.824127197265625
11066321875.0 1.2265625 0.1739501953125
11097543750.0 1.10174560546875 -0.68023681640625
11128765625.0 0.38507080078125 -1.20489501953125
11159987500.0 -0.400146484375 -1.1431884765625
11191209375.0 -1.002685546875 -0.70416259765625
11222431250.0 -1.2760009765625 0.09539794921875
11253653125.0 -0.859832763671875 0.899383544921875
11284875000.0 -0.1148681640625 1.13031005859375
11316096875.0 0.5157470703125 0.960205078125
11347318750.0 1.00762939453125 0.50238037109375
11378540625.0 1.1207275390625 -0.272216796875
11409762500.0 0.634521484375 -0.864044189453125
11440984375.0 0.03729248046875 -0.979461669921875
11472206250.0 -0.483245849609375 -0.853057861328125
11503428125.0 -0.957000732421875 -0.457122802734375
11534650000.0 -1.07147216796875 0.28985595703125
11565871875.0 -0.60345458984375 0.857696533203125
11597093750.0 -0.01776123046875 0.99517822265625
11628315625.0 0.5472412109375 0.878204345703125
11659537500.0 1.0638427734375 0.39288330078125
11690759375.0 1.06719970703125 -0.43536376953125
11721981250.0 0.51702880859375 -0.944580078125
11753203125.0 -0.10638427734375 -1.03948974609375
11784425000.0 -0.72760009765625 -0.809967041015625
11815646875.0 -1.10601806640625 -0.14959716796875
11846868750.0 -0.8934326171875 0.554534912109375
11878090625.0 -0.3919677734375 0.9117431640625
11909312500.0 0.1878662109375 0.988250732421875
11940534375.0 0.784454345703125 0.696441650390625
11971756250.0 1.02880859375 0.0380859375
12002978125.0 0.80780029296875 -0.538177490234375
12034200000.0 0.382232666015625 -0.89215087890625
12065421875.0 -0.21722412109375 -1.01318359375
12096643750.0 -0.8515625 -0.6651611328125
12127865625.0 -1.03753662109375 0.01922607421875
12159087500.0 -0.81671142578125 0.57745361328125
12190309375.0 -0.377197265625 0.979949951171875
12221531250.0 0.34149169921875 1.0902099609375
12252753125.0 0.9842529296875 0.58148193359375
12283975000.0 1.05712890625 -0.12939453125
12315196875.0 0.80194091796875 -0.6796875
12346418750.0 0.28106689453125 -1.09466552734375
12377640625.0 -0.5426025390625 -1.06396484375
12408862500.0 -1.03753662109375 -0.4189453125
12440084375.0 -1.0101318359375 0.22613525390625
12471306250.0 -0.743560791015625 0.739013671875
12502528125.0 -0.1790771484375 1.125244140625
12533750000.0 0.624725341796875 0.995635986328125
12564971875.0 1.04571533203125 0.3636474609375
12596193750.0 1.03326416015625 -0.26715087890625
12627415625.0 0.75006103515625 -0.831024169921875
12658637500.0 0.07794189453125 -1.21124267578125
12689859375.0 -0.740325927734375 -0.968475341796875
12721081250.0 -1.12286376953125 -0.3046875
12752303125.0 -1.10223388671875 0.38543701171875
12783525000.0 -0.68707275390625 1.0340576171875
12814746875.0 0.1697998046875 1.2552490234375
12845968750.0 0.86669921875 0.812408447265625
12877190625.0 1.12225341796875 0.17095947265625
12908412500.0 1.06097412109375 -0.507080078125
12939634375.0 0.542724609375 -1.12164306640625
12970856250.0 -0.324462890625 -1.17779541015625
13002078125.0 -0.8980712890625 -0.6944580078125
13033300000.0 -1.10992431640625 -0.08575439453125
13064521875.0 -1.01300048828125 0.598876953125
13095743750.0 -0.41937255859375 1.15960693359375
13126965625.0 0.41339111328125 1.1236572265625
13158187500.0 0.95062255859375 0.632110595703125
13189409375.0 1.15399169921875 -0.02276611328125
13220631250.0 0.938262939453125 -0.75244140625
13251853125.0 0.23114013671875 -1.178466796875
13283075000.0 -0.5107421875 -1.0220947265625
13314296875.0 -0.9921875 -0.529571533203125
13345518750.0 -1.13958740234375 0.17987060546875
