!Created with skrf (http://scikit-rf.org).
# Hz S RI R 50.0 
!freq ReS11 ImS11
45000000.0 -0.07718276977539062 -0.09671401977539062
76221875.0 -0.1965789794921875 -0.047271728515625
107443750.0 -0.2550048828125 0.1203155517578125
138665625.0 -0.1479034423828125 0.32904052734375
169887500.0 0.1240692138671875 0.417388916015625
201109375.0 0.4222564697265625 0.2807159423828125
232331250.0 0.5791015625 -0.05816650390625
263553125.0 0.4893341064453125 -0.45361328125
294775000.0 0.09796142578125 -0.733123779296875
325996875.0 -0.4166259765625 -0.68072509765625
357218750.0 -0.807098388671875 -0.2965087890625
388440625.0 -0.886077880859375 0.3018798828125
419662500.0 -0.516510009765625 0.8673095703125
450884375.0 0.1741943359375 1.0291748046875
482106250.0 0.799591064453125 0.712127685546875
513328125.0 1.11981201171875 0.08599853515625
544550000.0 1.00335693359375 -0.68115234375
575771875.0 0.3349609375 -1.2386474609375
606993750.0 -0.55499267578125 -1.1771240234375
638215625.0 -1.1666259765625 -0.58953857421875
669437500.0 -1.33984375 0.23492431640625
700659375.0 -0.97015380859375 1.09735107421875
731881250.0 -0.00213623046875 1.5433349609375
763103125.0 1.00665283203125 1.155029296875
794325000.0 1.4693603515625 0.280517578125
825546875.0 1.366943359375 -0.6527099609375
856768750.0 0.79327392578125 -1.4019775390625
887990625.0 -0.2943115234375 -1.64825439453125
919212500.0 -1.28955078125 -1.07769775390625
950434375.0 -1.64892578125 -0.0574951171875
981656250.0 -1.38201904296875 0.94830322265625
1012878125.0 -0.52825927734375 1.6732177734375
1044100000.0 0.6986083984375 1.66143798828125
1075321875.0 1.57574462890625 0.810546875
1106543750.0 1.70465087890625 -0.31475830078125
1137765625.0 1.18548583984375 -1.2862548828125
1168987500.0 0.135986328125 -1.7977294921875
1200209375.0 -1.062744140625 -1.48248291015625
1231431250.0 -1.728271484375 -0.45208740234375
1262653125.0 -1.59344482421875 0.68646240234375
1293875000.0 -0.85040283203125 1.4920654296875
1325096875.0 0.2296142578125 1.7061767578125
1356318750.0 1.23583984375 1.2158203125
1387540625.0 1.739990234375 0.18731689453125
1418762500.0 1.4686279296875 -0.9527587890625
1449984375.0 0.52801513671875 -1.62628173828125
1481206250.0 -0.55126953125 -1.55548095703125
1512428125.0 -1.34246826171875 -0.91845703125
1543650000.0 -1.655517578125 0.06689453125
1574871875.0 -1.27215576171875 1.10986328125
1606093750.0 -0.27099609375 1.63128662109375
1637315625.0 0.7431640625 1.39971923828125
1668537500.0 1.3963623046875 0.694580078125
1699759375.0 1.57275390625 -0.2786865234375
1730981250.0 1.062744140625 -1.23004150390625
1762203125.0 0.0411376953125 -1.56964111328125
1793425000.0 -0.85662841796875 -1.2254638671875
1824646875.0 -1.39349365234375 -0.51373291015625
1855868750.0 -1.473388671875 0.43341064453125
1887090625.0 -0.8740234375 1.28607177734375
1918312500.0 0.1180419921875 1.4864501953125
1949534375.0 0.92205810546875 1.0885009765625
1980756250.0 1.3751220703125 0.368896484375
2011978125.0 1.35894775390625 -0.53216552734375
2043200000.0 0.74859619140625 -1.2618408203125
2074421875.0 -0.1580810546875 -1.43255615234375
2105643750.0 -0.96075439453125 -1.0716552734375
2136865625.0 -1.44732666015625 -0.3031005859375
2168087500.0 -1.3560791015625 0.67181396484375
2199309375.0 -0.63775634765625 1.3514404296875
2230531250.0 0.283203125 1.43560791015625
2261753125.0 1.07275390625 1.01312255859375
2292975000.0 1.51409912109375 0.1689453125
2324196875.0 1.30450439453125 -0.819091796875
2355418750.0 0.52410888671875 -1.4195556640625
2386640625.0 -0.405029296875 -1.44854736328125
2417862500.0 -1.1810302734375 -1.02325439453125
2449084375.0 -1.6053466796875 -0.0823974609375
2480306250.0 -1.3106689453125 0.9254150390625
2511528125.0 -0.4923095703125 1.5078125
2542750000.0 0.48907470703125 1.53485107421875
2573971875.0 1.37066650390625 0.96685791015625
2605193750.0 1.717041015625 -0.1136474609375
2636415625.0 1.260498046875 -1.154541015625
2667637500.0 0.30535888671875 -1.66656494140625
2698859375.0 -0.77166748046875 -1.5333251953125
2730081250.0 -1.5732421875 -0.73883056640625
2761303125.0 -1.68060302734375 0.3892822265625
2792525000.0 -1.09844970703125 1.30755615234375
2823746875.0 -0.10125732421875 1.72833251953125
2854968750.0 1.01324462890625 1.454345703125
2886190625.0 1.6915283203125 0.49005126953125
2917412500.0 1.598876953125 -0.618408203125
2948634375.0 0.9383544921875 -1.43389892578125
2979856250.0 -0.10882568359375 -1.77532958984375
3011078125.0 -1.2489013671875 -1.34112548828125
3042300000.0 -1.77490234375 -0.2332763671875
3073521875.0 -1.50714111328125 0.8382568359375
3104743750.0 -0.761474609375 1.56939697265625
3135965625.0 0.36358642578125 1.8077392578125
3167187500.0 1.50018310546875 1.162841796875
3198409375.0 1.815673828125 -0.076904296875
3229631250.0 1.3475341796875 -1.081787109375
3260853125.0 0.48760986328125 -1.66845703125
3292075000.0 -0.65521240234375 -1.696044921875
3323296875.0 -1.619140625 -0.87774658203125
3354518750.0 -1.7288818359375 0.329345703125
3385740625.0 -1.15447998046875 1.23199462890625
3416962500.0 -0.23046875 1.67962646484375
3448184375.0 0.86102294921875 1.52056884765625
3479406250.0 1.63580322265625 0.6424560546875
3510628125.0 1.64300537109375 -0.496337890625
3541850000.0 0.9990234375 -1.35504150390625
3573071875.0 -0.00787353515625 -1.6810302734375
3604293750.0 -1.0283203125 -1.33599853515625
3635515625.0 -1.62738037109375 -0.43731689453125
3666737500.0 -1.560546875 0.6470947265625
3697959375.0 -0.82342529296875 1.47662353515625
3729181250.0 0.26934814453125 1.62957763671875
3760403125.0 1.15118408203125 1.09674072265625
3791625000.0 1.5518798828125 0.21722412109375
3822846875.0 1.40020751953125 -0.76043701171875
3854068750.0 0.618896484375 -1.48095703125
3885290625.0 -0.42327880859375 -1.48077392578125
3916512500.0 -1.1427001953125 -0.90960693359375
3947734375.0 -1.446533203125 -0.1190185546875
3978956250.0 -1.29620361328125 0.7789306640625
4010178125.0 -0.5303955078125 1.45306396484375
4041400000.0 0.47320556640625 1.41436767578125
4072621875.0 1.1517333984375 0.8465576171875
4103843750.0 1.44403076171875 0.0621337890625
4135065625.0 1.2664794921875 -0.84600830078125
4166287500.0 0.45654296875 -1.4962158203125
4197509375.0 -0.55828857421875 -1.414794921875
4228731250.0 -1.2476806640625 -0.80230712890625
4259953125.0 -1.5074462890625 0.0704345703125
4291175000.0 -1.1876220703125 1.009521484375
4322396875.0 -0.288330078125 1.52655029296875
4353618750.0 0.6744384765625 1.34979248046875
4384840625.0 1.32208251953125 0.69586181640625
4416062500.0 1.49981689453125 -0.22882080078125
4447284375.0 1.053955078125 -1.1041259765625
4478506250.0 0.17095947265625 -1.495361328125
4509728125.0 -0.73187255859375 -1.30621337890625
4540950000.0 -1.3929443359375 -0.6351318359375
4572171875.0 -1.52105712890625 0.3597412109375
4603393750.0 -0.97161865234375 1.21209716796875
4634615625.0 -0.06048583984375 1.53662109375
4665837500.0 0.8699951171875 1.3037109375
4697059375.0 1.5413818359375 0.5140380859375
4728281250.0 1.52801513671875 -0.58258056640625
4759503125.0 0.822265625 -1.36737060546875
4790725000.0 -0.1458740234375 -1.5721435546875
4821946875.0 -1.08331298828125 -1.193359375
4853168750.0 -1.6119384765625 -0.2509765625
4884390625.0 -1.37762451171875 0.794189453125
4915612500.0 -0.6123046875 1.41265869140625
4946834375.0 0.3294677734375 1.50885009765625
4978056250.0 1.2054443359375 1.01611328125
5009278125.0 1.561767578125 0.0380859375
5040500000.0 1.22802734375 -0.87518310546875
5071721875.0 0.50054931640625 -1.4146728515625
5102943750.0 -0.4476318359375 -1.49609375
5134165625.0 -1.33538818359375 -0.90496826171875
5165387500.0 -1.5677490234375 0.14666748046875
5196609375.0 -1.13580322265625 1.00897216796875
5227831250.0 -0.35711669921875 1.50531005859375
5259053125.0 0.68865966796875 1.49176025390625
5290275000.0 1.52154541015625 0.6622314453125
5321496875.0 1.49169921875 -0.43157958984375
5352718750.0 0.9205322265625 -1.15350341796875
5383940625.0 0.09576416015625 -1.49993896484375
5415162500.0 -0.9012451171875 -1.2823486328125
5446384375.0 -1.48388671875 -0.36956787109375
5477606250.0 -1.2982177734375 0.56640625
5508828125.0 -0.73040771484375 1.151611328125
5540050000.0 0.054931640625 1.39862060546875
5571271875.0 0.93841552734375 1.108154296875
5602493750.0 1.40789794921875 0.25909423828125
5633715625.0 1.2310791015625 -0.61181640625
5664937500.0 0.64715576171875 -1.2015380859375
5696159375.0 -0.19677734375 -1.3829345703125
5727381250.0 -1.02239990234375 -0.97808837890625
5758603125.0 -1.3909912109375 -0.1446533203125
5789825000.0 -1.194091796875 0.71807861328125
5821046875.0 -0.5059814453125 1.307373046875
5852268750.0 0.41229248046875 1.31280517578125
5883490625.0 1.07183837890625 0.77178955078125
5914712500.0 1.30194091796875 0.01959228515625
5945934375.0 1.09539794921875 -0.77581787109375
5977156250.0 0.36041259765625 -1.31329345703125
6008378125.0 -0.50946044921875 -1.1820068359375
6039600000.0 -1.02203369140625 -0.64849853515625
6070821875.0 -1.22412109375 -0.00384521484375
6102043750.0 -1.08258056640625 0.762451171875
6133265625.0 -0.34112548828125 1.34442138671875
6164487500.0 0.5628662109375 1.18682861328125
6195709375.0 1.07110595703125 0.62939453125
6226931250.0 1.2796630859375 -0.04266357421875
6258153125.0 1.10418701171875 -0.8724365234375
6289375000.0 0.25616455078125 -1.44610595703125
6320596875.0 -0.68988037109375 -1.2061767578125
6351818750.0 -1.19976806640625 -0.57232666015625
6383040625.0 -1.3538818359375 0.2064208984375
6414262500.0 -1.00018310546875 1.056396484375
6445484375.0 -0.0775146484375 1.45709228515625
6476706250.0 0.79608154296875 1.14794921875
6507928125.0 1.291015625 0.469482421875
6539150000.0 1.34716796875 -0.38702392578125
6570371875.0 0.84051513671875 -1.143310546875
6601593750.0 -0.01824951171875 -1.405029296875
6632815625.0 -0.840087890625 -1.13555908203125
6664037500.0 -1.40069580078125 -0.41986083984375
6695259375.0 -1.373779296875 0.56610107421875
6726481250.0 -0.7095947265625 1.251220703125
6757703125.0 0.13116455078125 1.40667724609375
6788925000.0 0.95538330078125 1.131103515625
6820146875.0 1.5596923828125 0.28814697265625
6851368750.0 1.32611083984375 -0.819580078125
6882590625.0 0.50634765625 -1.33831787109375
6913812500.0 -0.29278564453125 -1.35675048828125
6945034375.0 -1.0704345703125 -1.02117919921875
6976256250.0 -1.59173583984375 -0.0936279296875
7007478125.0 -1.23590087890625 0.93426513671875
7038700000.0 -0.402587890625 1.34326171875
7069921875.0 0.35986328125 1.32281494140625
7101143750.0 1.1177978515625 0.96771240234375
7132365625.0 1.598876953125 0.01458740234375
7163587500.0 1.1573486328125 -1.01953125
7194809375.0 0.30206298828125 -1.39739990234375
7226031250.0 -0.5130615234375 -1.325439453125
7257253125.0 -1.2646484375 -0.82415771484375
7288475000.0 -1.558349609375 0.19830322265625
7319696875.0 -1.0308837890625 1.11114501953125
7350918750.0 -0.16363525390625 1.44415283203125
7382140625.0 0.71478271484375 1.275390625
7413362500.0 1.3790283203125 0.574951171875
7444584375.0 1.41131591796875 -0.40570068359375
7475806250.0 0.85772705078125 -1.14398193359375
7507028125.0 0.00457763671875 -1.43011474609375
7538250000.0 -0.8880615234375 -1.1243896484375
7569471875.0 -1.33636474609375 -0.31048583984375
7600693750.0 -1.2025146484375 0.4991455078125
7631915625.0 -0.7161865234375 1.08819580078125
7663137500.0 0.081787109375 1.3583984375
7694359375.0 0.94183349609375 0.979644775390625
7725581250.0 1.24530029296875 0.17901611328125
7756803125.0 1.08154296875 -0.4989013671875
7788025000.0 0.66943359375 -1.0445556640625
7819246875.0 -0.12237548828125 -1.3485107421875
7850468750.0 -0.99285888671875 -0.916259765625
7881690625.0 -1.2314453125 -0.1048583984375
7912912500.0 -1.05474853515625 0.55548095703125
7944134375.0 -0.605224609375 1.11248779296875
7975356250.0 0.271240234375 1.33489990234375
8006578125.0 1.0482177734375 0.778564453125
8037800000.0 1.19488525390625 0.0150146484375
8069021875.0 1.007080078125 -0.61846923828125
8100243750.0 0.49957275390625 -1.162109375
8131465625.0 -0.38885498046875 -1.25506591796875
8162687500.0 -1.032958984375 -0.68560791015625
8193909375.0 -1.18157958984375 0.01025390625
8225131250.0 -1.0185546875 0.68035888671875
8256353125.0 -0.42071533203125 1.2486572265625
8287575000.0 0.49945068359375 1.225341796875
8318796875.0 1.0826416015625 0.6348876953125
8350018750.0 1.24554443359375 -0.07635498046875
8381240625.0 1.031494140625 -0.84014892578125
8412462500.0 0.2532958984375 -1.37481689453125
8443684375.0 -0.67169189453125 -1.1705322265625
8474906250.0 -1.17596435546875 -0.53228759765625
8506128125.0 -1.29742431640625 0.2366943359375
8537350000.0 -0.92462158203125 1.04718017578125
8568571875.0 -0.01580810546875 1.3951416015625
8599793750.0 0.8023681640625 1.0538330078125
8631015625.0 1.2413330078125 0.39776611328125
8662237500.0 1.286865234375 -0.4296875
8693459375.0 0.73675537109375 -1.17877197265625
8724681250.0 -0.16314697265625 -1.33203125
8755903125.0 -0.88128662109375 -0.95758056640625
8787125000.0 -1.30377197265625 -0.28179931640625
8818346875.0 -1.25042724609375 0.6162109375
8849568750.0 -0.55596923828125 1.26025390625
8880790625.0 0.29864501953125 1.2850341796875
8912012500.0 0.981292724609375 0.8924560546875
8943234375.0 1.40069580078125 0.127685546875
8974456250.0 1.16729736328125 -0.84063720703125
9005678125.0 0.34832763671875 -1.31341552734375
9036900000.0 -0.4456787109375 -1.2254638671875
9068121875.0 -1.1015625 -0.78533935546875
9099343750.0 -1.44207763671875 0.0972900390625
9130565625.0 -0.97979736328125 1.01177978515625
9161787500.0 -0.15447998046875 1.2838134765625
9193009375.0 0.5552978515625 1.13323974609375
9224231250.0 1.18170166015625 0.65447998046875
9255453125.0 1.39935302734375 -0.2967529296875
9286675000.0 0.80731201171875 -1.0859375
9317896875.0 0.026611328125 -1.246826171875
9349118750.0 -0.65277099609375 -1.0692138671875
9380340625.0 -1.2572021484375 -0.50927734375
9411562500.0 -1.3123779296875 0.47772216796875
9442784375.0 -0.6483154296875 1.1158447265625
9474006250.0 0.08837890625 1.21051025390625
9505228125.0 0.765106201171875 0.9803466796875
9536450000.0 1.27447509765625 0.3138427734375
9567671875.0 1.14520263671875 -0.5811767578125
9598893750.0 0.52996826171875 -1.06939697265625
9630115625.0 -0.1434326171875 -1.15740966796875
9661337500.0 -0.820068359375 -0.90203857421875
9692559375.0 -1.23858642578125 -0.191650390625
9723781250.0 -1.04425048828125 0.60333251953125
9755003125.0 -0.485595703125 1.05120849609375
9786225000.0 0.19757080078125 1.1583251953125
9817446875.0 0.8948974609375 0.828369140625
9848668750.0 1.197265625 0.07879638671875
9879890625.0 0.96826171875 -0.616180419921875
9911112500.0 0.45172119140625 -1.05157470703125
9942334375.0 -0.2701416015625 -1.16058349609375
9973556250.0 -0.94415283203125 -0.738739013671875
10004778125.0 -1.145751953125 -0.01800537109375
10036000000.0 -0.944091796875 0.615447998046875
10067221875.0 -0.44134521484375 1.0966796875
10098443750.0 0.36907958984375 1.181396484375
10129665625.0 1.00372314453125 0.64324951171875
10160887500.0 1.1201171875 -0.0517578125
10192109375.0 0.918304443359375 -0.66400146484375
10223331250.0 0.36273193359375 -1.15106201171875
10254553125.0 -0.48468017578125 -1.1142578125
10285775000.0 -0.985382080078125 -0.536163330078125
10316996875.0 -1.06695556640625 0.07568359375
10348218750.0 -0.899810791015625 0.671417236328125
10379440625.0 -0.32147216796875 1.17608642578125
10410662500.0 0.5302734375 1.08636474609375
10441884375.0 0.9915771484375 0.52130126953125
10473106250.0 1.1094970703125 -0.0849609375
10504328125.0 0.947967529296875 -0.75628662109375
10535550000.0 0.24066162109375 -1.29364013671875
10566771875.0 -0.65850830078125 -1.0775146484375
10597993750.0 -1.0799560546875 -0.46002197265625
10629215625.0 -1.17523193359375 0.20452880859375
10660437500.0 -0.8878173828125 0.950927734375
10691659375.0 -0.010498046875 1.3341064453125
10722881250.0 0.7833251953125 0.95379638671875
10754103125.0 1.11993408203125 0.324462890625
10785325000.0 1.14093017578125 -0.36859130859375
10816546875.0 0.69989013671875 -1.05206298828125
10847768750.0 -0.1463623046875 -1.22943115234375
10878990625.0 -0.80377197265625 -0.84344482421875
10910212500.0 -1.1221923828125 -0.24603271484375
10941434375.0 -1.0977783203125 0.47637939453125
10972656250.0 -0.5689697265625 1.084716796875
11003878125.0 0.217041015625 1.174072265625
11035100000.0 0.847930908203125 0.821868896484375
11066321875.0 1.2222900390625 0.17315673828125
11097543750.0 1.09783935546875 -0.6759033203125
11128765625.0 0.3858642578125 -1.19970703125
11159987500.0 -0.395751953125 -1.1387939453125
11191209375.0 -0.998565673828125 -0.703216552734375
11222431250.0 -1.2725830078125 0.09375
11253653125.0 -0.859344482421875 0.8948974609375
11284875000.0 -0.11553955078125 1.1273193359375
11316096875.0 0.512969970703125 0.95672607421875
11347318750.0 1.0028076171875 0.50250244140625
11378540625.0 1.117919921875 -0.2698974609375
11409762500.0 0.6348876953125 -0.861053466796875
11440984375.0 0.035858154296875 -0.979644775390625
11472206250.0 -0.480804443359375 -0.848907470703125
11503428125.0 -0.9525146484375 -0.45648193359375
11534650000.0 -1.0693359375 0.289794921875
11565871875.0 -0.6019287109375 0.854949951171875
11597093750.0 -0.01922607421875 0.99078369140625
11628315625.0 0.543731689453125 0.8758544921875
11659537500.0 1.05914306640625 0.39251708984375
11690759375.0 1.06549072265625 -0.4337158203125
11721981250.0 0.516571044921875 -0.94073486328125
11753203125.0 -0.1060791015625 -1.03704833984375
11784425000.0 -0.725555419921875 -0.809234619140625
11815646875.0 -1.10223388671875 -0.15069580078125
11846868750.0 -0.891510009765625 0.549285888671875
11878090625.0 -0.391845703125 0.9088134765625
11909312500.0 0.188934326171875 0.9873046875
11940534375.0 0.780517578125 0.69549560546875
11971756250.0 1.02593994140625 0.0389404296875
12002978125.0 0.806854248046875 -0.53826904296875
12034200000.0 0.381317138671875 -0.889495849609375
12065421875.0 -0.214599609375 -1.0091552734375
12096643750.0 -0.848419189453125 -0.6651611328125
12127865625.0 -1.03375244140625 0.01629638671875
12159087500.0 -0.815185546875 0.576690673828125
12190309375.0 -0.377685546875 0.9744873046875
12221531250.0 0.34033203125 1.0880126953125
12252753125.0 0.981719970703125 0.582061767578125
12283975000.0 1.053955078125 -0.12786865234375
12315196875.0 0.800262451171875 -0.678070068359375
12346418750.0 0.28070068359375 -1.09246826171875
12377640625.0 -0.5380859375 -1.0621337890625
12408862500.0 -1.03472900390625 -0.42108154296875
12440084375.0 -1.0096435546875 0.225341796875
12471306250.0 -0.742218017578125 0.7364501953125
12502528125.0 -0.17987060546875 1.12109375
12533750000.0 0.620147705078125 0.99432373046875
12564971875.0 1.0411376953125 0.36370849609375
12596193750.0 1.02996826171875 -0.264892578125
12627415625.0 0.747314453125 -0.830108642578125
12658637500.0 0.0791015625 -1.2086181640625
12689859375.0 -0.73638916015625 -0.966278076171875
12721081250.0 -1.1180419921875 -0.3052978515625
12752303125.0 -1.09735107421875 0.38116455078125
12783525000.0 -0.687744140625 1.02764892578125
12814746875.0 0.16558837890625 1.2528076171875
12845968750.0 0.86181640625 0.810821533203125
12877190625.0 1.11773681640625 0.17218017578125
12908412500.0 1.05755615234375 -0.50244140625
12939634375.0 0.54254150390625 -1.11669921875
12970856250.0 -0.32061767578125 -1.17578125
13002078125.0 -0.8958740234375 -0.694000244140625
13033300000.0 -1.10650634765625 -0.08642578125
13064521875.0 -1.00909423828125 0.59423828125
13095743750.0 -0.42041015625 1.15625
13126965625.0 0.4102783203125 1.12109375
13158187500.0 0.9486083984375 0.631195068359375
13189409375.0 1.14935302734375 -0.02117919921875
13220631250.0 0.935546875 -0.7489013671875
13251853125.0 0.23492431640625 -1.1722412109375
13283075000.0 -0.5087890625 -1.020751953125
13314296875.0 -0.988006591796875 -0.529052734375
13345518750.0 -1.1353759765625 0.1759033203125
13376740625.0 -0.753814697265625 0.8597412109375
