!Created with skrf (http://scikit-rf.org).
# Hz S RI R 50.0 
!freq ReS11 ImS11
45000000.0 -0.07725143432617188 -0.0968017578125
76221875.0 -0.1963958740234375 -0.04741668701171875
107443750.0 -0.254791259765625 0.1197662353515625
138665625.0 -0.1480255126953125 0.3285064697265625
169887500.0 0.12371826171875 0.4174041748046875
201109375.0 0.4218597412109375 0.2805328369140625
232331250.0 0.5787353515625 -0.0577392578125
263553125.0 0.4891510009765625 -0.4530792236328125
294775000.0 0.097869873046875 -0.7322998046875
325996875.0 -0.41558837890625 -0.680206298828125
357218750.0 -0.806304931640625 -0.296539306640625
388440625.0 -0.885345458984375 0.30108642578125
419662500.0 -0.516815185546875 0.866119384765625
450884375.0 0.173583984375 1.02825927734375
482106250.0 0.798583984375 0.711944580078125
513328125.0 1.1190185546875 0.0865478515625
544550000.0 1.0029296875 -0.6802978515625
575771875.0 0.33538818359375 -1.23809814453125
606993750.0 -0.554443359375 -1.17657470703125
638215625.0 -1.16546630859375 -0.58953857421875
669437500.0 -1.3392333984375 0.23443603515625
700659375.0 -0.9698486328125 1.09625244140625
731881250.0 -0.00286865234375 1.54229736328125
763103125.0 1.00579833984375 1.15472412109375
794325000.0 1.468017578125 0.28094482421875
825546875.0 1.36614990234375 -0.65155029296875
856768750.0 0.79351806640625 -1.40045166015625
887990625.0 -0.29339599609375 -1.64697265625
919212500.0 -1.287841796875 -1.0771484375
950434375.0 -1.64776611328125 -0.05804443359375
981656250.0 -1.38104248046875 0.94549560546875
1012878125.0 -0.5289306640625 1.67071533203125
1044100000.0 0.6971435546875 1.66021728515625
1075321875.0 1.57379150390625 0.81036376953125
1106543750.0 1.70343017578125 -0.313720703125
1137765625.0 1.18505859375 -1.28375244140625
1168987500.0 0.13714599609375 -1.796142578125
1200209375.0 -1.06134033203125 -1.4818115234375
1231431250.0 -1.72637939453125 -0.45233154296875
1262653125.0 -1.59271240234375 0.68524169921875
1293875000.0 -0.8504638671875 1.490478515625
1325096875.0 0.22882080078125 1.70501708984375
1356318750.0 1.23443603515625 1.2149658203125
1387540625.0 1.738525390625 0.18780517578125
1418762500.0 1.4674072265625 -0.9508056640625
1449984375.0 0.5284423828125 -1.6246337890625
1481206250.0 -0.54998779296875 -1.554443359375
1512428125.0 -1.34112548828125 -0.91815185546875
1543650000.0 -1.65423583984375 0.06640625
1574871875.0 -1.2718505859375 1.10882568359375
1606093750.0 -0.27197265625 1.6298828125
1637315625.0 0.74200439453125 1.39886474609375
1668537500.0 1.39532470703125 0.69476318359375
1699759375.0 1.571533203125 -0.2781982421875
1730981250.0 1.06231689453125 -1.22882080078125
1762203125.0 0.0418701171875 -1.56890869140625
1793425000.0 -0.85540771484375 -1.2249755859375
1824646875.0 -1.3924560546875 -0.51434326171875
1855868750.0 -1.47216796875 0.431884765625
1887090625.0 -0.87371826171875 1.2845458984375
1918312500.0 0.117431640625 1.48529052734375
1949534375.0 0.92108154296875 1.0877685546875
1980756250.0 1.3740234375 0.369140625
2011978125.0 1.35809326171875 -0.53216552734375
2043200000.0 0.74847412109375 -1.26055908203125
2074421875.0 -0.15740966796875 -1.43157958984375
2105643750.0 -0.959716796875 -1.071533203125
2136865625.0 -1.4464111328125 -0.30413818359375
2168087500.0 -1.35552978515625 0.671142578125
2199309375.0 -0.63812255859375 1.34991455078125
2230531250.0 0.28179931640625 1.43450927734375
2261753125.0 1.07208251953125 1.01263427734375
2292975000.0 1.512939453125 0.16973876953125
2324196875.0 1.303955078125 -0.81842041015625
2355418750.0 0.524169921875 -1.4188232421875
2386640625.0 -0.40447998046875 -1.447265625
2417862500.0 -1.1802978515625 -1.02276611328125
2449084375.0 -1.60406494140625 -0.0826416015625
2480306250.0 -1.3094482421875 0.9248046875
2511528125.0 -0.49267578125 1.5067138671875
2542750000.0 0.48919677734375 1.534423828125
2573971875.0 1.370849609375 0.96630859375
2605193750.0 1.7156982421875 -0.11328125
2636415625.0 1.2596435546875 -1.1522216796875
2667637500.0 0.30548095703125 -1.666015625
2698859375.0 -0.7684326171875 -1.5321044921875
2730081250.0 -1.57159423828125 -0.73895263671875
2761303125.0 -1.678466796875 0.388427734375
2792525000.0 -1.09759521484375 1.305908203125
2823746875.0 -0.1011962890625 1.7276611328125
2854968750.0 1.01104736328125 1.45306396484375
2886190625.0 1.69012451171875 0.490478515625
2917412500.0 1.5975341796875 -0.6175537109375
2948634375.0 0.9373779296875 -1.4320068359375
2979856250.0 -0.10845947265625 -1.77349853515625
3011078125.0 -1.245849609375 -1.3399658203125
3042300000.0 -1.7708740234375 -0.23468017578125
3073521875.0 -1.506591796875 0.83734130859375
3104743750.0 -0.7618408203125 1.56536865234375
3135965625.0 0.36187744140625 1.80682373046875
3167187500.0 1.49810791015625 1.1624755859375
3198409375.0 1.8135986328125 -0.07568359375
3229631250.0 1.34722900390625 -1.08013916015625
3260853125.0 0.4881591796875 -1.66607666015625
3292075000.0 -0.654541015625 -1.69500732421875
3323296875.0 -1.6171875 -0.87811279296875
3354518750.0 -1.728271484375 0.32989501953125
3385740625.0 -1.1541748046875 1.23126220703125
3416962500.0 -0.23138427734375 1.67803955078125
3448184375.0 0.859130859375 1.5191650390625
3479406250.0 1.63336181640625 0.64312744140625
3510628125.0 1.64129638671875 -0.49407958984375
3541850000.0 0.998779296875 -1.35333251953125
3573071875.0 -0.0078125 -1.68048095703125
3604293750.0 -1.02508544921875 -1.33502197265625
3635515625.0 -1.6253662109375 -0.43780517578125
3666737500.0 -1.5596923828125 0.646240234375
3697959375.0 -0.823486328125 1.4736328125
3729181250.0 0.26861572265625 1.6282958984375
3760403125.0 1.15093994140625 1.09625244140625
3791625000.0 1.551025390625 0.217041015625
3822846875.0 1.3995361328125 -0.76068115234375
3854068750.0 0.61956787109375 -1.4779052734375
3885290625.0 -0.4207763671875 -1.47900390625
3916512500.0 -1.14019775390625 -0.9097900390625
3947734375.0 -1.44622802734375 -0.11907958984375
3978956250.0 -1.29534912109375 0.77752685546875
4010178125.0 -0.5306396484375 1.4522705078125
4041400000.0 0.4727783203125 1.41357421875
4072621875.0 1.1505126953125 0.84710693359375
4103843750.0 1.44342041015625 0.062255859375
4135065625.0 1.2659912109375 -0.8443603515625
4166287500.0 0.457275390625 -1.49365234375
4197509375.0 -0.55718994140625 -1.41357421875
4228731250.0 -1.247314453125 -0.80169677734375
4259953125.0 -1.50701904296875 0.07025146484375
4291175000.0 -1.1871337890625 1.00927734375
4322396875.0 -0.28863525390625 1.52496337890625
4353618750.0 0.67254638671875 1.34820556640625
4384840625.0 1.3203125 0.69598388671875
4416062500.0 1.498291015625 -0.22625732421875
4447284375.0 1.05389404296875 -1.10137939453125
4478506250.0 0.171875 -1.493408203125
4509728125.0 -0.73126220703125 -1.30584716796875
4540950000.0 -1.3909912109375 -0.6358642578125
4572171875.0 -1.520751953125 0.359130859375
4603393750.0 -0.97137451171875 1.21044921875
4634615625.0 -0.06170654296875 1.534912109375
4665837500.0 0.86956787109375 1.30322265625
4697059375.0 1.53973388671875 0.51458740234375
4728281250.0 1.52734375 -0.58172607421875
4759503125.0 0.822509765625 -1.36480712890625
4790725000.0 -0.14556884765625 -1.5714111328125
4821946875.0 -1.08197021484375 -1.192138671875
4853168750.0 -1.61138916015625 -0.25115966796875
4884390625.0 -1.37701416015625 0.7930908203125
4915612500.0 -0.61260986328125 1.41070556640625
4946834375.0 0.3280029296875 1.50677490234375
4978056250.0 1.2037353515625 1.01580810546875
5009278125.0 1.5595703125 0.0396728515625
5040500000.0 1.22735595703125 -0.87481689453125
5071721875.0 0.501220703125 -1.412841796875
5102943750.0 -0.445556640625 -1.49493408203125
5134165625.0 -1.33428955078125 -0.9044189453125
5165387500.0 -1.56671142578125 0.14617919921875
5196609375.0 -1.13519287109375 1.009765625
5227831250.0 -0.35772705078125 1.5037841796875
5259053125.0 0.6866455078125 1.4903564453125
5290275000.0 1.51904296875 0.6622314453125
5321496875.0 1.49090576171875 -0.43084716796875
5352718750.0 0.920166015625 -1.15252685546875
5383940625.0 0.0965576171875 -1.49853515625
5415162500.0 -0.8994140625 -1.2825927734375
5446384375.0 -1.4822998046875 -0.37030029296875
5477606250.0 -1.2978515625 0.56561279296875
5508828125.0 -0.73089599609375 1.150634765625
5540050000.0 0.052734375 1.39599609375
5571271875.0 0.93701171875 1.10760498046875
5602493750.0 1.406005859375 0.26055908203125
5633715625.0 1.230712890625 -0.61163330078125
5664937500.0 0.64739990234375 -1.200439453125
5696159375.0 -0.19635009765625 -1.3826904296875
5727381250.0 -1.021484375 -0.978271484375
5758603125.0 -1.389892578125 -0.1456298828125
5789825000.0 -1.1934814453125 0.71728515625
5821046875.0 -0.5062255859375 1.3052978515625
5852268750.0 0.4107666015625 1.31243896484375
5883490625.0 1.0697021484375 0.771484375
5914712500.0 1.30181884765625 0.01959228515625
5945934375.0 1.09503173828125 -0.7750244140625
5977156250.0 0.36053466796875 -1.31048583984375
6008378125.0 -0.509033203125 -1.18115234375
6039600000.0 -1.02081298828125 -0.64886474609375
6070821875.0 -1.22271728515625 -0.00439453125
6102043750.0 -1.08251953125 0.7618408203125
6133265625.0 -0.3428955078125 1.3419189453125
6164487500.0 0.56158447265625 1.18603515625
6195709375.0 1.0687255859375 0.6295166015625
6226931250.0 1.2781982421875 -0.04217529296875
6258153125.0 1.10382080078125 -0.87054443359375
6289375000.0 0.25543212890625 -1.44622802734375
6320596875.0 -0.6885986328125 -1.2054443359375
6351818750.0 -1.19903564453125 -0.57196044921875
6383040625.0 -1.35394287109375 0.20672607421875
6414262500.0 -0.99920654296875 1.0565185546875
6445484375.0 -0.0789794921875 1.4552001953125
6476706250.0 0.7945556640625 1.14703369140625
6507928125.0 1.28973388671875 0.46966552734375
6539150000.0 1.3460693359375 -0.3861083984375
6570371875.0 0.84075927734375 -1.142578125
6601593750.0 -0.01702880859375 -1.40338134765625
6632815625.0 -0.83929443359375 -1.13555908203125
6664037500.0 -1.4005126953125 -0.4195556640625
6695259375.0 -1.3734130859375 0.565185546875
6726481250.0 -0.7098388671875 1.25140380859375
6757703125.0 0.13006591796875 1.405029296875
6788925000.0 0.95330810546875 1.1297607421875
6820146875.0 1.558837890625 0.28826904296875
6851368750.0 1.324951171875 -0.81829833984375
6882590625.0 0.50634765625 -1.3377685546875
6913812500.0 -0.2918701171875 -1.35552978515625
6945034375.0 -1.06793212890625 -1.02130126953125
6976256250.0 -1.591552734375 -0.09375
7007478125.0 -1.2344970703125 0.93243408203125
7038700000.0 -0.4022216796875 1.3424072265625
7069921875.0 0.35833740234375 1.322265625
7101143750.0 1.1173095703125 0.967529296875
7132365625.0 1.59796142578125 0.01507568359375
7163587500.0 1.1573486328125 -1.01983642578125
7194809375.0 0.301513671875 -1.3973388671875
7226031250.0 -0.510498046875 -1.323486328125
7257253125.0 -1.2642822265625 -0.82470703125
7288475000.0 -1.5584716796875 0.1978759765625
7319696875.0 -1.02862548828125 1.1083984375
7350918750.0 -0.16424560546875 1.44281005859375
7382140625.0 0.7156982421875 1.2752685546875
7413362500.0 1.3751220703125 0.57635498046875
7444584375.0 1.4110107421875 -0.40606689453125
7475806250.0 0.8575439453125 -1.14251708984375
7507028125.0 0.00482177734375 -1.4288330078125
7538250000.0 -0.88720703125 -1.122802734375
7569471875.0 -1.3367919921875 -0.31072998046875
7600693750.0 -1.200927734375 0.496826171875
7631915625.0 -0.71722412109375 1.08599853515625
7663137500.0 0.0809326171875 1.3575439453125
7694359375.0 0.9388427734375 0.9801025390625
7725581250.0 1.2432861328125 0.18060302734375
7756803125.0 1.081298828125 -0.49761962890625
7788025000.0 0.669677734375 -1.041748046875
7819246875.0 -0.1207275390625 -1.34661865234375
7850468750.0 -0.992523193359375 -0.915924072265625
7881690625.0 -1.23077392578125 -0.10546875
7912912500.0 -1.05474853515625 0.5537109375
7944134375.0 -0.6051025390625 1.1119384765625
7975356250.0 0.27069091796875 1.334716796875
8006578125.0 1.04461669921875 0.77838134765625
8037800000.0 1.19293212890625 0.01666259765625
8069021875.0 1.00628662109375 -0.61749267578125
8100243750.0 0.49932861328125 -1.16217041015625
8131465625.0 -0.38623046875 -1.2530517578125
8162687500.0 -1.0303955078125 -0.68634033203125
8193909375.0 -1.17962646484375 0.009033203125
8225131250.0 -1.0169677734375 0.676513671875
8256353125.0 -0.42047119140625 1.24761962890625
8287575000.0 0.50048828125 1.22601318359375
8318796875.0 1.08013916015625 0.6356201171875
8350018750.0 1.243896484375 -0.07623291015625
8381240625.0 1.029541015625 -0.8367919921875
8412462500.0 0.25494384765625 -1.37298583984375
8443684375.0 -0.67010498046875 -1.17010498046875
8474906250.0 -1.17437744140625 -0.5321044921875
8506128125.0 -1.2965087890625 0.23577880859375
8537350000.0 -0.9241943359375 1.044189453125
8568571875.0 -0.0157470703125 1.39447021484375
8599793750.0 0.80218505859375 1.0533447265625
8631015625.0 1.24066162109375 0.39874267578125
8662237500.0 1.2862548828125 -0.429931640625
8693459375.0 0.73583984375 -1.1767578125
8724681250.0 -0.16229248046875 -1.33013916015625
8755903125.0 -0.8804931640625 -0.958343505859375
8787125000.0 -1.3040771484375 -0.280029296875
8818346875.0 -1.25042724609375 0.61474609375
8849568750.0 -0.55743408203125 1.2589111328125
8880790625.0 0.29730224609375 1.2835693359375
8912012500.0 0.9803466796875 0.89117431640625
8943234375.0 1.39935302734375 0.1273193359375
8974456250.0 1.16741943359375 -0.8385009765625
9005678125.0 0.35009765625 -1.31256103515625
9036900000.0 -0.444580078125 -1.22509765625
9068121875.0 -1.09979248046875 -0.7857666015625
9099343750.0 -1.44000244140625 0.09649658203125
9130565625.0 -0.97967529296875 1.01055908203125
9161787500.0 -0.1553955078125 1.28265380859375
9193009375.0 0.55389404296875 1.134765625
9224231250.0 1.178466796875 0.655029296875
9255453125.0 1.400146484375 -0.29486083984375
9286675000.0 0.8062744140625 -1.08599853515625
9317896875.0 0.02581787109375 -1.24639892578125
9349118750.0 -0.6533203125 -1.06927490234375
9380340625.0 -1.25634765625 -0.509765625
9411562500.0 -1.3095703125 0.47491455078125
9442784375.0 -0.6483154296875 1.11566162109375
9474006250.0 0.08770751953125 1.21051025390625
9505228125.0 0.7635498046875 0.979766845703125
9536450000.0 1.27276611328125 0.3150634765625
9567671875.0 1.144287109375 -0.58038330078125
9598893750.0 0.52972412109375 -1.0684814453125
9630115625.0 -0.14312744140625 -1.156494140625
9661337500.0 -0.817840576171875 -0.902374267578125
9692559375.0 -1.2388916015625 -0.1904296875
9723781250.0 -1.044189453125 0.60345458984375
9755003125.0 -0.4859619140625 1.0494384765625
9786225000.0 0.1978759765625 1.15875244140625
9817446875.0 0.894561767578125 0.827239990234375
9848668750.0 1.197998046875 0.0780029296875
9879890625.0 0.968048095703125 -0.61602783203125
9911112500.0 0.45184326171875 -1.051513671875
9942334375.0 -0.26824951171875 -1.1590576171875
9973556250.0 -0.942108154296875 -0.73834228515625
10004778125.0 -1.14593505859375 -0.017578125
10036000000.0 -0.94378662109375 0.6151123046875
10067221875.0 -0.4422607421875 1.09576416015625
10098443750.0 0.3699951171875 1.18011474609375
10129665625.0 1.00091552734375 0.64385986328125
10160887500.0 1.1181640625 -0.04901123046875
10192109375.0 0.91766357421875 -0.6629638671875
10223331250.0 0.36041259765625 -1.152587890625
10254553125.0 -0.4849853515625 -1.11346435546875
10285775000.0 -0.9849853515625 -0.53594970703125
10316996875.0 -1.06622314453125 0.07574462890625
10348218750.0 -0.9000244140625 0.670135498046875
10379440625.0 -0.32257080078125 1.1751708984375
10410662500.0 0.52557373046875 1.08428955078125
10441884375.0 0.99078369140625 0.52276611328125
10473106250.0 1.10980224609375 -0.08489990234375
10504328125.0 0.948272705078125 -0.75506591796875
10535550000.0 0.24017333984375 -1.29443359375
10566771875.0 -0.65704345703125 -1.07757568359375
10597993750.0 -1.08203125 -0.45843505859375
10629215625.0 -1.174560546875 0.204833984375
10660437500.0 -0.888519287109375 0.950469970703125
10691659375.0 -0.01092529296875 1.33477783203125
10722881250.0 0.784515380859375 0.95196533203125
10754103125.0 1.11932373046875 0.32476806640625
10785325000.0 1.1392822265625 -0.36639404296875
10816546875.0 0.70123291015625 -1.0479736328125
10847768750.0 -0.14508056640625 -1.2293701171875
10878990625.0 -0.801605224609375 -0.84368896484375
10910212500.0 -1.12213134765625 -0.24603271484375
10941434375.0 -1.09686279296875 0.47540283203125
10972656250.0 -0.56878662109375 1.08416748046875
11003878125.0 0.216796875 1.1728515625
11035100000.0 0.847930908203125 0.821990966796875
11066321875.0 1.219970703125 0.17431640625
11097543750.0 1.09820556640625 -0.67645263671875
11128765625.0 0.3865966796875 -1.1982421875
11159987500.0 -0.3968505859375 -1.1396484375
11191209375.0 -0.99981689453125 -0.7020263671875
11222431250.0 -1.2730712890625 0.09295654296875
11253653125.0 -0.86016845703125 0.89337158203125
11284875000.0 -0.115234375 1.12506103515625
11316096875.0 0.51080322265625 0.955841064453125
11347318750.0 1.00164794921875 0.50238037109375
11378540625.0 1.11724853515625 -0.26849365234375
11409762500.0 0.635009765625 -0.85986328125
11440984375.0 0.035858154296875 -0.9791259765625
11472206250.0 -0.481658935546875 -0.850006103515625
11503428125.0 -0.9521484375 -0.4566650390625
11534650000.0 -1.06842041015625 0.2877197265625
11565871875.0 -0.60150146484375 0.853912353515625
11597093750.0 -0.018768310546875 0.99029541015625
11628315625.0 0.544158935546875 0.875335693359375
11659537500.0 1.05889892578125 0.392578125
11690759375.0 1.06524658203125 -0.43414306640625
11721981250.0 0.517578125 -0.93988037109375
11753203125.0 -0.105224609375 -1.036865234375
11784425000.0 -0.72265625 -0.80804443359375
11815646875.0 -1.100830078125 -0.15252685546875
11846868750.0 -0.8917236328125 0.55078125
11878090625.0 -0.391326904296875 0.908966064453125
11909312500.0 0.18731689453125 0.983917236328125
11940534375.0 0.779876708984375 0.694976806640625
11971756250.0 1.0247802734375 0.03955078125
12002978125.0 0.806304931640625 -0.538116455078125
12034200000.0 0.382476806640625 -0.8873291015625
12065421875.0 -0.21539306640625 -1.00994873046875
12096643750.0 -0.847808837890625 -0.664947509765625
12127865625.0 -1.0323486328125 0.01531982421875
12159087500.0 -0.815032958984375 0.574249267578125
12190309375.0 -0.378173828125 0.97357177734375
12221531250.0 0.3380126953125 1.08740234375
12252753125.0 0.979705810546875 0.582275390625
12283975000.0 1.05438232421875 -0.1278076171875
12315196875.0 0.799896240234375 -0.67742919921875
12346418750.0 0.28204345703125 -1.08990478515625
12377640625.0 -0.53759765625 -1.06024169921875
12408862500.0 -1.0335693359375 -0.42047119140625
12440084375.0 -1.00848388671875 0.2236328125
12471306250.0 -0.742279052734375 0.736083984375
12502528125.0 -0.17987060546875 1.1201171875
12533750000.0 0.61907958984375 0.993194580078125
12564971875.0 1.0401611328125 0.36517333984375
12596193750.0 1.029541015625 -0.265869140625
12627415625.0 0.74774169921875 -0.827606201171875
12658637500.0 0.08184814453125 -1.20477294921875
12689859375.0 -0.734954833984375 -0.96624755859375
12721081250.0 -1.1151123046875 -0.30645751953125
12752303125.0 -1.0985107421875 0.38189697265625
12783525000.0 -0.6878662109375 1.02764892578125
12814746875.0 0.16412353515625 1.25067138671875
12845968750.0 0.859619140625 0.810577392578125
12877190625.0 1.11798095703125 0.17108154296875
12908412500.0 1.05511474609375 -0.50146484375
12939634375.0 0.5440673828125 -1.11468505859375
12970856250.0 -0.31903076171875 -1.175048828125
13002078125.0 -0.894134521484375 -0.694427490234375
13033300000.0 -1.10601806640625 -0.08746337890625
13064521875.0 -1.00823974609375 0.59417724609375
13095743750.0 -0.42095947265625 1.15386962890625
13126965625.0 0.4102783203125 1.1214599609375
13158187500.0 0.94580078125 0.63250732421875
13189409375.0 1.14697265625 -0.02044677734375
13220631250.0 0.936553955078125 -0.746246337890625
13251853125.0 0.23388671875 -1.17230224609375
13283075000.0 -0.5054931640625 -1.0185546875
13314296875.0 -0.986785888671875 -0.529541015625
13345518750.0 -1.13531494140625 0.17572021484375
13376740625.0 -0.7532958984375 0.85662841796875
