!Created with skrf (http://scikit-rf.org).
# Hz S RI R 50.0 
!freq ReS11 ImS11
45000000.0 -0.07735061645507812 -0.0967254638671875
76221875.0 -0.19744873046875 -0.047515869140625
107443750.0 -0.2562103271484375 0.120574951171875
138665625.0 -0.1484222412109375 0.330078125
169887500.0 0.124267578125 0.4190521240234375
201109375.0 0.4235382080078125 0.28192138671875
232331250.0 0.581207275390625 -0.057830810546875
263553125.0 0.4913482666015625 -0.45526123046875
294775000.0 0.0982666015625 -0.736480712890625
325996875.0 -0.418060302734375 -0.68408203125
357218750.0 -0.81085205078125 -0.298187255859375
388440625.0 -0.88995361328125 0.30316162109375
419662500.0 -0.519134521484375 0.871002197265625
450884375.0 0.1744384765625 1.03350830078125
482106250.0 0.80242919921875 0.715484619140625
513328125.0 1.12420654296875 0.08709716796875
544550000.0 1.007568359375 -0.68365478515625
575771875.0 0.3370361328125 -1.2432861328125
606993750.0 -0.556396484375 -1.181640625
638215625.0 -1.17047119140625 -0.59234619140625
669437500.0 -1.34466552734375 0.2349853515625
700659375.0 -0.97418212890625 1.10064697265625
731881250.0 -0.003662109375 1.548583984375
763103125.0 1.009521484375 1.1602783203125
794325000.0 1.47454833984375 0.28265380859375
825546875.0 1.372314453125 -0.65435791015625
856768750.0 0.79693603515625 -1.4080810546875
887990625.0 -0.2955322265625 -1.6558837890625
919212500.0 -1.29547119140625 -1.0830078125
950434375.0 -1.65716552734375 -0.05792236328125
981656250.0 -1.38885498046875 0.952392578125
1012878125.0 -0.5308837890625 1.6810302734375
1044100000.0 0.70245361328125 1.66998291015625
1075321875.0 1.5838623046875 0.81463623046875
1106543750.0 1.712890625 -0.31622314453125
1137765625.0 1.19134521484375 -1.2913818359375
1168987500.0 0.137451171875 -1.8057861328125
1200209375.0 -1.068115234375 -1.490234375
1231431250.0 -1.736572265625 -0.4542236328125
1262653125.0 -1.60089111328125 0.68951416015625
1293875000.0 -0.85467529296875 1.498779296875
1325096875.0 0.23016357421875 1.7142333984375
1356318750.0 1.24102783203125 1.2218017578125
1387540625.0 1.747802734375 0.18896484375
1418762500.0 1.4757080078125 -0.956298828125
1449984375.0 0.5306396484375 -1.6334228515625
1481206250.0 -0.5533447265625 -1.56268310546875
1512428125.0 -1.3486328125 -0.9229736328125
1543650000.0 -1.66265869140625 0.06689453125
1574871875.0 -1.27783203125 1.11444091796875
1606093750.0 -0.272705078125 1.63836669921875
1637315625.0 0.746337890625 1.40521240234375
1668537500.0 1.40179443359375 0.69757080078125
1699759375.0 1.5789794921875 -0.27960205078125
1730981250.0 1.06732177734375 -1.23486328125
1762203125.0 0.04132080078125 -1.57659912109375
1793425000.0 -0.8597412109375 -1.230712890625
1824646875.0 -1.3988037109375 -0.51641845703125
1855868750.0 -1.47943115234375 0.43450927734375
1887090625.0 -0.87835693359375 1.29058837890625
1918312500.0 0.1182861328125 1.4930419921875
1949534375.0 0.92620849609375 1.09307861328125
1980756250.0 1.380615234375 0.37091064453125
2011978125.0 1.3646240234375 -0.53460693359375
2043200000.0 0.75213623046875 -1.2667236328125
2074421875.0 -0.15850830078125 -1.43829345703125
2105643750.0 -0.9642333984375 -1.07611083984375
2136865625.0 -1.45294189453125 -0.3052978515625
2168087500.0 -1.3614501953125 0.67431640625
2199309375.0 -0.64056396484375 1.35662841796875
2230531250.0 0.28326416015625 1.44122314453125
2261753125.0 1.0772705078125 1.0164794921875
2292975000.0 1.51971435546875 0.16998291015625
2324196875.0 1.30975341796875 -0.82220458984375
2355418750.0 0.52655029296875 -1.42510986328125
2386640625.0 -0.4066162109375 -1.45428466796875
2417862500.0 -1.186767578125 -1.0281982421875
2449084375.0 -1.61224365234375 -0.082763671875
2480306250.0 -1.31640625 0.9310302734375
2511528125.0 -0.49365234375 1.51611328125
2542750000.0 0.49346923828125 1.5428466796875
2573971875.0 1.3780517578125 0.97125244140625
2605193750.0 1.72503662109375 -0.11431884765625
2636415625.0 1.266357421875 -1.160400390625
2667637500.0 0.305908203125 -1.6756591796875
2698859375.0 -0.77484130859375 -1.5404052734375
2730081250.0 -1.58148193359375 -0.7421875
2761303125.0 -1.68804931640625 0.3907470703125
2792525000.0 -1.103271484375 1.3148193359375
2823746875.0 -0.10089111328125 1.73828125
2854968750.0 1.01861572265625 1.461181640625
2886190625.0 1.69989013671875 0.49151611328125
2917412500.0 1.60736083984375 -0.6224365234375
2948634375.0 0.94219970703125 -1.441162109375
2979856250.0 -0.11053466796875 -1.78466796875
3011078125.0 -1.2564697265625 -1.3475341796875
3042300000.0 -1.78326416015625 -0.2340087890625
3073521875.0 -1.51507568359375 0.8443603515625
3104743750.0 -0.76495361328125 1.57623291015625
3135965625.0 0.366455078125 1.8172607421875
3167187500.0 1.507080078125 1.1680908203125
3198409375.0 1.82464599609375 -0.078125
3229631250.0 1.353271484375 -1.0872802734375
3260853125.0 0.4901123046875 -1.67645263671875
3292075000.0 -0.66082763671875 -1.705322265625
3323296875.0 -1.62841796875 -0.88177490234375
3354518750.0 -1.73687744140625 0.33123779296875
3385740625.0 -1.1600341796875 1.23846435546875
3416962500.0 -0.23126220703125 1.68896484375
3448184375.0 0.8648681640625 1.5272216796875
3479406250.0 1.64202880859375 0.64599609375
3510628125.0 1.6507568359375 -0.49896240234375
3541850000.0 1.003173828125 -1.36181640625
3573071875.0 -0.009765625 -1.6898193359375
3604293750.0 -1.03338623046875 -1.34185791015625
3635515625.0 -1.63427734375 -0.43890380859375
3666737500.0 -1.5677490234375 0.65020751953125
3697959375.0 -0.82684326171875 1.48388671875
3729181250.0 0.2713623046875 1.6373291015625
3760403125.0 1.1585693359375 1.10162353515625
3791625000.0 1.55963134765625 0.21759033203125
3822846875.0 1.4068603515625 -0.76483154296875
3854068750.0 0.6219482421875 -1.48736572265625
3885290625.0 -0.4237060546875 -1.486328125
3916512500.0 -1.14727783203125 -0.91357421875
3947734375.0 -1.4539794921875 -0.11865234375
3978956250.0 -1.302978515625 0.78369140625
4010178125.0 -0.5322265625 1.46209716796875
4041400000.0 0.47723388671875 1.42059326171875
4072621875.0 1.157470703125 0.84906005859375
4103843750.0 1.4503173828125 0.0621337890625
4135065625.0 1.2720947265625 -0.85064697265625
4166287500.0 0.45751953125 -1.5028076171875
4197509375.0 -0.5614013671875 -1.41973876953125
4228731250.0 -1.2537841796875 -0.80450439453125
4259953125.0 -1.51422119140625 0.072509765625
4291175000.0 -1.19219970703125 1.01519775390625
4322396875.0 -0.2896728515625 1.53179931640625
4353618750.0 0.6778564453125 1.35467529296875
4384840625.0 1.32818603515625 0.69744873046875
4416062500.0 1.50555419921875 -0.22979736328125
4447284375.0 1.05780029296875 -1.109130859375
4478506250.0 0.1712646484375 -1.5008544921875
4509728125.0 -0.736572265625 -1.31201171875
4540950000.0 -1.39935302734375 -0.6370849609375
4572171875.0 -1.52752685546875 0.36297607421875
4603393750.0 -0.97467041015625 1.217529296875
4634615625.0 -0.05975341796875 1.54254150390625
4665837500.0 0.87445068359375 1.30841064453125
4697059375.0 1.54779052734375 0.51556396484375
4728281250.0 1.53350830078125 -0.5859375
4759503125.0 0.82421875 -1.3736572265625
4790725000.0 -0.14862060546875 -1.57940673828125
4821946875.0 -1.08868408203125 -1.19744873046875
4853168750.0 -1.61944580078125 -0.25091552734375
4884390625.0 -1.38323974609375 0.79986572265625
4915612500.0 -0.61383056640625 1.4188232421875
4946834375.0 0.33233642578125 1.514404296875
4978056250.0 1.2105712890625 1.01934814453125
5009278125.0 1.5687255859375 0.037353515625
5040500000.0 1.23297119140625 -0.88055419921875
5071721875.0 0.5018310546875 -1.42047119140625
5102943750.0 -0.4498291015625 -1.50201416015625
5134165625.0 -1.341796875 -0.90716552734375
5165387500.0 -1.57391357421875 0.14788818359375
5196609375.0 -1.1395263671875 1.0145263671875
5227831250.0 -0.357177734375 1.51226806640625
5259053125.0 0.69287109375 1.4976806640625
5290275000.0 1.52923583984375 0.6629638671875
5321496875.0 1.49725341796875 -0.4334716796875
5352718750.0 0.9232177734375 -1.15826416015625
5383940625.0 0.09521484375 -1.50677490234375
5415162500.0 -0.90478515625 -1.28790283203125
5446384375.0 -1.48992919921875 -0.36981201171875
5477606250.0 -1.3031005859375 0.570068359375
5508828125.0 -0.73236083984375 1.1556396484375
5540050000.0 0.05645751953125 1.40478515625
5571271875.0 0.94329833984375 1.11236572265625
5602493750.0 1.41473388671875 0.2587890625
5633715625.0 1.2362060546875 -0.61566162109375
5664937500.0 0.64862060546875 -1.20672607421875
5696159375.0 -0.19927978515625 -1.388916015625
5727381250.0 -1.0269775390625 -0.98114013671875
5758603125.0 -1.39617919921875 -0.14398193359375
5789825000.0 -1.19775390625 0.721923828125
5821046875.0 -0.50732421875 1.31158447265625
5852268750.0 0.41448974609375 1.317626953125
5883490625.0 1.0765380859375 0.77398681640625
5914712500.0 1.3079833984375 0.01788330078125
5945934375.0 1.099853515625 -0.7801513671875
5977156250.0 0.36114501953125 -1.31793212890625
6008378125.0 -0.51275634765625 -1.185791015625
6039600000.0 -1.0252685546875 -0.65045166015625
6070821875.0 -1.22821044921875 -0.0030517578125
6102043750.0 -1.0865478515625 0.76654052734375
6133265625.0 -0.34161376953125 1.35015869140625
6164487500.0 0.56707763671875 1.19110107421875
6195709375.0 1.0743408203125 0.6309814453125
6226931250.0 1.2841796875 -0.04345703125
6258153125.0 1.10797119140625 -0.87591552734375
6289375000.0 0.254150390625 -1.45343017578125
6320596875.0 -0.69390869140625 -1.20953369140625
6351818750.0 -1.205322265625 -0.57232666015625
6383040625.0 -1.35894775390625 0.20849609375
6414262500.0 -1.0025634765625 1.0623779296875
6445484375.0 -0.07623291015625 1.4635009765625
6476706250.0 0.80035400390625 1.15118408203125
6507928125.0 1.29534912109375 0.46942138671875
6539150000.0 1.35125732421875 -0.3890380859375
6570371875.0 0.84259033203125 -1.14886474609375
6601593750.0 -0.01947021484375 -1.41021728515625
6632815625.0 -0.84417724609375 -1.13897705078125
6664037500.0 -1.40753173828125 -0.4197998046875
6695259375.0 -1.3782958984375 0.5694580078125
6726481250.0 -0.7115478515625 1.25653076171875
6757703125.0 0.132568359375 1.4122314453125
6788925000.0 0.96124267578125 1.13385009765625
6820146875.0 1.56573486328125 0.28741455078125
6851368750.0 1.3302001953125 -0.82476806640625
6882590625.0 0.50677490234375 -1.34381103515625
6913812500.0 -0.29486083984375 -1.36126708984375
6945034375.0 -1.075927734375 -1.0240478515625
6976256250.0 -1.5989990234375 -0.09100341796875
7007478125.0 -1.24127197265625 0.93865966796875
7038700000.0 -0.40106201171875 1.35125732421875
7069921875.0 0.3641357421875 1.3299560546875
7101143750.0 1.1248779296875 0.97125244140625
7132365625.0 1.6060791015625 0.0126953125
7163587500.0 1.16070556640625 -1.02581787109375
7194809375.0 0.30206298828125 -1.404541015625
7226031250.0 -0.51776123046875 -1.33258056640625
7257253125.0 -1.27349853515625 -0.826416015625
7288475000.0 -1.56732177734375 0.20330810546875
7319696875.0 -1.032958984375 1.11676025390625
7350918750.0 -0.1622314453125 1.4527587890625
7382140625.0 0.7220458984375 1.2813720703125
7413362500.0 1.38446044921875 0.57537841796875
7444584375.0 1.41778564453125 -0.41064453125
7475806250.0 0.860107421875 -1.15081787109375
7507028125.0 0.0013427734375 -1.43841552734375
7538250000.0 -0.89385986328125 -1.12774658203125
7569471875.0 -1.3436279296875 -0.31005859375
7600693750.0 -1.206298828125 0.50103759765625
7631915625.0 -0.71929931640625 1.0914306640625
7663137500.0 0.08203125 1.3642578125
7694359375.0 0.945404052734375 0.9844970703125
7725581250.0 1.2496337890625 0.178955078125
7756803125.0 1.0875244140625 -0.5040283203125
7788025000.0 0.67193603515625 -1.04888916015625
7819246875.0 -0.123779296875 -1.35369873046875
7850468750.0 -0.99969482421875 -0.917816162109375
7881690625.0 -1.237060546875 -0.10406494140625
7912912500.0 -1.0582275390625 0.55865478515625
7944134375.0 -0.6068115234375 1.11761474609375
7975356250.0 0.27655029296875 1.34271240234375
8006578125.0 1.05352783203125 0.780029296875
8037800000.0 1.19915771484375 0.0135498046875
8069021875.0 1.01007080078125 -0.6209716796875
8100243750.0 0.49884033203125 -1.170166015625
8131465625.0 -0.3922119140625 -1.26055908203125
8162687500.0 -1.0367431640625 -0.68634033203125
8193909375.0 -1.18524169921875 0.00970458984375
8225131250.0 -1.021240234375 0.6839599609375
8256353125.0 -0.42169189453125 1.25360107421875
8287575000.0 0.5059814453125 1.23101806640625
8318796875.0 1.08819580078125 0.63555908203125
8350018750.0 1.25030517578125 -0.0775146484375
8381240625.0 1.0343017578125 -0.84515380859375
8412462500.0 0.2520751953125 -1.3797607421875
8443684375.0 -0.67578125 -1.174560546875
8474906250.0 -1.18280029296875 -0.53302001953125
8506128125.0 -1.302734375 0.23992919921875
8537350000.0 -0.927001953125 1.0518798828125
8568571875.0 -0.013671875 1.3994140625
8599793750.0 0.806640625 1.05584716796875
8631015625.0 1.24871826171875 0.3970947265625
8662237500.0 1.291748046875 -0.4354248046875
8693459375.0 0.7384033203125 -1.18414306640625
8724681250.0 -0.16571044921875 -1.33648681640625
8755903125.0 -0.884613037109375 -0.960693359375
8787125000.0 -1.3116455078125 -0.2801513671875
8818346875.0 -1.25665283203125 0.6209716796875
8849568750.0 -0.556396484375 1.26702880859375
8880790625.0 0.3016357421875 1.290283203125
8912012500.0 0.9892578125 0.89508056640625
8943234375.0 1.404541015625 0.12774658203125
8974456250.0 1.170654296875 -0.84564208984375
9005678125.0 0.34698486328125 -1.31988525390625
9036900000.0 -0.45062255859375 -1.2298583984375
9068121875.0 -1.1082763671875 -0.78741455078125
9099343750.0 -1.44622802734375 0.1016845703125
9130565625.0 -0.982421875 1.02020263671875
9161787500.0 -0.1533203125 1.28692626953125
9193009375.0 0.559326171875 1.1392822265625
9224231250.0 1.186279296875 0.65545654296875
9255453125.0 1.40545654296875 -0.3004150390625
9286675000.0 0.8082275390625 -1.0911865234375
9317896875.0 0.0238037109375 -1.25262451171875
9349118750.0 -0.65875244140625 -1.07330322265625
9380340625.0 -1.2650146484375 -0.50872802734375
9411562500.0 -1.3172607421875 0.48150634765625
9442784375.0 -0.64971923828125 1.123046875
9474006250.0 0.0899658203125 1.2161865234375
9505228125.0 0.768768310546875 0.98284912109375
9536450000.0 1.28045654296875 0.313232421875
9567671875.0 1.14862060546875 -0.58587646484375
9598893750.0 0.52978515625 -1.07379150390625
9630115625.0 -0.14739990234375 -1.16302490234375
9661337500.0 -0.8255615234375 -0.905303955078125
9692559375.0 -1.2449951171875 -0.18780517578125
9723781250.0 -1.046630859375 0.6070556640625
9755003125.0 -0.486328125 1.05462646484375
9786225000.0 0.19891357421875 1.16302490234375
9817446875.0 0.900634765625 0.8294677734375
9848668750.0 1.20458984375 0.0745849609375
9879890625.0 0.970611572265625 -0.620361328125
9911112500.0 0.4522705078125 -1.056884765625
9942334375.0 -0.270751953125 -1.1640625
9973556250.0 -0.949676513671875 -0.739166259765625
10004778125.0 -1.15032958984375 -0.01593017578125
10036000000.0 -0.946380615234375 0.61944580078125
10067221875.0 -0.44232177734375 1.1025390625
10098443750.0 0.3753662109375 1.1866455078125
10129665625.0 1.0072021484375 0.6431884765625
10160887500.0 1.12457275390625 -0.05426025390625
10192109375.0 0.920166015625 -0.669525146484375
10223331250.0 0.35992431640625 -1.159912109375
10254553125.0 -0.4906005859375 -1.11663818359375
10285775000.0 -0.990936279296875 -0.535064697265625
10316996875.0 -1.07177734375 0.07989501953125
10348218750.0 -0.9029541015625 0.67535400390625
10379440625.0 -0.320068359375 1.1807861328125
10410662500.0 0.5323486328125 1.0894775390625
10441884375.0 0.99755859375 0.522003173828125
10473106250.0 1.11273193359375 -0.08526611328125
10504328125.0 0.95166015625 -0.763519287109375
10535550000.0 0.23822021484375 -1.30029296875
10566771875.0 -0.66302490234375 -1.08074951171875
10597993750.0 -1.08514404296875 -0.459228515625
10629215625.0 -1.179931640625 0.2081298828125
10660437500.0 -0.889801025390625 0.959259033203125
10691659375.0 -0.0069580078125 1.341796875
10722881250.0 0.7896728515625 0.95477294921875
10754103125.0 1.1234130859375 0.324462890625
10785325000.0 1.14398193359375 -0.3712158203125
10816546875.0 0.70123291015625 -1.0565185546875
10847768750.0 -0.14825439453125 -1.2342529296875
10878990625.0 -0.8077392578125 -0.84576416015625
10910212500.0 -1.1278076171875 -0.24444580078125
10941434375.0 -1.1016845703125 0.4808349609375
10972656250.0 -0.56768798828125 1.09246826171875
11003878125.0 0.2213134765625 1.1787109375
11035100000.0 0.853607177734375 0.82373046875
11066321875.0 1.22802734375 0.1728515625
11097543750.0 1.10211181640625 -0.6837158203125
11128765625.0 0.3848876953125 -1.20556640625
11159987500.0 -0.4012451171875 -1.14434814453125
11191209375.0 -1.0072021484375 -0.703369140625
11222431250.0 -1.27703857421875 0.0966796875
11253653125.0 -0.861083984375 0.89947509765625
11284875000.0 -0.112060546875 1.1326904296875
11316096875.0 0.517333984375 0.96026611328125
11347318750.0 1.0093994140625 0.5029296875
11378540625.0 1.12115478515625 -0.272705078125
11409762500.0 0.635162353515625 -0.863372802734375
11440984375.0 0.033721923828125 -0.98309326171875
11472206250.0 -0.48504638671875 -0.852813720703125
11503428125.0 -0.95819091796875 -0.45611572265625
11534650000.0 -1.07403564453125 0.2935791015625
11565871875.0 -0.602081298828125 0.8592529296875
11597093750.0 -0.016265869140625 0.995697021484375
11628315625.0 0.549072265625 0.877777099609375
11659537500.0 1.06512451171875 0.39166259765625
11690759375.0 1.06842041015625 -0.438232421875
11721981250.0 0.516845703125 -0.945404052734375
11753203125.0 -0.10955810546875 -1.04193115234375
11784425000.0 -0.72900390625 -0.809844970703125
11815646875.0 -1.10528564453125 -0.1500244140625
11846868750.0 -0.893402099609375 0.55548095703125
11878090625.0 -0.390869140625 0.912750244140625
11909312500.0 0.1884765625 0.98822021484375
11940534375.0 0.78558349609375 0.696014404296875
11971756250.0 1.02838134765625 0.03717041015625
12002978125.0 0.80859375 -0.542205810546875
12034200000.0 0.3807373046875 -0.893310546875
12065421875.0 -0.21875 -1.0140380859375
12096643750.0 -0.852508544921875 -0.666015625
12127865625.0 -1.0379638671875 0.019287109375
12159087500.0 -0.816436767578125 0.58135986328125
12190309375.0 -0.377288818359375 0.97906494140625
12221531250.0 0.34405517578125 1.0924072265625
12252753125.0 0.98553466796875 0.581512451171875
12283975000.0 1.05853271484375 -0.131591796875
12315196875.0 0.802398681640625 -0.680694580078125
12346418750.0 0.2808837890625 -1.09600830078125
12377640625.0 -0.54278564453125 -1.064208984375
12408862500.0 -1.0416259765625 -0.418212890625
12440084375.0 -1.01177978515625 0.22674560546875
12471306250.0 -0.743377685546875 0.742401123046875
12502528125.0 -0.17755126953125 1.12652587890625
12533750000.0 0.625885009765625 0.9964599609375
12564971875.0 1.047119140625 0.36260986328125
12596193750.0 1.03253173828125 -0.26727294921875
12627415625.0 0.749298095703125 -0.836273193359375
12658637500.0 0.0760498046875 -1.2132568359375
12689859375.0 -0.740020751953125 -0.9688720703125
12721081250.0 -1.123291015625 -0.30438232421875
12752303125.0 -1.10137939453125 0.38592529296875
12783525000.0 -0.688232421875 1.0333251953125
12814746875.0 0.16961669921875 1.2567138671875
12845968750.0 0.8695068359375 0.81280517578125
12877190625.0 1.12469482421875 0.16851806640625
12908412500.0 1.0584716796875 -0.50616455078125
12939634375.0 0.5423583984375 -1.12432861328125
12970856250.0 -0.3236083984375 -1.17877197265625
13002078125.0 -0.90045166015625 -0.694610595703125
13033300000.0 -1.11163330078125 -0.08392333984375
13064521875.0 -1.01263427734375 0.59954833984375
13095743750.0 -0.417236328125 1.162109375
13126965625.0 0.4154052734375 1.12457275390625
13158187500.0 0.954254150390625 0.63214111328125
13189409375.0 1.1546630859375 -0.025634765625
13220631250.0 0.939208984375 -0.754913330078125
13251853125.0 0.23248291015625 -1.17779541015625
13283075000.0 -0.51104736328125 -1.0218505859375
13314296875.0 -0.993682861328125 -0.5296630859375
13345518750.0 -1.14068603515625 0.18133544921875
