!Created with skrf (http://scikit-rf.org).
# Hz S RI R 50.0 
!freq ReS11 ImS11
45000000.0 -0.0771484375 -0.09676361083984375
76221875.0 -0.19647979736328125 -0.0472259521484375
107443750.0 -0.254913330078125 0.1199493408203125
138665625.0 -0.14764404296875 0.3286895751953125
169887500.0 0.1240234375 0.41705322265625
201109375.0 0.422088623046875 0.2804412841796875
232331250.0 0.57891845703125 -0.0582275390625
263553125.0 0.4889373779296875 -0.4532928466796875
294775000.0 0.097625732421875 -0.7327880859375
325996875.0 -0.416351318359375 -0.679962158203125
357218750.0 -0.806732177734375 -0.296142578125
388440625.0 -0.885223388671875 0.301727294921875
419662500.0 -0.516082763671875 0.866943359375
450884375.0 0.17437744140625 1.02899169921875
482106250.0 0.799224853515625 0.7115478515625
513328125.0 1.11944580078125 0.085693359375
544550000.0 1.00286865234375 -0.68096923828125
575771875.0 0.3349609375 -1.23828125
606993750.0 -0.5550537109375 -1.1763916015625
638215625.0 -1.16607666015625 -0.5888671875
669437500.0 -1.339111328125 0.2352294921875
700659375.0 -0.96966552734375 1.09674072265625
731881250.0 -0.0020751953125 1.542724609375
763103125.0 1.00677490234375 1.15423583984375
794325000.0 1.468505859375 0.28009033203125
825546875.0 1.3662109375 -0.65289306640625
856768750.0 0.7928466796875 -1.4013671875
887990625.0 -0.29449462890625 -1.64739990234375
919212500.0 -1.288818359375 -1.0767822265625
950434375.0 -1.6485595703125 -0.0565185546875
981656250.0 -1.38079833984375 0.94708251953125
1012878125.0 -0.52740478515625 1.67169189453125
1044100000.0 0.698486328125 1.66015625
1075321875.0 1.57470703125 0.81005859375
1106543750.0 1.703857421875 -0.31512451171875
1137765625.0 1.1845703125 -1.28497314453125
1168987500.0 0.13604736328125 -1.79620361328125
1200209375.0 -1.06341552734375 -1.4818115234375
1231431250.0 -1.7266845703125 -0.4515380859375
1262653125.0 -1.5927734375 0.68646240234375
1293875000.0 -0.84979248046875 1.49188232421875
1325096875.0 0.22991943359375 1.70556640625
1356318750.0 1.2359619140625 1.2147216796875
1387540625.0 1.73895263671875 0.18682861328125
1418762500.0 1.46710205078125 -0.9520263671875
1449984375.0 0.52716064453125 -1.625732421875
1481206250.0 -0.5511474609375 -1.554443359375
1512428125.0 -1.3421630859375 -0.9176025390625
1543650000.0 -1.6544189453125 0.0672607421875
1574871875.0 -1.271484375 1.1097412109375
1606093750.0 -0.27081298828125 1.63079833984375
1637315625.0 0.743408203125 1.3990478515625
1668537500.0 1.39569091796875 0.6937255859375
1699759375.0 1.572021484375 -0.2791748046875
1730981250.0 1.06201171875 -1.229736328125
1762203125.0 0.04034423828125 -1.56903076171875
1793425000.0 -0.8563232421875 -1.224609375
1824646875.0 -1.392822265625 -0.51348876953125
1855868750.0 -1.47271728515625 0.43304443359375
1887090625.0 -0.873291015625 1.285400390625
1918312500.0 0.11822509765625 1.485595703125
1949534375.0 0.9217529296875 1.08758544921875
1980756250.0 1.374755859375 0.36846923828125
2011978125.0 1.35833740234375 -0.5328369140625
2043200000.0 0.74798583984375 -1.261474609375
2074421875.0 -0.157958984375 -1.4320068359375
2105643750.0 -0.9608154296875 -1.0706787109375
2136865625.0 -1.4464111328125 -0.303466796875
2168087500.0 -1.3551025390625 0.67169189453125
2199309375.0 -0.63720703125 1.35113525390625
2230531250.0 0.2830810546875 1.43463134765625
2261753125.0 1.0726318359375 1.011962890625
2292975000.0 1.51318359375 0.1688232421875
2324196875.0 1.30377197265625 -0.8187255859375
2355418750.0 0.5235595703125 -1.41900634765625
2386640625.0 -0.40557861328125 -1.44775390625
2417862500.0 -1.18072509765625 -1.02227783203125
2449084375.0 -1.60369873046875 -0.08251953125
2480306250.0 -1.30902099609375 0.92645263671875
2511528125.0 -0.492431640625 1.506591796875
2542750000.0 0.489013671875 1.533935546875
2573971875.0 1.37060546875 0.965087890625
2605193750.0 1.71685791015625 -0.1151123046875
2636415625.0 1.25970458984375 -1.1533203125
2667637500.0 0.304443359375 -1.6656494140625
2698859375.0 -0.7708740234375 -1.53173828125
2730081250.0 -1.57208251953125 -0.73834228515625
2761303125.0 -1.67938232421875 0.38970947265625
2792525000.0 -1.0972900390625 1.30755615234375
2823746875.0 -0.0992431640625 1.728759765625
2854968750.0 1.01226806640625 1.45281982421875
2886190625.0 1.689208984375 0.49005126953125
2917412500.0 1.597900390625 -0.6192626953125
2948634375.0 0.93743896484375 -1.4324951171875
2979856250.0 -0.1090087890625 -1.774169921875
3011078125.0 -1.248046875 -1.33978271484375
3042300000.0 -1.7734375 -0.23248291015625
3073521875.0 -1.5067138671875 0.83984375
3104743750.0 -0.7607421875 1.5682373046875
3135965625.0 0.3636474609375 1.8079833984375
3167187500.0 1.49749755859375 1.1614990234375
3198409375.0 1.8145751953125 -0.0775146484375
3229631250.0 1.34649658203125 -1.08062744140625
3260853125.0 0.4869384765625 -1.6680908203125
3292075000.0 -0.6561279296875 -1.696044921875
3323296875.0 -1.61895751953125 -0.8765869140625
3354518750.0 -1.728515625 0.32989501953125
3385740625.0 -1.15325927734375 1.23052978515625
3416962500.0 -0.229248046875 1.67950439453125
3448184375.0 0.860107421875 1.5189208984375
3479406250.0 1.6351318359375 0.64215087890625
3510628125.0 1.641845703125 -0.49639892578125
3541850000.0 0.998291015625 -1.3538818359375
3573071875.0 -0.00860595703125 -1.68084716796875
3604293750.0 -1.0284423828125 -1.3353271484375
3635515625.0 -1.62646484375 -0.4364013671875
3666737500.0 -1.55987548828125 0.64666748046875
3697959375.0 -0.8228759765625 1.47515869140625
3729181250.0 0.26971435546875 1.62945556640625
3760403125.0 1.15289306640625 1.095947265625
3791625000.0 1.55084228515625 0.2161865234375
3822846875.0 1.3995361328125 -0.76202392578125
3854068750.0 0.617919921875 -1.48052978515625
3885290625.0 -0.42193603515625 -1.47900390625
3916512500.0 -1.1414794921875 -0.908935546875
3947734375.0 -1.44549560546875 -0.11920166015625
3978956250.0 -1.29571533203125 0.78076171875
4010178125.0 -0.5296630859375 1.4537353515625
4041400000.0 0.473876953125 1.41363525390625
4072621875.0 1.15106201171875 0.845458984375
4103843750.0 1.44244384765625 0.062255859375
4135065625.0 1.2657470703125 -0.84600830078125
4166287500.0 0.4556884765625 -1.49481201171875
4197509375.0 -0.55853271484375 -1.41357421875
4228731250.0 -1.2467041015625 -0.8006591796875
4259953125.0 -1.507568359375 0.0711669921875
4291175000.0 -1.18634033203125 1.01068115234375
4322396875.0 -0.2884521484375 1.52459716796875
4353618750.0 0.67376708984375 1.34820556640625
4384840625.0 1.32110595703125 0.6954345703125
4416062500.0 1.49853515625 -0.227783203125
4447284375.0 1.05303955078125 -1.10302734375
4478506250.0 0.1710205078125 -1.49371337890625
4509728125.0 -0.73248291015625 -1.30572509765625
4540950000.0 -1.39263916015625 -0.634521484375
4572171875.0 -1.52001953125 0.3594970703125
4603393750.0 -0.970703125 1.21246337890625
4634615625.0 -0.06048583984375 1.53570556640625
4665837500.0 0.870361328125 1.30255126953125
4697059375.0 1.53955078125 0.51397705078125
4728281250.0 1.52703857421875 -0.5816650390625
4759503125.0 0.8212890625 -1.36761474609375
4790725000.0 -0.1466064453125 -1.57159423828125
4821946875.0 -1.08465576171875 -1.1917724609375
4853168750.0 -1.61297607421875 -0.24957275390625
4884390625.0 -1.376708984375 0.7938232421875
4915612500.0 -0.61181640625 1.4110107421875
4946834375.0 0.328857421875 1.50726318359375
4978056250.0 1.20458984375 1.01556396484375
5009278125.0 1.560791015625 0.0382080078125
5040500000.0 1.2274169921875 -0.87548828125
5071721875.0 0.5003662109375 -1.412841796875
5102943750.0 -0.44769287109375 -1.49481201171875
5134165625.0 -1.33404541015625 -0.903564453125
5165387500.0 -1.566650390625 0.14697265625
5196609375.0 -1.13421630859375 1.0086669921875
5227831250.0 -0.35589599609375 1.50555419921875
5259053125.0 0.687255859375 1.48974609375
5290275000.0 1.5206298828125 0.661865234375
5321496875.0 1.491455078125 -0.431640625
5352718750.0 0.9195556640625 -1.15289306640625
5383940625.0 0.09515380859375 -1.49896240234375
5415162500.0 -0.90069580078125 -1.2823486328125
5446384375.0 -1.4830322265625 -0.368408203125
5477606250.0 -1.29693603515625 0.5657958984375
5508828125.0 -0.72991943359375 1.15087890625
5540050000.0 0.05474853515625 1.3970947265625
5571271875.0 0.9384765625 1.10711669921875
5602493750.0 1.40777587890625 0.25836181640625
5633715625.0 1.230224609375 -0.61187744140625
5664937500.0 0.6470947265625 -1.20062255859375
5696159375.0 -0.1976318359375 -1.382080078125
5727381250.0 -1.0211181640625 -0.9771728515625
5758603125.0 -1.389892578125 -0.1444091796875
5789825000.0 -1.19317626953125 0.71844482421875
5821046875.0 -0.50494384765625 1.30731201171875
5852268750.0 0.41143798828125 1.3115234375
5883490625.0 1.071044921875 0.7708740234375
5914712500.0 1.30194091796875 0.01885986328125
5945934375.0 1.09515380859375 -0.77569580078125
5977156250.0 0.36126708984375 -1.31072998046875
6008378125.0 -0.50994873046875 -1.181396484375
6039600000.0 -1.02178955078125 -0.64794921875
6070821875.0 -1.22308349609375 -0.00384521484375
6102043750.0 -1.0819091796875 0.76263427734375
6133265625.0 -0.341064453125 1.34375
6164487500.0 0.5638427734375 1.1865234375
6195709375.0 1.0697021484375 0.62933349609375
6226931250.0 1.2794189453125 -0.043701171875
6258153125.0 1.10333251953125 -0.870361328125
6289375000.0 0.255126953125 -1.44580078125
6320596875.0 -0.68914794921875 -1.2049560546875
6351818750.0 -1.19879150390625 -0.57177734375
6383040625.0 -1.35491943359375 0.20849609375
6414262500.0 -0.9996337890625 1.05810546875
6445484375.0 -0.07720947265625 1.45635986328125
6476706250.0 0.79608154296875 1.14678955078125
6507928125.0 1.2901611328125 0.4688720703125
6539150000.0 1.34619140625 -0.386474609375
6570371875.0 0.83984375 -1.1431884765625
6601593750.0 -0.01849365234375 -1.40460205078125
6632815625.0 -0.8402099609375 -1.1348876953125
6664037500.0 -1.4010009765625 -0.418701171875
6695259375.0 -1.37261962890625 0.56634521484375
6726481250.0 -0.709228515625 1.251708984375
6757703125.0 0.130615234375 1.40557861328125
6788925000.0 0.9544677734375 1.12957763671875
6820146875.0 1.55889892578125 0.2874755859375
6851368750.0 1.324951171875 -0.81927490234375
6882590625.0 0.506103515625 -1.337158203125
6913812500.0 -0.29315185546875 -1.35565185546875
6945034375.0 -1.06842041015625 -1.02069091796875
6976256250.0 -1.59197998046875 -0.0924072265625
7007478125.0 -1.23455810546875 0.931396484375
7038700000.0 -0.40069580078125 1.34259033203125
7069921875.0 0.35845947265625 1.32159423828125
7101143750.0 1.11639404296875 0.967041015625
7132365625.0 1.59918212890625 0.01239013671875
7163587500.0 1.15631103515625 -1.0203857421875
7194809375.0 0.30029296875 -1.397705078125
7226031250.0 -0.51220703125 -1.32391357421875
7257253125.0 -1.2662353515625 -0.82373046875
7288475000.0 -1.556640625 0.19970703125
7319696875.0 -1.02825927734375 1.10797119140625
7350918750.0 -0.16448974609375 1.44317626953125
7382140625.0 0.71478271484375 1.2752685546875
7413362500.0 1.37554931640625 0.5765380859375
7444584375.0 1.41168212890625 -0.40838623046875
7475806250.0 0.856201171875 -1.14276123046875
7507028125.0 0.004638671875 -1.42901611328125
7538250000.0 -0.8890380859375 -1.12213134765625
7569471875.0 -1.3360595703125 -0.3111572265625
7600693750.0 -1.2020263671875 0.49920654296875
7631915625.0 -0.71728515625 1.08380126953125
7663137500.0 0.0828857421875 1.3590087890625
7694359375.0 0.939849853515625 0.97930908203125
7725581250.0 1.24359130859375 0.1800537109375
7756803125.0 1.08184814453125 -0.49853515625
7788025000.0 0.66986083984375 -1.04425048828125
7819246875.0 -0.11968994140625 -1.34649658203125
7850468750.0 -0.994140625 -0.915771484375
7881690625.0 -1.2305908203125 -0.105224609375
7912912500.0 -1.05389404296875 0.55340576171875
7944134375.0 -0.6046142578125 1.1131591796875
7975356250.0 0.2708740234375 1.3350830078125
8006578125.0 1.0472412109375 0.77874755859375
8037800000.0 1.19427490234375 0.01446533203125
8069021875.0 1.00628662109375 -0.6177978515625
8100243750.0 0.4989013671875 -1.161865234375
8131465625.0 -0.38616943359375 -1.25323486328125
8162687500.0 -1.03125 -0.68536376953125
8193909375.0 -1.1800537109375 0.00909423828125
8225131250.0 -1.01690673828125 0.6771240234375
8256353125.0 -0.42034912109375 1.2489013671875
8287575000.0 0.5018310546875 1.22552490234375
8318796875.0 1.084228515625 0.63385009765625
8350018750.0 1.24444580078125 -0.076416015625
8381240625.0 1.02972412109375 -0.83953857421875
8412462500.0 0.2530517578125 -1.37347412109375
8443684375.0 -0.67059326171875 -1.16790771484375
8474906250.0 -1.176025390625 -0.5318603515625
8506128125.0 -1.2984619140625 0.23895263671875
8537350000.0 -0.92376708984375 1.04925537109375
8568571875.0 -0.01617431640625 1.39337158203125
8599793750.0 0.80303955078125 1.05218505859375
8631015625.0 1.240966796875 0.39764404296875
8662237500.0 1.28570556640625 -0.4300537109375
8693459375.0 0.735107421875 -1.1761474609375
8724681250.0 -0.16314697265625 -1.3316650390625
8755903125.0 -0.88043212890625 -0.956817626953125
8787125000.0 -1.3037109375 -0.28143310546875
8818346875.0 -1.24969482421875 0.61468505859375
8849568750.0 -0.55615234375 1.2603759765625
8880790625.0 0.298828125 1.28448486328125
8912012500.0 0.97955322265625 0.891876220703125
8943234375.0 1.3975830078125 0.12860107421875
8974456250.0 1.16705322265625 -0.8402099609375
9005678125.0 0.348388671875 -1.31219482421875
9036900000.0 -0.44244384765625 -1.22344970703125
9068121875.0 -1.09954833984375 -0.78509521484375
9099343750.0 -1.43975830078125 0.096435546875
9130565625.0 -0.97955322265625 1.011962890625
9161787500.0 -0.15240478515625 1.284423828125
9193009375.0 0.55462646484375 1.1326904296875
9224231250.0 1.1790771484375 0.65362548828125
9255453125.0 1.39849853515625 -0.29669189453125
9286675000.0 0.8057861328125 -1.08538818359375
9317896875.0 0.0272216796875 -1.24468994140625
9349118750.0 -0.65447998046875 -1.0682373046875
9380340625.0 -1.255615234375 -0.5093994140625
9411562500.0 -1.3106689453125 0.47613525390625
9442784375.0 -0.64691162109375 1.11614990234375
9474006250.0 0.089111328125 1.21002197265625
9505228125.0 0.763824462890625 0.97943115234375
9536450000.0 1.27337646484375 0.31365966796875
9567671875.0 1.14404296875 -0.580810546875
9598893750.0 0.52996826171875 -1.06842041015625
9630115625.0 -0.14544677734375 -1.15802001953125
9661337500.0 -0.819610595703125 -0.901458740234375
9692559375.0 -1.23944091796875 -0.189697265625
9723781250.0 -1.04339599609375 0.6026611328125
9755003125.0 -0.4840087890625 1.05230712890625
9786225000.0 0.19842529296875 1.1585693359375
9817446875.0 0.8944091796875 0.827239990234375
9848668750.0 1.19866943359375 0.07867431640625
9879890625.0 0.96783447265625 -0.618133544921875
9911112500.0 0.451171875 -1.0506591796875
9942334375.0 -0.26922607421875 -1.1588134765625
9973556250.0 -0.94281005859375 -0.7379150390625
10004778125.0 -1.145751953125 -0.01800537109375
10036000000.0 -0.94390869140625 0.616424560546875
10067221875.0 -0.44158935546875 1.0980224609375
10098443750.0 0.36859130859375 1.1806640625
10129665625.0 1.001708984375 0.64324951171875
10160887500.0 1.11962890625 -0.0518798828125
10192109375.0 0.9178466796875 -0.66339111328125
10223331250.0 0.36083984375 -1.15216064453125
10254553125.0 -0.485595703125 -1.11395263671875
10285775000.0 -0.985198974609375 -0.535186767578125
10316996875.0 -1.0657958984375 0.07562255859375
10348218750.0 -0.899322509765625 0.670623779296875
10379440625.0 -0.32220458984375 1.174072265625
10410662500.0 0.52874755859375 1.0850830078125
10441884375.0 0.991424560546875 0.52197265625
10473106250.0 1.10833740234375 -0.08392333984375
10504328125.0 0.948638916015625 -0.758453369140625
10535550000.0 0.24029541015625 -1.2935791015625
10566771875.0 -0.6583251953125 -1.07757568359375
10597993750.0 -1.0821533203125 -0.4580078125
10629215625.0 -1.1744384765625 0.2061767578125
10660437500.0 -0.88720703125 0.9515380859375
10691659375.0 -0.01055908203125 1.33489990234375
10722881250.0 0.783111572265625 0.951629638671875
10754103125.0 1.119873046875 0.3250732421875
10785325000.0 1.13818359375 -0.36712646484375
10816546875.0 0.70050048828125 -1.05108642578125
10847768750.0 -0.1466064453125 -1.2301025390625
10878990625.0 -0.80401611328125 -0.84344482421875
10910212500.0 -1.12286376953125 -0.2440185546875
10941434375.0 -1.09674072265625 0.47662353515625
10972656250.0 -0.56671142578125 1.08563232421875
11003878125.0 0.21844482421875 1.1749267578125
11035100000.0 0.846923828125 0.821380615234375
11066321875.0 1.2200927734375 0.17352294921875
11097543750.0 1.097900390625 -0.6748046875
11128765625.0 0.3858642578125 -1.19842529296875
11159987500.0 -0.39593505859375 -1.13812255859375
11191209375.0 -0.99945068359375 -0.702667236328125
11222431250.0 -1.27105712890625 0.09259033203125
11253653125.0 -0.86004638671875 0.89263916015625
11284875000.0 -0.1142578125 1.12628173828125
11316096875.0 0.511199951171875 0.955902099609375
11347318750.0 1.00311279296875 0.50140380859375
11378540625.0 1.1173095703125 -0.27105712890625
11409762500.0 0.634552001953125 -0.860870361328125
11440984375.0 0.034881591796875 -0.97857666015625
11472206250.0 -0.4791259765625 -0.849517822265625
11503428125.0 -0.953277587890625 -0.455596923828125
11534650000.0 -1.06805419921875 0.2882080078125
11565871875.0 -0.6015625 0.854644775390625
11597093750.0 -0.0167236328125 0.9923095703125
11628315625.0 0.544189453125 0.874755859375
11659537500.0 1.05853271484375 0.39227294921875
11690759375.0 1.06494140625 -0.43292236328125
11721981250.0 0.517059326171875 -0.9403076171875
11753203125.0 -0.10479736328125 -1.03436279296875
11784425000.0 -0.723846435546875 -0.80859375
11815646875.0 -1.09869384765625 -0.15185546875
11846868750.0 -0.890716552734375 0.55224609375
11878090625.0 -0.3912353515625 0.9085693359375
11909312500.0 0.187103271484375 0.983917236328125
11940534375.0 0.78179931640625 0.69427490234375
11971756250.0 1.02557373046875 0.038330078125
12002978125.0 0.806243896484375 -0.539154052734375
12034200000.0 0.38116455078125 -0.8890380859375
12065421875.0 -0.2154541015625 -1.009521484375
12096643750.0 -0.849212646484375 -0.66461181640625
12127865625.0 -1.0335693359375 0.01727294921875
12159087500.0 -0.814422607421875 0.57537841796875
12190309375.0 -0.377288818359375 0.97442626953125
12221531250.0 0.3392333984375 1.0887451171875
12252753125.0 0.981597900390625 0.581451416015625
12283975000.0 1.05316162109375 -0.1270751953125
12315196875.0 0.800079345703125 -0.678131103515625
12346418750.0 0.28021240234375 -1.091552734375
12377640625.0 -0.53839111328125 -1.060791015625
12408862500.0 -1.033447265625 -0.41961669921875
12440084375.0 -1.0078125 0.22479248046875
12471306250.0 -0.740936279296875 0.73773193359375
12502528125.0 -0.17938232421875 1.119873046875
12533750000.0 0.61932373046875 0.992919921875
12564971875.0 1.039794921875 0.3643798828125
12596193750.0 1.0291748046875 -0.2645263671875
12627415625.0 0.74725341796875 -0.8287353515625
12658637500.0 0.07958984375 -1.20648193359375
12689859375.0 -0.737060546875 -0.96661376953125
12721081250.0 -1.11688232421875 -0.30517578125
12752303125.0 -1.096923828125 0.3809814453125
12783525000.0 -0.68768310546875 1.0263671875
12814746875.0 0.16485595703125 1.25128173828125
12845968750.0 0.862823486328125 0.811370849609375
12877190625.0 1.11749267578125 0.17108154296875
12908412500.0 1.05523681640625 -0.5010986328125
12939634375.0 0.54266357421875 -1.11651611328125
12970856250.0 -0.32025146484375 -1.175048828125
13002078125.0 -0.8953857421875 -0.69219970703125
13033300000.0 -1.10626220703125 -0.086669921875
13064521875.0 -1.008544921875 0.591796875
13095743750.0 -0.4200439453125 1.155029296875
13126965625.0 0.40789794921875 1.12017822265625
13158187500.0 0.9473876953125 0.630950927734375
13189409375.0 1.1484375 -0.0213623046875
13220631250.0 0.93536376953125 -0.74853515625
13251853125.0 0.23431396484375 -1.1722412109375
13283075000.0 -0.5068359375 -1.0196533203125
13314296875.0 -0.987213134765625 -0.52874755859375
13345518750.0 -1.13458251953125 0.17626953125
13376740625.0 -0.753204345703125 0.856292724609375
