!Created with skrf (http://scikit-rf.org).
# Hz S RI R 50.0 
!freq ReS11 ImS11
45000000.0 -0.07709121704101562 -0.09688568115234375
76221875.0 -0.19675445556640625 -0.04744720458984375
107443750.0 -0.2553863525390625 0.1201934814453125
138665625.0 -0.148162841796875 0.3292236328125
169887500.0 0.1240234375 0.4180145263671875
201109375.0 0.4227447509765625 0.2810211181640625
232331250.0 0.579681396484375 -0.057830810546875
263553125.0 0.490234375 -0.4539031982421875
294775000.0 0.098114013671875 -0.733612060546875
325996875.0 -0.41650390625 -0.681640625
357218750.0 -0.807891845703125 -0.29718017578125
388440625.0 -0.8868408203125 0.301788330078125
419662500.0 -0.517486572265625 0.8680419921875
450884375.0 0.173828125 1.03033447265625
482106250.0 0.800079345703125 0.713409423828125
513328125.0 1.12103271484375 0.0867919921875
544550000.0 1.00469970703125 -0.6810302734375
575771875.0 0.3363037109375 -1.23919677734375
606993750.0 -0.5550537109375 -1.17840576171875
638215625.0 -1.16754150390625 -0.59027099609375
669437500.0 -1.3414306640625 0.23480224609375
700659375.0 -0.97137451171875 1.09783935546875
731881250.0 -0.0030517578125 1.5450439453125
763103125.0 1.00738525390625 1.15673828125
794325000.0 1.4705810546875 0.28143310546875
825546875.0 1.3685302734375 -0.65283203125
856768750.0 0.79461669921875 -1.40289306640625
887990625.0 -0.2938232421875 -1.650634765625
919212500.0 -1.29052734375 -1.07952880859375
950434375.0 -1.650634765625 -0.05853271484375
981656250.0 -1.3837890625 0.9481201171875
1012878125.0 -0.52978515625 1.674560546875
1044100000.0 0.6986083984375 1.6639404296875
1075321875.0 1.5771484375 0.812255859375
1106543750.0 1.70672607421875 -0.31414794921875
1137765625.0 1.1878662109375 -1.28594970703125
1168987500.0 0.1375732421875 -1.7999267578125
1200209375.0 -1.06378173828125 -1.48455810546875
1231431250.0 -1.7301025390625 -0.452880859375
1262653125.0 -1.59564208984375 0.68585205078125
1293875000.0 -0.85223388671875 1.49365234375
1325096875.0 0.2294921875 1.7086181640625
1356318750.0 1.23712158203125 1.21728515625
1387540625.0 1.742431640625 0.18768310546875
1418762500.0 1.4705810546875 -0.95294189453125
1449984375.0 0.52899169921875 -1.62738037109375
1481206250.0 -0.55133056640625 -1.55718994140625
1512428125.0 -1.3436279296875 -0.919677734375
1543650000.0 -1.65728759765625 0.06646728515625
1574871875.0 -1.27398681640625 1.11090087890625
1606093750.0 -0.27227783203125 1.6329345703125
1637315625.0 0.74383544921875 1.40155029296875
1668537500.0 1.3980712890625 0.69586181640625
1699759375.0 1.57427978515625 -0.278564453125
1730981250.0 1.064453125 -1.23126220703125
1762203125.0 0.0413818359375 -1.57220458984375
1793425000.0 -0.85736083984375 -1.22711181640625
1824646875.0 -1.3955078125 -0.5146484375
1855868750.0 -1.4749755859375 0.43402099609375
1887090625.0 -0.87481689453125 1.287109375
1918312500.0 0.1181640625 1.48760986328125
1949534375.0 0.92291259765625 1.08929443359375
1980756250.0 1.3770751953125 0.36944580078125
2011978125.0 1.36029052734375 -0.53271484375
2043200000.0 0.75006103515625 -1.26251220703125
2074421875.0 -0.15789794921875 -1.434326171875
2105643750.0 -0.96160888671875 -1.0726318359375
2136865625.0 -1.4486083984375 -0.30419921875
2168087500.0 -1.35791015625 0.67266845703125
2199309375.0 -0.63885498046875 1.3525390625
2230531250.0 0.28314208984375 1.43743896484375
2261753125.0 1.07391357421875 1.0137939453125
2292975000.0 1.5159912109375 0.16900634765625
2324196875.0 1.3060302734375 -0.82037353515625
2355418750.0 0.52447509765625 -1.4212646484375
2386640625.0 -0.4058837890625 -1.449462890625
2417862500.0 -1.18304443359375 -1.02410888671875
2449084375.0 -1.6068115234375 -0.08251953125
2480306250.0 -1.3123779296875 0.92706298828125
2511528125.0 -0.4931640625 1.50970458984375
2542750000.0 0.4906005859375 1.53765869140625
2573971875.0 1.37286376953125 0.96783447265625
2605193750.0 1.71807861328125 -0.11279296875
2636415625.0 1.26171875 -1.15460205078125
2667637500.0 0.3062744140625 -1.6678466796875
2698859375.0 -0.771728515625 -1.53472900390625
2730081250.0 -1.57489013671875 -0.7403564453125
2761303125.0 -1.68341064453125 0.39031982421875
2792525000.0 -1.0992431640625 1.308837890625
2823746875.0 -0.10198974609375 1.73138427734375
2854968750.0 1.014404296875 1.45599365234375
2886190625.0 1.693115234375 0.49151611328125
2917412500.0 1.60076904296875 -0.61993408203125
2948634375.0 0.9393310546875 -1.435791015625
2979856250.0 -0.10943603515625 -1.777099609375
3011078125.0 -1.24853515625 -1.34228515625
3042300000.0 -1.7774658203125 -0.23321533203125
3073521875.0 -1.50927734375 0.8394775390625
3104743750.0 -0.7623291015625 1.57000732421875
3135965625.0 0.36273193359375 1.8109130859375
3167187500.0 1.50018310546875 1.16412353515625
3198409375.0 1.81732177734375 -0.076171875
3229631250.0 1.349365234375 -1.08251953125
3260853125.0 0.48895263671875 -1.66961669921875
3292075000.0 -0.65643310546875 -1.6990966796875
3323296875.0 -1.622314453125 -0.87896728515625
3354518750.0 -1.732177734375 0.3304443359375
3385740625.0 -1.15594482421875 1.2340087890625
3416962500.0 -0.23101806640625 1.68316650390625
3448184375.0 0.86212158203125 1.52215576171875
3479406250.0 1.6383056640625 0.64324951171875
3510628125.0 1.64508056640625 -0.497802734375
3541850000.0 1.00006103515625 -1.35833740234375
3573071875.0 -0.00872802734375 -1.68280029296875
3604293750.0 -1.0281982421875 -1.33697509765625
3635515625.0 -1.628662109375 -0.43798828125
3666737500.0 -1.56256103515625 0.64813232421875
3697959375.0 -0.8253173828125 1.4764404296875
3729181250.0 0.2694091796875 1.6314697265625
3760403125.0 1.15399169921875 1.09796142578125
3791625000.0 1.55438232421875 0.2169189453125
3822846875.0 1.40277099609375 -0.76220703125
3854068750.0 0.61962890625 -1.4835205078125
3885290625.0 -0.4224853515625 -1.48248291015625
3916512500.0 -1.143310546875 -0.91119384765625
3947734375.0 -1.4493408203125 -0.11859130859375
3978956250.0 -1.29779052734375 0.7802734375
4010178125.0 -0.531005859375 1.45465087890625
4041400000.0 0.47491455078125 1.41656494140625
4072621875.0 1.1536865234375 0.8470458984375
4103843750.0 1.4454345703125 0.06219482421875
4135065625.0 1.2679443359375 -0.846435546875
4166287500.0 0.45654296875 -1.4979248046875
4197509375.0 -0.55950927734375 -1.41546630859375
4228731250.0 -1.249267578125 -0.80181884765625
4259953125.0 -1.5101318359375 0.07196044921875
4291175000.0 -1.188232421875 1.0108642578125
4322396875.0 -0.28875732421875 1.52642822265625
4353618750.0 0.67315673828125 1.35003662109375
4384840625.0 1.32305908203125 0.697265625
4416062500.0 1.50115966796875 -0.22808837890625
4447284375.0 1.05548095703125 -1.10589599609375
4478506250.0 0.1708984375 -1.49713134765625
4509728125.0 -0.73443603515625 -1.30810546875
4540950000.0 -1.3953857421875 -0.6353759765625
4572171875.0 -1.5224609375 0.3609619140625
4603393750.0 -0.9720458984375 1.21441650390625
4634615625.0 -0.060546875 1.53741455078125
4665837500.0 0.873291015625 1.30523681640625
4697059375.0 1.5438232421875 0.51373291015625
4728281250.0 1.5294189453125 -0.58392333984375
4759503125.0 0.8228759765625 -1.367919921875
4790725000.0 -0.1470947265625 -1.5731201171875
4821946875.0 -1.0853271484375 -1.1937255859375
4853168750.0 -1.61468505859375 -0.2498779296875
4884390625.0 -1.37872314453125 0.7955322265625
4915612500.0 -0.61248779296875 1.41357421875
4946834375.0 0.3306884765625 1.5107421875
4978056250.0 1.2069091796875 1.0172119140625
5009278125.0 1.56304931640625 0.03826904296875
5040500000.0 1.229736328125 -0.87799072265625
5071721875.0 0.50103759765625 -1.41571044921875
5102943750.0 -0.44879150390625 -1.49786376953125
5134165625.0 -1.33740234375 -0.9049072265625
5165387500.0 -1.569091796875 0.1478271484375
5196609375.0 -1.13623046875 1.010498046875
5227831250.0 -0.35601806640625 1.507568359375
5259053125.0 0.69085693359375 1.49273681640625
5290275000.0 1.52276611328125 0.66265869140625
5321496875.0 1.4925537109375 -0.43182373046875
5352718750.0 0.92034912109375 -1.15423583984375
5383940625.0 0.0953369140625 -1.50079345703125
5415162500.0 -0.90106201171875 -1.28363037109375
5446384375.0 -1.48590087890625 -0.36944580078125
5477606250.0 -1.2998046875 0.5675048828125
5508828125.0 -0.73052978515625 1.15338134765625
5540050000.0 0.05535888671875 1.3997802734375
5571271875.0 0.94097900390625 1.1092529296875
5602493750.0 1.4110107421875 0.2586669921875
5633715625.0 1.233154296875 -0.614990234375
5664937500.0 0.64727783203125 -1.20281982421875
5696159375.0 -0.19952392578125 -1.38543701171875
5727381250.0 -1.0228271484375 -0.97808837890625
5758603125.0 -1.39227294921875 -0.1435546875
5789825000.0 -1.19439697265625 0.72003173828125
5821046875.0 -0.50543212890625 1.30865478515625
5852268750.0 0.41363525390625 1.31341552734375
5883490625.0 1.0731201171875 0.77154541015625
5914712500.0 1.3043212890625 0.018310546875
5945934375.0 1.09661865234375 -0.7772216796875
5977156250.0 0.36065673828125 -1.31298828125
6008378125.0 -0.510986328125 -1.18292236328125
6039600000.0 -1.02337646484375 -0.64862060546875
6070821875.0 -1.22509765625 -0.0028076171875
6102043750.0 -1.0831298828125 0.76361083984375
6133265625.0 -0.34027099609375 1.34649658203125
6164487500.0 0.56536865234375 1.18798828125
6195709375.0 1.0723876953125 0.6295166015625
6226931250.0 1.2806396484375 -0.044189453125
6258153125.0 1.10443115234375 -0.874267578125
6289375000.0 0.25445556640625 -1.4471435546875
6320596875.0 -0.6910400390625 -1.20574951171875
6351818750.0 -1.20184326171875 -0.57037353515625
6383040625.0 -1.35516357421875 0.208740234375
6414262500.0 -0.99945068359375 1.058349609375
6445484375.0 -0.07708740234375 1.457275390625
6476706250.0 0.7967529296875 1.147705078125
6507928125.0 1.29193115234375 0.46954345703125
6539150000.0 1.348388671875 -0.38836669921875
6570371875.0 0.84027099609375 -1.14520263671875
6601593750.0 -0.0179443359375 -1.40557861328125
6632815625.0 -0.84228515625 -1.13671875
6664037500.0 -1.40338134765625 -0.41888427734375
6695259375.0 -1.3746337890625 0.568115234375
6726481250.0 -0.70947265625 1.25341796875
6757703125.0 0.13287353515625 1.40826416015625
6788925000.0 0.9573974609375 1.13067626953125
6820146875.0 1.5621337890625 0.2860107421875
6851368750.0 1.3255615234375 -0.820556640625
6882590625.0 0.50445556640625 -1.34088134765625
6913812500.0 -0.29425048828125 -1.35711669921875
6945034375.0 -1.0716552734375 -1.020263671875
6976256250.0 -1.59490966796875 -0.09075927734375
7007478125.0 -1.2359619140625 0.93426513671875
7038700000.0 -0.40179443359375 1.34466552734375
7069921875.0 0.35992431640625 1.32421875
7101143750.0 1.12017822265625 0.96917724609375
7132365625.0 1.6016845703125 0.01251220703125
7163587500.0 1.15789794921875 -1.022216796875
7194809375.0 0.301513671875 -1.39801025390625
7226031250.0 -0.512451171875 -1.3255615234375
7257253125.0 -1.26971435546875 -0.82415771484375
7288475000.0 -1.56097412109375 0.2025146484375
7319696875.0 -1.03009033203125 1.11181640625
7350918750.0 -0.1634521484375 1.44500732421875
7382140625.0 0.71759033203125 1.27679443359375
7413362500.0 1.3768310546875 0.57562255859375
7444584375.0 1.4124755859375 -0.40899658203125
7475806250.0 0.85797119140625 -1.143310546875
7507028125.0 0.0045166015625 -1.43048095703125
7538250000.0 -0.888916015625 -1.12469482421875
7569471875.0 -1.3367919921875 -0.310546875
7600693750.0 -1.20220947265625 0.496826171875
7631915625.0 -0.7181396484375 1.08587646484375
7663137500.0 0.0814208984375 1.359619140625
7694359375.0 0.941558837890625 0.981658935546875
7725581250.0 1.247314453125 0.17840576171875
7756803125.0 1.08319091796875 -0.501220703125
7788025000.0 0.67041015625 -1.04571533203125
7819246875.0 -0.12255859375 -1.3492431640625
7850468750.0 -0.993804931640625 -0.916412353515625
7881690625.0 -1.234130859375 -0.1038818359375
7912912500.0 -1.055419921875 0.555419921875
7944134375.0 -0.6044921875 1.11492919921875
7975356250.0 0.272705078125 1.33538818359375
8006578125.0 1.04705810546875 0.7786865234375
8037800000.0 1.19537353515625 0.015625
8069021875.0 1.00665283203125 -0.61895751953125
8100243750.0 0.4981689453125 -1.16326904296875
8131465625.0 -0.388671875 -1.255126953125
8162687500.0 -1.03289794921875 -0.6865234375
8193909375.0 -1.1827392578125 0.00933837890625
8225131250.0 -1.01947021484375 0.68084716796875
8256353125.0 -0.4200439453125 1.25177001953125
8287575000.0 0.502197265625 1.22723388671875
8318796875.0 1.0849609375 0.634521484375
8350018750.0 1.2467041015625 -0.075927734375
8381240625.0 1.031982421875 -0.8411865234375
8412462500.0 0.2530517578125 -1.374755859375
8443684375.0 -0.67108154296875 -1.170166015625
8474906250.0 -1.17681884765625 -0.53253173828125
8506128125.0 -1.30035400390625 0.24078369140625
8537350000.0 -0.9239501953125 1.04925537109375
8568571875.0 -0.01263427734375 1.397216796875
8599793750.0 0.804443359375 1.05291748046875
8631015625.0 1.2431640625 0.39691162109375
8662237500.0 1.2862548828125 -0.42913818359375
8693459375.0 0.7366943359375 -1.178955078125
8724681250.0 -0.16363525390625 -1.33355712890625
8755903125.0 -0.882781982421875 -0.958282470703125
8787125000.0 -1.306396484375 -0.2811279296875
8818346875.0 -1.25164794921875 0.6170654296875
8849568750.0 -0.555419921875 1.26397705078125
8880790625.0 0.29840087890625 1.2845458984375
8912012500.0 0.982147216796875 0.89300537109375
8943234375.0 1.4013671875 0.126708984375
8974456250.0 1.16845703125 -0.842041015625
9005678125.0 0.34686279296875 -1.31463623046875
9036900000.0 -0.44781494140625 -1.22552490234375
9068121875.0 -1.104248046875 -0.78466796875
9099343750.0 -1.44256591796875 0.10028076171875
9130565625.0 -0.97900390625 1.0130615234375
9161787500.0 -0.1533203125 1.28363037109375
9193009375.0 0.55694580078125 1.13397216796875
9224231250.0 1.18310546875 0.654296875
9255453125.0 1.400634765625 -0.296875
9286675000.0 0.8077392578125 -1.08880615234375
9317896875.0 0.02520751953125 -1.24835205078125
9349118750.0 -0.65447998046875 -1.07025146484375
9380340625.0 -1.2587890625 -0.5084228515625
9411562500.0 -1.31219482421875 0.47906494140625
9442784375.0 -0.6483154296875 1.12005615234375
9474006250.0 0.090576171875 1.211669921875
9505228125.0 0.768402099609375 0.97979736328125
9536450000.0 1.27734375 0.3109130859375
9567671875.0 1.14520263671875 -0.58343505859375
9598893750.0 0.5286865234375 -1.07080078125
9630115625.0 -0.14453125 -1.158447265625
9661337500.0 -0.8201904296875 -0.9014892578125
9692559375.0 -1.24029541015625 -0.1883544921875
9723781250.0 -1.0443115234375 0.60626220703125
9755003125.0 -0.48529052734375 1.0504150390625
9786225000.0 0.2003173828125 1.16107177734375
9817446875.0 0.898956298828125 0.828094482421875
9848668750.0 1.19964599609375 0.076904296875
9879890625.0 0.9683837890625 -0.61761474609375
9911112500.0 0.45074462890625 -1.0537109375
9942334375.0 -0.26861572265625 -1.15960693359375
9973556250.0 -0.9461669921875 -0.7379150390625
10004778125.0 -1.1473388671875 -0.01611328125
10036000000.0 -0.94580078125 0.618896484375
10067221875.0 -0.44061279296875 1.0992431640625
10098443750.0 0.3704833984375 1.180908203125
10129665625.0 1.0042724609375 0.64263916015625
10160887500.0 1.12158203125 -0.05364990234375
10192109375.0 0.9171142578125 -0.66424560546875
10223331250.0 0.3597412109375 -1.15472412109375
10254553125.0 -0.486083984375 -1.11309814453125
10285775000.0 -0.9869384765625 -0.53515625
10316996875.0 -1.0682373046875 0.07769775390625
10348218750.0 -0.901214599609375 0.67425537109375
10379440625.0 -0.3203125 1.17919921875
10410662500.0 0.5313720703125 1.08734130859375
10441884375.0 0.995758056640625 0.5205078125
10473106250.0 1.1116943359375 -0.0858154296875
10504328125.0 0.94976806640625 -0.758392333984375
10535550000.0 0.23748779296875 -1.297607421875
10566771875.0 -0.660400390625 -1.0771484375
10597993750.0 -1.08258056640625 -0.4571533203125
10629215625.0 -1.1761474609375 0.2073974609375
10660437500.0 -0.88720703125 0.9541015625
10691659375.0 -0.0068359375 1.3367919921875
10722881250.0 0.78594970703125 0.95269775390625
10754103125.0 1.12255859375 0.3226318359375
10785325000.0 1.1397705078125 -0.36865234375
10816546875.0 0.7008056640625 -1.04888916015625
10847768750.0 -0.14654541015625 -1.228759765625
10878990625.0 -0.806640625 -0.843292236328125
10910212500.0 -1.12408447265625 -0.24481201171875
10941434375.0 -1.0985107421875 0.47784423828125
10972656250.0 -0.5673828125 1.08685302734375
11003878125.0 0.21893310546875 1.17425537109375
11035100000.0 0.85089111328125 0.821533203125
11066321875.0 1.2225341796875 0.172607421875
11097543750.0 1.0987548828125 -0.67864990234375
11128765625.0 0.3837890625 -1.20098876953125
11159987500.0 -0.399169921875 -1.1396484375
11191209375.0 -1.00091552734375 -0.7025146484375
11222431250.0 -1.27386474609375 0.096435546875
11253653125.0 -0.858917236328125 0.897491455078125
11284875000.0 -0.114013671875 1.12646484375
11316096875.0 0.513641357421875 0.957183837890625
11347318750.0 1.00469970703125 0.5020751953125
11378540625.0 1.11651611328125 -0.26983642578125
11409762500.0 0.6353759765625 -0.85968017578125
11440984375.0 0.03497314453125 -0.979888916015625
11472206250.0 -0.481475830078125 -0.8514404296875
11503428125.0 -0.95458984375 -0.455230712890625
11534650000.0 -1.069091796875 0.2896728515625
11565871875.0 -0.601898193359375 0.856689453125
11597093750.0 -0.01666259765625 0.99346923828125
11628315625.0 0.546722412109375 0.875213623046875
11659537500.0 1.062744140625 0.39105224609375
11690759375.0 1.06494140625 -0.4356689453125
11721981250.0 0.51568603515625 -0.942840576171875
11753203125.0 -0.10723876953125 -1.03729248046875
11784425000.0 -0.72576904296875 -0.808349609375
11815646875.0 -1.10272216796875 -0.14947509765625
11846868750.0 -0.890777587890625 0.552490234375
11878090625.0 -0.389739990234375 0.91009521484375
11909312500.0 0.1888427734375 0.9862060546875
11940534375.0 0.782073974609375 0.695587158203125
11971756250.0 1.02642822265625 0.03790283203125
12002978125.0 0.806976318359375 -0.540496826171875
12034200000.0 0.38031005859375 -0.890594482421875
12065421875.0 -0.2171630859375 -1.011474609375
12096643750.0 -0.84954833984375 -0.664520263671875
12127865625.0 -1.03497314453125 0.0179443359375
12159087500.0 -0.815155029296875 0.57763671875
12190309375.0 -0.37640380859375 0.97637939453125
12221531250.0 0.33990478515625 1.0888671875
12252753125.0 0.9827880859375 0.580413818359375
12283975000.0 1.055419921875 -0.12921142578125
12315196875.0 0.800933837890625 -0.678436279296875
12346418750.0 0.2799072265625 -1.09442138671875
12377640625.0 -0.53948974609375 -1.06048583984375
12408862500.0 -1.0357666015625 -0.41815185546875
12440084375.0 -1.00933837890625 0.226318359375
12471306250.0 -0.741943359375 0.7392578125
12502528125.0 -0.1776123046875 1.12396240234375
12533750000.0 0.622039794921875 0.9945068359375
12564971875.0 1.041015625 0.36285400390625
12596193750.0 1.03021240234375 -0.2662353515625
12627415625.0 0.74810791015625 -0.8321533203125
12658637500.0 0.0775146484375 -1.2083740234375
12689859375.0 -0.7374267578125 -0.96630859375
12721081250.0 -1.1197509765625 -0.30517578125
12752303125.0 -1.0994873046875 0.3848876953125
12783525000.0 -0.6864013671875 1.03265380859375
12814746875.0 0.1683349609375 1.25201416015625
12845968750.0 0.86492919921875 0.81048583984375
12877190625.0 1.119384765625 0.17034912109375
12908412500.0 1.05743408203125 -0.5059814453125
12939634375.0 0.5406494140625 -1.12078857421875
12970856250.0 -0.3232421875 -1.17578125
13002078125.0 -0.89556884765625 -0.692474365234375
13033300000.0 -1.1058349609375 -0.08599853515625
13064521875.0 -1.00921630859375 0.59619140625
13095743750.0 -0.418212890625 1.1566162109375
13126965625.0 0.411376953125 1.119873046875
13158187500.0 0.947906494140625 0.631378173828125
13189409375.0 1.15069580078125 -0.0238037109375
13220631250.0 0.935791015625 -0.75030517578125
13251853125.0 0.23260498046875 -1.17413330078125
13283075000.0 -0.510986328125 -1.02020263671875
13314296875.0 -0.990081787109375 -0.527557373046875
13345518750.0 -1.13677978515625 0.1798095703125
13376740625.0 -0.751495361328125 0.861541748046875
13407962500.0 -0.05670166015625 1.0697021484375
