!Created with skrf (http://scikit-rf.org).
# Hz S RI R 50.0 
!freq ReS11 ImS11
45000000.0 -0.07696533203125 -0.09679794311523438
76221875.0 -0.19626617431640625 -0.04749298095703125
107443750.0 -0.254638671875 0.11944580078125
138665625.0 -0.1479949951171875 0.3283843994140625
169887500.0 0.12347412109375 0.4172821044921875
201109375.0 0.42138671875 0.2806549072265625
232331250.0 0.578460693359375 -0.057464599609375
263553125.0 0.489044189453125 -0.4521942138671875
294775000.0 0.0986328125 -0.73175048828125
325996875.0 -0.414886474609375 -0.679901123046875
357218750.0 -0.805511474609375 -0.296875
388440625.0 -0.8848876953125 0.3001708984375
419662500.0 -0.516754150390625 0.865234375
450884375.0 0.1728515625 1.02752685546875
482106250.0 0.797454833984375 0.711822509765625
513328125.0 1.11810302734375 0.08734130859375
544550000.0 1.00286865234375 -0.67901611328125
575771875.0 0.33612060546875 -1.2369384765625
606993750.0 -0.55316162109375 -1.17620849609375
638215625.0 -1.1644287109375 -0.58978271484375
669437500.0 -1.33856201171875 0.2332763671875
700659375.0 -0.97021484375 1.09490966796875
731881250.0 -0.0037841796875 1.541259765625
763103125.0 1.00433349609375 1.15447998046875
794325000.0 1.46697998046875 0.281494140625
825546875.0 1.3656005859375 -0.6502685546875
856768750.0 0.79364013671875 -1.398681640625
887990625.0 -0.2919921875 -1.6461181640625
919212500.0 -1.2857666015625 -1.0771484375
950434375.0 -1.64642333984375 -0.0594482421875
981656250.0 -1.38055419921875 0.9444580078125
1012878125.0 -0.52960205078125 1.66900634765625
1044100000.0 0.695556640625 1.65936279296875
1075321875.0 1.57171630859375 0.81109619140625
1106543750.0 1.7021484375 -0.31207275390625
1137765625.0 1.18499755859375 -1.28216552734375
1168987500.0 0.13818359375 -1.79437255859375
1200209375.0 -1.05950927734375 -1.48150634765625
1231431250.0 -1.724609375 -0.453125
1262653125.0 -1.5919189453125 0.68341064453125
1293875000.0 -0.8509521484375 1.48876953125
1325096875.0 0.22747802734375 1.70428466796875
1356318750.0 1.2327880859375 1.21478271484375
1387540625.0 1.737060546875 0.1885986328125
1418762500.0 1.4671630859375 -0.94989013671875
1449984375.0 0.52874755859375 -1.622802734375
1481206250.0 -0.54876708984375 -1.5535888671875
1512428125.0 -1.33929443359375 -0.9183349609375
1543650000.0 -1.65277099609375 0.06451416015625
1574871875.0 -1.2713623046875 1.1065673828125
1606093750.0 -0.27276611328125 1.6290283203125
1637315625.0 0.74053955078125 1.3985595703125
1668537500.0 1.39404296875 0.69512939453125
1699759375.0 1.57080078125 -0.27655029296875
1730981250.0 1.0626220703125 -1.2274169921875
1762203125.0 0.04248046875 -1.56781005859375
1793425000.0 -0.85418701171875 -1.2249755859375
1824646875.0 -1.391357421875 -0.51458740234375
1855868750.0 -1.4715576171875 0.43109130859375
1887090625.0 -0.87371826171875 1.282958984375
1918312500.0 0.1168212890625 1.48419189453125
1949534375.0 0.920166015625 1.08734130859375
1980756250.0 1.372802734375 0.3697509765625
2011978125.0 1.3575439453125 -0.53070068359375
2043200000.0 0.74908447265625 -1.2593994140625
2074421875.0 -0.1561279296875 -1.43096923828125
2105643750.0 -0.95819091796875 -1.07086181640625
2136865625.0 -1.44476318359375 -0.3045654296875
2168087500.0 -1.3551025390625 0.669677734375
2199309375.0 -0.63824462890625 1.3489990234375
2230531250.0 0.2811279296875 1.433837890625
2261753125.0 1.07086181640625 1.0123291015625
2292975000.0 1.5120849609375 0.17041015625
2324196875.0 1.303466796875 -0.81744384765625
2355418750.0 0.5245361328125 -1.41741943359375
2386640625.0 -0.40325927734375 -1.4466552734375
2417862500.0 -1.17852783203125 -1.0225830078125
2449084375.0 -1.60150146484375 -0.08447265625
2480306250.0 -1.30902099609375 0.9234619140625
2511528125.0 -0.49322509765625 1.50445556640625
2542750000.0 0.48724365234375 1.5338134765625
2573971875.0 1.36700439453125 0.96649169921875
2605193750.0 1.71343994140625 -0.111572265625
2636415625.0 1.25933837890625 -1.1507568359375
2667637500.0 0.30645751953125 -1.66326904296875
2698859375.0 -0.76690673828125 -1.53094482421875
2730081250.0 -1.570556640625 -0.73944091796875
2761303125.0 -1.6773681640625 0.38616943359375
2792525000.0 -1.097412109375 1.30450439453125
2823746875.0 -0.10186767578125 1.726318359375
2854968750.0 1.00958251953125 1.4525146484375
2886190625.0 1.68780517578125 0.4908447265625
2917412500.0 1.59625244140625 -0.61578369140625
2948634375.0 0.9378662109375 -1.43011474609375
2979856250.0 -0.10748291015625 -1.77215576171875
3011078125.0 -1.24517822265625 -1.3402099609375
3042300000.0 -1.77069091796875 -0.23541259765625
3073521875.0 -1.50616455078125 0.8359375
3104743750.0 -0.76226806640625 1.5638427734375
3135965625.0 0.35986328125 1.805419921875
3167187500.0 1.49371337890625 1.162353515625
3198409375.0 1.81201171875 -0.07427978515625
3229631250.0 1.34576416015625 -1.078857421875
3260853125.0 0.4891357421875 -1.6654052734375
3292075000.0 -0.65264892578125 -1.694091796875
3323296875.0 -1.61651611328125 -0.878662109375
3354518750.0 -1.72613525390625 0.326416015625
3385740625.0 -1.1539306640625 1.2283935546875
3416962500.0 -0.231689453125 1.67767333984375
3448184375.0 0.8568115234375 1.5184326171875
3479406250.0 1.63140869140625 0.64373779296875
3510628125.0 1.64013671875 -0.49249267578125
3541850000.0 0.9989013671875 -1.35272216796875
3573071875.0 -0.00640869140625 -1.67791748046875
3604293750.0 -1.025634765625 -1.33538818359375
3635515625.0 -1.62353515625 -0.4383544921875
3666737500.0 -1.55877685546875 0.64398193359375
3697959375.0 -0.82391357421875 1.47235107421875
3729181250.0 0.26812744140625 1.628173828125
3760403125.0 1.14959716796875 1.0960693359375
3791625000.0 1.54949951171875 0.2183837890625
3822846875.0 1.39910888671875 -0.75909423828125
3854068750.0 0.61968994140625 -1.4779052734375
3885290625.0 -0.419189453125 -1.47772216796875
3916512500.0 -1.13897705078125 -0.90948486328125
3947734375.0 -1.44439697265625 -0.120361328125
3978956250.0 -1.29443359375 0.776123046875
4010178125.0 -0.53082275390625 1.4512939453125
4041400000.0 0.470947265625 1.41253662109375
4072621875.0 1.149169921875 0.84674072265625
4103843750.0 1.44171142578125 0.06378173828125
4135065625.0 1.26580810546875 -0.84375
4166287500.0 0.4581298828125 -1.4918212890625
4197509375.0 -0.55523681640625 -1.4124755859375
4228731250.0 -1.2440185546875 -0.80157470703125
4259953125.0 -1.50555419921875 0.06976318359375
4291175000.0 -1.18597412109375 1.0074462890625
4322396875.0 -0.2896728515625 1.52325439453125
4353618750.0 0.6705322265625 1.3475341796875
4384840625.0 1.3194580078125 0.69677734375
4416062500.0 1.497802734375 -0.22637939453125
4447284375.0 1.05352783203125 -1.10162353515625
4478506250.0 0.17364501953125 -1.49169921875
4509728125.0 -0.73126220703125 -1.30584716796875
4540950000.0 -1.39007568359375 -0.635498046875
4572171875.0 -1.51934814453125 0.3583984375
4603393750.0 -0.97137451171875 1.2095947265625
4634615625.0 -0.06256103515625 1.53375244140625
4665837500.0 0.86865234375 1.3021240234375
4697059375.0 1.5380859375 0.51495361328125
4728281250.0 1.52545166015625 -0.5802001953125
4759503125.0 0.82208251953125 -1.3662109375
4790725000.0 -0.14483642578125 -1.57012939453125
4821946875.0 -1.0811767578125 -1.19232177734375
4853168750.0 -1.6099853515625 -0.25128173828125
4884390625.0 -1.3759765625 0.7911376953125
4915612500.0 -0.6124267578125 1.40924072265625
4946834375.0 0.3271484375 1.50665283203125
4978056250.0 1.20330810546875 1.01641845703125
5009278125.0 1.5601806640625 0.039306640625
5040500000.0 1.2279052734375 -0.87335205078125
5071721875.0 0.5018310546875 -1.4112548828125
5102943750.0 -0.4454345703125 -1.49517822265625
5134165625.0 -1.33380126953125 -0.904541015625
5165387500.0 -1.5650634765625 0.14495849609375
5196609375.0 -1.13482666015625 1.0074462890625
5227831250.0 -0.357177734375 1.503662109375
5259053125.0 0.68597412109375 1.48968505859375
5290275000.0 1.51751708984375 0.66253662109375
5321496875.0 1.48968505859375 -0.42889404296875
5352718750.0 0.91973876953125 -1.15130615234375
5383940625.0 0.09625244140625 -1.4981689453125
5415162500.0 -0.8985595703125 -1.28204345703125
5446384375.0 -1.48193359375 -0.3701171875
5477606250.0 -1.296875 0.5638427734375
5508828125.0 -0.73089599609375 1.1492919921875
5540050000.0 0.05291748046875 1.39599609375
5571271875.0 0.9366455078125 1.1075439453125
5602493750.0 1.4061279296875 0.2601318359375
5633715625.0 1.23052978515625 -0.61126708984375
5664937500.0 0.647705078125 -1.1995849609375
5696159375.0 -0.19561767578125 -1.3812255859375
5727381250.0 -1.02032470703125 -0.9771728515625
5758603125.0 -1.38922119140625 -0.14569091796875
5789825000.0 -1.19268798828125 0.71673583984375
5821046875.0 -0.50616455078125 1.30517578125
5852268750.0 0.41009521484375 1.31072998046875
5883490625.0 1.0694580078125 0.7706298828125
5914712500.0 1.30120849609375 0.01995849609375
5945934375.0 1.09466552734375 -0.7738037109375
5977156250.0 0.36163330078125 -1.30975341796875
6008378125.0 -0.50848388671875 -1.180908203125
6039600000.0 -1.01995849609375 -0.64862060546875
6070821875.0 -1.22222900390625 -0.00543212890625
6102043750.0 -1.08172607421875 0.7608642578125
6133265625.0 -0.342041015625 1.34210205078125
6164487500.0 0.56158447265625 1.1861572265625
6195709375.0 1.0682373046875 0.62957763671875
6226931250.0 1.27813720703125 -0.04217529296875
6258153125.0 1.1031494140625 -0.869384765625
6289375000.0 0.2569580078125 -1.4437255859375
6320596875.0 -0.68682861328125 -1.2039794921875
6351818750.0 -1.1982421875 -0.5714111328125
6383040625.0 -1.35235595703125 0.20648193359375
6414262500.0 -0.99932861328125 1.05474853515625
6445484375.0 -0.07916259765625 1.4544677734375
6476706250.0 0.7945556640625 1.14666748046875
6507928125.0 1.2879638671875 0.47003173828125
6539150000.0 1.345947265625 -0.38568115234375
6570371875.0 0.84033203125 -1.142578125
6601593750.0 -0.01690673828125 -1.403076171875
6632815625.0 -0.8389892578125 -1.135009765625
6664037500.0 -1.3988037109375 -0.42047119140625
6695259375.0 -1.371826171875 0.5640869140625
6726481250.0 -0.7095947265625 1.24920654296875
6757703125.0 0.1300048828125 1.40472412109375
6788925000.0 0.95294189453125 1.12945556640625
6820146875.0 1.55859375 0.28778076171875
6851368750.0 1.3245849609375 -0.8182373046875
6882590625.0 0.506591796875 -1.33624267578125
6913812500.0 -0.29071044921875 -1.3544921875
6945034375.0 -1.06683349609375 -1.0206298828125
6976256250.0 -1.590087890625 -0.09375
7007478125.0 -1.233642578125 0.9271240234375
7038700000.0 -0.4027099609375 1.3397216796875
7069921875.0 0.35577392578125 1.32073974609375
7101143750.0 1.11431884765625 0.96746826171875
7132365625.0 1.59814453125 0.01458740234375
7163587500.0 1.15545654296875 -1.018798828125
7194809375.0 0.30230712890625 -1.39569091796875
7226031250.0 -0.51043701171875 -1.323974609375
7257253125.0 -1.26397705078125 -0.8231201171875
7288475000.0 -1.55718994140625 0.19757080078125
7319696875.0 -1.02880859375 1.10614013671875
7350918750.0 -0.16546630859375 1.4407958984375
7382140625.0 0.7120361328125 1.273681640625
7413362500.0 1.37359619140625 0.57635498046875
7444584375.0 1.409912109375 -0.40264892578125
7475806250.0 0.857666015625 -1.13836669921875
7507028125.0 0.0057373046875 -1.42852783203125
7538250000.0 -0.88360595703125 -1.12225341796875
7569471875.0 -1.33221435546875 -0.3125
7600693750.0 -1.20037841796875 0.4951171875
7631915625.0 -0.717529296875 1.08209228515625
7663137500.0 0.0780029296875 1.35443115234375
7694359375.0 0.93719482421875 0.9801025390625
7725581250.0 1.24371337890625 0.17962646484375
7756803125.0 1.08062744140625 -0.49639892578125
7788025000.0 0.66973876953125 -1.040283203125
7819246875.0 -0.1195068359375 -1.34564208984375
7850468750.0 -0.990386962890625 -0.915740966796875
7881690625.0 -1.230224609375 -0.10491943359375
7912912500.0 -1.05364990234375 0.55224609375
7944134375.0 -0.6058349609375 1.1102294921875
7975356250.0 0.2706298828125 1.33404541015625
8006578125.0 1.0460205078125 0.77752685546875
8037800000.0 1.193115234375 0.01763916015625
8069021875.0 1.0054931640625 -0.615234375
8100243750.0 0.499755859375 -1.15887451171875
8131465625.0 -0.38653564453125 -1.2532958984375
8162687500.0 -1.0291748046875 -0.68701171875
8193909375.0 -1.17999267578125 0.0086669921875
8225131250.0 -1.016357421875 0.67730712890625
8256353125.0 -0.42205810546875 1.2471923828125
8287575000.0 0.49859619140625 1.22491455078125
8318796875.0 1.0802001953125 0.635986328125
8350018750.0 1.243896484375 -0.0758056640625
8381240625.0 1.030517578125 -0.83807373046875
8412462500.0 0.2554931640625 -1.370849609375
8443684375.0 -0.666259765625 -1.1688232421875
8474906250.0 -1.17279052734375 -0.53253173828125
8506128125.0 -1.29742431640625 0.23681640625
8537350000.0 -0.9234619140625 1.04443359375
8568571875.0 -0.01629638671875 1.39239501953125
8599793750.0 0.80096435546875 1.05291748046875
8631015625.0 1.23968505859375 0.39886474609375
8662237500.0 1.2850341796875 -0.42694091796875
8693459375.0 0.7364501953125 -1.17462158203125
8724681250.0 -0.16217041015625 -1.33062744140625
8755903125.0 -0.880279541015625 -0.956939697265625
8787125000.0 -1.30157470703125 -0.2825927734375
8818346875.0 -1.24969482421875 0.61431884765625
8849568750.0 -0.55694580078125 1.260009765625
8880790625.0 0.2979736328125 1.28399658203125
8912012500.0 0.979705810546875 0.89239501953125
8943234375.0 1.3961181640625 0.13006591796875
8974456250.0 1.1666259765625 -0.8367919921875
9005678125.0 0.3475341796875 -1.31378173828125
9036900000.0 -0.44329833984375 -1.2242431640625
9068121875.0 -1.09796142578125 -0.785888671875
9099343750.0 -1.43896484375 0.096435546875
9130565625.0 -0.978515625 1.00994873046875
9161787500.0 -0.15545654296875 1.2811279296875
9193009375.0 0.5535888671875 1.13311767578125
9224231250.0 1.17584228515625 0.6556396484375
9255453125.0 1.396728515625 -0.29376220703125
9286675000.0 0.80633544921875 -1.0830078125
9317896875.0 0.0269775390625 -1.24493408203125
9349118750.0 -0.65252685546875 -1.0682373046875
9380340625.0 -1.25640869140625 -0.5087890625
9411562500.0 -1.30889892578125 0.474609375
9442784375.0 -0.64764404296875 1.114990234375
9474006250.0 0.08984375 1.21075439453125
9505228125.0 0.76275634765625 0.979583740234375
9536450000.0 1.27191162109375 0.31427001953125
9567671875.0 1.1444091796875 -0.57940673828125
9598893750.0 0.52886962890625 -1.06866455078125
9630115625.0 -0.14288330078125 -1.15716552734375
9661337500.0 -0.815277099609375 -0.901947021484375
9692559375.0 -1.23895263671875 -0.1900634765625
9723781250.0 -1.042724609375 0.6004638671875
9755003125.0 -0.4852294921875 1.0484619140625
9786225000.0 0.19683837890625 1.15765380859375
9817446875.0 0.89459228515625 0.8271484375
9848668750.0 1.1953125 0.0810546875
9879890625.0 0.967559814453125 -0.613983154296875
9911112500.0 0.45208740234375 -1.04974365234375
9942334375.0 -0.26611328125 -1.15655517578125
9973556250.0 -0.94268798828125 -0.737884521484375
10004778125.0 -1.144775390625 -0.0181884765625
10036000000.0 -0.942657470703125 0.6134033203125
10067221875.0 -0.4423828125 1.09503173828125
10098443750.0 0.3690185546875 1.18096923828125
10129665625.0 0.999847412109375 0.64312744140625
10160887500.0 1.11834716796875 -0.05035400390625
10192109375.0 0.916748046875 -0.66119384765625
10223331250.0 0.36187744140625 -1.15032958984375
10254553125.0 -0.484619140625 -1.112060546875
10285775000.0 -0.983642578125 -0.53515625
10316996875.0 -1.06488037109375 0.07476806640625
10348218750.0 -0.89923095703125 0.66815185546875
10379440625.0 -0.3221435546875 1.17547607421875
10410662500.0 0.52642822265625 1.08441162109375
10441884375.0 0.99078369140625 0.521820068359375
10473106250.0 1.107421875 -0.08343505859375
10504328125.0 0.94866943359375 -0.755767822265625
10535550000.0 0.2392578125 -1.293701171875
10566771875.0 -0.6549072265625 -1.07635498046875
10597993750.0 -1.079345703125 -0.4591064453125
10629215625.0 -1.17388916015625 0.20379638671875
10660437500.0 -0.886993408203125 0.949432373046875
10691659375.0 -0.01031494140625 1.33441162109375
10722881250.0 0.7833251953125 0.95172119140625
10754103125.0 1.11749267578125 0.32476806640625
10785325000.0 1.137939453125 -0.36517333984375
10816546875.0 0.70086669921875 -1.04852294921875
10847768750.0 -0.14306640625 -1.22882080078125
10878990625.0 -0.802825927734375 -0.842498779296875
10910212500.0 -1.1226806640625 -0.24609375
10941434375.0 -1.09747314453125 0.47589111328125
10972656250.0 -0.5682373046875 1.08270263671875
11003878125.0 0.21575927734375 1.17279052734375
11035100000.0 0.846923828125 0.8218994140625
11066321875.0 1.21893310546875 0.175048828125
11097543750.0 1.09765625 -0.6749267578125
11128765625.0 0.3863525390625 -1.19683837890625
11159987500.0 -0.39453125 -1.13763427734375
11191209375.0 -0.997314453125 -0.702362060546875
11222431250.0 -1.27069091796875 0.09271240234375
11253653125.0 -0.858367919921875 0.8934326171875
11284875000.0 -0.11492919921875 1.12554931640625
11316096875.0 0.51031494140625 0.9552001953125
11347318750.0 1.00213623046875 0.50238037109375
11378540625.0 1.1162109375 -0.267578125
11409762500.0 0.634368896484375 -0.85797119140625
11440984375.0 0.035491943359375 -0.977874755859375
11472206250.0 -0.480133056640625 -0.85015869140625
11503428125.0 -0.95050048828125 -0.45697021484375
11534650000.0 -1.0677490234375 0.2877197265625
11565871875.0 -0.60272216796875 0.852996826171875
11597093750.0 -0.01910400390625 0.990325927734375
11628315625.0 0.54327392578125 0.87530517578125
11659537500.0 1.05914306640625 0.3927001953125
11690759375.0 1.06402587890625 -0.43218994140625
11721981250.0 0.51654052734375 -0.938995361328125
11753203125.0 -0.1048583984375 -1.03619384765625
11784425000.0 -0.723358154296875 -0.80865478515625
11815646875.0 -1.099609375 -0.15191650390625
11846868750.0 -0.891021728515625 0.549224853515625
11878090625.0 -0.3909912109375 0.908203125
11909312500.0 0.1856689453125 0.9825439453125
11940534375.0 0.778228759765625 0.6944580078125
11971756250.0 1.0235595703125 0.0406494140625
12002978125.0 0.806182861328125 -0.5361328125
12034200000.0 0.38201904296875 -0.888214111328125
12065421875.0 -0.21502685546875 -1.00958251953125
12096643750.0 -0.84588623046875 -0.66485595703125
12127865625.0 -1.03265380859375 0.015625
12159087500.0 -0.81500244140625 0.5750732421875
12190309375.0 -0.378021240234375 0.973907470703125
12221531250.0 0.336669921875 1.0867919921875
12252753125.0 0.979034423828125 0.582183837890625
12283975000.0 1.0531005859375 -0.12664794921875
12315196875.0 0.799163818359375 -0.6759033203125
12346418750.0 0.28118896484375 -1.0906982421875
12377640625.0 -0.53619384765625 -1.05859375
12408862500.0 -1.0316162109375 -0.420654296875
12440084375.0 -1.00714111328125 0.22332763671875
12471306250.0 -0.741851806640625 0.734527587890625
12502528125.0 -0.17840576171875 1.1204833984375
12533750000.0 0.617645263671875 0.9931640625
12564971875.0 1.03985595703125 0.364501953125
12596193750.0 1.02923583984375 -0.26495361328125
12627415625.0 0.74786376953125 -0.82666015625
12658637500.0 0.07952880859375 -1.2064208984375
12689859375.0 -0.73614501953125 -0.966278076171875
12721081250.0 -1.11669921875 -0.3060302734375
12752303125.0 -1.09716796875 0.38226318359375
12783525000.0 -0.6875 1.02581787109375
12814746875.0 0.16412353515625 1.25091552734375
12845968750.0 0.861663818359375 0.81048583984375
12877190625.0 1.11669921875 0.17181396484375
12908412500.0 1.05419921875 -0.4989013671875
12939634375.0 0.54315185546875 -1.11602783203125
12970856250.0 -0.31964111328125 -1.1741943359375
13002078125.0 -0.892974853515625 -0.693145751953125
13033300000.0 -1.104736328125 -0.0869140625
13064521875.0 -1.00933837890625 0.5933837890625
13095743750.0 -0.4208984375 1.15380859375
13126965625.0 0.40771484375 1.1201171875
13158187500.0 0.945526123046875 0.631927490234375
13189409375.0 1.1478271484375 -0.02056884765625
13220631250.0 0.935394287109375 -0.746826171875
13251853125.0 0.2340087890625 -1.17059326171875
13283075000.0 -0.505126953125 -1.01910400390625
13314296875.0 -0.985992431640625 -0.528106689453125
13345518750.0 -1.134521484375 0.17633056640625
