!Created with skrf (http://scikit-rf.org).
# Hz S RI R 50.0 
!freq ReS11 ImS11
45000000.0 -0.07703399658203125 -0.09682083129882812
76221875.0 -0.19629669189453125 -0.0475616455078125
107443750.0 -0.254669189453125 0.1196441650390625
138665625.0 -0.1480865478515625 0.3285064697265625
169887500.0 0.1236724853515625 0.4170989990234375
201109375.0 0.421661376953125 0.2804412841796875
232331250.0 0.578460693359375 -0.057647705078125
263553125.0 0.48907470703125 -0.4528350830078125
294775000.0 0.098052978515625 -0.732147216796875
325996875.0 -0.4154052734375 -0.679931640625
357218750.0 -0.8057861328125 -0.2965087890625
388440625.0 -0.884735107421875 0.300811767578125
419662500.0 -0.5164794921875 0.86590576171875
450884375.0 0.17340087890625 1.028076171875
482106250.0 0.798065185546875 0.711669921875
513328125.0 1.118408203125 0.0867919921875
544550000.0 1.00262451171875 -0.6795654296875
575771875.0 0.335693359375 -1.23724365234375
606993750.0 -0.5538330078125 -1.17608642578125
638215625.0 -1.1649169921875 -0.58935546875
669437500.0 -1.3385009765625 0.23382568359375
700659375.0 -0.96954345703125 1.09552001953125
731881250.0 -0.00311279296875 1.54168701171875
763103125.0 1.00518798828125 1.1544189453125
794325000.0 1.46746826171875 0.28070068359375
825546875.0 1.36566162109375 -0.6512451171875
856768750.0 0.79315185546875 -1.39959716796875
887990625.0 -0.29266357421875 -1.64654541015625
919212500.0 -1.28680419921875 -1.0770263671875
950434375.0 -1.646484375 -0.05877685546875
981656250.0 -1.38067626953125 0.945068359375
1012878125.0 -0.5281982421875 1.66949462890625
1044100000.0 0.69671630859375 1.659423828125
1075321875.0 1.572998046875 0.8104248046875
1106543750.0 1.70257568359375 -0.31341552734375
1137765625.0 1.184814453125 -1.2828369140625
1168987500.0 0.13739013671875 -1.79461669921875
1200209375.0 -1.06134033203125 -1.48150634765625
1231431250.0 -1.725341796875 -0.452392578125
1262653125.0 -1.5919189453125 0.6839599609375
1293875000.0 -0.85015869140625 1.48992919921875
1325096875.0 0.22857666015625 1.7039794921875
1356318750.0 1.234130859375 1.2144775390625
1387540625.0 1.73724365234375 0.1878662109375
1418762500.0 1.46734619140625 -0.95062255859375
1449984375.0 0.52825927734375 -1.623779296875
1481206250.0 -0.54974365234375 -1.55401611328125
1512428125.0 -1.3399658203125 -0.9180908203125
1543650000.0 -1.6533203125 0.06549072265625
1574871875.0 -1.27093505859375 1.107421875
1606093750.0 -0.27197265625 1.62957763671875
1637315625.0 0.7415771484375 1.3984375
1668537500.0 1.39404296875 0.6947021484375
1699759375.0 1.57122802734375 -0.27752685546875
1730981250.0 1.06219482421875 -1.228271484375
1762203125.0 0.04156494140625 -1.56829833984375
1793425000.0 -0.85479736328125 -1.2244873046875
1824646875.0 -1.39178466796875 -0.51373291015625
1855868750.0 -1.47186279296875 0.43243408203125
1887090625.0 -0.8736572265625 1.28387451171875
1918312500.0 0.1173095703125 1.48455810546875
1949534375.0 0.92047119140625 1.0872802734375
1980756250.0 1.3734130859375 0.369384765625
2011978125.0 1.357666015625 -0.531494140625
2043200000.0 0.74847412109375 -1.259765625
2074421875.0 -0.1571044921875 -1.43096923828125
2105643750.0 -0.959228515625 -1.07025146484375
2136865625.0 -1.445556640625 -0.30419921875
2168087500.0 -1.3548583984375 0.67022705078125
2199309375.0 -0.63775634765625 1.34967041015625
2230531250.0 0.281982421875 1.43414306640625
2261753125.0 1.07086181640625 1.0123291015625
2292975000.0 1.512451171875 0.16998291015625
2324196875.0 1.30377197265625 -0.81805419921875
2355418750.0 0.5242919921875 -1.418701171875
2386640625.0 -0.40399169921875 -1.44683837890625
2417862500.0 -1.17919921875 -1.0223388671875
2449084375.0 -1.602783203125 -0.08331298828125
2480306250.0 -1.30889892578125 0.92303466796875
2511528125.0 -0.4927978515625 1.50640869140625
2542750000.0 0.4879150390625 1.53387451171875
2573971875.0 1.3692626953125 0.96636962890625
2605193750.0 1.71453857421875 -0.1126708984375
2636415625.0 1.2593994140625 -1.1495361328125
2667637500.0 0.30596923828125 -1.6646728515625
2698859375.0 -0.768798828125 -1.5318603515625
2730081250.0 -1.570068359375 -0.73907470703125
2761303125.0 -1.6776123046875 0.38714599609375
2792525000.0 -1.09716796875 1.3040771484375
2823746875.0 -0.10308837890625 1.72467041015625
2854968750.0 1.009521484375 1.45220947265625
2886190625.0 1.688232421875 0.49090576171875
2917412500.0 1.59661865234375 -0.6180419921875
2948634375.0 0.93756103515625 -1.4306640625
2979856250.0 -0.10809326171875 -1.77301025390625
3011078125.0 -1.24658203125 -1.3399658203125
3042300000.0 -1.772216796875 -0.23388671875
3073521875.0 -1.505859375 0.836669921875
3104743750.0 -0.761962890625 1.5650634765625
3135965625.0 0.36175537109375 1.805908203125
3167187500.0 1.49761962890625 1.16204833984375
3198409375.0 1.81243896484375 -0.0748291015625
3229631250.0 1.3463134765625 -1.08111572265625
3260853125.0 0.48870849609375 -1.66424560546875
3292075000.0 -0.6534423828125 -1.6942138671875
3323296875.0 -1.61627197265625 -0.87738037109375
3354518750.0 -1.7269287109375 0.32745361328125
3385740625.0 -1.15283203125 1.228515625
3416962500.0 -0.23052978515625 1.6781005859375
3448184375.0 0.85791015625 1.51849365234375
3479406250.0 1.6314697265625 0.6435546875
3510628125.0 1.64141845703125 -0.4951171875
3541850000.0 0.998291015625 -1.352294921875
3573071875.0 -0.00775146484375 -1.67987060546875
3604293750.0 -1.02734375 -1.3348388671875
3635515625.0 -1.62408447265625 -0.43829345703125
3666737500.0 -1.5592041015625 0.64605712890625
3697959375.0 -0.8238525390625 1.47344970703125
3729181250.0 0.267578125 1.62725830078125
3760403125.0 1.1497802734375 1.095947265625
3791625000.0 1.5484619140625 0.21795654296875
3822846875.0 1.3988037109375 -0.758544921875
3854068750.0 0.61956787109375 -1.4774169921875
3885290625.0 -0.420654296875 -1.47869873046875
3916512500.0 -1.1402587890625 -0.90966796875
3947734375.0 -1.4447021484375 -0.11920166015625
3978956250.0 -1.2945556640625 0.77740478515625
4010178125.0 -0.53070068359375 1.45159912109375
4041400000.0 0.47198486328125 1.4127197265625
4072621875.0 1.14947509765625 0.84637451171875
4103843750.0 1.44281005859375 0.062744140625
4135065625.0 1.2657470703125 -0.84490966796875
4166287500.0 0.45703125 -1.493408203125
4197509375.0 -0.5562744140625 -1.41290283203125
4228731250.0 -1.2457275390625 -0.8018798828125
4259953125.0 -1.50653076171875 0.070068359375
4291175000.0 -1.1866455078125 1.0086669921875
4322396875.0 -0.2896728515625 1.5228271484375
4353618750.0 0.67205810546875 1.34808349609375
4384840625.0 1.3189697265625 0.69659423828125
4416062500.0 1.49798583984375 -0.2275390625
4447284375.0 1.05303955078125 -1.1021728515625
4478506250.0 0.17242431640625 -1.4927978515625
4509728125.0 -0.7314453125 -1.30511474609375
4540950000.0 -1.39117431640625 -0.6357421875
4572171875.0 -1.519287109375 0.358642578125
4603393750.0 -0.971435546875 1.21051025390625
4634615625.0 -0.06036376953125 1.5362548828125
4665837500.0 0.86846923828125 1.30230712890625
4697059375.0 1.53887939453125 0.51483154296875
4728281250.0 1.52679443359375 -0.58123779296875
4759503125.0 0.8223876953125 -1.364013671875
4790725000.0 -0.14544677734375 -1.570556640625
4821946875.0 -1.08197021484375 -1.1927490234375
4853168750.0 -1.610595703125 -0.25152587890625
4884390625.0 -1.37591552734375 0.79168701171875
4915612500.0 -0.61273193359375 1.4102783203125
4946834375.0 0.328125 1.5068359375
4978056250.0 1.20330810546875 1.01556396484375
5009278125.0 1.559814453125 0.0391845703125
5040500000.0 1.22723388671875 -0.87518310546875
5071721875.0 0.50140380859375 -1.4130859375
5102943750.0 -0.44580078125 -1.49468994140625
5134165625.0 -1.33355712890625 -0.90435791015625
5165387500.0 -1.56549072265625 0.14532470703125
5196609375.0 -1.13446044921875 1.00860595703125
5227831250.0 -0.3568115234375 1.5035400390625
5259053125.0 0.68572998046875 1.48980712890625
5290275000.0 1.51947021484375 0.6619873046875
5321496875.0 1.4891357421875 -0.4283447265625
5352718750.0 0.91949462890625 -1.15142822265625
5383940625.0 0.09716796875 -1.49786376953125
5415162500.0 -0.8980712890625 -1.281982421875
5446384375.0 -1.48187255859375 -0.36968994140625
5477606250.0 -1.2972412109375 0.56500244140625
5508828125.0 -0.730712890625 1.14996337890625
5540050000.0 0.05364990234375 1.396484375
5571271875.0 0.93731689453125 1.10723876953125
5602493750.0 1.40625 0.25970458984375
5633715625.0 1.23077392578125 -0.612060546875
5664937500.0 0.64727783203125 -1.19976806640625
5696159375.0 -0.19635009765625 -1.381591796875
5727381250.0 -1.02093505859375 -0.97760009765625
5758603125.0 -1.3897705078125 -0.14501953125
5789825000.0 -1.1923828125 0.71527099609375
5821046875.0 -0.505615234375 1.30511474609375
5852268750.0 0.4110107421875 1.3114013671875
5883490625.0 1.07049560546875 0.77069091796875
5914712500.0 1.30059814453125 0.02001953125
5945934375.0 1.0948486328125 -0.775634765625
5977156250.0 0.361328125 -1.30987548828125
6008378125.0 -0.50830078125 -1.1810302734375
6039600000.0 -1.0198974609375 -0.64813232421875
6070821875.0 -1.22149658203125 -0.00537109375
6102043750.0 -1.08221435546875 0.76031494140625
6133265625.0 -0.3416748046875 1.3428955078125
6164487500.0 0.56243896484375 1.186279296875
6195709375.0 1.06915283203125 0.62969970703125
6226931250.0 1.27777099609375 -0.04217529296875
6258153125.0 1.10296630859375 -0.8685302734375
6289375000.0 0.25634765625 -1.44390869140625
6320596875.0 -0.6876220703125 -1.20465087890625
6351818750.0 -1.1983642578125 -0.57177734375
6383040625.0 -1.352294921875 0.2059326171875
6414262500.0 -0.9986572265625 1.05487060546875
6445484375.0 -0.07855224609375 1.45513916015625
6476706250.0 0.79473876953125 1.146240234375
6507928125.0 1.28887939453125 0.4700927734375
6539150000.0 1.34600830078125 -0.38555908203125
6570371875.0 0.84027099609375 -1.14178466796875
6601593750.0 -0.01708984375 -1.40277099609375
6632815625.0 -0.8389892578125 -1.13446044921875
6664037500.0 -1.39984130859375 -0.4195556640625
6695259375.0 -1.3724365234375 0.56585693359375
6726481250.0 -0.70947265625 1.25006103515625
6757703125.0 0.13055419921875 1.40472412109375
6788925000.0 0.95367431640625 1.1295166015625
6820146875.0 1.5574951171875 0.28839111328125
6851368750.0 1.32470703125 -0.81756591796875
6882590625.0 0.50592041015625 -1.33685302734375
6913812500.0 -0.29180908203125 -1.3548583984375
6945034375.0 -1.06817626953125 -1.0206298828125
6976256250.0 -1.58984375 -0.093994140625
7007478125.0 -1.23443603515625 0.93115234375
7038700000.0 -0.403076171875 1.3402099609375
7069921875.0 0.36004638671875 1.32275390625
7101143750.0 1.11639404296875 0.96820068359375
7132365625.0 1.5963134765625 0.015380859375
7163587500.0 1.15594482421875 -1.0181884765625
7194809375.0 0.3023681640625 -1.39483642578125
7226031250.0 -0.51116943359375 -1.3243408203125
7257253125.0 -1.263427734375 -0.82354736328125
7288475000.0 -1.55560302734375 0.1981201171875
7319696875.0 -1.028564453125 1.10888671875
7350918750.0 -0.1649169921875 1.4425048828125
7382140625.0 0.71337890625 1.2742919921875
7413362500.0 1.37457275390625 0.5755615234375
7444584375.0 1.40972900390625 -0.40679931640625
7475806250.0 0.8568115234375 -1.14166259765625
7507028125.0 0.0064697265625 -1.4266357421875
7538250000.0 -0.88623046875 -1.1231689453125
7569471875.0 -1.33392333984375 -0.31121826171875
7600693750.0 -1.20062255859375 0.49615478515625
7631915625.0 -0.717529296875 1.08404541015625
7663137500.0 0.0799560546875 1.3565673828125
7694359375.0 0.938629150390625 0.978851318359375
7725581250.0 1.2423095703125 0.1805419921875
7756803125.0 1.08038330078125 -0.4979248046875
7788025000.0 0.66912841796875 -1.04229736328125
7819246875.0 -0.119873046875 -1.3450927734375
7850468750.0 -0.99176025390625 -0.915496826171875
7881690625.0 -1.230712890625 -0.104736328125
7912912500.0 -1.05364990234375 0.55133056640625
7944134375.0 -0.605224609375 1.1103515625
7975356250.0 0.27105712890625 1.3341064453125
8006578125.0 1.04443359375 0.7783203125
8037800000.0 1.19219970703125 0.0164794921875
8069021875.0 1.006103515625 -0.6163330078125
8100243750.0 0.4991455078125 -1.15972900390625
8131465625.0 -0.38592529296875 -1.2530517578125
8162687500.0 -1.03143310546875 -0.68524169921875
8193909375.0 -1.1790771484375 0.0078125
8225131250.0 -1.01727294921875 0.6788330078125
8256353125.0 -0.42181396484375 1.24639892578125
8287575000.0 0.499267578125 1.2242431640625
8318796875.0 1.0823974609375 0.634765625
8350018750.0 1.24517822265625 -0.0771484375
8381240625.0 1.0299072265625 -0.83758544921875
8412462500.0 0.25616455078125 -1.369140625
8443684375.0 -0.66900634765625 -1.16912841796875
8474906250.0 -1.1748046875 -0.531982421875
8506128125.0 -1.29620361328125 0.23675537109375
8537350000.0 -0.92340087890625 1.04742431640625
8568571875.0 -0.01666259765625 1.39349365234375
8599793750.0 0.80322265625 1.0523681640625
8631015625.0 1.2403564453125 0.399658203125
8662237500.0 1.28448486328125 -0.4288330078125
8693459375.0 0.73626708984375 -1.17901611328125
8724681250.0 -0.16192626953125 -1.330322265625
8755903125.0 -0.878326416015625 -0.956329345703125
8787125000.0 -1.30169677734375 -0.28167724609375
8818346875.0 -1.2503662109375 0.61407470703125
8849568750.0 -0.55609130859375 1.260009765625
8880790625.0 0.29888916015625 1.2840576171875
8912012500.0 0.979278564453125 0.89215087890625
8943234375.0 1.39801025390625 0.12841796875
8974456250.0 1.166259765625 -0.83624267578125
9005678125.0 0.3499755859375 -1.31103515625
9036900000.0 -0.4432373046875 -1.2242431640625
9068121875.0 -1.099853515625 -0.78594970703125
9099343750.0 -1.4400634765625 0.0968017578125
9130565625.0 -0.9793701171875 1.0108642578125
9161787500.0 -0.15533447265625 1.28118896484375
9193009375.0 0.55474853515625 1.13336181640625
9224231250.0 1.178466796875 0.6539306640625
9255453125.0 1.39813232421875 -0.2955322265625
9286675000.0 0.8065185546875 -1.08258056640625
9317896875.0 0.028076171875 -1.2449951171875
9349118750.0 -0.65386962890625 -1.0689697265625
9380340625.0 -1.25604248046875 -0.50982666015625
9411562500.0 -1.31036376953125 0.47625732421875
9442784375.0 -0.64794921875 1.11468505859375
9474006250.0 0.08673095703125 1.209228515625
9505228125.0 0.764007568359375 0.979522705078125
9536450000.0 1.27239990234375 0.313232421875
9567671875.0 1.14361572265625 -0.578857421875
9598893750.0 0.52947998046875 -1.066650390625
9630115625.0 -0.1431884765625 -1.15631103515625
9661337500.0 -0.81671142578125 -0.901458740234375
9692559375.0 -1.23822021484375 -0.18988037109375
9723781250.0 -1.04315185546875 0.60205078125
9755003125.0 -0.48583984375 1.049560546875
9786225000.0 0.1983642578125 1.15911865234375
9817446875.0 0.892303466796875 0.82861328125
9848668750.0 1.1968994140625 0.07867431640625
9879890625.0 0.96734619140625 -0.615875244140625
9911112500.0 0.4517822265625 -1.051025390625
9942334375.0 -0.2681884765625 -1.15972900390625
9973556250.0 -0.9407958984375 -0.73834228515625
10004778125.0 -1.1441650390625 -0.01898193359375
10036000000.0 -0.943115234375 0.616973876953125
10067221875.0 -0.44189453125 1.09600830078125
10098443750.0 0.3682861328125 1.1806640625
10129665625.0 1.00030517578125 0.6439208984375
10160887500.0 1.11944580078125 -0.05096435546875
10192109375.0 0.917083740234375 -0.6617431640625
10223331250.0 0.3612060546875 -1.15155029296875
10254553125.0 -0.4854736328125 -1.11260986328125
10285775000.0 -0.98309326171875 -0.535400390625
10316996875.0 -1.06671142578125 0.0755615234375
10348218750.0 -0.899627685546875 0.669586181640625
10379440625.0 -0.322021484375 1.1741943359375
10410662500.0 0.52740478515625 1.08563232421875
10441884375.0 0.9912109375 0.52178955078125
10473106250.0 1.1075439453125 -0.08197021484375
10504328125.0 0.94866943359375 -0.75634765625
10535550000.0 0.23876953125 -1.29461669921875
10566771875.0 -0.65777587890625 -1.07623291015625
10597993750.0 -1.080322265625 -0.4581298828125
10629215625.0 -1.1744384765625 0.2056884765625
10660437500.0 -0.88702392578125 0.949432373046875
10691659375.0 -0.0107421875 1.3338623046875
10722881250.0 0.78387451171875 0.952362060546875
10754103125.0 1.12030029296875 0.32562255859375
10785325000.0 1.13818359375 -0.3673095703125
10816546875.0 0.7015380859375 -1.045654296875
10847768750.0 -0.14520263671875 -1.23028564453125
10878990625.0 -0.802459716796875 -0.84393310546875
10910212500.0 -1.12152099609375 -0.24566650390625
10941434375.0 -1.097900390625 0.47613525390625
10972656250.0 -0.5677490234375 1.08453369140625
11003878125.0 0.2164306640625 1.17291259765625
11035100000.0 0.846710205078125 0.821441650390625
11066321875.0 1.21978759765625 0.1744384765625
11097543750.0 1.09747314453125 -0.67584228515625
11128765625.0 0.38592529296875 -1.19830322265625
11159987500.0 -0.39471435546875 -1.13836669921875
11191209375.0 -0.998931884765625 -0.702239990234375
11222431250.0 -1.2698974609375 0.09112548828125
11253653125.0 -0.85894775390625 0.8924560546875
11284875000.0 -0.11456298828125 1.12701416015625
11316096875.0 0.509857177734375 0.95550537109375
11347318750.0 1.00103759765625 0.50213623046875
11378540625.0 1.1156005859375 -0.26812744140625
11409762500.0 0.634521484375 -0.8587646484375
11440984375.0 0.03558349609375 -0.978485107421875
11472206250.0 -0.47833251953125 -0.848968505859375
11503428125.0 -0.952117919921875 -0.456512451171875
11534650000.0 -1.06854248046875 0.28802490234375
11565871875.0 -0.60211181640625 0.85443115234375
11597093750.0 -0.01837158203125 0.99139404296875
11628315625.0 0.543609619140625 0.874176025390625
11659537500.0 1.0606689453125 0.39202880859375
11690759375.0 1.06488037109375 -0.43243408203125
11721981250.0 0.51617431640625 -0.940399169921875
11753203125.0 -0.1064453125 -1.03619384765625
11784425000.0 -0.723236083984375 -0.807861328125
11815646875.0 -1.1002197265625 -0.15167236328125
11846868750.0 -0.890716552734375 0.550445556640625
11878090625.0 -0.39068603515625 0.909088134765625
11909312500.0 0.187042236328125 0.984649658203125
11940534375.0 0.780242919921875 0.6942138671875
11971756250.0 1.0224609375 0.041259765625
12002978125.0 0.80645751953125 -0.536895751953125
12034200000.0 0.381744384765625 -0.888824462890625
12065421875.0 -0.21295166015625 -1.0086669921875
12096643750.0 -0.8463134765625 -0.664886474609375
12127865625.0 -1.03179931640625 0.01513671875
12159087500.0 -0.814666748046875 0.57489013671875
12190309375.0 -0.37628173828125 0.975860595703125
12221531250.0 0.337158203125 1.086181640625
12252753125.0 0.979095458984375 0.58203125
12283975000.0 1.05364990234375 -0.12762451171875
12315196875.0 0.79974365234375 -0.674835205078125
12346418750.0 0.28143310546875 -1.0892333984375
12377640625.0 -0.53802490234375 -1.06097412109375
12408862500.0 -1.03302001953125 -0.4200439453125
12440084375.0 -1.0079345703125 0.2244873046875
12471306250.0 -0.741973876953125 0.735198974609375
12502528125.0 -0.18048095703125 1.11883544921875
12533750000.0 0.61688232421875 0.992828369140625
12564971875.0 1.039794921875 0.364501953125
12596193750.0 1.02911376953125 -0.2640380859375
12627415625.0 0.7479248046875 -0.82659912109375
12658637500.0 0.0797119140625 -1.2061767578125
12689859375.0 -0.7352294921875 -0.966827392578125
12721081250.0 -1.114501953125 -0.30718994140625
12752303125.0 -1.0963134765625 0.38116455078125
12783525000.0 -0.687744140625 1.02630615234375
12814746875.0 0.1651611328125 1.25091552734375
12845968750.0 0.861572265625 0.812042236328125
12877190625.0 1.11676025390625 0.17181396484375
12908412500.0 1.0555419921875 -0.500244140625
12939634375.0 0.5428466796875 -1.115234375
12970856250.0 -0.32086181640625 -1.1746826171875
13002078125.0 -0.894500732421875 -0.693572998046875
13033300000.0 -1.10565185546875 -0.08660888671875
13064521875.0 -1.009033203125 0.5919189453125
13095743750.0 -0.420654296875 1.15447998046875
13126965625.0 0.40802001953125 1.11962890625
13158187500.0 0.9471435546875 0.631439208984375
13189409375.0 1.1475830078125 -0.0203857421875
13220631250.0 0.93505859375 -0.74664306640625
13251853125.0 0.2359619140625 -1.170654296875
13283075000.0 -0.5072021484375 -1.01934814453125
13314296875.0 -0.985076904296875 -0.530303955078125
