!Created with skrf (http://scikit-rf.org).
# Hz S RI R 50.0 
!freq ReS11 ImS11
45000000.0 -0.0768890380859375 -0.09698867797851562
76221875.0 -0.19686126708984375 -0.04791259765625
107443750.0 -0.25579833984375 0.1199188232421875
138665625.0 -0.1490325927734375 0.3292694091796875
169887500.0 0.12322998046875 0.4188690185546875
201109375.0 0.4225616455078125 0.282470703125
232331250.0 0.58050537109375 -0.056640625
263553125.0 0.4915313720703125 -0.45355224609375
294775000.0 0.099761962890625 -0.734283447265625
325996875.0 -0.4158935546875 -0.68310546875
357218750.0 -0.808502197265625 -0.299102783203125
388440625.0 -0.88885498046875 0.3004150390625
419662500.0 -0.519866943359375 0.868194580078125
450884375.0 0.17193603515625 1.03204345703125
482106250.0 0.799530029296875 0.715667724609375
513328125.0 1.1221923828125 0.08905029296875
544550000.0 1.007080078125 -0.67974853515625
575771875.0 0.33892822265625 -1.2403564453125
606993750.0 -0.55316162109375 -1.18084716796875
638215625.0 -1.1676025390625 -0.59344482421875
669437500.0 -1.34326171875 0.232421875
700659375.0 -0.9747314453125 1.09716796875
731881250.0 -0.006103515625 1.54669189453125
763103125.0 1.00640869140625 1.16009521484375
794325000.0 1.4716796875 0.28448486328125
825546875.0 1.37109375 -0.65087890625
856768750.0 0.7984619140625 -1.40374755859375
887990625.0 -0.29156494140625 -1.65325927734375
919212500.0 -1.29071044921875 -1.08355712890625
950434375.0 -1.65301513671875 -0.0611572265625
981656250.0 -1.3878173828125 0.94677734375
1012878125.0 -0.5333251953125 1.67626953125
1044100000.0 0.697265625 1.668212890625
1075321875.0 1.57904052734375 0.81610107421875
1106543750.0 1.7100830078125 -0.31121826171875
1137765625.0 1.19171142578125 -1.28558349609375
1168987500.0 0.14154052734375 -1.80218505859375
1200209375.0 -1.06268310546875 -1.4893798828125
1231431250.0 -1.7315673828125 -0.4569091796875
1262653125.0 -1.598876953125 0.684326171875
1293875000.0 -0.85614013671875 1.49432373046875
1325096875.0 0.22613525390625 1.7115478515625
1356318750.0 1.23651123046875 1.2216796875
1387540625.0 1.74407958984375 0.19171142578125
1418762500.0 1.47406005859375 -0.95184326171875
1449984375.0 0.53314208984375 -1.628662109375
1481206250.0 -0.54949951171875 -1.56072998046875
1512428125.0 -1.3438720703125 -0.92352294921875
1543650000.0 -1.65966796875 0.063720703125
1574871875.0 -1.27740478515625 1.1099853515625
1606093750.0 -0.27545166015625 1.63519287109375
1637315625.0 0.7421875 1.4046630859375
1668537500.0 1.39849853515625 0.698974609375
1699759375.0 1.57684326171875 -0.27569580078125
1730981250.0 1.06787109375 -1.23040771484375
1762203125.0 0.0440673828125 -1.57403564453125
1793425000.0 -0.85589599609375 -1.22991943359375
1824646875.0 -1.3958740234375 -0.5177001953125
1855868750.0 -1.47760009765625 0.4312744140625
1887090625.0 -0.87860107421875 1.28680419921875
1918312500.0 0.11590576171875 1.4901123046875
1949534375.0 0.92205810546875 1.09259033203125
1980756250.0 1.3775634765625 0.37225341796875
2011978125.0 1.36328125 -0.531005859375
2043200000.0 0.75323486328125 -1.2630615234375
2074421875.0 -0.1556396484375 -1.43621826171875
2105643750.0 -0.96087646484375 -1.07574462890625
2136865625.0 -1.45013427734375 -0.3067626953125
2168087500.0 -1.36053466796875 0.67059326171875
2199309375.0 -0.64166259765625 1.35345458984375
2230531250.0 0.28076171875 1.43914794921875
2261753125.0 1.0736083984375 1.01708984375
2292975000.0 1.51715087890625 0.17230224609375
2324196875.0 1.30914306640625 -0.81890869140625
2355418750.0 0.5277099609375 -1.42218017578125
2386640625.0 -0.4039306640625 -1.45208740234375
2417862500.0 -1.18310546875 -1.02752685546875
2449084375.0 -1.60833740234375 -0.0859375
2480306250.0 -1.31512451171875 0.9256591796875
2511528125.0 -0.49658203125 1.510498046875
2542750000.0 0.4879150390625 1.5406494140625
2573971875.0 1.37274169921875 0.971923828125
2605193750.0 1.7218017578125 -0.11065673828125
2636415625.0 1.265625 -1.1534423828125
2667637500.0 0.3096923828125 -1.66998291015625
2698859375.0 -0.76904296875 -1.53851318359375
2730081250.0 -1.57489013671875 -0.74444580078125
2761303125.0 -1.685791015625 0.38677978515625
2792525000.0 -1.10382080078125 1.30859375
2823746875.0 -0.10406494140625 1.7335205078125
2854968750.0 1.0137939453125 1.46014404296875
2886190625.0 1.69586181640625 0.4945068359375
2917412500.0 1.6048583984375 -0.61700439453125
2948634375.0 0.94342041015625 -1.43511962890625
2979856250.0 -0.10614013671875 -1.7801513671875
3011078125.0 -1.24859619140625 -1.34674072265625
3042300000.0 -1.78009033203125 -0.236328125
3073521875.0 -1.5130615234375 0.8380126953125
3104743750.0 -0.7669677734375 1.57098388671875
3135965625.0 0.3597412109375 1.81341552734375
3167187500.0 1.50067138671875 1.168701171875
3198409375.0 1.8201904296875 -0.07293701171875
3229631250.0 1.35357666015625 -1.082275390625
3260853125.0 0.492919921875 -1.6707763671875
3292075000.0 -0.65472412109375 -1.70245361328125
3323296875.0 -1.62225341796875 -0.88372802734375
3354518750.0 -1.73492431640625 0.327392578125
3385740625.0 -1.16015625 1.233642578125
3416962500.0 -0.23382568359375 1.68536376953125
3448184375.0 0.86083984375 1.52667236328125
3479406250.0 1.64013671875 0.64788818359375
3510628125.0 1.64837646484375 -0.494384765625
3541850000.0 1.0037841796875 -1.357666015625
3573071875.0 -0.0062255859375 -1.6861572265625
3604293750.0 -1.02801513671875 -1.34149169921875
3635515625.0 -1.6302490234375 -0.44140625
3666737500.0 -1.56524658203125 0.6444091796875
3697959375.0 -0.82830810546875 1.47796630859375
3729181250.0 0.26739501953125 1.634765625
3760403125.0 1.1539306640625 1.10186767578125
3791625000.0 1.554443359375 0.2216796875
3822846875.0 1.40545654296875 -0.7596435546875
3854068750.0 0.62432861328125 -1.482421875
3885290625.0 -0.41943359375 -1.48431396484375
3916512500.0 -1.14410400390625 -0.9144287109375
3947734375.0 -1.4501953125 -0.121826171875
3978956250.0 -1.30120849609375 0.7794189453125
4010178125.0 -0.53338623046875 1.45733642578125
4041400000.0 0.4725341796875 1.41827392578125
4072621875.0 1.1533203125 0.850341796875
4103843750.0 1.44708251953125 0.0650634765625
4135065625.0 1.27099609375 -0.846435546875
4166287500.0 0.4598388671875 -1.4990234375
4197509375.0 -0.557373046875 -1.41851806640625
4228731250.0 -1.249267578125 -0.8046875
4259953125.0 -1.51190185546875 0.06884765625
4291175000.0 -1.19195556640625 1.01068115234375
4322396875.0 -0.292236328125 1.529052734375
4353618750.0 0.6727294921875 1.353271484375
4384840625.0 1.3238525390625 0.70074462890625
4416062500.0 1.50384521484375 -0.22589111328125
4447284375.0 1.0589599609375 -1.10516357421875
4478506250.0 0.17535400390625 -1.49725341796875
4509728125.0 -0.7322998046875 -1.3114013671875
4540950000.0 -1.39654541015625 -0.63836669921875
4572171875.0 -1.525634765625 0.3587646484375
4603393750.0 -0.975830078125 1.2139892578125
4634615625.0 -0.06231689453125 1.54034423828125
4665837500.0 0.8707275390625 1.30767822265625
4697059375.0 1.54376220703125 0.51788330078125
4728281250.0 1.53240966796875 -0.58160400390625
4759503125.0 0.8260498046875 -1.36846923828125
4790725000.0 -0.1444091796875 -1.5751953125
4821946875.0 -1.083984375 -1.19732666015625
4853168750.0 -1.61639404296875 -0.25341796875
4884390625.0 -1.38128662109375 0.79290771484375
4915612500.0 -0.6158447265625 1.41497802734375
4946834375.0 0.32861328125 1.51324462890625
4978056250.0 1.2061767578125 1.02099609375
5009278125.0 1.5657958984375 0.04046630859375
5040500000.0 1.23248291015625 -0.87542724609375
5071721875.0 0.50396728515625 -1.41754150390625
5102943750.0 -0.44561767578125 -1.50048828125
5134165625.0 -1.3392333984375 -0.90814208984375
5165387500.0 -1.57177734375 0.14532470703125
5196609375.0 -1.13934326171875 1.0108642578125
5227831250.0 -0.3594970703125 1.5086669921875
5259053125.0 0.6871337890625 1.4954833984375
5290275000.0 1.52435302734375 0.66485595703125
5321496875.0 1.4949951171875 -0.42999267578125
5352718750.0 0.9237060546875 -1.1551513671875
5383940625.0 0.09893798828125 -1.50262451171875
5415162500.0 -0.90008544921875 -1.28692626953125
5446384375.0 -1.487060546875 -0.3731689453125
5477606250.0 -1.302490234375 0.565673828125
5508828125.0 -0.734130859375 1.15203857421875
5540050000.0 0.052734375 1.40191650390625
5571271875.0 0.93975830078125 1.11224365234375
5602493750.0 1.41192626953125 0.26171875
5633715625.0 1.23516845703125 -0.61248779296875
5664937500.0 0.65020751953125 -1.20416259765625
5696159375.0 -0.1964111328125 -1.38702392578125
5727381250.0 -1.02301025390625 -0.9810791015625
5758603125.0 -1.39495849609375 -0.14599609375
5789825000.0 -1.19708251953125 0.71856689453125
5821046875.0 -0.50799560546875 1.30975341796875
5852268750.0 0.410400390625 1.31488037109375
5883490625.0 1.07208251953125 0.77435302734375
5914712500.0 1.30548095703125 0.020751953125
5945934375.0 1.09942626953125 -0.77642822265625
5977156250.0 0.3631591796875 -1.315185546875
6008378125.0 -0.5086669921875 -1.18487548828125
6039600000.0 -1.02276611328125 -0.65155029296875
6070821875.0 -1.2255859375 -0.00640869140625
6102043750.0 -1.086181640625 0.76397705078125
6133265625.0 -0.34375 1.3472900390625
6164487500.0 0.5633544921875 1.190185546875
6195709375.0 1.073486328125 0.6318359375
6226931250.0 1.28204345703125 -0.04132080078125
6258153125.0 1.10693359375 -0.871337890625
6289375000.0 0.25665283203125 -1.44970703125
6320596875.0 -0.6900634765625 -1.20855712890625
6351818750.0 -1.2025146484375 -0.57318115234375
6383040625.0 -1.35675048828125 0.2060546875
6414262500.0 -1.0020751953125 1.0577392578125
6445484375.0 -0.07952880859375 1.45989990234375
6476706250.0 0.79638671875 1.151123046875
6507928125.0 1.29168701171875 0.47283935546875
6539150000.0 1.35064697265625 -0.38641357421875
6570371875.0 0.8441162109375 -1.1446533203125
6601593750.0 -0.01629638671875 -1.4075927734375
6632815625.0 -0.8408203125 -1.13916015625
6664037500.0 -1.40386962890625 -0.422119140625
6695259375.0 -1.3773193359375 0.56671142578125
6726481250.0 -0.7125244140625 1.255126953125
6757703125.0 0.12994384765625 1.41070556640625
6788925000.0 0.956298828125 1.1337890625
6820146875.0 1.56378173828125 0.28955078125
6851368750.0 1.32952880859375 -0.8201904296875
6882590625.0 0.50836181640625 -1.34027099609375
6913812500.0 -0.2913818359375 -1.35919189453125
6945034375.0 -1.0714111328125 -1.0245361328125
6976256250.0 -1.59527587890625 -0.09454345703125
7007478125.0 -1.239501953125 0.9334716796875
7038700000.0 -0.40374755859375 1.3460693359375
7069921875.0 0.359130859375 1.32781982421875
7101143750.0 1.1202392578125 0.9727783203125
7132365625.0 1.6043701171875 0.01519775390625
7163587500.0 1.16180419921875 -1.02313232421875
7194809375.0 0.30316162109375 -1.40167236328125
7226031250.0 -0.5107421875 -1.3291015625
7257253125.0 -1.26812744140625 -0.82745361328125
7288475000.0 -1.56201171875 0.1971435546875
7319696875.0 -1.03338623046875 1.10968017578125
7350918750.0 -0.16448974609375 1.4498291015625
7382140625.0 0.716552734375 1.27947998046875
7413362500.0 1.3798828125 0.5780029296875
7444584375.0 1.41485595703125 -0.406005859375
7475806250.0 0.86029052734375 -1.14569091796875
7507028125.0 0.0067138671875 -1.43115234375
7538250000.0 -0.886474609375 -1.12677001953125
7569471875.0 -1.33892822265625 -0.312744140625
7600693750.0 -1.2054443359375 0.49835205078125
7631915625.0 -0.720947265625 1.08551025390625
7663137500.0 0.07855224609375 1.36065673828125
7694359375.0 0.9423828125 0.983612060546875
7725581250.0 1.2471923828125 0.1826171875
7756803125.0 1.08563232421875 -0.499755859375
7788025000.0 0.67242431640625 -1.04620361328125
7819246875.0 -0.1199951171875 -1.35162353515625
7850468750.0 -0.995391845703125 -0.919158935546875
7881690625.0 -1.23541259765625 -0.1055908203125
7912912500.0 -1.0579833984375 0.5562744140625
7944134375.0 -0.60797119140625 1.11431884765625
7975356250.0 0.27349853515625 1.34002685546875
8006578125.0 1.04949951171875 0.78167724609375
8037800000.0 1.196533203125 0.01708984375
8069021875.0 1.01080322265625 -0.6180419921875
8100243750.0 0.50115966796875 -1.16455078125
8131465625.0 -0.387939453125 -1.2569580078125
8162687500.0 -1.0345458984375 -0.6875
8193909375.0 -1.1824951171875 0.00732421875
8225131250.0 -1.021484375 0.67962646484375
8256353125.0 -0.4229736328125 1.25274658203125
8287575000.0 0.50103759765625 1.22930908203125
8318796875.0 1.08502197265625 0.63861083984375
8350018750.0 1.24755859375 -0.072998046875
8381240625.0 1.0340576171875 -0.84295654296875
8412462500.0 0.25665283203125 -1.37908935546875
8443684375.0 -0.67059326171875 -1.17303466796875
8474906250.0 -1.178466796875 -0.533447265625
8506128125.0 -1.30230712890625 0.23944091796875
8537350000.0 -0.92681884765625 1.0484619140625
8568571875.0 -0.01690673828125 1.3978271484375
8599793750.0 0.80340576171875 1.056396484375
8631015625.0 1.24298095703125 0.400390625
8662237500.0 1.2891845703125 -0.4288330078125
8693459375.0 0.739013671875 -1.17864990234375
8724681250.0 -0.16168212890625 -1.33465576171875
8755903125.0 -0.8831787109375 -0.96087646484375
8787125000.0 -1.30975341796875 -0.28314208984375
8818346875.0 -1.25604248046875 0.6165771484375
8849568750.0 -0.559814453125 1.26165771484375
8880790625.0 0.2999267578125 1.28997802734375
8912012500.0 0.985015869140625 0.895904541015625
8943234375.0 1.40167236328125 0.13055419921875
8974456250.0 1.16973876953125 -0.8409423828125
9005678125.0 0.3489990234375 -1.31573486328125
9036900000.0 -0.4456787109375 -1.226806640625
9068121875.0 -1.10394287109375 -0.78900146484375
9099343750.0 -1.44500732421875 0.09844970703125
9130565625.0 -0.981689453125 1.01177978515625
9161787500.0 -0.1561279296875 1.28497314453125
9193009375.0 0.55426025390625 1.13592529296875
9224231250.0 1.18182373046875 0.6573486328125
9255453125.0 1.403076171875 -0.2950439453125
9286675000.0 0.80975341796875 -1.0848388671875
9317896875.0 0.0284423828125 -1.2498779296875
9349118750.0 -0.6553955078125 -1.07305908203125
9380340625.0 -1.26177978515625 -0.51239013671875
9411562500.0 -1.315673828125 0.47698974609375
9442784375.0 -0.65020751953125 1.1192626953125
9474006250.0 0.08831787109375 1.21417236328125
9505228125.0 0.7664794921875 0.98272705078125
9536450000.0 1.2784423828125 0.313232421875
9567671875.0 1.1466064453125 -0.58233642578125
9598893750.0 0.53167724609375 -1.070068359375
9630115625.0 -0.14385986328125 -1.16064453125
9661337500.0 -0.820098876953125 -0.90496826171875
9692559375.0 -1.24102783203125 -0.19110107421875
9723781250.0 -1.045654296875 0.60430908203125
9755003125.0 -0.48797607421875 1.05267333984375
9786225000.0 0.19769287109375 1.16339111328125
9817446875.0 0.89691162109375 0.83111572265625
9848668750.0 1.20074462890625 0.08013916015625
9879890625.0 0.97186279296875 -0.618408203125
9911112500.0 0.45416259765625 -1.05535888671875
9942334375.0 -0.26727294921875 -1.162353515625
9973556250.0 -0.947601318359375 -0.74005126953125
10004778125.0 -1.14984130859375 -0.01751708984375
10036000000.0 -0.94671630859375 0.61895751953125
10067221875.0 -0.44415283203125 1.0999755859375
10098443750.0 0.37139892578125 1.18463134765625
10129665625.0 1.00482177734375 0.64385986328125
10160887500.0 1.1231689453125 -0.052490234375
10192109375.0 0.91998291015625 -0.664886474609375
10223331250.0 0.36199951171875 -1.155517578125
10254553125.0 -0.48663330078125 -1.1162109375
10285775000.0 -0.987579345703125 -0.536895751953125
10316996875.0 -1.0697021484375 0.0770263671875
10348218750.0 -0.90264892578125 0.670654296875
10379440625.0 -0.32415771484375 1.17730712890625
10410662500.0 0.527099609375 1.0875244140625
10441884375.0 0.993865966796875 0.52362060546875
10473106250.0 1.11328125 -0.084228515625
10504328125.0 0.95208740234375 -0.7589111328125
10535550000.0 0.240478515625 -1.2978515625
10566771875.0 -0.658447265625 -1.07989501953125
10597993750.0 -1.08331298828125 -0.46038818359375
10629215625.0 -1.1781005859375 0.20556640625
10660437500.0 -0.890625 0.954132080078125
10691659375.0 -0.0107421875 1.33807373046875
10722881250.0 0.785736083984375 0.954864501953125
10754103125.0 1.12164306640625 0.32586669921875
10785325000.0 1.14190673828125 -0.36767578125
10816546875.0 0.703125 -1.051513671875
10847768750.0 -0.1441650390625 -1.23150634765625
10878990625.0 -0.8048095703125 -0.84600830078125
10910212500.0 -1.12567138671875 -0.2462158203125
10941434375.0 -1.1007080078125 0.4781494140625
10972656250.0 -0.56964111328125 1.0887451171875
11003878125.0 0.21563720703125 1.1768798828125
11035100000.0 0.85125732421875 0.82427978515625
11066321875.0 1.2242431640625 0.17559814453125
11097543750.0 1.10211181640625 -0.67926025390625
11128765625.0 0.38775634765625 -1.20147705078125
11159987500.0 -0.39630126953125 -1.14154052734375
11191209375.0 -1.00177001953125 -0.70477294921875
11222431250.0 -1.2769775390625 0.0955810546875
11253653125.0 -0.86126708984375 0.89813232421875
11284875000.0 -0.11590576171875 1.12908935546875
11316096875.0 0.5111083984375 0.959197998046875
11347318750.0 1.00634765625 0.5032958984375
11378540625.0 1.11981201171875 -0.2696533203125
11409762500.0 0.636077880859375 -0.860595703125
11440984375.0 0.037322998046875 -0.98004150390625
11472206250.0 -0.481048583984375 -0.8519287109375
11503428125.0 -0.95440673828125 -0.45703125
11534650000.0 -1.0718994140625 0.28955078125
11565871875.0 -0.60443115234375 0.8560791015625
11597093750.0 -0.0184326171875 0.99365234375
11628315625.0 0.5445556640625 0.8780517578125
11659537500.0 1.06298828125 0.39398193359375
11690759375.0 1.06707763671875 -0.43304443359375
11721981250.0 0.5184326171875 -0.944732666015625
11753203125.0 -0.10546875 -1.03875732421875
11784425000.0 -0.7261962890625 -0.811431884765625
11815646875.0 -1.1029052734375 -0.1522216796875
11846868750.0 -0.89312744140625 0.5521240234375
11878090625.0 -0.391876220703125 0.91241455078125
11909312500.0 0.187957763671875 0.988555908203125
11940534375.0 0.781768798828125 0.697418212890625
11971756250.0 1.02801513671875 0.03955078125
12002978125.0 0.808258056640625 -0.538665771484375
12034200000.0 0.38287353515625 -0.89105224609375
12065421875.0 -0.21649169921875 -1.01300048828125
12096643750.0 -0.85101318359375 -0.666534423828125
12127865625.0 -1.0367431640625 0.01739501953125
12159087500.0 -0.817718505859375 0.577239990234375
12190309375.0 -0.379150390625 0.976531982421875
12221531250.0 0.33880615234375 1.089599609375
12252753125.0 0.983123779296875 0.582855224609375
12283975000.0 1.05657958984375 -0.12762451171875
12315196875.0 0.80206298828125 -0.678436279296875
12346418750.0 0.2823486328125 -1.09423828125
12377640625.0 -0.5389404296875 -1.06292724609375
12408862500.0 -1.036865234375 -0.419921875
12440084375.0 -1.01080322265625 0.225830078125
12471306250.0 -0.74359130859375 0.739654541015625
12502528125.0 -0.18084716796875 1.123291015625
12533750000.0 0.62200927734375 0.99615478515625
12564971875.0 1.04541015625 0.3656005859375
12596193750.0 1.032470703125 -0.26513671875
12627415625.0 0.750762939453125 -0.82952880859375
12658637500.0 0.07958984375 -1.210693359375
12689859375.0 -0.7371826171875 -0.969146728515625
12721081250.0 -1.120361328125 -0.3057861328125
12752303125.0 -1.10113525390625 0.3831787109375
12783525000.0 -0.688720703125 1.0306396484375
12814746875.0 0.16461181640625 1.25311279296875
12845968750.0 0.864166259765625 0.81353759765625
12877190625.0 1.1207275390625 0.171630859375
12908412500.0 1.058837890625 -0.5042724609375
12939634375.0 0.544189453125 -1.119384765625
12970856250.0 -0.32086181640625 -1.17706298828125
13002078125.0 -0.89642333984375 -0.695037841796875
13033300000.0 -1.1077880859375 -0.08795166015625
13064521875.0 -1.01177978515625 0.595703125
13095743750.0 -0.421142578125 1.15924072265625
13126965625.0 0.40972900390625 1.123046875
13158187500.0 0.948089599609375 0.634552001953125
13189409375.0 1.15277099609375 -0.0224609375
13220631250.0 0.939361572265625 -0.748809814453125
13251853125.0 0.23388671875 -1.17559814453125
13283075000.0 -0.5106201171875 -1.022705078125
13314296875.0 -0.990447998046875 -0.5306396484375
13345518750.0 -1.1385498046875 0.17919921875
13376740625.0 -0.754058837890625 0.86199951171875
