!Created with skrf (http://scikit-rf.org).
# Hz S RI R 50.0 
!freq ReS11 ImS11
45000000.0 -0.07711410522460938 -0.096832275390625
76221875.0 -0.1966094970703125 -0.0472869873046875
107443750.0 -0.2550506591796875 0.1201019287109375
138665625.0 -0.1479644775390625 0.3286895751953125
169887500.0 0.123809814453125 0.417449951171875
201109375.0 0.42205810546875 0.280731201171875
232331250.0 0.579010009765625 -0.05792236328125
263553125.0 0.4893798828125 -0.453155517578125
294775000.0 0.09796142578125 -0.73284912109375
325996875.0 -0.416015625 -0.680511474609375
357218750.0 -0.806732177734375 -0.296600341796875
388440625.0 -0.885650634765625 0.30108642578125
419662500.0 -0.516876220703125 0.8668212890625
450884375.0 0.1739501953125 1.02874755859375
482106250.0 0.79888916015625 0.71221923828125
513328125.0 1.11932373046875 0.08685302734375
544550000.0 1.00323486328125 -0.6805419921875
575771875.0 0.33563232421875 -1.23846435546875
606993750.0 -0.554443359375 -1.17681884765625
638215625.0 -1.16607666015625 -0.589599609375
669437500.0 -1.33966064453125 0.234375
700659375.0 -0.9703369140625 1.09661865234375
731881250.0 -0.00274658203125 1.54302978515625
763103125.0 1.00592041015625 1.1552734375
794325000.0 1.468505859375 0.28094482421875
825546875.0 1.36676025390625 -0.6519775390625
856768750.0 0.79376220703125 -1.4012451171875
887990625.0 -0.2938232421875 -1.64788818359375
919212500.0 -1.2882080078125 -1.0777587890625
950434375.0 -1.648681640625 -0.05828857421875
981656250.0 -1.38189697265625 0.94683837890625
1012878125.0 -0.5286865234375 1.67181396484375
1044100000.0 0.6981201171875 1.66119384765625
1075321875.0 1.5743408203125 0.81097412109375
1106543750.0 1.70416259765625 -0.3140869140625
1137765625.0 1.18560791015625 -1.28485107421875
1168987500.0 0.1370849609375 -1.79656982421875
1200209375.0 -1.06207275390625 -1.48272705078125
1231431250.0 -1.727294921875 -0.45220947265625
1262653125.0 -1.59320068359375 0.6851806640625
1293875000.0 -0.85076904296875 1.49200439453125
1325096875.0 0.22906494140625 1.70574951171875
1356318750.0 1.23480224609375 1.21551513671875
1387540625.0 1.7391357421875 0.18853759765625
1418762500.0 1.4683837890625 -0.9521484375
1449984375.0 0.52813720703125 -1.6258544921875
1481206250.0 -0.5504150390625 -1.55517578125
1512428125.0 -1.3419189453125 -0.91876220703125
1543650000.0 -1.65478515625 0.06597900390625
1574871875.0 -1.27239990234375 1.10888671875
1606093750.0 -0.27191162109375 1.63104248046875
1637315625.0 0.74249267578125 1.3994140625
1668537500.0 1.39605712890625 0.69488525390625
1699759375.0 1.57208251953125 -0.2777099609375
1730981250.0 1.0628662109375 -1.22918701171875
1762203125.0 0.0413818359375 -1.569580078125
1793425000.0 -0.855712890625 -1.2252197265625
1824646875.0 -1.3927001953125 -0.51422119140625
1855868750.0 -1.4735107421875 0.4326171875
1887090625.0 -0.874267578125 1.28497314453125
1918312500.0 0.11761474609375 1.48614501953125
1949534375.0 0.921630859375 1.08837890625
1980756250.0 1.37451171875 0.36981201171875
2011978125.0 1.3587646484375 -0.5322265625
2043200000.0 0.74896240234375 -1.2611083984375
2074421875.0 -0.1571044921875 -1.43212890625
2105643750.0 -0.9603271484375 -1.07159423828125
2136865625.0 -1.44635009765625 -0.30413818359375
2168087500.0 -1.35614013671875 0.67138671875
2199309375.0 -0.6385498046875 1.35028076171875
2230531250.0 0.28228759765625 1.43487548828125
2261753125.0 1.07208251953125 1.01318359375
2292975000.0 1.5135498046875 0.169921875
2324196875.0 1.3045654296875 -0.81884765625
2355418750.0 0.5244140625 -1.41937255859375
2386640625.0 -0.404052734375 -1.4478759765625
2417862500.0 -1.1820068359375 -1.0230712890625
2449084375.0 -1.604736328125 -0.0833740234375
2480306250.0 -1.3106689453125 0.924560546875
2511528125.0 -0.4927978515625 1.5076904296875
2542750000.0 0.48858642578125 1.534912109375
2573971875.0 1.371337890625 0.96661376953125
2605193750.0 1.7171630859375 -0.114013671875
2636415625.0 1.25970458984375 -1.151611328125
2667637500.0 0.305419921875 -1.6668701171875
2698859375.0 -0.7694091796875 -1.5330810546875
2730081250.0 -1.57257080078125 -0.73931884765625
2761303125.0 -1.67926025390625 0.387451171875
2792525000.0 -1.09808349609375 1.3060302734375
2823746875.0 -0.10211181640625 1.72802734375
2854968750.0 1.01153564453125 1.45416259765625
2886190625.0 1.68878173828125 0.49114990234375
2917412500.0 1.5987548828125 -0.61773681640625
2948634375.0 0.93890380859375 -1.43206787109375
2979856250.0 -0.1094970703125 -1.77496337890625
3011078125.0 -1.24737548828125 -1.34088134765625
3042300000.0 -1.7745361328125 -0.233154296875
3073521875.0 -1.50738525390625 0.838134765625
3104743750.0 -0.76214599609375 1.56671142578125
3135965625.0 0.3629150390625 1.8082275390625
3167187500.0 1.498046875 1.16314697265625
3198409375.0 1.81475830078125 -0.07586669921875
3229631250.0 1.34747314453125 -1.08154296875
3260853125.0 0.488525390625 -1.66656494140625
3292075000.0 -0.6553955078125 -1.69720458984375
3323296875.0 -1.61822509765625 -0.8779296875
3354518750.0 -1.72894287109375 0.32952880859375
3385740625.0 -1.1541748046875 1.23193359375
3416962500.0 -0.23065185546875 1.67987060546875
3448184375.0 0.8599853515625 1.5198974609375
3479406250.0 1.6334228515625 0.64361572265625
3510628125.0 1.64251708984375 -0.49468994140625
3541850000.0 0.9990234375 -1.3541259765625
3573071875.0 -0.0079345703125 -1.6805419921875
3604293750.0 -1.02545166015625 -1.3358154296875
3635515625.0 -1.626953125 -0.43756103515625
3666737500.0 -1.5609130859375 0.6461181640625
3697959375.0 -0.82427978515625 1.47381591796875
3729181250.0 0.26873779296875 1.6297607421875
3760403125.0 1.1517333984375 1.096923828125
3791625000.0 1.55133056640625 0.21746826171875
3822846875.0 1.400390625 -0.761474609375
3854068750.0 0.61956787109375 -1.48016357421875
3885290625.0 -0.4210205078125 -1.4794921875
3916512500.0 -1.14080810546875 -0.91021728515625
3947734375.0 -1.44647216796875 -0.11932373046875
3978956250.0 -1.2965087890625 0.7779541015625
4010178125.0 -0.5308837890625 1.4534912109375
4041400000.0 0.471923828125 1.4130859375
4072621875.0 1.15057373046875 0.84710693359375
4103843750.0 1.443603515625 0.0628662109375
4135065625.0 1.26629638671875 -0.844970703125
4166287500.0 0.45745849609375 -1.494140625
4197509375.0 -0.55731201171875 -1.41412353515625
4228731250.0 -1.24688720703125 -0.80206298828125
4259953125.0 -1.5078125 0.07073974609375
4291175000.0 -1.18756103515625 1.00921630859375
4322396875.0 -0.2889404296875 1.52459716796875
4353618750.0 0.6732177734375 1.34857177734375
4384840625.0 1.3211669921875 0.6961669921875
4416062500.0 1.49920654296875 -0.22674560546875
4447284375.0 1.05413818359375 -1.1024169921875
4478506250.0 0.171630859375 -1.49371337890625
4509728125.0 -0.731689453125 -1.306396484375
4540950000.0 -1.39129638671875 -0.6358642578125
4572171875.0 -1.52044677734375 0.35870361328125
4603393750.0 -0.97161865234375 1.21136474609375
4634615625.0 -0.06182861328125 1.5350341796875
4665837500.0 0.86907958984375 1.3035888671875
4697059375.0 1.5396728515625 0.5155029296875
4728281250.0 1.528076171875 -0.582275390625
4759503125.0 0.82269287109375 -1.3658447265625
4790725000.0 -0.1456298828125 -1.572021484375
4821946875.0 -1.08355712890625 -1.19329833984375
4853168750.0 -1.6131591796875 -0.25103759765625
4884390625.0 -1.3770751953125 0.7921142578125
4915612500.0 -0.61224365234375 1.41204833984375
4946834375.0 0.32916259765625 1.5081787109375
4978056250.0 1.20428466796875 1.0166015625
5009278125.0 1.560302734375 0.039794921875
5040500000.0 1.22833251953125 -0.87591552734375
5071721875.0 0.50115966796875 -1.41326904296875
5102943750.0 -0.44580078125 -1.49566650390625
5134165625.0 -1.33502197265625 -0.90435791015625
5165387500.0 -1.56719970703125 0.14617919921875
5196609375.0 -1.13555908203125 1.00885009765625
5227831250.0 -0.35711669921875 1.50531005859375
5259053125.0 0.6871337890625 1.49139404296875
5290275000.0 1.521484375 0.662353515625
5321496875.0 1.49072265625 -0.42877197265625
5352718750.0 0.9197998046875 -1.1519775390625
5383940625.0 0.096435546875 -1.4991455078125
5415162500.0 -0.899169921875 -1.28265380859375
5446384375.0 -1.48388671875 -0.36962890625
5477606250.0 -1.29852294921875 0.566162109375
5508828125.0 -0.73095703125 1.15032958984375
5540050000.0 0.0550537109375 1.39837646484375
5571271875.0 0.93701171875 1.10784912109375
5602493750.0 1.407958984375 0.2593994140625
5633715625.0 1.231689453125 -0.611328125
5664937500.0 0.6484375 -1.199462890625
5696159375.0 -0.196533203125 -1.3829345703125
5727381250.0 -1.02081298828125 -0.978271484375
5758603125.0 -1.390625 -0.14569091796875
5789825000.0 -1.193603515625 0.716552734375
5821046875.0 -0.5069580078125 1.305908203125
5852268750.0 0.4110107421875 1.3123779296875
5883490625.0 1.071044921875 0.77191162109375
5914712500.0 1.302490234375 0.01934814453125
5945934375.0 1.095947265625 -0.77532958984375
5977156250.0 0.36163330078125 -1.31109619140625
6008378125.0 -0.5087890625 -1.181884765625
6039600000.0 -1.0213623046875 -0.64892578125
6070821875.0 -1.22283935546875 -0.0047607421875
6102043750.0 -1.0826416015625 0.7618408203125
6133265625.0 -0.3419189453125 1.343994140625
6164487500.0 0.5625 1.1868896484375
6195709375.0 1.069580078125 0.62982177734375
6226931250.0 1.2784423828125 -0.0419921875
6258153125.0 1.1036376953125 -0.8709716796875
6289375000.0 0.2562255859375 -1.4459228515625
6320596875.0 -0.68914794921875 -1.205810546875
6351818750.0 -1.20086669921875 -0.57196044921875
6383040625.0 -1.35333251953125 0.205810546875
6414262500.0 -0.99951171875 1.05645751953125
6445484375.0 -0.078125 1.45703125
6476706250.0 0.7955322265625 1.14788818359375
6507928125.0 1.2904052734375 0.46978759765625
6539150000.0 1.3465576171875 -0.3856201171875
6570371875.0 0.840576171875 -1.1436767578125
6601593750.0 -0.01708984375 -1.40362548828125
6632815625.0 -0.8397216796875 -1.13592529296875
6664037500.0 -1.40142822265625 -0.41925048828125
6695259375.0 -1.37353515625 0.56591796875
6726481250.0 -0.7105712890625 1.2510986328125
6757703125.0 0.1314697265625 1.40673828125
6788925000.0 0.954345703125 1.130615234375
6820146875.0 1.559326171875 0.28814697265625
6851368750.0 1.32568359375 -0.81903076171875
6882590625.0 0.506591796875 -1.338134765625
6913812500.0 -0.29266357421875 -1.35650634765625
6945034375.0 -1.06964111328125 -1.021728515625
6976256250.0 -1.59210205078125 -0.09375
7007478125.0 -1.2354736328125 0.9315185546875
7038700000.0 -0.402099609375 1.3428955078125
7069921875.0 0.35833740234375 1.322509765625
7101143750.0 1.1175537109375 0.96868896484375
7132365625.0 1.59918212890625 0.01434326171875
7163587500.0 1.15655517578125 -1.0198974609375
7194809375.0 0.303466796875 -1.39678955078125
7226031250.0 -0.51043701171875 -1.32440185546875
7257253125.0 -1.2669677734375 -0.8236083984375
7288475000.0 -1.55828857421875 0.197509765625
7319696875.0 -1.02984619140625 1.109375
7350918750.0 -0.16363525390625 1.4454345703125
7382140625.0 0.71502685546875 1.27520751953125
7413362500.0 1.3759765625 0.57598876953125
7444584375.0 1.41253662109375 -0.408447265625
7475806250.0 0.8580322265625 -1.14349365234375
7507028125.0 0.00689697265625 -1.42791748046875
7538250000.0 -0.88665771484375 -1.12408447265625
7569471875.0 -1.3363037109375 -0.3116455078125
7600693750.0 -1.20294189453125 0.49713134765625
7631915625.0 -0.71771240234375 1.0845947265625
7663137500.0 0.08013916015625 1.35833740234375
7694359375.0 0.9400634765625 0.9793701171875
7725581250.0 1.24298095703125 0.18048095703125
7756803125.0 1.08184814453125 -0.498779296875
7788025000.0 0.66949462890625 -1.044677734375
7819246875.0 -0.119873046875 -1.3470458984375
7850468750.0 -0.99029541015625 -0.916717529296875
7881690625.0 -1.23175048828125 -0.1036376953125
7912912500.0 -1.05419921875 0.552490234375
7944134375.0 -0.604248046875 1.1143798828125
7975356250.0 0.2705078125 1.3345947265625
8006578125.0 1.04864501953125 0.77783203125
8037800000.0 1.19378662109375 0.01611328125
8069021875.0 1.00640869140625 -0.61798095703125
8100243750.0 0.50030517578125 -1.16033935546875
8131465625.0 -0.3865966796875 -1.25335693359375
8162687500.0 -1.0316162109375 -0.686279296875
8193909375.0 -1.1806640625 0.009033203125
8225131250.0 -1.017822265625 0.67919921875
8256353125.0 -0.4212646484375 1.2484130859375
8287575000.0 0.49859619140625 1.22491455078125
8318796875.0 1.0821533203125 0.63543701171875
8350018750.0 1.2445068359375 -0.07574462890625
8381240625.0 1.03179931640625 -0.83953857421875
8412462500.0 0.254150390625 -1.37298583984375
8443684375.0 -0.6683349609375 -1.1695556640625
8474906250.0 -1.1767578125 -0.53289794921875
8506128125.0 -1.2982177734375 0.23809814453125
8537350000.0 -0.92431640625 1.047119140625
8568571875.0 -0.01629638671875 1.39422607421875
8599793750.0 0.80010986328125 1.05328369140625
8631015625.0 1.240478515625 0.3990478515625
8662237500.0 1.2862548828125 -0.4296875
8693459375.0 0.73602294921875 -1.17852783203125
8724681250.0 -0.16241455078125 -1.3311767578125
8755903125.0 -0.88116455078125 -0.95745849609375
8787125000.0 -1.30352783203125 -0.28240966796875
8818346875.0 -1.2508544921875 0.616455078125
8849568750.0 -0.55810546875 1.26068115234375
8880790625.0 0.2979736328125 1.28472900390625
8912012500.0 0.979095458984375 0.892425537109375
8943234375.0 1.39923095703125 0.12890625
8974456250.0 1.1669921875 -0.83795166015625
9005678125.0 0.348876953125 -1.3128662109375
9036900000.0 -0.44366455078125 -1.22515869140625
9068121875.0 -1.1009521484375 -0.7869873046875
9099343750.0 -1.44183349609375 0.0975341796875
9130565625.0 -0.98065185546875 1.0108642578125
9161787500.0 -0.15582275390625 1.28143310546875
9193009375.0 0.55487060546875 1.1351318359375
9224231250.0 1.178466796875 0.6552734375
9255453125.0 1.3980712890625 -0.2930908203125
9286675000.0 0.807861328125 -1.08453369140625
9317896875.0 0.02789306640625 -1.24652099609375
9349118750.0 -0.65478515625 -1.06982421875
9380340625.0 -1.25714111328125 -0.5093994140625
9411562500.0 -1.31072998046875 0.4759521484375
9442784375.0 -0.64825439453125 1.1160888671875
9474006250.0 0.08807373046875 1.21160888671875
9505228125.0 0.765655517578125 0.98028564453125
9536450000.0 1.2734375 0.31427001953125
9567671875.0 1.14501953125 -0.58123779296875
9598893750.0 0.52972412109375 -1.06890869140625
9630115625.0 -0.1434326171875 -1.15789794921875
9661337500.0 -0.8175048828125 -0.902618408203125
9692559375.0 -1.23907470703125 -0.19195556640625
9723781250.0 -1.04400634765625 0.6041259765625
9755003125.0 -0.4852294921875 1.05096435546875
9786225000.0 0.197509765625 1.15753173828125
9817446875.0 0.89501953125 0.827423095703125
9848668750.0 1.19732666015625 0.0787353515625
9879890625.0 0.9681396484375 -0.61651611328125
9911112500.0 0.45208740234375 -1.05120849609375
9942334375.0 -0.267333984375 -1.15972900390625
9973556250.0 -0.943206787109375 -0.738189697265625
10004778125.0 -1.14599609375 -0.01849365234375
10036000000.0 -0.9442138671875 0.616363525390625
10067221875.0 -0.44171142578125 1.096923828125
10098443750.0 0.3685302734375 1.1822509765625
10129665625.0 1.0029296875 0.64471435546875
10160887500.0 1.1217041015625 -0.05230712890625
10192109375.0 0.917449951171875 -0.66119384765625
10223331250.0 0.3624267578125 -1.1500244140625
10254553125.0 -0.48626708984375 -1.114501953125
10285775000.0 -0.98516845703125 -0.535369873046875
10316996875.0 -1.06707763671875 0.0770263671875
10348218750.0 -0.89971923828125 0.670196533203125
10379440625.0 -0.32354736328125 1.1749267578125
10410662500.0 0.52630615234375 1.08526611328125
10441884375.0 0.992828369140625 0.5218505859375
10473106250.0 1.10906982421875 -0.08428955078125
10504328125.0 0.948974609375 -0.756622314453125
10535550000.0 0.24066162109375 -1.29339599609375
10566771875.0 -0.658203125 -1.076904296875
10597993750.0 -1.08074951171875 -0.45904541015625
10629215625.0 -1.17596435546875 0.20562744140625
10660437500.0 -0.888702392578125 0.950958251953125
10691659375.0 -0.0111083984375 1.3345947265625
10722881250.0 0.783660888671875 0.95269775390625
10754103125.0 1.11968994140625 0.3243408203125
10785325000.0 1.1378173828125 -0.36590576171875
10816546875.0 0.70068359375 -1.04852294921875
10847768750.0 -0.1444091796875 -1.229736328125
10878990625.0 -0.801513671875 -0.843658447265625
10910212500.0 -1.1240234375 -0.24468994140625
10941434375.0 -1.0966796875 0.4769287109375
10972656250.0 -0.568115234375 1.08380126953125
11003878125.0 0.2171630859375 1.173583984375
11035100000.0 0.84710693359375 0.821502685546875
11066321875.0 1.22076416015625 0.1751708984375
11097543750.0 1.09857177734375 -0.6756591796875
11128765625.0 0.38519287109375 -1.2003173828125
11159987500.0 -0.39593505859375 -1.1396484375
11191209375.0 -0.9996337890625 -0.702972412109375
11222431250.0 -1.2724609375 0.09271240234375
11253653125.0 -0.859771728515625 0.893341064453125
11284875000.0 -0.11431884765625 1.1282958984375
11316096875.0 0.51104736328125 0.956329345703125
11347318750.0 1.00360107421875 0.5025634765625
11378540625.0 1.1173095703125 -0.2689208984375
11409762500.0 0.634674072265625 -0.860015869140625
11440984375.0 0.03662109375 -0.977813720703125
11472206250.0 -0.481719970703125 -0.85015869140625
11503428125.0 -0.952362060546875 -0.45654296875
11534650000.0 -1.06842041015625 0.28717041015625
11565871875.0 -0.602203369140625 0.854736328125
11597093750.0 -0.0185546875 0.991455078125
11628315625.0 0.54193115234375 0.874725341796875
11659537500.0 1.0601806640625 0.39208984375
11690759375.0 1.0654296875 -0.43377685546875
11721981250.0 0.516693115234375 -0.9393310546875
11753203125.0 -0.104736328125 -1.03582763671875
11784425000.0 -0.724395751953125 -0.808197021484375
11815646875.0 -1.1014404296875 -0.151611328125
11846868750.0 -0.891876220703125 0.55181884765625
11878090625.0 -0.391204833984375 0.909912109375
11909312500.0 0.185302734375 0.983673095703125
11940534375.0 0.779876708984375 0.69512939453125
11971756250.0 1.02392578125 0.0401611328125
12002978125.0 0.806640625 -0.5372314453125
12034200000.0 0.381744384765625 -0.889556884765625
12065421875.0 -0.21392822265625 -1.009033203125
12096643750.0 -0.84759521484375 -0.66583251953125
12127865625.0 -1.03375244140625 0.0159912109375
12159087500.0 -0.815216064453125 0.574005126953125
12190309375.0 -0.3768310546875 0.9765625
12221531250.0 0.33819580078125 1.087890625
12252753125.0 0.9801025390625 0.58160400390625
12283975000.0 1.0556640625 -0.1280517578125
12315196875.0 0.80047607421875 -0.677001953125
12346418750.0 0.28094482421875 -1.0921630859375
12377640625.0 -0.538818359375 -1.0614013671875
12408862500.0 -1.03533935546875 -0.42071533203125
12440084375.0 -1.00921630859375 0.22564697265625
12471306250.0 -0.74188232421875 0.737274169921875
12502528125.0 -0.18145751953125 1.1171875
12533750000.0 0.619659423828125 0.99346923828125
12564971875.0 1.0406494140625 0.3648681640625
12596193750.0 1.0299072265625 -0.264892578125
12627415625.0 0.7486572265625 -0.828643798828125
12658637500.0 0.07928466796875 -1.20806884765625
12689859375.0 -0.735137939453125 -0.966461181640625
12721081250.0 -1.115966796875 -0.30767822265625
12752303125.0 -1.0987548828125 0.38226318359375
12783525000.0 -0.6876220703125 1.028076171875
12814746875.0 0.16424560546875 1.25146484375
12845968750.0 0.86285400390625 0.8116455078125
12877190625.0 1.1173095703125 0.1724853515625
12908412500.0 1.055419921875 -0.50164794921875
12939634375.0 0.5438232421875 -1.1160888671875
12970856250.0 -0.32122802734375 -1.1766357421875
13002078125.0 -0.894439697265625 -0.693450927734375
13033300000.0 -1.10528564453125 -0.08685302734375
13064521875.0 -1.01080322265625 0.593994140625
13095743750.0 -0.4212646484375 1.15435791015625
13126965625.0 0.40826416015625 1.120849609375
13158187500.0 0.948028564453125 0.632720947265625
13189409375.0 1.149658203125 -0.022216796875
13220631250.0 0.936553955078125 -0.747100830078125
13251853125.0 0.23468017578125 -1.17083740234375
13283075000.0 -0.50537109375 -1.01947021484375
13314296875.0 -0.989013671875 -0.5291748046875
13345518750.0 -1.13421630859375 0.17547607421875
13376740625.0 -0.75335693359375 0.856475830078125
13407962500.0 -0.05987548828125 1.06591796875
