!Created with skrf (http://scikit-rf.org).
# Hz S RI R 50.0 
!freq ReS11 ImS11
45000000.0 -0.0767364501953125 -0.09699249267578125
76221875.0 -0.1967315673828125 -0.0478973388671875
107443750.0 -0.2558441162109375 0.1196441650390625
138665625.0 -0.148956298828125 0.3290863037109375
169887500.0 0.1231536865234375 0.4183349609375
201109375.0 0.4222412109375 0.2821807861328125
232331250.0 0.580169677734375 -0.05694580078125
263553125.0 0.490966796875 -0.4532928466796875
294775000.0 0.099609375 -0.73358154296875
325996875.0 -0.41558837890625 -0.682403564453125
357218750.0 -0.8079833984375 -0.298553466796875
388440625.0 -0.888031005859375 0.300506591796875
419662500.0 -0.519500732421875 0.8677978515625
450884375.0 0.17181396484375 1.03118896484375
482106250.0 0.799163818359375 0.715423583984375
513328125.0 1.1217041015625 0.088623046875
544550000.0 1.0064697265625 -0.6798095703125
575771875.0 0.3388671875 -1.2396240234375
606993750.0 -0.55303955078125 -1.18023681640625
638215625.0 -1.16729736328125 -0.5931396484375
669437500.0 -1.3426513671875 0.2325439453125
700659375.0 -0.9742431640625 1.09674072265625
731881250.0 -0.00604248046875 1.54547119140625
763103125.0 1.005859375 1.1595458984375
794325000.0 1.47137451171875 0.28424072265625
825546875.0 1.37066650390625 -0.65118408203125
856768750.0 0.7974853515625 -1.4029541015625
887990625.0 -0.2911376953125 -1.65167236328125
919212500.0 -1.28961181640625 -1.0823974609375
950434375.0 -1.65228271484375 -0.060791015625
981656250.0 -1.38641357421875 0.94677734375
1012878125.0 -0.53265380859375 1.6751708984375
1044100000.0 0.69708251953125 1.66650390625
1075321875.0 1.577880859375 0.81549072265625
1106543750.0 1.70904541015625 -0.311767578125
1137765625.0 1.191162109375 -1.2852783203125
1168987500.0 0.140869140625 -1.80084228515625
1200209375.0 -1.06268310546875 -1.488037109375
1231431250.0 -1.73046875 -0.45599365234375
1262653125.0 -1.59765625 0.68389892578125
1293875000.0 -0.8558349609375 1.4940185546875
1325096875.0 0.2264404296875 1.7108154296875
1356318750.0 1.236328125 1.22088623046875
1387540625.0 1.74310302734375 0.1915283203125
1418762500.0 1.47332763671875 -0.95166015625
1449984375.0 0.53204345703125 -1.62835693359375
1481206250.0 -0.54925537109375 -1.5595703125
1512428125.0 -1.34356689453125 -0.9224853515625
1543650000.0 -1.6591796875 0.06439208984375
1574871875.0 -1.27667236328125 1.109619140625
1606093750.0 -0.2750244140625 1.63409423828125
1637315625.0 0.74237060546875 1.404052734375
1668537500.0 1.39801025390625 0.698486328125
1699759375.0 1.57623291015625 -0.27606201171875
1730981250.0 1.06756591796875 -1.23046875
1762203125.0 0.04412841796875 -1.5731201171875
1793425000.0 -0.85626220703125 -1.22955322265625
1824646875.0 -1.396240234375 -0.5172119140625
1855868750.0 -1.47760009765625 0.43157958984375
1887090625.0 -0.8778076171875 1.28704833984375
1918312500.0 0.1165771484375 1.4896240234375
1949534375.0 0.9222412109375 1.0914306640625
1980756250.0 1.37725830078125 0.37158203125
2011978125.0 1.3624267578125 -0.53131103515625
2043200000.0 0.75262451171875 -1.2633056640625
2074421875.0 -0.15594482421875 -1.43585205078125
2105643750.0 -0.96124267578125 -1.074951171875
2136865625.0 -1.4495849609375 -0.30645751953125
2168087500.0 -1.36004638671875 0.67144775390625
2199309375.0 -0.64117431640625 1.353515625
2230531250.0 0.28167724609375 1.43878173828125
2261753125.0 1.0743408203125 1.01605224609375
2292975000.0 1.51708984375 0.17132568359375
2324196875.0 1.308349609375 -0.8197021484375
2355418750.0 0.5267333984375 -1.4222412109375
2386640625.0 -0.4049072265625 -1.45166015625
2417862500.0 -1.18182373046875 -1.02630615234375
2449084375.0 -1.6070556640625 -0.08526611328125
2480306250.0 -1.3143310546875 0.9259033203125
2511528125.0 -0.49566650390625 1.5098876953125
2542750000.0 0.48919677734375 1.5394287109375
2573971875.0 1.37200927734375 0.97076416015625
2605193750.0 1.72125244140625 -0.11260986328125
2636415625.0 1.26422119140625 -1.15484619140625
2667637500.0 0.3074951171875 -1.670166015625
2698859375.0 -0.77081298828125 -1.537841796875
2730081250.0 -1.57684326171875 -0.74267578125
2761303125.0 -1.68389892578125 0.38714599609375
2792525000.0 -1.1024169921875 1.30914306640625
2823746875.0 -0.10302734375 1.7327880859375
2854968750.0 1.01409912109375 1.4588623046875
2886190625.0 1.6949462890625 0.4931640625
2917412500.0 1.60345458984375 -0.61895751953125
2948634375.0 0.94189453125 -1.436279296875
2979856250.0 -0.10906982421875 -1.78106689453125
3011078125.0 -1.249267578125 -1.34527587890625
3042300000.0 -1.779296875 -0.2349853515625
3073521875.0 -1.511474609375 0.838134765625
3104743750.0 -0.76519775390625 1.5712890625
3135965625.0 0.3614501953125 1.8123779296875
3167187500.0 1.5020751953125 1.16680908203125
3198409375.0 1.819091796875 -0.0743408203125
3229631250.0 1.3514404296875 -1.08270263671875
3260853125.0 0.4913330078125 -1.670654296875
3292075000.0 -0.6551513671875 -1.70135498046875
3323296875.0 -1.62322998046875 -0.88104248046875
3354518750.0 -1.73419189453125 0.3292236328125
3385740625.0 -1.15850830078125 1.23333740234375
3416962500.0 -0.2325439453125 1.6845703125
3448184375.0 0.862060546875 1.52496337890625
3479406250.0 1.63897705078125 0.64556884765625
3510628125.0 1.64654541015625 -0.4964599609375
3541850000.0 1.0018310546875 -1.35723876953125
3573071875.0 -0.00811767578125 -1.68560791015625
3604293750.0 -1.028564453125 -1.33941650390625
3635515625.0 -1.629638671875 -0.43975830078125
3666737500.0 -1.564453125 0.6474609375
3697959375.0 -0.8262939453125 1.47857666015625
3729181250.0 0.26788330078125 1.63330078125
3760403125.0 1.15435791015625 1.10009765625
3791625000.0 1.55499267578125 0.21966552734375
3822846875.0 1.404541015625 -0.7615966796875
3854068750.0 0.62176513671875 -1.48419189453125
3885290625.0 -0.42315673828125 -1.48443603515625
3916512500.0 -1.14349365234375 -0.9127197265625
3947734375.0 -1.4498291015625 -0.12005615234375
3978956250.0 -1.29974365234375 0.7799072265625
4010178125.0 -0.53155517578125 1.45892333984375
4041400000.0 0.4749755859375 1.417724609375
4072621875.0 1.15362548828125 0.8485107421875
4103843750.0 1.4462890625 0.063232421875
4135065625.0 1.2696533203125 -0.84796142578125
4166287500.0 0.45751953125 -1.49908447265625
4197509375.0 -0.5587158203125 -1.41644287109375
4228731250.0 -1.2496337890625 -0.80328369140625
4259953125.0 -1.5115966796875 0.07177734375
4291175000.0 -1.18975830078125 1.01141357421875
4322396875.0 -0.2891845703125 1.52899169921875
4353618750.0 0.6749267578125 1.3524169921875
4384840625.0 1.32525634765625 0.69830322265625
4416062500.0 1.5029296875 -0.22802734375
4447284375.0 1.05633544921875 -1.1058349609375
4478506250.0 0.17242431640625 -1.49786376953125
4509728125.0 -0.73529052734375 -1.31024169921875
4540950000.0 -1.3966064453125 -0.635986328125
4572171875.0 -1.5252685546875 0.36175537109375
4603393750.0 -0.97296142578125 1.215576171875
4634615625.0 -0.06048583984375 1.53961181640625
4665837500.0 0.872314453125 1.30535888671875
4697059375.0 1.544677734375 0.51458740234375
4728281250.0 1.5313720703125 -0.585205078125
4759503125.0 0.8233642578125 -1.37091064453125
4790725000.0 -0.147705078125 -1.5755615234375
4821946875.0 -1.085693359375 -1.19537353515625
4853168750.0 -1.616455078125 -0.25048828125
4884390625.0 -1.38079833984375 0.7958984375
4915612500.0 -0.6131591796875 1.41656494140625
4946834375.0 0.32940673828125 1.51141357421875
4978056250.0 1.2081298828125 1.0184326171875
5009278125.0 1.5643310546875 0.0389404296875
5040500000.0 1.23089599609375 -0.87939453125
5071721875.0 0.50140380859375 -1.41741943359375
5102943750.0 -0.44866943359375 -1.49969482421875
5134165625.0 -1.3389892578125 -0.905517578125
5165387500.0 -1.57098388671875 0.1485595703125
5196609375.0 -1.13714599609375 1.01263427734375
5227831250.0 -0.356201171875 1.509521484375
5259053125.0 0.6905517578125 1.49407958984375
5290275000.0 1.52496337890625 0.662109375
5321496875.0 1.49407958984375 -0.4327392578125
5352718750.0 0.92169189453125 -1.155517578125
5383940625.0 0.09576416015625 -1.502685546875
5415162500.0 -0.904052734375 -1.28558349609375
5446384375.0 -1.48748779296875 -0.36981201171875
5477606250.0 -1.3013916015625 0.568359375
5508828125.0 -0.732177734375 1.154541015625
5540050000.0 0.05389404296875 1.40106201171875
5571271875.0 0.94146728515625 1.11004638671875
5602493750.0 1.41192626953125 0.25885009765625
5633715625.0 1.23394775390625 -0.61505126953125
5664937500.0 0.64794921875 -1.203857421875
5696159375.0 -0.198486328125 -1.3863525390625
5727381250.0 -1.02545166015625 -0.978759765625
5758603125.0 -1.3946533203125 -0.14349365234375
5789825000.0 -1.19561767578125 0.72137451171875
5821046875.0 -0.50506591796875 1.309814453125
5852268750.0 0.41400146484375 1.314208984375
5883490625.0 1.07269287109375 0.77191162109375
5914712500.0 1.3050537109375 0.018310546875
5945934375.0 1.09796142578125 -0.7789306640625
5977156250.0 0.36016845703125 -1.3155517578125
6008378125.0 -0.51251220703125 -1.1839599609375
6039600000.0 -1.0245361328125 -0.64874267578125
6070821875.0 -1.22576904296875 -0.00390625
6102043750.0 -1.0848388671875 0.76568603515625
6133265625.0 -0.34039306640625 1.34857177734375
6164487500.0 0.5665283203125 1.18817138671875
6195709375.0 1.07208251953125 0.6300048828125
6226931250.0 1.28204345703125 -0.04437255859375
6258153125.0 1.10528564453125 -0.87615966796875
6289375000.0 0.2528076171875 -1.45001220703125
6320596875.0 -0.69219970703125 -1.205810546875
6351818750.0 -1.202880859375 -0.57098388671875
6383040625.0 -1.3570556640625 0.21002197265625
6414262500.0 -0.9998779296875 1.06103515625
6445484375.0 -0.0758056640625 1.45880126953125
6476706250.0 0.79791259765625 1.14825439453125
6507928125.0 1.292236328125 0.46929931640625
6539150000.0 1.3492431640625 -0.3895263671875
6570371875.0 0.84130859375 -1.14794921875
6601593750.0 -0.019775390625 -1.4078369140625
6632815625.0 -0.84271240234375 -1.13714599609375
6664037500.0 -1.405517578125 -0.41815185546875
6695259375.0 -1.3756103515625 0.5697021484375
6726481250.0 -0.7095947265625 1.2552490234375
6757703125.0 0.1331787109375 1.40924072265625
6788925000.0 0.95965576171875 1.13092041015625
6820146875.0 1.5635986328125 0.28564453125
6851368750.0 1.326171875 -0.82440185546875
6882590625.0 0.504638671875 -1.3419189453125
6913812500.0 -0.2943115234375 -1.35760498046875
6945034375.0 -1.07476806640625 -1.021484375
6976256250.0 -1.59576416015625 -0.08984375
7007478125.0 -1.23846435546875 0.9385986328125
7038700000.0 -0.40118408203125 1.34478759765625
7069921875.0 0.36138916015625 1.326171875
7101143750.0 1.12091064453125 0.96942138671875
7132365625.0 1.60382080078125 0.012939453125
7163587500.0 1.158935546875 -1.02447509765625
7194809375.0 0.29931640625 -1.40313720703125
7226031250.0 -0.515625 -1.32818603515625
7257253125.0 -1.27093505859375 -0.8238525390625
7288475000.0 -1.56219482421875 0.20257568359375
7319696875.0 -1.03021240234375 1.1138916015625
7350918750.0 -0.1622314453125 1.447021484375
7382140625.0 0.720458984375 1.27874755859375
7413362500.0 1.38153076171875 0.5745849609375
7444584375.0 1.41412353515625 -0.41082763671875
7475806250.0 0.856689453125 -1.145263671875
7507028125.0 0.00189208984375 -1.4324951171875
7538250000.0 -0.88916015625 -1.12445068359375
7569471875.0 -1.33941650390625 -0.30908203125
7600693750.0 -1.2032470703125 0.49981689453125
7631915625.0 -0.718017578125 1.08880615234375
7663137500.0 0.08197021484375 1.36053466796875
7694359375.0 0.94293212890625 0.981475830078125
7725581250.0 1.2464599609375 0.17962646484375
7756803125.0 1.0849609375 -0.50164794921875
7788025000.0 0.6702880859375 -1.04827880859375
7819246875.0 -0.12542724609375 -1.3514404296875
7850468750.0 -0.997711181640625 -0.91668701171875
7881690625.0 -1.23358154296875 -0.10296630859375
7912912500.0 -1.05657958984375 0.55816650390625
7944134375.0 -0.605712890625 1.116455078125
7975356250.0 0.27728271484375 1.33795166015625
8006578125.0 1.05047607421875 0.77667236328125
8037800000.0 1.1954345703125 0.0142822265625
8069021875.0 1.0072021484375 -0.619873046875
8100243750.0 0.4986572265625 -1.16534423828125
8131465625.0 -0.3897705078125 -1.2550048828125
8162687500.0 -1.0352783203125 -0.68585205078125
8193909375.0 -1.18414306640625 0.01165771484375
8225131250.0 -1.01898193359375 0.68170166015625
8256353125.0 -0.41900634765625 1.25537109375
8287575000.0 0.5059814453125 1.22845458984375
8318796875.0 1.08453369140625 0.6346435546875
8350018750.0 1.2493896484375 -0.07855224609375
8381240625.0 1.0328369140625 -0.8455810546875
8412462500.0 0.25115966796875 -1.3779296875
8443684375.0 -0.673583984375 -1.1702880859375
8474906250.0 -1.1783447265625 -0.53070068359375
8506128125.0 -1.29937744140625 0.2406005859375
8537350000.0 -0.9228515625 1.0511474609375
8568571875.0 -0.0123291015625 1.39654541015625
8599793750.0 0.80596923828125 1.05364990234375
8631015625.0 1.24591064453125 0.39508056640625
8662237500.0 1.28753662109375 -0.43328857421875
8693459375.0 0.73626708984375 -1.18084716796875
8724681250.0 -0.16448974609375 -1.333740234375
8755903125.0 -0.8846435546875 -0.958770751953125
8787125000.0 -1.3082275390625 -0.28106689453125
8818346875.0 -1.25335693359375 0.620849609375
8849568750.0 -0.55474853515625 1.263427734375
8880790625.0 0.30224609375 1.28680419921875
8912012500.0 0.986328125 0.893218994140625
8943234375.0 1.4046630859375 0.12518310546875
8974456250.0 1.16827392578125 -0.84674072265625
9005678125.0 0.344482421875 -1.3170166015625
9036900000.0 -0.44903564453125 -1.2264404296875
9068121875.0 -1.10845947265625 -0.783935546875
9099343750.0 -1.44366455078125 0.10211181640625
9130565625.0 -0.977783203125 1.01611328125
9161787500.0 -0.1517333984375 1.285400390625
9193009375.0 0.556884765625 1.13397216796875
9224231250.0 1.1851806640625 0.65399169921875
9255453125.0 1.40234375 -0.301025390625
9286675000.0 0.806396484375 -1.09112548828125
9317896875.0 0.02447509765625 -1.249755859375
9349118750.0 -0.65863037109375 -1.072265625
9380340625.0 -1.2626953125 -0.50799560546875
9411562500.0 -1.31390380859375 0.48297119140625
9442784375.0 -0.646484375 1.1212158203125
9474006250.0 0.0909423828125 1.2132568359375
9505228125.0 0.770263671875 0.98077392578125
9536450000.0 1.27801513671875 0.30926513671875
9567671875.0 1.1435546875 -0.58477783203125
9598893750.0 0.52734375 -1.07183837890625
9630115625.0 -0.14752197265625 -1.16033935546875
9661337500.0 -0.823822021484375 -0.902099609375
9692559375.0 -1.24102783203125 -0.18731689453125
9723781250.0 -1.04327392578125 0.606689453125
9755003125.0 -0.484130859375 1.052001953125
9786225000.0 0.20306396484375 1.16265869140625
9817446875.0 0.900115966796875 0.827423095703125
9848668750.0 1.202392578125 0.07275390625
9879890625.0 0.969207763671875 -0.619903564453125
9911112500.0 0.45159912109375 -1.05511474609375
9942334375.0 -0.272705078125 -1.16229248046875
9973556250.0 -0.950531005859375 -0.7362060546875
10004778125.0 -1.14910888671875 -0.0133056640625
10036000000.0 -0.944366455078125 0.621490478515625
10067221875.0 -0.43890380859375 1.10260009765625
10098443750.0 0.376953125 1.182861328125
10129665625.0 1.00946044921875 0.63970947265625
10160887500.0 1.12249755859375 -0.05645751953125
10192109375.0 0.91656494140625 -0.66796875
10223331250.0 0.35821533203125 -1.15655517578125
10254553125.0 -0.490478515625 -1.11279296875
10285775000.0 -0.988037109375 -0.53302001953125
10316996875.0 -1.0689697265625 0.07965087890625
10348218750.0 -0.900238037109375 0.675048828125
10379440625.0 -0.31884765625 1.1800537109375
10410662500.0 0.5330810546875 1.0865478515625
10441884375.0 0.995269775390625 0.520751953125
10473106250.0 1.11181640625 -0.0865478515625
10504328125.0 0.950408935546875 -0.761871337890625
10535550000.0 0.23480224609375 -1.299560546875
10566771875.0 -0.66192626953125 -1.07666015625
10597993750.0 -1.08465576171875 -0.45635986328125
10629215625.0 -1.17840576171875 0.2110595703125
10660437500.0 -0.886138916015625 0.95941162109375
10691659375.0 -0.00311279296875 1.33856201171875
10722881250.0 0.79010009765625 0.951080322265625
10754103125.0 1.122314453125 0.322265625
10785325000.0 1.1416015625 -0.37091064453125
10816546875.0 0.6988525390625 -1.05426025390625
10847768750.0 -0.1507568359375 -1.231201171875
10878990625.0 -0.80682373046875 -0.842376708984375
10910212500.0 -1.12591552734375 -0.2423095703125
10941434375.0 -1.099609375 0.48223876953125
10972656250.0 -0.566162109375 1.09014892578125
11003878125.0 0.22174072265625 1.1761474609375
11035100000.0 0.853118896484375 0.8214111328125
11066321875.0 1.2242431640625 0.17205810546875
11097543750.0 1.10009765625 -0.6822509765625
11128765625.0 0.38250732421875 -1.2037353515625
11159987500.0 -0.4000244140625 -1.14080810546875
11191209375.0 -1.0067138671875 -0.70050048828125
11222431250.0 -1.27581787109375 0.10089111328125
11253653125.0 -0.85693359375 0.899078369140625
11284875000.0 -0.11077880859375 1.1297607421875
11316096875.0 0.51641845703125 0.957000732421875
11347318750.0 1.00909423828125 0.49951171875
11378540625.0 1.118896484375 -0.27557373046875
11409762500.0 0.6329345703125 -0.862548828125
11440984375.0 0.033477783203125 -0.981414794921875
11472206250.0 -0.484771728515625 -0.85162353515625
11503428125.0 -0.95867919921875 -0.453948974609375
11534650000.0 -1.070556640625 0.2943115234375
11565871875.0 -0.60028076171875 0.858856201171875
11597093750.0 -0.01568603515625 0.99359130859375
11628315625.0 0.548248291015625 0.876251220703125
11659537500.0 1.0657958984375 0.38922119140625
11690759375.0 1.06512451171875 -0.44000244140625
11721981250.0 0.51422119140625 -0.94525146484375
11753203125.0 -0.1097412109375 -1.03857421875
11784425000.0 -0.730682373046875 -0.808013916015625
11815646875.0 -1.1038818359375 -0.14697265625
11846868750.0 -0.89093017578125 0.554473876953125
11878090625.0 -0.388427734375 0.913330078125
11909312500.0 0.19189453125 0.986572265625
11940534375.0 0.78570556640625 0.694244384765625
11971756250.0 1.02813720703125 0.03509521484375
12002978125.0 0.806060791015625 -0.54095458984375
12034200000.0 0.379547119140625 -0.892608642578125
12065421875.0 -0.22039794921875 -1.0133056640625
12096643750.0 -0.852447509765625 -0.662567138671875
12127865625.0 -1.037353515625 0.0218505859375
12159087500.0 -0.81463623046875 0.580322265625
12190309375.0 -0.374847412109375 0.97802734375
12221531250.0 0.3450927734375 1.08905029296875
12252753125.0 0.985107421875 0.578369140625
12283975000.0 1.055908203125 -0.13311767578125
12315196875.0 0.800018310546875 -0.67962646484375
12346418750.0 0.277099609375 -1.09765625
12377640625.0 -0.54412841796875 -1.060302734375
12408862500.0 -1.0357666015625 -0.41534423828125
12440084375.0 -1.00994873046875 0.2298583984375
12471306250.0 -0.741241455078125 0.7403564453125
12502528125.0 -0.175537109375 1.12493896484375
12533750000.0 0.625457763671875 0.993621826171875
12564971875.0 1.0452880859375 0.3597412109375
12596193750.0 1.03094482421875 -0.26800537109375
12627415625.0 0.747039794921875 -0.835418701171875
12658637500.0 0.0740966796875 -1.2108154296875
12689859375.0 -0.741546630859375 -0.965850830078125
12721081250.0 -1.1226806640625 -0.30145263671875
12752303125.0 -1.10015869140625 0.388916015625
12783525000.0 -0.68389892578125 1.03399658203125
12814746875.0 0.1722412109375 1.25360107421875
12845968750.0 0.8690185546875 0.80810546875
12877190625.0 1.1214599609375 0.1663818359375
12908412500.0 1.055908203125 -0.50732421875
12939634375.0 0.53814697265625 -1.12286376953125
12970856250.0 -0.32696533203125 -1.176025390625
13002078125.0 -0.898773193359375 -0.69134521484375
13033300000.0 -1.108154296875 -0.0830078125
13064521875.0 -1.010009765625 0.5992431640625
13095743750.0 -0.41571044921875 1.1595458984375
13126965625.0 0.41497802734375 1.12139892578125
13158187500.0 0.953277587890625 0.628997802734375
13189409375.0 1.15325927734375 -0.027587890625
13220631250.0 0.935333251953125 -0.75482177734375
13251853125.0 0.2291259765625 -1.1761474609375
13283075000.0 -0.51446533203125 -1.01995849609375
13314296875.0 -0.994232177734375 -0.52606201171875
13345518750.0 -1.1373291015625 0.181884765625
