!Created with skrf (http://scikit-rf.org).
# Hz S RI R 50.0 
!freq ReS11 ImS11
45000000.0 -0.0769500732421875 -0.09686279296875
76221875.0 -0.19646453857421875 -0.047607421875
107443750.0 -0.255035400390625 0.1194610595703125
138665625.0 -0.148406982421875 0.3289642333984375
169887500.0 0.12347412109375 0.41748046875
201109375.0 0.4219512939453125 0.28118896484375
232331250.0 0.579254150390625 -0.05743408203125
263553125.0 0.4897918701171875 -0.4526214599609375
294775000.0 0.098876953125 -0.73248291015625
325996875.0 -0.41534423828125 -0.68115234375
357218750.0 -0.806610107421875 -0.297607421875
388440625.0 -0.886077880859375 0.300140380859375
419662500.0 -0.517791748046875 0.866546630859375
450884375.0 0.17266845703125 1.02899169921875
482106250.0 0.79840087890625 0.71343994140625
513328125.0 1.11968994140625 0.0877685546875
544550000.0 1.0045166015625 -0.67950439453125
575771875.0 0.3372802734375 -1.23797607421875
606993750.0 -0.55340576171875 -1.17791748046875
638215625.0 -1.165771484375 -0.5909423828125
669437500.0 -1.340087890625 0.23321533203125
700659375.0 -0.97149658203125 1.09625244140625
731881250.0 -0.00439453125 1.54315185546875
763103125.0 1.00506591796875 1.1563720703125
794325000.0 1.46881103515625 0.28228759765625
825546875.0 1.36749267578125 -0.65081787109375
856768750.0 0.79534912109375 -1.40008544921875
887990625.0 -0.29217529296875 -1.648681640625
919212500.0 -1.2877197265625 -1.07928466796875
950434375.0 -1.6488037109375 -0.0595703125
981656250.0 -1.38299560546875 0.94549560546875
1012878125.0 -0.53076171875 1.6712646484375
1044100000.0 0.69647216796875 1.66259765625
1075321875.0 1.57427978515625 0.8128662109375
1106543750.0 1.70458984375 -0.3115234375
1137765625.0 1.1876220703125 -1.2838134765625
1168987500.0 0.138916015625 -1.796875
1200209375.0 -1.06085205078125 -1.4842529296875
1231431250.0 -1.72698974609375 -0.4542236328125
1262653125.0 -1.59429931640625 0.68359375
1293875000.0 -0.85260009765625 1.4915771484375
1325096875.0 0.2275390625 1.70721435546875
1356318750.0 1.2347412109375 1.21722412109375
1387540625.0 1.73974609375 0.18902587890625
1418762500.0 1.4693603515625 -0.95050048828125
1449984375.0 0.52972412109375 -1.6248779296875
1481206250.0 -0.54888916015625 -1.555908203125
1512428125.0 -1.34136962890625 -0.92010498046875
1543650000.0 -1.65521240234375 0.06494140625
1574871875.0 -1.27362060546875 1.10784912109375
1606093750.0 -0.27349853515625 1.6307373046875
1637315625.0 0.74114990234375 1.40057373046875
1668537500.0 1.395263671875 0.69647216796875
1699759375.0 1.57281494140625 -0.2764892578125
1730981250.0 1.064697265625 -1.22894287109375
1762203125.0 0.04278564453125 -1.57049560546875
1793425000.0 -0.85516357421875 -1.22662353515625
1824646875.0 -1.392822265625 -0.5155029296875
1855868750.0 -1.4739990234375 0.431884765625
1887090625.0 -0.875 1.28466796875
1918312500.0 0.11688232421875 1.4862060546875
1949534375.0 0.92095947265625 1.0887451171875
1980756250.0 1.37432861328125 0.3702392578125
2011978125.0 1.35955810546875 -0.53106689453125
2043200000.0 0.75048828125 -1.26080322265625
2074421875.0 -0.1563720703125 -1.4332275390625
2105643750.0 -0.95977783203125 -1.0721435546875
2136865625.0 -1.44696044921875 -0.304931640625
2168087500.0 -1.35699462890625 0.6707763671875
2199309375.0 -0.6390380859375 1.3509521484375
2230531250.0 0.28125 1.435791015625
2261753125.0 1.072265625 1.013916015625
2292975000.0 1.51397705078125 0.17041015625
2324196875.0 1.30548095703125 -0.818603515625
2355418750.0 0.5252685546875 -1.41937255859375
2386640625.0 -0.40386962890625 -1.448486328125
2417862500.0 -1.1796875 -1.02386474609375
2449084375.0 -1.60418701171875 -0.0845947265625
2480306250.0 -1.3114013671875 0.9254150390625
2511528125.0 -0.49444580078125 1.50634765625
2542750000.0 0.487548828125 1.535888671875
2573971875.0 1.36981201171875 0.96783447265625
2605193750.0 1.71697998046875 -0.1123046875
2636415625.0 1.2611083984375 -1.15093994140625
2667637500.0 0.30731201171875 -1.66534423828125
2698859375.0 -0.76934814453125 -1.53363037109375
2730081250.0 -1.57244873046875 -0.74078369140625
2761303125.0 -1.6806640625 0.386962890625
2792525000.0 -1.09967041015625 1.30706787109375
2823746875.0 -0.10284423828125 1.72906494140625
2854968750.0 1.01080322265625 1.45526123046875
2886190625.0 1.69049072265625 0.49249267578125
2917412500.0 1.599365234375 -0.61724853515625
2948634375.0 0.93902587890625 -1.43243408203125
2979856250.0 -0.107421875 -1.775390625
3011078125.0 -1.2464599609375 -1.3419189453125
3042300000.0 -1.7750244140625 -0.23468017578125
3073521875.0 -1.5081787109375 0.83673095703125
3104743750.0 -0.76336669921875 1.56640625
3135965625.0 0.36126708984375 1.80889892578125
3167187500.0 1.4959716796875 1.16412353515625
3198409375.0 1.8140869140625 -0.07391357421875
3229631250.0 1.34857177734375 -1.0799560546875
3260853125.0 0.489501953125 -1.6663818359375
3292075000.0 -0.6533203125 -1.6968994140625
3323296875.0 -1.619384765625 -0.87982177734375
3354518750.0 -1.73114013671875 0.32958984375
3385740625.0 -1.15570068359375 1.232177734375
3416962500.0 -0.23199462890625 1.68157958984375
3448184375.0 0.8607177734375 1.521484375
3479406250.0 1.635009765625 0.64410400390625
3510628125.0 1.6422119140625 -0.49444580078125
3541850000.0 1.000244140625 -1.3551025390625
3573071875.0 -0.00677490234375 -1.68048095703125
3604293750.0 -1.02740478515625 -1.33685302734375
3635515625.0 -1.6263427734375 -0.43878173828125
3666737500.0 -1.559814453125 0.6439208984375
3697959375.0 -0.82525634765625 1.47430419921875
3729181250.0 0.2681884765625 1.62994384765625
3760403125.0 1.1507568359375 1.097900390625
3791625000.0 1.5517578125 0.21820068359375
3822846875.0 1.4012451171875 -0.7584228515625
3854068750.0 0.620361328125 -1.47998046875
3885290625.0 -0.42071533203125 -1.481201171875
3916512500.0 -1.1405029296875 -0.9112548828125
3947734375.0 -1.4464111328125 -0.12078857421875
3978956250.0 -1.296875 0.77850341796875
4010178125.0 -0.5313720703125 1.45416259765625
4041400000.0 0.47222900390625 1.4146728515625
4072621875.0 1.15191650390625 0.84722900390625
4103843750.0 1.44500732421875 0.06268310546875
4135065625.0 1.26715087890625 -0.84442138671875
4166287500.0 0.45770263671875 -1.49468994140625
4197509375.0 -0.5570068359375 -1.41461181640625
4228731250.0 -1.24676513671875 -0.80224609375
4259953125.0 -1.50823974609375 0.07080078125
4291175000.0 -1.188232421875 1.009765625
4322396875.0 -0.28985595703125 1.52496337890625
4353618750.0 0.67218017578125 1.34942626953125
4384840625.0 1.32135009765625 0.6968994140625
4416062500.0 1.5001220703125 -0.2269287109375
4447284375.0 1.0550537109375 -1.10369873046875
4478506250.0 0.172119140625 -1.49554443359375
4509728125.0 -0.73211669921875 -1.30743408203125
4540950000.0 -1.39239501953125 -0.6358642578125
4572171875.0 -1.52154541015625 0.359130859375
4603393750.0 -0.9722900390625 1.21209716796875
4634615625.0 -0.06097412109375 1.5369873046875
4665837500.0 0.87054443359375 1.30389404296875
4697059375.0 1.54010009765625 0.51519775390625
4728281250.0 1.5283203125 -0.58245849609375
4759503125.0 0.82269287109375 -1.366455078125
4790725000.0 -0.145263671875 -1.57232666015625
4821946875.0 -1.083251953125 -1.19378662109375
4853168750.0 -1.61126708984375 -0.2520751953125
4884390625.0 -1.3780517578125 0.7930908203125
4915612500.0 -0.6138916015625 1.411376953125
4946834375.0 0.3280029296875 1.50885009765625
4978056250.0 1.205078125 1.017333984375
5009278125.0 1.5609130859375 0.03936767578125
5040500000.0 1.22894287109375 -0.875
5071721875.0 0.50177001953125 -1.414306640625
5102943750.0 -0.44586181640625 -1.49566650390625
5134165625.0 -1.33538818359375 -0.90496826171875
5165387500.0 -1.5673828125 0.1461181640625
5196609375.0 -1.135498046875 1.00775146484375
5227831250.0 -0.35711669921875 1.5057373046875
5259053125.0 0.68658447265625 1.49139404296875
5290275000.0 1.5216064453125 0.662109375
5321496875.0 1.49127197265625 -0.4302978515625
5352718750.0 0.92059326171875 -1.15283203125
5383940625.0 0.0965576171875 -1.499267578125
5415162500.0 -0.90087890625 -1.28399658203125
5446384375.0 -1.483642578125 -0.37054443359375
5477606250.0 -1.29888916015625 0.5665283203125
5508828125.0 -0.7315673828125 1.1510009765625
5540050000.0 0.05316162109375 1.39801025390625
5571271875.0 0.9383544921875 1.108642578125
5602493750.0 1.40899658203125 0.25982666015625
5633715625.0 1.23199462890625 -0.612060546875
5664937500.0 0.64825439453125 -1.20062255859375
5696159375.0 -0.19732666015625 -1.38311767578125
5727381250.0 -1.0228271484375 -0.977783203125
5758603125.0 -1.39056396484375 -0.145263671875
5789825000.0 -1.1939697265625 0.71795654296875
5821046875.0 -0.5054931640625 1.3070068359375
5852268750.0 0.4119873046875 1.312744140625
5883490625.0 1.0701904296875 0.77142333984375
5914712500.0 1.30194091796875 0.0198974609375
5945934375.0 1.09613037109375 -0.77557373046875
5977156250.0 0.36083984375 -1.3121337890625
6008378125.0 -0.50909423828125 -1.181884765625
6039600000.0 -1.020263671875 -0.64923095703125
6070821875.0 -1.2237548828125 -0.0045166015625
6102043750.0 -1.083251953125 0.76226806640625
6133265625.0 -0.341796875 1.3438720703125
6164487500.0 0.5633544921875 1.18743896484375
6195709375.0 1.07037353515625 0.62982177734375
6226931250.0 1.27923583984375 -0.043212890625
6258153125.0 1.10430908203125 -0.87152099609375
6289375000.0 0.255615234375 -1.44586181640625
6320596875.0 -0.68914794921875 -1.20550537109375
6351818750.0 -1.1995849609375 -0.57122802734375
6383040625.0 -1.35430908203125 0.20770263671875
6414262500.0 -0.99896240234375 1.0550537109375
6445484375.0 -0.07806396484375 1.4569091796875
6476706250.0 0.7955322265625 1.14727783203125
6507928125.0 1.2891845703125 0.47064208984375
6539150000.0 1.34716796875 -0.38653564453125
6570371875.0 0.84112548828125 -1.14312744140625
6601593750.0 -0.0177001953125 -1.4046630859375
6632815625.0 -0.8389892578125 -1.13555908203125
6664037500.0 -1.40069580078125 -0.41943359375
6695259375.0 -1.37371826171875 0.5662841796875
6726481250.0 -0.70965576171875 1.2508544921875
6757703125.0 0.130859375 1.40625
6788925000.0 0.95361328125 1.1300048828125
6820146875.0 1.560546875 0.28680419921875
6851368750.0 1.3255615234375 -0.8201904296875
6882590625.0 0.50555419921875 -1.33880615234375
6913812500.0 -0.29229736328125 -1.35595703125
6945034375.0 -1.06939697265625 -1.02099609375
6976256250.0 -1.5921630859375 -0.09307861328125
7007478125.0 -1.23638916015625 0.93182373046875
7038700000.0 -0.4027099609375 1.340087890625
7069921875.0 0.3582763671875 1.32391357421875
7101143750.0 1.1182861328125 0.96807861328125
7132365625.0 1.60003662109375 0.013427734375
7163587500.0 1.15838623046875 -1.02069091796875
7194809375.0 0.302734375 -1.3968505859375
7226031250.0 -0.51263427734375 -1.3267822265625
7257253125.0 -1.26788330078125 -0.8238525390625
7288475000.0 -1.55816650390625 0.19940185546875
7319696875.0 -1.02899169921875 1.10906982421875
7350918750.0 -0.16357421875 1.44488525390625
7382140625.0 0.71343994140625 1.2747802734375
7413362500.0 1.37628173828125 0.5760498046875
7444584375.0 1.41119384765625 -0.40582275390625
7475806250.0 0.857177734375 -1.1435546875
7507028125.0 0.00531005859375 -1.4300537109375
7538250000.0 -0.88702392578125 -1.1241455078125
7569471875.0 -1.3363037109375 -0.31109619140625
7600693750.0 -1.201416015625 0.49493408203125
7631915625.0 -0.71820068359375 1.08563232421875
7663137500.0 0.080078125 1.35760498046875
7694359375.0 0.9398193359375 0.98114013671875
7725581250.0 1.2431640625 0.180908203125
7756803125.0 1.08306884765625 -0.49853515625
7788025000.0 0.669921875 -1.04412841796875
7819246875.0 -0.11981201171875 -1.34619140625
7850468750.0 -0.9918212890625 -0.9154052734375
7881690625.0 -1.2332763671875 -0.10394287109375
7912912500.0 -1.05401611328125 0.5555419921875
7944134375.0 -0.60467529296875 1.1142578125
7975356250.0 0.271240234375 1.33428955078125
8006578125.0 1.046630859375 0.7779541015625
8037800000.0 1.19256591796875 0.0159912109375
8069021875.0 1.00677490234375 -0.6182861328125
8100243750.0 0.4986572265625 -1.16290283203125
8131465625.0 -0.38800048828125 -1.253662109375
8162687500.0 -1.031005859375 -0.686279296875
8193909375.0 -1.18096923828125 0.00823974609375
8225131250.0 -1.01727294921875 0.6787109375
8256353125.0 -0.4217529296875 1.24951171875
8287575000.0 0.50146484375 1.22607421875
8318796875.0 1.08319091796875 0.63568115234375
8350018750.0 1.2457275390625 -0.0760498046875
8381240625.0 1.031494140625 -0.8380126953125
8412462500.0 0.25421142578125 -1.37310791015625
8443684375.0 -0.67071533203125 -1.169677734375
8474906250.0 -1.174560546875 -0.5318603515625
8506128125.0 -1.297119140625 0.23687744140625
8537350000.0 -0.923828125 1.04473876953125
8568571875.0 -0.01568603515625 1.39404296875
8599793750.0 0.80419921875 1.053466796875
8631015625.0 1.24053955078125 0.39959716796875
8662237500.0 1.28564453125 -0.42974853515625
8693459375.0 0.73687744140625 -1.176513671875
8724681250.0 -0.163330078125 -1.33331298828125
8755903125.0 -0.88140869140625 -0.957855224609375
8787125000.0 -1.305908203125 -0.28155517578125
8818346875.0 -1.25079345703125 0.6165771484375
8849568750.0 -0.556884765625 1.26019287109375
8880790625.0 0.29791259765625 1.28466796875
8912012500.0 0.9803466796875 0.8924560546875
8943234375.0 1.40155029296875 0.1268310546875
8974456250.0 1.165771484375 -0.83856201171875
9005678125.0 0.3477783203125 -1.31219482421875
9036900000.0 -0.44677734375 -1.22540283203125
9068121875.0 -1.1016845703125 -0.78436279296875
9099343750.0 -1.44171142578125 0.09814453125
9130565625.0 -0.97894287109375 1.0128173828125
9161787500.0 -0.15447998046875 1.28167724609375
9193009375.0 0.5543212890625 1.13336181640625
9224231250.0 1.1785888671875 0.6553955078125
9255453125.0 1.39874267578125 -0.29412841796875
9286675000.0 0.80731201171875 -1.08477783203125
9317896875.0 0.0262451171875 -1.2474365234375
9349118750.0 -0.65374755859375 -1.07037353515625
9380340625.0 -1.25994873046875 -0.50958251953125
9411562500.0 -1.31243896484375 0.4775390625
9442784375.0 -0.648681640625 1.1195068359375
9474006250.0 0.08819580078125 1.20941162109375
9505228125.0 0.764892578125 0.980865478515625
9536450000.0 1.27587890625 0.31170654296875
9567671875.0 1.14312744140625 -0.58026123046875
9598893750.0 0.52947998046875 -1.0687255859375
9630115625.0 -0.14410400390625 -1.1578369140625
9661337500.0 -0.819244384765625 -0.901214599609375
9692559375.0 -1.23944091796875 -0.189453125
9723781250.0 -1.043212890625 0.604736328125
9755003125.0 -0.48553466796875 1.04998779296875
9786225000.0 0.19744873046875 1.1583251953125
9817446875.0 0.896209716796875 0.828155517578125
9848668750.0 1.197998046875 0.0782470703125
9879890625.0 0.96923828125 -0.61834716796875
9911112500.0 0.45159912109375 -1.05218505859375
9942334375.0 -0.2679443359375 -1.1597900390625
9973556250.0 -0.944427490234375 -0.737945556640625
10004778125.0 -1.14599609375 -0.01776123046875
10036000000.0 -0.944366455078125 0.6168212890625
10067221875.0 -0.442138671875 1.09649658203125
10098443750.0 0.37158203125 1.181640625
10129665625.0 1.003662109375 0.642333984375
10160887500.0 1.12078857421875 -0.05340576171875
10192109375.0 0.917327880859375 -0.66363525390625
10223331250.0 0.3612060546875 -1.1514892578125
10254553125.0 -0.48583984375 -1.11248779296875
10285775000.0 -0.986846923828125 -0.534637451171875
10316996875.0 -1.06719970703125 0.0770263671875
10348218750.0 -0.899749755859375 0.670440673828125
10379440625.0 -0.3214111328125 1.17633056640625
10410662500.0 0.52667236328125 1.0859375
10441884375.0 0.993133544921875 0.521484375
10473106250.0 1.10870361328125 -0.08404541015625
10504328125.0 0.950164794921875 -0.756988525390625
10535550000.0 0.23883056640625 -1.2955322265625
10566771875.0 -0.658203125 -1.07666015625
10597993750.0 -1.0821533203125 -0.45831298828125
10629215625.0 -1.175537109375 0.20574951171875
10660437500.0 -0.887115478515625 0.953704833984375
10691659375.0 -0.00848388671875 1.3353271484375
10722881250.0 0.78521728515625 0.95184326171875
10754103125.0 1.11749267578125 0.32470703125
10785325000.0 1.13934326171875 -0.3670654296875
10816546875.0 0.69989013671875 -1.0489501953125
10847768750.0 -0.14599609375 -1.2301025390625
10878990625.0 -0.802581787109375 -0.84307861328125
10910212500.0 -1.12518310546875 -0.2435302734375
10941434375.0 -1.098388671875 0.47784423828125
10972656250.0 -0.5675048828125 1.08636474609375
11003878125.0 0.2196044921875 1.17529296875
11035100000.0 0.848388671875 0.82183837890625
11066321875.0 1.22259521484375 0.17333984375
11097543750.0 1.0985107421875 -0.6761474609375
11128765625.0 0.38458251953125 -1.19921875
11159987500.0 -0.39691162109375 -1.139404296875
11191209375.0 -0.998199462890625 -0.701934814453125
11222431250.0 -1.27252197265625 0.09405517578125
11253653125.0 -0.85821533203125 0.8939208984375
11284875000.0 -0.11358642578125 1.12628173828125
11316096875.0 0.511383056640625 0.95721435546875
11347318750.0 1.0029296875 0.50225830078125
11378540625.0 1.11578369140625 -0.269287109375
11409762500.0 0.634246826171875 -0.85894775390625
11440984375.0 0.03521728515625 -0.97894287109375
11472206250.0 -0.480926513671875 -0.85064697265625
11503428125.0 -0.954833984375 -0.456024169921875
11534650000.0 -1.068603515625 0.289794921875
11565871875.0 -0.60198974609375 0.854888916015625
11597093750.0 -0.018585205078125 0.99066162109375
11628315625.0 0.545318603515625 0.874755859375
11659537500.0 1.06170654296875 0.390869140625
11690759375.0 1.06475830078125 -0.4346923828125
11721981250.0 0.51611328125 -0.941131591796875
11753203125.0 -0.1075439453125 -1.037109375
11784425000.0 -0.726593017578125 -0.808807373046875
11815646875.0 -1.10137939453125 -0.14910888671875
11846868750.0 -0.8914794921875 0.551971435546875
11878090625.0 -0.389862060546875 0.91033935546875
11909312500.0 0.1856689453125 0.983673095703125
11940534375.0 0.781280517578125 0.69464111328125
11971756250.0 1.02581787109375 0.03839111328125
12002978125.0 0.806427001953125 -0.53802490234375
12034200000.0 0.381622314453125 -0.88922119140625
12065421875.0 -0.2156982421875 -1.01055908203125
12096643750.0 -0.849151611328125 -0.66400146484375
12127865625.0 -1.033203125 0.0167236328125
12159087500.0 -0.813995361328125 0.574951171875
12190309375.0 -0.376922607421875 0.976715087890625
12221531250.0 0.341552734375 1.0887451171875
12252753125.0 0.981964111328125 0.5799560546875
12283975000.0 1.0555419921875 -0.1300048828125
12315196875.0 0.800506591796875 -0.6776123046875
12346418750.0 0.281005859375 -1.09149169921875
12377640625.0 -0.53857421875 -1.0599365234375
12408862500.0 -1.03546142578125 -0.41796875
12440084375.0 -1.0076904296875 0.22528076171875
12471306250.0 -0.741790771484375 0.73687744140625
12502528125.0 -0.179443359375 1.1197509765625
12533750000.0 0.62078857421875 0.993499755859375
12564971875.0 1.04296875 0.36279296875
12596193750.0 1.02972412109375 -0.26568603515625
12627415625.0 0.74749755859375 -0.83026123046875
12658637500.0 0.078857421875 -1.20843505859375
12689859375.0 -0.736419677734375 -0.96661376953125
12721081250.0 -1.11773681640625 -0.30511474609375
12752303125.0 -1.09765625 0.383056640625
12783525000.0 -0.68634033203125 1.02838134765625
12814746875.0 0.164794921875 1.24969482421875
12845968750.0 0.86285400390625 0.81036376953125
12877190625.0 1.1192626953125 0.1708984375
12908412500.0 1.05615234375 -0.50360107421875
12939634375.0 0.541259765625 -1.11761474609375
12970856250.0 -0.32275390625 -1.1751708984375
13002078125.0 -0.89306640625 -0.692657470703125
13033300000.0 -1.10601806640625 -0.0858154296875
13064521875.0 -1.0087890625 0.59552001953125
13095743750.0 -0.41815185546875 1.1571044921875
13126965625.0 0.41119384765625 1.12127685546875
13158187500.0 0.9464111328125 0.631378173828125
13189409375.0 1.1490478515625 -0.0223388671875
13220631250.0 0.935699462890625 -0.749420166015625
13251853125.0 0.2327880859375 -1.17401123046875
13283075000.0 -0.5091552734375 -1.0194091796875
13314296875.0 -0.988006591796875 -0.52899169921875
13345518750.0 -1.1357421875 0.17816162109375
13376740625.0 -0.752960205078125 0.8592529296875
13407962500.0 -0.05877685546875 1.06689453125
