!Created with skrf (http://scikit-rf.org).
# Hz S RI R 50.0 
!freq ReS11 ImS11
45000000.0 -0.07670211791992188 -0.09708786010742188
76221875.0 -0.19667816162109375 -0.04817962646484375
107443750.0 -0.2559051513671875 0.11956787109375
138665625.0 -0.1492156982421875 0.328948974609375
169887500.0 0.1228179931640625 0.4185638427734375
201109375.0 0.4220428466796875 0.2826690673828125
232331250.0 0.58038330078125 -0.056121826171875
263553125.0 0.4917755126953125 -0.4530487060546875
294775000.0 0.100311279296875 -0.734100341796875
325996875.0 -0.414825439453125 -0.683502197265625
357218750.0 -0.80804443359375 -0.29986572265625
388440625.0 -0.888824462890625 0.29949951171875
419662500.0 -0.5205078125 0.867218017578125
450884375.0 0.1707763671875 1.0318603515625
482106250.0 0.79876708984375 0.716461181640625
513328125.0 1.12200927734375 0.08966064453125
544550000.0 1.00714111328125 -0.6793212890625
575771875.0 0.33990478515625 -1.23992919921875
606993750.0 -0.55194091796875 -1.18121337890625
638215625.0 -1.16717529296875 -0.5946044921875
669437500.0 -1.34326171875 0.2310791015625
700659375.0 -0.97509765625 1.09625244140625
731881250.0 -0.0074462890625 1.54608154296875
763103125.0 1.0048828125 1.1611328125
794325000.0 1.47174072265625 0.28582763671875
825546875.0 1.37213134765625 -0.65008544921875
856768750.0 0.799072265625 -1.4027099609375
887990625.0 -0.29010009765625 -1.6534423828125
919212500.0 -1.28912353515625 -1.0843505859375
950434375.0 -1.6533203125 -0.062255859375
981656250.0 -1.38812255859375 0.9464111328125
1012878125.0 -0.5341796875 1.67535400390625
1044100000.0 0.69561767578125 1.66790771484375
1075321875.0 1.57757568359375 0.81768798828125
1106543750.0 1.7103271484375 -0.310546875
1137765625.0 1.19244384765625 -1.28509521484375
1168987500.0 0.142333984375 -1.8018798828125
1200209375.0 -1.06182861328125 -1.4903564453125
1231431250.0 -1.731201171875 -0.4581298828125
1262653125.0 -1.599365234375 0.68316650390625
1293875000.0 -0.85736083984375 1.4935302734375
1325096875.0 0.22467041015625 1.71136474609375
1356318750.0 1.23565673828125 1.2225341796875
1387540625.0 1.7435302734375 0.19305419921875
1418762500.0 1.47503662109375 -0.950927734375
1449984375.0 0.534423828125 -1.628662109375
1481206250.0 -0.54815673828125 -1.561279296875
1512428125.0 -1.34368896484375 -0.92431640625
1543650000.0 -1.659912109375 0.06268310546875
1574871875.0 -1.27838134765625 1.10906982421875
1606093750.0 -0.276611328125 1.6348876953125
1637315625.0 0.740966796875 1.4051513671875
1668537500.0 1.397705078125 0.70025634765625
1699759375.0 1.577392578125 -0.27508544921875
1730981250.0 1.06884765625 -1.2296142578125
1762203125.0 0.04547119140625 -1.57427978515625
1793425000.0 -0.85546875 -1.23089599609375
1824646875.0 -1.39605712890625 -0.51885986328125
1855868750.0 -1.4783935546875 0.43048095703125
1887090625.0 -0.87945556640625 1.2872314453125
1918312500.0 0.11505126953125 1.49078369140625
1949534375.0 0.921875 1.093017578125
1980756250.0 1.377685546875 0.373291015625
2011978125.0 1.36358642578125 -0.53057861328125
2043200000.0 0.75408935546875 -1.26324462890625
2074421875.0 -0.15472412109375 -1.43707275390625
2105643750.0 -0.96063232421875 -1.07623291015625
2136865625.0 -1.44970703125 -0.30810546875
2168087500.0 -1.361328125 0.67034912109375
2199309375.0 -0.64276123046875 1.353759765625
2230531250.0 0.28045654296875 1.4400634765625
2261753125.0 1.073486328125 1.01806640625
2292975000.0 1.51751708984375 0.17279052734375
2324196875.0 1.30950927734375 -0.81866455078125
2355418750.0 0.52838134765625 -1.4224853515625
2386640625.0 -0.4033203125 -1.4522705078125
2417862500.0 -1.18280029296875 -1.0281982421875
2449084375.0 -1.607666015625 -0.08709716796875
2480306250.0 -1.3153076171875 0.92572021484375
2511528125.0 -0.497314453125 1.51080322265625
2542750000.0 0.48809814453125 1.54144287109375
2573971875.0 1.3736572265625 0.9716796875
2605193750.0 1.72113037109375 -0.11004638671875
2636415625.0 1.26611328125 -1.1539306640625
2667637500.0 0.3095703125 -1.67041015625
2698859375.0 -0.769775390625 -1.53955078125
2730081250.0 -1.57733154296875 -0.74407958984375
2761303125.0 -1.68634033203125 0.38751220703125
2792525000.0 -1.1038818359375 1.30975341796875
2823746875.0 -0.104736328125 1.7335205078125
2854968750.0 1.0128173828125 1.46087646484375
2886190625.0 1.69561767578125 0.494873046875
2917412500.0 1.60467529296875 -0.616455078125
2948634375.0 0.9432373046875 -1.4365234375
2979856250.0 -0.1064453125 -1.78070068359375
3011078125.0 -1.25103759765625 -1.3470458984375
3042300000.0 -1.77960205078125 -0.2371826171875
3073521875.0 -1.5130615234375 0.83905029296875
3104743750.0 -0.76666259765625 1.57159423828125
3135965625.0 0.36199951171875 1.81402587890625
3167187500.0 1.50146484375 1.1683349609375
3198409375.0 1.82073974609375 -0.07373046875
3229631250.0 1.3533935546875 -1.082275390625
3260853125.0 0.4923095703125 -1.67236328125
3292075000.0 -0.656005859375 -1.703125
3323296875.0 -1.62188720703125 -0.8839111328125
3354518750.0 -1.73553466796875 0.32806396484375
3385740625.0 -1.16015625 1.233154296875
3416962500.0 -0.23321533203125 1.6854248046875
3448184375.0 0.8609619140625 1.52630615234375
3479406250.0 1.64056396484375 0.64691162109375
3510628125.0 1.6480712890625 -0.49432373046875
3541850000.0 1.00384521484375 -1.35711669921875
3573071875.0 -0.00555419921875 -1.68511962890625
3604293750.0 -1.02911376953125 -1.34112548828125
3635515625.0 -1.6304931640625 -0.44085693359375
3666737500.0 -1.56610107421875 0.64593505859375
3697959375.0 -0.8282470703125 1.47784423828125
3729181250.0 0.2664794921875 1.6334228515625
3760403125.0 1.15447998046875 1.101806640625
3791625000.0 1.55535888671875 0.2205810546875
3822846875.0 1.4058837890625 -0.76116943359375
3854068750.0 0.6226806640625 -1.48486328125
3885290625.0 -0.421142578125 -1.48480224609375
3916512500.0 -1.14434814453125 -0.9139404296875
3947734375.0 -1.45086669921875 -0.1214599609375
3978956250.0 -1.30120849609375 0.77960205078125
4010178125.0 -0.5340576171875 1.45709228515625
4041400000.0 0.4752197265625 1.4189453125
4072621875.0 1.1539306640625 0.84979248046875
4103843750.0 1.447265625 0.0640869140625
4135065625.0 1.2705078125 -0.84710693359375
4166287500.0 0.45880126953125 -1.4998779296875
4197509375.0 -0.55914306640625 -1.41802978515625
4228731250.0 -1.2493896484375 -0.80438232421875
4259953125.0 -1.511474609375 0.06964111328125
4291175000.0 -1.1915283203125 1.0118408203125
4322396875.0 -0.29046630859375 1.53045654296875
4353618750.0 0.67388916015625 1.3526611328125
4384840625.0 1.32501220703125 0.6990966796875
4416062500.0 1.5045166015625 -0.2276611328125
4447284375.0 1.057861328125 -1.10791015625
4478506250.0 0.17279052734375 -1.4993896484375
4509728125.0 -0.734130859375 -1.3104248046875
4540950000.0 -1.3973388671875 -0.63812255859375
4572171875.0 -1.52545166015625 0.3609619140625
4603393750.0 -0.9742431640625 1.21502685546875
4634615625.0 -0.06182861328125 1.53973388671875
4665837500.0 0.87274169921875 1.3077392578125
4697059375.0 1.54461669921875 0.5167236328125
4728281250.0 1.53271484375 -0.58428955078125
4759503125.0 0.82476806640625 -1.36962890625
4790725000.0 -0.14599609375 -1.57623291015625
4821946875.0 -1.08538818359375 -1.1971435546875
4853168750.0 -1.61676025390625 -0.2520751953125
4884390625.0 -1.38116455078125 0.794677734375
4915612500.0 -0.61456298828125 1.41607666015625
4946834375.0 0.3292236328125 1.51190185546875
4978056250.0 1.2081298828125 1.01947021484375
5009278125.0 1.5657958984375 0.0390625
5040500000.0 1.2320556640625 -0.87762451171875
5071721875.0 0.5029296875 -1.41778564453125
5102943750.0 -0.44775390625 -1.5009765625
5134165625.0 -1.338623046875 -0.90728759765625
5165387500.0 -1.5709228515625 0.14691162109375
5196609375.0 -1.138427734375 1.0120849609375
5227831250.0 -0.357666015625 1.5093994140625
5259053125.0 0.69061279296875 1.49554443359375
5290275000.0 1.5245361328125 0.66387939453125
5321496875.0 1.49566650390625 -0.433349609375
5352718750.0 0.92291259765625 -1.15545654296875
5383940625.0 0.09735107421875 -1.50244140625
5415162500.0 -0.90283203125 -1.28692626953125
5446384375.0 -1.4874267578125 -0.3712158203125
5477606250.0 -1.3021240234375 0.568115234375
5508828125.0 -0.73321533203125 1.1544189453125
5540050000.0 0.054443359375 1.403076171875
5571271875.0 0.94097900390625 1.111083984375
5602493750.0 1.412841796875 0.259521484375
5633715625.0 1.23529052734375 -0.61456298828125
5664937500.0 0.64910888671875 -1.204833984375
5696159375.0 -0.1988525390625 -1.38714599609375
5727381250.0 -1.0247802734375 -0.979736328125
5758603125.0 -1.39501953125 -0.14447021484375
5789825000.0 -1.196533203125 0.7203369140625
5821046875.0 -0.50616455078125 1.3111572265625
5852268750.0 0.41351318359375 1.31549072265625
5883490625.0 1.073974609375 0.77294921875
5914712500.0 1.305419921875 0.01959228515625
5945934375.0 1.0985107421875 -0.77801513671875
5977156250.0 0.36138916015625 -1.31573486328125
6008378125.0 -0.511474609375 -1.1846923828125
6039600000.0 -1.02325439453125 -0.6497802734375
6070821875.0 -1.22711181640625 -0.003662109375
6102043750.0 -1.08587646484375 0.76544189453125
6133265625.0 -0.34173583984375 1.3482666015625
6164487500.0 0.56671142578125 1.189697265625
6195709375.0 1.0733642578125 0.63092041015625
6226931250.0 1.28253173828125 -0.04315185546875
6258153125.0 1.1068115234375 -0.8763427734375
6289375000.0 0.2537841796875 -1.45062255859375
6320596875.0 -0.6910400390625 -1.20703125
6351818750.0 -1.2025146484375 -0.57183837890625
6383040625.0 -1.35687255859375 0.2081298828125
6414262500.0 -1.00048828125 1.06024169921875
6445484375.0 -0.0767822265625 1.459716796875
6476706250.0 0.79730224609375 1.14898681640625
6507928125.0 1.2933349609375 0.47003173828125
6539150000.0 1.349365234375 -0.3878173828125
6570371875.0 0.841796875 -1.1480712890625
6601593750.0 -0.01849365234375 -1.40802001953125
6632815625.0 -0.8421630859375 -1.13848876953125
6664037500.0 -1.406005859375 -0.41973876953125
6695259375.0 -1.3760986328125 0.5692138671875
6726481250.0 -0.71051025390625 1.2548828125
6757703125.0 0.13299560546875 1.4107666015625
6788925000.0 0.95953369140625 1.13250732421875
6820146875.0 1.56353759765625 0.28643798828125
6851368750.0 1.32672119140625 -0.82232666015625
6882590625.0 0.50604248046875 -1.341552734375
6913812500.0 -0.29437255859375 -1.3590087890625
6945034375.0 -1.0731201171875 -1.023193359375
6976256250.0 -1.59600830078125 -0.09112548828125
7007478125.0 -1.23785400390625 0.935791015625
7038700000.0 -0.4013671875 1.34674072265625
7069921875.0 0.36053466796875 1.3271484375
7101143750.0 1.12286376953125 0.97027587890625
7132365625.0 1.6036376953125 0.01275634765625
7163587500.0 1.15814208984375 -1.02532958984375
7194809375.0 0.30181884765625 -1.40155029296875
7226031250.0 -0.5174560546875 -1.33074951171875
7257253125.0 -1.2716064453125 -0.82562255859375
7288475000.0 -1.5621337890625 0.20135498046875
7319696875.0 -1.03167724609375 1.11334228515625
7350918750.0 -0.16351318359375 1.44873046875
7382140625.0 0.720458984375 1.27923583984375
7413362500.0 1.37908935546875 0.576171875
7444584375.0 1.41455078125 -0.41033935546875
7475806250.0 0.85882568359375 -1.14544677734375
7507028125.0 0.004638671875 -1.43182373046875
7538250000.0 -0.8917236328125 -1.1258544921875
7569471875.0 -1.33966064453125 -0.30999755859375
7600693750.0 -1.20416259765625 0.49835205078125
7631915625.0 -0.7186279296875 1.08892822265625
7663137500.0 0.079833984375 1.36083984375
7694359375.0 0.943206787109375 0.9822998046875
7725581250.0 1.24737548828125 0.179931640625
7756803125.0 1.0863037109375 -0.50347900390625
7788025000.0 0.67144775390625 -1.04779052734375
7819246875.0 -0.123046875 -1.3526611328125
7850468750.0 -0.99957275390625 -0.917083740234375
7881690625.0 -1.234375 -0.103271484375
7912912500.0 -1.0572509765625 0.5577392578125
7944134375.0 -0.6046142578125 1.1195068359375
7975356250.0 0.2767333984375 1.3397216796875
8006578125.0 1.0494384765625 0.77880859375
8037800000.0 1.19671630859375 0.01458740234375
8069021875.0 1.00885009765625 -0.62158203125
8100243750.0 0.49908447265625 -1.16680908203125
8131465625.0 -0.39080810546875 -1.25628662109375
8162687500.0 -1.03607177734375 -0.68597412109375
8193909375.0 -1.1822509765625 0.0091552734375
8225131250.0 -1.02056884765625 0.681640625
8256353125.0 -0.41925048828125 1.2564697265625
8287575000.0 0.50543212890625 1.22869873046875
8318796875.0 1.0853271484375 0.63525390625
8350018750.0 1.24969482421875 -0.077392578125
8381240625.0 1.03277587890625 -0.8468017578125
8412462500.0 0.25177001953125 -1.37799072265625
8443684375.0 -0.67266845703125 -1.17120361328125
8474906250.0 -1.1802978515625 -0.5299072265625
8506128125.0 -1.30084228515625 0.24041748046875
8537350000.0 -0.9244384765625 1.051513671875
8568571875.0 -0.0130615234375 1.397705078125
8599793750.0 0.8046875 1.05291748046875
8631015625.0 1.24346923828125 0.39764404296875
8662237500.0 1.287841796875 -0.431640625
8693459375.0 0.7359619140625 -1.18206787109375
8724681250.0 -0.16363525390625 -1.33502197265625
8755903125.0 -0.8843994140625 -0.95965576171875
8787125000.0 -1.309326171875 -0.28076171875
8818346875.0 -1.25408935546875 0.61846923828125
8849568750.0 -0.55670166015625 1.263427734375
8880790625.0 0.30352783203125 1.29010009765625
8912012500.0 0.98468017578125 0.89398193359375
8943234375.0 1.4051513671875 0.12548828125
8974456250.0 1.16741943359375 -0.84490966796875
9005678125.0 0.34619140625 -1.31695556640625
9036900000.0 -0.45050048828125 -1.22705078125
9068121875.0 -1.107421875 -0.78515625
9099343750.0 -1.44464111328125 0.1025390625
9130565625.0 -0.9774169921875 1.0164794921875
9161787500.0 -0.15277099609375 1.2847900390625
9193009375.0 0.5572509765625 1.1353759765625
9224231250.0 1.183349609375 0.65496826171875
9255453125.0 1.404052734375 -0.29962158203125
9286675000.0 0.8067626953125 -1.09014892578125
9317896875.0 0.02496337890625 -1.2503662109375
9349118750.0 -0.6590576171875 -1.07257080078125
9380340625.0 -1.2640380859375 -0.509033203125
9411562500.0 -1.31475830078125 0.4840087890625
9442784375.0 -0.64605712890625 1.1231689453125
9474006250.0 0.09295654296875 1.2144775390625
9505228125.0 0.769134521484375 0.981292724609375
9536450000.0 1.2784423828125 0.31005859375
9567671875.0 1.146240234375 -0.5870361328125
9598893750.0 0.5281982421875 -1.0736083984375
9630115625.0 -0.14666748046875 -1.1607666015625
9661337500.0 -0.82330322265625 -0.902801513671875
9692559375.0 -1.2420654296875 -0.1873779296875
9723781250.0 -1.0439453125 0.60809326171875
9755003125.0 -0.48358154296875 1.05438232421875
9786225000.0 0.20233154296875 1.16253662109375
9817446875.0 0.89935302734375 0.82806396484375
9848668750.0 1.20037841796875 0.0751953125
9879890625.0 0.97021484375 -0.62152099609375
9911112500.0 0.45111083984375 -1.05712890625
9942334375.0 -0.2725830078125 -1.16265869140625
9973556250.0 -0.948272705078125 -0.7371826171875
10004778125.0 -1.1494140625 -0.0128173828125
10036000000.0 -0.945220947265625 0.620880126953125
10067221875.0 -0.4403076171875 1.1015625
10098443750.0 0.3778076171875 1.1839599609375
10129665625.0 1.0079345703125 0.64154052734375
10160887500.0 1.12225341796875 -0.05560302734375
10192109375.0 0.91778564453125 -0.66680908203125
10223331250.0 0.35772705078125 -1.15814208984375
10254553125.0 -0.4923095703125 -1.11474609375
10285775000.0 -0.988739013671875 -0.53387451171875
10316996875.0 -1.06854248046875 0.0789794921875
10348218750.0 -0.901611328125 0.674591064453125
10379440625.0 -0.320556640625 1.17889404296875
10410662500.0 0.53094482421875 1.08660888671875
10441884375.0 0.995330810546875 0.519744873046875
10473106250.0 1.11102294921875 -0.08538818359375
10504328125.0 0.950439453125 -0.76220703125
10535550000.0 0.2352294921875 -1.29986572265625
10566771875.0 -0.6639404296875 -1.07830810546875
10597993750.0 -1.0841064453125 -0.45794677734375
10629215625.0 -1.1771240234375 0.2086181640625
10660437500.0 -0.8868408203125 0.958251953125
10691659375.0 -0.003662109375 1.34027099609375
10722881250.0 0.7891845703125 0.950775146484375
10754103125.0 1.12353515625 0.3223876953125
10785325000.0 1.141357421875 -0.371337890625
10816546875.0 0.699951171875 -1.053466796875
10847768750.0 -0.14874267578125 -1.2313232421875
10878990625.0 -0.80914306640625 -0.843048095703125
10910212500.0 -1.12725830078125 -0.2427978515625
10941434375.0 -1.09954833984375 0.4818115234375
10972656250.0 -0.566162109375 1.0911865234375
11003878125.0 0.2215576171875 1.176513671875
11035100000.0 0.85382080078125 0.821990966796875
11066321875.0 1.22686767578125 0.17047119140625
11097543750.0 1.09979248046875 -0.68218994140625
11128765625.0 0.382568359375 -1.20477294921875
11159987500.0 -0.39947509765625 -1.14117431640625
11191209375.0 -1.00732421875 -0.7015380859375
11222431250.0 -1.2772216796875 0.09954833984375
11253653125.0 -0.856658935546875 0.8994140625
11284875000.0 -0.110107421875 1.13079833984375
11316096875.0 0.516082763671875 0.957427978515625
11347318750.0 1.00787353515625 0.50018310546875
11378540625.0 1.11895751953125 -0.27459716796875
11409762500.0 0.632171630859375 -0.863983154296875
11440984375.0 0.0343017578125 -0.98065185546875
11472206250.0 -0.486236572265625 -0.851470947265625
11503428125.0 -0.9573974609375 -0.45513916015625
11534650000.0 -1.07037353515625 0.293212890625
11565871875.0 -0.5999755859375 0.86004638671875
11597093750.0 -0.0150146484375 0.995452880859375
11628315625.0 0.549407958984375 0.876800537109375
11659537500.0 1.06585693359375 0.389892578125
11690759375.0 1.0657958984375 -0.43939208984375
11721981250.0 0.51507568359375 -0.944793701171875
11753203125.0 -0.1092529296875 -1.03973388671875
11784425000.0 -0.729095458984375 -0.809173583984375
11815646875.0 -1.10589599609375 -0.14544677734375
11846868750.0 -0.891815185546875 0.55767822265625
11878090625.0 -0.38922119140625 0.912353515625
11909312500.0 0.191314697265625 0.987548828125
11940534375.0 0.78570556640625 0.694580078125
11971756250.0 1.02783203125 0.03436279296875
12002978125.0 0.806854248046875 -0.54180908203125
12034200000.0 0.37969970703125 -0.89306640625
12065421875.0 -0.220458984375 -1.012939453125
12096643750.0 -0.854644775390625 -0.66302490234375
12127865625.0 -1.03607177734375 0.02069091796875
12159087500.0 -0.815032958984375 0.5804443359375
12190309375.0 -0.37396240234375 0.98114013671875
12221531250.0 0.3465576171875 1.091796875
12252753125.0 0.986053466796875 0.578369140625
12283975000.0 1.05584716796875 -0.132568359375
12315196875.0 0.800262451171875 -0.680908203125
12346418750.0 0.277587890625 -1.09613037109375
12377640625.0 -0.54486083984375 -1.060791015625
12408862500.0 -1.03759765625 -0.41534423828125
12440084375.0 -1.00970458984375 0.22906494140625
12471306250.0 -0.7423095703125 0.7410888671875
12502528125.0 -0.17584228515625 1.1243896484375
12533750000.0 0.62835693359375 0.99432373046875
12564971875.0 1.04443359375 0.36083984375
12596193750.0 1.0316162109375 -0.26861572265625
12627415625.0 0.748809814453125 -0.83551025390625
12658637500.0 0.0733642578125 -1.21356201171875
12689859375.0 -0.741912841796875 -0.966033935546875
12721081250.0 -1.11962890625 -0.302978515625
12752303125.0 -1.10040283203125 0.38775634765625
12783525000.0 -0.68511962890625 1.035400390625
12814746875.0 0.170166015625 1.25274658203125
12845968750.0 0.869232177734375 0.808990478515625
12877190625.0 1.12158203125 0.167724609375
12908412500.0 1.05731201171875 -0.50885009765625
12939634375.0 0.53924560546875 -1.1226806640625
12970856250.0 -0.3292236328125 -1.17645263671875
13002078125.0 -0.9007568359375 -0.691253662109375
13033300000.0 -1.10919189453125 -0.083251953125
13064521875.0 -1.01025390625 0.6005859375
13095743750.0 -0.414794921875 1.16119384765625
13126965625.0 0.41510009765625 1.12115478515625
13158187500.0 0.952728271484375 0.629302978515625
13189409375.0 1.15203857421875 -0.02484130859375
13220631250.0 0.93621826171875 -0.754150390625
13251853125.0 0.2291259765625 -1.17767333984375
13283075000.0 -0.5159912109375 -1.02130126953125
13314296875.0 -0.99237060546875 -0.52691650390625
13345518750.0 -1.1375732421875 0.1822509765625
