!Created with skrf (http://scikit-rf.org).
# Hz S RI R 50.0 
!freq ReS11 ImS11
45000000.0 -0.07692718505859375 -0.0967559814453125
76221875.0 -0.19625091552734375 -0.04747772216796875
107443750.0 -0.2546234130859375 0.1195831298828125
138665625.0 -0.14813232421875 0.328094482421875
169887500.0 0.1234588623046875 0.417205810546875
201109375.0 0.4215850830078125 0.2806549072265625
232331250.0 0.57843017578125 -0.057464599609375
263553125.0 0.4891357421875 -0.452545166015625
294775000.0 0.09857177734375 -0.73187255859375
325996875.0 -0.41497802734375 -0.679718017578125
357218750.0 -0.80535888671875 -0.296844482421875
388440625.0 -0.884735107421875 0.300140380859375
419662500.0 -0.5166015625 0.8651123046875
450884375.0 0.1727294921875 1.02789306640625
482106250.0 0.797637939453125 0.71185302734375
513328125.0 1.1182861328125 0.0872802734375
544550000.0 1.0028076171875 -0.6790771484375
575771875.0 0.3360595703125 -1.23687744140625
606993750.0 -0.55316162109375 -1.17620849609375
638215625.0 -1.16448974609375 -0.58984375
669437500.0 -1.33843994140625 0.23333740234375
700659375.0 -0.969970703125 1.0950927734375
731881250.0 -0.003662109375 1.54150390625
763103125.0 1.004638671875 1.15472412109375
794325000.0 1.46685791015625 0.28143310546875
825546875.0 1.36572265625 -0.65081787109375
856768750.0 0.7935791015625 -1.39886474609375
887990625.0 -0.29193115234375 -1.64605712890625
919212500.0 -1.28607177734375 -1.0772705078125
950434375.0 -1.64617919921875 -0.05914306640625
981656250.0 -1.3804931640625 0.944091796875
1012878125.0 -0.529052734375 1.6693115234375
1044100000.0 0.69580078125 1.6593017578125
1075321875.0 1.572021484375 0.81109619140625
1106543750.0 1.70208740234375 -0.31195068359375
1137765625.0 1.18475341796875 -1.28192138671875
1168987500.0 0.13800048828125 -1.79461669921875
1200209375.0 -1.060302734375 -1.4814453125
1231431250.0 -1.72467041015625 -0.45306396484375
1262653125.0 -1.591552734375 0.683349609375
1293875000.0 -0.8509521484375 1.48883056640625
1325096875.0 0.22796630859375 1.7041015625
1356318750.0 1.2332763671875 1.2149658203125
1387540625.0 1.7374267578125 0.1884765625
1418762500.0 1.4671630859375 -0.94989013671875
1449984375.0 0.5284423828125 -1.62322998046875
1481206250.0 -0.54901123046875 -1.55364990234375
1512428125.0 -1.339599609375 -0.91827392578125
1543650000.0 -1.653076171875 0.06494140625
1574871875.0 -1.27178955078125 1.10711669921875
1606093750.0 -0.27264404296875 1.62908935546875
1637315625.0 0.74053955078125 1.3980712890625
1668537500.0 1.3941650390625 0.69482421875
1699759375.0 1.5706787109375 -0.27655029296875
1730981250.0 1.0626220703125 -1.227294921875
1762203125.0 0.042236328125 -1.56805419921875
1793425000.0 -0.8548583984375 -1.22479248046875
1824646875.0 -1.39166259765625 -0.5145263671875
1855868750.0 -1.47216796875 0.43194580078125
1887090625.0 -0.8736572265625 1.282958984375
1918312500.0 0.1168212890625 1.48443603515625
1949534375.0 0.92010498046875 1.08746337890625
1980756250.0 1.37286376953125 0.36956787109375
2011978125.0 1.35784912109375 -0.5306396484375
2043200000.0 0.7490234375 -1.25933837890625
2074421875.0 -0.15625 -1.430908203125
2105643750.0 -0.958740234375 -1.0709228515625
2136865625.0 -1.44476318359375 -0.30462646484375
2168087500.0 -1.35516357421875 0.669677734375
2199309375.0 -0.63836669921875 1.34930419921875
2230531250.0 0.281005859375 1.4337158203125
2261753125.0 1.07061767578125 1.012451171875
2292975000.0 1.5125732421875 0.16986083984375
2324196875.0 1.30352783203125 -0.81756591796875
2355418750.0 0.524658203125 -1.41748046875
2386640625.0 -0.40362548828125 -1.4466552734375
2417862500.0 -1.17950439453125 -1.02276611328125
2449084375.0 -1.60107421875 -0.0849609375
2480306250.0 -1.30926513671875 0.923583984375
2511528125.0 -0.4937744140625 1.50384521484375
2542750000.0 0.48724365234375 1.532958984375
2573971875.0 1.36846923828125 0.9666748046875
2605193750.0 1.71343994140625 -0.1114501953125
2636415625.0 1.25958251953125 -1.15020751953125
2667637500.0 0.30596923828125 -1.66412353515625
2698859375.0 -0.7672119140625 -1.53118896484375
2730081250.0 -1.57110595703125 -0.73944091796875
2761303125.0 -1.677734375 0.38641357421875
2792525000.0 -1.09796142578125 1.30364990234375
2823746875.0 -0.103515625 1.7249755859375
2854968750.0 1.00860595703125 1.45263671875
2886190625.0 1.68756103515625 0.49151611328125
2917412500.0 1.59661865234375 -0.61572265625
2948634375.0 0.93756103515625 -1.4300537109375
2979856250.0 -0.10693359375 -1.7720947265625
3011078125.0 -1.2451171875 -1.34014892578125
3042300000.0 -1.772216796875 -0.23480224609375
3073521875.0 -1.5054931640625 0.8348388671875
3104743750.0 -0.76214599609375 1.56585693359375
3135965625.0 0.36083984375 1.8056640625
3167187500.0 1.495849609375 1.161865234375
3198409375.0 1.81219482421875 -0.07452392578125
3229631250.0 1.3460693359375 -1.07952880859375
3260853125.0 0.48785400390625 -1.66534423828125
3292075000.0 -0.65301513671875 -1.6944580078125
3323296875.0 -1.615234375 -0.8782958984375
3354518750.0 -1.72698974609375 0.32769775390625
3385740625.0 -1.153564453125 1.22869873046875
3416962500.0 -0.2315673828125 1.677001953125
3448184375.0 0.8583984375 1.51849365234375
3479406250.0 1.630615234375 0.64398193359375
3510628125.0 1.6405029296875 -0.4932861328125
3541850000.0 0.9986572265625 -1.352783203125
3573071875.0 -0.0074462890625 -1.6785888671875
3604293750.0 -1.02447509765625 -1.3341064453125
3635515625.0 -1.6240234375 -0.4381103515625
3666737500.0 -1.558349609375 0.64373779296875
3697959375.0 -0.8232421875 1.474365234375
3729181250.0 0.26708984375 1.627685546875
3760403125.0 1.14923095703125 1.09539794921875
3791625000.0 1.54888916015625 0.2178955078125
3822846875.0 1.3985595703125 -0.7581787109375
3854068750.0 0.61956787109375 -1.47686767578125
3885290625.0 -0.41998291015625 -1.4783935546875
3916512500.0 -1.13916015625 -0.91009521484375
3947734375.0 -1.4439697265625 -0.120361328125
3978956250.0 -1.294921875 0.7769775390625
4010178125.0 -0.53082275390625 1.451416015625
4041400000.0 0.4720458984375 1.413330078125
4072621875.0 1.14959716796875 0.84649658203125
4103843750.0 1.4420166015625 0.06402587890625
4135065625.0 1.265625 -0.84393310546875
4166287500.0 0.4576416015625 -1.49237060546875
4197509375.0 -0.55572509765625 -1.41253662109375
4228731250.0 -1.2451171875 -0.80120849609375
4259953125.0 -1.50567626953125 0.070068359375
4291175000.0 -1.1864013671875 1.00787353515625
4322396875.0 -0.28912353515625 1.52349853515625
4353618750.0 0.670654296875 1.34710693359375
4384840625.0 1.31988525390625 0.69622802734375
4416062500.0 1.4974365234375 -0.22607421875
4447284375.0 1.05377197265625 -1.1014404296875
4478506250.0 0.17236328125 -1.49267578125
4509728125.0 -0.73101806640625 -1.3057861328125
4540950000.0 -1.39007568359375 -0.635986328125
4572171875.0 -1.520263671875 0.35870361328125
4603393750.0 -0.9713134765625 1.21026611328125
4634615625.0 -0.06201171875 1.53436279296875
4665837500.0 0.86883544921875 1.3023681640625
4697059375.0 1.5377197265625 0.514892578125
4728281250.0 1.52685546875 -0.5811767578125
4759503125.0 0.82232666015625 -1.3631591796875
4790725000.0 -0.14447021484375 -1.5694580078125
4821946875.0 -1.0816650390625 -1.1922607421875
4853168750.0 -1.61102294921875 -0.25079345703125
4884390625.0 -1.37542724609375 0.79022216796875
4915612500.0 -0.613037109375 1.41070556640625
4946834375.0 0.32781982421875 1.50714111328125
4978056250.0 1.20220947265625 1.0157470703125
5009278125.0 1.55841064453125 0.0408935546875
5040500000.0 1.22747802734375 -0.874267578125
5071721875.0 0.50140380859375 -1.411376953125
5102943750.0 -0.4454345703125 -1.4952392578125
5134165625.0 -1.33221435546875 -0.90460205078125
5165387500.0 -1.564697265625 0.14453125
5196609375.0 -1.13427734375 1.00714111328125
5227831250.0 -0.35760498046875 1.5040283203125
5259053125.0 0.68646240234375 1.49017333984375
5290275000.0 1.5186767578125 0.6619873046875
5321496875.0 1.49029541015625 -0.4298095703125
5352718750.0 0.91943359375 -1.15057373046875
5383940625.0 0.09716796875 -1.49713134765625
5415162500.0 -0.899169921875 -1.2823486328125
5446384375.0 -1.48162841796875 -0.3702392578125
5477606250.0 -1.296875 0.56439208984375
5508828125.0 -0.73046875 1.14892578125
5540050000.0 0.0533447265625 1.39581298828125
5571271875.0 0.93792724609375 1.10736083984375
5602493750.0 1.40618896484375 0.26025390625
5633715625.0 1.23046875 -0.61138916015625
5664937500.0 0.6474609375 -1.199951171875
5696159375.0 -0.196044921875 -1.3809814453125
5727381250.0 -1.01934814453125 -0.9774169921875
5758603125.0 -1.38836669921875 -0.14605712890625
5789825000.0 -1.19268798828125 0.71746826171875
5821046875.0 -0.50579833984375 1.304931640625
5852268750.0 0.41094970703125 1.311279296875
5883490625.0 1.06903076171875 0.77117919921875
5914712500.0 1.301025390625 0.0196533203125
5945934375.0 1.09515380859375 -0.77392578125
5977156250.0 0.36114501953125 -1.30987548828125
6008378125.0 -0.508544921875 -1.180419921875
6039600000.0 -1.02008056640625 -0.64898681640625
6070821875.0 -1.22198486328125 -0.0045166015625
6102043750.0 -1.08209228515625 0.76165771484375
6133265625.0 -0.341552734375 1.34307861328125
6164487500.0 0.5618896484375 1.1859130859375
6195709375.0 1.06915283203125 0.62945556640625
6226931250.0 1.27789306640625 -0.04180908203125
6258153125.0 1.10302734375 -0.8695068359375
6289375000.0 0.25604248046875 -1.4437255859375
6320596875.0 -0.687744140625 -1.20440673828125
6351818750.0 -1.19866943359375 -0.57159423828125
6383040625.0 -1.35260009765625 0.20562744140625
6414262500.0 -0.99853515625 1.055908203125
6445484375.0 -0.078857421875 1.45513916015625
6476706250.0 0.794921875 1.14666748046875
6507928125.0 1.2882080078125 0.4700927734375
6539150000.0 1.34576416015625 -0.38525390625
6570371875.0 0.84051513671875 -1.1414794921875
6601593750.0 -0.01617431640625 -1.40203857421875
6632815625.0 -0.837890625 -1.13525390625
6664037500.0 -1.399169921875 -0.4197998046875
6695259375.0 -1.37213134765625 0.56500244140625
6726481250.0 -0.709716796875 1.24957275390625
6757703125.0 0.1295166015625 1.40478515625
6788925000.0 0.95404052734375 1.1297607421875
6820146875.0 1.55865478515625 0.2882080078125
6851368750.0 1.3240966796875 -0.81732177734375
6882590625.0 0.50567626953125 -1.33697509765625
6913812500.0 -0.29046630859375 -1.35443115234375
6945034375.0 -1.06817626953125 -1.0205078125
6976256250.0 -1.58917236328125 -0.09478759765625
7007478125.0 -1.23370361328125 0.9302978515625
7038700000.0 -0.40338134765625 1.34033203125
7069921875.0 0.35791015625 1.32049560546875
7101143750.0 1.11676025390625 0.96746826171875
7132365625.0 1.59637451171875 0.0164794921875
7163587500.0 1.15625 -1.01947021484375
7194809375.0 0.302490234375 -1.39520263671875
7226031250.0 -0.5101318359375 -1.323486328125
7257253125.0 -1.26470947265625 -0.82391357421875
7288475000.0 -1.55487060546875 0.19561767578125
7319696875.0 -1.028564453125 1.1090087890625
7350918750.0 -0.16448974609375 1.44232177734375
7382140625.0 0.71240234375 1.27459716796875
7413362500.0 1.37548828125 0.575927734375
7444584375.0 1.409423828125 -0.40673828125
7475806250.0 0.8564453125 -1.14154052734375
7507028125.0 0.0081787109375 -1.4261474609375
7538250000.0 -0.884033203125 -1.12255859375
7569471875.0 -1.33428955078125 -0.312255859375
7600693750.0 -1.2012939453125 0.495849609375
7631915625.0 -0.717529296875 1.081787109375
7663137500.0 0.08001708984375 1.357421875
7694359375.0 0.93731689453125 0.979095458984375
7725581250.0 1.24102783203125 0.1806640625
7756803125.0 1.0809326171875 -0.49713134765625
7788025000.0 0.66949462890625 -1.0413818359375
7819246875.0 -0.11962890625 -1.3455810546875
7850468750.0 -0.991485595703125 -0.91510009765625
7881690625.0 -1.22918701171875 -0.1051025390625
7912912500.0 -1.052490234375 0.5513916015625
7944134375.0 -0.60552978515625 1.1114501953125
7975356250.0 0.27099609375 1.333251953125
8006578125.0 1.044189453125 0.778564453125
8037800000.0 1.1898193359375 0.01763916015625
8069021875.0 1.00634765625 -0.618408203125
8100243750.0 0.5001220703125 -1.15826416015625
8131465625.0 -0.3873291015625 -1.2535400390625
8162687500.0 -1.0294189453125 -0.68560791015625
8193909375.0 -1.17913818359375 0.008544921875
8225131250.0 -1.01629638671875 0.6756591796875
8256353125.0 -0.4222412109375 1.2449951171875
8287575000.0 0.50128173828125 1.2254638671875
8318796875.0 1.07977294921875 0.6357421875
8350018750.0 1.24169921875 -0.0736083984375
8381240625.0 1.0308837890625 -0.836669921875
8412462500.0 0.25445556640625 -1.3717041015625
8443684375.0 -0.6678466796875 -1.1690673828125
8474906250.0 -1.1732177734375 -0.53265380859375
8506128125.0 -1.296875 0.23614501953125
8537350000.0 -0.92352294921875 1.046142578125
8568571875.0 -0.01605224609375 1.39312744140625
8599793750.0 0.799560546875 1.0523681640625
8631015625.0 1.2401123046875 0.39813232421875
8662237500.0 1.28460693359375 -0.4285888671875
8693459375.0 0.7357177734375 -1.17437744140625
8724681250.0 -0.16119384765625 -1.33056640625
8755903125.0 -0.87860107421875 -0.956787109375
8787125000.0 -1.30108642578125 -0.28253173828125
8818346875.0 -1.2501220703125 0.61395263671875
8849568750.0 -0.5572509765625 1.25933837890625
8880790625.0 0.2974853515625 1.28240966796875
8912012500.0 0.978515625 0.891876220703125
8943234375.0 1.3975830078125 0.12939453125
8974456250.0 1.16510009765625 -0.8370361328125
9005678125.0 0.3492431640625 -1.310546875
9036900000.0 -0.445068359375 -1.22369384765625
9068121875.0 -1.1005859375 -0.78564453125
9099343750.0 -1.44000244140625 0.096435546875
9130565625.0 -0.97857666015625 1.01129150390625
9161787500.0 -0.15484619140625 1.28143310546875
9193009375.0 0.55499267578125 1.1328125
9224231250.0 1.1767578125 0.65472412109375
9255453125.0 1.3980712890625 -0.2950439453125
9286675000.0 0.80706787109375 -1.083251953125
9317896875.0 0.027099609375 -1.24493408203125
9349118750.0 -0.6522216796875 -1.06890869140625
9380340625.0 -1.2564697265625 -0.50897216796875
9411562500.0 -1.31085205078125 0.474853515625
9442784375.0 -0.64892578125 1.1142578125
9474006250.0 0.08770751953125 1.20904541015625
9505228125.0 0.763214111328125 0.978973388671875
9536450000.0 1.27154541015625 0.31390380859375
9567671875.0 1.14337158203125 -0.580322265625
9598893750.0 0.5296630859375 -1.067138671875
9630115625.0 -0.1429443359375 -1.157470703125
9661337500.0 -0.81744384765625 -0.90234375
9692559375.0 -1.23675537109375 -0.191650390625
9723781250.0 -1.0430908203125 0.6019287109375
9755003125.0 -0.48626708984375 1.04913330078125
9786225000.0 0.1968994140625 1.1578369140625
9817446875.0 0.893646240234375 0.827056884765625
9848668750.0 1.1971435546875 0.07830810546875
9879890625.0 0.96734619140625 -0.615570068359375
9911112500.0 0.45184326171875 -1.051513671875
9942334375.0 -0.2657470703125 -1.1571044921875
9973556250.0 -0.94146728515625 -0.73834228515625
10004778125.0 -1.14501953125 -0.01885986328125
10036000000.0 -0.943603515625 0.6141357421875
10067221875.0 -0.44171142578125 1.0936279296875
10098443750.0 0.367919921875 1.17913818359375
10129665625.0 1.00286865234375 0.64263916015625
10160887500.0 1.1197509765625 -0.05084228515625
10192109375.0 0.9171142578125 -0.66162109375
10223331250.0 0.36053466796875 -1.1531982421875
10254553125.0 -0.48529052734375 -1.11328125
10285775000.0 -0.98370361328125 -0.5352783203125
10316996875.0 -1.06744384765625 0.0760498046875
10348218750.0 -0.8995361328125 0.669342041015625
10379440625.0 -0.3228759765625 1.17364501953125
10410662500.0 0.527587890625 1.0849609375
10441884375.0 0.991119384765625 0.522613525390625
10473106250.0 1.10736083984375 -0.08294677734375
10504328125.0 0.948333740234375 -0.755645751953125
10535550000.0 0.2413330078125 -1.293212890625
10566771875.0 -0.657470703125 -1.076171875
10597993750.0 -1.08013916015625 -0.45916748046875
10629215625.0 -1.17327880859375 0.20489501953125
10660437500.0 -0.88714599609375 0.949920654296875
10691659375.0 -0.0108642578125 1.333740234375
10722881250.0 0.7840576171875 0.951629638671875
10754103125.0 1.11785888671875 0.32525634765625
10785325000.0 1.1390380859375 -0.3660888671875
10816546875.0 0.70025634765625 -1.04736328125
10847768750.0 -0.1441650390625 -1.228271484375
10878990625.0 -0.801727294921875 -0.843292236328125
10910212500.0 -1.121826171875 -0.24560546875
10941434375.0 -1.09613037109375 0.47454833984375
10972656250.0 -0.56756591796875 1.08380126953125
11003878125.0 0.21588134765625 1.17340087890625
11035100000.0 0.8468017578125 0.822540283203125
11066321875.0 1.2203369140625 0.17388916015625
11097543750.0 1.09735107421875 -0.67486572265625
11128765625.0 0.3856201171875 -1.1978759765625
11159987500.0 -0.39453125 -1.13800048828125
11191209375.0 -0.99896240234375 -0.70172119140625
11222431250.0 -1.27166748046875 0.0927734375
11253653125.0 -0.85809326171875 0.895172119140625
11284875000.0 -0.115234375 1.1253662109375
11316096875.0 0.50958251953125 0.955810546875
11347318750.0 1.00091552734375 0.50262451171875
11378540625.0 1.1165771484375 -0.26763916015625
11409762500.0 0.634185791015625 -0.8590087890625
11440984375.0 0.036407470703125 -0.977264404296875
11472206250.0 -0.4791259765625 -0.849334716796875
11503428125.0 -0.95111083984375 -0.455810546875
11534650000.0 -1.067626953125 0.28472900390625
11565871875.0 -0.602752685546875 0.852569580078125
11597093750.0 -0.019561767578125 0.990264892578125
11628315625.0 0.54327392578125 0.875244140625
11659537500.0 1.05938720703125 0.39178466796875
11690759375.0 1.06427001953125 -0.4326171875
11721981250.0 0.5164794921875 -0.939300537109375
11753203125.0 -0.104736328125 -1.03533935546875
11784425000.0 -0.72314453125 -0.807647705078125
11815646875.0 -1.099853515625 -0.15179443359375
11846868750.0 -0.889801025390625 0.55035400390625
11878090625.0 -0.39093017578125 0.908966064453125
11909312500.0 0.185791015625 0.983612060546875
11940534375.0 0.780426025390625 0.69488525390625
11971756250.0 1.0233154296875 0.04156494140625
12002978125.0 0.806243896484375 -0.5362548828125
12034200000.0 0.3829345703125 -0.886627197265625
12065421875.0 -0.21539306640625 -1.00982666015625
12096643750.0 -0.84735107421875 -0.665924072265625
12127865625.0 -1.03369140625 0.0169677734375
12159087500.0 -0.814239501953125 0.573974609375
12190309375.0 -0.377410888671875 0.972747802734375
12221531250.0 0.3385009765625 1.0869140625
12252753125.0 0.97808837890625 0.5831298828125
12283975000.0 1.053466796875 -0.12823486328125
12315196875.0 0.799957275390625 -0.67596435546875
12346418750.0 0.28076171875 -1.090087890625
12377640625.0 -0.53741455078125 -1.06011962890625
12408862500.0 -1.03375244140625 -0.41961669921875
12440084375.0 -1.00750732421875 0.2239990234375
12471306250.0 -0.741424560546875 0.7362060546875
12502528125.0 -0.18035888671875 1.11993408203125
12533750000.0 0.618804931640625 0.992767333984375
12564971875.0 1.04168701171875 0.3641357421875
12596193750.0 1.02886962890625 -0.26324462890625
12627415625.0 0.747772216796875 -0.828948974609375
12658637500.0 0.0791015625 -1.20623779296875
12689859375.0 -0.7353515625 -0.96636962890625
12721081250.0 -1.11737060546875 -0.3048095703125
12752303125.0 -1.0958251953125 0.38067626953125
12783525000.0 -0.6866455078125 1.02459716796875
12814746875.0 0.16400146484375 1.2491455078125
12845968750.0 0.86126708984375 0.810791015625
12877190625.0 1.11614990234375 0.1734619140625
12908412500.0 1.0552978515625 -0.501220703125
12939634375.0 0.5430908203125 -1.115966796875
12970856250.0 -0.31927490234375 -1.1739501953125
13002078125.0 -0.893218994140625 -0.6934814453125
13033300000.0 -1.103515625 -0.08807373046875
13064521875.0 -1.00946044921875 0.5928955078125
13095743750.0 -0.420166015625 1.15411376953125
13126965625.0 0.40814208984375 1.11993408203125
13158187500.0 0.946258544921875 0.631134033203125
13189409375.0 1.1483154296875 -0.02191162109375
13220631250.0 0.935516357421875 -0.74664306640625
13251853125.0 0.23431396484375 -1.1697998046875
13283075000.0 -0.5067138671875 -1.01971435546875
13314296875.0 -0.985992431640625 -0.529144287109375
13345518750.0 -1.13519287109375 0.17706298828125
13376740625.0 -0.752288818359375 0.85540771484375
