!Created with skrf (http://scikit-rf.org).
# Hz S RI R 50.0 
!freq ReS11 ImS11
45000000.0 -0.07724761962890625 -0.09679412841796875
76221875.0 -0.19732666015625 -0.0476226806640625
107443750.0 -0.256072998046875 0.1204681396484375
138665625.0 -0.1486663818359375 0.329925537109375
169887500.0 0.1239776611328125 0.418914794921875
201109375.0 0.4232177734375 0.2822113037109375
232331250.0 0.581207275390625 -0.057586669921875
263553125.0 0.4915771484375 -0.4549407958984375
294775000.0 0.0987548828125 -0.7357177734375
325996875.0 -0.41754150390625 -0.684051513671875
357218750.0 -0.810546875 -0.298614501953125
388440625.0 -0.890167236328125 0.30224609375
419662500.0 -0.519775390625 0.87042236328125
450884375.0 0.1737060546875 1.0333251953125
482106250.0 0.80181884765625 0.71588134765625
513328125.0 1.12408447265625 0.08746337890625
544550000.0 1.00738525390625 -0.6827392578125
575771875.0 0.3380126953125 -1.2423095703125
606993750.0 -0.55548095703125 -1.18170166015625
638215625.0 -1.1700439453125 -0.5931396484375
669437500.0 -1.34478759765625 0.23406982421875
700659375.0 -0.97467041015625 1.099609375
731881250.0 -0.00469970703125 1.54815673828125
763103125.0 1.00836181640625 1.16058349609375
794325000.0 1.47430419921875 0.28375244140625
825546875.0 1.37261962890625 -0.65338134765625
856768750.0 0.797607421875 -1.40753173828125
887990625.0 -0.29437255859375 -1.655517578125
919212500.0 -1.294189453125 -1.08392333984375
950434375.0 -1.6568603515625 -0.05902099609375
981656250.0 -1.3890380859375 0.9508056640625
1012878125.0 -0.531494140625 1.68109130859375
1044100000.0 0.70050048828125 1.66986083984375
1075321875.0 1.583251953125 0.81585693359375
1106543750.0 1.7130126953125 -0.31512451171875
1137765625.0 1.19207763671875 -1.29010009765625
1168987500.0 0.138916015625 -1.8056640625
1200209375.0 -1.066650390625 -1.49090576171875
1231431250.0 -1.73590087890625 -0.4554443359375
1262653125.0 -1.60076904296875 0.68804931640625
1293875000.0 -0.85516357421875 1.49798583984375
1325096875.0 0.2288818359375 1.7139892578125
1356318750.0 1.239990234375 1.2225341796875
1387540625.0 1.7476806640625 0.19012451171875
1418762500.0 1.47576904296875 -0.9547119140625
1449984375.0 0.5318603515625 -1.63348388671875
1481206250.0 -0.55224609375 -1.56298828125
1512428125.0 -1.347900390625 -0.92376708984375
1543650000.0 -1.66290283203125 0.06591796875
1574871875.0 -1.27825927734375 1.11383056640625
1606093750.0 -0.2734375 1.63787841796875
1637315625.0 0.74530029296875 1.40618896484375
1668537500.0 1.40167236328125 0.69842529296875
1699759375.0 1.5791015625 -0.27862548828125
1730981250.0 1.0677490234375 -1.234130859375
1762203125.0 0.04217529296875 -1.5760498046875
1793425000.0 -0.858642578125 -1.23101806640625
1824646875.0 -1.39801025390625 -0.517333984375
1855868750.0 -1.47967529296875 0.43316650390625
1887090625.0 -0.8790283203125 1.29052734375
1918312500.0 0.1173095703125 1.49310302734375
1949534375.0 0.92523193359375 1.09368896484375
1980756250.0 1.380615234375 0.3714599609375
2011978125.0 1.364990234375 -0.5340576171875
2043200000.0 0.752685546875 -1.26654052734375
2074421875.0 -0.15789794921875 -1.43865966796875
2105643750.0 -0.9639892578125 -1.0765380859375
2136865625.0 -1.4525146484375 -0.3060302734375
2168087500.0 -1.3619384765625 0.67333984375
2199309375.0 -0.64129638671875 1.35626220703125
2230531250.0 0.28302001953125 1.4415283203125
2261753125.0 1.07635498046875 1.0174560546875
2292975000.0 1.51971435546875 0.1708984375
2324196875.0 1.309814453125 -0.8212890625
2355418750.0 0.52740478515625 -1.42449951171875
2386640625.0 -0.40570068359375 -1.4539794921875
2417862500.0 -1.188232421875 -1.02838134765625
2449084375.0 -1.6121826171875 -0.08349609375
2480306250.0 -1.31640625 0.9300537109375
2511528125.0 -0.49481201171875 1.51470947265625
2542750000.0 0.49163818359375 1.542236328125
2573971875.0 1.3782958984375 0.97186279296875
2605193750.0 1.7261962890625 -0.11456298828125
2636415625.0 1.266357421875 -1.158935546875
2667637500.0 0.307373046875 -1.67431640625
2698859375.0 -0.77313232421875 -1.54052734375
2730081250.0 -1.58050537109375 -0.74310302734375
2761303125.0 -1.68890380859375 0.39141845703125
2792525000.0 -1.10369873046875 1.31298828125
2823746875.0 -0.10101318359375 1.73760986328125
2854968750.0 1.017822265625 1.46185302734375
2886190625.0 1.69952392578125 0.49322509765625
2917412500.0 1.607666015625 -0.62176513671875
2948634375.0 0.94281005859375 -1.44207763671875
2979856250.0 -0.1094970703125 -1.78399658203125
3011078125.0 -1.2545166015625 -1.34674072265625
3042300000.0 -1.7828369140625 -0.2344970703125
3073521875.0 -1.51385498046875 0.84149169921875
3104743750.0 -0.76580810546875 1.5762939453125
3135965625.0 0.36492919921875 1.8170166015625
3167187500.0 1.50689697265625 1.1685791015625
3198409375.0 1.82403564453125 -0.07684326171875
3229631250.0 1.3543701171875 -1.08642578125
3260853125.0 0.48980712890625 -1.6766357421875
3292075000.0 -0.6590576171875 -1.7047119140625
3323296875.0 -1.6278076171875 -0.8818359375
3354518750.0 -1.73651123046875 0.33026123046875
3385740625.0 -1.15948486328125 1.23779296875
3416962500.0 -0.23089599609375 1.689697265625
3448184375.0 0.8641357421875 1.5274658203125
3479406250.0 1.6435546875 0.6458740234375
3510628125.0 1.65069580078125 -0.4979248046875
3541850000.0 1.00347900390625 -1.3616943359375
3573071875.0 -0.00885009765625 -1.68914794921875
3604293750.0 -1.03240966796875 -1.34210205078125
3635515625.0 -1.63482666015625 -0.4393310546875
3666737500.0 -1.56793212890625 0.65106201171875
3697959375.0 -0.82818603515625 1.48272705078125
3729181250.0 0.2696533203125 1.636962890625
3760403125.0 1.158203125 1.102294921875
3791625000.0 1.55889892578125 0.2178955078125
3822846875.0 1.40789794921875 -0.76519775390625
3854068750.0 0.621826171875 -1.48809814453125
3885290625.0 -0.42303466796875 -1.48651123046875
3916512500.0 -1.14678955078125 -0.9140625
3947734375.0 -1.45367431640625 -0.11981201171875
3978956250.0 -1.302734375 0.78375244140625
4010178125.0 -0.53265380859375 1.46063232421875
4041400000.0 0.47601318359375 1.42047119140625
4072621875.0 1.1568603515625 0.84967041015625
4103843750.0 1.449462890625 0.062744140625
4135065625.0 1.27203369140625 -0.8505859375
4166287500.0 0.4581298828125 -1.5015869140625
4197509375.0 -0.56024169921875 -1.41943359375
4228731250.0 -1.2530517578125 -0.8045654296875
4259953125.0 -1.51373291015625 0.07196044921875
4291175000.0 -1.19207763671875 1.01519775390625
4322396875.0 -0.2889404296875 1.5333251953125
4353618750.0 0.67633056640625 1.35430908203125
4384840625.0 1.32855224609375 0.698486328125
4416062500.0 1.50616455078125 -0.23004150390625
4447284375.0 1.0579833984375 -1.10858154296875
4478506250.0 0.171875 -1.5009765625
4509728125.0 -0.736083984375 -1.3121337890625
4540950000.0 -1.3995361328125 -0.6375732421875
4572171875.0 -1.52734375 0.36181640625
4603393750.0 -0.97454833984375 1.218017578125
4634615625.0 -0.060302734375 1.5423583984375
4665837500.0 0.87445068359375 1.3087158203125
4697059375.0 1.5487060546875 0.5157470703125
4728281250.0 1.534423828125 -0.58599853515625
4759503125.0 0.824462890625 -1.37298583984375
4790725000.0 -0.1474609375 -1.57843017578125
4821946875.0 -1.089111328125 -1.197998046875
4853168750.0 -1.621337890625 -0.250244140625
4884390625.0 -1.38262939453125 0.7977294921875
4915612500.0 -0.61395263671875 1.41796875
4946834375.0 0.33123779296875 1.51446533203125
4978056250.0 1.2105712890625 1.0198974609375
5009278125.0 1.56732177734375 0.0384521484375
5040500000.0 1.2330322265625 -0.87945556640625
5071721875.0 0.502197265625 -1.4202880859375
5102943750.0 -0.44952392578125 -1.5025634765625
5134165625.0 -1.34210205078125 -0.90777587890625
5165387500.0 -1.57373046875 0.1478271484375
5196609375.0 -1.1397705078125 1.0146484375
5227831250.0 -0.35791015625 1.5125732421875
5259053125.0 0.69158935546875 1.49786376953125
5290275000.0 1.52764892578125 0.66412353515625
5321496875.0 1.49700927734375 -0.43243408203125
5352718750.0 0.92327880859375 -1.15869140625
5383940625.0 0.09466552734375 -1.50689697265625
5415162500.0 -0.90625 -1.2884521484375
5446384375.0 -1.49029541015625 -0.3702392578125
5477606250.0 -1.3037109375 0.5701904296875
5508828125.0 -0.73345947265625 1.15533447265625
5540050000.0 0.0560302734375 1.40399169921875
5571271875.0 0.942626953125 1.11248779296875
5602493750.0 1.41412353515625 0.25958251953125
5633715625.0 1.23590087890625 -0.61590576171875
5664937500.0 0.6497802734375 -1.205810546875
5696159375.0 -0.198974609375 -1.38934326171875
5727381250.0 -1.02642822265625 -0.98199462890625
5758603125.0 -1.39691162109375 -0.144287109375
5789825000.0 -1.19842529296875 0.7220458984375
5821046875.0 -0.507568359375 1.31317138671875
5852268750.0 0.4136962890625 1.317626953125
5883490625.0 1.076416015625 0.77374267578125
5914712500.0 1.307861328125 0.01824951171875
5945934375.0 1.09930419921875 -0.7796630859375
5977156250.0 0.36065673828125 -1.31866455078125
6008378125.0 -0.51275634765625 -1.18621826171875
6039600000.0 -1.02630615234375 -0.65008544921875
6070821875.0 -1.228515625 -0.00341796875
6102043750.0 -1.0865478515625 0.76544189453125
6133265625.0 -0.342041015625 1.349853515625
6164487500.0 0.56622314453125 1.19097900390625
6195709375.0 1.0751953125 0.63128662109375
6226931250.0 1.2841796875 -0.0435791015625
6258153125.0 1.10858154296875 -0.87677001953125
6289375000.0 0.25531005859375 -1.4520263671875
6320596875.0 -0.6929931640625 -1.20953369140625
6351818750.0 -1.20465087890625 -0.5732421875
6383040625.0 -1.3587646484375 0.20831298828125
6414262500.0 -1.00238037109375 1.0631103515625
6445484375.0 -0.07659912109375 1.4630126953125
6476706250.0 0.79986572265625 1.15118408203125
6507928125.0 1.29412841796875 0.4705810546875
6539150000.0 1.35198974609375 -0.38934326171875
6570371875.0 0.8426513671875 -1.14898681640625
6601593750.0 -0.01934814453125 -1.4102783203125
6632815625.0 -0.8441162109375 -1.13970947265625
6664037500.0 -1.4072265625 -0.41888427734375
6695259375.0 -1.37823486328125 0.5706787109375
6726481250.0 -0.7117919921875 1.255615234375
6757703125.0 0.13250732421875 1.41217041015625
6788925000.0 0.95904541015625 1.13385009765625
6820146875.0 1.566650390625 0.28704833984375
6851368750.0 1.32958984375 -0.823486328125
6882590625.0 0.50714111328125 -1.34393310546875
6913812500.0 -0.2950439453125 -1.3612060546875
6945034375.0 -1.07611083984375 -1.02447509765625
6976256250.0 -1.5985107421875 -0.0921630859375
7007478125.0 -1.24053955078125 0.93878173828125
7038700000.0 -0.40185546875 1.3492431640625
7069921875.0 0.3634033203125 1.32891845703125
7101143750.0 1.12518310546875 0.9716796875
7132365625.0 1.6070556640625 0.0130615234375
7163587500.0 1.160400390625 -1.02777099609375
7194809375.0 0.30145263671875 -1.4039306640625
7226031250.0 -0.516845703125 -1.33172607421875
7257253125.0 -1.27337646484375 -0.8265380859375
7288475000.0 -1.5648193359375 0.200439453125
7319696875.0 -1.03302001953125 1.11602783203125
7350918750.0 -0.1624755859375 1.45111083984375
7382140625.0 0.721435546875 1.28192138671875
7413362500.0 1.38433837890625 0.57562255859375
7444584375.0 1.41680908203125 -0.41046142578125
7475806250.0 0.85980224609375 -1.1494140625
7507028125.0 0.00421142578125 -1.4364013671875
7538250000.0 -0.892333984375 -1.1275634765625
7569471875.0 -1.34375 -0.3096923828125
7600693750.0 -1.20703125 0.50164794921875
7631915625.0 -0.72015380859375 1.09161376953125
7663137500.0 0.083984375 1.36517333984375
7694359375.0 0.945068359375 0.982940673828125
7725581250.0 1.24957275390625 0.1787109375
7756803125.0 1.0877685546875 -0.5030517578125
7788025000.0 0.67205810546875 -1.0494384765625
7819246875.0 -0.12286376953125 -1.35345458984375
7850468750.0 -0.99945068359375 -0.919769287109375
7881690625.0 -1.23724365234375 -0.10400390625
7912912500.0 -1.05889892578125 0.5577392578125
7944134375.0 -0.60650634765625 1.1187744140625
7975356250.0 0.27630615234375 1.3428955078125
8006578125.0 1.0526123046875 0.77984619140625
8037800000.0 1.19921875 0.0142822265625
8069021875.0 1.00982666015625 -0.62152099609375
8100243750.0 0.5001220703125 -1.16839599609375
8131465625.0 -0.39056396484375 -1.25872802734375
8162687500.0 -1.03851318359375 -0.6876220703125
8193909375.0 -1.18560791015625 0.010986328125
8225131250.0 -1.02197265625 0.68359375
8256353125.0 -0.42071533203125 1.256103515625
8287575000.0 0.5059814453125 1.23046875
8318796875.0 1.08746337890625 0.636474609375
8350018750.0 1.2498779296875 -0.07733154296875
8381240625.0 1.03448486328125 -0.84381103515625
8412462500.0 0.25396728515625 -1.379150390625
8443684375.0 -0.67486572265625 -1.1744384765625
8474906250.0 -1.18212890625 -0.5323486328125
8506128125.0 -1.3048095703125 0.2418212890625
8537350000.0 -0.92803955078125 1.05181884765625
8568571875.0 -0.0123291015625 1.401611328125
8599793750.0 0.8092041015625 1.05645751953125
8631015625.0 1.2474365234375 0.39825439453125
8662237500.0 1.29180908203125 -0.4324951171875
8693459375.0 0.73724365234375 -1.18450927734375
8724681250.0 -0.1650390625 -1.3363037109375
8755903125.0 -0.88470458984375 -0.962005615234375
8787125000.0 -1.3094482421875 -0.28173828125
8818346875.0 -1.25616455078125 0.6192626953125
8849568750.0 -0.555908203125 1.2669677734375
8880790625.0 0.3017578125 1.28955078125
8912012500.0 0.987884521484375 0.894378662109375
8943234375.0 1.406005859375 0.126953125
8974456250.0 1.16949462890625 -0.844970703125
9005678125.0 0.34783935546875 -1.3197021484375
9036900000.0 -0.45147705078125 -1.2296142578125
9068121875.0 -1.10736083984375 -0.7877197265625
9099343750.0 -1.448486328125 0.1019287109375
9130565625.0 -0.981201171875 1.0189208984375
9161787500.0 -0.15289306640625 1.28759765625
9193009375.0 0.5576171875 1.1375732421875
9224231250.0 1.18475341796875 0.6563720703125
9255453125.0 1.40478515625 -0.29913330078125
9286675000.0 0.80902099609375 -1.09136962890625
9317896875.0 0.0250244140625 -1.2523193359375
9349118750.0 -0.6593017578125 -1.0738525390625
9380340625.0 -1.2642822265625 -0.5091552734375
9411562500.0 -1.31622314453125 0.48236083984375
9442784375.0 -0.64813232421875 1.122802734375
9474006250.0 0.09027099609375 1.21612548828125
9505228125.0 0.7696533203125 0.983795166015625
9536450000.0 1.28143310546875 0.31243896484375
9567671875.0 1.14849853515625 -0.58636474609375
9598893750.0 0.53057861328125 -1.07501220703125
9630115625.0 -0.14508056640625 -1.16143798828125
9661337500.0 -0.823974609375 -0.904937744140625
9692559375.0 -1.2454833984375 -0.1871337890625
9723781250.0 -1.04583740234375 0.6085205078125
9755003125.0 -0.4853515625 1.05535888671875
9786225000.0 0.20391845703125 1.16571044921875
9817446875.0 0.900054931640625 0.8297119140625
9848668750.0 1.20361328125 0.074951171875
9879890625.0 0.97064208984375 -0.620391845703125
9911112500.0 0.45257568359375 -1.057373046875
9942334375.0 -0.2723388671875 -1.1646728515625
9973556250.0 -0.94952392578125 -0.739166259765625
10004778125.0 -1.15087890625 -0.01531982421875
10036000000.0 -0.9476318359375 0.62188720703125
10067221875.0 -0.441650390625 1.10382080078125
10098443750.0 0.37310791015625 1.185302734375
10129665625.0 1.0101318359375 0.6429443359375
10160887500.0 1.124755859375 -0.05450439453125
10192109375.0 0.9205322265625 -0.668365478515625
10223331250.0 0.36053466796875 -1.158203125
10254553125.0 -0.4920654296875 -1.1165771484375
10285775000.0 -0.9898681640625 -0.535430908203125
10316996875.0 -1.07012939453125 0.07904052734375
10348218750.0 -0.90191650390625 0.675079345703125
10379440625.0 -0.31939697265625 1.1824951171875
10410662500.0 0.53204345703125 1.0888671875
10441884375.0 0.99713134765625 0.521087646484375
10473106250.0 1.11309814453125 -0.08660888671875
10504328125.0 0.9517822265625 -0.7635498046875
10535550000.0 0.23834228515625 -1.29974365234375
10566771875.0 -0.66357421875 -1.07977294921875
10597993750.0 -1.085205078125 -0.4588623046875
10629215625.0 -1.17974853515625 0.20855712890625
10660437500.0 -0.889739990234375 0.9569091796875
10691659375.0 -0.00604248046875 1.34149169921875
10722881250.0 0.79107666015625 0.955230712890625
10754103125.0 1.12518310546875 0.32318115234375
10785325000.0 1.14263916015625 -0.3714599609375
10816546875.0 0.70074462890625 -1.05780029296875
10847768750.0 -0.1492919921875 -1.23291015625
10878990625.0 -0.80743408203125 -0.845489501953125
10910212500.0 -1.1285400390625 -0.24371337890625
10941434375.0 -1.10235595703125 0.4820556640625
10972656250.0 -0.56884765625 1.08941650390625
11003878125.0 0.22216796875 1.17852783203125
11035100000.0 0.85479736328125 0.824127197265625
11066321875.0 1.2271728515625 0.172119140625
11097543750.0 1.10162353515625 -0.6812744140625
11128765625.0 0.38470458984375 -1.20526123046875
11159987500.0 -0.40045166015625 -1.14373779296875
11191209375.0 -1.00494384765625 -0.70355224609375
11222431250.0 -1.2789306640625 0.09771728515625
11253653125.0 -0.86126708984375 0.90081787109375
11284875000.0 -0.11187744140625 1.1317138671875
11316096875.0 0.51495361328125 0.95953369140625
11347318750.0 1.00885009765625 0.50250244140625
11378540625.0 1.1219482421875 -0.2738037109375
11409762500.0 0.635162353515625 -0.86572265625
11440984375.0 0.034149169921875 -0.98199462890625
11472206250.0 -0.485076904296875 -0.853912353515625
11503428125.0 -0.95831298828125 -0.4564208984375
11534650000.0 -1.0740966796875 0.29486083984375
11565871875.0 -0.602569580078125 0.8602294921875
11597093750.0 -0.0162353515625 0.995391845703125
11628315625.0 0.547576904296875 0.877532958984375
11659537500.0 1.06671142578125 0.39227294921875
11690759375.0 1.06842041015625 -0.4385986328125
11721981250.0 0.51708984375 -0.945220947265625
11753203125.0 -0.10833740234375 -1.041259765625
11784425000.0 -0.730010986328125 -0.810638427734375
11815646875.0 -1.10626220703125 -0.1488037109375
11846868750.0 -0.893951416015625 0.55596923828125
11878090625.0 -0.389556884765625 0.91497802734375
11909312500.0 0.190216064453125 0.988616943359375
11940534375.0 0.78656005859375 0.69659423828125
11971756250.0 1.0299072265625 0.03668212890625
12002978125.0 0.808349609375 -0.542816162109375
12034200000.0 0.38055419921875 -0.893798828125
12065421875.0 -0.21881103515625 -1.013916015625
12096643750.0 -0.852752685546875 -0.665618896484375
12127865625.0 -1.03759765625 0.01995849609375
12159087500.0 -0.81689453125 0.579833984375
12190309375.0 -0.37750244140625 0.979766845703125
12221531250.0 0.34405517578125 1.09246826171875
12252753125.0 0.986358642578125 0.581146240234375
12283975000.0 1.05926513671875 -0.1322021484375
12315196875.0 0.80291748046875 -0.682647705078125
12346418750.0 0.2796630859375 -1.09881591796875
12377640625.0 -0.5440673828125 -1.06439208984375
12408862500.0 -1.03924560546875 -0.41851806640625
12440084375.0 -1.01190185546875 0.22930908203125
12471306250.0 -0.74407958984375 0.7432861328125
12502528125.0 -0.17864990234375 1.126220703125
12533750000.0 0.62603759765625 0.995758056640625
12564971875.0 1.04534912109375 0.36224365234375
12596193750.0 1.03253173828125 -0.267578125
12627415625.0 0.74951171875 -0.835235595703125
12658637500.0 0.07611083984375 -1.2138671875
12689859375.0 -0.742431640625 -0.968048095703125
12721081250.0 -1.12335205078125 -0.30413818359375
12752303125.0 -1.1016845703125 0.385498046875
12783525000.0 -0.6873779296875 1.036865234375
12814746875.0 0.168212890625 1.25543212890625
12845968750.0 0.870269775390625 0.812530517578125
12877190625.0 1.12255859375 0.16949462890625
12908412500.0 1.06005859375 -0.507080078125
12939634375.0 0.541748046875 -1.12481689453125
12970856250.0 -0.32733154296875 -1.180419921875
13002078125.0 -0.900360107421875 -0.695220947265625
13033300000.0 -1.111572265625 -0.0841064453125
13064521875.0 -1.01202392578125 0.5977783203125
13095743750.0 -0.41748046875 1.1612548828125
13126965625.0 0.41455078125 1.12432861328125
13158187500.0 0.951995849609375 0.63067626953125
13189409375.0 1.15362548828125 -0.02410888671875
13220631250.0 0.93768310546875 -0.754119873046875
13251853125.0 0.231201171875 -1.177978515625
13283075000.0 -0.51336669921875 -1.022705078125
13314296875.0 -0.994293212890625 -0.52886962890625
13345518750.0 -1.140380859375 0.18206787109375
