!Created with skrf (http://scikit-rf.org).
# Hz S RI R 50.0 
!freq ReS11 ImS11
45000000.0 -0.0766143798828125 -0.09720611572265625
76221875.0 -0.19672393798828125 -0.04822540283203125
107443750.0 -0.2561798095703125 0.1194915771484375
138665625.0 -0.14947509765625 0.3287353515625
169887500.0 0.1223907470703125 0.4188232421875
201109375.0 0.4218902587890625 0.283111572265625
232331250.0 0.58062744140625 -0.055816650390625
263553125.0 0.4923095703125 -0.4525909423828125
294775000.0 0.10113525390625 -0.7342529296875
325996875.0 -0.4144287109375 -0.684112548828125
357218750.0 -0.80810546875 -0.30035400390625
388440625.0 -0.889373779296875 0.298919677734375
419662500.0 -0.52154541015625 0.86737060546875
450884375.0 0.169921875 1.0323486328125
482106250.0 0.798553466796875 0.717498779296875
513328125.0 1.12225341796875 0.0909423828125
544550000.0 1.00830078125 -0.67822265625
575771875.0 0.34124755859375 -1.2398681640625
606993750.0 -0.55108642578125 -1.1820068359375
638215625.0 -1.1668701171875 -0.59576416015625
669437500.0 -1.343994140625 0.2303466796875
700659375.0 -0.9766845703125 1.095458984375
731881250.0 -0.00897216796875 1.54644775390625
763103125.0 1.0040283203125 1.162353515625
794325000.0 1.47174072265625 0.28765869140625
825546875.0 1.3729248046875 -0.64886474609375
856768750.0 0.8009033203125 -1.40252685546875
887990625.0 -0.2886962890625 -1.6539306640625
919212500.0 -1.28900146484375 -1.08612060546875
950434375.0 -1.65399169921875 -0.0643310546875
981656250.0 -1.38995361328125 0.9453125
1012878125.0 -0.53662109375 1.67535400390625
1044100000.0 0.6944580078125 1.66973876953125
1075321875.0 1.57781982421875 0.81927490234375
1106543750.0 1.71142578125 -0.3092041015625
1137765625.0 1.19464111328125 -1.28509521484375
1168987500.0 0.1444091796875 -1.802490234375
1200209375.0 -1.0611572265625 -1.49200439453125
1231431250.0 -1.73138427734375 -0.46014404296875
1262653125.0 -1.60064697265625 0.68218994140625
1293875000.0 -0.85906982421875 1.49273681640625
1325096875.0 0.2232666015625 1.7125244140625
1356318750.0 1.23529052734375 1.2244873046875
1387540625.0 1.74462890625 0.1949462890625
1418762500.0 1.4765625 -0.9500732421875
1449984375.0 0.5360107421875 -1.6285400390625
1481206250.0 -0.5467529296875 -1.56231689453125
1512428125.0 -1.34356689453125 -0.926025390625
1543650000.0 -1.66009521484375 0.060791015625
1574871875.0 -1.2799072265625 1.10821533203125
1606093750.0 -0.2784423828125 1.6348876953125
1637315625.0 0.74017333984375 1.40673828125
1668537500.0 1.3978271484375 0.70166015625
1699759375.0 1.57794189453125 -0.2733154296875
1730981250.0 1.0706787109375 -1.22943115234375
1762203125.0 0.046875 -1.57440185546875
1793425000.0 -0.85455322265625 -1.2320556640625
1824646875.0 -1.39556884765625 -0.52056884765625
1855868750.0 -1.47906494140625 0.4290771484375
1887090625.0 -0.881103515625 1.28643798828125
1918312500.0 0.11346435546875 1.49151611328125
1949534375.0 0.9208984375 1.0943603515625
1980756250.0 1.37799072265625 0.37469482421875
2011978125.0 1.36456298828125 -0.5291748046875
2043200000.0 0.75543212890625 -1.26287841796875
2074421875.0 -0.15362548828125 -1.43768310546875
2105643750.0 -0.95977783203125 -1.07757568359375
2136865625.0 -1.4501953125 -0.30938720703125
2168087500.0 -1.3623046875 0.669189453125
2199309375.0 -0.6444091796875 1.35333251953125
2230531250.0 0.27911376953125 1.44085693359375
2261753125.0 1.0726318359375 1.01922607421875
2292975000.0 1.517578125 0.1744384765625
2324196875.0 1.3109130859375 -0.81756591796875
2355418750.0 0.52996826171875 -1.422119140625
2386640625.0 -0.40167236328125 -1.45318603515625
2417862500.0 -1.18243408203125 -1.02996826171875
2449084375.0 -1.608642578125 -0.0877685546875
2480306250.0 -1.31732177734375 0.925537109375
2511528125.0 -0.499267578125 1.5098876953125
2542750000.0 0.48675537109375 1.54205322265625
2573971875.0 1.371826171875 0.9742431640625
2605193750.0 1.722900390625 -0.109375
2636415625.0 1.267333984375 -1.15252685546875
2667637500.0 0.3111572265625 -1.670654296875
2698859375.0 -0.7684326171875 -1.54058837890625
2730081250.0 -1.57647705078125 -0.74639892578125
2761303125.0 -1.68707275390625 0.38592529296875
2792525000.0 -1.1055908203125 1.30865478515625
2823746875.0 -0.10540771484375 1.73553466796875
2854968750.0 1.0123291015625 1.46221923828125
2886190625.0 1.69696044921875 0.49652099609375
2917412500.0 1.60595703125 -0.6165771484375
2948634375.0 0.94580078125 -1.4361572265625
2979856250.0 -0.10406494140625 -1.78125
3011078125.0 -1.249267578125 -1.34930419921875
3042300000.0 -1.779052734375 -0.23944091796875
3073521875.0 -1.5145263671875 0.83673095703125
3104743750.0 -0.76904296875 1.5701904296875
3135965625.0 0.35931396484375 1.8154296875
3167187500.0 1.50018310546875 1.17138671875
3198409375.0 1.821044921875 -0.071044921875
3229631250.0 1.35577392578125 -1.08197021484375
3260853125.0 0.4947509765625 -1.6724853515625
3292075000.0 -0.65228271484375 -1.70391845703125
3323296875.0 -1.62255859375 -0.88592529296875
3354518750.0 -1.73614501953125 0.32659912109375
3385740625.0 -1.1617431640625 1.23272705078125
3416962500.0 -0.23602294921875 1.68621826171875
3448184375.0 0.859130859375 1.5277099609375
3479406250.0 1.6396484375 0.64971923828125
3510628125.0 1.64935302734375 -0.4931640625
3541850000.0 1.0054931640625 -1.35723876953125
3573071875.0 -0.00469970703125 -1.687255859375
3604293750.0 -1.028564453125 -1.34295654296875
3635515625.0 -1.63214111328125 -0.4420166015625
3666737500.0 -1.56756591796875 0.6455078125
3697959375.0 -0.82977294921875 1.47845458984375
3729181250.0 0.265625 1.6356201171875
3760403125.0 1.1541748046875 1.1033935546875
3791625000.0 1.55572509765625 0.2222900390625
3822846875.0 1.4072265625 -0.76007080078125
3854068750.0 0.62481689453125 -1.48486328125
3885290625.0 -0.41937255859375 -1.485595703125
3916512500.0 -1.1435546875 -0.91571044921875
3947734375.0 -1.45166015625 -0.122802734375
3978956250.0 -1.3033447265625 0.781005859375
4010178125.0 -0.5355224609375 1.4578857421875
4041400000.0 0.47271728515625 1.4197998046875
4072621875.0 1.15283203125 0.8515625
4103843750.0 1.44891357421875 0.06494140625
4135065625.0 1.27239990234375 -0.84637451171875
4166287500.0 0.46087646484375 -1.49993896484375
4197509375.0 -0.55670166015625 -1.419189453125
4228731250.0 -1.24945068359375 -0.80584716796875
4259953125.0 -1.511962890625 0.06805419921875
4291175000.0 -1.1929931640625 1.0098876953125
4322396875.0 -0.29248046875 1.53009033203125
4353618750.0 0.67333984375 1.35528564453125
4384840625.0 1.324951171875 0.7008056640625
4416062500.0 1.50506591796875 -0.2254638671875
4447284375.0 1.0594482421875 -1.10577392578125
4478506250.0 0.17498779296875 -1.4989013671875
4509728125.0 -0.73272705078125 -1.3111572265625
4540950000.0 -1.39691162109375 -0.63909912109375
4572171875.0 -1.5260009765625 0.35888671875
4603393750.0 -0.975830078125 1.21527099609375
4634615625.0 -0.06414794921875 1.5396728515625
4665837500.0 0.87060546875 1.308349609375
4697059375.0 1.544921875 0.51873779296875
4728281250.0 1.533203125 -0.58197021484375
4759503125.0 0.8267822265625 -1.36944580078125
4790725000.0 -0.14276123046875 -1.57501220703125
4821946875.0 -1.08416748046875 -1.19866943359375
4853168750.0 -1.61883544921875 -0.25274658203125
4884390625.0 -1.3828125 0.7933349609375
4915612500.0 -0.61669921875 1.41473388671875
4946834375.0 0.32781982421875 1.51397705078125
4978056250.0 1.20709228515625 1.0216064453125
5009278125.0 1.56640625 0.04144287109375
5040500000.0 1.23321533203125 -0.87591552734375
5071721875.0 0.5048828125 -1.41796875
5102943750.0 -0.44635009765625 -1.50140380859375
5134165625.0 -1.33935546875 -0.9091796875
5165387500.0 -1.572265625 0.14483642578125
5196609375.0 -1.14013671875 1.0113525390625
5227831250.0 -0.35992431640625 1.509033203125
5259053125.0 0.6888427734375 1.49676513671875
5290275000.0 1.52484130859375 0.66583251953125
5321496875.0 1.49609375 -0.4302978515625
5352718750.0 0.924560546875 -1.1551513671875
5383940625.0 0.09844970703125 -1.5042724609375
5415162500.0 -0.90057373046875 -1.2882080078125
5446384375.0 -1.488525390625 -0.3724365234375
5477606250.0 -1.30322265625 0.56622314453125
5508828125.0 -0.73443603515625 1.1539306640625
5540050000.0 0.052490234375 1.40264892578125
5571271875.0 0.94091796875 1.1131591796875
5602493750.0 1.4122314453125 0.26202392578125
5633715625.0 1.2359619140625 -0.6134033203125
5664937500.0 0.6510009765625 -1.2047119140625
5696159375.0 -0.1962890625 -1.387451171875
5727381250.0 -1.02410888671875 -0.9818115234375
5758603125.0 -1.39532470703125 -0.14630126953125
5789825000.0 -1.19818115234375 0.71856689453125
5821046875.0 -0.50787353515625 1.31085205078125
5852268750.0 0.41180419921875 1.3167724609375
5883490625.0 1.0732421875 0.7744140625
5914712500.0 1.3056640625 0.021240234375
5945934375.0 1.10040283203125 -0.77667236328125
5977156250.0 0.3629150390625 -1.31524658203125
6008378125.0 -0.5103759765625 -1.18560791015625
6039600000.0 -1.02337646484375 -0.65130615234375
6070821875.0 -1.2264404296875 -0.00592041015625
6102043750.0 -1.0870361328125 0.76434326171875
6133265625.0 -0.3428955078125 1.3485107421875
6164487500.0 0.56463623046875 1.1910400390625
6195709375.0 1.07281494140625 0.63232421875
6226931250.0 1.2830810546875 -0.04193115234375
6258153125.0 1.10791015625 -0.87274169921875
6289375000.0 0.25640869140625 -1.4500732421875
6320596875.0 -0.69049072265625 -1.2086181640625
6351818750.0 -1.20208740234375 -0.57354736328125
6383040625.0 -1.35784912109375 0.20733642578125
6414262500.0 -1.0028076171875 1.05999755859375
6445484375.0 -0.07940673828125 1.45880126953125
6476706250.0 0.79669189453125 1.15106201171875
6507928125.0 1.29290771484375 0.47174072265625
6539150000.0 1.35040283203125 -0.38653564453125
6570371875.0 0.84368896484375 -1.14520263671875
6601593750.0 -0.0157470703125 -1.4078369140625
6632815625.0 -0.8406982421875 -1.13995361328125
6664037500.0 -1.40472412109375 -0.4217529296875
6695259375.0 -1.37744140625 0.5670166015625
6726481250.0 -0.7122802734375 1.25482177734375
6757703125.0 0.12969970703125 1.40997314453125
6788925000.0 0.95758056640625 1.13372802734375
6820146875.0 1.56451416015625 0.28900146484375
6851368750.0 1.3284912109375 -0.8214111328125
6882590625.0 0.50726318359375 -1.34185791015625
6913812500.0 -0.2923583984375 -1.35968017578125
6945034375.0 -1.07244873046875 -1.02490234375
6976256250.0 -1.5970458984375 -0.093505859375
7007478125.0 -1.24029541015625 0.93414306640625
7038700000.0 -0.40435791015625 1.34564208984375
7069921875.0 0.35943603515625 1.3272705078125
7101143750.0 1.12371826171875 0.97247314453125
7132365625.0 1.604248046875 0.01556396484375
7163587500.0 1.16156005859375 -1.02239990234375
7194809375.0 0.30279541015625 -1.40338134765625
7226031250.0 -0.513916015625 -1.33172607421875
7257253125.0 -1.2730712890625 -0.82586669921875
7288475000.0 -1.562255859375 0.1981201171875
7319696875.0 -1.03363037109375 1.1134033203125
7350918750.0 -0.1641845703125 1.451171875
7382140625.0 0.71893310546875 1.28192138671875
7413362500.0 1.38018798828125 0.57830810546875
7444584375.0 1.41571044921875 -0.40948486328125
7475806250.0 0.8607177734375 -1.14605712890625
7507028125.0 0.0069580078125 -1.4326171875
7538250000.0 -0.891357421875 -1.12744140625
7569471875.0 -1.33953857421875 -0.31195068359375
7600693750.0 -1.20538330078125 0.4984130859375
7631915625.0 -0.72039794921875 1.087158203125
7663137500.0 0.081787109375 1.36456298828125
7694359375.0 0.943023681640625 0.985107421875
7725581250.0 1.2469482421875 0.18206787109375
7756803125.0 1.0869140625 -0.49993896484375
7788025000.0 0.67425537109375 -1.04693603515625
7819246875.0 -0.12127685546875 -1.35284423828125
7850468750.0 -0.996002197265625 -0.91864013671875
7881690625.0 -1.236572265625 -0.10491943359375
7912912500.0 -1.0584716796875 0.5555419921875
7944134375.0 -0.60748291015625 1.11859130859375
7975356250.0 0.273681640625 1.340087890625
8006578125.0 1.05133056640625 0.77978515625
8037800000.0 1.197509765625 0.01544189453125
8069021875.0 1.010009765625 -0.62042236328125
8100243750.0 0.50067138671875 -1.16583251953125
8131465625.0 -0.38934326171875 -1.25750732421875
8162687500.0 -1.0340576171875 -0.6881103515625
8193909375.0 -1.18475341796875 0.00848388671875
8225131250.0 -1.022216796875 0.68011474609375
8256353125.0 -0.421630859375 1.25445556640625
8287575000.0 0.503662109375 1.22930908203125
8318796875.0 1.08544921875 0.63739013671875
8350018750.0 1.24859619140625 -0.07415771484375
8381240625.0 1.03533935546875 -0.8408203125
8412462500.0 0.25335693359375 -1.37945556640625
8443684375.0 -0.67230224609375 -1.17236328125
8474906250.0 -1.1795654296875 -0.5322265625
8506128125.0 -1.3035888671875 0.2386474609375
8537350000.0 -0.9268798828125 1.04925537109375
8568571875.0 -0.01544189453125 1.3975830078125
8599793750.0 0.80450439453125 1.0552978515625
8631015625.0 1.2447509765625 0.39849853515625
8662237500.0 1.290283203125 -0.43255615234375
8693459375.0 0.73785400390625 -1.18182373046875
8724681250.0 -0.1624755859375 -1.33551025390625
8755903125.0 -0.8839111328125 -0.959991455078125
8787125000.0 -1.30914306640625 -0.282958984375
8818346875.0 -1.25604248046875 0.6181640625
8849568750.0 -0.55731201171875 1.265380859375
8880790625.0 0.3009033203125 1.29010009765625
8912012500.0 0.9862060546875 0.8948974609375
8943234375.0 1.40521240234375 0.128662109375
8974456250.0 1.17022705078125 -0.84356689453125
9005678125.0 0.346435546875 -1.3184814453125
9036900000.0 -0.4471435546875 -1.22735595703125
9068121875.0 -1.10772705078125 -0.78717041015625
9099343750.0 -1.4468994140625 0.10076904296875
9130565625.0 -0.9815673828125 1.0167236328125
9161787500.0 -0.154052734375 1.286376953125
9193009375.0 0.557373046875 1.13604736328125
9224231250.0 1.1827392578125 0.656982421875
9255453125.0 1.40313720703125 -0.29595947265625
9286675000.0 0.80902099609375 -1.0897216796875
9317896875.0 0.02447509765625 -1.25244140625
9349118750.0 -0.65606689453125 -1.07421875
9380340625.0 -1.26361083984375 -0.50946044921875
9411562500.0 -1.31671142578125 0.47900390625
9442784375.0 -0.64886474609375 1.1212158203125
9474006250.0 0.089111328125 1.21466064453125
9505228125.0 0.76898193359375 0.983306884765625
9536450000.0 1.27923583984375 0.31201171875
9567671875.0 1.14654541015625 -0.58416748046875
9598893750.0 0.5301513671875 -1.07159423828125
9630115625.0 -0.14434814453125 -1.1614990234375
9661337500.0 -0.82135009765625 -0.904052734375
9692559375.0 -1.24224853515625 -0.19061279296875
9723781250.0 -1.04595947265625 0.6065673828125
9755003125.0 -0.4866943359375 1.05389404296875
9786225000.0 0.20001220703125 1.163330078125
9817446875.0 0.900909423828125 0.829620361328125
9848668750.0 1.20196533203125 0.0770263671875
9879890625.0 0.970703125 -0.61834716796875
9911112500.0 0.45294189453125 -1.0567626953125
9942334375.0 -0.26959228515625 -1.16387939453125
9973556250.0 -0.947784423828125 -0.738922119140625
10004778125.0 -1.1497802734375 -0.01513671875
10036000000.0 -0.946929931640625 0.619598388671875
10067221875.0 -0.4412841796875 1.10247802734375
10098443750.0 0.3743896484375 1.18511962890625
10129665625.0 1.00750732421875 0.64276123046875
10160887500.0 1.12127685546875 -0.05303955078125
10192109375.0 0.91851806640625 -0.66680908203125
10223331250.0 0.36029052734375 -1.1563720703125
10254553125.0 -0.4886474609375 -1.11541748046875
10285775000.0 -0.9886474609375 -0.535247802734375
10316996875.0 -1.070068359375 0.07916259765625
10348218750.0 -0.901611328125 0.67205810546875
10379440625.0 -0.32110595703125 1.17999267578125
10410662500.0 0.5308837890625 1.08831787109375
10441884375.0 0.995513916015625 0.52105712890625
10473106250.0 1.11328125 -0.0863037109375
10504328125.0 0.952362060546875 -0.76104736328125
10535550000.0 0.23699951171875 -1.3009033203125
10566771875.0 -0.66204833984375 -1.07879638671875
10597993750.0 -1.085205078125 -0.45819091796875
10629215625.0 -1.178466796875 0.2071533203125
10660437500.0 -0.888763427734375 0.95587158203125
10691659375.0 -0.0064697265625 1.341796875
10722881250.0 0.78778076171875 0.952880859375
10754103125.0 1.1246337890625 0.32293701171875
10785325000.0 1.1422119140625 -0.36834716796875
10816546875.0 0.70159912109375 -1.05438232421875
10847768750.0 -0.14837646484375 -1.2318115234375
10878990625.0 -0.80572509765625 -0.84478759765625
10910212500.0 -1.1258544921875 -0.2445068359375
10941434375.0 -1.10028076171875 0.4794921875
10972656250.0 -0.56829833984375 1.089111328125
11003878125.0 0.21881103515625 1.17718505859375
11035100000.0 0.8502197265625 0.82373046875
11066321875.0 1.22613525390625 0.173583984375
11097543750.0 1.10113525390625 -0.6806640625
11128765625.0 0.38409423828125 -1.2037353515625
11159987500.0 -0.39874267578125 -1.1424560546875
11191209375.0 -1.00457763671875 -0.70355224609375
11222431250.0 -1.27691650390625 0.0960693359375
11253653125.0 -0.860504150390625 0.9002685546875
11284875000.0 -0.11297607421875 1.13006591796875
11316096875.0 0.51287841796875 0.959075927734375
11347318750.0 1.00701904296875 0.5025634765625
11378540625.0 1.11907958984375 -0.27239990234375
11409762500.0 0.634765625 -0.863250732421875
11440984375.0 0.034912109375 -0.982086181640625
11472206250.0 -0.483428955078125 -0.85296630859375
11503428125.0 -0.956573486328125 -0.456939697265625
11534650000.0 -1.07257080078125 0.2935791015625
11565871875.0 -0.602874755859375 0.858978271484375
11597093750.0 -0.01800537109375 0.993682861328125
11628315625.0 0.54852294921875 0.878692626953125
11659537500.0 1.0660400390625 0.39080810546875
11690759375.0 1.06658935546875 -0.4385986328125
11721981250.0 0.517059326171875 -0.943603515625
11753203125.0 -0.10772705078125 -1.039306640625
11784425000.0 -0.728240966796875 -0.8106689453125
11815646875.0 -1.10498046875 -0.14923095703125
11846868750.0 -0.892303466796875 0.55413818359375
11878090625.0 -0.3905029296875 0.913818359375
11909312500.0 0.189117431640625 0.987762451171875
11940534375.0 0.78521728515625 0.69622802734375
11971756250.0 1.029052734375 0.03631591796875
12002978125.0 0.807525634765625 -0.540985107421875
12034200000.0 0.380950927734375 -0.89288330078125
12065421875.0 -0.21783447265625 -1.01263427734375
12096643750.0 -0.85308837890625 -0.664581298828125
12127865625.0 -1.03570556640625 0.0191650390625
12159087500.0 -0.816741943359375 0.578582763671875
12190309375.0 -0.378021240234375 0.978973388671875
12221531250.0 0.34405517578125 1.09161376953125
12252753125.0 0.98492431640625 0.579986572265625
12283975000.0 1.05657958984375 -0.1312255859375
12315196875.0 0.801177978515625 -0.6810302734375
12346418750.0 0.2803955078125 -1.09649658203125
12377640625.0 -0.54376220703125 -1.06243896484375
12408862500.0 -1.03790283203125 -0.41778564453125
12440084375.0 -1.0103759765625 0.22650146484375
12471306250.0 -0.74334716796875 0.73956298828125
12502528125.0 -0.1785888671875 1.12432861328125
12533750000.0 0.624237060546875 0.995574951171875
12564971875.0 1.04522705078125 0.3626708984375
12596193750.0 1.0321044921875 -0.26727294921875
12627415625.0 0.749053955078125 -0.833953857421875
12658637500.0 0.07781982421875 -1.21185302734375
12689859375.0 -0.7425537109375 -0.967559814453125
12721081250.0 -1.12017822265625 -0.30511474609375
12752303125.0 -1.10125732421875 0.38616943359375
12783525000.0 -0.68768310546875 1.03411865234375
12814746875.0 0.167236328125 1.251953125
12845968750.0 0.869537353515625 0.81121826171875
12877190625.0 1.1217041015625 0.1695556640625
12908412500.0 1.05975341796875 -0.5067138671875
12939634375.0 0.5421142578125 -1.123046875
12970856250.0 -0.325927734375 -1.1787109375
13002078125.0 -0.899505615234375 -0.6927490234375
13033300000.0 -1.1090087890625 -0.08563232421875
13064521875.0 -1.01220703125 0.59844970703125
13095743750.0 -0.41815185546875 1.1585693359375
13126965625.0 0.41375732421875 1.12335205078125
13158187500.0 0.95013427734375 0.6314697265625
13189409375.0 1.15386962890625 -0.02557373046875
13220631250.0 0.93743896484375 -0.752838134765625
13251853125.0 0.2314453125 -1.1767578125
13283075000.0 -0.513671875 -1.0220947265625
13314296875.0 -0.991302490234375 -0.528839111328125
13345518750.0 -1.1397705078125 0.18243408203125
