!Created with skrf (http://scikit-rf.org).
# Hz S RI R 50.0 
!freq ReS11 ImS11
45000000.0 -0.07719802856445312 -0.09671401977539062
76221875.0 -0.196502685546875 -0.04717254638671875
107443750.0 -0.2548675537109375 0.1200714111328125
138665625.0 -0.1477203369140625 0.3287811279296875
169887500.0 0.1241455078125 0.417327880859375
201109375.0 0.4221038818359375 0.280303955078125
232331250.0 0.578826904296875 -0.0582275390625
263553125.0 0.4889984130859375 -0.4535064697265625
294775000.0 0.097503662109375 -0.732818603515625
325996875.0 -0.41632080078125 -0.6795654296875
357218750.0 -0.806732177734375 -0.2957763671875
388440625.0 -0.88525390625 0.30194091796875
419662500.0 -0.515716552734375 0.867218017578125
450884375.0 0.174560546875 1.028564453125
482106250.0 0.79931640625 0.71136474609375
513328125.0 1.11907958984375 0.085693359375
544550000.0 1.00262451171875 -0.68109130859375
575771875.0 0.33465576171875 -1.238525390625
606993750.0 -0.55535888671875 -1.17626953125
638215625.0 -1.16632080078125 -0.588623046875
669437500.0 -1.33917236328125 0.23529052734375
700659375.0 -0.96929931640625 1.09716796875
731881250.0 -0.001708984375 1.5423583984375
763103125.0 1.006591796875 1.15411376953125
794325000.0 1.46832275390625 0.2796630859375
825546875.0 1.36590576171875 -0.6529541015625
856768750.0 0.79248046875 -1.40118408203125
887990625.0 -0.29461669921875 -1.647216796875
919212500.0 -1.288818359375 -1.07623291015625
950434375.0 -1.64788818359375 -0.0570068359375
981656250.0 -1.3809814453125 0.947509765625
1012878125.0 -0.52716064453125 1.67181396484375
1044100000.0 0.69879150390625 1.66015625
1075321875.0 1.57440185546875 0.80950927734375
1106543750.0 1.703857421875 -0.31524658203125
1137765625.0 1.1842041015625 -1.284912109375
1168987500.0 0.13555908203125 -1.7958984375
1200209375.0 -1.063232421875 -1.48126220703125
1231431250.0 -1.72650146484375 -0.45074462890625
1262653125.0 -1.59234619140625 0.6861572265625
1293875000.0 -0.84942626953125 1.49200439453125
1325096875.0 0.2301025390625 1.70526123046875
1356318750.0 1.23565673828125 1.214111328125
1387540625.0 1.73858642578125 0.18646240234375
1418762500.0 1.4674072265625 -0.95257568359375
1449984375.0 0.5269775390625 -1.6253662109375
1481206250.0 -0.55145263671875 -1.55426025390625
1512428125.0 -1.342041015625 -0.91766357421875
1543650000.0 -1.65460205078125 0.06768798828125
1574871875.0 -1.271240234375 1.10968017578125
1606093750.0 -0.27069091796875 1.630615234375
1637315625.0 0.7435302734375 1.3984375
1668537500.0 1.395751953125 0.694091796875
1699759375.0 1.57177734375 -0.27911376953125
1730981250.0 1.06170654296875 -1.2298583984375
1762203125.0 0.0400390625 -1.5692138671875
1793425000.0 -0.85638427734375 -1.224365234375
1824646875.0 -1.39306640625 -0.51336669921875
1855868750.0 -1.4725341796875 0.43359375
1887090625.0 -0.87310791015625 1.284912109375
1918312500.0 0.1187744140625 1.48565673828125
1949534375.0 0.921875 1.08770751953125
1980756250.0 1.3748779296875 0.36810302734375
2011978125.0 1.35821533203125 -0.533203125
2043200000.0 0.74774169921875 -1.2618408203125
2074421875.0 -0.1585693359375 -1.4320068359375
2105643750.0 -0.96038818359375 -1.07037353515625
2136865625.0 -1.44647216796875 -0.3028564453125
2168087500.0 -1.35528564453125 0.67193603515625
2199309375.0 -0.63665771484375 1.35089111328125
2230531250.0 0.28302001953125 1.43426513671875
2261753125.0 1.07281494140625 1.01190185546875
2292975000.0 1.51318359375 0.16845703125
2324196875.0 1.303466796875 -0.8197021484375
2355418750.0 0.52325439453125 -1.4195556640625
2386640625.0 -0.40545654296875 -1.44744873046875
2417862500.0 -1.1807861328125 -1.02191162109375
2449084375.0 -1.6029052734375 -0.0828857421875
2480306250.0 -1.30877685546875 0.925537109375
2511528125.0 -0.49200439453125 1.50628662109375
2542750000.0 0.490478515625 1.53448486328125
2573971875.0 1.3719482421875 0.96490478515625
2605193750.0 1.7161865234375 -0.11505126953125
2636415625.0 1.25885009765625 -1.151611328125
2667637500.0 0.3035888671875 -1.66693115234375
2698859375.0 -0.771728515625 -1.53204345703125
2730081250.0 -1.57342529296875 -0.73809814453125
2761303125.0 -1.6785888671875 0.38922119140625
2792525000.0 -1.0965576171875 1.305908203125
2823746875.0 -0.10052490234375 1.72698974609375
2854968750.0 1.0120849609375 1.452880859375
2886190625.0 1.68988037109375 0.48974609375
2917412500.0 1.59759521484375 -0.61846923828125
2948634375.0 0.93670654296875 -1.43389892578125
2979856250.0 -0.11029052734375 -1.77484130859375
3011078125.0 -1.24774169921875 -1.33929443359375
3042300000.0 -1.7742919921875 -0.231689453125
3073521875.0 -1.506103515625 0.8382568359375
3104743750.0 -0.760986328125 1.5679931640625
3135965625.0 0.36383056640625 1.80682373046875
3167187500.0 1.4989013671875 1.16156005859375
3198409375.0 1.81427001953125 -0.077880859375
3229631250.0 1.34600830078125 -1.08148193359375
3260853125.0 0.48675537109375 -1.6668701171875
3292075000.0 -0.65625 -1.69549560546875
3323296875.0 -1.6190185546875 -0.87646484375
3354518750.0 -1.72821044921875 0.33074951171875
3385740625.0 -1.1534423828125 1.23077392578125
3416962500.0 -0.2286376953125 1.68115234375
3448184375.0 0.860595703125 1.5191650390625
3479406250.0 1.634033203125 0.64239501953125
3510628125.0 1.64208984375 -0.4959716796875
3541850000.0 0.9976806640625 -1.35443115234375
3573071875.0 -0.0089111328125 -1.67974853515625
3604293750.0 -1.02789306640625 -1.3349609375
3635515625.0 -1.6263427734375 -0.43658447265625
3666737500.0 -1.56024169921875 0.64715576171875
3697959375.0 -0.822265625 1.47540283203125
3729181250.0 0.26959228515625 1.62890625
3760403125.0 1.1514892578125 1.09564208984375
3791625000.0 1.551513671875 0.216064453125
3822846875.0 1.39947509765625 -0.76190185546875
3854068750.0 0.6181640625 -1.47991943359375
3885290625.0 -0.4217529296875 -1.47869873046875
3916512500.0 -1.141845703125 -0.90863037109375
3947734375.0 -1.4451904296875 -0.1185302734375
3978956250.0 -1.29449462890625 0.778564453125
4010178125.0 -0.52984619140625 1.452392578125
4041400000.0 0.4739990234375 1.41326904296875
4072621875.0 1.15191650390625 0.84539794921875
4103843750.0 1.44287109375 0.061767578125
4135065625.0 1.2655029296875 -0.84564208984375
4166287500.0 0.45587158203125 -1.4945068359375
4197509375.0 -0.55743408203125 -1.412841796875
4228731250.0 -1.24737548828125 -0.80084228515625
4259953125.0 -1.50738525390625 0.07135009765625
4291175000.0 -1.1864013671875 1.0096435546875
4322396875.0 -0.28753662109375 1.52447509765625
4353618750.0 0.67327880859375 1.34759521484375
4384840625.0 1.3203125 0.69561767578125
4416062500.0 1.4990234375 -0.22894287109375
4447284375.0 1.052734375 -1.10369873046875
4478506250.0 0.17108154296875 -1.4940185546875
4509728125.0 -0.732421875 -1.30511474609375
4540950000.0 -1.39239501953125 -0.63427734375
4572171875.0 -1.5203857421875 0.3602294921875
4603393750.0 -0.97113037109375 1.21136474609375
4634615625.0 -0.06060791015625 1.535400390625
4665837500.0 0.87078857421875 1.3023681640625
4697059375.0 1.5401611328125 0.51361083984375
4728281250.0 1.5267333984375 -0.58270263671875
4759503125.0 0.8209228515625 -1.36639404296875
4790725000.0 -0.14666748046875 -1.5711669921875
4821946875.0 -1.08380126953125 -1.19232177734375
4853168750.0 -1.61260986328125 -0.24920654296875
4884390625.0 -1.37603759765625 0.79327392578125
4915612500.0 -0.611328125 1.41156005859375
4946834375.0 0.3291015625 1.50732421875
4978056250.0 1.20556640625 1.01531982421875
5009278125.0 1.56072998046875 0.03753662109375
5040500000.0 1.227294921875 -0.87567138671875
5071721875.0 0.49951171875 -1.4132080078125
5102943750.0 -0.4473876953125 -1.49462890625
5134165625.0 -1.3350830078125 -0.90380859375
5165387500.0 -1.56671142578125 0.14703369140625
5196609375.0 -1.13446044921875 1.00897216796875
5227831250.0 -0.35546875 1.50653076171875
5259053125.0 0.6871337890625 1.49005126953125
5290275000.0 1.520751953125 0.6614990234375
5321496875.0 1.490234375 -0.4306640625
5352718750.0 0.919189453125 -1.15325927734375
5383940625.0 0.09527587890625 -1.49920654296875
5415162500.0 -0.90155029296875 -1.28240966796875
5446384375.0 -1.48321533203125 -0.3692626953125
5477606250.0 -1.29779052734375 0.567138671875
5508828125.0 -0.72998046875 1.150634765625
5540050000.0 0.05462646484375 1.3968505859375
5571271875.0 0.93792724609375 1.1068115234375
5602493750.0 1.40716552734375 0.25909423828125
5633715625.0 1.230712890625 -0.6134033203125
5664937500.0 0.64715576171875 -1.20013427734375
5696159375.0 -0.19805908203125 -1.3824462890625
5727381250.0 -1.0213623046875 -0.9774169921875
5758603125.0 -1.39056396484375 -0.14373779296875
5789825000.0 -1.19293212890625 0.71844482421875
5821046875.0 -0.505126953125 1.3065185546875
5852268750.0 0.4110107421875 1.31134033203125
5883490625.0 1.071044921875 0.77069091796875
5914712500.0 1.3011474609375 0.01959228515625
5945934375.0 1.09515380859375 -0.776123046875
5977156250.0 0.360595703125 -1.31060791015625
6008378125.0 -0.50885009765625 -1.180419921875
6039600000.0 -1.02191162109375 -0.64794921875
6070821875.0 -1.22222900390625 -0.0037841796875
6102043750.0 -1.08160400390625 0.7625732421875
6133265625.0 -0.34075927734375 1.34356689453125
6164487500.0 0.56365966796875 1.18634033203125
6195709375.0 1.070556640625 0.62921142578125
6226931250.0 1.27880859375 -0.0430908203125
6258153125.0 1.10345458984375 -0.8717041015625
6289375000.0 0.25494384765625 -1.445556640625
6320596875.0 -0.6893310546875 -1.20501708984375
6351818750.0 -1.1993408203125 -0.5709228515625
6383040625.0 -1.353759765625 0.2080078125
6414262500.0 -0.9990234375 1.0582275390625
6445484375.0 -0.076904296875 1.45635986328125
6476706250.0 0.79638671875 1.14678955078125
6507928125.0 1.2906494140625 0.46856689453125
6539150000.0 1.34649658203125 -0.3865966796875
6570371875.0 0.8397216796875 -1.14404296875
6601593750.0 -0.01861572265625 -1.40423583984375
6632815625.0 -0.8399658203125 -1.13470458984375
6664037500.0 -1.39971923828125 -0.41925048828125
6695259375.0 -1.37225341796875 0.56622314453125
6726481250.0 -0.70941162109375 1.250244140625
6757703125.0 0.13165283203125 1.406494140625
6788925000.0 0.9549560546875 1.1295166015625
6820146875.0 1.55975341796875 0.28668212890625
6851368750.0 1.32476806640625 -0.8199462890625
6882590625.0 0.5054931640625 -1.3375244140625
6913812500.0 -0.29290771484375 -1.35498046875
6945034375.0 -1.0706787109375 -1.02032470703125
6976256250.0 -1.59088134765625 -0.0933837890625
7007478125.0 -1.2366943359375 0.93218994140625
7038700000.0 -0.4005126953125 1.342529296875
7069921875.0 0.359619140625 1.32244873046875
7101143750.0 1.11773681640625 0.96661376953125
7132365625.0 1.5980224609375 0.0140380859375
7163587500.0 1.1571044921875 -1.01904296875
7194809375.0 0.30169677734375 -1.39605712890625
7226031250.0 -0.512939453125 -1.3238525390625
7257253125.0 -1.26654052734375 -0.822998046875
7288475000.0 -1.55804443359375 0.20013427734375
7319696875.0 -1.0284423828125 1.10943603515625
7350918750.0 -0.1630859375 1.443603515625
7382140625.0 0.71649169921875 1.27490234375
7413362500.0 1.377685546875 0.57403564453125
7444584375.0 1.4112548828125 -0.4080810546875
7475806250.0 0.85711669921875 -1.143798828125
7507028125.0 0.00408935546875 -1.42919921875
7538250000.0 -0.887451171875 -1.1236572265625
7569471875.0 -1.33502197265625 -0.31048583984375
7600693750.0 -1.201416015625 0.49810791015625
7631915625.0 -0.7161865234375 1.0860595703125
7663137500.0 0.0809326171875 1.35858154296875
7694359375.0 0.94036865234375 0.97882080078125
7725581250.0 1.24224853515625 0.17926025390625
7756803125.0 1.082275390625 -0.500244140625
7788025000.0 0.66790771484375 -1.04449462890625
7819246875.0 -0.12115478515625 -1.34539794921875
7850468750.0 -0.995025634765625 -0.91448974609375
7881690625.0 -1.23095703125 -0.10406494140625
7912912500.0 -1.05462646484375 0.5550537109375
7944134375.0 -0.604736328125 1.111572265625
7975356250.0 0.27215576171875 1.3343505859375
8006578125.0 1.04681396484375 0.77801513671875
8037800000.0 1.19183349609375 0.01531982421875
8069021875.0 1.005859375 -0.61767578125
8100243750.0 0.49896240234375 -1.16107177734375
8131465625.0 -0.38873291015625 -1.25433349609375
8162687500.0 -1.03167724609375 -0.68634033203125
8193909375.0 -1.17913818359375 0.00897216796875
8225131250.0 -1.01727294921875 0.67913818359375
8256353125.0 -0.41876220703125 1.2489013671875
8287575000.0 0.5013427734375 1.22442626953125
8318796875.0 1.08343505859375 0.6336669921875
8350018750.0 1.24444580078125 -0.07659912109375
8381240625.0 1.02984619140625 -0.83856201171875
8412462500.0 0.25390625 -1.37213134765625
8443684375.0 -0.67010498046875 -1.1695556640625
8474906250.0 -1.177001953125 -0.53125
8506128125.0 -1.29779052734375 0.23760986328125
8537350000.0 -0.923828125 1.04638671875
8568571875.0 -0.01458740234375 1.39556884765625
8599793750.0 0.8026123046875 1.05340576171875
8631015625.0 1.24346923828125 0.3963623046875
8662237500.0 1.2843017578125 -0.4287109375
8693459375.0 0.7359619140625 -1.17822265625
8724681250.0 -0.16265869140625 -1.3311767578125
8755903125.0 -0.879119873046875 -0.95648193359375
8787125000.0 -1.30413818359375 -0.28094482421875
8818346875.0 -1.25091552734375 0.61688232421875
8849568750.0 -0.5546875 1.25994873046875
8880790625.0 0.29937744140625 1.2838134765625
8912012500.0 0.9810791015625 0.891082763671875
8943234375.0 1.3978271484375 0.12799072265625
8974456250.0 1.166259765625 -0.839111328125
9005678125.0 0.34912109375 -1.3116455078125
9036900000.0 -0.4462890625 -1.22454833984375
9068121875.0 -1.10150146484375 -0.784912109375
9099343750.0 -1.44122314453125 0.0987548828125
9130565625.0 -0.97955322265625 1.01116943359375
9161787500.0 -0.15362548828125 1.2823486328125
9193009375.0 0.5538330078125 1.1334228515625
9224231250.0 1.1796875 0.6533203125
9255453125.0 1.40045166015625 -0.299072265625
9286675000.0 0.8057861328125 -1.08575439453125
9317896875.0 0.02685546875 -1.2454833984375
9349118750.0 -0.65582275390625 -1.068359375
9380340625.0 -1.258544921875 -0.508544921875
9411562500.0 -1.308837890625 0.475341796875
9442784375.0 -0.64715576171875 1.1156005859375
9474006250.0 0.08837890625 1.2100830078125
9505228125.0 0.76507568359375 0.978607177734375
9536450000.0 1.27294921875 0.31256103515625
9567671875.0 1.143798828125 -0.58038330078125
9598893750.0 0.52850341796875 -1.0701904296875
9630115625.0 -0.144287109375 -1.157470703125
9661337500.0 -0.818206787109375 -0.901641845703125
9692559375.0 -1.23822021484375 -0.18988037109375
9723781250.0 -1.043212890625 0.60516357421875
9755003125.0 -0.48553466796875 1.0506591796875
9786225000.0 0.19879150390625 1.1583251953125
9817446875.0 0.893768310546875 0.8270263671875
9848668750.0 1.19769287109375 0.0775146484375
9879890625.0 0.96746826171875 -0.61676025390625
9911112500.0 0.4515380859375 -1.05096435546875
9942334375.0 -0.26605224609375 -1.15704345703125
9973556250.0 -0.942230224609375 -0.738037109375
10004778125.0 -1.1468505859375 -0.0164794921875
10036000000.0 -0.944061279296875 0.61669921875
10067221875.0 -0.441162109375 1.096435546875
10098443750.0 0.3695068359375 1.18115234375
10129665625.0 1.00213623046875 0.64312744140625
10160887500.0 1.119140625 -0.05255126953125
10192109375.0 0.917999267578125 -0.6630859375
10223331250.0 0.36114501953125 -1.15234375
10254553125.0 -0.4862060546875 -1.11285400390625
10285775000.0 -0.984100341796875 -0.535430908203125
10316996875.0 -1.06585693359375 0.07537841796875
10348218750.0 -0.89898681640625 0.6673583984375
10379440625.0 -0.3214111328125 1.176025390625
10410662500.0 0.52752685546875 1.08502197265625
10441884375.0 0.991790771484375 0.520538330078125
10473106250.0 1.107421875 -0.0836181640625
10504328125.0 0.948577880859375 -0.759307861328125
10535550000.0 0.23974609375 -1.29266357421875
10566771875.0 -0.65814208984375 -1.07806396484375
10597993750.0 -1.08056640625 -0.45843505859375
10629215625.0 -1.17425537109375 0.20556640625
10660437500.0 -0.88751220703125 0.952911376953125
10691659375.0 -0.00982666015625 1.33502197265625
10722881250.0 0.785247802734375 0.951385498046875
10754103125.0 1.1192626953125 0.3238525390625
10785325000.0 1.13934326171875 -0.3682861328125
10816546875.0 0.7003173828125 -1.04840087890625
10847768750.0 -0.14447021484375 -1.22808837890625
10878990625.0 -0.80206298828125 -0.843414306640625
10910212500.0 -1.1241455078125 -0.2432861328125
10941434375.0 -1.09686279296875 0.4774169921875
10972656250.0 -0.566650390625 1.086181640625
11003878125.0 0.21771240234375 1.17388916015625
11035100000.0 0.84722900390625 0.821441650390625
11066321875.0 1.22076416015625 0.17279052734375
11097543750.0 1.09759521484375 -0.6766357421875
11128765625.0 0.38507080078125 -1.199462890625
11159987500.0 -0.3963623046875 -1.13873291015625
11191209375.0 -1.00103759765625 -0.70135498046875
11222431250.0 -1.27142333984375 0.09356689453125
11253653125.0 -0.85772705078125 0.8956298828125
11284875000.0 -0.11309814453125 1.12774658203125
11316096875.0 0.510772705078125 0.956207275390625
11347318750.0 1.00360107421875 0.5018310546875
11378540625.0 1.11614990234375 -0.268310546875
11409762500.0 0.63372802734375 -0.860137939453125
11440984375.0 0.034454345703125 -0.9788818359375
11472206250.0 -0.481597900390625 -0.8497314453125
11503428125.0 -0.953216552734375 -0.4556884765625
11534650000.0 -1.06768798828125 0.28765869140625
11565871875.0 -0.603118896484375 0.854766845703125
11597093750.0 -0.018402099609375 0.990203857421875
11628315625.0 0.545318603515625 0.874664306640625
11659537500.0 1.05908203125 0.3914794921875
11690759375.0 1.06475830078125 -0.4337158203125
11721981250.0 0.5162353515625 -0.93951416015625
11753203125.0 -0.106689453125 -1.0367431640625
11784425000.0 -0.724945068359375 -0.808319091796875
11815646875.0 -1.099853515625 -0.15240478515625
11846868750.0 -0.89044189453125 0.550872802734375
11878090625.0 -0.391082763671875 0.9091796875
11909312500.0 0.186981201171875 0.98419189453125
11940534375.0 0.78070068359375 0.69390869140625
11971756250.0 1.02490234375 0.0386962890625
12002978125.0 0.806732177734375 -0.539703369140625
12034200000.0 0.381011962890625 -0.887664794921875
12065421875.0 -0.21514892578125 -1.0093994140625
12096643750.0 -0.847930908203125 -0.664947509765625
12127865625.0 -1.033447265625 0.01702880859375
12159087500.0 -0.815093994140625 0.577301025390625
12190309375.0 -0.37713623046875 0.974365234375
12221531250.0 0.33966064453125 1.08709716796875
12252753125.0 0.9803466796875 0.58099365234375
12283975000.0 1.05413818359375 -0.12823486328125
12315196875.0 0.7998046875 -0.677947998046875
12346418750.0 0.2808837890625 -1.09039306640625
12377640625.0 -0.5394287109375 -1.0606689453125
12408862500.0 -1.0345458984375 -0.419189453125
12440084375.0 -1.00885009765625 0.22576904296875
12471306250.0 -0.7412109375 0.739013671875
12502528125.0 -0.1781005859375 1.1202392578125
12533750000.0 0.620758056640625 0.993438720703125
12564971875.0 1.04083251953125 0.36431884765625
12596193750.0 1.029052734375 -0.2646484375
12627415625.0 0.74737548828125 -0.82891845703125
12658637500.0 0.078857421875 -1.20721435546875
12689859375.0 -0.734405517578125 -0.966217041015625
12721081250.0 -1.1160888671875 -0.30609130859375
12752303125.0 -1.096435546875 0.3822021484375
12783525000.0 -0.68670654296875 1.02813720703125
12814746875.0 0.1639404296875 1.2498779296875
12845968750.0 0.864532470703125 0.810943603515625
12877190625.0 1.11724853515625 0.170654296875
12908412500.0 1.05487060546875 -0.50225830078125
12939634375.0 0.54254150390625 -1.11578369140625
12970856250.0 -0.32080078125 -1.17572021484375
13002078125.0 -0.896026611328125 -0.69287109375
13033300000.0 -1.10540771484375 -0.08599853515625
13064521875.0 -1.0093994140625 0.59405517578125
13095743750.0 -0.4195556640625 1.15472412109375
13126965625.0 0.40911865234375 1.12030029296875
13158187500.0 0.946990966796875 0.63128662109375
13189409375.0 1.14764404296875 -0.021484375
13220631250.0 0.935943603515625 -0.74859619140625
13251853125.0 0.2335205078125 -1.1715087890625
13283075000.0 -0.5086669921875 -1.02020263671875
13314296875.0 -0.987274169921875 -0.52899169921875
13345518750.0 -1.13482666015625 0.177490234375
