!Created with skrf (http://scikit-rf.org).
# Hz S RI R 50.0 
!freq ReS11 ImS11
45000000.0 -0.0772552490234375 -0.09672927856445312
76221875.0 -0.19710540771484375 -0.047607421875
107443750.0 -0.2558746337890625 0.120086669921875
138665625.0 -0.148651123046875 0.3296966552734375
169887500.0 0.123687744140625 0.4184417724609375
201109375.0 0.422760009765625 0.2820892333984375
232331250.0 0.58074951171875 -0.057373046875
263553125.0 0.491546630859375 -0.4545440673828125
294775000.0 0.09930419921875 -0.735443115234375
325996875.0 -0.41668701171875 -0.6839599609375
357218750.0 -0.80975341796875 -0.298675537109375
388440625.0 -0.889556884765625 0.30133056640625
419662500.0 -0.519622802734375 0.869384765625
450884375.0 0.17291259765625 1.0325927734375
482106250.0 0.8006591796875 0.715576171875
513328125.0 1.1231689453125 0.08770751953125
544550000.0 1.007080078125 -0.68170166015625
575771875.0 0.3380126953125 -1.241455078125
606993750.0 -0.5546875 -1.18096923828125
638215625.0 -1.16876220703125 -0.59307861328125
669437500.0 -1.34393310546875 0.23358154296875
700659375.0 -0.97454833984375 1.09844970703125
731881250.0 -0.00506591796875 1.54681396484375
763103125.0 1.00726318359375 1.16058349609375
794325000.0 1.4727783203125 0.2840576171875
825546875.0 1.37213134765625 -0.652587890625
856768750.0 0.79742431640625 -1.4058837890625
887990625.0 -0.29345703125 -1.6541748046875
919212500.0 -1.29241943359375 -1.08349609375
950434375.0 -1.655029296875 -0.06024169921875
981656250.0 -1.388427734375 0.949462890625
1012878125.0 -0.5321044921875 1.67791748046875
1044100000.0 0.69915771484375 1.6685791015625
1075321875.0 1.58074951171875 0.81536865234375
1106543750.0 1.711181640625 -0.3138427734375
1137765625.0 1.191650390625 -1.28863525390625
1168987500.0 0.139404296875 -1.8038330078125
1200209375.0 -1.06536865234375 -1.4901123046875
1231431250.0 -1.73443603515625 -0.4554443359375
1262653125.0 -1.59967041015625 0.68621826171875
1293875000.0 -0.85516357421875 1.49615478515625
1325096875.0 0.22772216796875 1.71270751953125
1356318750.0 1.23809814453125 1.22161865234375
1387540625.0 1.745849609375 0.19073486328125
1418762500.0 1.47509765625 -0.95379638671875
1449984375.0 0.53216552734375 -1.6309814453125
1481206250.0 -0.55084228515625 -1.561767578125
1512428125.0 -1.34637451171875 -0.92340087890625
1543650000.0 -1.660888671875 0.0650634765625
1574871875.0 -1.27764892578125 1.1121826171875
1606093750.0 -0.27392578125 1.635986328125
1637315625.0 0.7437744140625 1.40478515625
1668537500.0 1.40008544921875 0.6982421875
1699759375.0 1.57763671875 -0.27789306640625
1730981250.0 1.0673828125 -1.232177734375
1762203125.0 0.04327392578125 -1.5748291015625
1793425000.0 -0.85736083984375 -1.23028564453125
1824646875.0 -1.39654541015625 -0.517822265625
1855868750.0 -1.47882080078125 0.43206787109375
1887090625.0 -0.879150390625 1.28887939453125
1918312500.0 0.11663818359375 1.49200439453125
1949534375.0 0.9241943359375 1.0931396484375
1980756250.0 1.37945556640625 0.3720703125
2011978125.0 1.3638916015625 -0.5325927734375
2043200000.0 0.75244140625 -1.26568603515625
2074421875.0 -0.15716552734375 -1.4375
2105643750.0 -0.9627685546875 -1.0755615234375
2136865625.0 -1.45135498046875 -0.306396484375
2168087500.0 -1.36114501953125 0.6724853515625
2199309375.0 -0.64141845703125 1.3548583984375
2230531250.0 0.2822265625 1.44024658203125
2261753125.0 1.075439453125 1.0169677734375
2292975000.0 1.5181884765625 0.17120361328125
2324196875.0 1.30950927734375 -0.820068359375
2355418750.0 0.52734375 -1.42364501953125
2386640625.0 -0.40435791015625 -1.45306396484375
2417862500.0 -1.18536376953125 -1.02874755859375
2449084375.0 -1.611083984375 -0.083740234375
2480306250.0 -1.315185546875 0.92877197265625
2511528125.0 -0.4951171875 1.51300048828125
2542750000.0 0.49017333984375 1.54107666015625
2573971875.0 1.3768310546875 0.97113037109375
2605193750.0 1.7242431640625 -0.113525390625
2636415625.0 1.26568603515625 -1.1563720703125
2667637500.0 0.30767822265625 -1.67401123046875
2698859375.0 -0.77239990234375 -1.5396728515625
2730081250.0 -1.57940673828125 -0.74249267578125
2761303125.0 -1.68670654296875 0.3897705078125
2792525000.0 -1.10308837890625 1.312744140625
2823746875.0 -0.1021728515625 1.73486328125
2854968750.0 1.01702880859375 1.46087646484375
2886190625.0 1.69842529296875 0.4932861328125
2917412500.0 1.606201171875 -0.62005615234375
2948634375.0 0.94244384765625 -1.43890380859375
2979856250.0 -0.109130859375 -1.7828369140625
3011078125.0 -1.25335693359375 -1.3465576171875
3042300000.0 -1.7806396484375 -0.235107421875
3073521875.0 -1.51409912109375 0.841796875
3104743750.0 -0.76544189453125 1.57342529296875
3135965625.0 0.36334228515625 1.81610107421875
3167187500.0 1.506103515625 1.16790771484375
3198409375.0 1.82281494140625 -0.0775146484375
3229631250.0 1.3531494140625 -1.08551025390625
3260853125.0 0.49066162109375 -1.67529296875
3292075000.0 -0.65802001953125 -1.7037353515625
3323296875.0 -1.6251220703125 -0.8822021484375
3354518750.0 -1.7362060546875 0.3306884765625
3385740625.0 -1.15972900390625 1.23651123046875
3416962500.0 -0.231689453125 1.68670654296875
3448184375.0 0.86187744140625 1.52642822265625
3479406250.0 1.64178466796875 0.6463623046875
3510628125.0 1.65020751953125 -0.49774169921875
3541850000.0 1.0032958984375 -1.360107421875
3573071875.0 -0.008056640625 -1.687255859375
3604293750.0 -1.0311279296875 -1.341064453125
3635515625.0 -1.6337890625 -0.43963623046875
3666737500.0 -1.56689453125 0.6480712890625
3697959375.0 -0.82733154296875 1.4810791015625
3729181250.0 0.2698974609375 1.63531494140625
3760403125.0 1.1568603515625 1.101318359375
3791625000.0 1.557373046875 0.2191162109375
3822846875.0 1.40625 -0.7646484375
3854068750.0 0.6219482421875 -1.4853515625
3885290625.0 -0.42303466796875 -1.48529052734375
3916512500.0 -1.14501953125 -0.9132080078125
3947734375.0 -1.4520263671875 -0.11981201171875
3978956250.0 -1.30169677734375 0.78082275390625
4010178125.0 -0.5318603515625 1.460205078125
4041400000.0 0.47540283203125 1.41973876953125
4072621875.0 1.15472412109375 0.8492431640625
4103843750.0 1.447998046875 0.06329345703125
4135065625.0 1.27117919921875 -0.84954833984375
4166287500.0 0.45831298828125 -1.50103759765625
4197509375.0 -0.560546875 -1.41888427734375
4228731250.0 -1.25146484375 -0.80419921875
4259953125.0 -1.5130615234375 0.0716552734375
4291175000.0 -1.19171142578125 1.01385498046875
4322396875.0 -0.28912353515625 1.531494140625
4353618750.0 0.67572021484375 1.3536376953125
4384840625.0 1.32568359375 0.6983642578125
4416062500.0 1.50469970703125 -0.229248046875
4447284375.0 1.0577392578125 -1.10809326171875
4478506250.0 0.17193603515625 -1.49993896484375
4509728125.0 -0.7359619140625 -1.31158447265625
4540950000.0 -1.3985595703125 -0.6370849609375
4572171875.0 -1.52642822265625 0.3619384765625
4603393750.0 -0.97467041015625 1.21624755859375
4634615625.0 -0.06103515625 1.54144287109375
4665837500.0 0.87255859375 1.3077392578125
4697059375.0 1.54638671875 0.5166015625
4728281250.0 1.53399658203125 -0.5855712890625
4759503125.0 0.82440185546875 -1.3719482421875
4790725000.0 -0.14630126953125 -1.57684326171875
4821946875.0 -1.0867919921875 -1.1973876953125
4853168750.0 -1.6195068359375 -0.2503662109375
4884390625.0 -1.38177490234375 0.797119140625
4915612500.0 -0.61456298828125 1.41619873046875
4946834375.0 0.33074951171875 1.51324462890625
4978056250.0 1.20904541015625 1.01953125
5009278125.0 1.56597900390625 0.03887939453125
5040500000.0 1.23211669921875 -0.87957763671875
5071721875.0 0.501708984375 -1.4195556640625
5102943750.0 -0.4476318359375 -1.50042724609375
5134165625.0 -1.340087890625 -0.90765380859375
5165387500.0 -1.57208251953125 0.14630126953125
5196609375.0 -1.1392822265625 1.0130615234375
5227831250.0 -0.35791015625 1.51031494140625
5259053125.0 0.69012451171875 1.49664306640625
5290275000.0 1.5264892578125 0.6640625
5321496875.0 1.496826171875 -0.43310546875
5352718750.0 0.92303466796875 -1.15716552734375
5383940625.0 0.09649658203125 -1.504150390625
5415162500.0 -0.90380859375 -1.28717041015625
5446384375.0 -1.4891357421875 -0.3702392578125
5477606250.0 -1.30242919921875 0.56787109375
5508828125.0 -0.7325439453125 1.15533447265625
5540050000.0 0.0555419921875 1.40350341796875
5571271875.0 0.942138671875 1.11138916015625
5602493750.0 1.412841796875 0.2598876953125
5633715625.0 1.235107421875 -0.61492919921875
5664937500.0 0.64910888671875 -1.205322265625
5696159375.0 -0.19781494140625 -1.38775634765625
5727381250.0 -1.02508544921875 -0.98101806640625
5758603125.0 -1.3953857421875 -0.145263671875
5789825000.0 -1.1973876953125 0.7205810546875
5821046875.0 -0.5072021484375 1.31170654296875
5852268750.0 0.4140625 1.31689453125
5883490625.0 1.07470703125 0.77349853515625
5914712500.0 1.3065185546875 0.01885986328125
5945934375.0 1.09930419921875 -0.77880859375
5977156250.0 0.36138916015625 -1.3167724609375
6008378125.0 -0.51226806640625 -1.1854248046875
6039600000.0 -1.02520751953125 -0.6502685546875
6070821875.0 -1.22735595703125 -0.00384521484375
6102043750.0 -1.0859375 0.76605224609375
6133265625.0 -0.34222412109375 1.34844970703125
6164487500.0 0.56707763671875 1.190673828125
6195709375.0 1.0743408203125 0.631103515625
6226931250.0 1.2835693359375 -0.0439453125
6258153125.0 1.1075439453125 -0.87451171875
6289375000.0 0.2548828125 -1.45159912109375
6320596875.0 -0.692626953125 -1.20855712890625
6351818750.0 -1.2044677734375 -0.57275390625
6383040625.0 -1.35906982421875 0.2086181640625
6414262500.0 -1.00238037109375 1.061279296875
6445484375.0 -0.07666015625 1.46197509765625
6476706250.0 0.799072265625 1.15008544921875
6507928125.0 1.2938232421875 0.470458984375
6539150000.0 1.35107421875 -0.3887939453125
6570371875.0 0.84210205078125 -1.14874267578125
6601593750.0 -0.018798828125 -1.408935546875
6632815625.0 -0.843017578125 -1.13800048828125
6664037500.0 -1.40618896484375 -0.4193115234375
6695259375.0 -1.377685546875 0.56976318359375
6726481250.0 -0.7113037109375 1.25506591796875
6757703125.0 0.1324462890625 1.4110107421875
6788925000.0 0.9580078125 1.1331787109375
6820146875.0 1.56439208984375 0.28759765625
6851368750.0 1.32904052734375 -0.82415771484375
6882590625.0 0.50653076171875 -1.3431396484375
6913812500.0 -0.293701171875 -1.360595703125
6945034375.0 -1.07427978515625 -1.024169921875
6976256250.0 -1.59759521484375 -0.09197998046875
7007478125.0 -1.23956298828125 0.93927001953125
7038700000.0 -0.40216064453125 1.34832763671875
7069921875.0 0.36065673828125 1.32757568359375
7101143750.0 1.1241455078125 0.97027587890625
7132365625.0 1.606201171875 0.01116943359375
7163587500.0 1.1600341796875 -1.02618408203125
7194809375.0 0.30230712890625 -1.40106201171875
7226031250.0 -0.5125732421875 -1.3292236328125
7257253125.0 -1.2724609375 -0.825927734375
7288475000.0 -1.56488037109375 0.20086669921875
7319696875.0 -1.0325927734375 1.1143798828125
7350918750.0 -0.1634521484375 1.4486083984375
7382140625.0 0.718505859375 1.28045654296875
7413362500.0 1.3809814453125 0.5777587890625
7444584375.0 1.4171142578125 -0.4107666015625
7475806250.0 0.86041259765625 -1.1474609375
7507028125.0 0.00323486328125 -1.4359130859375
7538250000.0 -0.89324951171875 -1.12664794921875
7569471875.0 -1.34149169921875 -0.31036376953125
7600693750.0 -1.20587158203125 0.502685546875
7631915625.0 -0.71917724609375 1.0911865234375
7663137500.0 0.08404541015625 1.36553955078125
7694359375.0 0.94635009765625 0.98284912109375
7725581250.0 1.24755859375 0.179443359375
7756803125.0 1.086181640625 -0.50177001953125
7788025000.0 0.672607421875 -1.04742431640625
7819246875.0 -0.1231689453125 -1.35150146484375
7850468750.0 -0.99884033203125 -0.91790771484375
7881690625.0 -1.23541259765625 -0.10491943359375
7912912500.0 -1.05767822265625 0.55615234375
7944134375.0 -0.606201171875 1.118896484375
7975356250.0 0.27593994140625 1.34088134765625
8006578125.0 1.0513916015625 0.77935791015625
8037800000.0 1.19720458984375 0.015625
8069021875.0 1.0098876953125 -0.62060546875
8100243750.0 0.4998779296875 -1.16656494140625
8131465625.0 -0.39239501953125 -1.2587890625
8162687500.0 -1.03741455078125 -0.68707275390625
8193909375.0 -1.18511962890625 0.01080322265625
8225131250.0 -1.02105712890625 0.68218994140625
8256353125.0 -0.42041015625 1.254638671875
8287575000.0 0.50714111328125 1.231201171875
8318796875.0 1.08612060546875 0.63616943359375
8350018750.0 1.2498779296875 -0.07861328125
8381240625.0 1.0345458984375 -0.84515380859375
8412462500.0 0.25347900390625 -1.379150390625
8443684375.0 -0.67474365234375 -1.17333984375
8474906250.0 -1.17889404296875 -0.53265380859375
8506128125.0 -1.3026123046875 0.23992919921875
8537350000.0 -0.92578125 1.05224609375
8568571875.0 -0.01226806640625 1.40032958984375
8599793750.0 0.8057861328125 1.0556640625
8631015625.0 1.24700927734375 0.39892578125
8662237500.0 1.291259765625 -0.43267822265625
8693459375.0 0.73675537109375 -1.183349609375
8724681250.0 -0.16595458984375 -1.3363037109375
8755903125.0 -0.884765625 -0.96044921875
8787125000.0 -1.30841064453125 -0.28094482421875
8818346875.0 -1.2548828125 0.620361328125
8849568750.0 -0.55517578125 1.2667236328125
8880790625.0 0.30224609375 1.28863525390625
8912012500.0 0.98370361328125 0.894134521484375
8943234375.0 1.40521240234375 0.1275634765625
8974456250.0 1.16998291015625 -0.8463134765625
9005678125.0 0.34783935546875 -1.3179931640625
9036900000.0 -0.44866943359375 -1.228515625
9068121875.0 -1.1058349609375 -0.78692626953125
9099343750.0 -1.44683837890625 0.10052490234375
9130565625.0 -0.98046875 1.017333984375
9161787500.0 -0.1519775390625 1.2890625
9193009375.0 0.55816650390625 1.1373291015625
9224231250.0 1.18505859375 0.6552734375
9255453125.0 1.404296875 -0.299560546875
9286675000.0 0.807373046875 -1.08966064453125
9317896875.0 0.02532958984375 -1.25146484375
9349118750.0 -0.65765380859375 -1.07354736328125
9380340625.0 -1.26470947265625 -0.5079345703125
9411562500.0 -1.3148193359375 0.48114013671875
9442784375.0 -0.64837646484375 1.1226806640625
9474006250.0 0.09210205078125 1.2154541015625
9505228125.0 0.76995849609375 0.982666015625
9536450000.0 1.27947998046875 0.3118896484375
9567671875.0 1.1463623046875 -0.5850830078125
9598893750.0 0.52960205078125 -1.07330322265625
9630115625.0 -0.14520263671875 -1.16162109375
9661337500.0 -0.82440185546875 -0.904571533203125
9692559375.0 -1.2440185546875 -0.18756103515625
9723781250.0 -1.04547119140625 0.6064453125
9755003125.0 -0.4853515625 1.05645751953125
9786225000.0 0.201171875 1.16400146484375
9817446875.0 0.901123046875 0.8297119140625
9848668750.0 1.20159912109375 0.075927734375
9879890625.0 0.97064208984375 -0.62213134765625
9911112500.0 0.45166015625 -1.0567626953125
9942334375.0 -0.271484375 -1.16265869140625
9973556250.0 -0.9501953125 -0.739227294921875
10004778125.0 -1.15020751953125 -0.01458740234375
10036000000.0 -0.94580078125 0.619354248046875
10067221875.0 -0.441162109375 1.10125732421875
10098443750.0 0.37579345703125 1.18560791015625
10129665625.0 1.00836181640625 0.64276123046875
10160887500.0 1.1220703125 -0.05267333984375
10192109375.0 0.91912841796875 -0.66827392578125
10223331250.0 0.35980224609375 -1.158203125
10254553125.0 -0.49053955078125 -1.11566162109375
10285775000.0 -0.990386962890625 -0.53424072265625
10316996875.0 -1.0709228515625 0.07904052734375
10348218750.0 -0.9019775390625 0.6744384765625
10379440625.0 -0.32000732421875 1.1800537109375
10410662500.0 0.5328369140625 1.0882568359375
10441884375.0 0.99761962890625 0.52105712890625
10473106250.0 1.11334228515625 -0.0863037109375
10504328125.0 0.951904296875 -0.76177978515625
10535550000.0 0.238525390625 -1.29876708984375
10566771875.0 -0.66064453125 -1.07891845703125
10597993750.0 -1.086181640625 -0.4578857421875
10629215625.0 -1.1793212890625 0.20782470703125
10660437500.0 -0.889373779296875 0.9573974609375
10691659375.0 -0.006103515625 1.34039306640625
10722881250.0 0.787689208984375 0.9534912109375
10754103125.0 1.12347412109375 0.32403564453125
10785325000.0 1.1439208984375 -0.3724365234375
10816546875.0 0.70086669921875 -1.05718994140625
10847768750.0 -0.1492919921875 -1.2333984375
10878990625.0 -0.8082275390625 -0.8448486328125
10910212500.0 -1.12860107421875 -0.24267578125
10941434375.0 -1.10064697265625 0.48162841796875
10972656250.0 -0.5667724609375 1.09130859375
11003878125.0 0.220947265625 1.17657470703125
11035100000.0 0.851318359375 0.8223876953125
11066321875.0 1.22442626953125 0.17230224609375
11097543750.0 1.10174560546875 -0.6817626953125
11128765625.0 0.384521484375 -1.20501708984375
11159987500.0 -0.399658203125 -1.14312744140625
11191209375.0 -1.00579833984375 -0.70428466796875
11222431250.0 -1.27789306640625 0.096923828125
11253653125.0 -0.86126708984375 0.89923095703125
11284875000.0 -0.11181640625 1.13079833984375
11316096875.0 0.517486572265625 0.959228515625
11347318750.0 1.00933837890625 0.50164794921875
11378540625.0 1.119873046875 -0.27362060546875
11409762500.0 0.634521484375 -0.8638916015625
11440984375.0 0.0345458984375 -0.98095703125
11472206250.0 -0.484649658203125 -0.853179931640625
11503428125.0 -0.95843505859375 -0.455230712890625
11534650000.0 -1.07220458984375 0.292236328125
11565871875.0 -0.601837158203125 0.8594970703125
11597093750.0 -0.0184326171875 0.993499755859375
11628315625.0 0.5487060546875 0.87738037109375
11659537500.0 1.06494140625 0.391357421875
11690759375.0 1.0673828125 -0.4368896484375
11721981250.0 0.51690673828125 -0.945892333984375
11753203125.0 -0.10894775390625 -1.04034423828125
11784425000.0 -0.72967529296875 -0.81109619140625
11815646875.0 -1.10565185546875 -0.14874267578125
11846868750.0 -0.8927001953125 0.556121826171875
11878090625.0 -0.3900146484375 0.91455078125
11909312500.0 0.190032958984375 0.987762451171875
11940534375.0 0.7843017578125 0.696014404296875
11971756250.0 1.02886962890625 0.03668212890625
12002978125.0 0.807159423828125 -0.541656494140625
12034200000.0 0.38079833984375 -0.8934326171875
12065421875.0 -0.21875 -1.0128173828125
12096643750.0 -0.855072021484375 -0.664276123046875
12127865625.0 -1.03741455078125 0.019775390625
12159087500.0 -0.81640625 0.58038330078125
12190309375.0 -0.377044677734375 0.979827880859375
12221531250.0 0.3433837890625 1.0916748046875
12252753125.0 0.984619140625 0.5811767578125
12283975000.0 1.05755615234375 -0.1297607421875
12315196875.0 0.802001953125 -0.68170166015625
12346418750.0 0.2799072265625 -1.0965576171875
12377640625.0 -0.5433349609375 -1.06298828125
12408862500.0 -1.0374755859375 -0.41839599609375
12440084375.0 -1.01055908203125 0.226806640625
12471306250.0 -0.74212646484375 0.741790771484375
12502528125.0 -0.1766357421875 1.12518310546875
12533750000.0 0.624603271484375 0.99530029296875
12564971875.0 1.04339599609375 0.36279296875
12596193750.0 1.03204345703125 -0.26763916015625
12627415625.0 0.748382568359375 -0.834014892578125
12658637500.0 0.0760498046875 -1.21270751953125
12689859375.0 -0.74176025390625 -0.967864990234375
12721081250.0 -1.12054443359375 -0.30517578125
12752303125.0 -1.10089111328125 0.38580322265625
12783525000.0 -0.68890380859375 1.03369140625
12814746875.0 0.17095947265625 1.25677490234375
12845968750.0 0.8690185546875 0.8111572265625
12877190625.0 1.12249755859375 0.17022705078125
12908412500.0 1.05859375 -0.50726318359375
12939634375.0 0.54095458984375 -1.12335205078125
12970856250.0 -0.325927734375 -1.1793212890625
13002078125.0 -0.900299072265625 -0.692779541015625
13033300000.0 -1.10986328125 -0.0838623046875
13064521875.0 -1.0123291015625 0.5985107421875
13095743750.0 -0.418212890625 1.1591796875
13126965625.0 0.4139404296875 1.12298583984375
13158187500.0 0.951812744140625 0.631256103515625
13189409375.0 1.15313720703125 -0.02557373046875
13220631250.0 0.937408447265625 -0.753173828125
13251853125.0 0.2308349609375 -1.1778564453125
13283075000.0 -0.51165771484375 -1.02142333984375
13314296875.0 -0.99371337890625 -0.5284423828125
13345518750.0 -1.1397705078125 0.18218994140625
13376740625.0 -0.752960205078125 0.86590576171875
13407962500.0 -0.0556640625 1.07037353515625
