!Created with skrf (http://scikit-rf.org).
# Hz S RI R 50.0 
!freq ReS11 ImS11
45000000.0 -0.07710647583007812 -0.09692764282226562
76221875.0 -0.19748687744140625 -0.047271728515625
107443750.0 -0.255950927734375 0.121063232421875
138665625.0 -0.148284912109375 0.3305206298828125
169887500.0 0.1246490478515625 0.4193267822265625
201109375.0 0.42437744140625 0.2816619873046875
232331250.0 0.581298828125 -0.058990478515625
263553125.0 0.490814208984375 -0.456573486328125
294775000.0 0.097076416015625 -0.736328125
325996875.0 -0.419036865234375 -0.68328857421875
357218750.0 -0.811737060546875 -0.297027587890625
388440625.0 -0.889892578125 0.30462646484375
419662500.0 -0.518310546875 0.871795654296875
450884375.0 0.17578125 1.03387451171875
482106250.0 0.803955078125 0.71502685546875
513328125.0 1.12530517578125 0.085205078125
544550000.0 1.00689697265625 -0.6849365234375
575771875.0 0.33551025390625 -1.244140625
606993750.0 -0.55853271484375 -1.181640625
638215625.0 -1.1724853515625 -0.59088134765625
669437500.0 -1.345458984375 0.23760986328125
700659375.0 -0.972900390625 1.10296630859375
731881250.0 -0.0009765625 1.55023193359375
763103125.0 1.012451171875 1.15960693359375
794325000.0 1.47650146484375 0.2801513671875
825546875.0 1.3719482421875 -0.65716552734375
856768750.0 0.79498291015625 -1.4105224609375
887990625.0 -0.298095703125 -1.6563720703125
919212500.0 -1.298095703125 -1.08135986328125
950434375.0 -1.65814208984375 -0.05474853515625
981656250.0 -1.3878173828125 0.955322265625
1012878125.0 -0.5283203125 1.68353271484375
1044100000.0 0.705322265625 1.6700439453125
1075321875.0 1.58599853515625 0.812744140625
1106543750.0 1.71380615234375 -0.31915283203125
1137765625.0 1.190185546875 -1.294189453125
1168987500.0 0.13494873046875 -1.80767822265625
1200209375.0 -1.07159423828125 -1.48919677734375
1231431250.0 -1.73822021484375 -0.45123291015625
1262653125.0 -1.60107421875 0.692138671875
1293875000.0 -0.853271484375 1.50146484375
1325096875.0 0.2333984375 1.7159423828125
1356318750.0 1.2449951171875 1.220947265625
1387540625.0 1.7498779296875 0.1856689453125
1418762500.0 1.4747314453125 -0.96002197265625
1449984375.0 0.52801513671875 -1.6363525390625
1481206250.0 -0.55670166015625 -1.5626220703125
1512428125.0 -1.35113525390625 -0.9207763671875
1543650000.0 -1.663818359375 0.07012939453125
1574871875.0 -1.27667236328125 1.11761474609375
1606093750.0 -0.26983642578125 1.64031982421875
1637315625.0 0.74951171875 1.40582275390625
1668537500.0 1.40478515625 0.6956787109375
1699759375.0 1.58056640625 -0.28228759765625
1730981250.0 1.06646728515625 -1.2381591796875
1762203125.0 0.038330078125 -1.57861328125
1793425000.0 -0.863525390625 -1.23028564453125
1824646875.0 -1.40191650390625 -0.51385498046875
1855868750.0 -1.48065185546875 0.43865966796875
1887090625.0 -0.875244140625 1.294677734375
1918312500.0 0.1220703125 1.4935302734375
1949534375.0 0.9288330078125 1.0911865234375
1980756250.0 1.38189697265625 0.36834716796875
2011978125.0 1.3648681640625 -0.5374755859375
2043200000.0 0.75067138671875 -1.26959228515625
2074421875.0 -0.16107177734375 -1.43988037109375
2105643750.0 -0.96795654296875 -1.074951171875
2136865625.0 -1.45562744140625 -0.3018798828125
2168087500.0 -1.3619384765625 0.67864990234375
2199309375.0 -0.6380615234375 1.3599853515625
2230531250.0 0.28729248046875 1.44232177734375
2261753125.0 1.0811767578125 1.01568603515625
2292975000.0 1.52264404296875 0.1666259765625
2324196875.0 1.30908203125 -0.82708740234375
2355418750.0 0.52288818359375 -1.42840576171875
2386640625.0 -0.4110107421875 -1.45391845703125
2417862500.0 -1.19000244140625 -1.0250244140625
2449084375.0 -1.61322021484375 -0.07891845703125
2480306250.0 -1.31488037109375 0.9344482421875
2511528125.0 -0.491455078125 1.517578125
2542750000.0 0.49591064453125 1.54302978515625
2573971875.0 1.38165283203125 0.9686279296875
2605193750.0 1.72528076171875 -0.11895751953125
2636415625.0 1.26397705078125 -1.162353515625
2667637500.0 0.30242919921875 -1.67657470703125
2698859375.0 -0.78082275390625 -1.54107666015625
2730081250.0 -1.58599853515625 -0.7386474609375
2761303125.0 -1.68878173828125 0.3951416015625
2792525000.0 -1.101318359375 1.31829833984375
2823746875.0 -0.09613037109375 1.740234375
2854968750.0 1.02276611328125 1.45977783203125
2886190625.0 1.70233154296875 0.489013671875
2917412500.0 1.6064453125 -0.62744140625
2948634375.0 0.93927001953125 -1.4451904296875
2979856250.0 -0.1156005859375 -1.7852783203125
3011078125.0 -1.25933837890625 -1.34478759765625
3042300000.0 -1.7857666015625 -0.22930908203125
3073521875.0 -1.51446533203125 0.84857177734375
3104743750.0 -0.7618408203125 1.5804443359375
3135965625.0 0.37078857421875 1.81829833984375
3167187500.0 1.51116943359375 1.1651611328125
3198409375.0 1.82568359375 -0.08148193359375
3229631250.0 1.3526611328125 -1.0911865234375
3260853125.0 0.48638916015625 -1.67926025390625
3292075000.0 -0.6639404296875 -1.70538330078125
3323296875.0 -1.6328125 -0.87884521484375
3354518750.0 -1.73870849609375 0.3365478515625
3385740625.0 -1.157958984375 1.24322509765625
3416962500.0 -0.22613525390625 1.69329833984375
3448184375.0 0.87152099609375 1.52752685546875
3479406250.0 1.647216796875 0.64117431640625
3510628125.0 1.6513671875 -0.505126953125
3541850000.0 1.000244140625 -1.3662109375
3573071875.0 -0.0142822265625 -1.6915283203125
3604293750.0 -1.03839111328125 -1.33978271484375
3635515625.0 -1.638671875 -0.433837890625
3666737500.0 -1.5667724609375 0.6549072265625
3697959375.0 -0.82379150390625 1.48797607421875
3729181250.0 0.27587890625 1.63739013671875
3760403125.0 1.16107177734375 1.09918212890625
3791625000.0 1.5614013671875 0.21392822265625
3822846875.0 1.40655517578125 -0.76898193359375
3854068750.0 0.61895751953125 -1.49139404296875
3885290625.0 -0.4285888671875 -1.4876708984375
3916512500.0 -1.15216064453125 -0.91107177734375
3947734375.0 -1.45709228515625 -0.11480712890625
3978956250.0 -1.301513671875 0.7884521484375
4010178125.0 -0.52777099609375 1.46539306640625
4041400000.0 0.4833984375 1.421142578125
4072621875.0 1.1614990234375 0.84600830078125
4103843750.0 1.45184326171875 0.057373046875
4135065625.0 1.27117919921875 -0.85784912109375
4166287500.0 0.4525146484375 -1.50555419921875
4197509375.0 -0.5682373046875 -1.41949462890625
4228731250.0 -1.2564697265625 -0.80059814453125
4259953125.0 -1.51556396484375 0.0775146484375
4291175000.0 -1.189697265625 1.02044677734375
4322396875.0 -0.2845458984375 1.5350341796875
4353618750.0 0.6807861328125 1.35345458984375
4384840625.0 1.33154296875 0.69525146484375
4416062500.0 1.5089111328125 -0.235595703125
4447284375.0 1.05596923828125 -1.11614990234375
4478506250.0 0.16680908203125 -1.50299072265625
4509728125.0 -0.74310302734375 -1.3115234375
4540950000.0 -1.40447998046875 -0.63238525390625
4572171875.0 -1.52862548828125 0.36981201171875
4603393750.0 -0.97125244140625 1.2236328125
4634615625.0 -0.0545654296875 1.54412841796875
4665837500.0 0.880615234375 1.30706787109375
4697059375.0 1.551025390625 0.51043701171875
4728281250.0 1.5338134765625 -0.59326171875
4759503125.0 0.81964111328125 -1.37646484375
4790725000.0 -0.15277099609375 -1.57830810546875
4821946875.0 -1.09320068359375 -1.19476318359375
4853168750.0 -1.62225341796875 -0.244873046875
4884390625.0 -1.3817138671875 0.804931640625
4915612500.0 -0.60992431640625 1.42230224609375
4946834375.0 0.3369140625 1.51556396484375
4978056250.0 1.2164306640625 1.017333984375
5009278125.0 1.57000732421875 0.0325927734375
5040500000.0 1.2315673828125 -0.88641357421875
5071721875.0 0.497314453125 -1.4248046875
5102943750.0 -0.45697021484375 -1.50250244140625
5134165625.0 -1.34844970703125 -0.90362548828125
5165387500.0 -1.5745849609375 0.15545654296875
5196609375.0 -1.13623046875 1.02001953125
5227831250.0 -0.35198974609375 1.51519775390625
5259053125.0 0.69830322265625 1.495849609375
5290275000.0 1.533203125 0.65716552734375
5321496875.0 1.49603271484375 -0.44012451171875
5352718750.0 0.91925048828125 -1.1624755859375
5383940625.0 0.09014892578125 -1.50848388671875
5415162500.0 -0.90985107421875 -1.28558349609375
5446384375.0 -1.493408203125 -0.36529541015625
5477606250.0 -1.30316162109375 0.5751953125
5508828125.0 -0.73016357421875 1.16033935546875
5540050000.0 0.05987548828125 1.40594482421875
5571271875.0 0.94940185546875 1.1104736328125
5602493750.0 1.4180908203125 0.253662109375
5633715625.0 1.23516845703125 -0.62213134765625
5664937500.0 0.64459228515625 -1.211669921875
5696159375.0 -0.20556640625 -1.3900146484375
5727381250.0 -1.03271484375 -0.97686767578125
5758603125.0 -1.3983154296875 -0.1383056640625
5789825000.0 -1.19598388671875 0.72808837890625
5821046875.0 -0.50079345703125 1.31719970703125
5852268750.0 0.42156982421875 1.31640625
5883490625.0 1.08013916015625 0.76959228515625
5914712500.0 1.308837890625 0.01361083984375
5945934375.0 1.0980224609375 -0.78485107421875
5977156250.0 0.35650634765625 -1.319580078125
6008378125.0 -0.51824951171875 -1.18499755859375
6039600000.0 -1.02947998046875 -0.64697265625
6070821875.0 -1.23016357421875 0.00164794921875
6102043750.0 -1.08551025390625 0.7730712890625
6133265625.0 -0.33551025390625 1.35479736328125
6164487500.0 0.574462890625 1.19012451171875
6195709375.0 1.07989501953125 0.6270751953125
6226931250.0 1.28704833984375 -0.05035400390625
6258153125.0 1.10552978515625 -0.88262939453125
6289375000.0 0.2476806640625 -1.45465087890625
6320596875.0 -0.7000732421875 -1.2064208984375
6351818750.0 -1.2083740234375 -0.56683349609375
6383040625.0 -1.35882568359375 0.21527099609375
6414262500.0 -0.9979248046875 1.0672607421875
6445484375.0 -0.06927490234375 1.46380615234375
6476706250.0 0.80621337890625 1.148193359375
6507928125.0 1.29833984375 0.465576171875
6539150000.0 1.351806640625 -0.395751953125
6570371875.0 0.838623046875 -1.1541748046875
6601593750.0 -0.02484130859375 -1.4114990234375
6632815625.0 -0.84930419921875 -1.137939453125
6664037500.0 -1.41156005859375 -0.41412353515625
6695259375.0 -1.3780517578125 0.5784912109375
6726481250.0 -0.70599365234375 1.2615966796875
6757703125.0 0.14007568359375 1.41314697265625
6788925000.0 0.9676513671875 1.13079833984375
6820146875.0 1.56988525390625 0.27947998046875
6851368750.0 1.326416015625 -0.832275390625
6882590625.0 0.5003662109375 -1.34600830078125
6913812500.0 -0.30181884765625 -1.3607177734375
6945034375.0 -1.08233642578125 -1.02008056640625
6976256250.0 -1.601318359375 -0.083251953125
7007478125.0 -1.23663330078125 0.9453125
7038700000.0 -0.39715576171875 1.35211181640625
7069921875.0 0.3695068359375 1.33038330078125
7101143750.0 1.1312255859375 0.9686279296875
7132365625.0 1.6083984375 0.0035400390625
7163587500.0 1.158447265625 -1.034423828125
7194809375.0 0.29669189453125 -1.406494140625
7226031250.0 -0.52386474609375 -1.3316650390625
7257253125.0 -1.28204345703125 -0.820556640625
7288475000.0 -1.5665283203125 0.20965576171875
7319696875.0 -1.0279541015625 1.12127685546875
7350918750.0 -0.15643310546875 1.45306396484375
7382140625.0 0.7276611328125 1.2799072265625
7413362500.0 1.38824462890625 0.56976318359375
7444584375.0 1.417236328125 -0.42120361328125
7475806250.0 0.85394287109375 -1.1549072265625
7507028125.0 -0.00347900390625 -1.436767578125
7538250000.0 -0.89794921875 -1.1240234375
7569471875.0 -1.34478759765625 -0.3040771484375
7600693750.0 -1.20465087890625 0.505859375
7631915625.0 -0.71533203125 1.098388671875
7663137500.0 0.08819580078125 1.36627197265625
7694359375.0 0.94970703125 0.981689453125
7725581250.0 1.2528076171875 0.174072265625
7756803125.0 1.0875244140625 -0.51031494140625
7788025000.0 0.668701171875 -1.0533447265625
7819246875.0 -0.130859375 -1.35675048828125
7850468750.0 -1.0047607421875 -0.91473388671875
7881690625.0 -1.23980712890625 -0.09674072265625
7912912500.0 -1.057373046875 0.56378173828125
7944134375.0 -0.60101318359375 1.124755859375
7975356250.0 0.281494140625 1.339111328125
8006578125.0 1.057373046875 0.7745361328125
8037800000.0 1.1986083984375 0.00933837890625
8069021875.0 1.00811767578125 -0.627197265625
8100243750.0 0.4945068359375 -1.17108154296875
8131465625.0 -0.39898681640625 -1.25823974609375
8162687500.0 -1.0406494140625 -0.6839599609375
8193909375.0 -1.1861572265625 0.0146484375
8225131250.0 -1.02099609375 0.68865966796875
8256353125.0 -0.41510009765625 1.25811767578125
8287575000.0 0.51226806640625 1.230224609375
8318796875.0 1.09185791015625 0.6318359375
8350018750.0 1.25213623046875 -0.08380126953125
8381240625.0 1.0321044921875 -0.8516845703125
8412462500.0 0.24493408203125 -1.38348388671875
8443684375.0 -0.68316650390625 -1.17132568359375
8474906250.0 -1.185302734375 -0.52606201171875
8506128125.0 -1.30340576171875 0.24835205078125
8537350000.0 -0.921142578125 1.0579833984375
8568571875.0 -0.00469970703125 1.40216064453125
8599793750.0 0.8125 1.05291748046875
8631015625.0 1.25146484375 0.3927001953125
8662237500.0 1.28961181640625 -0.43829345703125
8693459375.0 0.7325439453125 -1.18719482421875
8724681250.0 -0.17120361328125 -1.33807373046875
8755903125.0 -0.891815185546875 -0.958404541015625
8787125000.0 -1.313232421875 -0.27685546875
8818346875.0 -1.25567626953125 0.6302490234375
8849568750.0 -0.55047607421875 1.27423095703125
8880790625.0 0.310546875 1.29180908203125
8912012500.0 0.994903564453125 0.891448974609375
8943234375.0 1.410400390625 0.1177978515625
8974456250.0 1.16485595703125 -0.8543701171875
9005678125.0 0.34051513671875 -1.3206787109375
9036900000.0 -0.45556640625 -1.22747802734375
9068121875.0 -1.1129150390625 -0.78173828125
9099343750.0 -1.44683837890625 0.10986328125
9130565625.0 -0.97552490234375 1.02264404296875
9161787500.0 -0.1455078125 1.28985595703125
9193009375.0 0.5645751953125 1.1363525390625
9224231250.0 1.1898193359375 0.65081787109375
9255453125.0 1.40643310546875 -0.3087158203125
9286675000.0 0.80401611328125 -1.09771728515625
9317896875.0 0.01898193359375 -1.25494384765625
9349118750.0 -0.66455078125 -1.07391357421875
9380340625.0 -1.27081298828125 -0.50372314453125
9411562500.0 -1.31524658203125 0.49029541015625
9442784375.0 -0.642578125 1.1297607421875
9474006250.0 0.099365234375 1.21917724609375
9505228125.0 0.777679443359375 0.980194091796875
9536450000.0 1.28607177734375 0.30364990234375
9567671875.0 1.14501953125 -0.59552001953125
9598893750.0 0.52374267578125 -1.0772705078125
9630115625.0 -0.15338134765625 -1.16229248046875
9661337500.0 -0.829925537109375 -0.90106201171875
9692559375.0 -1.2481689453125 -0.1796875
9723781250.0 -1.04339599609375 0.61297607421875
9755003125.0 -0.4805908203125 1.0589599609375
9786225000.0 0.2080078125 1.16497802734375
9817446875.0 0.90692138671875 0.825592041015625
9848668750.0 1.20574951171875 0.0692138671875
9879890625.0 0.9688720703125 -0.6268310546875
9911112500.0 0.4476318359375 -1.06231689453125
9942334375.0 -0.2781982421875 -1.165283203125
9973556250.0 -0.95599365234375 -0.735015869140625
10004778125.0 -1.1531982421875 -0.0069580078125
10036000000.0 -0.945098876953125 0.628387451171875
10067221875.0 -0.43408203125 1.10882568359375
10098443750.0 0.384033203125 1.18511962890625
10129665625.0 1.013916015625 0.636474609375
10160887500.0 1.12420654296875 -0.0616455078125
10192109375.0 0.916229248046875 -0.67413330078125
10223331250.0 0.35302734375 -1.161865234375
10254553125.0 -0.49652099609375 -1.1148681640625
10285775000.0 -0.993133544921875 -0.530029296875
10316996875.0 -1.07098388671875 0.0843505859375
10348218750.0 -0.89990234375 0.680450439453125
10379440625.0 -0.31304931640625 1.186279296875
10410662500.0 0.5390625 1.08782958984375
10441884375.0 1.0009765625 0.51666259765625
10473106250.0 1.11444091796875 -0.091796875
10504328125.0 0.949554443359375 -0.770294189453125
10535550000.0 0.22802734375 -1.30584716796875
10566771875.0 -0.67047119140625 -1.07635498046875
10597993750.0 -1.0911865234375 -0.45245361328125
10629215625.0 -1.18115234375 0.2171630859375
10660437500.0 -0.884124755859375 0.967254638671875
10691659375.0 0.003173828125 1.3436279296875
10722881250.0 0.798126220703125 0.949066162109375
10754103125.0 1.1278076171875 0.317626953125
10785325000.0 1.14178466796875 -0.37762451171875
10816546875.0 0.69537353515625 -1.0616455078125
10847768750.0 -0.15753173828125 -1.23394775390625
10878990625.0 -0.813232421875 -0.841339111328125
10910212500.0 -1.12945556640625 -0.23883056640625
10941434375.0 -1.10040283203125 0.48895263671875
10972656250.0 -0.56195068359375 1.09716796875
11003878125.0 0.22943115234375 1.17950439453125
11035100000.0 0.85845947265625 0.820159912109375
11066321875.0 1.2294921875 0.1663818359375
11097543750.0 1.0999755859375 -0.69024658203125
11128765625.0 0.3768310546875 -1.2113037109375
11159987500.0 -0.40826416015625 -1.1424560546875
11191209375.0 -1.012451171875 -0.69805908203125
11222431250.0 -1.27911376953125 0.10614013671875
11253653125.0 -0.85430908203125 0.907073974609375
11284875000.0 -0.10589599609375 1.1328125
11316096875.0 0.5203857421875 0.956939697265625
11347318750.0 1.01312255859375 0.496826171875
11378540625.0 1.11962890625 -0.279296875
11409762500.0 0.630096435546875 -0.867919921875
11440984375.0 0.028472900390625 -0.98345947265625
11472206250.0 -0.49053955078125 -0.85174560546875
11503428125.0 -0.964141845703125 -0.45062255859375
11534650000.0 -1.072021484375 0.30029296875
11565871875.0 -0.598175048828125 0.862457275390625
11597093750.0 -0.0106201171875 0.99591064453125
11628315625.0 0.55487060546875 0.876434326171875
11659537500.0 1.0711669921875 0.38458251953125
11690759375.0 1.0675048828125 -0.4476318359375
11721981250.0 0.51116943359375 -0.94976806640625
11753203125.0 -0.11505126953125 -1.04193115234375
11784425000.0 -0.735565185546875 -0.80670166015625
11815646875.0 -1.1080322265625 -0.14202880859375
11846868750.0 -0.890594482421875 0.56427001953125
11878090625.0 -0.3851318359375 0.9161376953125
11909312500.0 0.19781494140625 0.9892578125
11940534375.0 0.7913818359375 0.692047119140625
11971756250.0 1.03057861328125 0.03118896484375
12002978125.0 0.805938720703125 -0.547882080078125
12034200000.0 0.376861572265625 -0.897613525390625
12065421875.0 -0.22540283203125 -1.01348876953125
12096643750.0 -0.858673095703125 -0.660552978515625
12127865625.0 -1.03863525390625 0.02679443359375
12159087500.0 -0.813751220703125 0.584930419921875
12190309375.0 -0.370880126953125 0.984130859375
12221531250.0 0.353759765625 1.091796875
12252753125.0 0.990142822265625 0.574310302734375
12283975000.0 1.05743408203125 -0.13739013671875
12315196875.0 0.798797607421875 -0.68817138671875
12346418750.0 0.2733154296875 -1.099853515625
12377640625.0 -0.55029296875 -1.06085205078125
12408862500.0 -1.0447998046875 -0.4105224609375
12440084375.0 -1.01068115234375 0.23333740234375
12471306250.0 -0.7401123046875 0.746917724609375
12502528125.0 -0.17132568359375 1.1290283203125
12533750000.0 0.6343994140625 0.9937744140625
12564971875.0 1.0498046875 0.35723876953125
12596193750.0 1.03302001953125 -0.27423095703125
12627415625.0 0.74554443359375 -0.84051513671875
12658637500.0 0.0682373046875 -1.21514892578125
12689859375.0 -0.748626708984375 -0.964202880859375
12721081250.0 -1.1279296875 -0.29669189453125
12752303125.0 -1.10107421875 0.3961181640625
12783525000.0 -0.6806640625 1.042724609375
12814746875.0 0.18072509765625 1.25604248046875
12845968750.0 0.874359130859375 0.806549072265625
12877190625.0 1.12554931640625 0.1617431640625
12908412500.0 1.0576171875 -0.517333984375
12939634375.0 0.53509521484375 -1.1298828125
12970856250.0 -0.33416748046875 -1.17803955078125
13002078125.0 -0.905303955078125 -0.68817138671875
13033300000.0 -1.112548828125 -0.07745361328125
13064521875.0 -1.0108642578125 0.6065673828125
13095743750.0 -0.41015625 1.16748046875
13126965625.0 0.42340087890625 1.12298583984375
13158187500.0 0.957000732421875 0.626739501953125
13189409375.0 1.15509033203125 -0.03338623046875
13220631250.0 0.934722900390625 -0.7623291015625
13251853125.0 0.222900390625 -1.181640625
13283075000.0 -0.51910400390625 -1.0198974609375
13314296875.0 -0.998626708984375 -0.522216796875
13345518750.0 -1.141357421875 0.19097900390625
