!Created with skrf (http://scikit-rf.org).
# Hz S RI R 50.0 
!freq ReS11 ImS11
45000000.0 -0.0773468017578125 -0.0967559814453125
76221875.0 -0.197235107421875 -0.0474853515625
107443750.0 -0.2560272216796875 0.1204833984375
138665625.0 -0.14837646484375 0.3297119140625
169887500.0 0.1240997314453125 0.4187774658203125
201109375.0 0.4231719970703125 0.2819366455078125
232331250.0 0.580902099609375 -0.057769775390625
263553125.0 0.4912567138671875 -0.45501708984375
294775000.0 0.0985107421875 -0.73577880859375
325996875.0 -0.417724609375 -0.6837158203125
357218750.0 -0.810211181640625 -0.29803466796875
388440625.0 -0.88946533203125 0.302337646484375
419662500.0 -0.51904296875 0.87005615234375
450884375.0 0.174072265625 1.03277587890625
482106250.0 0.8018798828125 0.71533203125
513328125.0 1.12371826171875 0.0870361328125
544550000.0 1.0068359375 -0.68255615234375
575771875.0 0.3370361328125 -1.24237060546875
606993750.0 -0.55572509765625 -1.1812744140625
638215625.0 -1.16973876953125 -0.59222412109375
669437500.0 -1.3441162109375 0.23455810546875
700659375.0 -0.97393798828125 1.099609375
731881250.0 -0.0040283203125 1.5477294921875
763103125.0 1.0087890625 1.1597900390625
794325000.0 1.4737548828125 0.2828369140625
825546875.0 1.371826171875 -0.65380859375
856768750.0 0.79669189453125 -1.40716552734375
887990625.0 -0.29486083984375 -1.6546630859375
919212500.0 -1.2940673828125 -1.082763671875
950434375.0 -1.65631103515625 -0.05804443359375
981656250.0 -1.38824462890625 0.95123291015625
1012878125.0 -0.53094482421875 1.67950439453125
1044100000.0 0.7010498046875 1.66900634765625
1075321875.0 1.581787109375 0.814697265625
1106543750.0 1.712158203125 -0.315185546875
1137765625.0 1.19085693359375 -1.29052734375
1168987500.0 0.138427734375 -1.804443359375
1200209375.0 -1.066650390625 -1.48980712890625
1231431250.0 -1.7349853515625 -0.45404052734375
1262653125.0 -1.5997314453125 0.68853759765625
1293875000.0 -0.85406494140625 1.4974365234375
1325096875.0 0.22930908203125 1.71282958984375
1356318750.0 1.23980712890625 1.22137451171875
1387540625.0 1.74664306640625 0.18951416015625
1418762500.0 1.474853515625 -0.95574951171875
1449984375.0 0.53094482421875 -1.63250732421875
1481206250.0 -0.55230712890625 -1.561767578125
1512428125.0 -1.34747314453125 -0.92254638671875
1543650000.0 -1.66180419921875 0.0670166015625
1574871875.0 -1.27764892578125 1.11346435546875
1606093750.0 -0.2728271484375 1.6370849609375
1637315625.0 0.7454833984375 1.40478515625
1668537500.0 1.40081787109375 0.69769287109375
1699759375.0 1.578125 -0.27880859375
1730981250.0 1.06707763671875 -1.23358154296875
1762203125.0 0.04180908203125 -1.57562255859375
1793425000.0 -0.85906982421875 -1.230224609375
1824646875.0 -1.39776611328125 -0.5166015625
1855868750.0 -1.47882080078125 0.43377685546875
1887090625.0 -0.8782958984375 1.28936767578125
1918312500.0 0.11785888671875 1.49237060546875
1949534375.0 0.92474365234375 1.09295654296875
1980756250.0 1.37982177734375 0.37091064453125
2011978125.0 1.3641357421875 -0.53399658203125
2043200000.0 0.7518310546875 -1.26641845703125
2074421875.0 -0.157958984375 -1.4376220703125
2105643750.0 -0.96368408203125 -1.07513427734375
2136865625.0 -1.45208740234375 -0.3055419921875
2168087500.0 -1.36114501953125 0.6734619140625
2199309375.0 -0.64019775390625 1.3558349609375
2230531250.0 0.28363037109375 1.44049072265625
2261753125.0 1.0762939453125 1.0166015625
2292975000.0 1.51873779296875 0.17022705078125
2324196875.0 1.30908203125 -0.8212890625
2355418750.0 0.5267333984375 -1.424072265625
2386640625.0 -0.40631103515625 -1.45361328125
2417862500.0 -1.1871337890625 -1.02740478515625
2449084375.0 -1.6109619140625 -0.08319091796875
2480306250.0 -1.31573486328125 0.9305419921875
2511528125.0 -0.49383544921875 1.51373291015625
2542750000.0 0.49188232421875 1.5416259765625
2573971875.0 1.3760986328125 0.97052001953125
2605193750.0 1.72430419921875 -0.11529541015625
2636415625.0 1.2655029296875 -1.15802001953125
2667637500.0 0.3062744140625 -1.67388916015625
2698859375.0 -0.773681640625 -1.539794921875
2730081250.0 -1.57977294921875 -0.74249267578125
2761303125.0 -1.68817138671875 0.39111328125
2792525000.0 -1.1021728515625 1.31365966796875
2823746875.0 -0.10113525390625 1.73553466796875
2854968750.0 1.01788330078125 1.46014404296875
2886190625.0 1.69989013671875 0.491455078125
2917412500.0 1.6055908203125 -0.6214599609375
2948634375.0 0.94171142578125 -1.4405517578125
2979856250.0 -0.11077880859375 -1.78436279296875
3011078125.0 -1.2545166015625 -1.34552001953125
3042300000.0 -1.782470703125 -0.2340087890625
3073521875.0 -1.51318359375 0.8421630859375
3104743750.0 -0.7652587890625 1.57513427734375
3135965625.0 0.36370849609375 1.81524658203125
3167187500.0 1.50592041015625 1.167236328125
3198409375.0 1.82275390625 -0.07708740234375
3229631250.0 1.35284423828125 -1.08740234375
3260853125.0 0.4903564453125 -1.67388916015625
3292075000.0 -0.659423828125 -1.70416259765625
3323296875.0 -1.62628173828125 -0.88165283203125
3354518750.0 -1.73663330078125 0.3314208984375
3385740625.0 -1.1588134765625 1.23822021484375
3416962500.0 -0.2308349609375 1.68804931640625
3448184375.0 0.86376953125 1.526123046875
3479406250.0 1.64410400390625 0.644775390625
3510628125.0 1.6500244140625 -0.49810791015625
3541850000.0 1.0023193359375 -1.36077880859375
3573071875.0 -0.010009765625 -1.6888427734375
3604293750.0 -1.03289794921875 -1.341064453125
3635515625.0 -1.63409423828125 -0.43865966796875
3666737500.0 -1.56658935546875 0.64990234375
3697959375.0 -0.82684326171875 1.48260498046875
3729181250.0 0.27130126953125 1.63623046875
3760403125.0 1.1573486328125 1.1007080078125
3791625000.0 1.5589599609375 0.217529296875
3822846875.0 1.40606689453125 -0.76519775390625
3854068750.0 0.62115478515625 -1.488037109375
3885290625.0 -0.42431640625 -1.48583984375
3916512500.0 -1.1466064453125 -0.91302490234375
3947734375.0 -1.45196533203125 -0.11956787109375
3978956250.0 -1.30096435546875 0.78192138671875
4010178125.0 -0.53155517578125 1.4600830078125
4041400000.0 0.47637939453125 1.419677734375
4072621875.0 1.1573486328125 0.848876953125
4103843750.0 1.4490966796875 0.06231689453125
4135065625.0 1.27117919921875 -0.84912109375
4166287500.0 0.45758056640625 -1.5010986328125
4197509375.0 -0.56201171875 -1.41961669921875
4228731250.0 -1.2530517578125 -0.8037109375
4259953125.0 -1.51300048828125 0.07177734375
4291175000.0 -1.1912841796875 1.01531982421875
4322396875.0 -0.2890625 1.53204345703125
4353618750.0 0.67681884765625 1.35394287109375
4384840625.0 1.3272705078125 0.69732666015625
4416062500.0 1.5052490234375 -0.2301025390625
4447284375.0 1.05767822265625 -1.10858154296875
4478506250.0 0.17193603515625 -1.49945068359375
4509728125.0 -0.7359619140625 -1.31097412109375
4540950000.0 -1.398193359375 -0.63653564453125
4572171875.0 -1.5269775390625 0.36322021484375
4603393750.0 -0.97412109375 1.217041015625
4634615625.0 -0.06005859375 1.5416259765625
4665837500.0 0.875244140625 1.308349609375
4697059375.0 1.54791259765625 0.5150146484375
4728281250.0 1.53375244140625 -0.58709716796875
4759503125.0 0.8243408203125 -1.373046875
4790725000.0 -0.146484375 -1.5772705078125
4821946875.0 -1.08856201171875 -1.1968994140625
4853168750.0 -1.61907958984375 -0.25042724609375
4884390625.0 -1.3818359375 0.7974853515625
4915612500.0 -0.61370849609375 1.417236328125
4946834375.0 0.33111572265625 1.513427734375
4978056250.0 1.20977783203125 1.01873779296875
5009278125.0 1.56683349609375 0.037353515625
5040500000.0 1.23199462890625 -0.8798828125
5071721875.0 0.501953125 -1.41949462890625
5102943750.0 -0.4493408203125 -1.50048828125
5134165625.0 -1.34136962890625 -0.9068603515625
5165387500.0 -1.5732421875 0.14849853515625
5196609375.0 -1.1390380859375 1.0135498046875
5227831250.0 -0.35748291015625 1.5111083984375
5259053125.0 0.6922607421875 1.49676513671875
5290275000.0 1.5269775390625 0.66387939453125
5321496875.0 1.49664306640625 -0.4337158203125
5352718750.0 0.92266845703125 -1.1578369140625
5383940625.0 0.09576416015625 -1.50482177734375
5415162500.0 -0.90411376953125 -1.2872314453125
5446384375.0 -1.489501953125 -0.36993408203125
5477606250.0 -1.30206298828125 0.56927490234375
5508828125.0 -0.73248291015625 1.1556396484375
5540050000.0 0.0552978515625 1.40301513671875
5571271875.0 0.94219970703125 1.1119384765625
5602493750.0 1.41241455078125 0.2598876953125
5633715625.0 1.2352294921875 -0.61590576171875
5664937500.0 0.64874267578125 -1.20562744140625
5696159375.0 -0.19952392578125 -1.38861083984375
5727381250.0 -1.0263671875 -0.98065185546875
5758603125.0 -1.39703369140625 -0.1434326171875
5789825000.0 -1.1976318359375 0.72149658203125
5821046875.0 -0.50677490234375 1.31158447265625
5852268750.0 0.41387939453125 1.316650390625
5883490625.0 1.075927734375 0.77337646484375
5914712500.0 1.3067626953125 0.01800537109375
5945934375.0 1.0992431640625 -0.7799072265625
5977156250.0 0.36077880859375 -1.316650390625
6008378125.0 -0.51275634765625 -1.18499755859375
6039600000.0 -1.02581787109375 -0.64996337890625
6070821875.0 -1.22802734375 -0.00250244140625
6102043750.0 -1.0858154296875 0.7659912109375
6133265625.0 -0.3411865234375 1.349365234375
6164487500.0 0.567138671875 1.19049072265625
6195709375.0 1.0748291015625 0.6304931640625
6226931250.0 1.28448486328125 -0.044921875
6258153125.0 1.10693359375 -0.87579345703125
6289375000.0 0.25469970703125 -1.45166015625
6320596875.0 -0.693359375 -1.20892333984375
6351818750.0 -1.2049560546875 -0.57220458984375
6383040625.0 -1.35919189453125 0.2091064453125
6414262500.0 -1.00177001953125 1.06121826171875
6445484375.0 -0.07623291015625 1.4615478515625
6476706250.0 0.7999267578125 1.1505126953125
6507928125.0 1.2947998046875 0.46929931640625
6539150000.0 1.35125732421875 -0.388427734375
6570371875.0 0.84197998046875 -1.14794921875
6601593750.0 -0.0194091796875 -1.40899658203125
6632815625.0 -0.8438720703125 -1.138916015625
6664037500.0 -1.4063720703125 -0.4195556640625
6695259375.0 -1.3775634765625 0.57000732421875
6726481250.0 -0.710693359375 1.25665283203125
6757703125.0 0.133056640625 1.4119873046875
6788925000.0 0.95928955078125 1.1336669921875
6820146875.0 1.5654296875 0.2864990234375
6851368750.0 1.32904052734375 -0.8233642578125
6882590625.0 0.50665283203125 -1.34320068359375
6913812500.0 -0.29425048828125 -1.36065673828125
6945034375.0 -1.07586669921875 -1.02386474609375
6976256250.0 -1.59832763671875 -0.09136962890625
7007478125.0 -1.2396240234375 0.9373779296875
7038700000.0 -0.40216064453125 1.34814453125
7069921875.0 0.36358642578125 1.32958984375
7101143750.0 1.125244140625 0.97003173828125
7132365625.0 1.60626220703125 0.01104736328125
7163587500.0 1.1595458984375 -1.026611328125
7194809375.0 0.3011474609375 -1.40350341796875
7226031250.0 -0.51348876953125 -1.3302001953125
7257253125.0 -1.2720947265625 -0.82598876953125
7288475000.0 -1.5645751953125 0.20196533203125
7319696875.0 -1.0321044921875 1.11566162109375
7350918750.0 -0.16302490234375 1.45037841796875
7382140625.0 0.71978759765625 1.2799072265625
7413362500.0 1.38226318359375 0.5758056640625
7444584375.0 1.416015625 -0.41058349609375
7475806250.0 0.85992431640625 -1.1475830078125
7507028125.0 0.004638671875 -1.4345703125
7538250000.0 -0.89373779296875 -1.12713623046875
7569471875.0 -1.34259033203125 -0.3089599609375
7600693750.0 -1.207275390625 0.50433349609375
7631915625.0 -0.71942138671875 1.091552734375
7663137500.0 0.08251953125 1.36395263671875
7694359375.0 0.94537353515625 0.982666015625
7725581250.0 1.24871826171875 0.17919921875
7756803125.0 1.08599853515625 -0.50189208984375
7788025000.0 0.6717529296875 -1.04913330078125
7819246875.0 -0.12298583984375 -1.35223388671875
7850468750.0 -0.998748779296875 -0.918731689453125
7881690625.0 -1.23699951171875 -0.1025390625
7912912500.0 -1.058349609375 0.5582275390625
7944134375.0 -0.606201171875 1.11944580078125
7975356250.0 0.2764892578125 1.34130859375
8006578125.0 1.05242919921875 0.779541015625
8037800000.0 1.1990966796875 0.01348876953125
8069021875.0 1.01043701171875 -0.6226806640625
8100243750.0 0.49908447265625 -1.16778564453125
8131465625.0 -0.39324951171875 -1.259765625
8162687500.0 -1.03668212890625 -0.6865234375
8193909375.0 -1.1845703125 0.01025390625
8225131250.0 -1.02130126953125 0.6837158203125
8256353125.0 -0.42047119140625 1.2550048828125
8287575000.0 0.50506591796875 1.2291259765625
8318796875.0 1.08673095703125 0.635986328125
8350018750.0 1.250244140625 -0.0777587890625
8381240625.0 1.0338134765625 -0.845703125
8412462500.0 0.2515869140625 -1.38055419921875
8443684375.0 -0.67559814453125 -1.17340087890625
8474906250.0 -1.181884765625 -0.53216552734375
8506128125.0 -1.30303955078125 0.24053955078125
8537350000.0 -0.92572021484375 1.05096435546875
8568571875.0 -0.012939453125 1.40032958984375
8599793750.0 0.8062744140625 1.0562744140625
8631015625.0 1.2479248046875 0.3975830078125
8662237500.0 1.29071044921875 -0.43438720703125
8693459375.0 0.7371826171875 -1.18267822265625
8724681250.0 -0.1668701171875 -1.33770751953125
8755903125.0 -0.88629150390625 -0.960174560546875
8787125000.0 -1.30657958984375 -0.28265380859375
8818346875.0 -1.25469970703125 0.6195068359375
8849568750.0 -0.55615234375 1.264404296875
8880790625.0 0.30291748046875 1.29034423828125
8912012500.0 0.98602294921875 0.894378662109375
8943234375.0 1.40594482421875 0.125732421875
8974456250.0 1.1700439453125 -0.847412109375
9005678125.0 0.34649658203125 -1.31915283203125
9036900000.0 -0.44970703125 -1.2294921875
9068121875.0 -1.10760498046875 -0.78662109375
9099343750.0 -1.44561767578125 0.10107421875
9130565625.0 -0.98089599609375 1.0184326171875
9161787500.0 -0.15216064453125 1.28717041015625
9193009375.0 0.559326171875 1.136962890625
9224231250.0 1.18524169921875 0.656005859375
9255453125.0 1.4039306640625 -0.30010986328125
9286675000.0 0.807373046875 -1.09442138671875
9317896875.0 0.02471923828125 -1.25054931640625
9349118750.0 -0.6588134765625 -1.072509765625
9380340625.0 -1.26312255859375 -0.510009765625
9411562500.0 -1.31512451171875 0.4808349609375
9442784375.0 -0.647705078125 1.1243896484375
9474006250.0 0.091552734375 1.215087890625
9505228125.0 0.770111083984375 0.982330322265625
9536450000.0 1.28125 0.31036376953125
9567671875.0 1.14776611328125 -0.58587646484375
9598893750.0 0.52935791015625 -1.073974609375
9630115625.0 -0.14727783203125 -1.162109375
9661337500.0 -0.824737548828125 -0.90460205078125
9692559375.0 -1.2445068359375 -0.18841552734375
9723781250.0 -1.046142578125 0.60791015625
9755003125.0 -0.484619140625 1.056884765625
9786225000.0 0.20330810546875 1.165283203125
9817446875.0 0.902984619140625 0.828826904296875
9848668750.0 1.20220947265625 0.07696533203125
9879890625.0 0.96990966796875 -0.621612548828125
9911112500.0 0.4520263671875 -1.05621337890625
9942334375.0 -0.27093505859375 -1.16387939453125
9973556250.0 -0.949981689453125 -0.7381591796875
10004778125.0 -1.1500244140625 -0.01519775390625
10036000000.0 -0.946319580078125 0.619903564453125
10067221875.0 -0.44244384765625 1.10272216796875
10098443750.0 0.3743896484375 1.185546875
10129665625.0 1.0079345703125 0.64276123046875
10160887500.0 1.12408447265625 -0.05474853515625
10192109375.0 0.92010498046875 -0.668304443359375
10223331250.0 0.3599853515625 -1.1583251953125
10254553125.0 -0.49224853515625 -1.117919921875
10285775000.0 -0.989532470703125 -0.53436279296875
10316996875.0 -1.0712890625 0.0792236328125
10348218750.0 -0.90216064453125 0.673583984375
10379440625.0 -0.31988525390625 1.18060302734375
10410662500.0 0.53240966796875 1.08819580078125
10441884375.0 0.998016357421875 0.51983642578125
10473106250.0 1.11297607421875 -0.0875244140625
10504328125.0 0.951629638671875 -0.76300048828125
10535550000.0 0.23760986328125 -1.29931640625
10566771875.0 -0.66241455078125 -1.07940673828125
10597993750.0 -1.08544921875 -0.457763671875
10629215625.0 -1.1778564453125 0.2071533203125
10660437500.0 -0.88970947265625 0.959259033203125
10691659375.0 -0.00592041015625 1.340576171875
10722881250.0 0.790252685546875 0.95428466796875
10754103125.0 1.123291015625 0.32379150390625
10785325000.0 1.14288330078125 -0.37188720703125
10816546875.0 0.7010498046875 -1.05548095703125
10847768750.0 -0.15057373046875 -1.23468017578125
10878990625.0 -0.80810546875 -0.844970703125
10910212500.0 -1.12890625 -0.2430419921875
10941434375.0 -1.1019287109375 0.482666015625
10972656250.0 -0.56671142578125 1.091552734375
11003878125.0 0.22052001953125 1.17742919921875
11035100000.0 0.851104736328125 0.823883056640625
11066321875.0 1.2255859375 0.171875
11097543750.0 1.1007080078125 -0.6812744140625
11128765625.0 0.384521484375 -1.20526123046875
11159987500.0 -0.40081787109375 -1.14306640625
11191209375.0 -1.00469970703125 -0.70361328125
11222431250.0 -1.27679443359375 0.0965576171875
11253653125.0 -0.860260009765625 0.899169921875
11284875000.0 -0.11126708984375 1.13250732421875
11316096875.0 0.515533447265625 0.959625244140625
11347318750.0 1.00897216796875 0.501708984375
11378540625.0 1.12127685546875 -0.27447509765625
11409762500.0 0.6341552734375 -0.86627197265625
11440984375.0 0.03369140625 -0.98236083984375
11472206250.0 -0.484619140625 -0.85260009765625
11503428125.0 -0.95831298828125 -0.455322265625
11534650000.0 -1.071533203125 0.29150390625
11565871875.0 -0.602386474609375 0.859527587890625
11597093750.0 -0.016021728515625 0.99560546875
11628315625.0 0.548583984375 0.8775634765625
11659537500.0 1.06402587890625 0.391845703125
11690759375.0 1.06683349609375 -0.43804931640625
11721981250.0 0.516082763671875 -0.944427490234375
11753203125.0 -0.10797119140625 -1.04058837890625
11784425000.0 -0.730377197265625 -0.81109619140625
11815646875.0 -1.10595703125 -0.1490478515625
11846868750.0 -0.89288330078125 0.555419921875
11878090625.0 -0.3907470703125 0.912841796875
11909312500.0 0.191131591796875 0.988739013671875
11940534375.0 0.7852783203125 0.69622802734375
11971756250.0 1.0294189453125 0.0362548828125
12002978125.0 0.808013916015625 -0.54290771484375
12034200000.0 0.3807373046875 -0.893341064453125
12065421875.0 -0.220458984375 -1.01397705078125
12096643750.0 -0.85369873046875 -0.665924072265625
12127865625.0 -1.0377197265625 0.02056884765625
12159087500.0 -0.8162841796875 0.57867431640625
12190309375.0 -0.376068115234375 0.9818115234375
12221531250.0 0.343017578125 1.0909423828125
12252753125.0 0.985626220703125 0.581451416015625
12283975000.0 1.05810546875 -0.13104248046875
12315196875.0 0.8018798828125 -0.68212890625
12346418750.0 0.2796630859375 -1.096923828125
12377640625.0 -0.54278564453125 -1.06292724609375
12408862500.0 -1.039306640625 -0.41815185546875
12440084375.0 -1.01190185546875 0.22882080078125
12471306250.0 -0.74249267578125 0.742767333984375
12502528125.0 -0.17669677734375 1.1248779296875
12533750000.0 0.62542724609375 0.995025634765625
12564971875.0 1.045654296875 0.36175537109375
12596193750.0 1.03314208984375 -0.26788330078125
12627415625.0 0.748870849609375 -0.834930419921875
12658637500.0 0.07635498046875 -1.2144775390625
12689859375.0 -0.742462158203125 -0.96746826171875
12721081250.0 -1.12060546875 -0.30487060546875
12752303125.0 -1.1014404296875 0.38641357421875
12783525000.0 -0.687744140625 1.03558349609375
12814746875.0 0.16912841796875 1.2557373046875
12845968750.0 0.86798095703125 0.811279296875
12877190625.0 1.12274169921875 0.16876220703125
12908412500.0 1.05902099609375 -0.50885009765625
12939634375.0 0.541748046875 -1.12384033203125
12970856250.0 -0.32763671875 -1.17938232421875
13002078125.0 -0.900360107421875 -0.693115234375
13033300000.0 -1.10986328125 -0.0843505859375
13064521875.0 -1.011474609375 0.6007080078125
13095743750.0 -0.4178466796875 1.15936279296875
13126965625.0 0.41473388671875 1.12451171875
13158187500.0 0.9520263671875 0.63177490234375
13189409375.0 1.15301513671875 -0.02508544921875
13220631250.0 0.937042236328125 -0.756561279296875
13251853125.0 0.2322998046875 -1.1759033203125
13283075000.0 -0.51361083984375 -1.022705078125
13314296875.0 -0.993072509765625 -0.528472900390625
13345518750.0 -1.138671875 0.1800537109375
