!Created with skrf (http://scikit-rf.org).
# Hz S RI R 50.0 
!freq ReS11 ImS11
45000000.0 -0.07708358764648438 -0.09689712524414062
76221875.0 -0.19622802734375 -0.047454833984375
107443750.0 -0.2546844482421875 0.1195068359375
138665625.0 -0.1480712890625 0.3281707763671875
169887500.0 0.1235198974609375 0.4172821044921875
201109375.0 0.42156982421875 0.2805633544921875
232331250.0 0.578399658203125 -0.05767822265625
263553125.0 0.4891357421875 -0.45233154296875
294775000.0 0.09844970703125 -0.73199462890625
325996875.0 -0.41497802734375 -0.679595947265625
357218750.0 -0.80548095703125 -0.296600341796875
388440625.0 -0.8846435546875 0.30029296875
419662500.0 -0.516754150390625 0.865325927734375
450884375.0 0.17291259765625 1.02740478515625
482106250.0 0.797637939453125 0.71197509765625
513328125.0 1.11810302734375 0.0867919921875
544550000.0 1.00262451171875 -0.67919921875
575771875.0 0.3360595703125 -1.23681640625
606993750.0 -0.5533447265625 -1.176025390625
638215625.0 -1.16448974609375 -0.58978271484375
669437500.0 -1.3382568359375 0.23345947265625
700659375.0 -0.969970703125 1.09515380859375
731881250.0 -0.00372314453125 1.541259765625
763103125.0 1.0047607421875 1.1544189453125
794325000.0 1.467041015625 0.2813720703125
825546875.0 1.36590576171875 -0.65069580078125
856768750.0 0.79339599609375 -1.39892578125
887990625.0 -0.2921142578125 -1.64605712890625
919212500.0 -1.285888671875 -1.0770263671875
950434375.0 -1.6463623046875 -0.0589599609375
981656250.0 -1.38067626953125 0.9443359375
1012878125.0 -0.52923583984375 1.6695556640625
1044100000.0 0.69586181640625 1.65936279296875
1075321875.0 1.57244873046875 0.810791015625
1106543750.0 1.701904296875 -0.3121337890625
1137765625.0 1.18511962890625 -1.28240966796875
1168987500.0 0.1378173828125 -1.7945556640625
1200209375.0 -1.06011962890625 -1.48126220703125
1231431250.0 -1.724365234375 -0.4527587890625
1262653125.0 -1.5916748046875 0.68304443359375
1293875000.0 -0.8507080078125 1.489501953125
1325096875.0 0.2275390625 1.70416259765625
1356318750.0 1.233642578125 1.214599609375
1387540625.0 1.7371826171875 0.1885986328125
1418762500.0 1.46710205078125 -0.94976806640625
1449984375.0 0.52838134765625 -1.62310791015625
1481206250.0 -0.54901123046875 -1.55364990234375
1512428125.0 -1.33966064453125 -0.91815185546875
1543650000.0 -1.65289306640625 0.06500244140625
1574871875.0 -1.2716064453125 1.1072998046875
1606093750.0 -0.2728271484375 1.62841796875
1637315625.0 0.7412109375 1.39837646484375
1668537500.0 1.39373779296875 0.69488525390625
1699759375.0 1.571044921875 -0.276611328125
1730981250.0 1.06268310546875 -1.2274169921875
1762203125.0 0.04217529296875 -1.56781005859375
1793425000.0 -0.854736328125 -1.224609375
1824646875.0 -1.39141845703125 -0.5147705078125
1855868750.0 -1.47186279296875 0.4317626953125
1887090625.0 -0.8736572265625 1.28326416015625
1918312500.0 0.11712646484375 1.48455810546875
1949534375.0 0.92034912109375 1.087646484375
1980756250.0 1.37298583984375 0.369384765625
2011978125.0 1.35736083984375 -0.5308837890625
2043200000.0 0.7490234375 -1.25933837890625
2074421875.0 -0.15673828125 -1.4310302734375
2105643750.0 -0.95855712890625 -1.07110595703125
2136865625.0 -1.44488525390625 -0.304443359375
2168087500.0 -1.35491943359375 0.6697998046875
2199309375.0 -0.6380615234375 1.3492431640625
2230531250.0 0.28173828125 1.43414306640625
2261753125.0 1.071044921875 1.01220703125
2292975000.0 1.51214599609375 0.17022705078125
2324196875.0 1.3037109375 -0.81744384765625
2355418750.0 0.5244140625 -1.417724609375
2386640625.0 -0.40374755859375 -1.44671630859375
2417862500.0 -1.1783447265625 -1.022705078125
2449084375.0 -1.60125732421875 -0.08453369140625
2480306250.0 -1.30902099609375 0.92352294921875
2511528125.0 -0.49371337890625 1.5042724609375
2542750000.0 0.4866943359375 1.5328369140625
2573971875.0 1.3681640625 0.96630859375
2605193750.0 1.71368408203125 -0.11199951171875
2636415625.0 1.25885009765625 -1.1494140625
2667637500.0 0.30682373046875 -1.6634521484375
2698859375.0 -0.76739501953125 -1.53070068359375
2730081250.0 -1.570556640625 -0.739501953125
2761303125.0 -1.67755126953125 0.38720703125
2792525000.0 -1.09716796875 1.30438232421875
2823746875.0 -0.10247802734375 1.72601318359375
2854968750.0 1.0106201171875 1.452880859375
2886190625.0 1.68756103515625 0.490966796875
2917412500.0 1.596923828125 -0.61614990234375
2948634375.0 0.9375 -1.43157958984375
2979856250.0 -0.1068115234375 -1.7720947265625
3011078125.0 -1.2452392578125 -1.34002685546875
3042300000.0 -1.7718505859375 -0.2342529296875
3073521875.0 -1.505859375 0.8358154296875
3104743750.0 -0.761962890625 1.56549072265625
3135965625.0 0.360595703125 1.805908203125
3167187500.0 1.49591064453125 1.16217041015625
3198409375.0 1.8114013671875 -0.07403564453125
3229631250.0 1.34619140625 -1.07830810546875
3260853125.0 0.489501953125 -1.66424560546875
3292075000.0 -0.65313720703125 -1.69415283203125
3323296875.0 -1.6163330078125 -0.87774658203125
3354518750.0 -1.72625732421875 0.32763671875
3385740625.0 -1.1536865234375 1.228515625
3416962500.0 -0.23095703125 1.67864990234375
3448184375.0 0.8575439453125 1.51837158203125
3479406250.0 1.63311767578125 0.64306640625
3510628125.0 1.640869140625 -0.493896484375
3541850000.0 0.99859619140625 -1.350830078125
3573071875.0 -0.00738525390625 -1.6796875
3604293750.0 -1.025390625 -1.33453369140625
3635515625.0 -1.62408447265625 -0.43768310546875
3666737500.0 -1.55908203125 0.6448974609375
3697959375.0 -0.82415771484375 1.47314453125
3729181250.0 0.26727294921875 1.62750244140625
3760403125.0 1.14892578125 1.09600830078125
3791625000.0 1.5489501953125 0.2176513671875
3822846875.0 1.3988037109375 -0.7584228515625
3854068750.0 0.61920166015625 -1.47808837890625
3885290625.0 -0.4176025390625 -1.476318359375
3916512500.0 -1.1387939453125 -0.90966796875
3947734375.0 -1.4437255859375 -0.119873046875
3978956250.0 -1.294677734375 0.77557373046875
4010178125.0 -0.531005859375 1.450439453125
4041400000.0 0.47119140625 1.41265869140625
4072621875.0 1.14886474609375 0.84637451171875
4103843750.0 1.44219970703125 0.06341552734375
4135065625.0 1.26568603515625 -0.84381103515625
4166287500.0 0.45758056640625 -1.4925537109375
4197509375.0 -0.555419921875 -1.4124755859375
4228731250.0 -1.2449951171875 -0.80120849609375
4259953125.0 -1.50653076171875 0.0699462890625
4291175000.0 -1.18634033203125 1.0079345703125
4322396875.0 -0.28936767578125 1.52349853515625
4353618750.0 0.671630859375 1.34814453125
4384840625.0 1.3189697265625 0.6964111328125
4416062500.0 1.4981689453125 -0.2266845703125
4447284375.0 1.05340576171875 -1.10113525390625
4478506250.0 0.1724853515625 -1.492431640625
4509728125.0 -0.7315673828125 -1.3055419921875
4540950000.0 -1.3909912109375 -0.63507080078125
4572171875.0 -1.51953125 0.35845947265625
4603393750.0 -0.97149658203125 1.21051025390625
4634615625.0 -0.06201171875 1.53387451171875
4665837500.0 0.86798095703125 1.30255126953125
4697059375.0 1.53814697265625 0.5146484375
4728281250.0 1.5262451171875 -0.58062744140625
4759503125.0 0.82196044921875 -1.36456298828125
4790725000.0 -0.144287109375 -1.56927490234375
4821946875.0 -1.08111572265625 -1.19244384765625
4853168750.0 -1.60968017578125 -0.251953125
4884390625.0 -1.37567138671875 0.791015625
4915612500.0 -0.61328125 1.40948486328125
4946834375.0 0.32720947265625 1.5067138671875
4978056250.0 1.20166015625 1.015625
5009278125.0 1.5582275390625 0.0406494140625
5040500000.0 1.22698974609375 -0.8739013671875
5071721875.0 0.5013427734375 -1.41217041015625
5102943750.0 -0.4453125 -1.49420166015625
5134165625.0 -1.3331298828125 -0.90472412109375
5165387500.0 -1.565185546875 0.14520263671875
5196609375.0 -1.1343994140625 1.00665283203125
5227831250.0 -0.35693359375 1.50360107421875
5259053125.0 0.68634033203125 1.4901123046875
5290275000.0 1.51904296875 0.66217041015625
5321496875.0 1.4896240234375 -0.42938232421875
5352718750.0 0.919677734375 -1.1510009765625
5383940625.0 0.09747314453125 -1.49761962890625
5415162500.0 -0.89874267578125 -1.28216552734375
5446384375.0 -1.4822998046875 -0.37030029296875
5477606250.0 -1.29754638671875 0.5648193359375
5508828125.0 -0.72998046875 1.1505126953125
5540050000.0 0.05279541015625 1.39599609375
5571271875.0 0.93701171875 1.10736083984375
5602493750.0 1.40618896484375 0.260009765625
5633715625.0 1.23046875 -0.60992431640625
5664937500.0 0.64776611328125 -1.19818115234375
5696159375.0 -0.19598388671875 -1.38153076171875
5727381250.0 -1.01849365234375 -0.97723388671875
5758603125.0 -1.3890380859375 -0.1458740234375
5789825000.0 -1.19232177734375 0.7154541015625
5821046875.0 -0.50531005859375 1.305908203125
5852268750.0 0.40924072265625 1.31005859375
5883490625.0 1.0692138671875 0.77142333984375
5914712500.0 1.3009033203125 0.01995849609375
5945934375.0 1.09442138671875 -0.77386474609375
5977156250.0 0.36175537109375 -1.30908203125
6008378125.0 -0.50897216796875 -1.1812744140625
6039600000.0 -1.02032470703125 -0.64849853515625
6070821875.0 -1.2220458984375 -0.0052490234375
6102043750.0 -1.08154296875 0.7603759765625
6133265625.0 -0.34234619140625 1.34210205078125
6164487500.0 0.56243896484375 1.185791015625
6195709375.0 1.0692138671875 0.62957763671875
6226931250.0 1.2772216796875 -0.04193115234375
6258153125.0 1.1031494140625 -0.86968994140625
6289375000.0 0.25653076171875 -1.44403076171875
6320596875.0 -0.687744140625 -1.2044677734375
6351818750.0 -1.1981201171875 -0.57177734375
6383040625.0 -1.3525390625 0.20556640625
6414262500.0 -0.99859619140625 1.0555419921875
6445484375.0 -0.07861328125 1.45458984375
6476706250.0 0.794921875 1.14678955078125
6507928125.0 1.28912353515625 0.46954345703125
6539150000.0 1.34521484375 -0.3848876953125
6570371875.0 0.84075927734375 -1.14190673828125
6601593750.0 -0.0166015625 -1.403076171875
6632815625.0 -0.83795166015625 -1.135009765625
6664037500.0 -1.4002685546875 -0.41943359375
6695259375.0 -1.37261962890625 0.5650634765625
6726481250.0 -0.70953369140625 1.249755859375
6757703125.0 0.13018798828125 1.4053955078125
6788925000.0 0.95318603515625 1.12933349609375
6820146875.0 1.5577392578125 0.2879638671875
6851368750.0 1.32513427734375 -0.81866455078125
6882590625.0 0.5064697265625 -1.3359375
6913812500.0 -0.29168701171875 -1.3548583984375
6945034375.0 -1.0672607421875 -1.020263671875
6976256250.0 -1.59075927734375 -0.093505859375
7007478125.0 -1.23455810546875 0.93072509765625
7038700000.0 -0.40325927734375 1.33966064453125
7069921875.0 0.35711669921875 1.3216552734375
7101143750.0 1.114990234375 0.96795654296875
7132365625.0 1.59619140625 0.01531982421875
7163587500.0 1.15594482421875 -1.02203369140625
7194809375.0 0.30157470703125 -1.39501953125
7226031250.0 -0.5107421875 -1.32281494140625
7257253125.0 -1.2646484375 -0.82373046875
7288475000.0 -1.556640625 0.19537353515625
7319696875.0 -1.02850341796875 1.109130859375
7350918750.0 -0.1646728515625 1.4429931640625
7382140625.0 0.7154541015625 1.2747802734375
7413362500.0 1.37359619140625 0.57598876953125
7444584375.0 1.4100341796875 -0.4053955078125
7475806250.0 0.857421875 -1.14178466796875
7507028125.0 0.007080078125 -1.42706298828125
7538250000.0 -0.8861083984375 -1.12237548828125
7569471875.0 -1.33428955078125 -0.31097412109375
7600693750.0 -1.2010498046875 0.49530029296875
7631915625.0 -0.71783447265625 1.08319091796875
7663137500.0 0.079833984375 1.35479736328125
7694359375.0 0.939117431640625 0.97991943359375
7725581250.0 1.24169921875 0.18096923828125
7756803125.0 1.081298828125 -0.4981689453125
7788025000.0 0.66943359375 -1.040771484375
7819246875.0 -0.12030029296875 -1.34600830078125
7850468750.0 -0.990966796875 -0.915008544921875
7881690625.0 -1.23052978515625 -0.10498046875
7912912500.0 -1.05377197265625 0.55377197265625
7944134375.0 -0.6048583984375 1.11151123046875
7975356250.0 0.27032470703125 1.33349609375
8006578125.0 1.04644775390625 0.7784423828125
8037800000.0 1.1904296875 0.01763916015625
8069021875.0 1.00555419921875 -0.61480712890625
8100243750.0 0.49945068359375 -1.160400390625
8131465625.0 -0.38555908203125 -1.25177001953125
8162687500.0 -1.03094482421875 -0.6854248046875
8193909375.0 -1.1796875 0.0091552734375
8225131250.0 -1.0159912109375 0.67498779296875
8256353125.0 -0.4217529296875 1.2454833984375
8287575000.0 0.49993896484375 1.224853515625
8318796875.0 1.08209228515625 0.63494873046875
8350018750.0 1.24468994140625 -0.07635498046875
8381240625.0 1.0311279296875 -0.83758544921875
8412462500.0 0.25634765625 -1.36993408203125
8443684375.0 -0.6680908203125 -1.1695556640625
8474906250.0 -1.17291259765625 -0.53265380859375
8506128125.0 -1.29644775390625 0.23553466796875
8537350000.0 -0.923583984375 1.04620361328125
8568571875.0 -0.01617431640625 1.39202880859375
8599793750.0 0.8001708984375 1.05230712890625
8631015625.0 1.23822021484375 0.39971923828125
8662237500.0 1.2857666015625 -0.427490234375
8693459375.0 0.7352294921875 -1.17669677734375
8724681250.0 -0.1617431640625 -1.33135986328125
8755903125.0 -0.878173828125 -0.956787109375
8787125000.0 -1.302001953125 -0.28167724609375
8818346875.0 -1.25 0.6131591796875
8849568750.0 -0.5562744140625 1.2596435546875
8880790625.0 0.296875 1.28338623046875
8912012500.0 0.97930908203125 0.8917236328125
8943234375.0 1.396240234375 0.1298828125
8974456250.0 1.16522216796875 -0.8377685546875
9005678125.0 0.348388671875 -1.31158447265625
9036900000.0 -0.4451904296875 -1.2237548828125
9068121875.0 -1.097412109375 -0.78607177734375
9099343750.0 -1.4395751953125 0.0965576171875
9130565625.0 -0.9786376953125 1.0096435546875
9161787500.0 -0.15533447265625 1.28125
9193009375.0 0.553466796875 1.1324462890625
9224231250.0 1.1783447265625 0.65496826171875
9255453125.0 1.39691162109375 -0.2935791015625
9286675000.0 0.80682373046875 -1.08355712890625
9317896875.0 0.027099609375 -1.24566650390625
9349118750.0 -0.65234375 -1.0679931640625
9380340625.0 -1.2548828125 -0.51007080078125
9411562500.0 -1.31005859375 0.474365234375
9442784375.0 -0.6475830078125 1.11419677734375
9474006250.0 0.08819580078125 1.21051025390625
9505228125.0 0.765289306640625 0.979400634765625
9536450000.0 1.27130126953125 0.31396484375
9567671875.0 1.1439208984375 -0.57940673828125
9598893750.0 0.5301513671875 -1.06640625
9630115625.0 -0.1429443359375 -1.1566162109375
9661337500.0 -0.816162109375 -0.901947021484375
9692559375.0 -1.237548828125 -0.1900634765625
9723781250.0 -1.0428466796875 0.6015625
9755003125.0 -0.48663330078125 1.047607421875
9786225000.0 0.19549560546875 1.15728759765625
9817446875.0 0.89263916015625 0.827239990234375
9848668750.0 1.1978759765625 0.07757568359375
9879890625.0 0.967620849609375 -0.616058349609375
9911112500.0 0.45208740234375 -1.0498046875
9942334375.0 -0.26513671875 -1.157470703125
9973556250.0 -0.939300537109375 -0.738006591796875
10004778125.0 -1.14447021484375 -0.01898193359375
10036000000.0 -0.943450927734375 0.615203857421875
10067221875.0 -0.4422607421875 1.0950927734375
10098443750.0 0.36895751953125 1.17901611328125
10129665625.0 1.0029296875 0.64276123046875
10160887500.0 1.11993408203125 -0.05029296875
10192109375.0 0.91748046875 -0.661895751953125
10223331250.0 0.36102294921875 -1.15130615234375
10254553125.0 -0.484619140625 -1.11279296875
10285775000.0 -0.982421875 -0.536895751953125
10316996875.0 -1.0657958984375 0.07647705078125
10348218750.0 -0.899169921875 0.669158935546875
10379440625.0 -0.32220458984375 1.17352294921875
10410662500.0 0.52593994140625 1.08453369140625
10441884375.0 0.9906005859375 0.521270751953125
10473106250.0 1.10845947265625 -0.08380126953125
10504328125.0 0.9483642578125 -0.755401611328125
10535550000.0 0.24029541015625 -1.2930908203125
10566771875.0 -0.65679931640625 -1.076416015625
10597993750.0 -1.077880859375 -0.45928955078125
10629215625.0 -1.1749267578125 0.2049560546875
10660437500.0 -0.887847900390625 0.950469970703125
10691659375.0 -0.0113525390625 1.3338623046875
10722881250.0 0.782623291015625 0.951385498046875
10754103125.0 1.1177978515625 0.32513427734375
10785325000.0 1.13848876953125 -0.3673095703125
10816546875.0 0.70074462890625 -1.048095703125
10847768750.0 -0.14556884765625 -1.2281494140625
10878990625.0 -0.801483154296875 -0.844085693359375
10910212500.0 -1.121337890625 -0.24468994140625
10941434375.0 -1.09698486328125 0.476318359375
10972656250.0 -0.56805419921875 1.082763671875
11003878125.0 0.21612548828125 1.1732177734375
11035100000.0 0.845672607421875 0.82110595703125
11066321875.0 1.21966552734375 0.17523193359375
11097543750.0 1.0980224609375 -0.6767578125
11128765625.0 0.38653564453125 -1.19622802734375
11159987500.0 -0.3955078125 -1.13702392578125
11191209375.0 -0.997833251953125 -0.7021484375
11222431250.0 -1.2723388671875 0.09332275390625
11253653125.0 -0.858612060546875 0.89398193359375
11284875000.0 -0.1162109375 1.1236572265625
11316096875.0 0.510223388671875 0.9552001953125
11347318750.0 1.0003662109375 0.501953125
11378540625.0 1.1162109375 -0.26849365234375
11409762500.0 0.63458251953125 -0.8582763671875
11440984375.0 0.036468505859375 -0.97760009765625
11472206250.0 -0.479736328125 -0.849761962890625
11503428125.0 -0.951812744140625 -0.45684814453125
11534650000.0 -1.06781005859375 0.2879638671875
11565871875.0 -0.6029052734375 0.85400390625
11597093750.0 -0.019622802734375 0.989471435546875
11628315625.0 0.542633056640625 0.874359130859375
11659537500.0 1.05975341796875 0.39239501953125
11690759375.0 1.06414794921875 -0.4320068359375
11721981250.0 0.517059326171875 -0.93975830078125
11753203125.0 -0.105712890625 -1.0367431640625
11784425000.0 -0.723846435546875 -0.808929443359375
11815646875.0 -1.09832763671875 -0.15216064453125
11846868750.0 -0.890716552734375 0.550567626953125
11878090625.0 -0.391448974609375 0.907135009765625
11909312500.0 0.186187744140625 0.98309326171875
11940534375.0 0.777496337890625 0.694610595703125
11971756250.0 1.02496337890625 0.03875732421875
12002978125.0 0.80621337890625 -0.53778076171875
12034200000.0 0.381622314453125 -0.88922119140625
12065421875.0 -0.21441650390625 -1.00885009765625
12096643750.0 -0.84576416015625 -0.665618896484375
12127865625.0 -1.0333251953125 0.01666259765625
12159087500.0 -0.814666748046875 0.575347900390625
12190309375.0 -0.37811279296875 0.974609375
12221531250.0 0.3385009765625 1.08746337890625
12252753125.0 0.980072021484375 0.581756591796875
12283975000.0 1.05426025390625 -0.1287841796875
12315196875.0 0.801116943359375 -0.67608642578125
12346418750.0 0.28070068359375 -1.08984375
12377640625.0 -0.5372314453125 -1.059814453125
12408862500.0 -1.03179931640625 -0.42047119140625
12440084375.0 -1.00787353515625 0.2247314453125
12471306250.0 -0.74139404296875 0.73541259765625
12502528125.0 -0.17926025390625 1.11883544921875
12533750000.0 0.61700439453125 0.992919921875
12564971875.0 1.03924560546875 0.3648681640625
12596193750.0 1.02923583984375 -0.26300048828125
12627415625.0 0.7474365234375 -0.826873779296875
12658637500.0 0.08001708984375 -1.2069091796875
12689859375.0 -0.733001708984375 -0.966033935546875
12721081250.0 -1.1156005859375 -0.3067626953125
12752303125.0 -1.0970458984375 0.38153076171875
12783525000.0 -0.688232421875 1.024658203125
12814746875.0 0.16241455078125 1.249267578125
12845968750.0 0.862518310546875 0.811614990234375
12877190625.0 1.11663818359375 0.171875
12908412500.0 1.05426025390625 -0.49932861328125
12939634375.0 0.54296875 -1.114013671875
12970856250.0 -0.3204345703125 -1.17498779296875
13002078125.0 -0.892547607421875 -0.692901611328125
13033300000.0 -1.1041259765625 -0.08697509765625
13064521875.0 -1.00836181640625 0.59136962890625
13095743750.0 -0.42242431640625 1.1519775390625
13126965625.0 0.408935546875 1.12017822265625
13158187500.0 0.944091796875 0.632415771484375
13189409375.0 1.14910888671875 -0.022216796875
13220631250.0 0.934906005859375 -0.74517822265625
13251853125.0 0.2352294921875 -1.1697998046875
13283075000.0 -0.5057373046875 -1.01910400390625
13314296875.0 -0.9869384765625 -0.529388427734375
13345518750.0 -1.13433837890625 0.176513671875
13376740625.0 -0.7529296875 0.855926513671875
13407962500.0 -0.0594482421875 1.06671142578125
