!Created with skrf (http://scikit-rf.org).
# Hz S RI R 50.0 
!freq ReS11 ImS11
45000000.0 -0.07675933837890625 -0.09702682495117188
76221875.0 -0.1968841552734375 -0.048095703125
107443750.0 -0.2560272216796875 0.11932373046875
138665625.0 -0.149444580078125 0.3290557861328125
169887500.0 0.1226043701171875 0.4190216064453125
201109375.0 0.422119140625 0.2830810546875
232331250.0 0.580810546875 -0.055816650390625
263553125.0 0.4922332763671875 -0.452789306640625
294775000.0 0.1009521484375 -0.734771728515625
325996875.0 -0.414703369140625 -0.684326171875
357218750.0 -0.808563232421875 -0.300506591796875
388440625.0 -0.88958740234375 0.299591064453125
419662500.0 -0.52166748046875 0.867523193359375
450884375.0 0.17034912109375 1.0328369140625
482106250.0 0.79864501953125 0.7174072265625
513328125.0 1.12249755859375 0.09051513671875
544550000.0 1.00836181640625 -0.6787109375
575771875.0 0.34075927734375 -1.2401123046875
606993750.0 -0.5516357421875 -1.1820068359375
638215625.0 -1.1671142578125 -0.59539794921875
669437500.0 -1.3438720703125 0.2303466796875
700659375.0 -0.9766845703125 1.09588623046875
731881250.0 -0.00872802734375 1.5467529296875
763103125.0 1.00445556640625 1.16204833984375
794325000.0 1.4720458984375 0.287109375
825546875.0 1.3729248046875 -0.64923095703125
856768750.0 0.80078125 -1.40301513671875
887990625.0 -0.2890625 -1.654052734375
919212500.0 -1.28912353515625 -1.085693359375
950434375.0 -1.654052734375 -0.063720703125
981656250.0 -1.3900146484375 0.9456787109375
1012878125.0 -0.53594970703125 1.67645263671875
1044100000.0 0.69464111328125 1.669677734375
1075321875.0 1.578125 0.81927490234375
1106543750.0 1.71136474609375 -0.3094482421875
1137765625.0 1.1944580078125 -1.28570556640625
1168987500.0 0.1439208984375 -1.802734375
1200209375.0 -1.06103515625 -1.4915771484375
1231431250.0 -1.7318115234375 -0.45947265625
1262653125.0 -1.6004638671875 0.682861328125
1293875000.0 -0.85858154296875 1.49346923828125
1325096875.0 0.22314453125 1.71258544921875
1356318750.0 1.2353515625 1.22412109375
1387540625.0 1.7449951171875 0.1944580078125
1418762500.0 1.47674560546875 -0.95037841796875
1449984375.0 0.5357666015625 -1.6287841796875
1481206250.0 -0.5469970703125 -1.5625
1512428125.0 -1.3431396484375 -0.9259033203125
1543650000.0 -1.6602783203125 0.0614013671875
1574871875.0 -1.279541015625 1.10888671875
1606093750.0 -0.27825927734375 1.63531494140625
1637315625.0 0.7410888671875 1.4063720703125
1668537500.0 1.3978271484375 0.70135498046875
1699759375.0 1.5782470703125 -0.27386474609375
1730981250.0 1.0703125 -1.229736328125
1762203125.0 0.04681396484375 -1.57427978515625
1793425000.0 -0.8544921875 -1.2318115234375
1824646875.0 -1.3955078125 -0.5203857421875
1855868750.0 -1.4791259765625 0.42919921875
1887090625.0 -0.88116455078125 1.28662109375
1918312500.0 0.113525390625 1.4913330078125
1949534375.0 0.92120361328125 1.09429931640625
1980756250.0 1.37774658203125 0.374755859375
2011978125.0 1.36444091796875 -0.52947998046875
2043200000.0 0.75543212890625 -1.26300048828125
2074421875.0 -0.15350341796875 -1.43701171875
2105643750.0 -0.96026611328125 -1.0771484375
2136865625.0 -1.45062255859375 -0.30914306640625
2168087500.0 -1.36224365234375 0.66912841796875
2199309375.0 -0.64404296875 1.35296630859375
2230531250.0 0.27899169921875 1.44036865234375
2261753125.0 1.072998046875 1.018798828125
2292975000.0 1.5177001953125 0.17401123046875
2324196875.0 1.310791015625 -0.81756591796875
2355418750.0 0.530029296875 -1.42205810546875
2386640625.0 -0.40185546875 -1.4534912109375
2417862500.0 -1.1817626953125 -1.0296630859375
2449084375.0 -1.60943603515625 -0.08734130859375
2480306250.0 -1.3170166015625 0.92523193359375
2511528125.0 -0.49853515625 1.510986328125
2542750000.0 0.48614501953125 1.54150390625
2573971875.0 1.37298583984375 0.97430419921875
2605193750.0 1.72332763671875 -0.10919189453125
2636415625.0 1.2674560546875 -1.15283203125
2667637500.0 0.310546875 -1.67254638671875
2698859375.0 -0.76971435546875 -1.541015625
2730081250.0 -1.57525634765625 -0.7469482421875
2761303125.0 -1.68701171875 0.38494873046875
2792525000.0 -1.10540771484375 1.3099365234375
2823746875.0 -0.10638427734375 1.7342529296875
2854968750.0 1.01116943359375 1.46197509765625
2886190625.0 1.69647216796875 0.49609375
2917412500.0 1.60601806640625 -0.61602783203125
2948634375.0 0.94561767578125 -1.43450927734375
2979856250.0 -0.1044921875 -1.78143310546875
3011078125.0 -1.24896240234375 -1.34918212890625
3042300000.0 -1.780517578125 -0.23834228515625
3073521875.0 -1.51507568359375 0.837646484375
3104743750.0 -0.76904296875 1.571533203125
3135965625.0 0.359130859375 1.8150634765625
3167187500.0 1.50140380859375 1.170654296875
3198409375.0 1.82159423828125 -0.07159423828125
3229631250.0 1.355224609375 -1.08148193359375
3260853125.0 0.49493408203125 -1.672119140625
3292075000.0 -0.65350341796875 -1.7042236328125
3323296875.0 -1.62322998046875 -0.88555908203125
3354518750.0 -1.73651123046875 0.32659912109375
3385740625.0 -1.1622314453125 1.233642578125
3416962500.0 -0.23516845703125 1.685791015625
3448184375.0 0.85992431640625 1.5284423828125
3479406250.0 1.6397705078125 0.6492919921875
3510628125.0 1.64959716796875 -0.4925537109375
3541850000.0 1.00604248046875 -1.35687255859375
3573071875.0 -0.004150390625 -1.68634033203125
3604293750.0 -1.0272216796875 -1.34320068359375
3635515625.0 -1.62982177734375 -0.4434814453125
3666737500.0 -1.56756591796875 0.64459228515625
3697959375.0 -0.83050537109375 1.478271484375
3729181250.0 0.266357421875 1.63665771484375
3760403125.0 1.1533203125 1.1036376953125
3791625000.0 1.55584716796875 0.2220458984375
3822846875.0 1.40771484375 -0.75885009765625
3854068750.0 0.62554931640625 -1.48321533203125
3885290625.0 -0.419677734375 -1.48602294921875
3916512500.0 -1.1436767578125 -0.9161376953125
3947734375.0 -1.45172119140625 -0.1229248046875
3978956250.0 -1.30303955078125 0.779052734375
4010178125.0 -0.53533935546875 1.45770263671875
4041400000.0 0.47296142578125 1.420166015625
4072621875.0 1.153564453125 0.8516845703125
4103843750.0 1.44842529296875 0.0650634765625
4135065625.0 1.2725830078125 -0.845458984375
4166287500.0 0.461669921875 -1.4981689453125
4197509375.0 -0.556884765625 -1.41888427734375
4228731250.0 -1.24810791015625 -0.80670166015625
4259953125.0 -1.512451171875 0.06793212890625
4291175000.0 -1.19342041015625 1.0106201171875
4322396875.0 -0.293212890625 1.52880859375
4353618750.0 0.6728515625 1.354248046875
4384840625.0 1.3245849609375 0.701171875
4416062500.0 1.50494384765625 -0.22467041015625
4447284375.0 1.0604248046875 -1.1048583984375
4478506250.0 0.17547607421875 -1.49835205078125
4509728125.0 -0.73284912109375 -1.31219482421875
4540950000.0 -1.39556884765625 -0.63922119140625
4572171875.0 -1.5264892578125 0.358154296875
4603393750.0 -0.97625732421875 1.21307373046875
4634615625.0 -0.06317138671875 1.541015625
4665837500.0 0.8714599609375 1.30926513671875
4697059375.0 1.54559326171875 0.51776123046875
4728281250.0 1.533203125 -0.58111572265625
4759503125.0 0.8272705078125 -1.36968994140625
4790725000.0 -0.14337158203125 -1.5760498046875
4821946875.0 -1.0845947265625 -1.1990966796875
4853168750.0 -1.61639404296875 -0.2552490234375
4884390625.0 -1.38330078125 0.79296875
4915612500.0 -0.6168212890625 1.41546630859375
4946834375.0 0.32781982421875 1.513671875
4978056250.0 1.20635986328125 1.022216796875
5009278125.0 1.5665283203125 0.041748046875
5040500000.0 1.23419189453125 -0.8763427734375
5071721875.0 0.5047607421875 -1.41790771484375
5102943750.0 -0.4451904296875 -1.50140380859375
5134165625.0 -1.33831787109375 -0.90960693359375
5165387500.0 -1.57220458984375 0.14501953125
5196609375.0 -1.14031982421875 1.01025390625
5227831250.0 -0.360107421875 1.509765625
5259053125.0 0.6884765625 1.4974365234375
5290275000.0 1.5260009765625 0.665771484375
5321496875.0 1.4969482421875 -0.4306640625
5352718750.0 0.925048828125 -1.1546630859375
5383940625.0 0.09991455078125 -1.5020751953125
5415162500.0 -0.89984130859375 -1.28759765625
5446384375.0 -1.487060546875 -0.37408447265625
5477606250.0 -1.30364990234375 0.56634521484375
5508828125.0 -0.73541259765625 1.15301513671875
5540050000.0 0.0526123046875 1.403076171875
5571271875.0 0.94061279296875 1.11358642578125
5602493750.0 1.41290283203125 0.262451171875
5633715625.0 1.23681640625 -0.613037109375
5664937500.0 0.65142822265625 -1.203857421875
5696159375.0 -0.19561767578125 -1.38775634765625
5727381250.0 -1.02276611328125 -0.98199462890625
5758603125.0 -1.3955078125 -0.146728515625
5789825000.0 -1.1982421875 0.71868896484375
5821046875.0 -0.50897216796875 1.3114013671875
5852268750.0 0.41168212890625 1.31689453125
5883490625.0 1.0728759765625 0.77569580078125
5914712500.0 1.30609130859375 0.021728515625
5945934375.0 1.10028076171875 -0.7760009765625
5977156250.0 0.36407470703125 -1.31494140625
6008378125.0 -0.50933837890625 -1.18560791015625
6039600000.0 -1.02386474609375 -0.6519775390625
6070821875.0 -1.22747802734375 -0.0057373046875
6102043750.0 -1.08740234375 0.762451171875
6133265625.0 -0.34417724609375 1.347900390625
6164487500.0 0.56396484375 1.190673828125
6195709375.0 1.0728759765625 0.63262939453125
6226931250.0 1.28302001953125 -0.04119873046875
6258153125.0 1.10809326171875 -0.8721923828125
6289375000.0 0.2574462890625 -1.44989013671875
6320596875.0 -0.69036865234375 -1.20904541015625
6351818750.0 -1.20263671875 -0.57421875
6383040625.0 -1.35797119140625 0.20623779296875
6414262500.0 -1.00311279296875 1.05816650390625
6445484375.0 -0.0797119140625 1.459228515625
6476706250.0 0.79547119140625 1.15057373046875
6507928125.0 1.29296875 0.47210693359375
6539150000.0 1.35150146484375 -0.38677978515625
6570371875.0 0.844482421875 -1.14599609375
6601593750.0 -0.015869140625 -1.40771484375
6632815625.0 -0.8416748046875 -1.14044189453125
6664037500.0 -1.4046630859375 -0.423095703125
6695259375.0 -1.3778076171875 0.56671142578125
6726481250.0 -0.7130126953125 1.25396728515625
6757703125.0 0.13018798828125 1.4111328125
6788925000.0 0.95751953125 1.13458251953125
6820146875.0 1.564208984375 0.28961181640625
6851368750.0 1.32940673828125 -0.82147216796875
6882590625.0 0.50848388671875 -1.34075927734375
6913812500.0 -0.2913818359375 -1.360107421875
6945034375.0 -1.07244873046875 -1.02569580078125
6976256250.0 -1.59625244140625 -0.094482421875
7007478125.0 -1.240234375 0.935791015625
7038700000.0 -0.40447998046875 1.34649658203125
7069921875.0 0.358154296875 1.32672119140625
7101143750.0 1.1229248046875 0.97216796875
7132365625.0 1.6041259765625 0.01708984375
7163587500.0 1.16217041015625 -1.0211181640625
7194809375.0 0.30535888671875 -1.4010009765625
7226031250.0 -0.5118408203125 -1.33056640625
7257253125.0 -1.2698974609375 -0.827880859375
7288475000.0 -1.56292724609375 0.1986083984375
7319696875.0 -1.0340576171875 1.1142578125
7350918750.0 -0.16705322265625 1.44818115234375
7382140625.0 0.71795654296875 1.28076171875
7413362500.0 1.3814697265625 0.57855224609375
7444584375.0 1.4156494140625 -0.40765380859375
7475806250.0 0.86126708984375 -1.14581298828125
7507028125.0 0.00830078125 -1.43463134765625
7538250000.0 -0.8887939453125 -1.12750244140625
7569471875.0 -1.33941650390625 -0.31201171875
7600693750.0 -1.205810546875 0.49725341796875
7631915625.0 -0.72088623046875 1.0867919921875
7663137500.0 0.0794677734375 1.36273193359375
7694359375.0 0.942596435546875 0.9840087890625
7725581250.0 1.2471923828125 0.1829833984375
7756803125.0 1.08746337890625 -0.49945068359375
7788025000.0 0.6739501953125 -1.04693603515625
7819246875.0 -0.11956787109375 -1.3533935546875
7850468750.0 -0.996124267578125 -0.918426513671875
7881690625.0 -1.23443603515625 -0.1070556640625
7912912500.0 -1.058349609375 0.5548095703125
7944134375.0 -0.607421875 1.11749267578125
7975356250.0 0.2725830078125 1.339599609375
8006578125.0 1.0477294921875 0.7806396484375
8037800000.0 1.1962890625 0.01739501953125
8069021875.0 1.0101318359375 -0.619384765625
8100243750.0 0.50152587890625 -1.16473388671875
8131465625.0 -0.3912353515625 -1.258544921875
8162687500.0 -1.03546142578125 -0.68865966796875
8193909375.0 -1.18414306640625 0.0072021484375
8225131250.0 -1.022216796875 0.6798095703125
8256353125.0 -0.42401123046875 1.2525634765625
8287575000.0 0.5030517578125 1.23028564453125
8318796875.0 1.0855712890625 0.63800048828125
8350018750.0 1.248779296875 -0.074951171875
8381240625.0 1.035400390625 -0.84295654296875
8412462500.0 0.25640869140625 -1.37677001953125
8443684375.0 -0.67083740234375 -1.173095703125
8474906250.0 -1.1788330078125 -0.5341796875
8506128125.0 -1.3037109375 0.238525390625
8537350000.0 -0.926513671875 1.04998779296875
8568571875.0 -0.01495361328125 1.3990478515625
8599793750.0 0.80438232421875 1.05657958984375
8631015625.0 1.2449951171875 0.400634765625
8662237500.0 1.2894287109375 -0.42889404296875
8693459375.0 0.73974609375 -1.18035888671875
8724681250.0 -0.16229248046875 -1.33624267578125
8755903125.0 -0.88311767578125 -0.961761474609375
8787125000.0 -1.30792236328125 -0.28338623046875
8818346875.0 -1.25640869140625 0.6177978515625
8849568750.0 -0.55828857421875 1.265625
8880790625.0 0.300048828125 1.2896728515625
8912012500.0 0.984710693359375 0.89617919921875
8943234375.0 1.4061279296875 0.12872314453125
8974456250.0 1.17034912109375 -0.84368896484375
9005678125.0 0.347900390625 -1.31640625
9036900000.0 -0.44677734375 -1.22882080078125
9068121875.0 -1.10589599609375 -0.78729248046875
9099343750.0 -1.4451904296875 0.0975341796875
9130565625.0 -0.98138427734375 1.01544189453125
9161787500.0 -0.15618896484375 1.285888671875
9193009375.0 0.55474853515625 1.1375732421875
9224231250.0 1.18377685546875 0.65765380859375
9255453125.0 1.40447998046875 -0.2978515625
9286675000.0 0.81005859375 -1.08941650390625
9317896875.0 0.028076171875 -1.25048828125
9349118750.0 -0.6563720703125 -1.074462890625
9380340625.0 -1.26361083984375 -0.51129150390625
9411562500.0 -1.31549072265625 0.4786376953125
9442784375.0 -0.6488037109375 1.121826171875
9474006250.0 0.08990478515625 1.21661376953125
9505228125.0 0.766998291015625 0.984130859375
9536450000.0 1.2783203125 0.31329345703125
9567671875.0 1.14801025390625 -0.58245849609375
9598893750.0 0.53057861328125 -1.071533203125
9630115625.0 -0.14385986328125 -1.16094970703125
9661337500.0 -0.821136474609375 -0.90435791015625
9692559375.0 -1.2423095703125 -0.19024658203125
9723781250.0 -1.046875 0.60577392578125
9755003125.0 -0.48748779296875 1.05316162109375
9786225000.0 0.19818115234375 1.162353515625
9817446875.0 0.8994140625 0.83111572265625
9848668750.0 1.2037353515625 0.07794189453125
9879890625.0 0.972412109375 -0.620361328125
9911112500.0 0.45477294921875 -1.05615234375
9942334375.0 -0.2685546875 -1.1641845703125
9973556250.0 -0.94708251953125 -0.739471435546875
10004778125.0 -1.1502685546875 -0.01641845703125
10036000000.0 -0.946044921875 0.616912841796875
10067221875.0 -0.44244384765625 1.100830078125
10098443750.0 0.37396240234375 1.185546875
10129665625.0 1.00689697265625 0.64398193359375
10160887500.0 1.12286376953125 -0.05279541015625
10192109375.0 0.9195556640625 -0.66448974609375
10223331250.0 0.36065673828125 -1.156982421875
10254553125.0 -0.487548828125 -1.11566162109375
10285775000.0 -0.9891357421875 -0.535858154296875
10316996875.0 -1.0697021484375 0.0771484375
10348218750.0 -0.902801513671875 0.673309326171875
10379440625.0 -0.32342529296875 1.1778564453125
10410662500.0 0.529296875 1.08782958984375
10441884375.0 0.996307373046875 0.52276611328125
10473106250.0 1.11163330078125 -0.08343505859375
10504328125.0 0.952667236328125 -0.75982666015625
10535550000.0 0.238037109375 -1.30047607421875
10566771875.0 -0.6588134765625 -1.0789794921875
10597993750.0 -1.0838623046875 -0.4588623046875
10629215625.0 -1.178955078125 0.20697021484375
10660437500.0 -0.889007568359375 0.95623779296875
10691659375.0 -0.00628662109375 1.34063720703125
10722881250.0 0.786529541015625 0.954925537109375
10754103125.0 1.12255859375 0.32562255859375
10785325000.0 1.1436767578125 -0.36962890625
10816546875.0 0.70220947265625 -1.05401611328125
10847768750.0 -0.14849853515625 -1.2335205078125
10878990625.0 -0.805145263671875 -0.846221923828125
10910212500.0 -1.12530517578125 -0.2462158203125
10941434375.0 -1.10150146484375 0.47998046875
10972656250.0 -0.5699462890625 1.08819580078125
11003878125.0 0.21844482421875 1.1778564453125
11035100000.0 0.8504638671875 0.82476806640625
11066321875.0 1.22412109375 0.1749267578125
11097543750.0 1.102294921875 -0.6790771484375
11128765625.0 0.385498046875 -1.204345703125
11159987500.0 -0.39691162109375 -1.14251708984375
11191209375.0 -1.00311279296875 -0.70391845703125
11222431250.0 -1.2750244140625 0.09454345703125
11253653125.0 -0.860687255859375 0.897918701171875
11284875000.0 -0.11383056640625 1.12933349609375
11316096875.0 0.511688232421875 0.959075927734375
11347318750.0 1.007080078125 0.50335693359375
11378540625.0 1.120849609375 -0.27142333984375
11409762500.0 0.636260986328125 -0.862335205078125
11440984375.0 0.035003662109375 -0.98162841796875
11472206250.0 -0.4837646484375 -0.8536376953125
11503428125.0 -0.95513916015625 -0.457305908203125
11534650000.0 -1.07208251953125 0.2901611328125
11565871875.0 -0.6036376953125 0.85784912109375
11597093750.0 -0.0194091796875 0.993804931640625
11628315625.0 0.546112060546875 0.878814697265625
11659537500.0 1.06512451171875 0.39263916015625
11690759375.0 1.06787109375 -0.4366455078125
11721981250.0 0.517913818359375 -0.944305419921875
11753203125.0 -0.10699462890625 -1.04034423828125
11784425000.0 -0.72662353515625 -0.810882568359375
11815646875.0 -1.10528564453125 -0.15081787109375
11846868750.0 -0.892913818359375 0.55291748046875
11878090625.0 -0.3914794921875 0.91192626953125
11909312500.0 0.189239501953125 0.9888916015625
11940534375.0 0.7833251953125 0.6966552734375
11971756250.0 1.02764892578125 0.03851318359375
12002978125.0 0.808258056640625 -0.54022216796875
12034200000.0 0.38275146484375 -0.8922119140625
12065421875.0 -0.217041015625 -1.0137939453125
12096643750.0 -0.851654052734375 -0.665618896484375
12127865625.0 -1.03680419921875 0.01763916015625
12159087500.0 -0.817138671875 0.576416015625
12190309375.0 -0.3787841796875 0.97900390625
12221531250.0 0.3409423828125 1.09124755859375
12252753125.0 0.981842041015625 0.582672119140625
12283975000.0 1.05743408203125 -0.1295166015625
12315196875.0 0.80364990234375 -0.680267333984375
12346418750.0 0.281982421875 -1.09576416015625
12377640625.0 -0.5419921875 -1.06365966796875
12408862500.0 -1.03826904296875 -0.418701171875
12440084375.0 -1.010986328125 0.22686767578125
12471306250.0 -0.74371337890625 0.740478515625
12502528125.0 -0.17938232421875 1.1258544921875
12533750000.0 0.623443603515625 0.996826171875
12564971875.0 1.04449462890625 0.364013671875
12596193750.0 1.031982421875 -0.26470947265625
12627415625.0 0.750274658203125 -0.833099365234375
12658637500.0 0.0789794921875 -1.2108154296875
12689859375.0 -0.73992919921875 -0.9686279296875
12721081250.0 -1.11962890625 -0.30615234375
12752303125.0 -1.1014404296875 0.3857421875
12783525000.0 -0.68994140625 1.029052734375
12814746875.0 0.16693115234375 1.2540283203125
12845968750.0 0.86688232421875 0.811981201171875
12877190625.0 1.1221923828125 0.171875
12908412500.0 1.058837890625 -0.50506591796875
12939634375.0 0.54315185546875 -1.1207275390625
12970856250.0 -0.32391357421875 -1.177978515625
13002078125.0 -0.8983154296875 -0.694671630859375
13033300000.0 -1.10955810546875 -0.08612060546875
13064521875.0 -1.01153564453125 0.59759521484375
13095743750.0 -0.4188232421875 1.1605224609375
13126965625.0 0.41229248046875 1.12445068359375
13158187500.0 0.95208740234375 0.632293701171875
13189409375.0 1.15179443359375 -0.02154541015625
13220631250.0 0.9393310546875 -0.752410888671875
13251853125.0 0.232421875 -1.17657470703125
13283075000.0 -0.51031494140625 -1.02197265625
13314296875.0 -0.989715576171875 -0.52923583984375
13345518750.0 -1.14080810546875 0.17987060546875
13376740625.0 -0.7525634765625 0.86358642578125
13407962500.0 -0.05767822265625 1.0701904296875
