!Created with skrf (http://scikit-rf.org).
# Hz S RI R 50.0 
!freq ReS11 ImS11
45000000.0 -0.0768280029296875 -0.09695816040039062
76221875.0 -0.19672393798828125 -0.04763031005859375
107443750.0 -0.2555694580078125 0.1197509765625
138665625.0 -0.148681640625 0.3291015625
169887500.0 0.123321533203125 0.4183807373046875
201109375.0 0.4223480224609375 0.2819671630859375
232331250.0 0.58013916015625 -0.057037353515625
263553125.0 0.4906463623046875 -0.4530792236328125
294775000.0 0.099212646484375 -0.733978271484375
325996875.0 -0.415679931640625 -0.682647705078125
357218750.0 -0.808197021484375 -0.29852294921875
388440625.0 -0.887939453125 0.300689697265625
419662500.0 -0.519134521484375 0.867431640625
450884375.0 0.17218017578125 1.0313720703125
482106250.0 0.799560546875 0.715240478515625
513328125.0 1.121826171875 0.08837890625
544550000.0 1.00616455078125 -0.6805419921875
575771875.0 0.3380126953125 -1.239501953125
606993750.0 -0.5535888671875 -1.17999267578125
638215625.0 -1.167724609375 -0.5927734375
669437500.0 -1.34271240234375 0.23345947265625
700659375.0 -0.9732666015625 1.0972900390625
731881250.0 -0.00531005859375 1.5457763671875
763103125.0 1.006591796875 1.15948486328125
794325000.0 1.47161865234375 0.2835693359375
825546875.0 1.37060546875 -0.65179443359375
856768750.0 0.79693603515625 -1.4027099609375
887990625.0 -0.29241943359375 -1.6519775390625
919212500.0 -1.2908935546875 -1.08209228515625
950434375.0 -1.6529541015625 -0.05963134765625
981656250.0 -1.3861083984375 0.947998046875
1012878125.0 -0.5313720703125 1.6754150390625
1044100000.0 0.69757080078125 1.66619873046875
1075321875.0 1.5782470703125 0.8145751953125
1106543750.0 1.7088623046875 -0.31243896484375
1137765625.0 1.19049072265625 -1.28631591796875
1168987500.0 0.13946533203125 -1.8013916015625
1200209375.0 -1.0635986328125 -1.48779296875
1231431250.0 -1.7315673828125 -0.45513916015625
1262653125.0 -1.597900390625 0.685546875
1293875000.0 -0.8548583984375 1.49432373046875
1325096875.0 0.2274169921875 1.71099853515625
1356318750.0 1.2373046875 1.22052001953125
1387540625.0 1.7432861328125 0.19061279296875
1418762500.0 1.47308349609375 -0.952880859375
1449984375.0 0.53167724609375 -1.6287841796875
1481206250.0 -0.5504150390625 -1.55963134765625
1512428125.0 -1.34466552734375 -0.9219970703125
1543650000.0 -1.658935546875 0.0648193359375
1574871875.0 -1.27642822265625 1.11053466796875
1606093750.0 -0.2742919921875 1.63433837890625
1637315625.0 0.74346923828125 1.4036865234375
1668537500.0 1.39849853515625 0.697265625
1699759375.0 1.5765380859375 -0.2769775390625
1730981250.0 1.0670166015625 -1.23162841796875
1762203125.0 0.04278564453125 -1.57379150390625
1793425000.0 -0.8575439453125 -1.22930908203125
1824646875.0 -1.396728515625 -0.516357421875
1855868750.0 -1.47784423828125 0.43310546875
1887090625.0 -0.877197265625 1.28802490234375
1918312500.0 0.11773681640625 1.49005126953125
1949534375.0 0.92315673828125 1.09124755859375
1980756250.0 1.37774658203125 0.37115478515625
2011978125.0 1.36212158203125 -0.53192138671875
2043200000.0 0.752197265625 -1.263671875
2074421875.0 -0.1571044921875 -1.4368896484375
2105643750.0 -0.96240234375 -1.07452392578125
2136865625.0 -1.45037841796875 -0.30548095703125
2168087500.0 -1.36004638671875 0.67236328125
2199309375.0 -0.64044189453125 1.3538818359375
2230531250.0 0.2823486328125 1.43890380859375
2261753125.0 1.0755615234375 1.01611328125
2292975000.0 1.51776123046875 0.170166015625
2324196875.0 1.30816650390625 -0.820556640625
2355418750.0 0.52581787109375 -1.422607421875
2386640625.0 -0.40576171875 -1.45123291015625
2417862500.0 -1.18310546875 -1.02496337890625
2449084375.0 -1.60833740234375 -0.08270263671875
2480306250.0 -1.3135986328125 0.92669677734375
2511528125.0 -0.494140625 1.51080322265625
2542750000.0 0.49114990234375 1.53936767578125
2573971875.0 1.3736572265625 0.9698486328125
2605193750.0 1.71978759765625 -0.1126708984375
2636415625.0 1.2633056640625 -1.1544189453125
2667637500.0 0.30682373046875 -1.67010498046875
2698859375.0 -0.771240234375 -1.53631591796875
2730081250.0 -1.57794189453125 -0.7410888671875
2761303125.0 -1.68450927734375 0.3896484375
2792525000.0 -1.101318359375 1.31109619140625
2823746875.0 -0.10089111328125 1.7342529296875
2854968750.0 1.01507568359375 1.45843505859375
2886190625.0 1.6951904296875 0.491943359375
2917412500.0 1.60260009765625 -0.61968994140625
2948634375.0 0.94061279296875 -1.43603515625
2979856250.0 -0.10870361328125 -1.77923583984375
3011078125.0 -1.25103759765625 -1.34454345703125
3042300000.0 -1.77825927734375 -0.23431396484375
3073521875.0 -1.5120849609375 0.8411865234375
3104743750.0 -0.762939453125 1.5731201171875
3135965625.0 0.3638916015625 1.812255859375
3167187500.0 1.50286865234375 1.16546630859375
3198409375.0 1.81903076171875 -0.07666015625
3229631250.0 1.35137939453125 -1.0836181640625
3260853125.0 0.48980712890625 -1.67291259765625
3292075000.0 -0.658447265625 -1.70172119140625
3323296875.0 -1.6246337890625 -0.880126953125
3354518750.0 -1.73370361328125 0.329833984375
3385740625.0 -1.15753173828125 1.23577880859375
3416962500.0 -0.231201171875 1.685791015625
3448184375.0 0.8631591796875 1.52410888671875
3479406250.0 1.64013671875 0.6441650390625
3510628125.0 1.64764404296875 -0.499267578125
3541850000.0 1.001220703125 -1.3583984375
3573071875.0 -0.00897216796875 -1.684814453125
3604293750.0 -1.0316162109375 -1.33892822265625
3635515625.0 -1.63134765625 -0.43780517578125
3666737500.0 -1.56451416015625 0.6490478515625
3697959375.0 -0.82586669921875 1.47869873046875
3729181250.0 0.27008056640625 1.63238525390625
3760403125.0 1.15460205078125 1.099365234375
3791625000.0 1.5565185546875 0.21722412109375
3822846875.0 1.40496826171875 -0.76397705078125
3854068750.0 0.62066650390625 -1.48553466796875
3885290625.0 -0.4244384765625 -1.48419189453125
3916512500.0 -1.14532470703125 -0.91143798828125
3947734375.0 -1.45111083984375 -0.1185302734375
3978956250.0 -1.29949951171875 0.78216552734375
4010178125.0 -0.53057861328125 1.45880126953125
4041400000.0 0.47698974609375 1.41729736328125
4072621875.0 1.15570068359375 0.84710693359375
4103843750.0 1.4473876953125 0.061767578125
4135065625.0 1.2691650390625 -0.8497314453125
4166287500.0 0.45654296875 -1.49951171875
4197509375.0 -0.5615234375 -1.41650390625
4228731250.0 -1.25115966796875 -0.8016357421875
4259953125.0 -1.51092529296875 0.07220458984375
4291175000.0 -1.189453125 1.01348876953125
4322396875.0 -0.2877197265625 1.52984619140625
4353618750.0 0.6759033203125 1.35150146484375
4384840625.0 1.32598876953125 0.69659423828125
4416062500.0 1.50341796875 -0.22955322265625
4447284375.0 1.0562744140625 -1.10845947265625
4478506250.0 0.17047119140625 -1.4990234375
4509728125.0 -0.7364501953125 -1.30914306640625
4540950000.0 -1.3980712890625 -0.6343994140625
4572171875.0 -1.5247802734375 0.36468505859375
4603393750.0 -0.971923828125 1.21722412109375
4634615625.0 -0.05810546875 1.54010009765625
4665837500.0 0.87408447265625 1.30548095703125
4697059375.0 1.54534912109375 0.5133056640625
4728281250.0 1.53082275390625 -0.5865478515625
4759503125.0 0.82171630859375 -1.3707275390625
4790725000.0 -0.148193359375 -1.5745849609375
4821946875.0 -1.08746337890625 -1.1947021484375
4853168750.0 -1.61737060546875 -0.248779296875
4884390625.0 -1.3792724609375 0.7967529296875
4915612500.0 -0.61285400390625 1.4158935546875
4946834375.0 0.33148193359375 1.511474609375
4978056250.0 1.209716796875 1.0172119140625
5009278125.0 1.56561279296875 0.03643798828125
5040500000.0 1.2301025390625 -0.87872314453125
5071721875.0 0.50018310546875 -1.41912841796875
5102943750.0 -0.45037841796875 -1.4989013671875
5134165625.0 -1.34136962890625 -0.90447998046875
5165387500.0 -1.57073974609375 0.1500244140625
5196609375.0 -1.1358642578125 1.0128173828125
5227831250.0 -0.35491943359375 1.50994873046875
5259053125.0 0.6927490234375 1.49371337890625
5290275000.0 1.5260009765625 0.66046142578125
5321496875.0 1.49456787109375 -0.43621826171875
5352718750.0 0.9202880859375 -1.1571044921875
5383940625.0 0.09442138671875 -1.50390625
5415162500.0 -0.90496826171875 -1.28497314453125
5446384375.0 -1.48828125 -0.368408203125
5477606250.0 -1.3011474609375 0.57061767578125
5508828125.0 -0.73114013671875 1.15399169921875
5540050000.0 0.05657958984375 1.40289306640625
5571271875.0 0.9434814453125 1.109130859375
5602493750.0 1.41265869140625 0.25732421875
5633715625.0 1.233642578125 -0.61724853515625
5664937500.0 0.646484375 -1.20611572265625
5696159375.0 -0.20147705078125 -1.3863525390625
5727381250.0 -1.02716064453125 -0.97747802734375
5758603125.0 -1.39556884765625 -0.140869140625
5789825000.0 -1.19512939453125 0.722900390625
5821046875.0 -0.50390625 1.31207275390625
5852268750.0 0.41534423828125 1.31390380859375
5883490625.0 1.07476806640625 0.77032470703125
5914712500.0 1.3055419921875 0.0172119140625
5945934375.0 1.09716796875 -0.780029296875
5977156250.0 0.3587646484375 -1.31500244140625
6008378125.0 -0.5130615234375 -1.1832275390625
6039600000.0 -1.02545166015625 -0.64794921875
6070821875.0 -1.226806640625 -0.0015869140625
6102043750.0 -1.0845947265625 0.76812744140625
6133265625.0 -0.3388671875 1.348876953125
6164487500.0 0.56817626953125 1.18804931640625
6195709375.0 1.07562255859375 0.628173828125
6226931250.0 1.282958984375 -0.04644775390625
6258153125.0 1.1044921875 -0.87713623046875
6289375000.0 0.251220703125 -1.45001220703125
6320596875.0 -0.69451904296875 -1.204833984375
6351818750.0 -1.203857421875 -0.5689697265625
6383040625.0 -1.3563232421875 0.2108154296875
6414262500.0 -0.99859619140625 1.0614013671875
6445484375.0 -0.07373046875 1.458984375
6476706250.0 0.799560546875 1.1475830078125
6507928125.0 1.29376220703125 0.46746826171875
6539150000.0 1.34893798828125 -0.3914794921875
6570371875.0 0.8394775390625 -1.14813232421875
6601593750.0 -0.0203857421875 -1.40777587890625
6632815625.0 -0.8441162109375 -1.13580322265625
6664037500.0 -1.40643310546875 -0.4161376953125
6695259375.0 -1.37548828125 0.57208251953125
6726481250.0 -0.7076416015625 1.25628662109375
6757703125.0 0.13525390625 1.40936279296875
6788925000.0 0.96026611328125 1.12994384765625
6820146875.0 1.56463623046875 0.28289794921875
6851368750.0 1.32476806640625 -0.826904296875
6882590625.0 0.5028076171875 -1.34246826171875
6913812500.0 -0.296142578125 -1.357666015625
6945034375.0 -1.07598876953125 -1.02032470703125
6976256250.0 -1.59564208984375 -0.08807373046875
7007478125.0 -1.23455810546875 0.93719482421875
7038700000.0 -0.3985595703125 1.34832763671875
7069921875.0 0.36212158203125 1.32464599609375
7101143750.0 1.12615966796875 0.9671630859375
7132365625.0 1.60406494140625 0.00933837890625
7163587500.0 1.1568603515625 -1.0269775390625
7194809375.0 0.299560546875 -1.4022216796875
7226031250.0 -0.51702880859375 -1.32757568359375
7257253125.0 -1.2728271484375 -0.82244873046875
7288475000.0 -1.56158447265625 0.2044677734375
7319696875.0 -1.02899169921875 1.11517333984375
7350918750.0 -0.16070556640625 1.44744873046875
7382140625.0 0.72149658203125 1.27728271484375
7413362500.0 1.3812255859375 0.57183837890625
7444584375.0 1.4119873046875 -0.4114990234375
7475806250.0 0.85650634765625 -1.14727783203125
7507028125.0 0.00201416015625 -1.43206787109375
7538250000.0 -0.89239501953125 -1.1224365234375
7569471875.0 -1.33978271484375 -0.307373046875
7600693750.0 -1.20355224609375 0.5037841796875
7631915625.0 -0.716064453125 1.08966064453125
7663137500.0 0.0836181640625 1.3603515625
7694359375.0 0.947296142578125 0.98101806640625
7725581250.0 1.24755859375 0.1778564453125
7756803125.0 1.08404541015625 -0.501708984375
7788025000.0 0.6688232421875 -1.04931640625
7819246875.0 -0.12689208984375 -1.35205078125
7850468750.0 -0.998443603515625 -0.914154052734375
7881690625.0 -1.23394775390625 -0.1011962890625
7912912500.0 -1.055419921875 0.557861328125
7944134375.0 -0.60186767578125 1.11956787109375
7975356250.0 0.27923583984375 1.33660888671875
8006578125.0 1.05242919921875 0.77484130859375
8037800000.0 1.19635009765625 0.01251220703125
8069021875.0 1.0072021484375 -0.62353515625
8100243750.0 0.4962158203125 -1.16668701171875
8131465625.0 -0.39398193359375 -1.2545166015625
8162687500.0 -1.03729248046875 -0.68316650390625
8193909375.0 -1.183349609375 0.01202392578125
8225131250.0 -1.018798828125 0.68194580078125
8256353125.0 -0.41778564453125 1.2547607421875
8287575000.0 0.50750732421875 1.227783203125
8318796875.0 1.08709716796875 0.6324462890625
8350018750.0 1.248046875 -0.080322265625
8381240625.0 1.03155517578125 -0.84710693359375
8412462500.0 0.24810791015625 -1.37921142578125
8443684375.0 -0.6756591796875 -1.16876220703125
8474906250.0 -1.1805419921875 -0.528076171875
8506128125.0 -1.30047607421875 0.24310302734375
8537350000.0 -0.92279052734375 1.05242919921875
8568571875.0 -0.009033203125 1.3980712890625
8599793750.0 0.80712890625 1.0518798828125
8631015625.0 1.24542236328125 0.39520263671875
8662237500.0 1.2867431640625 -0.43450927734375
8693459375.0 0.73358154296875 -1.1824951171875
8724681250.0 -0.16583251953125 -1.3328857421875
8755903125.0 -0.885162353515625 -0.957611083984375
8787125000.0 -1.30743408203125 -0.27978515625
8818346875.0 -1.2515869140625 0.6212158203125
8849568750.0 -0.55316162109375 1.26824951171875
8880790625.0 0.30224609375 1.28680419921875
8912012500.0 0.988983154296875 0.890838623046875
8943234375.0 1.40496826171875 0.12249755859375
8974456250.0 1.16571044921875 -0.84820556640625
9005678125.0 0.3427734375 -1.3179931640625
9036900000.0 -0.45245361328125 -1.22607421875
9068121875.0 -1.10882568359375 -0.78265380859375
9099343750.0 -1.443359375 0.1051025390625
9130565625.0 -0.9759521484375 1.01715087890625
9161787500.0 -0.149658203125 1.2841796875
9193009375.0 0.55938720703125 1.13409423828125
9224231250.0 1.185302734375 0.65313720703125
9255453125.0 1.40386962890625 -0.30438232421875
9286675000.0 0.804443359375 -1.091796875
9317896875.0 0.02215576171875 -1.2510986328125
9349118750.0 -0.660888671875 -1.07110595703125
9380340625.0 -1.26617431640625 -0.50592041015625
9411562500.0 -1.3125 0.48492431640625
9442784375.0 -0.6448974609375 1.12396240234375
9474006250.0 0.09515380859375 1.2138671875
9505228125.0 0.7724609375 0.979156494140625
9536450000.0 1.27978515625 0.306640625
9567671875.0 1.142822265625 -0.58837890625
9598893750.0 0.52398681640625 -1.07574462890625
9630115625.0 -0.14959716796875 -1.16107177734375
9661337500.0 -0.826934814453125 -0.900665283203125
9692559375.0 -1.24273681640625 -0.18292236328125
9723781250.0 -1.042236328125 0.61004638671875
9755003125.0 -0.48248291015625 1.053955078125
9786225000.0 0.20501708984375 1.1619873046875
9817446875.0 0.9012451171875 0.825958251953125
9848668750.0 1.20269775390625 0.07171630859375
9879890625.0 0.9683837890625 -0.6231689453125
9911112500.0 0.44903564453125 -1.0570068359375
9942334375.0 -0.2745361328125 -1.163330078125
9973556250.0 -0.95111083984375 -0.734954833984375
10004778125.0 -1.149658203125 -0.01092529296875
10036000000.0 -0.944305419921875 0.621826171875
10067221875.0 -0.4381103515625 1.102294921875
10098443750.0 0.37896728515625 1.18206787109375
10129665625.0 1.00689697265625 0.6378173828125
10160887500.0 1.12115478515625 -0.0582275390625
10192109375.0 0.916351318359375 -0.6678466796875
10223331250.0 0.35552978515625 -1.1591796875
10254553125.0 -0.49298095703125 -1.11260986328125
10285775000.0 -0.990692138671875 -0.530914306640625
10316996875.0 -1.06964111328125 0.0814208984375
10348218750.0 -0.90057373046875 0.676849365234375
10379440625.0 -0.316650390625 1.18121337890625
10410662500.0 0.5340576171875 1.0849609375
10441884375.0 0.995513916015625 0.518646240234375
10473106250.0 1.1114501953125 -0.08837890625
10504328125.0 0.94879150390625 -0.7645263671875
10535550000.0 0.23223876953125 -1.30145263671875
10566771875.0 -0.6654052734375 -1.075927734375
10597993750.0 -1.0853271484375 -0.45428466796875
10629215625.0 -1.17779541015625 0.21099853515625
10660437500.0 -0.885406494140625 0.9610595703125
10691659375.0 0.00042724609375 1.33978271484375
10722881250.0 0.791107177734375 0.948944091796875
10754103125.0 1.12347412109375 0.3211669921875
10785325000.0 1.14105224609375 -0.37274169921875
10816546875.0 0.69677734375 -1.056640625
10847768750.0 -0.15411376953125 -1.23333740234375
10878990625.0 -0.807769775390625 -0.840606689453125
10910212500.0 -1.12652587890625 -0.24005126953125
10941434375.0 -1.0985107421875 0.48486328125
10972656250.0 -0.56396484375 1.09149169921875
11003878125.0 0.22430419921875 1.1756591796875
11035100000.0 0.85589599609375 0.819549560546875
11066321875.0 1.22589111328125 0.16851806640625
11097543750.0 1.097900390625 -0.68597412109375
11128765625.0 0.3800048828125 -1.20391845703125
11159987500.0 -0.4033203125 -1.1402587890625
11191209375.0 -1.00701904296875 -0.69964599609375
11222431250.0 -1.2762451171875 0.1021728515625
11253653125.0 -0.855438232421875 0.901580810546875
11284875000.0 -0.1092529296875 1.12939453125
11316096875.0 0.51678466796875 0.9559326171875
11347318750.0 1.0089111328125 0.49822998046875
11378540625.0 1.1195068359375 -0.2779541015625
11409762500.0 0.630950927734375 -0.865386962890625
11440984375.0 0.03033447265625 -0.9813232421875
11472206250.0 -0.4869384765625 -0.850738525390625
11503428125.0 -0.959259033203125 -0.45233154296875
11534650000.0 -1.06951904296875 0.2955322265625
11565871875.0 -0.5986328125 0.86004638671875
11597093750.0 -0.013153076171875 0.99468994140625
11628315625.0 0.55029296875 0.875732421875
11659537500.0 1.0667724609375 0.38714599609375
11690759375.0 1.0657958984375 -0.4437255859375
11721981250.0 0.512847900390625 -0.946319580078125
11753203125.0 -0.11212158203125 -1.03900146484375
11784425000.0 -0.732330322265625 -0.8062744140625
11815646875.0 -1.10589599609375 -0.14263916015625
11846868750.0 -0.8897705078125 0.557830810546875
11878090625.0 -0.387298583984375 0.9119873046875
11909312500.0 0.192840576171875 0.986114501953125
11940534375.0 0.78759765625 0.691741943359375
11971756250.0 1.02679443359375 0.03472900390625
12002978125.0 0.805267333984375 -0.544952392578125
12034200000.0 0.37774658203125 -0.893280029296875
12065421875.0 -0.22271728515625 -1.01141357421875
12096643750.0 -0.85546875 -0.6605224609375
12127865625.0 -1.03485107421875 0.02252197265625
12159087500.0 -0.814208984375 0.581817626953125
12190309375.0 -0.373443603515625 0.980194091796875
12221531250.0 0.348876953125 1.08953857421875
12252753125.0 0.986419677734375 0.575531005859375
12283975000.0 1.05645751953125 -0.13568115234375
12315196875.0 0.7989501953125 -0.68231201171875
12346418750.0 0.2742919921875 -1.09625244140625
12377640625.0 -0.54644775390625 -1.05938720703125
12408862500.0 -1.04095458984375 -0.4134521484375
12440084375.0 -1.0078125 0.23052978515625
12471306250.0 -0.74066162109375 0.744476318359375
12502528125.0 -0.1727294921875 1.125244140625
12533750000.0 0.628570556640625 0.992706298828125
12564971875.0 1.045654296875 0.3580322265625
12596193750.0 1.03057861328125 -0.2716064453125
12627415625.0 0.74566650390625 -0.83447265625
12658637500.0 0.0723876953125 -1.21087646484375
12689859375.0 -0.743896484375 -0.96319580078125
12721081250.0 -1.12237548828125 -0.2994384765625
12752303125.0 -1.0985107421875 0.39117431640625
12783525000.0 -0.68231201171875 1.03741455078125
12814746875.0 0.17681884765625 1.25384521484375
12845968750.0 0.870513916015625 0.806854248046875
12877190625.0 1.12213134765625 0.1658935546875
12908412500.0 1.05645751953125 -0.51214599609375
12939634375.0 0.536376953125 -1.1248779296875
12970856250.0 -0.33154296875 -1.17510986328125
13002078125.0 -0.901580810546875 -0.689605712890625
13033300000.0 -1.10986328125 -0.08038330078125
13064521875.0 -1.00982666015625 0.6046142578125
13095743750.0 -0.41168212890625 1.16278076171875
13126965625.0 0.4180908203125 1.1204833984375
13158187500.0 0.952789306640625 0.628326416015625
13189409375.0 1.15277099609375 -0.0294189453125
13220631250.0 0.93438720703125 -0.757843017578125
13251853125.0 0.22540283203125 -1.17742919921875
13283075000.0 -0.51611328125 -1.0189208984375
13314296875.0 -0.9951171875 -0.523651123046875
