!Created with skrf (http://scikit-rf.org).
# Hz S RI R 50.0 
!freq ReS11 ImS11
45000000.0 -0.07702255249023438 -0.09690093994140625
76221875.0 -0.19647216796875 -0.0475311279296875
107443750.0 -0.255035400390625 0.119842529296875
138665625.0 -0.1478118896484375 0.3287506103515625
169887500.0 0.12384033203125 0.4174041748046875
201109375.0 0.422088623046875 0.2807464599609375
232331250.0 0.5791015625 -0.057952880859375
263553125.0 0.489471435546875 -0.453521728515625
294775000.0 0.0980224609375 -0.73297119140625
325996875.0 -0.41632080078125 -0.68060302734375
357218750.0 -0.80694580078125 -0.296630859375
388440625.0 -0.885955810546875 0.30133056640625
419662500.0 -0.516845703125 0.86737060546875
450884375.0 0.17376708984375 1.0289306640625
482106250.0 0.7991943359375 0.71234130859375
513328125.0 1.11962890625 0.08648681640625
544550000.0 1.00372314453125 -0.68084716796875
575771875.0 0.33575439453125 -1.23858642578125
606993750.0 -0.5545654296875 -1.177001953125
638215625.0 -1.16619873046875 -0.58953857421875
669437500.0 -1.33990478515625 0.2342529296875
700659375.0 -0.97052001953125 1.09686279296875
731881250.0 -0.0028076171875 1.54290771484375
763103125.0 1.00634765625 1.15533447265625
794325000.0 1.46868896484375 0.2808837890625
825546875.0 1.36700439453125 -0.65228271484375
856768750.0 0.79364013671875 -1.40191650390625
887990625.0 -0.2935791015625 -1.64825439453125
919212500.0 -1.289306640625 -1.077880859375
950434375.0 -1.648681640625 -0.0579833984375
981656250.0 -1.3818359375 0.94696044921875
1012878125.0 -0.5286865234375 1.672119140625
1044100000.0 0.6981201171875 1.66131591796875
1075321875.0 1.57574462890625 0.81097412109375
1106543750.0 1.70458984375 -0.314697265625
1137765625.0 1.185791015625 -1.28521728515625
1168987500.0 0.1368408203125 -1.79736328125
1200209375.0 -1.06231689453125 -1.482666015625
1231431250.0 -1.72802734375 -0.452392578125
1262653125.0 -1.59375 0.68560791015625
1293875000.0 -0.8507080078125 1.4918212890625
1325096875.0 0.22906494140625 1.70611572265625
1356318750.0 1.235595703125 1.2158203125
1387540625.0 1.73974609375 0.18804931640625
1418762500.0 1.4683837890625 -0.95196533203125
1449984375.0 0.5284423828125 -1.62640380859375
1481206250.0 -0.55108642578125 -1.55548095703125
1512428125.0 -1.3424072265625 -0.918701171875
1543650000.0 -1.65496826171875 0.0660400390625
1574871875.0 -1.27252197265625 1.109619140625
1606093750.0 -0.2716064453125 1.631103515625
1637315625.0 0.74322509765625 1.39990234375
1668537500.0 1.3958740234375 0.69500732421875
1699759375.0 1.57269287109375 -0.2781982421875
1730981250.0 1.0628662109375 -1.2296142578125
1762203125.0 0.041015625 -1.5699462890625
1793425000.0 -0.85601806640625 -1.2255859375
1824646875.0 -1.39324951171875 -0.51422119140625
1855868750.0 -1.47320556640625 0.4322509765625
1887090625.0 -0.8741455078125 1.285400390625
1918312500.0 0.11767578125 1.4864501953125
1949534375.0 0.921875 1.08819580078125
1980756250.0 1.375 0.369140625
2011978125.0 1.3592529296875 -0.532470703125
2043200000.0 0.74896240234375 -1.26171875
2074421875.0 -0.15777587890625 -1.43304443359375
2105643750.0 -0.96026611328125 -1.07147216796875
2136865625.0 -1.44720458984375 -0.303955078125
2168087500.0 -1.35638427734375 0.671875
2199309375.0 -0.63800048828125 1.35107421875
2230531250.0 0.2828369140625 1.43548583984375
2261753125.0 1.07244873046875 1.012939453125
2292975000.0 1.51416015625 0.16973876953125
2324196875.0 1.3048095703125 -0.81890869140625
2355418750.0 0.52447509765625 -1.41986083984375
2386640625.0 -0.404541015625 -1.44818115234375
2417862500.0 -1.181640625 -1.02362060546875
2449084375.0 -1.60467529296875 -0.0830078125
2480306250.0 -1.3109130859375 0.92547607421875
2511528125.0 -0.49322509765625 1.50701904296875
2542750000.0 0.48956298828125 1.53546142578125
2573971875.0 1.370849609375 0.96661376953125
2605193750.0 1.71661376953125 -0.11334228515625
2636415625.0 1.26031494140625 -1.15234375
2667637500.0 0.30517578125 -1.66741943359375
2698859375.0 -0.77044677734375 -1.53314208984375
2730081250.0 -1.572021484375 -0.73974609375
2761303125.0 -1.68017578125 0.38818359375
2792525000.0 -1.09844970703125 1.3062744140625
2823746875.0 -0.1019287109375 1.72882080078125
2854968750.0 1.01220703125 1.454345703125
2886190625.0 1.6915283203125 0.49053955078125
2917412500.0 1.59857177734375 -0.61810302734375
2948634375.0 0.9384765625 -1.43267822265625
2979856250.0 -0.109130859375 -1.77606201171875
3011078125.0 -1.248046875 -1.3408203125
3042300000.0 -1.7757568359375 -0.23260498046875
3073521875.0 -1.50811767578125 0.83978271484375
3104743750.0 -0.761962890625 1.56903076171875
3135965625.0 0.362548828125 1.80816650390625
3167187500.0 1.49774169921875 1.1629638671875
3198409375.0 1.815185546875 -0.07672119140625
3229631250.0 1.34783935546875 -1.0806884765625
3260853125.0 0.4884033203125 -1.6676025390625
3292075000.0 -0.65521240234375 -1.69647216796875
3323296875.0 -1.619140625 -0.87823486328125
3354518750.0 -1.72967529296875 0.33026123046875
3385740625.0 -1.15435791015625 1.2305908203125
3416962500.0 -0.23077392578125 1.679443359375
3448184375.0 0.85906982421875 1.5201416015625
3479406250.0 1.6368408203125 0.642333984375
3510628125.0 1.64337158203125 -0.49542236328125
3541850000.0 0.999267578125 -1.35430908203125
3573071875.0 -0.00811767578125 -1.6812744140625
3604293750.0 -1.02716064453125 -1.3359375
3635515625.0 -1.6268310546875 -0.43804931640625
3666737500.0 -1.560302734375 0.6455078125
3697959375.0 -0.82403564453125 1.47491455078125
3729181250.0 0.2703857421875 1.63055419921875
3760403125.0 1.1524658203125 1.09698486328125
3791625000.0 1.5501708984375 0.21795654296875
3822846875.0 1.4005126953125 -0.760986328125
3854068750.0 0.61907958984375 -1.4805908203125
3885290625.0 -0.4217529296875 -1.48004150390625
3916512500.0 -1.1407470703125 -0.90997314453125
3947734375.0 -1.44647216796875 -0.11920166015625
3978956250.0 -1.296142578125 0.7784423828125
4010178125.0 -0.530517578125 1.4539794921875
4041400000.0 0.47235107421875 1.41357421875
4072621875.0 1.150634765625 0.8470458984375
4103843750.0 1.443603515625 0.06243896484375
4135065625.0 1.26617431640625 -0.8448486328125
4166287500.0 0.45745849609375 -1.4942626953125
4197509375.0 -0.55908203125 -1.41455078125
4228731250.0 -1.24725341796875 -0.80206298828125
4259953125.0 -1.5074462890625 0.070068359375
4291175000.0 -1.1876220703125 1.01116943359375
4322396875.0 -0.288818359375 1.52545166015625
4353618750.0 0.6734619140625 1.349365234375
4384840625.0 1.3209228515625 0.6966552734375
4416062500.0 1.49993896484375 -0.22808837890625
4447284375.0 1.05389404296875 -1.1033935546875
4478506250.0 0.17169189453125 -1.49468994140625
4509728125.0 -0.7314453125 -1.30633544921875
4540950000.0 -1.39251708984375 -0.6351318359375
4572171875.0 -1.52142333984375 0.35992431640625
4603393750.0 -0.97161865234375 1.21185302734375
4634615625.0 -0.060791015625 1.53607177734375
4665837500.0 0.86962890625 1.30377197265625
4697059375.0 1.54010009765625 0.51507568359375
4728281250.0 1.52838134765625 -0.5828857421875
4759503125.0 0.822265625 -1.3673095703125
4790725000.0 -0.1455078125 -1.57208251953125
4821946875.0 -1.08319091796875 -1.19342041015625
4853168750.0 -1.61248779296875 -0.2510986328125
4884390625.0 -1.3770751953125 0.79364013671875
4915612500.0 -0.6129150390625 1.41156005859375
4946834375.0 0.32769775390625 1.507568359375
4978056250.0 1.20416259765625 1.01690673828125
5009278125.0 1.56109619140625 0.03912353515625
5040500000.0 1.22857666015625 -0.87603759765625
5071721875.0 0.50079345703125 -1.4144287109375
5102943750.0 -0.44647216796875 -1.49566650390625
5134165625.0 -1.33428955078125 -0.9051513671875
5165387500.0 -1.56707763671875 0.1461181640625
5196609375.0 -1.13604736328125 1.0086669921875
5227831250.0 -0.35693359375 1.50592041015625
5259053125.0 0.6878662109375 1.49151611328125
5290275000.0 1.5208740234375 0.66217041015625
5321496875.0 1.49212646484375 -0.4306640625
5352718750.0 0.9205322265625 -1.15350341796875
5383940625.0 0.09588623046875 -1.50006103515625
5415162500.0 -0.89959716796875 -1.28289794921875
5446384375.0 -1.483642578125 -0.36962890625
5477606250.0 -1.2984619140625 0.56658935546875
5508828125.0 -0.73101806640625 1.15081787109375
5540050000.0 0.05267333984375 1.39697265625
5571271875.0 0.93804931640625 1.107666015625
5602493750.0 1.4073486328125 0.2596435546875
5633715625.0 1.2313232421875 -0.6123046875
5664937500.0 0.64794921875 -1.2005615234375
5696159375.0 -0.1964111328125 -1.38348388671875
5727381250.0 -1.02301025390625 -0.9779052734375
5758603125.0 -1.390625 -0.145263671875
5789825000.0 -1.19354248046875 0.71746826171875
5821046875.0 -0.50677490234375 1.30596923828125
5852268750.0 0.4114990234375 1.3128662109375
5883490625.0 1.0709228515625 0.7720947265625
5914712500.0 1.3021240234375 0.01959228515625
5945934375.0 1.09552001953125 -0.7757568359375
5977156250.0 0.3607177734375 -1.312255859375
6008378125.0 -0.50933837890625 -1.18218994140625
6039600000.0 -1.02203369140625 -0.64886474609375
6070821875.0 -1.22296142578125 -0.00421142578125
6102043750.0 -1.08251953125 0.761962890625
6133265625.0 -0.3419189453125 1.3438720703125
6164487500.0 0.56317138671875 1.18682861328125
6195709375.0 1.0704345703125 0.6300048828125
6226931250.0 1.27838134765625 -0.04168701171875
6258153125.0 1.10394287109375 -0.87017822265625
6289375000.0 0.2567138671875 -1.4459228515625
6320596875.0 -0.68927001953125 -1.2056884765625
6351818750.0 -1.19927978515625 -0.572265625
6383040625.0 -1.35394287109375 0.206298828125
6414262500.0 -0.99969482421875 1.057373046875
6445484375.0 -0.07806396484375 1.4566650390625
6476706250.0 0.79644775390625 1.14801025390625
6507928125.0 1.29046630859375 0.4698486328125
6539150000.0 1.3472900390625 -0.3870849609375
6570371875.0 0.84075927734375 -1.14398193359375
6601593750.0 -0.01763916015625 -1.4041748046875
6632815625.0 -0.83929443359375 -1.13568115234375
6664037500.0 -1.4010009765625 -0.4197998046875
6695259375.0 -1.37335205078125 0.5657958984375
6726481250.0 -0.7099609375 1.25146484375
6757703125.0 0.13055419921875 1.4061279296875
6788925000.0 0.95391845703125 1.13055419921875
6820146875.0 1.5584716796875 0.28863525390625
6851368750.0 1.32623291015625 -0.81988525390625
6882590625.0 0.50628662109375 -1.33880615234375
6913812500.0 -0.2928466796875 -1.3568115234375
6945034375.0 -1.0694580078125 -1.02130126953125
6976256250.0 -1.5928955078125 -0.0927734375
7007478125.0 -1.2362060546875 0.93365478515625
7038700000.0 -0.4024658203125 1.34234619140625
7069921875.0 0.36053466796875 1.3238525390625
7101143750.0 1.1173095703125 0.96868896484375
7132365625.0 1.600341796875 0.0128173828125
7163587500.0 1.156494140625 -1.0206298828125
7194809375.0 0.3031005859375 -1.3974609375
7226031250.0 -0.51214599609375 -1.324951171875
7257253125.0 -1.267333984375 -0.82342529296875
7288475000.0 -1.55816650390625 0.1988525390625
7319696875.0 -1.02978515625 1.1099853515625
7350918750.0 -0.1651611328125 1.44427490234375
7382140625.0 0.715576171875 1.27618408203125
7413362500.0 1.37542724609375 0.57550048828125
7444584375.0 1.41180419921875 -0.40655517578125
7475806250.0 0.858154296875 -1.14349365234375
7507028125.0 0.0064697265625 -1.4296875
7538250000.0 -0.88665771484375 -1.12359619140625
7569471875.0 -1.33624267578125 -0.31170654296875
7600693750.0 -1.2010498046875 0.495849609375
7631915625.0 -0.71771240234375 1.0872802734375
7663137500.0 0.082275390625 1.35943603515625
7694359375.0 0.93817138671875 0.9801025390625
7725581250.0 1.24267578125 0.18017578125
7756803125.0 1.0828857421875 -0.50006103515625
7788025000.0 0.6700439453125 -1.04473876953125
7819246875.0 -0.1207275390625 -1.34820556640625
7850468750.0 -0.99432373046875 -0.91656494140625
7881690625.0 -1.2314453125 -0.1053466796875
7912912500.0 -1.0548095703125 0.55462646484375
7944134375.0 -0.60552978515625 1.114013671875
7975356250.0 0.27001953125 1.33465576171875
8006578125.0 1.047119140625 0.77935791015625
8037800000.0 1.19512939453125 0.01483154296875
8069021875.0 1.0076904296875 -0.61822509765625
8100243750.0 0.4990234375 -1.16253662109375
8131465625.0 -0.38848876953125 -1.25445556640625
8162687500.0 -1.03302001953125 -0.68658447265625
8193909375.0 -1.18170166015625 0.0098876953125
8225131250.0 -1.01763916015625 0.67840576171875
8256353125.0 -0.4207763671875 1.248291015625
8287575000.0 0.50189208984375 1.22674560546875
8318796875.0 1.08294677734375 0.6351318359375
8350018750.0 1.2449951171875 -0.07562255859375
8381240625.0 1.03082275390625 -0.83837890625
8412462500.0 0.25628662109375 -1.37322998046875
8443684375.0 -0.6700439453125 -1.16961669921875
8474906250.0 -1.17303466796875 -0.53326416015625
8506128125.0 -1.29840087890625 0.23724365234375
8537350000.0 -0.92449951171875 1.04498291015625
8568571875.0 -0.0157470703125 1.3946533203125
8599793750.0 0.801025390625 1.052978515625
8631015625.0 1.24078369140625 0.398193359375
8662237500.0 1.2857666015625 -0.42864990234375
8693459375.0 0.73577880859375 -1.17694091796875
8724681250.0 -0.16162109375 -1.331298828125
8755903125.0 -0.8797607421875 -0.958251953125
8787125000.0 -1.30364990234375 -0.2808837890625
8818346875.0 -1.251220703125 0.6138916015625
8849568750.0 -0.55615234375 1.259765625
8880790625.0 0.29736328125 1.28375244140625
8912012500.0 0.980621337890625 0.893096923828125
8943234375.0 1.399658203125 0.12847900390625
8974456250.0 1.16680908203125 -0.8380126953125
9005678125.0 0.35009765625 -1.3116455078125
9036900000.0 -0.44378662109375 -1.224853515625
9068121875.0 -1.1026611328125 -0.78594970703125
9099343750.0 -1.44122314453125 0.098388671875
9130565625.0 -0.97967529296875 1.01251220703125
9161787500.0 -0.1551513671875 1.28240966796875
9193009375.0 0.5537109375 1.133544921875
9224231250.0 1.17974853515625 0.655029296875
9255453125.0 1.3995361328125 -0.29608154296875
9286675000.0 0.80670166015625 -1.083740234375
9317896875.0 0.0277099609375 -1.24591064453125
9349118750.0 -0.654541015625 -1.06866455078125
9380340625.0 -1.25616455078125 -0.5108642578125
9411562500.0 -1.3125 0.47613525390625
9442784375.0 -0.64776611328125 1.11785888671875
9474006250.0 0.08746337890625 1.210693359375
9505228125.0 0.76470947265625 0.98065185546875
9536450000.0 1.273681640625 0.3138427734375
9567671875.0 1.14422607421875 -0.58013916015625
9598893750.0 0.52972412109375 -1.06927490234375
9630115625.0 -0.14404296875 -1.15826416015625
9661337500.0 -0.8189697265625 -0.903167724609375
9692559375.0 -1.238525390625 -0.1903076171875
9723781250.0 -1.04412841796875 0.6033935546875
9755003125.0 -0.48577880859375 1.05023193359375
9786225000.0 0.19818115234375 1.15875244140625
9817446875.0 0.896697998046875 0.8272705078125
9848668750.0 1.198486328125 0.0780029296875
9879890625.0 0.96856689453125 -0.61627197265625
9911112500.0 0.4510498046875 -1.0518798828125
9942334375.0 -0.26837158203125 -1.15960693359375
9973556250.0 -0.944061279296875 -0.7379150390625
10004778125.0 -1.14739990234375 -0.01708984375
10036000000.0 -0.944305419921875 0.615203857421875
10067221875.0 -0.44195556640625 1.09613037109375
10098443750.0 0.36968994140625 1.1817626953125
10129665625.0 1.00384521484375 0.6434326171875
10160887500.0 1.12017822265625 -0.05169677734375
10192109375.0 0.918365478515625 -0.6634521484375
10223331250.0 0.36138916015625 -1.1533203125
10254553125.0 -0.4864501953125 -1.1136474609375
10285775000.0 -0.9857177734375 -0.53515625
10316996875.0 -1.06781005859375 0.0771484375
10348218750.0 -0.900421142578125 0.67059326171875
10379440625.0 -0.3221435546875 1.175537109375
10410662500.0 0.52783203125 1.08563232421875
10441884375.0 0.9940185546875 0.52117919921875
10473106250.0 1.1090087890625 -0.085205078125
10504328125.0 0.94891357421875 -0.7559814453125
10535550000.0 0.240478515625 -1.2945556640625
10566771875.0 -0.6580810546875 -1.077880859375
10597993750.0 -1.0810546875 -0.459228515625
10629215625.0 -1.17584228515625 0.204345703125
10660437500.0 -0.887969970703125 0.950042724609375
10691659375.0 -0.0107421875 1.3358154296875
10722881250.0 0.785125732421875 0.95281982421875
10754103125.0 1.12030029296875 0.3236083984375
10785325000.0 1.1392822265625 -0.3670654296875
10816546875.0 0.70062255859375 -1.052001953125
10847768750.0 -0.1444091796875 -1.22930908203125
10878990625.0 -0.80352783203125 -0.84405517578125
10910212500.0 -1.12359619140625 -0.24432373046875
10941434375.0 -1.09832763671875 0.47760009765625
10972656250.0 -0.568359375 1.0850830078125
11003878125.0 0.21771240234375 1.17431640625
11035100000.0 0.8477783203125 0.82183837890625
11066321875.0 1.21942138671875 0.17425537109375
11097543750.0 1.098388671875 -0.6741943359375
11128765625.0 0.3853759765625 -1.1995849609375
11159987500.0 -0.396728515625 -1.14044189453125
11191209375.0 -1.0015869140625 -0.70172119140625
11222431250.0 -1.2738037109375 0.09307861328125
11253653125.0 -0.859466552734375 0.894866943359375
11284875000.0 -0.11419677734375 1.12811279296875
11316096875.0 0.511810302734375 0.956787109375
11347318750.0 1.00341796875 0.50311279296875
11378540625.0 1.11614990234375 -0.26776123046875
11409762500.0 0.63458251953125 -0.859283447265625
11440984375.0 0.0361328125 -0.978668212890625
11472206250.0 -0.481109619140625 -0.85009765625
11503428125.0 -0.953582763671875 -0.456298828125
11534650000.0 -1.06842041015625 0.288818359375
11565871875.0 -0.60235595703125 0.853912353515625
11597093750.0 -0.018310546875 0.991943359375
11628315625.0 0.545166015625 0.875518798828125
11659537500.0 1.0592041015625 0.39312744140625
11690759375.0 1.065185546875 -0.4329833984375
11721981250.0 0.517333984375 -0.941497802734375
11753203125.0 -0.1055908203125 -1.03704833984375
11784425000.0 -0.72479248046875 -0.808746337890625
11815646875.0 -1.099853515625 -0.15167236328125
11846868750.0 -0.89154052734375 0.551300048828125
11878090625.0 -0.390289306640625 0.910736083984375
11909312500.0 0.18603515625 0.985107421875
11940534375.0 0.7816162109375 0.694732666015625
11971756250.0 1.025390625 0.04010009765625
12002978125.0 0.806365966796875 -0.53814697265625
12034200000.0 0.3812255859375 -0.8897705078125
12065421875.0 -0.21588134765625 -1.01007080078125
12096643750.0 -0.84735107421875 -0.66534423828125
12127865625.0 -1.03436279296875 0.01666259765625
12159087500.0 -0.815765380859375 0.576446533203125
12190309375.0 -0.37701416015625 0.975830078125
12221531250.0 0.33831787109375 1.08770751953125
12252753125.0 0.98028564453125 0.581817626953125
12283975000.0 1.05487060546875 -0.1287841796875
12315196875.0 0.801239013671875 -0.67755126953125
12346418750.0 0.281982421875 -1.09088134765625
12377640625.0 -0.538330078125 -1.06201171875
12408862500.0 -1.0343017578125 -0.42022705078125
12440084375.0 -1.0091552734375 0.2247314453125
12471306250.0 -0.74249267578125 0.7373046875
12502528125.0 -0.179443359375 1.120361328125
12533750000.0 0.6209716796875 0.994384765625
12564971875.0 1.0418701171875 0.36334228515625
12596193750.0 1.029296875 -0.2642822265625
12627415625.0 0.74847412109375 -0.8282470703125
12658637500.0 0.0797119140625 -1.20721435546875
12689859375.0 -0.734893798828125 -0.966156005859375
12721081250.0 -1.11724853515625 -0.307373046875
12752303125.0 -1.09820556640625 0.3826904296875
12783525000.0 -0.68768310546875 1.02923583984375
12814746875.0 0.164306640625 1.25189208984375
12845968750.0 0.861572265625 0.811279296875
12877190625.0 1.11865234375 0.17156982421875
12908412500.0 1.05621337890625 -0.502685546875
12939634375.0 0.54345703125 -1.117431640625
12970856250.0 -0.31951904296875 -1.17572021484375
13002078125.0 -0.894927978515625 -0.693389892578125
13033300000.0 -1.106201171875 -0.08587646484375
13064521875.0 -1.009521484375 0.59295654296875
13095743750.0 -0.42120361328125 1.15289306640625
13126965625.0 0.410888671875 1.122314453125
13158187500.0 0.947967529296875 0.631927490234375
13189409375.0 1.1505126953125 -0.02294921875
13220631250.0 0.936126708984375 -0.74798583984375
13251853125.0 0.23480224609375 -1.172607421875
13283075000.0 -0.508056640625 -1.0206298828125
13314296875.0 -0.9886474609375 -0.5301513671875
13345518750.0 -1.1341552734375 0.17510986328125
13376740625.0 -0.75347900390625 0.859222412109375
