!Created with skrf (http://scikit-rf.org).
# Hz S RI R 50.0 
!freq ReS11 ImS11
45000000.0 -0.07726669311523438 -0.09667587280273438
76221875.0 -0.19658660888671875 -0.0472259521484375
107443750.0 -0.2548980712890625 0.1200408935546875
138665625.0 -0.1479644775390625 0.328887939453125
169887500.0 0.1240997314453125 0.4177703857421875
201109375.0 0.4223175048828125 0.2805633544921875
232331250.0 0.5791015625 -0.05810546875
263553125.0 0.4892730712890625 -0.453826904296875
294775000.0 0.097686767578125 -0.733154296875
325996875.0 -0.4163818359375 -0.680755615234375
357218750.0 -0.8070068359375 -0.29638671875
388440625.0 -0.885894775390625 0.301910400390625
419662500.0 -0.516510009765625 0.867340087890625
450884375.0 0.17431640625 1.02923583984375
482106250.0 0.7994384765625 0.712188720703125
513328125.0 1.1199951171875 0.0860595703125
544550000.0 1.00347900390625 -0.6810302734375
575771875.0 0.33526611328125 -1.2388916015625
606993750.0 -0.55523681640625 -1.177001953125
638215625.0 -1.1666259765625 -0.5894775390625
669437500.0 -1.33978271484375 0.23492431640625
700659375.0 -0.9700927734375 1.0972900390625
731881250.0 -0.0023193359375 1.54315185546875
763103125.0 1.00689697265625 1.155029296875
794325000.0 1.4693603515625 0.280517578125
825546875.0 1.36712646484375 -0.652587890625
856768750.0 0.79339599609375 -1.40240478515625
887990625.0 -0.29461669921875 -1.64837646484375
919212500.0 -1.2900390625 -1.07757568359375
950434375.0 -1.64910888671875 -0.05718994140625
981656250.0 -1.382080078125 0.947021484375
1012878125.0 -0.5283203125 1.6724853515625
1044100000.0 0.69866943359375 1.66131591796875
1075321875.0 1.5758056640625 0.81048583984375
1106543750.0 1.70458984375 -0.31463623046875
1137765625.0 1.18572998046875 -1.2855224609375
1168987500.0 0.1361083984375 -1.79779052734375
1200209375.0 -1.0634765625 -1.48297119140625
1231431250.0 -1.72784423828125 -0.45220947265625
1262653125.0 -1.59344482421875 0.6859130859375
1293875000.0 -0.85028076171875 1.4925537109375
1325096875.0 0.22979736328125 1.70654296875
1356318750.0 1.2359619140625 1.2154541015625
1387540625.0 1.73992919921875 0.18719482421875
1418762500.0 1.46875 -0.95269775390625
1449984375.0 0.52825927734375 -1.626708984375
1481206250.0 -0.5511474609375 -1.5555419921875
1512428125.0 -1.34320068359375 -0.918212890625
1543650000.0 -1.65545654296875 0.066650390625
1574871875.0 -1.27252197265625 1.110107421875
1606093750.0 -0.27099609375 1.6319580078125
1637315625.0 0.7440185546875 1.40020751953125
1668537500.0 1.396484375 0.6943359375
1699759375.0 1.572509765625 -0.27911376953125
1730981250.0 1.0626220703125 -1.23004150390625
1762203125.0 0.04071044921875 -1.5703125
1793425000.0 -0.85638427734375 -1.22552490234375
1824646875.0 -1.39385986328125 -0.51409912109375
1855868750.0 -1.4735107421875 0.4332275390625
1887090625.0 -0.87408447265625 1.2857666015625
1918312500.0 0.11810302734375 1.48638916015625
1949534375.0 0.92230224609375 1.08843994140625
1980756250.0 1.37554931640625 0.368896484375
2011978125.0 1.3592529296875 -0.532958984375
2043200000.0 0.74859619140625 -1.2623291015625
2074421875.0 -0.15826416015625 -1.43255615234375
2105643750.0 -0.9608154296875 -1.0712890625
2136865625.0 -1.44744873046875 -0.3037109375
2168087500.0 -1.35626220703125 0.67218017578125
2199309375.0 -0.63775634765625 1.35150146484375
2230531250.0 0.28314208984375 1.4354248046875
2261753125.0 1.0726318359375 1.01275634765625
2292975000.0 1.51416015625 0.1689453125
2324196875.0 1.3048095703125 -0.819580078125
2355418750.0 0.52410888671875 -1.41998291015625
2386640625.0 -0.40496826171875 -1.44830322265625
2417862500.0 -1.1817626953125 -1.023681640625
2449084375.0 -1.60577392578125 -0.08184814453125
2480306250.0 -1.310302734375 0.92559814453125
2511528125.0 -0.49273681640625 1.5069580078125
2542750000.0 0.49041748046875 1.53533935546875
2573971875.0 1.37249755859375 0.966552734375
2605193750.0 1.717041015625 -0.11431884765625
2636415625.0 1.2606201171875 -1.15374755859375
2667637500.0 0.304931640625 -1.667724609375
2698859375.0 -0.77154541015625 -1.53369140625
2730081250.0 -1.573974609375 -0.7388916015625
2761303125.0 -1.67987060546875 0.38885498046875
2792525000.0 -1.09759521484375 1.308349609375
2823746875.0 -0.10107421875 1.7293701171875
2854968750.0 1.01202392578125 1.45416259765625
2886190625.0 1.6920166015625 0.48974609375
2917412500.0 1.598388671875 -0.618408203125
2948634375.0 0.9381103515625 -1.4332275390625
2979856250.0 -0.10784912109375 -1.77423095703125
3011078125.0 -1.24774169921875 -1.341064453125
3042300000.0 -1.77471923828125 -0.23272705078125
3073521875.0 -1.507568359375 0.83856201171875
3104743750.0 -0.76177978515625 1.569091796875
3135965625.0 0.363037109375 1.80889892578125
3167187500.0 1.50042724609375 1.16241455078125
3198409375.0 1.81634521484375 -0.07763671875
3229631250.0 1.34814453125 -1.08282470703125
3260853125.0 0.4876708984375 -1.66912841796875
3292075000.0 -0.6558837890625 -1.69659423828125
3323296875.0 -1.619140625 -0.8775634765625
3354518750.0 -1.7294921875 0.32989501953125
3385740625.0 -1.154052734375 1.2325439453125
3416962500.0 -0.2303466796875 1.6812744140625
3448184375.0 0.86212158203125 1.52099609375
3479406250.0 1.6361083984375 0.6429443359375
3510628125.0 1.64324951171875 -0.49627685546875
3541850000.0 0.99884033203125 -1.355712890625
3573071875.0 -0.0091552734375 -1.68255615234375
3604293750.0 -1.02783203125 -1.33612060546875
3635515625.0 -1.62774658203125 -0.4368896484375
3666737500.0 -1.56060791015625 0.64715576171875
3697959375.0 -0.823486328125 1.4757080078125
3729181250.0 0.26953125 1.629638671875
3760403125.0 1.152587890625 1.0968017578125
3791625000.0 1.552001953125 0.2169189453125
3822846875.0 1.40093994140625 -0.7628173828125
3854068750.0 0.61932373046875 -1.482177734375
3885290625.0 -0.4208984375 -1.47918701171875
3916512500.0 -1.14111328125 -0.909912109375
3947734375.0 -1.44622802734375 -0.1185302734375
3978956250.0 -1.29632568359375 0.77899169921875
4010178125.0 -0.53009033203125 1.45501708984375
4041400000.0 0.472900390625 1.41436767578125
4072621875.0 1.1510009765625 0.84674072265625
4103843750.0 1.4444580078125 0.0621337890625
4135065625.0 1.26690673828125 -0.84661865234375
4166287500.0 0.4571533203125 -1.49481201171875
4197509375.0 -0.5587158203125 -1.4149169921875
4228731250.0 -1.247802734375 -0.802001953125
4259953125.0 -1.5089111328125 0.07147216796875
4291175000.0 -1.187255859375 1.01019287109375
4322396875.0 -0.2890625 1.52508544921875
4353618750.0 0.6739501953125 1.34912109375
4384840625.0 1.32196044921875 0.6961669921875
4416062500.0 1.50006103515625 -0.2288818359375
4447284375.0 1.05426025390625 -1.10394287109375
4478506250.0 0.1712646484375 -1.49468994140625
4509728125.0 -0.733154296875 -1.30718994140625
4540950000.0 -1.3934326171875 -0.63531494140625
4572171875.0 -1.52099609375 0.36053466796875
4603393750.0 -0.9716796875 1.21234130859375
4634615625.0 -0.0614013671875 1.5362548828125
4665837500.0 0.87109375 1.3035888671875
4697059375.0 1.54058837890625 0.514892578125
4728281250.0 1.52825927734375 -0.58294677734375
4759503125.0 0.8221435546875 -1.3665771484375
4790725000.0 -0.146484375 -1.572509765625
4821946875.0 -1.08380126953125 -1.192626953125
4853168750.0 -1.61309814453125 -0.250244140625
4884390625.0 -1.37738037109375 0.79339599609375
4915612500.0 -0.61212158203125 1.412353515625
4946834375.0 0.3284912109375 1.50811767578125
4978056250.0 1.2047119140625 1.01641845703125
5009278125.0 1.56134033203125 0.03887939453125
5040500000.0 1.22821044921875 -0.8758544921875
5071721875.0 0.5010986328125 -1.41339111328125
5102943750.0 -0.447509765625 -1.49591064453125
5134165625.0 -1.33526611328125 -0.9052734375
5165387500.0 -1.56695556640625 0.14581298828125
5196609375.0 -1.13525390625 1.0089111328125
5227831250.0 -0.35662841796875 1.50616455078125
5259053125.0 0.68927001953125 1.49237060546875
5290275000.0 1.5203857421875 0.662109375
5321496875.0 1.4918212890625 -0.43072509765625
5352718750.0 0.92010498046875 -1.1524658203125
5383940625.0 0.0955810546875 -1.50054931640625
5415162500.0 -0.9000244140625 -1.2830810546875
5446384375.0 -1.48388671875 -0.36956787109375
5477606250.0 -1.29803466796875 0.56640625
5508828125.0 -0.7305908203125 1.150390625
5540050000.0 0.05462646484375 1.39849853515625
5571271875.0 0.9385986328125 1.10772705078125
5602493750.0 1.409423828125 0.258544921875
5633715625.0 1.2310791015625 -0.61260986328125
5664937500.0 0.64764404296875 -1.2003173828125
5696159375.0 -0.197021484375 -1.38311767578125
5727381250.0 -1.02203369140625 -0.978271484375
5758603125.0 -1.39227294921875 -0.1441650390625
5789825000.0 -1.1937255859375 0.7177734375
5821046875.0 -0.50634765625 1.30682373046875
5852268750.0 0.4124755859375 1.31341552734375
5883490625.0 1.07110595703125 0.77191162109375
5914712500.0 1.30322265625 0.01922607421875
5945934375.0 1.09588623046875 -0.77679443359375
5977156250.0 0.361083984375 -1.3115234375
6008378125.0 -0.5091552734375 -1.1820068359375
6039600000.0 -1.02203369140625 -0.64849853515625
6070821875.0 -1.22412109375 -0.0037841796875
6102043750.0 -1.0823974609375 0.76251220703125
6133265625.0 -0.34124755859375 1.34442138671875
6164487500.0 0.56292724609375 1.18695068359375
6195709375.0 1.0699462890625 0.6297607421875
6226931250.0 1.28021240234375 -0.04315185546875
6258153125.0 1.10455322265625 -0.87139892578125
6289375000.0 0.25592041015625 -1.44598388671875
6320596875.0 -0.68963623046875 -1.20574951171875
6351818750.0 -1.20068359375 -0.5716552734375
6383040625.0 -1.35528564453125 0.20745849609375
6414262500.0 -0.99993896484375 1.05767822265625
6445484375.0 -0.0771484375 1.4578857421875
6476706250.0 0.7965087890625 1.14776611328125
6507928125.0 1.291259765625 0.4693603515625
6539150000.0 1.3477783203125 -0.3873291015625
6570371875.0 0.84051513671875 -1.1448974609375
6601593750.0 -0.01806640625 -1.4051513671875
6632815625.0 -0.83917236328125 -1.13525390625
6664037500.0 -1.401611328125 -0.41986083984375
6695259375.0 -1.37359619140625 0.56658935546875
6726481250.0 -0.7099609375 1.2509765625
6757703125.0 0.13134765625 1.4071044921875
6788925000.0 0.9547119140625 1.130126953125
6820146875.0 1.5594482421875 0.28759765625
6851368750.0 1.326171875 -0.81988525390625
6882590625.0 0.506103515625 -1.3389892578125
6913812500.0 -0.29241943359375 -1.35675048828125
6945034375.0 -1.07061767578125 -1.02154541015625
6976256250.0 -1.5921630859375 -0.09320068359375
7007478125.0 -1.23486328125 0.93450927734375
7038700000.0 -0.4022216796875 1.34259033203125
7069921875.0 0.35980224609375 1.32403564453125
7101143750.0 1.11871337890625 0.96844482421875
7132365625.0 1.59906005859375 0.013427734375
7163587500.0 1.15631103515625 -1.02130126953125
7194809375.0 0.30206298828125 -1.3968505859375
7226031250.0 -0.51153564453125 -1.32513427734375
7257253125.0 -1.265869140625 -0.8245849609375
7288475000.0 -1.558837890625 0.1982421875
7319696875.0 -1.02996826171875 1.1112060546875
7350918750.0 -0.163818359375 1.4453125
7382140625.0 0.71441650390625 1.2755126953125
7413362500.0 1.37774658203125 0.57574462890625
7444584375.0 1.4114990234375 -0.4061279296875
7475806250.0 0.8580322265625 -1.14361572265625
7507028125.0 0.00311279296875 -1.43096923828125
7538250000.0 -0.887451171875 -1.12408447265625
7569471875.0 -1.33538818359375 -0.310791015625
7600693750.0 -1.201416015625 0.4981689453125
7631915625.0 -0.71685791015625 1.08544921875
7663137500.0 0.08038330078125 1.35736083984375
7694359375.0 0.940155029296875 0.980743408203125
7725581250.0 1.2442626953125 0.17938232421875
7756803125.0 1.08245849609375 -0.5001220703125
7788025000.0 0.67022705078125 -1.0421142578125
7819246875.0 -0.12255859375 -1.34832763671875
7850468750.0 -0.993499755859375 -0.916534423828125
7881690625.0 -1.23126220703125 -0.10528564453125
7912912500.0 -1.054931640625 0.55438232421875
7944134375.0 -0.605224609375 1.112548828125
7975356250.0 0.27227783203125 1.33636474609375
8006578125.0 1.048095703125 0.779296875
8037800000.0 1.1943359375 0.01617431640625
8069021875.0 1.007568359375 -0.6187744140625
8100243750.0 0.49981689453125 -1.16290283203125
8131465625.0 -0.38800048828125 -1.2545166015625
8162687500.0 -1.03167724609375 -0.6865234375
8193909375.0 -1.1815185546875 0.009521484375
8225131250.0 -1.01812744140625 0.67840576171875
8256353125.0 -0.42047119140625 1.24798583984375
8287575000.0 0.50140380859375 1.22772216796875
8318796875.0 1.08209228515625 0.63616943359375
8350018750.0 1.245361328125 -0.076171875
8381240625.0 1.03094482421875 -0.8408203125
8412462500.0 0.2540283203125 -1.37261962890625
8443684375.0 -0.66912841796875 -1.16973876953125
8474906250.0 -1.177001953125 -0.53240966796875
8506128125.0 -1.2984619140625 0.23681640625
8537350000.0 -0.9244384765625 1.0458984375
8568571875.0 -0.0162353515625 1.3946533203125
8599793750.0 0.8013916015625 1.05328369140625
8631015625.0 1.2420654296875 0.3985595703125
8662237500.0 1.287841796875 -0.4312744140625
8693459375.0 0.73626708984375 -1.1790771484375
8724681250.0 -0.15997314453125 -1.33154296875
8755903125.0 -0.881134033203125 -0.957977294921875
8787125000.0 -1.30322265625 -0.28240966796875
8818346875.0 -1.250244140625 0.61444091796875
8849568750.0 -0.55572509765625 1.2615966796875
8880790625.0 0.301025390625 1.284912109375
8912012500.0 0.9822998046875 0.891998291015625
8943234375.0 1.3975830078125 0.13006591796875
8974456250.0 1.16778564453125 -0.84027099609375
9005678125.0 0.34918212890625 -1.31353759765625
9036900000.0 -0.44451904296875 -1.22454833984375
9068121875.0 -1.10003662109375 -0.78558349609375
9099343750.0 -1.44097900390625 0.098388671875
9130565625.0 -0.97955322265625 1.0108642578125
9161787500.0 -0.1539306640625 1.2823486328125
9193009375.0 0.55572509765625 1.1343994140625
9224231250.0 1.1800537109375 0.65496826171875
9255453125.0 1.40008544921875 -0.2957763671875
9286675000.0 0.807373046875 -1.08526611328125
9317896875.0 0.02447509765625 -1.24822998046875
9349118750.0 -0.65350341796875 -1.0689697265625
9380340625.0 -1.2562255859375 -0.5101318359375
9411562500.0 -1.3123779296875 0.4771728515625
9442784375.0 -0.64849853515625 1.11651611328125
9474006250.0 0.0888671875 1.212158203125
9505228125.0 0.76593017578125 0.980072021484375
9536450000.0 1.274658203125 0.3128662109375
9567671875.0 1.143798828125 -0.57958984375
9598893750.0 0.52978515625 -1.07080078125
9630115625.0 -0.14373779296875 -1.15802001953125
9661337500.0 -0.818878173828125 -0.902984619140625
9692559375.0 -1.23907470703125 -0.1898193359375
9723781250.0 -1.04376220703125 0.60479736328125
9755003125.0 -0.4862060546875 1.0499267578125
9786225000.0 0.20001220703125 1.160888671875
9817446875.0 0.894439697265625 0.82794189453125
9848668750.0 1.19842529296875 0.07867431640625
9879890625.0 0.96826171875 -0.615325927734375
9911112500.0 0.4522705078125 -1.05206298828125
9942334375.0 -0.2679443359375 -1.15875244140625
9973556250.0 -0.944610595703125 -0.738311767578125
10004778125.0 -1.145751953125 -0.01788330078125
10036000000.0 -0.944976806640625 0.617706298828125
10067221875.0 -0.442626953125 1.0955810546875
10098443750.0 0.3687744140625 1.18060302734375
10129665625.0 1.0025634765625 0.64337158203125
10160887500.0 1.12109375 -0.05206298828125
10192109375.0 0.9190673828125 -0.66448974609375
10223331250.0 0.3612060546875 -1.15234375
10254553125.0 -0.485595703125 -1.11346435546875
10285775000.0 -0.986175537109375 -0.535430908203125
10316996875.0 -1.06781005859375 0.0767822265625
10348218750.0 -0.900390625 0.670379638671875
10379440625.0 -0.32122802734375 1.1759033203125
10410662500.0 0.52850341796875 1.086181640625
10441884375.0 0.99249267578125 0.521148681640625
10473106250.0 1.108642578125 -0.0843505859375
10504328125.0 0.949066162109375 -0.75579833984375
10535550000.0 0.2413330078125 -1.29400634765625
10566771875.0 -0.657470703125 -1.0780029296875
10597993750.0 -1.08056640625 -0.4591064453125
10629215625.0 -1.1766357421875 0.205322265625
10660437500.0 -0.888580322265625 0.950042724609375
10691659375.0 -0.0096435546875 1.335693359375
10722881250.0 0.784393310546875 0.951995849609375
10754103125.0 1.12017822265625 0.32501220703125
10785325000.0 1.13983154296875 -0.36834716796875
10816546875.0 0.70086669921875 -1.05029296875
10847768750.0 -0.14593505859375 -1.23046875
10878990625.0 -0.802581787109375 -0.8431396484375
10910212500.0 -1.12432861328125 -0.2451171875
10941434375.0 -1.09771728515625 0.4764404296875
10972656250.0 -0.5682373046875 1.0848388671875
11003878125.0 0.217041015625 1.17437744140625
11035100000.0 0.84808349609375 0.82135009765625
11066321875.0 1.2210693359375 0.17449951171875
11097543750.0 1.098876953125 -0.67596435546875
11128765625.0 0.38665771484375 -1.19769287109375
11159987500.0 -0.396240234375 -1.14007568359375
11191209375.0 -1.00115966796875 -0.702880859375
11222431250.0 -1.2723388671875 0.0931396484375
11253653125.0 -0.8592529296875 0.895416259765625
11284875000.0 -0.1143798828125 1.1275634765625
11316096875.0 0.512664794921875 0.957122802734375
11347318750.0 1.00335693359375 0.5025634765625
11378540625.0 1.11737060546875 -0.26971435546875
11409762500.0 0.635009765625 -0.860748291015625
11440984375.0 0.035675048828125 -0.97894287109375
11472206250.0 -0.482574462890625 -0.8509521484375
11503428125.0 -0.95257568359375 -0.455963134765625
11534650000.0 -1.0682373046875 0.2879638671875
11565871875.0 -0.60260009765625 0.85443115234375
11597093750.0 -0.018157958984375 0.991790771484375
11628315625.0 0.545166015625 0.87554931640625
11659537500.0 1.06085205078125 0.39215087890625
11690759375.0 1.0654296875 -0.433349609375
11721981250.0 0.51708984375 -0.941680908203125
11753203125.0 -0.10638427734375 -1.0374755859375
11784425000.0 -0.72491455078125 -0.80914306640625
11815646875.0 -1.100830078125 -0.1517333984375
11846868750.0 -0.891571044921875 0.55181884765625
11878090625.0 -0.390869140625 0.90948486328125
11909312500.0 0.18768310546875 0.985198974609375
11940534375.0 0.77996826171875 0.695159912109375
11971756250.0 1.0255126953125 0.0389404296875
12002978125.0 0.805816650390625 -0.5372314453125
12034200000.0 0.381011962890625 -0.890045166015625
12065421875.0 -0.21551513671875 -1.01019287109375
12096643750.0 -0.850555419921875 -0.6650390625
12127865625.0 -1.034423828125 0.0166015625
12159087500.0 -0.814697265625 0.575347900390625
12190309375.0 -0.37799072265625 0.97515869140625
12221531250.0 0.337890625 1.08770751953125
12252753125.0 0.981170654296875 0.5816650390625
12283975000.0 1.0552978515625 -0.1275634765625
12315196875.0 0.800689697265625 -0.67657470703125
12346418750.0 0.2811279296875 -1.0914306640625
12377640625.0 -0.53790283203125 -1.06219482421875
12408862500.0 -1.0357666015625 -0.41925048828125
12440084375.0 -1.00921630859375 0.2247314453125
12471306250.0 -0.7418212890625 0.736968994140625
12502528125.0 -0.17926025390625 1.12103271484375
12533750000.0 0.620574951171875 0.994140625
12564971875.0 1.0426025390625 0.3636474609375
12596193750.0 1.03082275390625 -0.2662353515625
12627415625.0 0.74749755859375 -0.8302001953125
12658637500.0 0.07855224609375 -1.20928955078125
12689859375.0 -0.735137939453125 -0.9671630859375
12721081250.0 -1.117919921875 -0.3052978515625
12752303125.0 -1.09796142578125 0.381591796875
12783525000.0 -0.6864013671875 1.028564453125
12814746875.0 0.1641845703125 1.2510986328125
12845968750.0 0.86358642578125 0.811309814453125
12877190625.0 1.1182861328125 0.17169189453125
12908412500.0 1.05694580078125 -0.50201416015625
12939634375.0 0.54364013671875 -1.1177978515625
12970856250.0 -0.3206787109375 -1.17529296875
13002078125.0 -0.89471435546875 -0.69342041015625
13033300000.0 -1.10626220703125 -0.086181640625
13064521875.0 -1.00885009765625 0.59307861328125
13095743750.0 -0.4207763671875 1.1552734375
13126965625.0 0.40802001953125 1.12078857421875
13158187500.0 0.9468994140625 0.6322021484375
13189409375.0 1.147216796875 -0.02117919921875
13220631250.0 0.93621826171875 -0.74871826171875
13251853125.0 0.23370361328125 -1.17230224609375
13283075000.0 -0.50634765625 -1.0191650390625
13314296875.0 -0.988311767578125 -0.5299072265625
13345518750.0 -1.1368408203125 0.17706298828125
13376740625.0 -0.753662109375 0.85791015625
