!Created with skrf (http://scikit-rf.org).
# Hz S RI R 50.0 
!freq ReS11 ImS11
45000000.0 -0.0770721435546875 -0.09688568115234375
76221875.0 -0.19684600830078125 -0.04752349853515625
107443750.0 -0.2555999755859375 0.12017822265625
138665625.0 -0.1484832763671875 0.3292999267578125
169887500.0 0.1236419677734375 0.4182586669921875
201109375.0 0.4226531982421875 0.2816314697265625
232331250.0 0.580230712890625 -0.05755615234375
263553125.0 0.4906005859375 -0.4541015625
294775000.0 0.09869384765625 -0.734527587890625
325996875.0 -0.416656494140625 -0.68280029296875
357218750.0 -0.808837890625 -0.29803466796875
388440625.0 -0.888214111328125 0.30133056640625
419662500.0 -0.518402099609375 0.868316650390625
450884375.0 0.17340087890625 1.03131103515625
482106250.0 0.8001708984375 0.714569091796875
513328125.0 1.12188720703125 0.08734130859375
544550000.0 1.005859375 -0.68157958984375
575771875.0 0.3372802734375 -1.24066162109375
606993750.0 -0.55426025390625 -1.17987060546875
638215625.0 -1.16802978515625 -0.59197998046875
669437500.0 -1.3424072265625 0.23358154296875
700659375.0 -0.97308349609375 1.09796142578125
731881250.0 -0.00439453125 1.54571533203125
763103125.0 1.0068359375 1.15869140625
794325000.0 1.471435546875 0.2830810546875
825546875.0 1.37030029296875 -0.65234375
856768750.0 0.79620361328125 -1.4044189453125
887990625.0 -0.29339599609375 -1.652099609375
919212500.0 -1.29150390625 -1.0816650390625
950434375.0 -1.65325927734375 -0.05914306640625
981656250.0 -1.38629150390625 0.9482421875
1012878125.0 -0.53106689453125 1.6761474609375
1044100000.0 0.6990966796875 1.66656494140625
1075321875.0 1.5789794921875 0.81396484375
1106543750.0 1.70904541015625 -0.31396484375
1137765625.0 1.189697265625 -1.28759765625
1168987500.0 0.13873291015625 -1.80126953125
1200209375.0 -1.06439208984375 -1.48797607421875
1231431250.0 -1.7318115234375 -0.45501708984375
1262653125.0 -1.59783935546875 0.6864013671875
1293875000.0 -0.85369873046875 1.4947509765625
1325096875.0 0.22802734375 1.7100830078125
1356318750.0 1.2374267578125 1.2197265625
1387540625.0 1.74359130859375 0.18975830078125
1418762500.0 1.47259521484375 -0.953125
1449984375.0 0.53125 -1.62939453125
1481206250.0 -0.55084228515625 -1.55999755859375
1512428125.0 -1.3450927734375 -0.9217529296875
1543650000.0 -1.65924072265625 0.065673828125
1574871875.0 -1.27587890625 1.11163330078125
1606093750.0 -0.27337646484375 1.63446044921875
1637315625.0 0.74346923828125 1.40338134765625
1668537500.0 1.39874267578125 0.69720458984375
1699759375.0 1.575927734375 -0.2777099609375
1730981250.0 1.06573486328125 -1.23114013671875
1762203125.0 0.04229736328125 -1.5731201171875
1793425000.0 -0.8570556640625 -1.2286376953125
1824646875.0 -1.395751953125 -0.5164794921875
1855868750.0 -1.47705078125 0.43212890625
1887090625.0 -0.877685546875 1.28704833984375
1918312500.0 0.11651611328125 1.48974609375
1949534375.0 0.9229736328125 1.09173583984375
1980756250.0 1.377685546875 0.3712158203125
2011978125.0 1.36236572265625 -0.533203125
2043200000.0 0.75140380859375 -1.26385498046875
2074421875.0 -0.1571044921875 -1.435791015625
2105643750.0 -0.96160888671875 -1.07440185546875
2136865625.0 -1.4498291015625 -0.3057861328125
2168087500.0 -1.35931396484375 0.67193603515625
2199309375.0 -0.640380859375 1.35357666015625
2230531250.0 0.28192138671875 1.43853759765625
2261753125.0 1.07421875 1.01568603515625
2292975000.0 1.51678466796875 0.17083740234375
2324196875.0 1.30780029296875 -0.819580078125
2355418750.0 0.52679443359375 -1.42205810546875
2386640625.0 -0.404541015625 -1.4515380859375
2417862500.0 -1.18426513671875 -1.02685546875
2449084375.0 -1.60858154296875 -0.083740234375
2480306250.0 -1.314453125 0.928955078125
2511528125.0 -0.494140625 1.5111083984375
2542750000.0 0.49005126953125 1.53955078125
2573971875.0 1.37249755859375 0.97039794921875
2605193750.0 1.7216796875 -0.11328125
2636415625.0 1.26416015625 -1.15484619140625
2667637500.0 0.3070068359375 -1.67144775390625
2698859375.0 -0.7720947265625 -1.53814697265625
2730081250.0 -1.5780029296875 -0.74169921875
2761303125.0 -1.6846923828125 0.38897705078125
2792525000.0 -1.10150146484375 1.30877685546875
2823746875.0 -0.1015625 1.73394775390625
2854968750.0 1.01495361328125 1.45819091796875
2886190625.0 1.69512939453125 0.49285888671875
2917412500.0 1.60333251953125 -0.6187744140625
2948634375.0 0.94158935546875 -1.43609619140625
2979856250.0 -0.10833740234375 -1.7801513671875
3011078125.0 -1.25091552734375 -1.34564208984375
3042300000.0 -1.778564453125 -0.23529052734375
3073521875.0 -1.51165771484375 0.840087890625
3104743750.0 -0.7640380859375 1.57177734375
3135965625.0 0.36236572265625 1.81256103515625
3167187500.0 1.50274658203125 1.16644287109375
3198409375.0 1.82049560546875 -0.0762939453125
3229631250.0 1.351318359375 -1.084228515625
3260853125.0 0.490234375 -1.67291259765625
3292075000.0 -0.65777587890625 -1.70159912109375
3323296875.0 -1.62310791015625 -0.8804931640625
3354518750.0 -1.73345947265625 0.3297119140625
3385740625.0 -1.15802001953125 1.2340087890625
3416962500.0 -0.23138427734375 1.6859130859375
3448184375.0 0.8614501953125 1.525146484375
3479406250.0 1.6387939453125 0.6458740234375
3510628125.0 1.64678955078125 -0.49542236328125
3541850000.0 1.00238037109375 -1.3582763671875
3573071875.0 -0.00836181640625 -1.686279296875
3604293750.0 -1.02978515625 -1.3399658203125
3635515625.0 -1.63079833984375 -0.439208984375
3666737500.0 -1.56524658203125 0.6484375
3697959375.0 -0.82684326171875 1.47802734375
3729181250.0 0.26922607421875 1.63421630859375
3760403125.0 1.1539306640625 1.1007080078125
3791625000.0 1.5545654296875 0.21868896484375
3822846875.0 1.40447998046875 -0.76165771484375
3854068750.0 0.62103271484375 -1.484619140625
3885290625.0 -0.422607421875 -1.48370361328125
3916512500.0 -1.14453125 -0.9124755859375
3947734375.0 -1.4500732421875 -0.12005615234375
3978956250.0 -1.2998046875 0.77947998046875
4010178125.0 -0.53228759765625 1.4571533203125
4041400000.0 0.47454833984375 1.417724609375
4072621875.0 1.15423583984375 0.8489990234375
4103843750.0 1.44671630859375 0.0633544921875
4135065625.0 1.26983642578125 -0.84771728515625
4166287500.0 0.45849609375 -1.4984130859375
4197509375.0 -0.55902099609375 -1.41790771484375
4228731250.0 -1.249267578125 -0.80389404296875
4259953125.0 -1.51165771484375 0.070556640625
4291175000.0 -1.1904296875 1.01220703125
4322396875.0 -0.289794921875 1.5301513671875
4353618750.0 0.67388916015625 1.3519287109375
4384840625.0 1.32470703125 0.69781494140625
4416062500.0 1.5032958984375 -0.22802734375
4447284375.0 1.05712890625 -1.10711669921875
4478506250.0 0.17303466796875 -1.497314453125
4509728125.0 -0.7347412109375 -1.30987548828125
4540950000.0 -1.39715576171875 -0.63653564453125
4572171875.0 -1.524169921875 0.36041259765625
4603393750.0 -0.97418212890625 1.2137451171875
4634615625.0 -0.061279296875 1.5396728515625
4665837500.0 0.871337890625 1.30621337890625
4697059375.0 1.54461669921875 0.5159912109375
4728281250.0 1.53155517578125 -0.58355712890625
4759503125.0 0.82452392578125 -1.3692626953125
4790725000.0 -0.146728515625 -1.57568359375
4821946875.0 -1.08551025390625 -1.19671630859375
4853168750.0 -1.61651611328125 -0.2515869140625
4884390625.0 -1.37994384765625 0.79547119140625
4915612500.0 -0.61419677734375 1.4150390625
4946834375.0 0.328857421875 1.51104736328125
4978056250.0 1.20648193359375 1.01904296875
5009278125.0 1.56475830078125 0.03875732421875
5040500000.0 1.23126220703125 -0.8780517578125
5071721875.0 0.50201416015625 -1.41766357421875
5102943750.0 -0.44775390625 -1.4991455078125
5134165625.0 -1.33782958984375 -0.90789794921875
5165387500.0 -1.5703125 0.14593505859375
5196609375.0 -1.13763427734375 1.01129150390625
5227831250.0 -0.35858154296875 1.50830078125
5259053125.0 0.688720703125 1.494873046875
5290275000.0 1.52557373046875 0.66387939453125
5321496875.0 1.49554443359375 -0.4320068359375
5352718750.0 0.9224853515625 -1.15423583984375
5383940625.0 0.096435546875 -1.50360107421875
5415162500.0 -0.90277099609375 -1.2860107421875
5446384375.0 -1.48748779296875 -0.3699951171875
5477606250.0 -1.3016357421875 0.56781005859375
5508828125.0 -0.73223876953125 1.15289306640625
5540050000.0 0.05426025390625 1.40106201171875
5571271875.0 0.94091796875 1.110595703125
5602493750.0 1.41107177734375 0.25994873046875
5633715625.0 1.234130859375 -0.61297607421875
5664937500.0 0.649169921875 -1.20379638671875
5696159375.0 -0.1968994140625 -1.38671875
5727381250.0 -1.0233154296875 -0.9808349609375
5758603125.0 -1.394775390625 -0.14508056640625
5789825000.0 -1.196533203125 0.7186279296875
5821046875.0 -0.5079345703125 1.30914306640625
5852268750.0 0.41180419921875 1.31512451171875
5883490625.0 1.07379150390625 0.7738037109375
5914712500.0 1.3055419921875 0.01922607421875
5945934375.0 1.0982666015625 -0.77716064453125
5977156250.0 0.361572265625 -1.314697265625
6008378125.0 -0.5120849609375 -1.18499755859375
6039600000.0 -1.02276611328125 -0.64990234375
6070821875.0 -1.22589111328125 -0.004638671875
6102043750.0 -1.0850830078125 0.763916015625
6133265625.0 -0.3427734375 1.3465576171875
6164487500.0 0.56463623046875 1.18951416015625
6195709375.0 1.0723876953125 0.630615234375
6226931250.0 1.28155517578125 -0.04248046875
6258153125.0 1.106689453125 -0.8740234375
6289375000.0 0.25665283203125 -1.44940185546875
6320596875.0 -0.6910400390625 -1.207763671875
6351818750.0 -1.2025146484375 -0.57275390625
6383040625.0 -1.35711669921875 0.20709228515625
6414262500.0 -1.00152587890625 1.059326171875
6445484375.0 -0.0775146484375 1.45941162109375
6476706250.0 0.798095703125 1.1497802734375
6507928125.0 1.29241943359375 0.47076416015625
6539150000.0 1.35009765625 -0.386962890625
6570371875.0 0.84228515625 -1.146240234375
6601593750.0 -0.01812744140625 -1.40740966796875
6632815625.0 -0.84027099609375 -1.1375732421875
6664037500.0 -1.4046630859375 -0.4200439453125
6695259375.0 -1.37615966796875 0.56719970703125
6726481250.0 -0.711669921875 1.252685546875
6757703125.0 0.13067626953125 1.408935546875
6788925000.0 0.95599365234375 1.13232421875
6820146875.0 1.56427001953125 0.28790283203125
6851368750.0 1.32861328125 -0.82135009765625
6882590625.0 0.50726318359375 -1.3419189453125
6913812500.0 -0.292724609375 -1.35888671875
6945034375.0 -1.07281494140625 -1.02398681640625
6976256250.0 -1.59674072265625 -0.092529296875
7007478125.0 -1.23870849609375 0.93603515625
7038700000.0 -0.4044189453125 1.3468017578125
7069921875.0 0.35858154296875 1.326416015625
7101143750.0 1.1207275390625 0.97003173828125
7132365625.0 1.603271484375 0.01214599609375
7163587500.0 1.15814208984375 -1.02191162109375
7194809375.0 0.30364990234375 -1.399169921875
7226031250.0 -0.51373291015625 -1.32916259765625
7257253125.0 -1.27001953125 -0.82611083984375
7288475000.0 -1.56121826171875 0.1983642578125
7319696875.0 -1.03192138671875 1.1121826171875
7350918750.0 -0.16473388671875 1.448486328125
7382140625.0 0.71881103515625 1.279541015625
7413362500.0 1.37994384765625 0.57806396484375
7444584375.0 1.41485595703125 -0.40740966796875
7475806250.0 0.85870361328125 -1.14556884765625
7507028125.0 0.005126953125 -1.4337158203125
7538250000.0 -0.89129638671875 -1.127197265625
7569471875.0 -1.3404541015625 -0.31134033203125
7600693750.0 -1.2060546875 0.4981689453125
7631915625.0 -0.71856689453125 1.08856201171875
7663137500.0 0.0814208984375 1.36114501953125
7694359375.0 0.941925048828125 0.9825439453125
7725581250.0 1.2464599609375 0.1798095703125
7756803125.0 1.0841064453125 -0.5001220703125
7788025000.0 0.67120361328125 -1.04705810546875
7819246875.0 -0.1224365234375 -1.35015869140625
7850468750.0 -0.99652099609375 -0.917633056640625
7881690625.0 -1.2340087890625 -0.1060791015625
7912912500.0 -1.05682373046875 0.5550537109375
7944134375.0 -0.606201171875 1.11566162109375
7975356250.0 0.27227783203125 1.33837890625
8006578125.0 1.05023193359375 0.77947998046875
8037800000.0 1.19677734375 0.01617431640625
8069021875.0 1.0089111328125 -0.62060546875
8100243750.0 0.500244140625 -1.16571044921875
8131465625.0 -0.38970947265625 -1.25701904296875
8162687500.0 -1.035400390625 -0.686767578125
8193909375.0 -1.1832275390625 0.00921630859375
8225131250.0 -1.0201416015625 0.6807861328125
8256353125.0 -0.4210205078125 1.25286865234375
8287575000.0 0.50311279296875 1.22845458984375
8318796875.0 1.08544921875 0.63623046875
8350018750.0 1.247802734375 -0.07684326171875
8381240625.0 1.03326416015625 -0.84075927734375
8412462500.0 0.25518798828125 -1.37786865234375
8443684375.0 -0.67059326171875 -1.17279052734375
8474906250.0 -1.17742919921875 -0.532958984375
8506128125.0 -1.30206298828125 0.2388916015625
8537350000.0 -0.9267578125 1.049560546875
8568571875.0 -0.01666259765625 1.3963623046875
8599793750.0 0.80535888671875 1.0552978515625
8631015625.0 1.244140625 0.39935302734375
8662237500.0 1.2889404296875 -0.43133544921875
8693459375.0 0.7376708984375 -1.1810302734375
8724681250.0 -0.16448974609375 -1.33551025390625
8755903125.0 -0.883148193359375 -0.960296630859375
8787125000.0 -1.30682373046875 -0.28228759765625
8818346875.0 -1.2542724609375 0.61822509765625
8849568750.0 -0.55694580078125 1.2626953125
8880790625.0 0.300048828125 1.287841796875
8912012500.0 0.983642578125 0.8936767578125
8943234375.0 1.40283203125 0.12896728515625
8974456250.0 1.16796875 -0.843017578125
9005678125.0 0.34893798828125 -1.3162841796875
9036900000.0 -0.44775390625 -1.22894287109375
9068121875.0 -1.10400390625 -0.788330078125
9099343750.0 -1.44464111328125 0.09832763671875
9130565625.0 -0.98095703125 1.01519775390625
9161787500.0 -0.15460205078125 1.28656005859375
9193009375.0 0.5574951171875 1.13641357421875
9224231250.0 1.1817626953125 0.65631103515625
9255453125.0 1.40289306640625 -0.29791259765625
9286675000.0 0.8082275390625 -1.0882568359375
9317896875.0 0.02490234375 -1.25048828125
9349118750.0 -0.65679931640625 -1.07171630859375
9380340625.0 -1.26123046875 -0.51092529296875
9411562500.0 -1.3155517578125 0.48016357421875
9442784375.0 -0.6488037109375 1.1199951171875
9474006250.0 0.08941650390625 1.2135009765625
9505228125.0 0.769287109375 0.9830322265625
9536450000.0 1.27667236328125 0.31365966796875
9567671875.0 1.1475830078125 -0.58447265625
9598893750.0 0.5301513671875 -1.07281494140625
9630115625.0 -0.14483642578125 -1.161865234375
9661337500.0 -0.82098388671875 -0.90374755859375
9692559375.0 -1.242431640625 -0.18951416015625
9723781250.0 -1.04595947265625 0.60601806640625
9755003125.0 -0.48614501953125 1.053466796875
9786225000.0 0.20050048828125 1.16290283203125
9817446875.0 0.898956298828125 0.829010009765625
9848668750.0 1.20013427734375 0.0777587890625
9879890625.0 0.9696044921875 -0.617095947265625
9911112500.0 0.4527587890625 -1.0556640625
9942334375.0 -0.26849365234375 -1.1617431640625
9973556250.0 -0.944061279296875 -0.7391357421875
10004778125.0 -1.14898681640625 -0.0162353515625
10036000000.0 -0.94586181640625 0.61883544921875
10067221875.0 -0.44207763671875 1.09930419921875
10098443750.0 0.37200927734375 1.184814453125
10129665625.0 1.00531005859375 0.64361572265625
10160887500.0 1.123046875 -0.05364990234375
10192109375.0 0.919586181640625 -0.664886474609375
10223331250.0 0.3623046875 -1.15545654296875
10254553125.0 -0.48907470703125 -1.11651611328125
10285775000.0 -0.98785400390625 -0.535797119140625
10316996875.0 -1.0699462890625 0.077880859375
10348218750.0 -0.901519775390625 0.672943115234375
10379440625.0 -0.32208251953125 1.17791748046875
10410662500.0 0.52923583984375 1.08746337890625
10441884375.0 0.99481201171875 0.522430419921875
10473106250.0 1.1121826171875 -0.08502197265625
10504328125.0 0.95172119140625 -0.759796142578125
10535550000.0 0.2406005859375 -1.2965087890625
10566771875.0 -0.6607666015625 -1.07830810546875
10597993750.0 -1.08270263671875 -0.45947265625
10629215625.0 -1.1768798828125 0.2059326171875
10660437500.0 -0.8897705078125 0.95452880859375
10691659375.0 -0.008544921875 1.3388671875
10722881250.0 0.7869873046875 0.953765869140625
10754103125.0 1.12310791015625 0.32501220703125
10785325000.0 1.14300537109375 -0.3695068359375
10816546875.0 0.70172119140625 -1.05206298828125
10847768750.0 -0.14752197265625 -1.233154296875
10878990625.0 -0.807037353515625 -0.84442138671875
10910212500.0 -1.124267578125 -0.245361328125
10941434375.0 -1.09979248046875 0.479736328125
10972656250.0 -0.56854248046875 1.08935546875
11003878125.0 0.2196044921875 1.1766357421875
11035100000.0 0.851531982421875 0.823150634765625
11066321875.0 1.2235107421875 0.17340087890625
11097543750.0 1.09942626953125 -0.67669677734375
11128765625.0 0.3856201171875 -1.2027587890625
11159987500.0 -0.3984375 -1.141845703125
11191209375.0 -1.00341796875 -0.70440673828125
11222431250.0 -1.27630615234375 0.0938720703125
11253653125.0 -0.86077880859375 0.896942138671875
11284875000.0 -0.11285400390625 1.13079833984375
11316096875.0 0.513916015625 0.958251953125
11347318750.0 1.006591796875 0.50274658203125
11378540625.0 1.1199951171875 -0.27130126953125
11409762500.0 0.635009765625 -0.863739013671875
11440984375.0 0.03436279296875 -0.980743408203125
11472206250.0 -0.482574462890625 -0.85272216796875
11503428125.0 -0.956329345703125 -0.4556884765625
11534650000.0 -1.07037353515625 0.28912353515625
11565871875.0 -0.6029052734375 0.856658935546875
11597093750.0 -0.017578125 0.993682861328125
11628315625.0 0.545654296875 0.87677001953125
11659537500.0 1.06378173828125 0.39300537109375
11690759375.0 1.0675048828125 -0.43389892578125
11721981250.0 0.517181396484375 -0.941925048828125
11753203125.0 -0.10552978515625 -1.03839111328125
11784425000.0 -0.7265625 -0.81048583984375
11815646875.0 -1.10394287109375 -0.150634765625
11846868750.0 -0.892852783203125 0.55377197265625
11878090625.0 -0.390960693359375 0.912261962890625
11909312500.0 0.18768310546875 0.986083984375
11940534375.0 0.78204345703125 0.695556640625
11971756250.0 1.028076171875 0.03814697265625
12002978125.0 0.808074951171875 -0.541046142578125
12034200000.0 0.3818359375 -0.891815185546875
12065421875.0 -0.21533203125 -1.012451171875
12096643750.0 -0.849456787109375 -0.66510009765625
12127865625.0 -1.0360107421875 0.01763916015625
12159087500.0 -0.815887451171875 0.576446533203125
12190309375.0 -0.3773193359375 0.9781494140625
12221531250.0 0.34185791015625 1.09088134765625
12252753125.0 0.984344482421875 0.58367919921875
12283975000.0 1.057373046875 -0.1292724609375
12315196875.0 0.802276611328125 -0.679473876953125
12346418750.0 0.281005859375 -1.09552001953125
12377640625.0 -0.54144287109375 -1.0628662109375
12408862500.0 -1.036865234375 -0.419189453125
12440084375.0 -1.01129150390625 0.22705078125
12471306250.0 -0.7427978515625 0.73992919921875
12502528125.0 -0.1783447265625 1.123779296875
12533750000.0 0.625030517578125 0.994384765625
12564971875.0 1.043701171875 0.3634033203125
12596193750.0 1.0318603515625 -0.26654052734375
12627415625.0 0.749176025390625 -0.831298828125
12658637500.0 0.07928466796875 -1.209716796875
12689859375.0 -0.739227294921875 -0.96685791015625
12721081250.0 -1.12060546875 -0.3052978515625
12752303125.0 -1.10076904296875 0.385009765625
12783525000.0 -0.68817138671875 1.03070068359375
12814746875.0 0.16705322265625 1.25665283203125
12845968750.0 0.86627197265625 0.812103271484375
12877190625.0 1.121337890625 0.17041015625
12908412500.0 1.05877685546875 -0.50543212890625
12939634375.0 0.5435791015625 -1.1214599609375
12970856250.0 -0.3232421875 -1.17864990234375
13002078125.0 -0.89825439453125 -0.693511962890625
13033300000.0 -1.10821533203125 -0.08599853515625
13064521875.0 -1.01177978515625 0.59857177734375
13095743750.0 -0.4183349609375 1.16015625
13126965625.0 0.410888671875 1.123291015625
13158187500.0 0.95025634765625 0.63214111328125
13189409375.0 1.15093994140625 -0.02252197265625
13220631250.0 0.937835693359375 -0.751678466796875
13251853125.0 0.23291015625 -1.17645263671875
13283075000.0 -0.5101318359375 -1.0224609375
13314296875.0 -0.990570068359375 -0.528961181640625
13345518750.0 -1.138427734375 0.17779541015625
13376740625.0 -0.753997802734375 0.863555908203125
