!Created with skrf (http://scikit-rf.org).
# Hz S RI R 50.0 
!freq ReS11 ImS11
45000000.0 -0.07666397094726562 -0.09708786010742188
76221875.0 -0.1967315673828125 -0.04803466796875
107443750.0 -0.255767822265625 0.1192626953125
138665625.0 -0.149322509765625 0.3289947509765625
169887500.0 0.122528076171875 0.418853759765625
201109375.0 0.42205810546875 0.282745361328125
232331250.0 0.580535888671875 -0.05609130859375
263553125.0 0.49176025390625 -0.45263671875
294775000.0 0.10040283203125 -0.734283447265625
325996875.0 -0.414794921875 -0.683746337890625
357218750.0 -0.807891845703125 -0.299774169921875
388440625.0 -0.88897705078125 0.2994384765625
419662500.0 -0.520782470703125 0.867279052734375
450884375.0 0.17071533203125 1.03173828125
482106250.0 0.79864501953125 0.716644287109375
513328125.0 1.12200927734375 0.090087890625
544550000.0 1.00738525390625 -0.678955078125
575771875.0 0.34014892578125 -1.23968505859375
606993750.0 -0.55206298828125 -1.18133544921875
638215625.0 -1.1669921875 -0.5947265625
669437500.0 -1.3433837890625 0.23101806640625
700659375.0 -0.9752197265625 1.0960693359375
731881250.0 -0.00787353515625 1.54620361328125
763103125.0 1.0047607421875 1.1611328125
794325000.0 1.4715576171875 0.2860107421875
825546875.0 1.37188720703125 -0.64959716796875
856768750.0 0.79949951171875 -1.40277099609375
887990625.0 -0.28936767578125 -1.65240478515625
919212500.0 -1.28912353515625 -1.08441162109375
950434375.0 -1.65277099609375 -0.062744140625
981656250.0 -1.3880615234375 0.9456787109375
1012878125.0 -0.53436279296875 1.67559814453125
1044100000.0 0.69476318359375 1.66851806640625
1075321875.0 1.57708740234375 0.81787109375
1106543750.0 1.71014404296875 -0.3096923828125
1137765625.0 1.19268798828125 -1.2845458984375
1168987500.0 0.14263916015625 -1.80169677734375
1200209375.0 -1.061279296875 -1.490234375
1231431250.0 -1.73077392578125 -0.4581298828125
1262653125.0 -1.59954833984375 0.68280029296875
1293875000.0 -0.8572998046875 1.493408203125
1325096875.0 0.224609375 1.71148681640625
1356318750.0 1.23541259765625 1.22283935546875
1387540625.0 1.7437744140625 0.19366455078125
1418762500.0 1.47491455078125 -0.95086669921875
1449984375.0 0.53448486328125 -1.62823486328125
1481206250.0 -0.5474853515625 -1.56097412109375
1512428125.0 -1.343505859375 -0.92462158203125
1543650000.0 -1.65948486328125 0.06219482421875
1574871875.0 -1.27850341796875 1.1087646484375
1606093750.0 -0.27679443359375 1.63482666015625
1637315625.0 0.7408447265625 1.40533447265625
1668537500.0 1.39813232421875 0.70013427734375
1699759375.0 1.57720947265625 -0.27423095703125
1730981250.0 1.069091796875 -1.2301025390625
1762203125.0 0.04571533203125 -1.57366943359375
1793425000.0 -0.85516357421875 -1.230712890625
1824646875.0 -1.3953857421875 -0.51922607421875
1855868750.0 -1.47821044921875 0.429931640625
1887090625.0 -0.87939453125 1.2869873046875
1918312500.0 0.1146240234375 1.4903564453125
1949534375.0 0.92144775390625 1.0936279296875
1980756250.0 1.37713623046875 0.37359619140625
2011978125.0 1.36395263671875 -0.53009033203125
2043200000.0 0.7540283203125 -1.26275634765625
2074421875.0 -0.15447998046875 -1.436767578125
2105643750.0 -0.9603271484375 -1.07659912109375
2136865625.0 -1.45001220703125 -0.3079833984375
2168087500.0 -1.36102294921875 0.6697998046875
2199309375.0 -0.64288330078125 1.35284423828125
2230531250.0 0.28021240234375 1.43994140625
2261753125.0 1.0736083984375 1.01776123046875
2292975000.0 1.5174560546875 0.17303466796875
2324196875.0 1.3095703125 -0.81854248046875
2355418750.0 0.5289306640625 -1.421630859375
2386640625.0 -0.4027099609375 -1.45233154296875
2417862500.0 -1.18206787109375 -1.02801513671875
2449084375.0 -1.60772705078125 -0.08685302734375
2480306250.0 -1.3153076171875 0.92608642578125
2511528125.0 -0.4976806640625 1.51007080078125
2542750000.0 0.48675537109375 1.540771484375
2573971875.0 1.373291015625 0.97259521484375
2605193750.0 1.72076416015625 -0.10894775390625
2636415625.0 1.26617431640625 -1.15185546875
2667637500.0 0.310791015625 -1.669677734375
2698859375.0 -0.7703857421875 -1.53936767578125
2730081250.0 -1.57574462890625 -0.74493408203125
2761303125.0 -1.685546875 0.38592529296875
2792525000.0 -1.10418701171875 1.30853271484375
2823746875.0 -0.1051025390625 1.73406982421875
2854968750.0 1.01220703125 1.46063232421875
2886190625.0 1.69415283203125 0.495849609375
2917412500.0 1.6048583984375 -0.6165771484375
2948634375.0 0.9437255859375 -1.43609619140625
2979856250.0 -0.1065673828125 -1.78173828125
3011078125.0 -1.24920654296875 -1.34716796875
3042300000.0 -1.77862548828125 -0.2381591796875
3073521875.0 -1.51373291015625 0.83770751953125
3104743750.0 -0.7672119140625 1.57061767578125
3135965625.0 0.36041259765625 1.81402587890625
3167187500.0 1.50018310546875 1.16973876953125
3198409375.0 1.82049560546875 -0.07330322265625
3229631250.0 1.353759765625 -1.08026123046875
3260853125.0 0.49322509765625 -1.6715087890625
3292075000.0 -0.6534423828125 -1.7025146484375
3323296875.0 -1.622802734375 -0.88397216796875
3354518750.0 -1.73486328125 0.32781982421875
3385740625.0 -1.1605224609375 1.23406982421875
3416962500.0 -0.23382568359375 1.68572998046875
3448184375.0 0.86065673828125 1.5267333984375
3479406250.0 1.63922119140625 0.64764404296875
3510628125.0 1.64837646484375 -0.49420166015625
3541850000.0 1.00433349609375 -1.35748291015625
3573071875.0 -0.00628662109375 -1.68634033203125
3604293750.0 -1.027099609375 -1.3414306640625
3635515625.0 -1.6302490234375 -0.44189453125
3666737500.0 -1.56549072265625 0.64453125
3697959375.0 -0.82867431640625 1.47821044921875
3729181250.0 0.26806640625 1.63507080078125
3760403125.0 1.1529541015625 1.1025390625
3791625000.0 1.5552978515625 0.220947265625
3822846875.0 1.40570068359375 -0.7601318359375
3854068750.0 0.6241455078125 -1.48388671875
3885290625.0 -0.420166015625 -1.4852294921875
3916512500.0 -1.14251708984375 -0.91455078125
3947734375.0 -1.45086669921875 -0.12176513671875
3978956250.0 -1.30181884765625 0.77947998046875
4010178125.0 -0.5338134765625 1.45697021484375
4041400000.0 0.47381591796875 1.4190673828125
4072621875.0 1.15374755859375 0.85015869140625
4103843750.0 1.44775390625 0.064453125
4135065625.0 1.27130126953125 -0.84619140625
4166287500.0 0.4591064453125 -1.499755859375
4197509375.0 -0.556884765625 -1.4176025390625
4228731250.0 -1.24932861328125 -0.8046875
4259953125.0 -1.51177978515625 0.06939697265625
4291175000.0 -1.1912841796875 1.009765625
4322396875.0 -0.29144287109375 1.530029296875
4353618750.0 0.673095703125 1.3538818359375
4384840625.0 1.3236083984375 0.69989013671875
4416062500.0 1.5047607421875 -0.2266845703125
4447284375.0 1.05865478515625 -1.1060791015625
4478506250.0 0.17437744140625 -1.4979248046875
4509728125.0 -0.73248291015625 -1.3111572265625
4540950000.0 -1.39703369140625 -0.6376953125
4572171875.0 -1.5257568359375 0.3597412109375
4603393750.0 -0.97509765625 1.2139892578125
4634615625.0 -0.0623779296875 1.5401611328125
4665837500.0 0.8714599609375 1.30767822265625
4697059375.0 1.544677734375 0.5172119140625
4728281250.0 1.5325927734375 -0.58251953125
4759503125.0 0.825439453125 -1.3697509765625
4790725000.0 -0.14422607421875 -1.57550048828125
4821946875.0 -1.08563232421875 -1.1971435546875
4853168750.0 -1.61602783203125 -0.2528076171875
4884390625.0 -1.381591796875 0.79412841796875
4915612500.0 -0.6158447265625 1.41455078125
4946834375.0 0.32781982421875 1.511962890625
4978056250.0 1.20782470703125 1.02008056640625
5009278125.0 1.565185546875 0.04107666015625
5040500000.0 1.23291015625 -0.87762451171875
5071721875.0 0.50408935546875 -1.4161376953125
5102943750.0 -0.4478759765625 -1.50128173828125
5134165625.0 -1.34002685546875 -0.90728759765625
5165387500.0 -1.57147216796875 0.145751953125
5196609375.0 -1.13897705078125 1.0111083984375
5227831250.0 -0.35888671875 1.50994873046875
5259053125.0 0.68890380859375 1.49591064453125
5290275000.0 1.52471923828125 0.6651611328125
5321496875.0 1.49505615234375 -0.43017578125
5352718750.0 0.9232177734375 -1.15399169921875
5383940625.0 0.098388671875 -1.5030517578125
5415162500.0 -0.900634765625 -1.28668212890625
5446384375.0 -1.48828125 -0.3714599609375
5477606250.0 -1.3026123046875 0.56689453125
5508828125.0 -0.7333984375 1.15386962890625
5540050000.0 0.05340576171875 1.4022216796875
5571271875.0 0.9404296875 1.1116943359375
5602493750.0 1.41094970703125 0.26129150390625
5633715625.0 1.2354736328125 -0.61346435546875
5664937500.0 0.6495361328125 -1.20526123046875
5696159375.0 -0.19757080078125 -1.38726806640625
5727381250.0 -1.02325439453125 -0.98046875
5758603125.0 -1.39520263671875 -0.14501953125
5789825000.0 -1.1971435546875 0.7191162109375
5821046875.0 -0.507080078125 1.3101806640625
5852268750.0 0.41278076171875 1.31658935546875
5883490625.0 1.0736083984375 0.7740478515625
5914712500.0 1.3056640625 0.0205078125
5945934375.0 1.0989990234375 -0.777587890625
5977156250.0 0.36212158203125 -1.315185546875
6008378125.0 -0.5103759765625 -1.18487548828125
6039600000.0 -1.02337646484375 -0.650634765625
6070821875.0 -1.22698974609375 -0.00469970703125
6102043750.0 -1.0860595703125 0.76446533203125
6133265625.0 -0.34222412109375 1.3485107421875
6164487500.0 0.5653076171875 1.19012451171875
6195709375.0 1.0721435546875 0.6317138671875
6226931250.0 1.283447265625 -0.043212890625
6258153125.0 1.10693359375 -0.87408447265625
6289375000.0 0.255859375 -1.44952392578125
6320596875.0 -0.6915283203125 -1.2078857421875
6351818750.0 -1.2025146484375 -0.57293701171875
6383040625.0 -1.357177734375 0.20758056640625
6414262500.0 -1.00177001953125 1.059326171875
6445484375.0 -0.078857421875 1.45849609375
6476706250.0 0.79595947265625 1.14947509765625
6507928125.0 1.2926025390625 0.47076416015625
6539150000.0 1.3499755859375 -0.3863525390625
6570371875.0 0.8431396484375 -1.14520263671875
6601593750.0 -0.0169677734375 -1.407958984375
6632815625.0 -0.84124755859375 -1.13897705078125
6664037500.0 -1.405517578125 -0.420654296875
6695259375.0 -1.37689208984375 0.568603515625
6726481250.0 -0.7110595703125 1.25518798828125
6757703125.0 0.130126953125 1.40948486328125
6788925000.0 0.95733642578125 1.13330078125
6820146875.0 1.56451416015625 0.286865234375
6851368750.0 1.3277587890625 -0.8212890625
6882590625.0 0.5067138671875 -1.34161376953125
6913812500.0 -0.292724609375 -1.3590087890625
6945034375.0 -1.072021484375 -1.02374267578125
6976256250.0 -1.595947265625 -0.09234619140625
7007478125.0 -1.23883056640625 0.93310546875
7038700000.0 -0.40264892578125 1.34698486328125
7069921875.0 0.3616943359375 1.32763671875
7101143750.0 1.1212158203125 0.97161865234375
7132365625.0 1.604248046875 0.014404296875
7163587500.0 1.16009521484375 -1.0240478515625
7194809375.0 0.30419921875 -1.399169921875
7226031250.0 -0.5106201171875 -1.328125
7257253125.0 -1.27117919921875 -0.8250732421875
7288475000.0 -1.56256103515625 0.2001953125
7319696875.0 -1.0318603515625 1.11199951171875
7350918750.0 -0.1641845703125 1.44921875
7382140625.0 0.7183837890625 1.28021240234375
7413362500.0 1.380615234375 0.5760498046875
7444584375.0 1.4139404296875 -0.4083251953125
7475806250.0 0.8607177734375 -1.1473388671875
7507028125.0 0.00604248046875 -1.432861328125
7538250000.0 -0.890625 -1.126220703125
7569471875.0 -1.3387451171875 -0.31109619140625
7600693750.0 -1.20404052734375 0.49786376953125
7631915625.0 -0.7198486328125 1.0877685546875
7663137500.0 0.081787109375 1.36444091796875
7694359375.0 0.943389892578125 0.983154296875
7725581250.0 1.24761962890625 0.18017578125
7756803125.0 1.08648681640625 -0.50299072265625
7788025000.0 0.67181396484375 -1.04608154296875
7819246875.0 -0.12127685546875 -1.35125732421875
7850468750.0 -0.99853515625 -0.91796875
7881690625.0 -1.23626708984375 -0.10418701171875
7912912500.0 -1.0570068359375 0.5560302734375
7944134375.0 -0.6064453125 1.11822509765625
7975356250.0 0.27490234375 1.33905029296875
8006578125.0 1.04888916015625 0.778564453125
8037800000.0 1.196044921875 0.01666259765625
8069021875.0 1.00921630859375 -0.618896484375
8100243750.0 0.5001220703125 -1.16619873046875
8131465625.0 -0.3897705078125 -1.2568359375
8162687500.0 -1.03399658203125 -0.68701171875
8193909375.0 -1.1837158203125 0.0087890625
8225131250.0 -1.02093505859375 0.68048095703125
8256353125.0 -0.421875 1.25421142578125
8287575000.0 0.5052490234375 1.22943115234375
8318796875.0 1.08648681640625 0.63702392578125
8350018750.0 1.247802734375 -0.07611083984375
8381240625.0 1.03350830078125 -0.84344482421875
8412462500.0 0.25421142578125 -1.3773193359375
8443684375.0 -0.67218017578125 -1.171875
8474906250.0 -1.17852783203125 -0.53240966796875
8506128125.0 -1.30108642578125 0.23699951171875
8537350000.0 -0.92529296875 1.0491943359375
8568571875.0 -0.0142822265625 1.3980712890625
8599793750.0 0.80438232421875 1.0550537109375
8631015625.0 1.2442626953125 0.39898681640625
8662237500.0 1.28936767578125 -0.43157958984375
8693459375.0 0.7362060546875 -1.181640625
8724681250.0 -0.163330078125 -1.33477783203125
8755903125.0 -0.881805419921875 -0.959716796875
8787125000.0 -1.30975341796875 -0.281005859375
8818346875.0 -1.25445556640625 0.619384765625
8849568750.0 -0.5572509765625 1.26336669921875
8880790625.0 0.30059814453125 1.28851318359375
8912012500.0 0.9873046875 0.894805908203125
8943234375.0 1.40240478515625 0.12847900390625
8974456250.0 1.1680908203125 -0.84344482421875
9005678125.0 0.3470458984375 -1.317138671875
9036900000.0 -0.44671630859375 -1.22650146484375
9068121875.0 -1.10516357421875 -0.78692626953125
9099343750.0 -1.44415283203125 0.100341796875
9130565625.0 -0.9793701171875 1.01220703125
9161787500.0 -0.153564453125 1.28399658203125
9193009375.0 0.55548095703125 1.1353759765625
9224231250.0 1.1834716796875 0.6558837890625
9255453125.0 1.403076171875 -0.29827880859375
9286675000.0 0.8076171875 -1.08721923828125
9317896875.0 0.025146484375 -1.25018310546875
9349118750.0 -0.6583251953125 -1.072998046875
9380340625.0 -1.26336669921875 -0.509765625
9411562500.0 -1.3145751953125 0.48095703125
9442784375.0 -0.6483154296875 1.12042236328125
9474006250.0 0.09027099609375 1.21392822265625
9505228125.0 0.76806640625 0.981964111328125
9536450000.0 1.280029296875 0.31036376953125
9567671875.0 1.14593505859375 -0.5841064453125
9598893750.0 0.52923583984375 -1.072021484375
9630115625.0 -0.1444091796875 -1.15972900390625
9661337500.0 -0.82110595703125 -0.903045654296875
9692559375.0 -1.24066162109375 -0.1895751953125
9723781250.0 -1.04412841796875 0.6051025390625
9755003125.0 -0.48590087890625 1.05389404296875
9786225000.0 0.19976806640625 1.1634521484375
9817446875.0 0.897369384765625 0.829010009765625
9848668750.0 1.20098876953125 0.0765380859375
9879890625.0 0.970855712890625 -0.61920166015625
9911112500.0 0.45263671875 -1.05389404296875
9942334375.0 -0.27001953125 -1.162353515625
9973556250.0 -0.94891357421875 -0.738433837890625
10004778125.0 -1.149658203125 -0.01513671875
10036000000.0 -0.94561767578125 0.618621826171875
10067221875.0 -0.44189453125 1.10003662109375
10098443750.0 0.37249755859375 1.183837890625
10129665625.0 1.00537109375 0.64208984375
10160887500.0 1.121826171875 -0.05352783203125
10192109375.0 0.918121337890625 -0.665618896484375
10223331250.0 0.36029052734375 -1.15655517578125
10254553125.0 -0.48944091796875 -1.1153564453125
10285775000.0 -0.989288330078125 -0.53448486328125
10316996875.0 -1.06878662109375 0.07745361328125
10348218750.0 -0.901275634765625 0.6728515625
10379440625.0 -0.3211669921875 1.179931640625
10410662500.0 0.52838134765625 1.08636474609375
10441884375.0 0.995269775390625 0.522247314453125
10473106250.0 1.11224365234375 -0.08624267578125
10504328125.0 0.951019287109375 -0.76190185546875
10535550000.0 0.23663330078125 -1.3009033203125
10566771875.0 -0.66156005859375 -1.0784912109375
10597993750.0 -1.08319091796875 -0.45794677734375
10629215625.0 -1.1790771484375 0.20849609375
10660437500.0 -0.88714599609375 0.95758056640625
10691659375.0 -0.005126953125 1.3387451171875
10722881250.0 0.78924560546875 0.95330810546875
10754103125.0 1.1221923828125 0.3238525390625
10785325000.0 1.14263916015625 -0.370361328125
10816546875.0 0.70098876953125 -1.0535888671875
10847768750.0 -0.147216796875 -1.23040771484375
10878990625.0 -0.807647705078125 -0.843505859375
10910212500.0 -1.12530517578125 -0.2437744140625
10941434375.0 -1.0999755859375 0.4791259765625
10972656250.0 -0.56829833984375 1.08953857421875
11003878125.0 0.21978759765625 1.17620849609375
11035100000.0 0.850799560546875 0.822540283203125
11066321875.0 1.2244873046875 0.172607421875
11097543750.0 1.10089111328125 -0.68182373046875
11128765625.0 0.3839111328125 -1.2032470703125
11159987500.0 -0.39862060546875 -1.140625
11191209375.0 -1.00445556640625 -0.702880859375
11222431250.0 -1.27423095703125 0.0958251953125
11253653125.0 -0.8592529296875 0.898590087890625
11284875000.0 -0.1131591796875 1.1287841796875
11316096875.0 0.513092041015625 0.9576416015625
11347318750.0 1.00927734375 0.501220703125
11378540625.0 1.12103271484375 -0.271484375
11409762500.0 0.634735107421875 -0.862396240234375
11440984375.0 0.036712646484375 -0.9813232421875
11472206250.0 -0.48468017578125 -0.852508544921875
11503428125.0 -0.957061767578125 -0.45513916015625
11534650000.0 -1.07110595703125 0.29248046875
11565871875.0 -0.601715087890625 0.857666015625
11597093750.0 -0.0174560546875 0.993621826171875
11628315625.0 0.547943115234375 0.8782958984375
11659537500.0 1.06365966796875 0.39154052734375
11690759375.0 1.06634521484375 -0.43707275390625
11721981250.0 0.51617431640625 -0.94427490234375
11753203125.0 -0.1090087890625 -1.04034423828125
11784425000.0 -0.72918701171875 -0.8106689453125
11815646875.0 -1.10546875 -0.147216796875
11846868750.0 -0.891082763671875 0.55279541015625
11878090625.0 -0.39080810546875 0.910430908203125
11909312500.0 0.189849853515625 0.987518310546875
11940534375.0 0.78460693359375 0.694732666015625
11971756250.0 1.0283203125 0.0364990234375
12002978125.0 0.80645751953125 -0.539459228515625
12034200000.0 0.381500244140625 -0.8935546875
12065421875.0 -0.21826171875 -1.01312255859375
12096643750.0 -0.852294921875 -0.664306640625
12127865625.0 -1.03546142578125 0.01922607421875
12159087500.0 -0.8162841796875 0.578826904296875
12190309375.0 -0.3763427734375 0.9783935546875
12221531250.0 0.34429931640625 1.09124755859375
12252753125.0 0.982879638671875 0.580047607421875
12283975000.0 1.0557861328125 -0.131103515625
12315196875.0 0.801727294921875 -0.67974853515625
12346418750.0 0.2794189453125 -1.09466552734375
12377640625.0 -0.54302978515625 -1.0614013671875
12408862500.0 -1.03826904296875 -0.4168701171875
12440084375.0 -1.01019287109375 0.22735595703125
12471306250.0 -0.74273681640625 0.7403564453125
12502528125.0 -0.1793212890625 1.12310791015625
12533750000.0 0.625091552734375 0.99407958984375
12564971875.0 1.0447998046875 0.36181640625
12596193750.0 1.03204345703125 -0.26812744140625
12627415625.0 0.749298095703125 -0.832275390625
12658637500.0 0.07794189453125 -1.2103271484375
12689859375.0 -0.740936279296875 -0.966766357421875
12721081250.0 -1.120849609375 -0.30535888671875
12752303125.0 -1.0999755859375 0.38543701171875
12783525000.0 -0.68743896484375 1.032470703125
12814746875.0 0.16888427734375 1.25384521484375
12845968750.0 0.8675537109375 0.81121826171875
12877190625.0 1.12127685546875 0.16845703125
12908412500.0 1.0582275390625 -0.5059814453125
12939634375.0 0.54046630859375 -1.12298583984375
12970856250.0 -0.32623291015625 -1.17718505859375
13002078125.0 -0.897705078125 -0.69219970703125
13033300000.0 -1.10845947265625 -0.08514404296875
13064521875.0 -1.0115966796875 0.60015869140625
13095743750.0 -0.41827392578125 1.16070556640625
13126965625.0 0.41253662109375 1.1212158203125
13158187500.0 0.9520263671875 0.63116455078125
13189409375.0 1.1522216796875 -0.02484130859375
13220631250.0 0.936676025390625 -0.754547119140625
13251853125.0 0.231201171875 -1.175537109375
13283075000.0 -0.51171875 -1.0213623046875
13314296875.0 -0.99114990234375 -0.52783203125
13345518750.0 -1.1387939453125 0.1815185546875
13376740625.0 -0.751312255859375 0.863250732421875
