!Created with skrf (http://scikit-rf.org).
# Hz S RI R 50.0 
!freq ReS11 ImS11
45000000.0 -0.07730484008789062 -0.09669876098632812
76221875.0 -0.19670867919921875 -0.0472412109375
107443750.0 -0.254913330078125 0.12017822265625
138665625.0 -0.147857666015625 0.328857421875
169887500.0 0.1240997314453125 0.41748046875
201109375.0 0.42236328125 0.280517578125
232331250.0 0.57916259765625 -0.0582275390625
263553125.0 0.4893341064453125 -0.4536895751953125
294775000.0 0.097412109375 -0.733245849609375
325996875.0 -0.41650390625 -0.68048095703125
357218750.0 -0.807281494140625 -0.296295166015625
388440625.0 -0.885986328125 0.301849365234375
419662500.0 -0.51654052734375 0.86761474609375
450884375.0 0.17449951171875 1.02935791015625
482106250.0 0.799560546875 0.712127685546875
513328125.0 1.11981201171875 0.0859375
544550000.0 1.00323486328125 -0.681396484375
575771875.0 0.3350830078125 -1.23895263671875
606993750.0 -0.55548095703125 -1.17694091796875
638215625.0 -1.166748046875 -0.58929443359375
669437500.0 -1.33978271484375 0.23516845703125
700659375.0 -0.97003173828125 1.09735107421875
731881250.0 -0.00213623046875 1.54345703125
763103125.0 1.00677490234375 1.15478515625
794325000.0 1.4691162109375 0.28021240234375
825546875.0 1.36669921875 -0.65289306640625
856768750.0 0.793212890625 -1.40191650390625
887990625.0 -0.29443359375 -1.6484375
919212500.0 -1.2891845703125 -1.0775146484375
950434375.0 -1.64898681640625 -0.05694580078125
981656250.0 -1.3818359375 0.9478759765625
1012878125.0 -0.52777099609375 1.6729736328125
1044100000.0 0.6990966796875 1.661376953125
1075321875.0 1.57586669921875 0.81036376953125
1106543750.0 1.70458984375 -0.31488037109375
1137765625.0 1.18511962890625 -1.28607177734375
1168987500.0 0.13629150390625 -1.79742431640625
1200209375.0 -1.06298828125 -1.48223876953125
1231431250.0 -1.72808837890625 -0.45196533203125
1262653125.0 -1.59368896484375 0.68634033203125
1293875000.0 -0.85015869140625 1.49224853515625
1325096875.0 0.23016357421875 1.706298828125
1356318750.0 1.23626708984375 1.2156982421875
1387540625.0 1.73992919921875 0.18731689453125
1418762500.0 1.468505859375 -0.95257568359375
1449984375.0 0.5277099609375 -1.62646484375
1481206250.0 -0.55169677734375 -1.5552978515625
1512428125.0 -1.343017578125 -0.9180908203125
1543650000.0 -1.65521240234375 0.0670166015625
1574871875.0 -1.27227783203125 1.10986328125
1606093750.0 -0.2711181640625 1.63140869140625
1637315625.0 0.743896484375 1.39959716796875
1668537500.0 1.39697265625 0.69403076171875
1699759375.0 1.57275390625 -0.27911376953125
1730981250.0 1.0626220703125 -1.23016357421875
1762203125.0 0.04022216796875 -1.5701904296875
1793425000.0 -0.8568115234375 -1.2252197265625
1824646875.0 -1.393310546875 -0.513671875
1855868750.0 -1.47320556640625 0.4332275390625
1887090625.0 -0.873779296875 1.28546142578125
1918312500.0 0.11846923828125 1.4866943359375
1949534375.0 0.92254638671875 1.08807373046875
1980756250.0 1.37542724609375 0.3687744140625
2011978125.0 1.35882568359375 -0.53265380859375
2043200000.0 0.74853515625 -1.261962890625
2074421875.0 -0.15863037109375 -1.432861328125
2105643750.0 -0.9610595703125 -1.07098388671875
2136865625.0 -1.44732666015625 -0.30389404296875
2168087500.0 -1.35601806640625 0.67230224609375
2199309375.0 -0.6375732421875 1.35137939453125
2230531250.0 0.28265380859375 1.4351806640625
2261753125.0 1.07257080078125 1.01239013671875
2292975000.0 1.513916015625 0.1690673828125
2324196875.0 1.30450439453125 -0.82000732421875
2355418750.0 0.5240478515625 -1.41943359375
2386640625.0 -0.40576171875 -1.447998046875
2417862500.0 -1.182373046875 -1.0235595703125
2449084375.0 -1.60400390625 -0.08233642578125
2480306250.0 -1.31036376953125 0.92657470703125
2511528125.0 -0.4921875 1.50787353515625
2542750000.0 0.4884033203125 1.5345458984375
2573971875.0 1.37115478515625 0.9664306640625
2605193750.0 1.7169189453125 -0.11358642578125
2636415625.0 1.26031494140625 -1.153076171875
2667637500.0 0.3052978515625 -1.667236328125
2698859375.0 -0.7708740234375 -1.5330810546875
2730081250.0 -1.57373046875 -0.7386474609375
2761303125.0 -1.67999267578125 0.38995361328125
2792525000.0 -1.09771728515625 1.3077392578125
2823746875.0 -0.1009521484375 1.728759765625
2854968750.0 1.0130615234375 1.45391845703125
2886190625.0 1.69024658203125 0.49029541015625
2917412500.0 1.5985107421875 -0.61798095703125
2948634375.0 0.93817138671875 -1.43292236328125
2979856250.0 -0.1087646484375 -1.77508544921875
3011078125.0 -1.24957275390625 -1.3406982421875
3042300000.0 -1.77447509765625 -0.23309326171875
3073521875.0 -1.50726318359375 0.84027099609375
3104743750.0 -0.76092529296875 1.56976318359375
3135965625.0 0.36279296875 1.80816650390625
3167187500.0 1.49993896484375 1.16229248046875
3198409375.0 1.81494140625 -0.07635498046875
3229631250.0 1.3465576171875 -1.08123779296875
3260853125.0 0.48760986328125 -1.66827392578125
3292075000.0 -0.65576171875 -1.69683837890625
3323296875.0 -1.620361328125 -0.876953125
3354518750.0 -1.7283935546875 0.32989501953125
3385740625.0 -1.15399169921875 1.23199462890625
3416962500.0 -0.2301025390625 1.68017578125
3448184375.0 0.86102294921875 1.52020263671875
3479406250.0 1.63616943359375 0.6429443359375
3510628125.0 1.64276123046875 -0.49530029296875
3541850000.0 0.99853515625 -1.35595703125
3573071875.0 -0.00946044921875 -1.6822509765625
3604293750.0 -1.02783203125 -1.3360595703125
3635515625.0 -1.6270751953125 -0.43658447265625
3666737500.0 -1.56005859375 0.6470947265625
3697959375.0 -0.82391357421875 1.4749755859375
3729181250.0 0.2703857421875 1.62945556640625
3760403125.0 1.15313720703125 1.09674072265625
3791625000.0 1.5516357421875 0.216796875
3822846875.0 1.4002685546875 -0.76092529296875
3854068750.0 0.61883544921875 -1.48114013671875
3885290625.0 -0.42218017578125 -1.4798583984375
3916512500.0 -1.1416015625 -0.90997314453125
3947734375.0 -1.44635009765625 -0.11920166015625
3978956250.0 -1.295654296875 0.77911376953125
4010178125.0 -0.5303955078125 1.45294189453125
4041400000.0 0.47283935546875 1.41363525390625
4072621875.0 1.15185546875 0.84661865234375
4103843750.0 1.44525146484375 0.06146240234375
4135065625.0 1.2667236328125 -0.8455810546875
4166287500.0 0.45684814453125 -1.4954833984375
4197509375.0 -0.558837890625 -1.414794921875
4228731250.0 -1.2491455078125 -0.8018798828125
4259953125.0 -1.50830078125 0.071533203125
4291175000.0 -1.1871337890625 1.01123046875
4322396875.0 -0.28802490234375 1.5257568359375
4353618750.0 0.673583984375 1.348388671875
4384840625.0 1.322998046875 0.69580078125
4416062500.0 1.4989013671875 -0.22784423828125
4447284375.0 1.05389404296875 -1.10357666015625
4478506250.0 0.17144775390625 -1.49456787109375
4509728125.0 -0.7332763671875 -1.306640625
4540950000.0 -1.39300537109375 -0.63525390625
4572171875.0 -1.52178955078125 0.36077880859375
4603393750.0 -0.97125244140625 1.2138671875
4634615625.0 -0.0604248046875 1.53692626953125
4665837500.0 0.87158203125 1.30328369140625
4697059375.0 1.541259765625 0.51458740234375
4728281250.0 1.528076171875 -0.5833740234375
4759503125.0 0.82177734375 -1.36822509765625
4790725000.0 -0.14678955078125 -1.5728759765625
4821946875.0 -1.083251953125 -1.193115234375
4853168750.0 -1.61370849609375 -0.24908447265625
4884390625.0 -1.37738037109375 0.79473876953125
4915612500.0 -0.612060546875 1.41265869140625
4946834375.0 0.330322265625 1.50860595703125
4978056250.0 1.2041015625 1.0159912109375
5009278125.0 1.5609130859375 0.03851318359375
5040500000.0 1.22833251953125 -0.8760986328125
5071721875.0 0.5013427734375 -1.413818359375
5102943750.0 -0.44744873046875 -1.4957275390625
5134165625.0 -1.3345947265625 -0.90460205078125
5165387500.0 -1.5670166015625 0.146484375
5196609375.0 -1.13531494140625 1.01043701171875
5227831250.0 -0.35626220703125 1.5062255859375
5259053125.0 0.68853759765625 1.4918212890625
5290275000.0 1.5216064453125 0.661865234375
5321496875.0 1.4925537109375 -0.432373046875
5352718750.0 0.92034912109375 -1.1539306640625
5383940625.0 0.09576416015625 -1.499267578125
5415162500.0 -0.900634765625 -1.28216552734375
5446384375.0 -1.483154296875 -0.3695068359375
5477606250.0 -1.298583984375 0.56707763671875
5508828125.0 -0.730224609375 1.150146484375
5540050000.0 0.05413818359375 1.39794921875
5571271875.0 0.93829345703125 1.10821533203125
5602493750.0 1.40728759765625 0.2596435546875
5633715625.0 1.2310791015625 -0.61236572265625
5664937500.0 0.64727783203125 -1.201171875
5696159375.0 -0.19732666015625 -1.38360595703125
5727381250.0 -1.02197265625 -0.9775390625
5758603125.0 -1.3914794921875 -0.14447021484375
5789825000.0 -1.1939697265625 0.71844482421875
5821046875.0 -0.50555419921875 1.3082275390625
5852268750.0 0.41229248046875 1.3133544921875
5883490625.0 1.07147216796875 0.77142333984375
5914712500.0 1.30194091796875 0.0196533203125
5945934375.0 1.09600830078125 -0.778076171875
5977156250.0 0.36114501953125 -1.31146240234375
6008378125.0 -0.5101318359375 -1.18212890625
6039600000.0 -1.02166748046875 -0.648681640625
6070821875.0 -1.22381591796875 -0.0035400390625
6102043750.0 -1.082275390625 0.76275634765625
6133265625.0 -0.3411865234375 1.34454345703125
6164487500.0 0.5634765625 1.18719482421875
6195709375.0 1.07086181640625 0.6297607421875
6226931250.0 1.279052734375 -0.043212890625
6258153125.0 1.10443115234375 -0.87139892578125
6289375000.0 0.25592041015625 -1.44598388671875
6320596875.0 -0.68988037109375 -1.2059326171875
6351818750.0 -1.19927978515625 -0.57220458984375
6383040625.0 -1.35504150390625 0.20721435546875
6414262500.0 -0.99957275390625 1.05731201171875
6445484375.0 -0.077392578125 1.4571533203125
6476706250.0 0.7960205078125 1.14715576171875
6507928125.0 1.29083251953125 0.46966552734375
6539150000.0 1.34698486328125 -0.3870849609375
6570371875.0 0.8404541015625 -1.14349365234375
6601593750.0 -0.01904296875 -1.40557861328125
6632815625.0 -0.83935546875 -1.13525390625
6664037500.0 -1.401123046875 -0.41943359375
6695259375.0 -1.37353515625 0.5677490234375
6726481250.0 -0.710205078125 1.250244140625
6757703125.0 0.1309814453125 1.40667724609375
6788925000.0 0.9556884765625 1.130126953125
6820146875.0 1.5601806640625 0.28790283203125
6851368750.0 1.32623291015625 -0.82037353515625
6882590625.0 0.50634765625 -1.33892822265625
6913812500.0 -0.2923583984375 -1.3564453125
6945034375.0 -1.0701904296875 -1.02130126953125
6976256250.0 -1.59222412109375 -0.09271240234375
7007478125.0 -1.2357177734375 0.9344482421875
7038700000.0 -0.40167236328125 1.34259033203125
7069921875.0 0.36016845703125 1.32366943359375
7101143750.0 1.11944580078125 0.96826171875
7132365625.0 1.60052490234375 0.011962890625
7163587500.0 1.15728759765625 -1.02203369140625
7194809375.0 0.30230712890625 -1.39715576171875
7226031250.0 -0.5128173828125 -1.3250732421875
7257253125.0 -1.26690673828125 -0.8236083984375
7288475000.0 -1.5572509765625 0.1973876953125
7319696875.0 -1.030029296875 1.10992431640625
7350918750.0 -0.1639404296875 1.4447021484375
7382140625.0 0.71636962890625 1.27728271484375
7413362500.0 1.37890625 0.57513427734375
7444584375.0 1.41241455078125 -0.4091796875
7475806250.0 0.85797119140625 -1.1439208984375
7507028125.0 0.00555419921875 -1.42999267578125
7538250000.0 -0.8878173828125 -1.12445068359375
7569471875.0 -1.3359375 -0.31011962890625
7600693750.0 -1.2027587890625 0.4979248046875
7631915625.0 -0.716796875 1.0877685546875
7663137500.0 0.08203125 1.35955810546875
7694359375.0 0.940460205078125 0.980255126953125
7725581250.0 1.24267578125 0.17987060546875
7756803125.0 1.0828857421875 -0.50103759765625
7788025000.0 0.66937255859375 -1.04345703125
7819246875.0 -0.12091064453125 -1.34649658203125
7850468750.0 -0.993133544921875 -0.916015625
7881690625.0 -1.23199462890625 -0.1048583984375
7912912500.0 -1.0543212890625 0.55523681640625
7944134375.0 -0.6051025390625 1.11279296875
7975356250.0 0.2730712890625 1.33599853515625
8006578125.0 1.046875 0.779296875
8037800000.0 1.19403076171875 0.01513671875
8069021875.0 1.00653076171875 -0.61688232421875
8100243750.0 0.49957275390625 -1.16357421875
8131465625.0 -0.38726806640625 -1.25445556640625
8162687500.0 -1.03265380859375 -0.6861572265625
8193909375.0 -1.1793212890625 0.0084228515625
8225131250.0 -1.017333984375 0.67913818359375
8256353125.0 -0.42138671875 1.24908447265625
8287575000.0 0.5003662109375 1.225341796875
8318796875.0 1.08074951171875 0.6358642578125
8350018750.0 1.245849609375 -0.0772705078125
8381240625.0 1.0306396484375 -0.8389892578125
8412462500.0 0.2554931640625 -1.37237548828125
8443684375.0 -0.6695556640625 -1.169677734375
8474906250.0 -1.17608642578125 -0.53253173828125
8506128125.0 -1.29730224609375 0.2364501953125
8537350000.0 -0.925048828125 1.048095703125
8568571875.0 -0.01654052734375 1.39300537109375
8599793750.0 0.80029296875 1.0540771484375
8631015625.0 1.24359130859375 0.39691162109375
8662237500.0 1.28582763671875 -0.43011474609375
8693459375.0 0.73602294921875 -1.17919921875
8724681250.0 -0.162353515625 -1.33148193359375
8755903125.0 -0.8785400390625 -0.95648193359375
8787125000.0 -1.30328369140625 -0.28179931640625
8818346875.0 -1.2508544921875 0.6142578125
8849568750.0 -0.5556640625 1.26129150390625
8880790625.0 0.29962158203125 1.28558349609375
8912012500.0 0.98126220703125 0.892333984375
8943234375.0 1.39947509765625 0.12908935546875
8974456250.0 1.1669921875 -0.8397216796875
9005678125.0 0.34844970703125 -1.31329345703125
9036900000.0 -0.4453125 -1.2257080078125
9068121875.0 -1.10089111328125 -0.7852783203125
9099343750.0 -1.4410400390625 0.0980224609375
9130565625.0 -0.9793701171875 1.0118408203125
9161787500.0 -0.1546630859375 1.28265380859375
9193009375.0 0.55548095703125 1.133544921875
9224231250.0 1.1795654296875 0.654296875
9255453125.0 1.39898681640625 -0.2962646484375
9286675000.0 0.8072509765625 -1.0848388671875
9317896875.0 0.027099609375 -1.2459716796875
9349118750.0 -0.655029296875 -1.06939697265625
9380340625.0 -1.25823974609375 -0.5086669921875
9411562500.0 -1.31182861328125 0.47833251953125
9442784375.0 -0.64788818359375 1.117431640625
9474006250.0 0.0894775390625 1.21173095703125
9505228125.0 0.762603759765625 0.98028564453125
9536450000.0 1.2747802734375 0.3125
9567671875.0 1.14453125 -0.58056640625
9598893750.0 0.5294189453125 -1.0709228515625
9630115625.0 -0.14361572265625 -1.15765380859375
9661337500.0 -0.81915283203125 -0.902923583984375
9692559375.0 -1.24053955078125 -0.1904296875
9723781250.0 -1.04376220703125 0.60272216796875
9755003125.0 -0.486083984375 1.04986572265625
9786225000.0 0.19720458984375 1.15899658203125
9817446875.0 0.896881103515625 0.827911376953125
9848668750.0 1.1976318359375 0.0784912109375
9879890625.0 0.96905517578125 -0.616973876953125
9911112500.0 0.4517822265625 -1.05133056640625
9942334375.0 -0.26751708984375 -1.15899658203125
9973556250.0 -0.944915771484375 -0.737884521484375
10004778125.0 -1.146240234375 -0.017578125
10036000000.0 -0.9442138671875 0.615692138671875
10067221875.0 -0.442138671875 1.097412109375
10098443750.0 0.36932373046875 1.1810302734375
10129665625.0 1.00433349609375 0.6434326171875
10160887500.0 1.1217041015625 -0.0528564453125
10192109375.0 0.91790771484375 -0.66400146484375
10223331250.0 0.36102294921875 -1.1527099609375
10254553125.0 -0.4849853515625 -1.1134033203125
10285775000.0 -0.98773193359375 -0.535614013671875
10316996875.0 -1.067138671875 0.07672119140625
10348218750.0 -0.89996337890625 0.67120361328125
10379440625.0 -0.32232666015625 1.1751708984375
10410662500.0 0.52783203125 1.08544921875
10441884375.0 0.992156982421875 0.52197265625
10473106250.0 1.109375 -0.08575439453125
10504328125.0 0.948028564453125 -0.757537841796875
10535550000.0 0.23858642578125 -1.29644775390625
10566771875.0 -0.6595458984375 -1.0777587890625
10597993750.0 -1.08203125 -0.45843505859375
10629215625.0 -1.17547607421875 0.20501708984375
10660437500.0 -0.8873291015625 0.951324462890625
10691659375.0 -0.01116943359375 1.3348388671875
10722881250.0 0.785400390625 0.9530029296875
10754103125.0 1.1195068359375 0.324951171875
10785325000.0 1.1392822265625 -0.36871337890625
10816546875.0 0.70086669921875 -1.0487060546875
10847768750.0 -0.14373779296875 -1.22918701171875
10878990625.0 -0.804443359375 -0.84393310546875
10910212500.0 -1.12322998046875 -0.24530029296875
10941434375.0 -1.0970458984375 0.4774169921875
10972656250.0 -0.56829833984375 1.08612060546875
11003878125.0 0.216552734375 1.17364501953125
11035100000.0 0.848114013671875 0.822723388671875
11066321875.0 1.22021484375 0.17449951171875
11097543750.0 1.09759521484375 -0.6756591796875
11128765625.0 0.38671875 -1.19952392578125
11159987500.0 -0.39697265625 -1.14031982421875
11191209375.0 -0.99969482421875 -0.703033447265625
11222431250.0 -1.27203369140625 0.09375
11253653125.0 -0.85955810546875 0.895172119140625
11284875000.0 -0.114501953125 1.12652587890625
11316096875.0 0.512420654296875 0.95782470703125
11347318750.0 1.003173828125 0.50213623046875
11378540625.0 1.11669921875 -0.26898193359375
11409762500.0 0.6343994140625 -0.859100341796875
11440984375.0 0.03460693359375 -0.978851318359375
11472206250.0 -0.48138427734375 -0.85015869140625
11503428125.0 -0.95452880859375 -0.45526123046875
11534650000.0 -1.0694580078125 0.2894287109375
11565871875.0 -0.602752685546875 0.854522705078125
11597093750.0 -0.019744873046875 0.99017333984375
11628315625.0 0.544830322265625 0.875274658203125
11659537500.0 1.06036376953125 0.39288330078125
11690759375.0 1.0654296875 -0.43353271484375
11721981250.0 0.517547607421875 -0.941650390625
11753203125.0 -0.10614013671875 -1.0364990234375
11784425000.0 -0.725006103515625 -0.80902099609375
11815646875.0 -1.1009521484375 -0.15081787109375
11846868750.0 -0.891815185546875 0.550567626953125
11878090625.0 -0.391632080078125 0.90826416015625
11909312500.0 0.186798095703125 0.98480224609375
11940534375.0 0.781036376953125 0.69500732421875
11971756250.0 1.025634765625 0.03887939453125
12002978125.0 0.80645751953125 -0.538787841796875
12034200000.0 0.381378173828125 -0.889434814453125
12065421875.0 -0.2147216796875 -1.009521484375
12096643750.0 -0.847381591796875 -0.66571044921875
12127865625.0 -1.03448486328125 0.01727294921875
12159087500.0 -0.8145751953125 0.574310302734375
12190309375.0 -0.37750244140625 0.976043701171875
12221531250.0 0.33905029296875 1.08837890625
12252753125.0 0.9805908203125 0.581207275390625
12283975000.0 1.05474853515625 -0.1287841796875
12315196875.0 0.8006591796875 -0.679229736328125
12346418750.0 0.28045654296875 -1.093017578125
12377640625.0 -0.5389404296875 -1.0611572265625
12408862500.0 -1.0360107421875 -0.42022705078125
12440084375.0 -1.008544921875 0.22491455078125
12471306250.0 -0.741241455078125 0.736907958984375
12502528125.0 -0.1807861328125 1.118896484375
12533750000.0 0.620025634765625 0.993408203125
12564971875.0 1.04144287109375 0.36419677734375
12596193750.0 1.0299072265625 -0.26605224609375
12627415625.0 0.74774169921875 -0.82940673828125
12658637500.0 0.07916259765625 -1.2081298828125
12689859375.0 -0.734039306640625 -0.966644287109375
12721081250.0 -1.1156005859375 -0.30645751953125
12752303125.0 -1.09771728515625 0.3807373046875
12783525000.0 -0.6878662109375 1.0272216796875
12814746875.0 0.164306640625 1.25140380859375
12845968750.0 0.86474609375 0.8116455078125
12877190625.0 1.11883544921875 0.17083740234375
12908412500.0 1.05670166015625 -0.50189208984375
12939634375.0 0.54351806640625 -1.11578369140625
12970856250.0 -0.3204345703125 -1.17529296875
13002078125.0 -0.89447021484375 -0.69287109375
13033300000.0 -1.10552978515625 -0.08697509765625
13064521875.0 -1.0103759765625 0.5941162109375
13095743750.0 -0.4200439453125 1.1549072265625
13126965625.0 0.4107666015625 1.12225341796875
13158187500.0 0.946685791015625 0.631622314453125
13189409375.0 1.14794921875 -0.021484375
13220631250.0 0.9364013671875 -0.74688720703125
13251853125.0 0.23492431640625 -1.17230224609375
13283075000.0 -0.50811767578125 -1.01953125
13314296875.0 -0.98883056640625 -0.52978515625
13345518750.0 -1.1363525390625 0.177490234375
13376740625.0 -0.75299072265625 0.86041259765625
