!Created with skrf (http://scikit-rf.org).
# Hz S RI R 50.0 
!freq ReS11 ImS11
45000000.0 -0.07706069946289062 -0.0968017578125
76221875.0 -0.19617462158203125 -0.0474700927734375
107443750.0 -0.2547454833984375 0.1196441650390625
138665625.0 -0.14794921875 0.328338623046875
169887500.0 0.1236419677734375 0.417083740234375
201109375.0 0.421600341796875 0.2805633544921875
232331250.0 0.578460693359375 -0.05767822265625
263553125.0 0.4888458251953125 -0.45233154296875
294775000.0 0.0982666015625 -0.731903076171875
325996875.0 -0.415191650390625 -0.679931640625
357218750.0 -0.8055419921875 -0.29644775390625
388440625.0 -0.884490966796875 0.300384521484375
419662500.0 -0.51666259765625 0.86566162109375
450884375.0 0.17315673828125 1.02783203125
482106250.0 0.797821044921875 0.71197509765625
513328125.0 1.1182861328125 0.0869140625
544550000.0 1.00250244140625 -0.67926025390625
575771875.0 0.3358154296875 -1.23675537109375
606993750.0 -0.5537109375 -1.17596435546875
638215625.0 -1.1649169921875 -0.58941650390625
669437500.0 -1.33843994140625 0.23388671875
700659375.0 -0.9696044921875 1.09521484375
731881250.0 -0.0030517578125 1.541259765625
763103125.0 1.00482177734375 1.154296875
794325000.0 1.46685791015625 0.28094482421875
825546875.0 1.36566162109375 -0.65093994140625
856768750.0 0.79339599609375 -1.39898681640625
887990625.0 -0.29217529296875 -1.6461181640625
919212500.0 -1.28656005859375 -1.0767822265625
950434375.0 -1.6466064453125 -0.05841064453125
981656250.0 -1.3802490234375 0.94415283203125
1012878125.0 -0.52862548828125 1.66912841796875
1044100000.0 0.69586181640625 1.658935546875
1075321875.0 1.5716552734375 0.810791015625
1106543750.0 1.70166015625 -0.31256103515625
1137765625.0 1.1846923828125 -1.28216552734375
1168987500.0 0.1375732421875 -1.79449462890625
1200209375.0 -1.06011962890625 -1.48101806640625
1231431250.0 -1.72503662109375 -0.4521484375
1262653125.0 -1.59136962890625 0.68353271484375
1293875000.0 -0.8505859375 1.48980712890625
1325096875.0 0.2283935546875 1.7041015625
1356318750.0 1.23333740234375 1.2144775390625
1387540625.0 1.73748779296875 0.18804931640625
1418762500.0 1.4671630859375 -0.95050048828125
1449984375.0 0.52801513671875 -1.62347412109375
1481206250.0 -0.54913330078125 -1.5533447265625
1512428125.0 -1.33978271484375 -0.91796875
1543650000.0 -1.65264892578125 0.0650634765625
1574871875.0 -1.271484375 1.10772705078125
1606093750.0 -0.27239990234375 1.6292724609375
1637315625.0 0.741455078125 1.3983154296875
1668537500.0 1.39410400390625 0.6944580078125
1699759375.0 1.57086181640625 -0.27728271484375
1730981250.0 1.06231689453125 -1.2276611328125
1762203125.0 0.04168701171875 -1.56805419921875
1793425000.0 -0.85455322265625 -1.2244873046875
1824646875.0 -1.3914794921875 -0.51416015625
1855868750.0 -1.47198486328125 0.4322509765625
1887090625.0 -0.8734130859375 1.28338623046875
1918312500.0 0.1173095703125 1.48431396484375
1949534375.0 0.92059326171875 1.087158203125
1980756250.0 1.37335205078125 0.3692626953125
2011978125.0 1.357421875 -0.53076171875
2043200000.0 0.74884033203125 -1.26007080078125
2074421875.0 -0.15692138671875 -1.43121337890625
2105643750.0 -0.9588623046875 -1.07073974609375
2136865625.0 -1.44525146484375 -0.30438232421875
2168087500.0 -1.35516357421875 0.6702880859375
2199309375.0 -0.6378173828125 1.34918212890625
2230531250.0 0.28173828125 1.4342041015625
2261753125.0 1.071044921875 1.01202392578125
2292975000.0 1.5120849609375 0.1697998046875
2324196875.0 1.30322265625 -0.81756591796875
2355418750.0 0.524169921875 -1.417724609375
2386640625.0 -0.4039306640625 -1.44683837890625
2417862500.0 -1.1790771484375 -1.0225830078125
2449084375.0 -1.60198974609375 -0.0836181640625
2480306250.0 -1.309326171875 0.923583984375
2511528125.0 -0.4932861328125 1.50555419921875
2542750000.0 0.48822021484375 1.53326416015625
2573971875.0 1.36810302734375 0.96630859375
2605193750.0 1.71368408203125 -0.11224365234375
2636415625.0 1.2587890625 -1.14996337890625
2667637500.0 0.30621337890625 -1.66424560546875
2698859375.0 -0.76837158203125 -1.53131103515625
2730081250.0 -1.5694580078125 -0.7392578125
2761303125.0 -1.6778564453125 0.38714599609375
2792525000.0 -1.0975341796875 1.3046875
2823746875.0 -0.10211181640625 1.7255859375
2854968750.0 1.01007080078125 1.45245361328125
2886190625.0 1.688232421875 0.49053955078125
2917412500.0 1.596435546875 -0.6158447265625
2948634375.0 0.93743896484375 -1.4305419921875
2979856250.0 -0.10772705078125 -1.77252197265625
3011078125.0 -1.2437744140625 -1.33929443359375
3042300000.0 -1.77197265625 -0.233642578125
3073521875.0 -1.50531005859375 0.83514404296875
3104743750.0 -0.7618408203125 1.5648193359375
3135965625.0 0.36004638671875 1.80401611328125
3167187500.0 1.4967041015625 1.16259765625
3198409375.0 1.81304931640625 -0.075927734375
3229631250.0 1.34576416015625 -1.07781982421875
3260853125.0 0.487548828125 -1.665771484375
3292075000.0 -0.65301513671875 -1.69390869140625
3323296875.0 -1.6153564453125 -0.87811279296875
3354518750.0 -1.72772216796875 0.32904052734375
3385740625.0 -1.15411376953125 1.2296142578125
3416962500.0 -0.23187255859375 1.67724609375
3448184375.0 0.85791015625 1.5185546875
3479406250.0 1.63214111328125 0.64276123046875
3510628125.0 1.64129638671875 -0.494873046875
3541850000.0 0.99822998046875 -1.35260009765625
3573071875.0 -0.00787353515625 -1.6793212890625
3604293750.0 -1.02667236328125 -1.3350830078125
3635515625.0 -1.62420654296875 -0.43841552734375
3666737500.0 -1.55816650390625 0.64385986328125
3697959375.0 -0.82379150390625 1.47357177734375
3729181250.0 0.26837158203125 1.6280517578125
3760403125.0 1.15045166015625 1.095947265625
3791625000.0 1.54931640625 0.2178955078125
3822846875.0 1.39898681640625 -0.7587890625
3854068750.0 0.61895751953125 -1.47747802734375
3885290625.0 -0.41986083984375 -1.4779052734375
3916512500.0 -1.14056396484375 -0.9091796875
3947734375.0 -1.4439697265625 -0.12017822265625
3978956250.0 -1.2950439453125 0.77703857421875
4010178125.0 -0.530517578125 1.451171875
4041400000.0 0.471435546875 1.41229248046875
4072621875.0 1.150390625 0.84637451171875
4103843750.0 1.4425048828125 0.06304931640625
4135065625.0 1.26470947265625 -0.84429931640625
4166287500.0 0.45721435546875 -1.4932861328125
4197509375.0 -0.55609130859375 -1.41253662109375
4228731250.0 -1.246826171875 -0.80120849609375
4259953125.0 -1.50628662109375 0.06976318359375
4291175000.0 -1.18609619140625 1.0089111328125
4322396875.0 -0.28948974609375 1.52264404296875
4353618750.0 0.67144775390625 1.346923828125
4384840625.0 1.32000732421875 0.6956787109375
4416062500.0 1.4976806640625 -0.22723388671875
4447284375.0 1.05328369140625 -1.10076904296875
4478506250.0 0.172607421875 -1.4920654296875
4509728125.0 -0.7310791015625 -1.304931640625
4540950000.0 -1.39111328125 -0.63531494140625
4572171875.0 -1.5201416015625 0.359130859375
4603393750.0 -0.97119140625 1.21063232421875
4634615625.0 -0.06201171875 1.53369140625
4665837500.0 0.86865234375 1.30279541015625
4697059375.0 1.5386962890625 0.514892578125
4728281250.0 1.52667236328125 -0.58056640625
4759503125.0 0.8214111328125 -1.36578369140625
4790725000.0 -0.14483642578125 -1.56927490234375
4821946875.0 -1.08148193359375 -1.19207763671875
4853168750.0 -1.61041259765625 -0.25152587890625
4884390625.0 -1.3756103515625 0.79119873046875
4915612500.0 -0.61212158203125 1.41082763671875
4946834375.0 0.32769775390625 1.50628662109375
4978056250.0 1.2022705078125 1.0162353515625
5009278125.0 1.55859375 0.0399169921875
5040500000.0 1.22747802734375 -0.87420654296875
5071721875.0 0.5010986328125 -1.41217041015625
5102943750.0 -0.4447021484375 -1.493408203125
5134165625.0 -1.33197021484375 -0.904296875
5165387500.0 -1.56500244140625 0.14581298828125
5196609375.0 -1.13421630859375 1.00787353515625
5227831250.0 -0.357421875 1.5028076171875
5259053125.0 0.68585205078125 1.48919677734375
5290275000.0 1.51873779296875 0.662353515625
5321496875.0 1.4896240234375 -0.42950439453125
5352718750.0 0.91943359375 -1.1505126953125
5383940625.0 0.0968017578125 -1.497802734375
5415162500.0 -0.89788818359375 -1.281494140625
5446384375.0 -1.4818115234375 -0.37005615234375
5477606250.0 -1.29693603515625 0.564453125
5508828125.0 -0.730712890625 1.14849853515625
5540050000.0 0.053955078125 1.3968505859375
5571271875.0 0.937255859375 1.10736083984375
5602493750.0 1.4056396484375 0.26043701171875
5633715625.0 1.230224609375 -0.6116943359375
5664937500.0 0.64678955078125 -1.19915771484375
5696159375.0 -0.19586181640625 -1.38153076171875
5727381250.0 -1.02008056640625 -0.977783203125
5758603125.0 -1.38916015625 -0.14495849609375
5789825000.0 -1.19232177734375 0.7158203125
5821046875.0 -0.506103515625 1.3040771484375
5852268750.0 0.41015625 1.31036376953125
5883490625.0 1.0692138671875 0.7708740234375
5914712500.0 1.300048828125 0.0205078125
5945934375.0 1.0943603515625 -0.7735595703125
5977156250.0 0.36077880859375 -1.3104248046875
6008378125.0 -0.50860595703125 -1.1806640625
6039600000.0 -1.019775390625 -0.6488037109375
6070821875.0 -1.22198486328125 -0.00543212890625
6102043750.0 -1.0816650390625 0.76055908203125
6133265625.0 -0.34222412109375 1.34185791015625
6164487500.0 0.561279296875 1.18524169921875
6195709375.0 1.068115234375 0.629638671875
6226931250.0 1.27783203125 -0.0423583984375
6258153125.0 1.10321044921875 -0.86871337890625
6289375000.0 0.25628662109375 -1.44384765625
6320596875.0 -0.68756103515625 -1.20465087890625
6351818750.0 -1.19781494140625 -0.57177734375
6383040625.0 -1.3525390625 0.20587158203125
6414262500.0 -0.99859619140625 1.0557861328125
6445484375.0 -0.07891845703125 1.454345703125
6476706250.0 0.794677734375 1.14617919921875
6507928125.0 1.28826904296875 0.4697265625
6539150000.0 1.34552001953125 -0.38543701171875
6570371875.0 0.84002685546875 -1.14263916015625
6601593750.0 -0.017333984375 -1.40362548828125
6632815625.0 -0.838134765625 -1.1346435546875
6664037500.0 -1.39990234375 -0.41986083984375
6695259375.0 -1.3721923828125 0.565185546875
6726481250.0 -0.70989990234375 1.2490234375
6757703125.0 0.1304931640625 1.40545654296875
6788925000.0 0.9539794921875 1.1292724609375
6820146875.0 1.55694580078125 0.2884521484375
6851368750.0 1.32415771484375 -0.8184814453125
6882590625.0 0.5054931640625 -1.33782958984375
6913812500.0 -0.2919921875 -1.35540771484375
6945034375.0 -1.06866455078125 -1.02044677734375
6976256250.0 -1.5908203125 -0.09332275390625
7007478125.0 -1.23553466796875 0.93017578125
7038700000.0 -0.4012451171875 1.3416748046875
7069921875.0 0.35797119140625 1.3214111328125
7101143750.0 1.11444091796875 0.9674072265625
7132365625.0 1.595947265625 0.01654052734375
7163587500.0 1.1566162109375 -1.01763916015625
7194809375.0 0.3017578125 -1.3958740234375
7226031250.0 -0.50811767578125 -1.32220458984375
7257253125.0 -1.26416015625 -0.823486328125
7288475000.0 -1.55645751953125 0.19720458984375
7319696875.0 -1.0294189453125 1.1087646484375
7350918750.0 -0.1630859375 1.44305419921875
7382140625.0 0.7147216796875 1.27459716796875
7413362500.0 1.37322998046875 0.57611083984375
7444584375.0 1.40948486328125 -0.40423583984375
7475806250.0 0.85723876953125 -1.14227294921875
7507028125.0 0.0081787109375 -1.4256591796875
7538250000.0 -0.88421630859375 -1.12152099609375
7569471875.0 -1.33502197265625 -0.31060791015625
7600693750.0 -1.20233154296875 0.49786376953125
7631915625.0 -0.71795654296875 1.08270263671875
7663137500.0 0.08087158203125 1.357177734375
7694359375.0 0.93792724609375 0.97955322265625
7725581250.0 1.24169921875 0.18084716796875
7756803125.0 1.080810546875 -0.4986572265625
7788025000.0 0.669189453125 -1.04058837890625
7819246875.0 -0.11932373046875 -1.3453369140625
7850468750.0 -0.9892578125 -0.91552734375
7881690625.0 -1.2293701171875 -0.1053466796875
7912912500.0 -1.05352783203125 0.55267333984375
7944134375.0 -0.6038818359375 1.111572265625
7975356250.0 0.2698974609375 1.33343505859375
8006578125.0 1.04534912109375 0.77825927734375
8037800000.0 1.19158935546875 0.01690673828125
8069021875.0 1.00567626953125 -0.6173095703125
8100243750.0 0.49920654296875 -1.16064453125
8131465625.0 -0.38714599609375 -1.2535400390625
8162687500.0 -1.02978515625 -0.68658447265625
8193909375.0 -1.1783447265625 0.0078125
8225131250.0 -1.01593017578125 0.6771240234375
8256353125.0 -0.42138671875 1.2471923828125
8287575000.0 0.502197265625 1.2261962890625
8318796875.0 1.07708740234375 0.6351318359375
8350018750.0 1.24273681640625 -0.07470703125
8381240625.0 1.0302734375 -0.83819580078125
8412462500.0 0.25433349609375 -1.3724365234375
8443684375.0 -0.671142578125 -1.169921875
8474906250.0 -1.173828125 -0.53118896484375
8506128125.0 -1.29681396484375 0.236572265625
8537350000.0 -0.92364501953125 1.045654296875
8568571875.0 -0.01678466796875 1.39276123046875
8599793750.0 0.801513671875 1.05291748046875
8631015625.0 1.240234375 0.398681640625
8662237500.0 1.28497314453125 -0.42852783203125
8693459375.0 0.7353515625 -1.1771240234375
8724681250.0 -0.1612548828125 -1.32940673828125
8755903125.0 -0.877777099609375 -0.956573486328125
8787125000.0 -1.3017578125 -0.28253173828125
8818346875.0 -1.2486572265625 0.61199951171875
8849568750.0 -0.55596923828125 1.257568359375
8880790625.0 0.297119140625 1.28277587890625
8912012500.0 0.97943115234375 0.89178466796875
8943234375.0 1.39630126953125 0.1298828125
8974456250.0 1.1663818359375 -0.83929443359375
9005678125.0 0.34832763671875 -1.3118896484375
9036900000.0 -0.44390869140625 -1.2236328125
9068121875.0 -1.10009765625 -0.7850341796875
9099343750.0 -1.43939208984375 0.09686279296875
9130565625.0 -0.9791259765625 1.01043701171875
9161787500.0 -0.15423583984375 1.281982421875
9193009375.0 0.5538330078125 1.1324462890625
9224231250.0 1.177734375 0.655029296875
9255453125.0 1.3968505859375 -0.2943115234375
9286675000.0 0.80560302734375 -1.0833740234375
9317896875.0 0.02764892578125 -1.24493408203125
9349118750.0 -0.652587890625 -1.06903076171875
9380340625.0 -1.2545166015625 -0.51031494140625
9411562500.0 -1.30828857421875 0.47442626953125
9442784375.0 -0.648193359375 1.11358642578125
9474006250.0 0.0880126953125 1.21063232421875
9505228125.0 0.763214111328125 0.979583740234375
9536450000.0 1.27325439453125 0.31390380859375
9567671875.0 1.142578125 -0.5784912109375
9598893750.0 0.5289306640625 -1.06744384765625
9630115625.0 -0.14361572265625 -1.15594482421875
9661337500.0 -0.81719970703125 -0.90203857421875
9692559375.0 -1.2379150390625 -0.18994140625
9723781250.0 -1.04241943359375 0.60101318359375
9755003125.0 -0.48468017578125 1.0494384765625
9786225000.0 0.197021484375 1.15863037109375
9817446875.0 0.89208984375 0.82904052734375
9848668750.0 1.19708251953125 0.078369140625
9879890625.0 0.96722412109375 -0.616668701171875
9911112500.0 0.45220947265625 -1.0504150390625
9942334375.0 -0.26715087890625 -1.15692138671875
9973556250.0 -0.942108154296875 -0.738067626953125
10004778125.0 -1.14501953125 -0.0185546875
10036000000.0 -0.94403076171875 0.6143798828125
10067221875.0 -0.4422607421875 1.0943603515625
10098443750.0 0.3671875 1.1787109375
10129665625.0 1.00152587890625 0.64373779296875
10160887500.0 1.1202392578125 -0.051513671875
10192109375.0 0.916900634765625 -0.661529541015625
10223331250.0 0.3621826171875 -1.1497802734375
10254553125.0 -0.4844970703125 -1.11279296875
10285775000.0 -0.982330322265625 -0.53607177734375
10316996875.0 -1.065673828125 0.0760498046875
10348218750.0 -0.899078369140625 0.668121337890625
10379440625.0 -0.32220458984375 1.17254638671875
10410662500.0 0.523681640625 1.083984375
10441884375.0 0.989959716796875 0.522247314453125
10473106250.0 1.108154296875 -0.08331298828125
10504328125.0 0.948638916015625 -0.7557373046875
10535550000.0 0.2393798828125 -1.29388427734375
10566771875.0 -0.65631103515625 -1.077392578125
10597993750.0 -1.08087158203125 -0.45819091796875
10629215625.0 -1.173828125 0.20458984375
10660437500.0 -0.887481689453125 0.94940185546875
10691659375.0 -0.00946044921875 1.33502197265625
10722881250.0 0.783447265625 0.951995849609375
10754103125.0 1.11834716796875 0.3245849609375
10785325000.0 1.13818359375 -0.36602783203125
10816546875.0 0.7010498046875 -1.0458984375
10847768750.0 -0.14410400390625 -1.228515625
10878990625.0 -0.80181884765625 -0.842926025390625
10910212500.0 -1.1204833984375 -0.2467041015625
10941434375.0 -1.09515380859375 0.4739990234375
10972656250.0 -0.5682373046875 1.083251953125
11003878125.0 0.21527099609375 1.1732177734375
11035100000.0 0.846771240234375 0.82183837890625
11066321875.0 1.21917724609375 0.17425537109375
11097543750.0 1.0980224609375 -0.67431640625
11128765625.0 0.3863525390625 -1.19720458984375
11159987500.0 -0.39593505859375 -1.138671875
11191209375.0 -0.99786376953125 -0.702789306640625
11222431250.0 -1.27044677734375 0.092041015625
11253653125.0 -0.85870361328125 0.892364501953125
11284875000.0 -0.11505126953125 1.12615966796875
11316096875.0 0.5120849609375 0.956329345703125
11347318750.0 1.00177001953125 0.50262451171875
11378540625.0 1.11663818359375 -0.26763916015625
11409762500.0 0.635040283203125 -0.85906982421875
11440984375.0 0.036346435546875 -0.9764404296875
11472206250.0 -0.48052978515625 -0.850006103515625
11503428125.0 -0.950286865234375 -0.4569091796875
11534650000.0 -1.06854248046875 0.2882080078125
11565871875.0 -0.602081298828125 0.852325439453125
11597093750.0 -0.01788330078125 0.9913330078125
11628315625.0 0.5426025390625 0.87432861328125
11659537500.0 1.05731201171875 0.3929443359375
11690759375.0 1.06451416015625 -0.4326171875
11721981250.0 0.5172119140625 -0.9407958984375
11753203125.0 -0.10498046875 -1.03570556640625
11784425000.0 -0.72381591796875 -0.809051513671875
11815646875.0 -1.0992431640625 -0.15191650390625
11846868750.0 -0.8907470703125 0.55096435546875
11878090625.0 -0.391143798828125 0.906646728515625
11909312500.0 0.18658447265625 0.98382568359375
11940534375.0 0.779388427734375 0.695068359375
11971756250.0 1.0230712890625 0.04010009765625
12002978125.0 0.806182861328125 -0.5377197265625
12034200000.0 0.382080078125 -0.888641357421875
12065421875.0 -0.21612548828125 -1.01092529296875
12096643750.0 -0.8465576171875 -0.6656494140625
12127865625.0 -1.03302001953125 0.01629638671875
12159087500.0 -0.814453125 0.57391357421875
12190309375.0 -0.378387451171875 0.9742431640625
12221531250.0 0.33758544921875 1.08721923828125
12252753125.0 0.977783203125 0.58221435546875
12283975000.0 1.0543212890625 -0.12786865234375
12315196875.0 0.800628662109375 -0.676361083984375
12346418750.0 0.28253173828125 -1.0872802734375
12377640625.0 -0.53717041015625 -1.05950927734375
12408862500.0 -1.0333251953125 -0.41973876953125
12440084375.0 -1.0069580078125 0.2239990234375
12471306250.0 -0.741119384765625 0.735931396484375
12502528125.0 -0.17938232421875 1.11907958984375
12533750000.0 0.61773681640625 0.992950439453125
12564971875.0 1.0390625 0.3641357421875
12596193750.0 1.02911376953125 -0.26336669921875
12627415625.0 0.74810791015625 -0.825775146484375
12658637500.0 0.079833984375 -1.2060546875
12689859375.0 -0.73291015625 -0.96661376953125
12721081250.0 -1.1177978515625 -0.30572509765625
12752303125.0 -1.09686279296875 0.38165283203125
12783525000.0 -0.68658447265625 1.02606201171875
12814746875.0 0.16375732421875 1.25
12845968750.0 0.862091064453125 0.811065673828125
12877190625.0 1.11614990234375 0.172119140625
12908412500.0 1.05499267578125 -0.50146484375
12939634375.0 0.54376220703125 -1.11419677734375
12970856250.0 -0.3199462890625 -1.17510986328125
13002078125.0 -0.894073486328125 -0.693603515625
13033300000.0 -1.103759765625 -0.08868408203125
13064521875.0 -1.00823974609375 0.5927734375
13095743750.0 -0.42034912109375 1.153564453125
13126965625.0 0.407958984375 1.1197509765625
13158187500.0 0.946258544921875 0.63140869140625
13189409375.0 1.1466064453125 -0.02008056640625
13220631250.0 0.93560791015625 -0.747802734375
13251853125.0 0.234375 -1.170166015625
13283075000.0 -0.50762939453125 -1.019775390625
13314296875.0 -0.98663330078125 -0.52978515625
13345518750.0 -1.134521484375 0.1781005859375
13376740625.0 -0.752899169921875 0.85601806640625
