!Created with skrf (http://scikit-rf.org).
# Hz S RI R 50.0 
!freq ReS11 ImS11
45000000.0 -0.07727813720703125 -0.09686660766601562
76221875.0 -0.197418212890625 -0.0475921630859375
107443750.0 -0.2561187744140625 0.1205902099609375
138665625.0 -0.1484832763671875 0.3299560546875
169887500.0 0.12408447265625 0.4189300537109375
201109375.0 0.423431396484375 0.2823944091796875
232331250.0 0.581329345703125 -0.05755615234375
263553125.0 0.49169921875 -0.454864501953125
294775000.0 0.09857177734375 -0.73614501953125
325996875.0 -0.417877197265625 -0.68426513671875
357218750.0 -0.811004638671875 -0.29827880859375
388440625.0 -0.8902587890625 0.3026123046875
419662500.0 -0.51934814453125 0.87109375
450884375.0 0.1739501953125 1.03350830078125
482106250.0 0.8021240234375 0.716156005859375
513328125.0 1.12451171875 0.08740234375
544550000.0 1.0078125 -0.68304443359375
575771875.0 0.33746337890625 -1.24310302734375
606993750.0 -0.55596923828125 -1.18218994140625
638215625.0 -1.17034912109375 -0.5928955078125
669437500.0 -1.34539794921875 0.234619140625
700659375.0 -0.974609375 1.1005859375
731881250.0 -0.00421142578125 1.54888916015625
763103125.0 1.00921630859375 1.16107177734375
794325000.0 1.474609375 0.2833251953125
825546875.0 1.373291015625 -0.654296875
856768750.0 0.797607421875 -1.40838623046875
887990625.0 -0.29510498046875 -1.65625
919212500.0 -1.29571533203125 -1.08392333984375
950434375.0 -1.65771484375 -0.0584716796875
981656250.0 -1.3895263671875 0.951904296875
1012878125.0 -0.5316162109375 1.6817626953125
1044100000.0 0.70172119140625 1.6707763671875
1075321875.0 1.58349609375 0.81610107421875
1106543750.0 1.71356201171875 -0.3155517578125
1137765625.0 1.19158935546875 -1.29132080078125
1168987500.0 0.1383056640625 -1.8062744140625
1200209375.0 -1.067626953125 -1.49127197265625
1231431250.0 -1.7369384765625 -0.455078125
1262653125.0 -1.601318359375 0.68914794921875
1293875000.0 -0.855224609375 1.49871826171875
1325096875.0 0.22943115234375 1.7147216796875
1356318750.0 1.24102783203125 1.22265625
1387540625.0 1.74853515625 0.18951416015625
1418762500.0 1.47637939453125 -0.9556884765625
1449984375.0 0.5313720703125 -1.633544921875
1481206250.0 -0.552734375 -1.56341552734375
1512428125.0 -1.3482666015625 -0.92388916015625
1543650000.0 -1.6629638671875 0.0665283203125
1574871875.0 -1.2786865234375 1.11480712890625
1606093750.0 -0.273193359375 1.638916015625
1637315625.0 0.74591064453125 1.40618896484375
1668537500.0 1.402587890625 0.69793701171875
1699759375.0 1.57965087890625 -0.27880859375
1730981250.0 1.06817626953125 -1.23492431640625
1762203125.0 0.041748046875 -1.576904296875
1793425000.0 -0.859375 -1.23114013671875
1824646875.0 -1.399169921875 -0.51690673828125
1855868750.0 -1.480224609375 0.43426513671875
1887090625.0 -0.879150390625 1.2908935546875
1918312500.0 0.11785888671875 1.4932861328125
1949534375.0 0.92608642578125 1.0936279296875
1980756250.0 1.3814697265625 0.37109375
2011978125.0 1.36553955078125 -0.5341796875
2043200000.0 0.7528076171875 -1.26727294921875
2074421875.0 -0.1583251953125 -1.4388427734375
2105643750.0 -0.964599609375 -1.076416015625
2136865625.0 -1.45306396484375 -0.3057861328125
2168087500.0 -1.36212158203125 0.6737060546875
2199309375.0 -0.6412353515625 1.356689453125
2230531250.0 0.28326416015625 1.44146728515625
2261753125.0 1.0775146484375 1.01727294921875
2292975000.0 1.5201416015625 0.17022705078125
2324196875.0 1.31011962890625 -0.822509765625
2355418750.0 0.52685546875 -1.4256591796875
2386640625.0 -0.40625 -1.454345703125
2417862500.0 -1.18841552734375 -1.02874755859375
2449084375.0 -1.61334228515625 -0.082275390625
2480306250.0 -1.317138671875 0.93194580078125
2511528125.0 -0.494384765625 1.5157470703125
2542750000.0 0.4932861328125 1.54327392578125
2573971875.0 1.3797607421875 0.97149658203125
2605193750.0 1.7255859375 -0.1146240234375
2636415625.0 1.2666015625 -1.16046142578125
2667637500.0 0.3067626953125 -1.675048828125
2698859375.0 -0.77532958984375 -1.54052734375
2730081250.0 -1.58367919921875 -0.74176025390625
2761303125.0 -1.689208984375 0.3917236328125
2792525000.0 -1.10333251953125 1.31561279296875
2823746875.0 -0.10076904296875 1.73785400390625
2854968750.0 1.01922607421875 1.4617919921875
2886190625.0 1.70068359375 0.492431640625
2917412500.0 1.607421875 -0.6224365234375
2948634375.0 0.94244384765625 -1.44244384765625
2979856250.0 -0.11236572265625 -1.78656005859375
3011078125.0 -1.25775146484375 -1.34747314453125
3042300000.0 -1.783447265625 -0.23382568359375
3073521875.0 -1.5150146484375 0.8438720703125
3104743750.0 -0.7647705078125 1.5782470703125
3135965625.0 0.36529541015625 1.8179931640625
3167187500.0 1.507568359375 1.16815185546875
3198409375.0 1.824462890625 -0.0772705078125
3229631250.0 1.3543701171875 -1.08905029296875
3260853125.0 0.4892578125 -1.677734375
3292075000.0 -0.66009521484375 -1.70550537109375
3323296875.0 -1.62872314453125 -0.8817138671875
3354518750.0 -1.73834228515625 0.332763671875
3385740625.0 -1.16015625 1.2386474609375
3416962500.0 -0.23052978515625 1.6895751953125
3448184375.0 0.8662109375 1.52813720703125
3479406250.0 1.644775390625 0.6448974609375
3510628125.0 1.651611328125 -0.49969482421875
3541850000.0 1.0030517578125 -1.36248779296875
3573071875.0 -0.0107421875 -1.69024658203125
3604293750.0 -1.03448486328125 -1.34173583984375
3635515625.0 -1.634521484375 -0.4393310546875
3666737500.0 -1.56842041015625 0.65142822265625
3697959375.0 -0.8267822265625 1.4849853515625
3729181250.0 0.27215576171875 1.6380615234375
3760403125.0 1.15948486328125 1.100830078125
3791625000.0 1.55950927734375 0.21722412109375
3822846875.0 1.40716552734375 -0.765869140625
3854068750.0 0.6214599609375 -1.48809814453125
3885290625.0 -0.4254150390625 -1.48724365234375
3916512500.0 -1.1474609375 -0.91351318359375
3947734375.0 -1.45538330078125 -0.11834716796875
3978956250.0 -1.302734375 0.78424072265625
4010178125.0 -0.531494140625 1.461669921875
4041400000.0 0.4781494140625 1.42071533203125
4072621875.0 1.15869140625 0.8486328125
4103843750.0 1.45037841796875 0.06121826171875
4135065625.0 1.2720947265625 -0.8509521484375
4166287500.0 0.45721435546875 -1.50323486328125
4197509375.0 -0.56231689453125 -1.420166015625
4228731250.0 -1.25445556640625 -0.80401611328125
4259953125.0 -1.51458740234375 0.0723876953125
4291175000.0 -1.1922607421875 1.0162353515625
4322396875.0 -0.28851318359375 1.53326416015625
4353618750.0 0.6802978515625 1.355224609375
4384840625.0 1.328857421875 0.697509765625
4416062500.0 1.50640869140625 -0.231201171875
4447284375.0 1.05755615234375 -1.1112060546875
4478506250.0 0.17047119140625 -1.5018310546875
4509728125.0 -0.7364501953125 -1.31146240234375
4540950000.0 -1.4005126953125 -0.63641357421875
4572171875.0 -1.527587890625 0.3641357421875
4603393750.0 -0.97430419921875 1.22021484375
4634615625.0 -0.05938720703125 1.5428466796875
4665837500.0 0.87615966796875 1.30926513671875
4697059375.0 1.5487060546875 0.515625
4728281250.0 1.5343017578125 -0.5865478515625
4759503125.0 0.82403564453125 -1.37359619140625
4790725000.0 -0.14788818359375 -1.5789794921875
4821946875.0 -1.09063720703125 -1.19781494140625
4853168750.0 -1.62078857421875 -0.249755859375
4884390625.0 -1.38226318359375 0.79876708984375
4915612500.0 -0.61346435546875 1.4188232421875
4946834375.0 0.3323974609375 1.513916015625
4978056250.0 1.2113037109375 1.01959228515625
5009278125.0 1.56793212890625 0.0374755859375
5040500000.0 1.23291015625 -0.8814697265625
5071721875.0 0.50103759765625 -1.4222412109375
5102943750.0 -0.45062255859375 -1.50238037109375
5134165625.0 -1.34210205078125 -0.907470703125
5165387500.0 -1.57415771484375 0.14892578125
5196609375.0 -1.13922119140625 1.015869140625
5227831250.0 -0.35687255859375 1.51312255859375
5259053125.0 0.693359375 1.4971923828125
5290275000.0 1.52935791015625 0.6629638671875
5321496875.0 1.4971923828125 -0.4344482421875
5352718750.0 0.92291259765625 -1.1593017578125
5383940625.0 0.0943603515625 -1.50665283203125
5415162500.0 -0.9061279296875 -1.2877197265625
5446384375.0 -1.490966796875 -0.368896484375
5477606250.0 -1.303955078125 0.5714111328125
5508828125.0 -0.73284912109375 1.15771484375
5540050000.0 0.0557861328125 1.4041748046875
5571271875.0 0.9443359375 1.1121826171875
5602493750.0 1.4139404296875 0.2586669921875
5633715625.0 1.23602294921875 -0.61724853515625
5664937500.0 0.64898681640625 -1.20782470703125
5696159375.0 -0.199462890625 -1.38909912109375
5727381250.0 -1.02764892578125 -0.98077392578125
5758603125.0 -1.39703369140625 -0.14373779296875
5789825000.0 -1.19793701171875 0.72247314453125
5821046875.0 -0.5059814453125 1.31463623046875
5852268750.0 0.41522216796875 1.317138671875
5883490625.0 1.07666015625 0.773681640625
5914712500.0 1.30804443359375 0.0174560546875
5945934375.0 1.09991455078125 -0.78082275390625
5977156250.0 0.3599853515625 -1.318115234375
6008378125.0 -0.51470947265625 -1.18597412109375
6039600000.0 -1.02642822265625 -0.64984130859375
6070821875.0 -1.2291259765625 -0.00189208984375
6102043750.0 -1.08685302734375 0.76788330078125
6133265625.0 -0.340087890625 1.35101318359375
6164487500.0 0.568115234375 1.1907958984375
6195709375.0 1.076171875 0.6304931640625
6226931250.0 1.2847900390625 -0.04486083984375
6258153125.0 1.10736083984375 -0.87640380859375
6289375000.0 0.2540283203125 -1.45294189453125
6320596875.0 -0.694580078125 -1.2088623046875
6351818750.0 -1.20574951171875 -0.57196044921875
6383040625.0 -1.35980224609375 0.2103271484375
6414262500.0 -1.0015869140625 1.0645751953125
6445484375.0 -0.0750732421875 1.4630126953125
6476706250.0 0.801513671875 1.1502685546875
6507928125.0 1.29644775390625 0.46923828125
6539150000.0 1.352294921875 -0.3912353515625
6570371875.0 0.84210205078125 -1.15020751953125
6601593750.0 -0.020751953125 -1.41058349609375
6632815625.0 -0.84552001953125 -1.13897705078125
6664037500.0 -1.40771484375 -0.41925048828125
6695259375.0 -1.37738037109375 0.57025146484375
6726481250.0 -0.71044921875 1.2579345703125
6757703125.0 0.134765625 1.4127197265625
6788925000.0 0.96087646484375 1.13372802734375
6820146875.0 1.56695556640625 0.2852783203125
6851368750.0 1.3292236328125 -0.8272705078125
6882590625.0 0.50567626953125 -1.34527587890625
6913812500.0 -0.29632568359375 -1.36163330078125
6945034375.0 -1.07684326171875 -1.02447509765625
6976256250.0 -1.60107421875 -0.08905029296875
7007478125.0 -1.23980712890625 0.94281005859375
7038700000.0 -0.40020751953125 1.35101318359375
7069921875.0 0.36566162109375 1.330322265625
7101143750.0 1.12713623046875 0.97076416015625
7132365625.0 1.607421875 0.00982666015625
7163587500.0 1.160400390625 -1.02618408203125
7194809375.0 0.300537109375 -1.4041748046875
7226031250.0 -0.51824951171875 -1.3309326171875
7257253125.0 -1.2763671875 -0.82470703125
7288475000.0 -1.565673828125 0.2037353515625
7319696875.0 -1.0321044921875 1.11883544921875
7350918750.0 -0.1617431640625 1.45184326171875
7382140625.0 0.7220458984375 1.28076171875
7413362500.0 1.3851318359375 0.57525634765625
7444584375.0 1.41796875 -0.41241455078125
7475806250.0 0.85906982421875 -1.1531982421875
7507028125.0 0.0008544921875 -1.4388427734375
7538250000.0 -0.89599609375 -1.1278076171875
7569471875.0 -1.34429931640625 -0.30914306640625
7600693750.0 -1.20672607421875 0.50311279296875
7631915625.0 -0.7186279296875 1.0921630859375
7663137500.0 0.08538818359375 1.365478515625
7694359375.0 0.947265625 0.982696533203125
7725581250.0 1.2501220703125 0.17822265625
7756803125.0 1.0875244140625 -0.50323486328125
7788025000.0 0.671142578125 -1.05078125
7819246875.0 -0.1256103515625 -1.35418701171875
7850468750.0 -1.00048828125 -0.91741943359375
7881690625.0 -1.2384033203125 -0.10162353515625
7912912500.0 -1.0599365234375 0.56097412109375
7944134375.0 -0.6063232421875 1.119384765625
7975356250.0 0.27423095703125 1.33990478515625
8006578125.0 1.05487060546875 0.7791748046875
8037800000.0 1.19964599609375 0.01214599609375
8069021875.0 1.01055908203125 -0.62371826171875
8100243750.0 0.49932861328125 -1.16925048828125
8131465625.0 -0.39361572265625 -1.25982666015625
8162687500.0 -1.0401611328125 -0.6865234375
8193909375.0 -1.18670654296875 0.0120849609375
8225131250.0 -1.02099609375 0.68585205078125
8256353125.0 -0.41973876953125 1.2567138671875
8287575000.0 0.50701904296875 1.22991943359375
8318796875.0 1.0892333984375 0.63507080078125
8350018750.0 1.252685546875 -0.08087158203125
8381240625.0 1.0340576171875 -0.84600830078125
8412462500.0 0.2508544921875 -1.3819580078125
8443684375.0 -0.6768798828125 -1.17315673828125
8474906250.0 -1.18218994140625 -0.531494140625
8506128125.0 -1.303955078125 0.24212646484375
8537350000.0 -0.9261474609375 1.05572509765625
8568571875.0 -0.012451171875 1.4014892578125
8599793750.0 0.810546875 1.056884765625
8631015625.0 1.2491455078125 0.39630126953125
8662237500.0 1.290771484375 -0.43646240234375
8693459375.0 0.73651123046875 -1.185791015625
8724681250.0 -0.16827392578125 -1.33819580078125
8755903125.0 -0.8858642578125 -0.9605712890625
8787125000.0 -1.3111572265625 -0.27984619140625
8818346875.0 -1.255859375 0.62261962890625
8849568750.0 -0.5545654296875 1.2679443359375
8880790625.0 0.304443359375 1.29052734375
8912012500.0 0.990692138671875 0.8935546875
8943234375.0 1.40643310546875 0.1256103515625
8974456250.0 1.169921875 -0.84869384765625
9005678125.0 0.34442138671875 -1.321533203125
9036900000.0 -0.4520263671875 -1.22930908203125
9068121875.0 -1.10943603515625 -0.7855224609375
9099343750.0 -1.44744873046875 0.10430908203125
9130565625.0 -0.97967529296875 1.02197265625
9161787500.0 -0.15020751953125 1.289306640625
9193009375.0 0.56085205078125 1.1376953125
9224231250.0 1.18756103515625 0.65460205078125
9255453125.0 1.4049072265625 -0.30157470703125
9286675000.0 0.806640625 -1.0931396484375
9317896875.0 0.0230712890625 -1.2547607421875
9349118750.0 -0.66156005859375 -1.073974609375
9380340625.0 -1.2672119140625 -0.5078125
9411562500.0 -1.31597900390625 0.48455810546875
9442784375.0 -0.64654541015625 1.1246337890625
9474006250.0 0.09368896484375 1.2176513671875
9505228125.0 0.77093505859375 0.98321533203125
9536450000.0 1.28271484375 0.3095703125
9567671875.0 1.14788818359375 -0.58807373046875
9598893750.0 0.5272216796875 -1.07666015625
9630115625.0 -0.1485595703125 -1.16485595703125
9661337500.0 -0.823944091796875 -0.904083251953125
9692559375.0 -1.24639892578125 -0.18585205078125
9723781250.0 -1.045654296875 0.61029052734375
9755003125.0 -0.48406982421875 1.0579833984375
9786225000.0 0.20159912109375 1.16363525390625
9817446875.0 0.90423583984375 0.828033447265625
9848668750.0 1.2030029296875 0.074462890625
9879890625.0 0.970306396484375 -0.62127685546875
9911112500.0 0.45111083984375 -1.05743408203125
9942334375.0 -0.27362060546875 -1.1646728515625
9973556250.0 -0.950286865234375 -0.737152099609375
10004778125.0 -1.15234375 -0.0118408203125
10036000000.0 -0.946075439453125 0.621002197265625
10067221875.0 -0.44024658203125 1.10540771484375
10098443750.0 0.37689208984375 1.18536376953125
10129665625.0 1.01068115234375 0.64239501953125
10160887500.0 1.12548828125 -0.05718994140625
10192109375.0 0.9197998046875 -0.670196533203125
10223331250.0 0.3570556640625 -1.1614990234375
10254553125.0 -0.49237060546875 -1.11688232421875
10285775000.0 -0.992950439453125 -0.533233642578125
10316996875.0 -1.07208251953125 0.080322265625
10348218750.0 -0.902099609375 0.675872802734375
10379440625.0 -0.318603515625 1.1827392578125
10410662500.0 0.5345458984375 1.08905029296875
10441884375.0 0.99853515625 0.519775390625
10473106250.0 1.11376953125 -0.0880126953125
10504328125.0 0.951751708984375 -0.763397216796875
10535550000.0 0.23504638671875 -1.30316162109375
10566771875.0 -0.66650390625 -1.0799560546875
10597993750.0 -1.08587646484375 -0.456787109375
10629215625.0 -1.18084716796875 0.2108154296875
10660437500.0 -0.8878173828125 0.96148681640625
10691659375.0 -0.002685546875 1.3428955078125
10722881250.0 0.791839599609375 0.953643798828125
10754103125.0 1.12603759765625 0.3211669921875
10785325000.0 1.14306640625 -0.37310791015625
10816546875.0 0.6998291015625 -1.05694580078125
10847768750.0 -0.1505126953125 -1.23358154296875
10878990625.0 -0.811859130859375 -0.844146728515625
10910212500.0 -1.12939453125 -0.2418212890625
10941434375.0 -1.10113525390625 0.483154296875
10972656250.0 -0.566650390625 1.09210205078125
11003878125.0 0.2225341796875 1.17767333984375
11035100000.0 0.854644775390625 0.8223876953125
11066321875.0 1.2283935546875 0.16973876953125
11097543750.0 1.1004638671875 -0.68463134765625
11128765625.0 0.382568359375 -1.207275390625
11159987500.0 -0.40185546875 -1.14306640625
11191209375.0 -1.0079345703125 -0.7027587890625
11222431250.0 -1.278564453125 0.0992431640625
11253653125.0 -0.85894775390625 0.903106689453125
11284875000.0 -0.11077880859375 1.1318359375
11316096875.0 0.517669677734375 0.959014892578125
11347318750.0 1.009521484375 0.50030517578125
11378540625.0 1.12103271484375 -0.2757568359375
11409762500.0 0.633697509765625 -0.86517333984375
11440984375.0 0.032623291015625 -0.982757568359375
11472206250.0 -0.48779296875 -0.85302734375
11503428125.0 -0.9586181640625 -0.454559326171875
11534650000.0 -1.072265625 0.295166015625
11565871875.0 -0.601470947265625 0.8602294921875
11597093750.0 -0.01544189453125 0.99615478515625
11628315625.0 0.551483154296875 0.878204345703125
11659537500.0 1.06903076171875 0.388916015625
11690759375.0 1.06768798828125 -0.44024658203125
11721981250.0 0.51580810546875 -0.947845458984375
11753203125.0 -0.10943603515625 -1.04132080078125
11784425000.0 -0.73089599609375 -0.810882568359375
11815646875.0 -1.107177734375 -0.1468505859375
11846868750.0 -0.893035888671875 0.558837890625
11878090625.0 -0.3887939453125 0.915374755859375
11909312500.0 0.19140625 0.988800048828125
11940534375.0 0.788116455078125 0.695465087890625
11971756250.0 1.0296630859375 0.03460693359375
12002978125.0 0.80755615234375 -0.543121337890625
12034200000.0 0.379730224609375 -0.893829345703125
12065421875.0 -0.22149658203125 -1.01470947265625
12096643750.0 -0.856781005859375 -0.664031982421875
12127865625.0 -1.03753662109375 0.02056884765625
12159087500.0 -0.81719970703125 0.582489013671875
12190309375.0 -0.374603271484375 0.983306884765625
12221531250.0 0.34539794921875 1.0926513671875
12252753125.0 0.98846435546875 0.57916259765625
12283975000.0 1.05743408203125 -0.13250732421875
12315196875.0 0.8016357421875 -0.6826171875
12346418750.0 0.27899169921875 -1.098388671875
12377640625.0 -0.5467529296875 -1.062744140625
12408862500.0 -1.04180908203125 -0.41619873046875
12440084375.0 -1.0120849609375 0.2310791015625
12471306250.0 -0.742584228515625 0.74285888671875
12502528125.0 -0.17474365234375 1.12744140625
12533750000.0 0.6282958984375 0.99615478515625
12564971875.0 1.04656982421875 0.361328125
12596193750.0 1.03271484375 -0.27020263671875
12627415625.0 0.748565673828125 -0.835906982421875
12658637500.0 0.07403564453125 -1.21405029296875
12689859375.0 -0.74481201171875 -0.967193603515625
12721081250.0 -1.12420654296875 -0.3026123046875
12752303125.0 -1.10247802734375 0.38897705078125
12783525000.0 -0.6866455078125 1.03466796875
12814746875.0 0.171630859375 1.255859375
12845968750.0 0.871124267578125 0.811187744140625
12877190625.0 1.12384033203125 0.16827392578125
12908412500.0 1.05914306640625 -0.5089111328125
12939634375.0 0.5408935546875 -1.1259765625
12970856250.0 -0.3280029296875 -1.17901611328125
13002078125.0 -0.902008056640625 -0.6922607421875
13033300000.0 -1.11114501953125 -0.0828857421875
13064521875.0 -1.01202392578125 0.6033935546875
13095743750.0 -0.416259765625 1.162841796875
13126965625.0 0.41845703125 1.12347412109375
13158187500.0 0.955291748046875 0.63092041015625
13189409375.0 1.15435791015625 -0.0272216796875
13220631250.0 0.937591552734375 -0.758514404296875
13251853125.0 0.2301025390625 -1.1783447265625
13283075000.0 -0.51654052734375 -1.022216796875
13314296875.0 -0.9970703125 -0.52716064453125
13345518750.0 -1.1407470703125 0.18463134765625
13376740625.0 -0.75213623046875 0.8660888671875
13407962500.0 -0.053466796875 1.07244873046875
