!Created with skrf (http://scikit-rf.org).
# Hz S RI R 50.0 
!freq ReS11 ImS11
45000000.0 -0.07668685913085938 -0.09712982177734375
76221875.0 -0.19673919677734375 -0.048095703125
107443750.0 -0.2559814453125 0.1193389892578125
138665625.0 -0.1492767333984375 0.3289337158203125
169887500.0 0.12249755859375 0.4188385009765625
201109375.0 0.4219512939453125 0.282928466796875
232331250.0 0.58050537109375 -0.055999755859375
263553125.0 0.4920654296875 -0.4525909423828125
294775000.0 0.100830078125 -0.7340087890625
325996875.0 -0.41473388671875 -0.683837890625
357218750.0 -0.80804443359375 -0.3001708984375
388440625.0 -0.8890380859375 0.29901123046875
419662500.0 -0.52093505859375 0.867218017578125
450884375.0 0.17022705078125 1.0321044921875
482106250.0 0.79840087890625 0.71685791015625
513328125.0 1.12188720703125 0.0906982421875
544550000.0 1.0076904296875 -0.67877197265625
575771875.0 0.3406982421875 -1.23968505859375
606993750.0 -0.551513671875 -1.181640625
638215625.0 -1.16680908203125 -0.59521484375
669437500.0 -1.34375 0.230712890625
700659375.0 -0.975830078125 1.095947265625
731881250.0 -0.00860595703125 1.54638671875
763103125.0 1.00421142578125 1.16168212890625
794325000.0 1.471435546875 0.2867431640625
825546875.0 1.3720703125 -0.64923095703125
856768750.0 0.800048828125 -1.40240478515625
887990625.0 -0.2891845703125 -1.65338134765625
919212500.0 -1.28875732421875 -1.0850830078125
950434375.0 -1.6533203125 -0.0635986328125
981656250.0 -1.38873291015625 0.9453125
1012878125.0 -0.53509521484375 1.67572021484375
1044100000.0 0.69476318359375 1.66876220703125
1075321875.0 1.57733154296875 0.81842041015625
1106543750.0 1.710205078125 -0.30926513671875
1137765625.0 1.1934814453125 -1.28466796875
1168987500.0 0.14324951171875 -1.8018798828125
1200209375.0 -1.0614013671875 -1.49102783203125
1231431250.0 -1.73114013671875 -0.458984375
1262653125.0 -1.599853515625 0.68231201171875
1293875000.0 -0.8580322265625 1.49285888671875
1325096875.0 0.22412109375 1.7122802734375
1356318750.0 1.23516845703125 1.223388671875
1387540625.0 1.74395751953125 0.1942138671875
1418762500.0 1.475830078125 -0.95025634765625
1449984375.0 0.5350341796875 -1.62841796875
1481206250.0 -0.54742431640625 -1.561767578125
1512428125.0 -1.34320068359375 -0.92510986328125
1543650000.0 -1.659912109375 0.06201171875
1574871875.0 -1.2789306640625 1.10833740234375
1606093750.0 -0.27764892578125 1.6343994140625
1637315625.0 0.74041748046875 1.40570068359375
1668537500.0 1.39813232421875 0.7005615234375
1699759375.0 1.57781982421875 -0.27392578125
1730981250.0 1.0694580078125 -1.229248046875
1762203125.0 0.04620361328125 -1.57391357421875
1793425000.0 -0.85467529296875 -1.23138427734375
1824646875.0 -1.39501953125 -0.51971435546875
1855868750.0 -1.47869873046875 0.4298095703125
1887090625.0 -0.8802490234375 1.2864990234375
1918312500.0 0.1141357421875 1.49078369140625
1949534375.0 0.921142578125 1.09368896484375
1980756250.0 1.3773193359375 0.37420654296875
2011978125.0 1.3638916015625 -0.5299072265625
2043200000.0 0.75482177734375 -1.2623291015625
2074421875.0 -0.15386962890625 -1.43695068359375
2105643750.0 -0.95953369140625 -1.07696533203125
2136865625.0 -1.4501953125 -0.30780029296875
2168087500.0 -1.36151123046875 0.66937255859375
2199309375.0 -0.64337158203125 1.35321044921875
2230531250.0 0.27947998046875 1.4403076171875
2261753125.0 1.07318115234375 1.01824951171875
2292975000.0 1.517333984375 0.173583984375
2324196875.0 1.31005859375 -0.81756591796875
2355418750.0 0.5291748046875 -1.42236328125
2386640625.0 -0.40234375 -1.452880859375
2417862500.0 -1.18267822265625 -1.0284423828125
2449084375.0 -1.60845947265625 -0.08782958984375
2480306250.0 -1.31671142578125 0.92535400390625
2511528125.0 -0.49847412109375 1.51019287109375
2542750000.0 0.486083984375 1.5408935546875
2573971875.0 1.3717041015625 0.97314453125
2605193750.0 1.72186279296875 -0.109619140625
2636415625.0 1.266845703125 -1.15283203125
2667637500.0 0.31060791015625 -1.67059326171875
2698859375.0 -0.7686767578125 -1.53948974609375
2730081250.0 -1.57666015625 -0.744873046875
2761303125.0 -1.6861572265625 0.3861083984375
2792525000.0 -1.10528564453125 1.30810546875
2823746875.0 -0.1063232421875 1.73382568359375
2854968750.0 1.0120849609375 1.4619140625
2886190625.0 1.695068359375 0.4962158203125
2917412500.0 1.60546875 -0.61627197265625
2948634375.0 0.94464111328125 -1.43450927734375
2979856250.0 -0.1058349609375 -1.7813720703125
3011078125.0 -1.24951171875 -1.34814453125
3042300000.0 -1.779052734375 -0.2381591796875
3073521875.0 -1.51385498046875 0.83740234375
3104743750.0 -0.76776123046875 1.57080078125
3135965625.0 0.35955810546875 1.8145751953125
3167187500.0 1.50042724609375 1.17010498046875
3198409375.0 1.8203125 -0.07183837890625
3229631250.0 1.35394287109375 -1.08099365234375
3260853125.0 0.49371337890625 -1.67205810546875
3292075000.0 -0.653076171875 -1.7030029296875
3323296875.0 -1.62109375 -0.88507080078125
3354518750.0 -1.7357177734375 0.3272705078125
3385740625.0 -1.1605224609375 1.2332763671875
3416962500.0 -0.23504638671875 1.6851806640625
3448184375.0 0.85980224609375 1.5269775390625
3479406250.0 1.6385498046875 0.64886474609375
3510628125.0 1.64874267578125 -0.49371337890625
3541850000.0 1.00518798828125 -1.3558349609375
3573071875.0 -0.0047607421875 -1.68597412109375
3604293750.0 -1.02813720703125 -1.341796875
3635515625.0 -1.6300048828125 -0.442626953125
3666737500.0 -1.56622314453125 0.6456298828125
3697959375.0 -0.82904052734375 1.47833251953125
3729181250.0 0.26690673828125 1.63555908203125
3760403125.0 1.1524658203125 1.10247802734375
3791625000.0 1.5556640625 0.2218017578125
3822846875.0 1.40625 -0.7593994140625
3854068750.0 0.62518310546875 -1.48468017578125
3885290625.0 -0.41888427734375 -1.48516845703125
3916512500.0 -1.14306640625 -0.91510009765625
3947734375.0 -1.45074462890625 -0.12255859375
3978956250.0 -1.30224609375 0.77972412109375
4010178125.0 -0.53411865234375 1.45819091796875
4041400000.0 0.4722900390625 1.4189453125
4072621875.0 1.152587890625 0.85089111328125
4103843750.0 1.44793701171875 0.0648193359375
4135065625.0 1.27142333984375 -0.8463134765625
4166287500.0 0.46075439453125 -1.49884033203125
4197509375.0 -0.5576171875 -1.41839599609375
4228731250.0 -1.24896240234375 -0.80511474609375
4259953125.0 -1.51202392578125 0.068603515625
4291175000.0 -1.1929931640625 1.01104736328125
4322396875.0 -0.2921142578125 1.5294189453125
4353618750.0 0.67242431640625 1.3541259765625
4384840625.0 1.32476806640625 0.70037841796875
4416062500.0 1.50482177734375 -0.2257080078125
4447284375.0 1.05889892578125 -1.10614013671875
4478506250.0 0.17413330078125 -1.4989013671875
4509728125.0 -0.73211669921875 -1.31134033203125
4540950000.0 -1.39691162109375 -0.638427734375
4572171875.0 -1.5267333984375 0.36041259765625
4603393750.0 -0.9757080078125 1.213623046875
4634615625.0 -0.0628662109375 1.53973388671875
4665837500.0 0.87164306640625 1.3084716796875
4697059375.0 1.544189453125 0.5184326171875
4728281250.0 1.53338623046875 -0.582763671875
4759503125.0 0.82611083984375 -1.36883544921875
4790725000.0 -0.14422607421875 -1.57598876953125
4821946875.0 -1.084716796875 -1.19769287109375
4853168750.0 -1.61737060546875 -0.25311279296875
4884390625.0 -1.3817138671875 0.79296875
4915612500.0 -0.615966796875 1.41522216796875
4946834375.0 0.3287353515625 1.51348876953125
4978056250.0 1.20587158203125 1.020751953125
5009278125.0 1.56536865234375 0.041748046875
5040500000.0 1.23309326171875 -0.87603759765625
5071721875.0 0.50439453125 -1.41717529296875
5102943750.0 -0.44671630859375 -1.50091552734375
5134165625.0 -1.3389892578125 -0.90863037109375
5165387500.0 -1.57177734375 0.1455078125
5196609375.0 -1.13909912109375 1.0096435546875
5227831250.0 -0.35943603515625 1.50860595703125
5259053125.0 0.6885986328125 1.49627685546875
5290275000.0 1.52508544921875 0.66497802734375
5321496875.0 1.49481201171875 -0.4300537109375
5352718750.0 0.92388916015625 -1.15435791015625
5383940625.0 0.098388671875 -1.50390625
5415162500.0 -0.90069580078125 -1.28704833984375
5446384375.0 -1.48748779296875 -0.37237548828125
5477606250.0 -1.30242919921875 0.56597900390625
5508828125.0 -0.734375 1.1522216796875
5540050000.0 0.05316162109375 1.40325927734375
5571271875.0 0.93975830078125 1.1119384765625
5602493750.0 1.4117431640625 0.26220703125
5633715625.0 1.23602294921875 -0.6141357421875
5664937500.0 0.64996337890625 -1.20416259765625
5696159375.0 -0.19610595703125 -1.3865966796875
5727381250.0 -1.0240478515625 -0.98077392578125
5758603125.0 -1.39422607421875 -0.14617919921875
5789825000.0 -1.19732666015625 0.71826171875
5821046875.0 -0.50836181640625 1.30889892578125
5852268750.0 0.41180419921875 1.3154296875
5883490625.0 1.07269287109375 0.77447509765625
5914712500.0 1.3056640625 0.020751953125
5945934375.0 1.09918212890625 -0.7767333984375
5977156250.0 0.36212158203125 -1.31646728515625
6008378125.0 -0.50994873046875 -1.18499755859375
6039600000.0 -1.02392578125 -0.65087890625
6070821875.0 -1.2264404296875 -0.005859375
6102043750.0 -1.08685302734375 0.7646484375
6133265625.0 -0.34344482421875 1.3466796875
6164487500.0 0.56378173828125 1.18975830078125
6195709375.0 1.07244873046875 0.63201904296875
6226931250.0 1.28363037109375 -0.04278564453125
6258153125.0 1.10748291015625 -0.8736572265625
6289375000.0 0.25616455078125 -1.45025634765625
6320596875.0 -0.6900634765625 -1.2078857421875
6351818750.0 -1.201904296875 -0.57342529296875
6383040625.0 -1.357177734375 0.20721435546875
6414262500.0 -1.00189208984375 1.0596923828125
6445484375.0 -0.07830810546875 1.46038818359375
6476706250.0 0.7962646484375 1.14990234375
6507928125.0 1.29351806640625 0.4713134765625
6539150000.0 1.35028076171875 -0.3863525390625
6570371875.0 0.84295654296875 -1.146728515625
6601593750.0 -0.0162353515625 -1.40771484375
6632815625.0 -0.8411865234375 -1.139404296875
6664037500.0 -1.4041748046875 -0.42144775390625
6695259375.0 -1.376953125 0.56719970703125
6726481250.0 -0.7119140625 1.25360107421875
6757703125.0 0.13037109375 1.4100341796875
6788925000.0 0.95770263671875 1.134033203125
6820146875.0 1.564453125 0.28765869140625
6851368750.0 1.32855224609375 -0.82220458984375
6882590625.0 0.50775146484375 -1.34100341796875
6913812500.0 -0.29168701171875 -1.3587646484375
6945034375.0 -1.07147216796875 -1.02398681640625
6976256250.0 -1.5958251953125 -0.09368896484375
7007478125.0 -1.2401123046875 0.9351806640625
7038700000.0 -0.4031982421875 1.3470458984375
7069921875.0 0.3585205078125 1.32763671875
7101143750.0 1.12274169921875 0.97161865234375
7132365625.0 1.60491943359375 0.01458740234375
7163587500.0 1.16058349609375 -1.0234375
7194809375.0 0.30426025390625 -1.40069580078125
7226031250.0 -0.511474609375 -1.32977294921875
7257253125.0 -1.2713623046875 -0.826171875
7288475000.0 -1.5625 0.2001953125
7319696875.0 -1.03228759765625 1.112548828125
7350918750.0 -0.16510009765625 1.44891357421875
7382140625.0 0.71795654296875 1.28082275390625
7413362500.0 1.37969970703125 0.578125
7444584375.0 1.41400146484375 -0.4073486328125
7475806250.0 0.8602294921875 -1.14453125
7507028125.0 0.00701904296875 -1.43255615234375
7538250000.0 -0.88800048828125 -1.12640380859375
7569471875.0 -1.3399658203125 -0.31103515625
7600693750.0 -1.20526123046875 0.4981689453125
7631915625.0 -0.7205810546875 1.0872802734375
7663137500.0 0.07965087890625 1.36309814453125
7694359375.0 0.94244384765625 0.983062744140625
7725581250.0 1.24713134765625 0.18218994140625
7756803125.0 1.0865478515625 -0.5006103515625
7788025000.0 0.67242431640625 -1.048828125
7819246875.0 -0.12176513671875 -1.35113525390625
7850468750.0 -0.994873046875 -0.9189453125
7881690625.0 -1.23541259765625 -0.10498046875
7912912500.0 -1.0574951171875 0.555419921875
7944134375.0 -0.6068115234375 1.11639404296875
7975356250.0 0.273681640625 1.33819580078125
8006578125.0 1.04974365234375 0.779541015625
8037800000.0 1.1961669921875 0.01727294921875
8069021875.0 1.0096435546875 -0.61883544921875
8100243750.0 0.5008544921875 -1.16552734375
8131465625.0 -0.38897705078125 -1.257080078125
8162687500.0 -1.0340576171875 -0.68798828125
8193909375.0 -1.1846923828125 0.0079345703125
8225131250.0 -1.02099609375 0.6798095703125
8256353125.0 -0.4215087890625 1.25335693359375
8287575000.0 0.50091552734375 1.228271484375
8318796875.0 1.0882568359375 0.63714599609375
8350018750.0 1.24981689453125 -0.07586669921875
8381240625.0 1.0341796875 -0.841796875
8412462500.0 0.25445556640625 -1.3773193359375
8443684375.0 -0.67059326171875 -1.1715087890625
8474906250.0 -1.17913818359375 -0.53265380859375
8506128125.0 -1.302001953125 0.2388916015625
8537350000.0 -0.926025390625 1.05096435546875
8568571875.0 -0.01593017578125 1.3978271484375
8599793750.0 0.8045654296875 1.05450439453125
8631015625.0 1.24700927734375 0.3997802734375
8662237500.0 1.28924560546875 -0.4298095703125
8693459375.0 0.73876953125 -1.1798095703125
8724681250.0 -0.16265869140625 -1.33538818359375
8755903125.0 -0.88043212890625 -0.960418701171875
8787125000.0 -1.30780029296875 -0.28399658203125
8818346875.0 -1.2548828125 0.61883544921875
8849568750.0 -0.5574951171875 1.265625
8880790625.0 0.3006591796875 1.29046630859375
8912012500.0 0.984832763671875 0.8963623046875
8943234375.0 1.40557861328125 0.12677001953125
8974456250.0 1.16943359375 -0.8453369140625
9005678125.0 0.3480224609375 -1.31549072265625
9036900000.0 -0.44744873046875 -1.22845458984375
9068121875.0 -1.10498046875 -0.786376953125
9099343750.0 -1.444580078125 0.09967041015625
9130565625.0 -0.98052978515625 1.01409912109375
9161787500.0 -0.1546630859375 1.28521728515625
9193009375.0 0.5565185546875 1.1363525390625
9224231250.0 1.18267822265625 0.65716552734375
9255453125.0 1.4034423828125 -0.29742431640625
9286675000.0 0.8094482421875 -1.090087890625
9317896875.0 0.0267333984375 -1.24993896484375
9349118750.0 -0.65673828125 -1.07293701171875
9380340625.0 -1.26348876953125 -0.51019287109375
9411562500.0 -1.3148193359375 0.47930908203125
9442784375.0 -0.6485595703125 1.1214599609375
9474006250.0 0.09149169921875 1.2156982421875
9505228125.0 0.769073486328125 0.982666015625
9536450000.0 1.27880859375 0.31219482421875
9567671875.0 1.1474609375 -0.58404541015625
9598893750.0 0.52874755859375 -1.0733642578125
9630115625.0 -0.1448974609375 -1.16119384765625
9661337500.0 -0.82330322265625 -0.904022216796875
9692559375.0 -1.24249267578125 -0.1883544921875
9723781250.0 -1.044677734375 0.6053466796875
9755003125.0 -0.48651123046875 1.0545654296875
9786225000.0 0.19769287109375 1.163330078125
9817446875.0 0.898681640625 0.8289794921875
9848668750.0 1.20184326171875 0.077392578125
9879890625.0 0.970977783203125 -0.619171142578125
9911112500.0 0.453125 -1.05596923828125
9942334375.0 -0.27081298828125 -1.1639404296875
9973556250.0 -0.94940185546875 -0.738800048828125
10004778125.0 -1.15008544921875 -0.01617431640625
10036000000.0 -0.946624755859375 0.61920166015625
10067221875.0 -0.44085693359375 1.1004638671875
10098443750.0 0.373046875 1.182861328125
10129665625.0 1.00616455078125 0.642333984375
10160887500.0 1.12310791015625 -0.05419921875
10192109375.0 0.91864013671875 -0.665069580078125
10223331250.0 0.3604736328125 -1.15618896484375
10254553125.0 -0.489501953125 -1.11614990234375
10285775000.0 -0.987548828125 -0.5352783203125
10316996875.0 -1.06927490234375 0.0782470703125
10348218750.0 -0.902587890625 0.672271728515625
10379440625.0 -0.32159423828125 1.179931640625
10410662500.0 0.529541015625 1.087646484375
10441884375.0 0.993865966796875 0.522308349609375
10473106250.0 1.11309814453125 -0.08587646484375
10504328125.0 0.951812744140625 -0.760467529296875
10535550000.0 0.23724365234375 -1.30072021484375
10566771875.0 -0.6610107421875 -1.0789794921875
10597993750.0 -1.0845947265625 -0.45806884765625
10629215625.0 -1.178466796875 0.20672607421875
10660437500.0 -0.888519287109375 0.9569091796875
10691659375.0 -0.00732421875 1.33880615234375
10722881250.0 0.78692626953125 0.953094482421875
10754103125.0 1.121826171875 0.32489013671875
10785325000.0 1.1414794921875 -0.36810302734375
10816546875.0 0.70184326171875 -1.0528564453125
10847768750.0 -0.14837646484375 -1.232421875
10878990625.0 -0.806488037109375 -0.84478759765625
10910212500.0 -1.12591552734375 -0.243408203125
10941434375.0 -1.09942626953125 0.47833251953125
10972656250.0 -0.5689697265625 1.08953857421875
11003878125.0 0.21807861328125 1.17803955078125
11035100000.0 0.85089111328125 0.823822021484375
11066321875.0 1.22613525390625 0.17303466796875
11097543750.0 1.10089111328125 -0.67987060546875
11128765625.0 0.3846435546875 -1.203857421875
11159987500.0 -0.39813232421875 -1.14190673828125
11191209375.0 -1.0048828125 -0.70263671875
11222431250.0 -1.27679443359375 0.096923828125
11253653125.0 -0.8602294921875 0.897552490234375
11284875000.0 -0.11383056640625 1.13067626953125
11316096875.0 0.514556884765625 0.958404541015625
11347318750.0 1.0078125 0.5020751953125
11378540625.0 1.12005615234375 -0.27191162109375
11409762500.0 0.634063720703125 -0.863494873046875
11440984375.0 0.03314208984375 -0.982177734375
11472206250.0 -0.48419189453125 -0.853057861328125
11503428125.0 -0.956756591796875 -0.45684814453125
11534650000.0 -1.0718994140625 0.29327392578125
11565871875.0 -0.6025390625 0.85693359375
11597093750.0 -0.01763916015625 0.993988037109375
11628315625.0 0.547515869140625 0.87811279296875
11659537500.0 1.06500244140625 0.3912353515625
11690759375.0 1.06744384765625 -0.43646240234375
11721981250.0 0.516326904296875 -0.94451904296875
11753203125.0 -0.10693359375 -1.03857421875
11784425000.0 -0.7294921875 -0.810699462890625
11815646875.0 -1.1043701171875 -0.14886474609375
11846868750.0 -0.892669677734375 0.554412841796875
11878090625.0 -0.3897705078125 0.912811279296875
11909312500.0 0.18792724609375 0.9864501953125
11940534375.0 0.784393310546875 0.696075439453125
11971756250.0 1.0277099609375 0.037353515625
12002978125.0 0.807403564453125 -0.541290283203125
12034200000.0 0.382110595703125 -0.892364501953125
12065421875.0 -0.21826171875 -1.01263427734375
12096643750.0 -0.851470947265625 -0.66485595703125
12127865625.0 -1.03741455078125 0.019287109375
12159087500.0 -0.81622314453125 0.577117919921875
12190309375.0 -0.3768310546875 0.979156494140625
12221531250.0 0.34344482421875 1.0904541015625
12252753125.0 0.982940673828125 0.579864501953125
12283975000.0 1.05596923828125 -0.12823486328125
12315196875.0 0.801055908203125 -0.678314208984375
12346418750.0 0.2803955078125 -1.094970703125
12377640625.0 -0.54266357421875 -1.06280517578125
12408862500.0 -1.0377197265625 -0.4173583984375
12440084375.0 -1.010009765625 0.22625732421875
12471306250.0 -0.742889404296875 0.740020751953125
12502528125.0 -0.1788330078125 1.12451171875
12533750000.0 0.625274658203125 0.995635986328125
12564971875.0 1.04461669921875 0.36309814453125
12596193750.0 1.03363037109375 -0.2677001953125
12627415625.0 0.749603271484375 -0.83160400390625
12658637500.0 0.0772705078125 -1.21148681640625
12689859375.0 -0.739471435546875 -0.96697998046875
12721081250.0 -1.1207275390625 -0.30474853515625
12752303125.0 -1.10064697265625 0.384765625
12783525000.0 -0.6871337890625 1.03192138671875
12814746875.0 0.1690673828125 1.2530517578125
12845968750.0 0.86663818359375 0.811676025390625
12877190625.0 1.1217041015625 0.1702880859375
12908412500.0 1.0584716796875 -0.5068359375
12939634375.0 0.54180908203125 -1.12091064453125
12970856250.0 -0.32366943359375 -1.1771240234375
13002078125.0 -0.89892578125 -0.69293212890625
13033300000.0 -1.10919189453125 -0.08502197265625
13064521875.0 -1.011474609375 0.59771728515625
13095743750.0 -0.4176025390625 1.16033935546875
13126965625.0 0.41339111328125 1.122802734375
13158187500.0 0.951568603515625 0.63153076171875
13189409375.0 1.15338134765625 -0.02423095703125
13220631250.0 0.9375 -0.752410888671875
13251853125.0 0.23193359375 -1.17572021484375
13283075000.0 -0.51324462890625 -1.02203369140625
13314296875.0 -0.993011474609375 -0.52801513671875
13345518750.0 -1.13848876953125 0.1806640625
13376740625.0 -0.7525634765625 0.862335205078125
