!Created with skrf (http://scikit-rf.org).
# Hz S RI R 50.0 
!freq ReS11 ImS11
45000000.0 -0.07704544067382812 -0.09687042236328125
76221875.0 -0.19622802734375 -0.047607421875
107443750.0 -0.2546539306640625 0.1196441650390625
138665625.0 -0.14801025390625 0.3282928466796875
169887500.0 0.1235809326171875 0.4170074462890625
201109375.0 0.421600341796875 0.280609130859375
232331250.0 0.5784912109375 -0.05755615234375
263553125.0 0.4890899658203125 -0.452545166015625
294775000.0 0.0985107421875 -0.73175048828125
325996875.0 -0.415069580078125 -0.679779052734375
357218750.0 -0.805511474609375 -0.296661376953125
388440625.0 -0.884674072265625 0.30023193359375
419662500.0 -0.516845703125 0.865081787109375
450884375.0 0.17291259765625 1.02764892578125
482106250.0 0.7974853515625 0.71197509765625
513328125.0 1.1181640625 0.087158203125
544550000.0 1.00262451171875 -0.67926025390625
575771875.0 0.3363037109375 -1.2373046875
606993750.0 -0.55316162109375 -1.1761474609375
638215625.0 -1.16455078125 -0.58966064453125
669437500.0 -1.3382568359375 0.2337646484375
700659375.0 -0.9696044921875 1.09527587890625
731881250.0 -0.00341796875 1.541259765625
763103125.0 1.00457763671875 1.15435791015625
794325000.0 1.4669189453125 0.281494140625
825546875.0 1.36590576171875 -0.6507568359375
856768750.0 0.7938232421875 -1.39862060546875
887990625.0 -0.29205322265625 -1.6461181640625
919212500.0 -1.28619384765625 -1.07708740234375
950434375.0 -1.64630126953125 -0.058837890625
981656250.0 -1.38018798828125 0.944091796875
1012878125.0 -0.529296875 1.6688232421875
1044100000.0 0.69573974609375 1.65911865234375
1075321875.0 1.57220458984375 0.81072998046875
1106543750.0 1.702392578125 -0.31268310546875
1137765625.0 1.18524169921875 -1.28253173828125
1168987500.0 0.13800048828125 -1.7939453125
1200209375.0 -1.05975341796875 -1.48114013671875
1231431250.0 -1.7239990234375 -0.4530029296875
1262653125.0 -1.591796875 0.68280029296875
1293875000.0 -0.85064697265625 1.48907470703125
1325096875.0 0.22796630859375 1.70404052734375
1356318750.0 1.23309326171875 1.21478271484375
1387540625.0 1.7371826171875 0.1884765625
1418762500.0 1.467041015625 -0.950439453125
1449984375.0 0.5284423828125 -1.623291015625
1481206250.0 -0.54888916015625 -1.553466796875
1512428125.0 -1.339599609375 -0.91827392578125
1543650000.0 -1.65277099609375 0.06536865234375
1574871875.0 -1.27154541015625 1.10699462890625
1606093750.0 -0.2724609375 1.62896728515625
1637315625.0 0.7413330078125 1.3983154296875
1668537500.0 1.39337158203125 0.6949462890625
1699759375.0 1.57061767578125 -0.27667236328125
1730981250.0 1.0626220703125 -1.227783203125
1762203125.0 0.0419921875 -1.56829833984375
1793425000.0 -0.85406494140625 -1.22412109375
1824646875.0 -1.39166259765625 -0.51434326171875
1855868750.0 -1.47149658203125 0.4317626953125
1887090625.0 -0.8736572265625 1.283203125
1918312500.0 0.116943359375 1.48480224609375
1949534375.0 0.9200439453125 1.08746337890625
1980756250.0 1.372802734375 0.36962890625
2011978125.0 1.35760498046875 -0.5306396484375
2043200000.0 0.7491455078125 -1.25994873046875
2074421875.0 -0.156494140625 -1.431396484375
2105643750.0 -0.95880126953125 -1.0703125
2136865625.0 -1.44512939453125 -0.30450439453125
2168087500.0 -1.35528564453125 0.669921875
2199309375.0 -0.63812255859375 1.3492431640625
2230531250.0 0.2816162109375 1.43402099609375
2261753125.0 1.07073974609375 1.0126953125
2292975000.0 1.51220703125 0.1700439453125
2324196875.0 1.30364990234375 -0.8175048828125
2355418750.0 0.52447509765625 -1.4180908203125
2386640625.0 -0.40362548828125 -1.44683837890625
2417862500.0 -1.17803955078125 -1.02264404296875
2449084375.0 -1.601806640625 -0.084228515625
2480306250.0 -1.30914306640625 0.92327880859375
2511528125.0 -0.49365234375 1.50433349609375
2542750000.0 0.48687744140625 1.5333251953125
2573971875.0 1.3680419921875 0.96588134765625
2605193750.0 1.71307373046875 -0.1114501953125
2636415625.0 1.2591552734375 -1.15069580078125
2667637500.0 0.3060302734375 -1.66375732421875
2698859375.0 -0.76824951171875 -1.5316162109375
2730081250.0 -1.57012939453125 -0.7391357421875
2761303125.0 -1.67816162109375 0.38775634765625
2792525000.0 -1.09716796875 1.30450439453125
2823746875.0 -0.101806640625 1.72625732421875
2854968750.0 1.00933837890625 1.45263671875
2886190625.0 1.6878662109375 0.49127197265625
2917412500.0 1.59649658203125 -0.61627197265625
2948634375.0 0.93768310546875 -1.430419921875
2979856250.0 -0.10784912109375 -1.77294921875
3011078125.0 -1.24365234375 -1.3397216796875
3042300000.0 -1.770751953125 -0.2349853515625
3073521875.0 -1.5052490234375 0.83563232421875
3104743750.0 -0.761474609375 1.56414794921875
3135965625.0 0.36016845703125 1.80517578125
3167187500.0 1.49456787109375 1.16156005859375
3198409375.0 1.8114013671875 -0.07379150390625
3229631250.0 1.34625244140625 -1.0775146484375
3260853125.0 0.48907470703125 -1.664794921875
3292075000.0 -0.65447998046875 -1.6947021484375
3323296875.0 -1.61480712890625 -0.878173828125
3354518750.0 -1.72674560546875 0.32696533203125
3385740625.0 -1.1536865234375 1.22930908203125
3416962500.0 -0.23162841796875 1.67816162109375
3448184375.0 0.85845947265625 1.5186767578125
3479406250.0 1.63323974609375 0.64300537109375
3510628125.0 1.64044189453125 -0.49322509765625
3541850000.0 0.99859619140625 -1.353271484375
3573071875.0 -0.00732421875 -1.67901611328125
3604293750.0 -1.02508544921875 -1.33502197265625
3635515625.0 -1.62322998046875 -0.438232421875
3666737500.0 -1.55828857421875 0.6439208984375
3697959375.0 -0.8233642578125 1.472412109375
3729181250.0 0.26763916015625 1.62774658203125
3760403125.0 1.15057373046875 1.09649658203125
3791625000.0 1.54913330078125 0.21856689453125
3822846875.0 1.3995361328125 -0.76007080078125
3854068750.0 0.61944580078125 -1.4783935546875
3885290625.0 -0.419677734375 -1.47772216796875
3916512500.0 -1.140380859375 -0.90972900390625
3947734375.0 -1.44403076171875 -0.11981201171875
3978956250.0 -1.29522705078125 0.776123046875
4010178125.0 -0.53076171875 1.45123291015625
4041400000.0 0.4716796875 1.4129638671875
4072621875.0 1.14898681640625 0.8468017578125
4103843750.0 1.44140625 0.064208984375
4135065625.0 1.26513671875 -0.8426513671875
4166287500.0 0.45794677734375 -1.4915771484375
4197509375.0 -0.55499267578125 -1.41241455078125
4228731250.0 -1.245849609375 -0.80169677734375
4259953125.0 -1.50616455078125 0.0693359375
4291175000.0 -1.18658447265625 1.00750732421875
4322396875.0 -0.28936767578125 1.52374267578125
4353618750.0 0.67205810546875 1.34771728515625
4384840625.0 1.3187255859375 0.69671630859375
4416062500.0 1.49786376953125 -0.22601318359375
4447284375.0 1.05377197265625 -1.1021728515625
4478506250.0 0.17279052734375 -1.4923095703125
4509728125.0 -0.73101806640625 -1.3048095703125
4540950000.0 -1.39019775390625 -0.63555908203125
4572171875.0 -1.520263671875 0.3597412109375
4603393750.0 -0.97088623046875 1.209716796875
4634615625.0 -0.06182861328125 1.53399658203125
4665837500.0 0.86810302734375 1.3026123046875
4697059375.0 1.5386962890625 0.51446533203125
4728281250.0 1.52593994140625 -0.57989501953125
4759503125.0 0.822509765625 -1.363525390625
4790725000.0 -0.146484375 -1.57086181640625
4821946875.0 -1.0814208984375 -1.1922607421875
4853168750.0 -1.6099853515625 -0.25189208984375
4884390625.0 -1.376220703125 0.791259765625
4915612500.0 -0.6131591796875 1.40985107421875
4946834375.0 0.3272705078125 1.50677490234375
4978056250.0 1.203369140625 1.01593017578125
5009278125.0 1.558349609375 0.0401611328125
5040500000.0 1.22735595703125 -0.8751220703125
5071721875.0 0.5009765625 -1.41204833984375
5102943750.0 -0.4447021484375 -1.4935302734375
5134165625.0 -1.3333740234375 -0.90460205078125
5165387500.0 -1.5657958984375 0.1461181640625
5196609375.0 -1.1343994140625 1.00738525390625
5227831250.0 -0.3575439453125 1.50341796875
5259053125.0 0.6868896484375 1.49041748046875
5290275000.0 1.5198974609375 0.6619873046875
5321496875.0 1.48968505859375 -0.4293212890625
5352718750.0 0.920166015625 -1.151123046875
5383940625.0 0.0972900390625 -1.49713134765625
5415162500.0 -0.897705078125 -1.28204345703125
5446384375.0 -1.4808349609375 -0.3707275390625
5477606250.0 -1.2969970703125 0.565185546875
5508828125.0 -0.7308349609375 1.14862060546875
5540050000.0 0.05303955078125 1.3951416015625
5571271875.0 0.93597412109375 1.10711669921875
5602493750.0 1.406494140625 0.260009765625
5633715625.0 1.2303466796875 -0.61114501953125
5664937500.0 0.64764404296875 -1.19891357421875
5696159375.0 -0.19549560546875 -1.38153076171875
5727381250.0 -1.02001953125 -0.9774169921875
5758603125.0 -1.38836669921875 -0.14599609375
5789825000.0 -1.1927490234375 0.7158203125
5821046875.0 -0.5059814453125 1.30426025390625
5852268750.0 0.410400390625 1.31109619140625
5883490625.0 1.06829833984375 0.7713623046875
5914712500.0 1.3016357421875 0.019775390625
5945934375.0 1.094970703125 -0.77398681640625
5977156250.0 0.36114501953125 -1.31097412109375
6008378125.0 -0.50830078125 -1.1806640625
6039600000.0 -1.020751953125 -0.6483154296875
6070821875.0 -1.221923828125 -0.00518798828125
6102043750.0 -1.0823974609375 0.76141357421875
6133265625.0 -0.34197998046875 1.34210205078125
6164487500.0 0.56195068359375 1.1856689453125
6195709375.0 1.0693359375 0.6300048828125
6226931250.0 1.27716064453125 -0.0418701171875
6258153125.0 1.10321044921875 -0.8699951171875
6289375000.0 0.25665283203125 -1.4437255859375
6320596875.0 -0.68841552734375 -1.2047119140625
6351818750.0 -1.1973876953125 -0.57183837890625
6383040625.0 -1.3529052734375 0.2064208984375
6414262500.0 -0.99920654296875 1.05584716796875
6445484375.0 -0.07916259765625 1.45501708984375
6476706250.0 0.7938232421875 1.14703369140625
6507928125.0 1.28839111328125 0.4697265625
6539150000.0 1.3455810546875 -0.3858642578125
6570371875.0 0.84027099609375 -1.1414794921875
6601593750.0 -0.015625 -1.40228271484375
6632815625.0 -0.837890625 -1.135009765625
6664037500.0 -1.3992919921875 -0.41973876953125
6695259375.0 -1.37188720703125 0.56427001953125
6726481250.0 -0.70989990234375 1.24884033203125
6757703125.0 0.129638671875 1.405029296875
6788925000.0 0.95294189453125 1.12957763671875
6820146875.0 1.5576171875 0.28814697265625
6851368750.0 1.324462890625 -0.8182373046875
6882590625.0 0.50567626953125 -1.33642578125
6913812500.0 -0.29107666015625 -1.3543701171875
6945034375.0 -1.0675048828125 -1.021240234375
6976256250.0 -1.58978271484375 -0.093994140625
7007478125.0 -1.23480224609375 0.93115234375
7038700000.0 -0.40228271484375 1.34210205078125
7069921875.0 0.35711669921875 1.32196044921875
7101143750.0 1.11627197265625 0.9677734375
7132365625.0 1.59661865234375 0.01556396484375
7163587500.0 1.15643310546875 -1.01837158203125
7194809375.0 0.3017578125 -1.39544677734375
7226031250.0 -0.51019287109375 -1.3245849609375
7257253125.0 -1.26422119140625 -0.82379150390625
7288475000.0 -1.5560302734375 0.19866943359375
7319696875.0 -1.02899169921875 1.1090087890625
7350918750.0 -0.16363525390625 1.44287109375
7382140625.0 0.7137451171875 1.27471923828125
7413362500.0 1.3734130859375 0.57672119140625
7444584375.0 1.41021728515625 -0.406005859375
7475806250.0 0.8572998046875 -1.14105224609375
7507028125.0 0.00634765625 -1.4261474609375
7538250000.0 -0.8851318359375 -1.1224365234375
7569471875.0 -1.3338623046875 -0.31170654296875
7600693750.0 -1.20050048828125 0.49578857421875
7631915625.0 -0.716796875 1.083740234375
7663137500.0 0.080078125 1.35626220703125
7694359375.0 0.939697265625 0.98016357421875
7725581250.0 1.24212646484375 0.18133544921875
7756803125.0 1.0816650390625 -0.49853515625
7788025000.0 0.66961669921875 -1.0438232421875
7819246875.0 -0.119384765625 -1.3458251953125
7850468750.0 -0.9901123046875 -0.915496826171875
7881690625.0 -1.2291259765625 -0.10552978515625
7912912500.0 -1.05328369140625 0.55194091796875
7944134375.0 -0.605224609375 1.10980224609375
7975356250.0 0.2706298828125 1.33380126953125
8006578125.0 1.04547119140625 0.7781982421875
8037800000.0 1.19366455078125 0.0159912109375
8069021875.0 1.00567626953125 -0.61651611328125
8100243750.0 0.498779296875 -1.1591796875
8131465625.0 -0.3848876953125 -1.2528076171875
8162687500.0 -1.02899169921875 -0.68585205078125
8193909375.0 -1.17889404296875 0.0081787109375
8225131250.0 -1.01690673828125 0.67608642578125
8256353125.0 -0.4215087890625 1.24688720703125
8287575000.0 0.498046875 1.2242431640625
8318796875.0 1.0792236328125 0.63543701171875
8350018750.0 1.24346923828125 -0.07525634765625
8381240625.0 1.03009033203125 -0.83740234375
8412462500.0 0.2552490234375 -1.37103271484375
8443684375.0 -0.66705322265625 -1.16827392578125
8474906250.0 -1.1748046875 -0.53094482421875
8506128125.0 -1.296142578125 0.236328125
8537350000.0 -0.9234619140625 1.04278564453125
8568571875.0 -0.01519775390625 1.393310546875
8599793750.0 0.800537109375 1.052734375
8631015625.0 1.2392578125 0.3980712890625
8662237500.0 1.2840576171875 -0.42742919921875
8693459375.0 0.7362060546875 -1.17559814453125
8724681250.0 -0.16143798828125 -1.329833984375
8755903125.0 -0.877349853515625 -0.95684814453125
8787125000.0 -1.30023193359375 -0.28369140625
8818346875.0 -1.249755859375 0.61431884765625
8849568750.0 -0.5565185546875 1.26043701171875
8880790625.0 0.2965087890625 1.282958984375
8912012500.0 0.97906494140625 0.89105224609375
8943234375.0 1.39715576171875 0.12945556640625
8974456250.0 1.16693115234375 -0.83770751953125
9005678125.0 0.348388671875 -1.31121826171875
9036900000.0 -0.44342041015625 -1.22332763671875
9068121875.0 -1.0997314453125 -0.78558349609375
9099343750.0 -1.43975830078125 0.09771728515625
9130565625.0 -0.97808837890625 1.00860595703125
9161787500.0 -0.15557861328125 1.281494140625
9193009375.0 0.55499267578125 1.132568359375
9224231250.0 1.17852783203125 0.65521240234375
9255453125.0 1.39703369140625 -0.29400634765625
9286675000.0 0.80706787109375 -1.0828857421875
9317896875.0 0.02777099609375 -1.2454833984375
9349118750.0 -0.65142822265625 -1.0682373046875
9380340625.0 -1.25543212890625 -0.51116943359375
9411562500.0 -1.30963134765625 0.4749755859375
9442784375.0 -0.64837646484375 1.11383056640625
9474006250.0 0.08642578125 1.20904541015625
9505228125.0 0.762908935546875 0.978912353515625
9536450000.0 1.27276611328125 0.31427001953125
9567671875.0 1.14324951171875 -0.578857421875
9598893750.0 0.5289306640625 -1.06768798828125
9630115625.0 -0.140625 -1.15625
9661337500.0 -0.817108154296875 -0.9013671875
9692559375.0 -1.238037109375 -0.18951416015625
9723781250.0 -1.04248046875 0.6014404296875
9755003125.0 -0.48602294921875 1.0484619140625
9786225000.0 0.19696044921875 1.15838623046875
9817446875.0 0.8941650390625 0.82720947265625
9848668750.0 1.196044921875 0.07958984375
9879890625.0 0.96759033203125 -0.616668701171875
9911112500.0 0.4525146484375 -1.04986572265625
9942334375.0 -0.2679443359375 -1.158935546875
9973556250.0 -0.942535400390625 -0.738525390625
10004778125.0 -1.143798828125 -0.01873779296875
10036000000.0 -0.943817138671875 0.615386962890625
10067221875.0 -0.44232177734375 1.09521484375
10098443750.0 0.3682861328125 1.1796875
10129665625.0 1.00103759765625 0.64312744140625
10160887500.0 1.1192626953125 -0.0518798828125
10192109375.0 0.91741943359375 -0.661834716796875
10223331250.0 0.36138916015625 -1.15093994140625
10254553125.0 -0.48480224609375 -1.1134033203125
10285775000.0 -0.98394775390625 -0.535308837890625
10316996875.0 -1.06561279296875 0.07574462890625
10348218750.0 -0.900177001953125 0.66943359375
10379440625.0 -0.32257080078125 1.17425537109375
10410662500.0 0.5274658203125 1.08502197265625
10441884375.0 0.99139404296875 0.521697998046875
10473106250.0 1.1065673828125 -0.083251953125
10504328125.0 0.94940185546875 -0.755889892578125
10535550000.0 0.239501953125 -1.29425048828125
10566771875.0 -0.6558837890625 -1.0760498046875
10597993750.0 -1.07952880859375 -0.45892333984375
10629215625.0 -1.17340087890625 0.2037353515625
10660437500.0 -0.88702392578125 0.949981689453125
10691659375.0 -0.01324462890625 1.33209228515625
10722881250.0 0.78314208984375 0.952117919921875
10754103125.0 1.1187744140625 0.3248291015625
10785325000.0 1.1387939453125 -0.36651611328125
10816546875.0 0.70147705078125 -1.04638671875
10847768750.0 -0.14453125 -1.230712890625
10878990625.0 -0.801116943359375 -0.843414306640625
10910212500.0 -1.12127685546875 -0.24554443359375
10941434375.0 -1.09765625 0.47698974609375
10972656250.0 -0.569091796875 1.08404541015625
11003878125.0 0.215576171875 1.17303466796875
11035100000.0 0.84722900390625 0.82159423828125
11066321875.0 1.21746826171875 0.1761474609375
11097543750.0 1.0982666015625 -0.67559814453125
11128765625.0 0.3858642578125 -1.196533203125
11159987500.0 -0.39599609375 -1.13848876953125
11191209375.0 -0.9984130859375 -0.70263671875
11222431250.0 -1.270263671875 0.09271240234375
11253653125.0 -0.8587646484375 0.89312744140625
11284875000.0 -0.11474609375 1.12646484375
11316096875.0 0.509552001953125 0.955352783203125
11347318750.0 1.0013427734375 0.5018310546875
11378540625.0 1.1158447265625 -0.26776123046875
11409762500.0 0.63458251953125 -0.858154296875
11440984375.0 0.036376953125 -0.9783935546875
11472206250.0 -0.478607177734375 -0.849273681640625
11503428125.0 -0.951171875 -0.456146240234375
11534650000.0 -1.06768798828125 0.28826904296875
11565871875.0 -0.6026611328125 0.852783203125
11597093750.0 -0.02008056640625 0.989501953125
11628315625.0 0.542694091796875 0.87445068359375
11659537500.0 1.06011962890625 0.39227294921875
11690759375.0 1.0643310546875 -0.43365478515625
11721981250.0 0.515869140625 -0.940521240234375
11753203125.0 -0.1043701171875 -1.03369140625
11784425000.0 -0.723846435546875 -0.807952880859375
11815646875.0 -1.10028076171875 -0.1512451171875
11846868750.0 -0.890899658203125 0.54949951171875
11878090625.0 -0.39129638671875 0.90728759765625
11909312500.0 0.18701171875 0.98431396484375
11940534375.0 0.77960205078125 0.695159912109375
11971756250.0 1.02349853515625 0.04052734375
12002978125.0 0.80609130859375 -0.536895751953125
12034200000.0 0.381591796875 -0.887298583984375
12065421875.0 -0.21527099609375 -1.00897216796875
12096643750.0 -0.8458251953125 -0.665008544921875
12127865625.0 -1.03350830078125 0.0166015625
12159087500.0 -0.813934326171875 0.574188232421875
12190309375.0 -0.377960205078125 0.97454833984375
12221531250.0 0.33795166015625 1.08685302734375
12252753125.0 0.979217529296875 0.58111572265625
12283975000.0 1.05413818359375 -0.1282958984375
12315196875.0 0.800018310546875 -0.675201416015625
12346418750.0 0.28289794921875 -1.08966064453125
12377640625.0 -0.53875732421875 -1.05987548828125
12408862500.0 -1.03204345703125 -0.42169189453125
12440084375.0 -1.00775146484375 0.22235107421875
12471306250.0 -0.7412109375 0.735748291015625
12502528125.0 -0.18017578125 1.11883544921875
12533750000.0 0.618194580078125 0.99359130859375
12564971875.0 1.03936767578125 0.3638916015625
12596193750.0 1.02862548828125 -0.26385498046875
12627415625.0 0.747772216796875 -0.8280029296875
12658637500.0 0.07965087890625 -1.2069091796875
12689859375.0 -0.733612060546875 -0.966552734375
12721081250.0 -1.1153564453125 -0.30621337890625
12752303125.0 -1.09765625 0.3812255859375
12783525000.0 -0.686767578125 1.02606201171875
12814746875.0 0.16357421875 1.24945068359375
12845968750.0 0.862762451171875 0.811492919921875
12877190625.0 1.11602783203125 0.171875
12908412500.0 1.0550537109375 -0.500244140625
12939634375.0 0.5433349609375 -1.1160888671875
12970856250.0 -0.3192138671875 -1.1729736328125
13002078125.0 -0.89459228515625 -0.693359375
13033300000.0 -1.10504150390625 -0.08697509765625
13064521875.0 -1.0091552734375 0.59320068359375
13095743750.0 -0.41937255859375 1.1529541015625
13126965625.0 0.40771484375 1.11883544921875
13158187500.0 0.9447021484375 0.632293701171875
13189409375.0 1.1474609375 -0.02056884765625
13220631250.0 0.934967041015625 -0.74578857421875
13251853125.0 0.236083984375 -1.169921875
13283075000.0 -0.5069580078125 -1.01953125
13314296875.0 -0.985504150390625 -0.530303955078125
13345518750.0 -1.13360595703125 0.175048828125
