!Created with skrf (http://scikit-rf.org).
# Hz S RI R 50.0 
!freq ReS11 ImS11
45000000.0 -0.0767822265625 -0.09688568115234375
76221875.0 -0.196258544921875 -0.0478363037109375
107443750.0 -0.2550048828125 0.1194610595703125
138665625.0 -0.1484527587890625 0.3284149169921875
169887500.0 0.12298583984375 0.4176177978515625
201109375.0 0.421417236328125 0.2813262939453125
232331250.0 0.578826904296875 -0.05670166015625
263553125.0 0.4900360107421875 -0.451995849609375
294775000.0 0.09954833984375 -0.73193359375
325996875.0 -0.41424560546875 -0.680938720703125
357218750.0 -0.805389404296875 -0.2979736328125
388440625.0 -0.885528564453125 0.299560546875
419662500.0 -0.51806640625 0.865142822265625
450884375.0 0.171630859375 1.0284423828125
482106250.0 0.79730224609375 0.713348388671875
513328125.0 1.11865234375 0.08880615234375
544550000.0 1.0040283203125 -0.67803955078125
575771875.0 0.33795166015625 -1.23724365234375
606993750.0 -0.552001953125 -1.17730712890625
638215625.0 -1.16436767578125 -0.591552734375
669437500.0 -1.33929443359375 0.23211669921875
700659375.0 -0.97161865234375 1.094970703125
731881250.0 -0.00543212890625 1.542236328125
763103125.0 1.00372314453125 1.15625
794325000.0 1.46759033203125 0.2833251953125
825546875.0 1.36724853515625 -0.64947509765625
856768750.0 0.795654296875 -1.3983154296875
887990625.0 -0.28985595703125 -1.6474609375
919212500.0 -1.28607177734375 -1.0794677734375
950434375.0 -1.64703369140625 -0.06146240234375
981656250.0 -1.38214111328125 0.94390869140625
1012878125.0 -0.53131103515625 1.66943359375
1044100000.0 0.69427490234375 1.6610107421875
1075321875.0 1.5718994140625 0.81353759765625
1106543750.0 1.7037353515625 -0.31048583984375
1137765625.0 1.187255859375 -1.2811279296875
1168987500.0 0.14031982421875 -1.79510498046875
1200209375.0 -1.0589599609375 -1.4837646484375
1231431250.0 -1.72515869140625 -0.4552001953125
1262653125.0 -1.59332275390625 0.6820068359375
1293875000.0 -0.85296630859375 1.4893798828125
1325096875.0 0.2259521484375 1.7054443359375
1356318750.0 1.232666015625 1.217041015625
1387540625.0 1.7384033203125 0.19024658203125
1418762500.0 1.46881103515625 -0.94830322265625
1449984375.0 0.53070068359375 -1.6234130859375
1481206250.0 -0.547607421875 -1.55517578125
1512428125.0 -1.33966064453125 -0.92041015625
1543650000.0 -1.6544189453125 0.06353759765625
1574871875.0 -1.27362060546875 1.1060791015625
1606093750.0 -0.2747802734375 1.62945556640625
1637315625.0 0.739501953125 1.39990234375
1668537500.0 1.39404296875 0.69683837890625
1699759375.0 1.572021484375 -0.27496337890625
1730981250.0 1.06494140625 -1.2271728515625
1762203125.0 0.0439453125 -1.5689697265625
1793425000.0 -0.8536376953125 -1.22607421875
1824646875.0 -1.3916015625 -0.51611328125
1855868750.0 -1.47296142578125 0.43048095703125
1887090625.0 -0.875244140625 1.2835693359375
1918312500.0 0.11541748046875 1.4852294921875
1949534375.0 0.91949462890625 1.08892822265625
1980756250.0 1.3729248046875 0.37127685546875
2011978125.0 1.35870361328125 -0.5294189453125
2043200000.0 0.7508544921875 -1.25927734375
2074421875.0 -0.15496826171875 -1.43194580078125
2105643750.0 -0.9583740234375 -1.07232666015625
2136865625.0 -1.4454345703125 -0.30615234375
2168087500.0 -1.356689453125 0.669189453125
2199309375.0 -0.63983154296875 1.34893798828125
2230531250.0 0.2801513671875 1.43499755859375
2261753125.0 1.07061767578125 1.01422119140625
2292975000.0 1.51348876953125 0.1717529296875
2324196875.0 1.3052978515625 -0.81683349609375
2355418750.0 0.5260009765625 -1.418212890625
2386640625.0 -0.40264892578125 -1.4476318359375
2417862500.0 -1.1781005859375 -1.0247802734375
2449084375.0 -1.6015625 -0.08673095703125
2480306250.0 -1.310791015625 0.922607421875
2511528125.0 -0.4949951171875 1.505126953125
2542750000.0 0.48699951171875 1.53533935546875
2573971875.0 1.367919921875 0.9686279296875
2605193750.0 1.71539306640625 -0.111083984375
2636415625.0 1.26129150390625 -1.14862060546875
2667637500.0 0.308349609375 -1.6641845703125
2698859375.0 -0.76666259765625 -1.533203125
2730081250.0 -1.5703125 -0.74176025390625
2761303125.0 -1.67919921875 0.384765625
2792525000.0 -1.0992431640625 1.30364990234375
2823746875.0 -0.10455322265625 1.72650146484375
2854968750.0 1.01007080078125 1.4544677734375
2886190625.0 1.68853759765625 0.49310302734375
2917412500.0 1.597900390625 -0.6148681640625
2948634375.0 0.94000244140625 -1.43035888671875
2979856250.0 -0.10601806640625 -1.77398681640625
3011078125.0 -1.24334716796875 -1.341552734375
3042300000.0 -1.7723388671875 -0.2369384765625
3073521875.0 -1.50750732421875 0.83551025390625
3104743750.0 -0.7637939453125 1.56561279296875
3135965625.0 0.35906982421875 1.8067626953125
3167187500.0 1.49468994140625 1.1646728515625
3198409375.0 1.8133544921875 -0.07244873046875
3229631250.0 1.34820556640625 -1.07818603515625
3260853125.0 0.49151611328125 -1.663818359375
3292075000.0 -0.6507568359375 -1.6951904296875
3323296875.0 -1.6162109375 -0.88037109375
3354518750.0 -1.7281494140625 0.3258056640625
3385740625.0 -1.1552734375 1.22930908203125
3416962500.0 -0.2327880859375 1.6790771484375
3448184375.0 0.85772705078125 1.52081298828125
3479406250.0 1.6337890625 0.64495849609375
3510628125.0 1.642578125 -0.4927978515625
3541850000.0 0.99969482421875 -1.35223388671875
3573071875.0 -0.00439453125 -1.6788330078125
3604293750.0 -1.02593994140625 -1.33648681640625
3635515625.0 -1.62518310546875 -0.43896484375
3666737500.0 -1.56005859375 0.64337158203125
3697959375.0 -0.82537841796875 1.4727783203125
3729181250.0 0.26617431640625 1.62872314453125
3760403125.0 1.149658203125 1.09747314453125
3791625000.0 1.5494384765625 0.22003173828125
3822846875.0 1.40081787109375 -0.75726318359375
3854068750.0 0.62127685546875 -1.4783935546875
3885290625.0 -0.41839599609375 -1.4793701171875
3916512500.0 -1.13916015625 -0.911376953125
3947734375.0 -1.44580078125 -0.12164306640625
3978956250.0 -1.2967529296875 0.77642822265625
4010178125.0 -0.5313720703125 1.45263671875
4041400000.0 0.47125244140625 1.41387939453125
4072621875.0 1.14849853515625 0.84783935546875
4103843750.0 1.44256591796875 0.06500244140625
4135065625.0 1.26715087890625 -0.84356689453125
4166287500.0 0.45904541015625 -1.4932861328125
4197509375.0 -0.55499267578125 -1.4136962890625
4228731250.0 -1.24407958984375 -0.80316162109375
4259953125.0 -1.5072021484375 0.0682373046875
4291175000.0 -1.18792724609375 1.00762939453125
4322396875.0 -0.29010009765625 1.52459716796875
4353618750.0 0.6717529296875 1.34912109375
4384840625.0 1.31829833984375 0.69830322265625
4416062500.0 1.49932861328125 -0.22540283203125
4447284375.0 1.055419921875 -1.10101318359375
4478506250.0 0.174072265625 -1.49249267578125
4509728125.0 -0.72998046875 -1.30645751953125
4540950000.0 -1.3919677734375 -0.63623046875
4572171875.0 -1.5205078125 0.35797119140625
4603393750.0 -0.972412109375 1.2100830078125
4634615625.0 -0.06231689453125 1.53485107421875
4665837500.0 0.867919921875 1.3035888671875
4697059375.0 1.53887939453125 0.5162353515625
4728281250.0 1.5281982421875 -0.58087158203125
4759503125.0 0.82379150390625 -1.36383056640625
4790725000.0 -0.14398193359375 -1.57098388671875
4821946875.0 -1.079833984375 -1.19366455078125
4853168750.0 -1.6102294921875 -0.2520751953125
4884390625.0 -1.3770751953125 0.7904052734375
4915612500.0 -0.61456298828125 1.4107666015625
4946834375.0 0.32696533203125 1.50775146484375
4978056250.0 1.20257568359375 1.01715087890625
5009278125.0 1.55963134765625 0.04132080078125
5040500000.0 1.22869873046875 -0.87469482421875
5071721875.0 0.50286865234375 -1.4127197265625
5102943750.0 -0.44476318359375 -1.4954833984375
5134165625.0 -1.3341064453125 -0.9044189453125
5165387500.0 -1.56640625 0.14495849609375
5196609375.0 -1.1356201171875 1.00628662109375
5227831250.0 -0.3583984375 1.5045166015625
5259053125.0 0.686279296875 1.49090576171875
5290275000.0 1.5196533203125 0.66351318359375
5321496875.0 1.49102783203125 -0.42926025390625
5352718750.0 0.9210205078125 -1.15191650390625
5383940625.0 0.09808349609375 -1.4981689453125
5415162500.0 -0.8975830078125 -1.28289794921875
5446384375.0 -1.48193359375 -0.37139892578125
5477606250.0 -1.2984619140625 0.56402587890625
5508828125.0 -0.73150634765625 1.14892578125
5540050000.0 0.0523681640625 1.39654541015625
5571271875.0 0.93597412109375 1.10821533203125
5602493750.0 1.40679931640625 0.260986328125
5633715625.0 1.2315673828125 -0.61102294921875
5664937500.0 0.6488037109375 -1.1986083984375
5696159375.0 -0.19488525390625 -1.38140869140625
5727381250.0 -1.01898193359375 -0.9781494140625
5758603125.0 -1.39068603515625 -0.1458740234375
5789825000.0 -1.19305419921875 0.716064453125
5821046875.0 -0.5064697265625 1.3062744140625
5852268750.0 0.41021728515625 1.3116455078125
5883490625.0 1.06903076171875 0.7720947265625
5914712500.0 1.30078125 0.02191162109375
5945934375.0 1.0958251953125 -0.77349853515625
5977156250.0 0.36163330078125 -1.31085205078125
6008378125.0 -0.5072021484375 -1.18109130859375
6039600000.0 -1.02020263671875 -0.6490478515625
6070821875.0 -1.2220458984375 -0.0057373046875
6102043750.0 -1.0831298828125 0.76153564453125
6133265625.0 -0.3427734375 1.3427734375
6164487500.0 0.562744140625 1.18701171875
6195709375.0 1.06878662109375 0.63067626953125
6226931250.0 1.2786865234375 -0.04144287109375
6258153125.0 1.10455322265625 -0.86920166015625
6289375000.0 0.25787353515625 -1.44390869140625
6320596875.0 -0.68719482421875 -1.20513916015625
6351818750.0 -1.19903564453125 -0.572509765625
6383040625.0 -1.35321044921875 0.205322265625
6414262500.0 -0.9996337890625 1.0556640625
6445484375.0 -0.07928466796875 1.45526123046875
6476706250.0 0.79388427734375 1.14752197265625
6507928125.0 1.28900146484375 0.470947265625
6539150000.0 1.34698486328125 -0.3858642578125
6570371875.0 0.841552734375 -1.14178466796875
6601593750.0 -0.0157470703125 -1.4033203125
6632815625.0 -0.83917236328125 -1.1368408203125
6664037500.0 -1.39935302734375 -0.42083740234375
6695259375.0 -1.37310791015625 0.564697265625
6726481250.0 -0.71099853515625 1.24908447265625
6757703125.0 0.1298828125 1.40576171875
6788925000.0 0.95306396484375 1.13092041015625
6820146875.0 1.5589599609375 0.288330078125
6851368750.0 1.32513427734375 -0.81793212890625
6882590625.0 0.5069580078125 -1.33587646484375
6913812500.0 -0.29180908203125 -1.35540771484375
6945034375.0 -1.06890869140625 -1.02154541015625
6976256250.0 -1.59136962890625 -0.0946044921875
7007478125.0 -1.2352294921875 0.93035888671875
7038700000.0 -0.40301513671875 1.341796875
7069921875.0 0.356201171875 1.322509765625
7101143750.0 1.1162109375 0.96875
7132365625.0 1.59942626953125 0.01580810546875
7163587500.0 1.15679931640625 -1.01812744140625
7194809375.0 0.30413818359375 -1.39471435546875
7226031250.0 -0.50958251953125 -1.32452392578125
7257253125.0 -1.26519775390625 -0.82513427734375
7288475000.0 -1.55767822265625 0.197265625
7319696875.0 -1.029541015625 1.109130859375
7350918750.0 -0.16522216796875 1.443603515625
7382140625.0 0.7130126953125 1.27618408203125
7413362500.0 1.37457275390625 0.57666015625
7444584375.0 1.4100341796875 -0.40435791015625
7475806250.0 0.857666015625 -1.13970947265625
7507028125.0 0.0072021484375 -1.42791748046875
7538250000.0 -0.8843994140625 -1.12408447265625
7569471875.0 -1.3345947265625 -0.3116455078125
7600693750.0 -1.20135498046875 0.49560546875
7631915625.0 -0.7183837890625 1.0836181640625
7663137500.0 0.078857421875 1.35858154296875
7694359375.0 0.938201904296875 0.980133056640625
7725581250.0 1.24334716796875 0.1812744140625
7756803125.0 1.0816650390625 -0.49591064453125
7788025000.0 0.6697998046875 -1.04412841796875
7819246875.0 -0.12030029296875 -1.34820556640625
7850468750.0 -0.991668701171875 -0.91619873046875
7881690625.0 -1.2310791015625 -0.105224609375
7912912500.0 -1.0543212890625 0.55029296875
7944134375.0 -0.60498046875 1.11004638671875
7975356250.0 0.2698974609375 1.33489990234375
8006578125.0 1.0457763671875 0.778564453125
8037800000.0 1.19305419921875 0.01727294921875
8069021875.0 1.0072021484375 -0.61676025390625
8100243750.0 0.500732421875 -1.15966796875
8131465625.0 -0.38739013671875 -1.25421142578125
8162687500.0 -1.0308837890625 -0.686767578125
8193909375.0 -1.17840576171875 0.00592041015625
8225131250.0 -1.01837158203125 0.67779541015625
8256353125.0 -0.4217529296875 1.24725341796875
8287575000.0 0.499267578125 1.22528076171875
8318796875.0 1.07965087890625 0.6368408203125
8350018750.0 1.245361328125 -0.07476806640625
8381240625.0 1.031494140625 -0.836181640625
8412462500.0 0.254638671875 -1.3734130859375
8443684375.0 -0.66827392578125 -1.16943359375
8474906250.0 -1.17266845703125 -0.5333251953125
8506128125.0 -1.29693603515625 0.23486328125
8537350000.0 -0.923828125 1.045166015625
8568571875.0 -0.01593017578125 1.39520263671875
8599793750.0 0.8021240234375 1.05352783203125
8631015625.0 1.2401123046875 0.39947509765625
8662237500.0 1.2860107421875 -0.4287109375
8693459375.0 0.73779296875 -1.17315673828125
8724681250.0 -0.1614990234375 -1.33056640625
8755903125.0 -0.878326416015625 -0.957275390625
8787125000.0 -1.30267333984375 -0.28228759765625
8818346875.0 -1.2509765625 0.614013671875
8849568750.0 -0.557861328125 1.2581787109375
8880790625.0 0.29693603515625 1.28515625
8912012500.0 0.97869873046875 0.89141845703125
8943234375.0 1.39886474609375 0.12921142578125
8974456250.0 1.16619873046875 -0.8372802734375
9005678125.0 0.34869384765625 -1.31060791015625
9036900000.0 -0.44378662109375 -1.2242431640625
9068121875.0 -1.1011962890625 -0.784912109375
9099343750.0 -1.44000244140625 0.09613037109375
9130565625.0 -0.97894287109375 1.0108642578125
9161787500.0 -0.15631103515625 1.28021240234375
9193009375.0 0.5546875 1.1337890625
9224231250.0 1.17730712890625 0.65576171875
9255453125.0 1.3980712890625 -0.2930908203125
9286675000.0 0.80780029296875 -1.08526611328125
9317896875.0 0.0274658203125 -1.24517822265625
9349118750.0 -0.65374755859375 -1.06988525390625
9380340625.0 -1.25738525390625 -0.5103759765625
9411562500.0 -1.31085205078125 0.47528076171875
9442784375.0 -0.64825439453125 1.11651611328125
9474006250.0 0.0870361328125 1.209716796875
9505228125.0 0.765899658203125 0.980224609375
9536450000.0 1.27362060546875 0.313232421875
9567671875.0 1.14276123046875 -0.578369140625
9598893750.0 0.5301513671875 -1.0677490234375
9630115625.0 -0.142578125 -1.15740966796875
9661337500.0 -0.816436767578125 -0.90283203125
9692559375.0 -1.23712158203125 -0.19189453125
9723781250.0 -1.042724609375 0.60113525390625
9755003125.0 -0.48675537109375 1.048828125
9786225000.0 0.1968994140625 1.158935546875
9817446875.0 0.893035888671875 0.827728271484375
9848668750.0 1.1968994140625 0.07928466796875
9879890625.0 0.96807861328125 -0.61419677734375
9911112500.0 0.45294189453125 -1.05108642578125
9942334375.0 -0.26678466796875 -1.158935546875
9973556250.0 -0.942230224609375 -0.73822021484375
10004778125.0 -1.145751953125 -0.01776123046875
10036000000.0 -0.94329833984375 0.614776611328125
10067221875.0 -0.44293212890625 1.09503173828125
10098443750.0 0.3697509765625 1.180908203125
10129665625.0 1.00054931640625 0.6435546875
10160887500.0 1.12042236328125 -0.05145263671875
10192109375.0 0.91802978515625 -0.662109375
10223331250.0 0.36181640625 -1.15057373046875
10254553125.0 -0.48590087890625 -1.114013671875
10285775000.0 -0.9844970703125 -0.536102294921875
10316996875.0 -1.06695556640625 0.0765380859375
10348218750.0 -0.900115966796875 0.669586181640625
10379440625.0 -0.32147216796875 1.1756591796875
10410662500.0 0.5255126953125 1.0845947265625
10441884375.0 0.9910888671875 0.523040771484375
10473106250.0 1.108154296875 -0.08209228515625
10504328125.0 0.948822021484375 -0.755615234375
10535550000.0 0.2415771484375 -1.29217529296875
10566771875.0 -0.6568603515625 -1.07672119140625
10597993750.0 -1.08026123046875 -0.45965576171875
10629215625.0 -1.173828125 0.2047119140625
10660437500.0 -0.887237548828125 0.952178955078125
10691659375.0 -0.01007080078125 1.33367919921875
10722881250.0 0.782501220703125 0.95245361328125
10754103125.0 1.1199951171875 0.3250732421875
10785325000.0 1.140380859375 -0.36724853515625
10816546875.0 0.701416015625 -1.04876708984375
10847768750.0 -0.14501953125 -1.22955322265625
10878990625.0 -0.803924560546875 -0.84417724609375
10910212500.0 -1.12255859375 -0.24517822265625
10941434375.0 -1.09783935546875 0.476318359375
10972656250.0 -0.56866455078125 1.08612060546875
11003878125.0 0.21710205078125 1.1739501953125
11035100000.0 0.84759521484375 0.822479248046875
11066321875.0 1.2205810546875 0.17486572265625
11097543750.0 1.09820556640625 -0.675048828125
11128765625.0 0.38665771484375 -1.19793701171875
11159987500.0 -0.3953857421875 -1.139404296875
11191209375.0 -0.99859619140625 -0.7034912109375
11222431250.0 -1.27044677734375 0.0911865234375
11253653125.0 -0.85858154296875 0.892974853515625
11284875000.0 -0.1160888671875 1.12518310546875
11316096875.0 0.510406494140625 0.955810546875
11347318750.0 1.0023193359375 0.50213623046875
11378540625.0 1.1156005859375 -0.26727294921875
11409762500.0 0.63531494140625 -0.857757568359375
11440984375.0 0.036041259765625 -0.978546142578125
11472206250.0 -0.4803466796875 -0.850830078125
11503428125.0 -0.952911376953125 -0.45587158203125
11534650000.0 -1.068603515625 0.2884521484375
11565871875.0 -0.6016845703125 0.854034423828125
11597093750.0 -0.0189208984375 0.990570068359375
11628315625.0 0.54241943359375 0.8751220703125
11659537500.0 1.060791015625 0.392333984375
11690759375.0 1.064453125 -0.43359375
11721981250.0 0.517822265625 -0.939788818359375
11753203125.0 -0.10504150390625 -1.036865234375
11784425000.0 -0.72357177734375 -0.808502197265625
11815646875.0 -1.10113525390625 -0.15167236328125
11846868750.0 -0.89056396484375 0.55059814453125
11878090625.0 -0.39208984375 0.90838623046875
11909312500.0 0.18670654296875 0.98370361328125
11940534375.0 0.7794189453125 0.6949462890625
11971756250.0 1.02325439453125 0.0413818359375
12002978125.0 0.8067626953125 -0.53839111328125
12034200000.0 0.382293701171875 -0.887908935546875
12065421875.0 -0.2154541015625 -1.0096435546875
12096643750.0 -0.846038818359375 -0.66546630859375
12127865625.0 -1.03369140625 0.0164794921875
12159087500.0 -0.815948486328125 0.5765380859375
12190309375.0 -0.3778076171875 0.97564697265625
12221531250.0 0.337158203125 1.08807373046875
12252753125.0 0.979278564453125 0.581512451171875
12283975000.0 1.05426025390625 -0.1273193359375
12315196875.0 0.7996826171875 -0.676025390625
12346418750.0 0.28173828125 -1.09014892578125
12377640625.0 -0.53631591796875 -1.059326171875
12408862500.0 -1.03216552734375 -0.42022705078125
12440084375.0 -1.00775146484375 0.2235107421875
12471306250.0 -0.74188232421875 0.737396240234375
12502528125.0 -0.18157958984375 1.117431640625
12533750000.0 0.61798095703125 0.993316650390625
12564971875.0 1.0404052734375 0.3648681640625
12596193750.0 1.0291748046875 -0.263427734375
12627415625.0 0.74835205078125 -0.827301025390625
12658637500.0 0.07940673828125 -1.2069091796875
12689859375.0 -0.73583984375 -0.9661865234375
12721081250.0 -1.11639404296875 -0.305908203125
12752303125.0 -1.0975341796875 0.3819580078125
12783525000.0 -0.68719482421875 1.025390625
12814746875.0 0.1644287109375 1.24981689453125
12845968750.0 0.8631591796875 0.81072998046875
12877190625.0 1.11614990234375 0.17266845703125
12908412500.0 1.05517578125 -0.49920654296875
12939634375.0 0.5423583984375 -1.1168212890625
12970856250.0 -0.3223876953125 -1.17620849609375
13002078125.0 -0.894989013671875 -0.693115234375
13033300000.0 -1.1048583984375 -0.0870361328125
13064521875.0 -1.0093994140625 0.59259033203125
13095743750.0 -0.4208984375 1.1533203125
13126965625.0 0.4100341796875 1.1199951171875
13158187500.0 0.945770263671875 0.63287353515625
13189409375.0 1.1474609375 -0.0205078125
13220631250.0 0.936004638671875 -0.749267578125
13251853125.0 0.23394775390625 -1.1719970703125
13283075000.0 -0.50616455078125 -1.0203857421875
13314296875.0 -0.9879150390625 -0.529144287109375
13345518750.0 -1.13336181640625 0.17462158203125
