!Created with skrf (http://scikit-rf.org).
# Hz S RI R 50.0 
!freq ReS11 ImS11
45000000.0 -0.07726287841796875 -0.09695816040039062
76221875.0 -0.19730377197265625 -0.047454833984375
107443750.0 -0.256195068359375 0.1204833984375
138665625.0 -0.148651123046875 0.330047607421875
169887500.0 0.123931884765625 0.4189300537109375
201109375.0 0.4232025146484375 0.2822265625
232331250.0 0.5811767578125 -0.0576171875
263553125.0 0.4917144775390625 -0.45526123046875
294775000.0 0.0985107421875 -0.7362060546875
325996875.0 -0.417572021484375 -0.684051513671875
357218750.0 -0.810638427734375 -0.298583984375
388440625.0 -0.8902587890625 0.302337646484375
419662500.0 -0.519744873046875 0.870697021484375
450884375.0 0.17364501953125 1.033447265625
482106250.0 0.8017578125 0.7158203125
513328125.0 1.124267578125 0.08746337890625
544550000.0 1.0078125 -0.68267822265625
575771875.0 0.337646484375 -1.24249267578125
606993750.0 -0.5556640625 -1.18182373046875
638215625.0 -1.169921875 -0.59295654296875
669437500.0 -1.34478759765625 0.23419189453125
700659375.0 -0.97491455078125 1.099853515625
731881250.0 -0.0050048828125 1.5484619140625
763103125.0 1.008544921875 1.16070556640625
794325000.0 1.4742431640625 0.2835693359375
825546875.0 1.3726806640625 -0.653564453125
856768750.0 0.797607421875 -1.40765380859375
887990625.0 -0.29443359375 -1.6558837890625
919212500.0 -1.29486083984375 -1.08349609375
950434375.0 -1.65692138671875 -0.05859375
981656250.0 -1.38916015625 0.95159912109375
1012878125.0 -0.5313720703125 1.68109130859375
1044100000.0 0.70111083984375 1.6702880859375
1075321875.0 1.5826416015625 0.81561279296875
1106543750.0 1.71295166015625 -0.3153076171875
1137765625.0 1.192138671875 -1.29046630859375
1168987500.0 0.1387939453125 -1.80548095703125
1200209375.0 -1.0670166015625 -1.49072265625
1231431250.0 -1.73590087890625 -0.45550537109375
1262653125.0 -1.600341796875 0.688232421875
1293875000.0 -0.8551025390625 1.49786376953125
1325096875.0 0.22869873046875 1.7139892578125
1356318750.0 1.2401123046875 1.222412109375
1387540625.0 1.7474365234375 0.1904296875
1418762500.0 1.47601318359375 -0.95513916015625
1449984375.0 0.53173828125 -1.6326904296875
1481206250.0 -0.5521240234375 -1.56304931640625
1512428125.0 -1.347900390625 -0.92388916015625
1543650000.0 -1.6630859375 0.06646728515625
1574871875.0 -1.27825927734375 1.11395263671875
1606093750.0 -0.27337646484375 1.63812255859375
1637315625.0 0.7454833984375 1.40582275390625
1668537500.0 1.40155029296875 0.69805908203125
1699759375.0 1.57904052734375 -0.2784423828125
1730981250.0 1.0679931640625 -1.23388671875
1762203125.0 0.042236328125 -1.57635498046875
1793425000.0 -0.858642578125 -1.23077392578125
1824646875.0 -1.3985595703125 -0.5174560546875
1855868750.0 -1.47991943359375 0.43328857421875
1887090625.0 -0.87921142578125 1.2901611328125
1918312500.0 0.11724853515625 1.4927978515625
1949534375.0 0.92498779296875 1.093505859375
1980756250.0 1.38031005859375 0.37139892578125
2011978125.0 1.364990234375 -0.5340576171875
2043200000.0 0.75244140625 -1.2666015625
2074421875.0 -0.1575927734375 -1.43841552734375
2105643750.0 -0.9635009765625 -1.07611083984375
2136865625.0 -1.45245361328125 -0.30596923828125
2168087500.0 -1.36199951171875 0.67364501953125
2199309375.0 -0.6412353515625 1.35595703125
2230531250.0 0.283203125 1.4415283203125
2261753125.0 1.07635498046875 1.01751708984375
2292975000.0 1.51922607421875 0.170654296875
2324196875.0 1.31005859375 -0.82159423828125
2355418750.0 0.527099609375 -1.4246826171875
2386640625.0 -0.4056396484375 -1.45428466796875
2417862500.0 -1.1866455078125 -1.02850341796875
2449084375.0 -1.61297607421875 -0.0828857421875
2480306250.0 -1.316650390625 0.93109130859375
2511528125.0 -0.49468994140625 1.51483154296875
2542750000.0 0.49114990234375 1.542236328125
2573971875.0 1.377197265625 0.97161865234375
2605193750.0 1.7249755859375 -0.1141357421875
2636415625.0 1.2667236328125 -1.15789794921875
2667637500.0 0.306884765625 -1.67413330078125
2698859375.0 -0.7742919921875 -1.54058837890625
2730081250.0 -1.58099365234375 -0.74334716796875
2761303125.0 -1.68902587890625 0.39080810546875
2792525000.0 -1.1036376953125 1.31396484375
2823746875.0 -0.1015625 1.73638916015625
2854968750.0 1.017333984375 1.46160888671875
2886190625.0 1.70086669921875 0.49261474609375
2917412500.0 1.60748291015625 -0.6220703125
2948634375.0 0.94342041015625 -1.440673828125
2979856250.0 -0.1097412109375 -1.78466796875
3011078125.0 -1.25469970703125 -1.34716796875
3042300000.0 -1.783447265625 -0.23406982421875
3073521875.0 -1.5147705078125 0.8431396484375
3104743750.0 -0.7667236328125 1.57513427734375
3135965625.0 0.3638916015625 1.8170166015625
3167187500.0 1.50616455078125 1.168212890625
3198409375.0 1.8238525390625 -0.07666015625
3229631250.0 1.35357666015625 -1.086669921875
3260853125.0 0.49029541015625 -1.67620849609375
3292075000.0 -0.65899658203125 -1.70465087890625
3323296875.0 -1.62872314453125 -0.88214111328125
3354518750.0 -1.73809814453125 0.33148193359375
3385740625.0 -1.1597900390625 1.2384033203125
3416962500.0 -0.23126220703125 1.6890869140625
3448184375.0 0.86474609375 1.52777099609375
3479406250.0 1.6441650390625 0.64605712890625
3510628125.0 1.65081787109375 -0.49774169921875
3541850000.0 1.00396728515625 -1.3634033203125
3573071875.0 -0.00958251953125 -1.69097900390625
3604293750.0 -1.03289794921875 -1.342529296875
3635515625.0 -1.63427734375 -0.4398193359375
3666737500.0 -1.567626953125 0.64959716796875
3697959375.0 -0.82757568359375 1.48333740234375
3729181250.0 0.2706298828125 1.6373291015625
3760403125.0 1.15771484375 1.10186767578125
3791625000.0 1.5584716796875 0.21832275390625
3822846875.0 1.40777587890625 -0.76568603515625
3854068750.0 0.62164306640625 -1.48828125
3885290625.0 -0.4244384765625 -1.48675537109375
3916512500.0 -1.1473388671875 -0.91363525390625
3947734375.0 -1.4539794921875 -0.119140625
3978956250.0 -1.30303955078125 0.783203125
4010178125.0 -0.53265380859375 1.46026611328125
4041400000.0 0.47613525390625 1.41998291015625
4072621875.0 1.1572265625 0.85052490234375
4103843750.0 1.45037841796875 0.06170654296875
4135065625.0 1.27197265625 -0.84979248046875
4166287500.0 0.45867919921875 -1.50201416015625
4197509375.0 -0.5618896484375 -1.420654296875
4228731250.0 -1.25262451171875 -0.804443359375
4259953125.0 -1.5135498046875 0.0706787109375
4291175000.0 -1.192138671875 1.0150146484375
4322396875.0 -0.28973388671875 1.5322265625
4353618750.0 0.67645263671875 1.354248046875
4384840625.0 1.3271484375 0.6986083984375
4416062500.0 1.5062255859375 -0.22991943359375
4447284375.0 1.0584716796875 -1.10845947265625
4478506250.0 0.1724853515625 -1.5003662109375
4509728125.0 -0.7357177734375 -1.31195068359375
4540950000.0 -1.3983154296875 -0.63787841796875
4572171875.0 -1.52801513671875 0.362548828125
4603393750.0 -0.97515869140625 1.2174072265625
4634615625.0 -0.06085205078125 1.54180908203125
4665837500.0 0.87445068359375 1.308837890625
4697059375.0 1.54754638671875 0.51654052734375
4728281250.0 1.53485107421875 -0.58642578125
4759503125.0 0.8253173828125 -1.3729248046875
4790725000.0 -0.146484375 -1.57781982421875
4821946875.0 -1.08807373046875 -1.19775390625
4853168750.0 -1.61962890625 -0.25128173828125
4884390625.0 -1.3826904296875 0.7978515625
4915612500.0 -0.61395263671875 1.41796875
4946834375.0 0.33062744140625 1.51470947265625
4978056250.0 1.21087646484375 1.020263671875
5009278125.0 1.56744384765625 0.0390625
5040500000.0 1.2325439453125 -0.87921142578125
5071721875.0 0.50225830078125 -1.4200439453125
5102943750.0 -0.44866943359375 -1.5008544921875
5134165625.0 -1.34027099609375 -0.908447265625
5165387500.0 -1.573974609375 0.14837646484375
5196609375.0 -1.14019775390625 1.01324462890625
5227831250.0 -0.3577880859375 1.5123291015625
5259053125.0 0.691650390625 1.49713134765625
5290275000.0 1.52777099609375 0.6636962890625
5321496875.0 1.4971923828125 -0.43328857421875
5352718750.0 0.9237060546875 -1.1583251953125
5383940625.0 0.09613037109375 -1.50531005859375
5415162500.0 -0.90435791015625 -1.28778076171875
5446384375.0 -1.49029541015625 -0.37042236328125
5477606250.0 -1.30322265625 0.569091796875
5508828125.0 -0.733154296875 1.155517578125
5540050000.0 0.05450439453125 1.40325927734375
5571271875.0 0.94305419921875 1.112548828125
5602493750.0 1.4134521484375 0.25994873046875
5633715625.0 1.2364501953125 -0.6156005859375
5664937500.0 0.64959716796875 -1.20672607421875
5696159375.0 -0.1982421875 -1.388671875
5727381250.0 -1.0264892578125 -0.98162841796875
5758603125.0 -1.39752197265625 -0.14385986328125
5789825000.0 -1.197998046875 0.7210693359375
5821046875.0 -0.5069580078125 1.31365966796875
5852268750.0 0.41400146484375 1.317626953125
5883490625.0 1.07574462890625 0.7740478515625
5914712500.0 1.30816650390625 0.018310546875
5945934375.0 1.09991455078125 -0.7796630859375
5977156250.0 0.3614501953125 -1.31683349609375
6008378125.0 -0.51239013671875 -1.1859130859375
6039600000.0 -1.026123046875 -0.6505126953125
6070821875.0 -1.228271484375 -0.00347900390625
6102043750.0 -1.0872802734375 0.7669677734375
6133265625.0 -0.342041015625 1.34979248046875
6164487500.0 0.56573486328125 1.1904296875
6195709375.0 1.074462890625 0.63140869140625
6226931250.0 1.28411865234375 -0.0435791015625
6258153125.0 1.108154296875 -0.87567138671875
6289375000.0 0.2557373046875 -1.45159912109375
6320596875.0 -0.69268798828125 -1.20989990234375
6351818750.0 -1.2042236328125 -0.5733642578125
6383040625.0 -1.35992431640625 0.209228515625
6414262500.0 -1.00274658203125 1.06085205078125
6445484375.0 -0.07672119140625 1.46258544921875
6476706250.0 0.79986572265625 1.15118408203125
6507928125.0 1.2962646484375 0.47015380859375
6539150000.0 1.3525390625 -0.38934326171875
6570371875.0 0.8428955078125 -1.1494140625
6601593750.0 -0.0194091796875 -1.41033935546875
6632815625.0 -0.843505859375 -1.139404296875
6664037500.0 -1.40667724609375 -0.41998291015625
6695259375.0 -1.37872314453125 0.56988525390625
6726481250.0 -0.7117919921875 1.25640869140625
6757703125.0 0.13262939453125 1.4114990234375
6788925000.0 0.960205078125 1.13397216796875
6820146875.0 1.56597900390625 0.28753662109375
6851368750.0 1.32977294921875 -0.82342529296875
6882590625.0 0.5074462890625 -1.34356689453125
6913812500.0 -0.2940673828125 -1.3612060546875
6945034375.0 -1.075439453125 -1.025146484375
6976256250.0 -1.59991455078125 -0.0914306640625
7007478125.0 -1.24078369140625 0.93988037109375
7038700000.0 -0.40264892578125 1.34918212890625
7069921875.0 0.362060546875 1.3280029296875
7101143750.0 1.12286376953125 0.97235107421875
7132365625.0 1.60626220703125 0.0125732421875
7163587500.0 1.160888671875 -1.02679443359375
7194809375.0 0.30279541015625 -1.4019775390625
7226031250.0 -0.51763916015625 -1.3309326171875
7257253125.0 -1.2711181640625 -0.826416015625
7288475000.0 -1.56695556640625 0.202880859375
7319696875.0 -1.03399658203125 1.11590576171875
7350918750.0 -0.162841796875 1.4512939453125
7382140625.0 0.721435546875 1.28094482421875
7413362500.0 1.38525390625 0.577392578125
7444584375.0 1.4190673828125 -0.41168212890625
7475806250.0 0.85992431640625 -1.150634765625
7507028125.0 0.0035400390625 -1.4373779296875
7538250000.0 -0.8939208984375 -1.127685546875
7569471875.0 -1.341552734375 -0.31207275390625
7600693750.0 -1.2073974609375 0.5025634765625
7631915625.0 -0.7198486328125 1.0914306640625
7663137500.0 0.0831298828125 1.3643798828125
7694359375.0 0.94476318359375 0.983367919921875
7725581250.0 1.2493896484375 0.17987060546875
7756803125.0 1.0869140625 -0.50286865234375
7788025000.0 0.67205810546875 -1.05108642578125
7819246875.0 -0.12249755859375 -1.353515625
7850468750.0 -0.998809814453125 -0.9190673828125
7881690625.0 -1.23541259765625 -0.1048583984375
7912912500.0 -1.05926513671875 0.55914306640625
7944134375.0 -0.60589599609375 1.12115478515625
7975356250.0 0.275390625 1.34222412109375
8006578125.0 1.05291748046875 0.78070068359375
8037800000.0 1.1983642578125 0.014404296875
8069021875.0 1.010498046875 -0.62213134765625
8100243750.0 0.501220703125 -1.1671142578125
8131465625.0 -0.39208984375 -1.25994873046875
8162687500.0 -1.0389404296875 -0.68743896484375
8193909375.0 -1.1861572265625 0.01025390625
8225131250.0 -1.02166748046875 0.6849365234375
8256353125.0 -0.42169189453125 1.256591796875
8287575000.0 0.50537109375 1.23077392578125
8318796875.0 1.08673095703125 0.63616943359375
8350018750.0 1.25128173828125 -0.07818603515625
8381240625.0 1.0338134765625 -0.8450927734375
8412462500.0 0.254150390625 -1.37799072265625
8443684375.0 -0.67376708984375 -1.17401123046875
8474906250.0 -1.18182373046875 -0.53167724609375
8506128125.0 -1.3046875 0.24127197265625
8537350000.0 -0.9271240234375 1.05230712890625
8568571875.0 -0.0146484375 1.40087890625
8599793750.0 0.80621337890625 1.0562744140625
8631015625.0 1.24517822265625 0.3988037109375
8662237500.0 1.29241943359375 -0.43310546875
8693459375.0 0.7373046875 -1.1845703125
8724681250.0 -0.16455078125 -1.33721923828125
8755903125.0 -0.88494873046875 -0.96075439453125
8787125000.0 -1.31134033203125 -0.28076171875
8818346875.0 -1.25579833984375 0.62115478515625
8849568750.0 -0.55633544921875 1.26934814453125
8880790625.0 0.303955078125 1.29144287109375
8912012500.0 0.988128662109375 0.895050048828125
8943234375.0 1.4085693359375 0.1258544921875
8974456250.0 1.17059326171875 -0.8450927734375
9005678125.0 0.3472900390625 -1.31964111328125
9036900000.0 -0.45050048828125 -1.22930908203125
9068121875.0 -1.10791015625 -0.78790283203125
9099343750.0 -1.445556640625 0.098388671875
9130565625.0 -0.98193359375 1.0191650390625
9161787500.0 -0.1529541015625 1.28790283203125
9193009375.0 0.56103515625 1.1380615234375
9224231250.0 1.18511962890625 0.65679931640625
9255453125.0 1.4066162109375 -0.30108642578125
9286675000.0 0.80810546875 -1.0926513671875
9317896875.0 0.0244140625 -1.2523193359375
9349118750.0 -0.658935546875 -1.07342529296875
9380340625.0 -1.2664794921875 -0.51043701171875
9411562500.0 -1.31640625 0.48028564453125
9442784375.0 -0.6488037109375 1.1224365234375
9474006250.0 0.0921630859375 1.216796875
9505228125.0 0.770965576171875 0.983978271484375
9536450000.0 1.2801513671875 0.31256103515625
9567671875.0 1.14886474609375 -0.58709716796875
9598893750.0 0.5301513671875 -1.0748291015625
9630115625.0 -0.14605712890625 -1.1627197265625
9661337500.0 -0.823028564453125 -0.90545654296875
9692559375.0 -1.2454833984375 -0.18817138671875
9723781250.0 -1.047119140625 0.60791015625
9755003125.0 -0.486083984375 1.05560302734375
9786225000.0 0.20147705078125 1.16448974609375
9817446875.0 0.90228271484375 0.829986572265625
9848668750.0 1.2037353515625 0.07635498046875
9879890625.0 0.971527099609375 -0.621368408203125
9911112500.0 0.4517822265625 -1.05706787109375
9942334375.0 -0.27252197265625 -1.164306640625
9973556250.0 -0.949249267578125 -0.7393798828125
10004778125.0 -1.15228271484375 -0.0142822265625
10036000000.0 -0.947174072265625 0.619964599609375
10067221875.0 -0.44195556640625 1.10296630859375
10098443750.0 0.37384033203125 1.185302734375
10129665625.0 1.0069580078125 0.64404296875
10160887500.0 1.12371826171875 -0.0535888671875
10192109375.0 0.920074462890625 -0.6676025390625
10223331250.0 0.36016845703125 -1.15826416015625
10254553125.0 -0.49139404296875 -1.116943359375
10285775000.0 -0.990447998046875 -0.535614013671875
10316996875.0 -1.0709228515625 0.07940673828125
10348218750.0 -0.90240478515625 0.676177978515625
10379440625.0 -0.32025146484375 1.1826171875
10410662500.0 0.5323486328125 1.08966064453125
10441884375.0 0.996551513671875 0.52154541015625
10473106250.0 1.11383056640625 -0.0858154296875
10504328125.0 0.951751708984375 -0.762786865234375
10535550000.0 0.23748779296875 -1.30194091796875
10566771875.0 -0.6630859375 -1.08038330078125
10597993750.0 -1.08599853515625 -0.45916748046875
10629215625.0 -1.17950439453125 0.20782470703125
10660437500.0 -0.88934326171875 0.9588623046875
10691659375.0 -0.005126953125 1.3427734375
10722881250.0 0.791473388671875 0.95477294921875
10754103125.0 1.12579345703125 0.32379150390625
10785325000.0 1.1439208984375 -0.37261962890625
10816546875.0 0.70245361328125 -1.05572509765625
10847768750.0 -0.15069580078125 -1.2353515625
10878990625.0 -0.809417724609375 -0.845458984375
10910212500.0 -1.12872314453125 -0.24346923828125
10941434375.0 -1.10150146484375 0.4815673828125
10972656250.0 -0.56756591796875 1.09124755859375
11003878125.0 0.22015380859375 1.17852783203125
11035100000.0 0.85211181640625 0.82391357421875
11066321875.0 1.22723388671875 0.17279052734375
11097543750.0 1.10223388671875 -0.68109130859375
11128765625.0 0.38580322265625 -1.2027587890625
11159987500.0 -0.4000244140625 -1.14471435546875
11191209375.0 -1.0068359375 -0.704345703125
11222431250.0 -1.27813720703125 0.09686279296875
11253653125.0 -0.860107421875 0.89935302734375
11284875000.0 -0.1121826171875 1.1324462890625
11316096875.0 0.51556396484375 0.959381103515625
11347318750.0 1.00872802734375 0.50225830078125
11378540625.0 1.12127685546875 -0.27423095703125
11409762500.0 0.635406494140625 -0.864471435546875
11440984375.0 0.033538818359375 -0.98291015625
11472206250.0 -0.48529052734375 -0.852935791015625
11503428125.0 -0.958465576171875 -0.455718994140625
11534650000.0 -1.07257080078125 0.29290771484375
11565871875.0 -0.60247802734375 0.859466552734375
11597093750.0 -0.01739501953125 0.9949951171875
11628315625.0 0.54925537109375 0.87823486328125
11659537500.0 1.06695556640625 0.39068603515625
11690759375.0 1.06866455078125 -0.4383544921875
11721981250.0 0.517120361328125 -0.945068359375
11753203125.0 -0.1082763671875 -1.04107666015625
11784425000.0 -0.7276611328125 -0.811126708984375
11815646875.0 -1.1058349609375 -0.14910888671875
11846868750.0 -0.893310546875 0.5556640625
11878090625.0 -0.39068603515625 0.914398193359375
11909312500.0 0.19049072265625 0.989349365234375
11940534375.0 0.785614013671875 0.69683837890625
11971756250.0 1.0301513671875 0.0367431640625
12002978125.0 0.80828857421875 -0.54083251953125
12034200000.0 0.380706787109375 -0.893585205078125
12065421875.0 -0.21966552734375 -1.0147705078125
12096643750.0 -0.853240966796875 -0.665863037109375
12127865625.0 -1.03857421875 0.02044677734375
12159087500.0 -0.81719970703125 0.579559326171875
12190309375.0 -0.37725830078125 0.9803466796875
12221531250.0 0.34185791015625 1.09112548828125
12252753125.0 0.986297607421875 0.581268310546875
12283975000.0 1.0601806640625 -0.132568359375
12315196875.0 0.80389404296875 -0.682464599609375
12346418750.0 0.28021240234375 -1.09637451171875
12377640625.0 -0.5450439453125 -1.064697265625
12408862500.0 -1.0391845703125 -0.41900634765625
12440084375.0 -1.01263427734375 0.22894287109375
12471306250.0 -0.743804931640625 0.74188232421875
12502528125.0 -0.17779541015625 1.1256103515625
12533750000.0 0.626190185546875 0.99566650390625
12564971875.0 1.04571533203125 0.363037109375
12596193750.0 1.0341796875 -0.2681884765625
12627415625.0 0.74957275390625 -0.83544921875
12658637500.0 0.0770263671875 -1.21435546875
12689859375.0 -0.7396240234375 -0.967742919921875
12721081250.0 -1.1212158203125 -0.30535888671875
12752303125.0 -1.10211181640625 0.38751220703125
12783525000.0 -0.6883544921875 1.03228759765625
12814746875.0 0.16845703125 1.25567626953125
12845968750.0 0.871063232421875 0.811737060546875
12877190625.0 1.12353515625 0.1697998046875
12908412500.0 1.0599365234375 -0.50775146484375
12939634375.0 0.542724609375 -1.12396240234375
12970856250.0 -0.32415771484375 -1.17889404296875
13002078125.0 -0.901336669921875 -0.69189453125
13033300000.0 -1.11187744140625 -0.083984375
13064521875.0 -1.012451171875 0.6011962890625
13095743750.0 -0.41827392578125 1.16387939453125
13126965625.0 0.41375732421875 1.12384033203125
13158187500.0 0.954437255859375 0.632415771484375
13189409375.0 1.15203857421875 -0.02362060546875
13220631250.0 0.938568115234375 -0.7529296875
13251853125.0 0.231201171875 -1.17742919921875
13283075000.0 -0.51068115234375 -1.02227783203125
13314296875.0 -0.9937744140625 -0.5289306640625
13345518750.0 -1.140625 0.18170166015625
