!Created with skrf (http://scikit-rf.org).
# Hz S RI R 50.0 
!freq ReS11 ImS11
45000000.0 -0.077239990234375 -0.096923828125
76221875.0 -0.196990966796875 -0.0474395751953125
107443750.0 -0.2556610107421875 0.120361328125
138665625.0 -0.1481781005859375 0.32952880859375
169887500.0 0.1241302490234375 0.4183502197265625
201109375.0 0.4229736328125 0.281585693359375
232331250.0 0.58038330078125 -0.057861328125
263553125.0 0.4907073974609375 -0.4547119140625
294775000.0 0.098236083984375 -0.735015869140625
325996875.0 -0.417236328125 -0.68267822265625
357218750.0 -0.809417724609375 -0.297515869140625
388440625.0 -0.888641357421875 0.3023681640625
419662500.0 -0.518310546875 0.869537353515625
450884375.0 0.174072265625 1.03179931640625
482106250.0 0.80120849609375 0.7142333984375
513328125.0 1.12249755859375 0.08648681640625
544550000.0 1.005859375 -0.68243408203125
575771875.0 0.33660888671875 -1.241455078125
606993750.0 -0.5557861328125 -1.179931640625
638215625.0 -1.1688232421875 -0.59124755859375
669437500.0 -1.3427734375 0.23492431640625
700659375.0 -0.97265625 1.09912109375
731881250.0 -0.00341796875 1.54644775390625
763103125.0 1.008056640625 1.158447265625
794325000.0 1.47247314453125 0.28228759765625
825546875.0 1.3704833984375 -0.653564453125
856768750.0 0.795654296875 -1.40576171875
887990625.0 -0.29510498046875 -1.65325927734375
919212500.0 -1.2926025390625 -1.08123779296875
950434375.0 -1.65399169921875 -0.05816650390625
981656250.0 -1.38623046875 0.94989013671875
1012878125.0 -0.53057861328125 1.67767333984375
1044100000.0 0.70074462890625 1.66705322265625
1075321875.0 1.58038330078125 0.8133544921875
1106543750.0 1.70941162109375 -0.31561279296875
1137765625.0 1.18927001953125 -1.28900146484375
1168987500.0 0.1373291015625 -1.802490234375
1200209375.0 -1.06597900390625 -1.48797607421875
1231431250.0 -1.73321533203125 -0.45391845703125
1262653125.0 -1.59832763671875 0.68853759765625
1293875000.0 -0.85302734375 1.49627685546875
1325096875.0 0.22967529296875 1.71099853515625
1356318750.0 1.23858642578125 1.2197265625
1387540625.0 1.7447509765625 0.18896484375
1418762500.0 1.47308349609375 -0.955322265625
1449984375.0 0.53009033203125 -1.63031005859375
1481206250.0 -0.55218505859375 -1.56024169921875
1512428125.0 -1.34649658203125 -0.921630859375
1543650000.0 -1.65985107421875 0.06622314453125
1574871875.0 -1.27618408203125 1.113037109375
1606093750.0 -0.27215576171875 1.63568115234375
1637315625.0 0.74481201171875 1.4031982421875
1668537500.0 1.399658203125 0.6966552734375
1699759375.0 1.57623291015625 -0.2789306640625
1730981250.0 1.06573486328125 -1.23223876953125
1762203125.0 0.0411376953125 -1.5740966796875
1793425000.0 -0.85833740234375 -1.2288818359375
1824646875.0 -1.39654541015625 -0.5157470703125
1855868750.0 -1.4769287109375 0.43359375
1887090625.0 -0.8770751953125 1.288330078125
1918312500.0 0.11810302734375 1.49090576171875
1949534375.0 0.924560546875 1.09136962890625
1980756250.0 1.37884521484375 0.37017822265625
2011978125.0 1.3626708984375 -0.53399658203125
2043200000.0 0.7508544921875 -1.26544189453125
2074421875.0 -0.158447265625 -1.43646240234375
2105643750.0 -0.963134765625 -1.0740966796875
2136865625.0 -1.45086669921875 -0.304931640625
2168087500.0 -1.359375 0.673583984375
2199309375.0 -0.63970947265625 1.3546142578125
2230531250.0 0.283447265625 1.4390869140625
2261753125.0 1.07550048828125 1.015625
2292975000.0 1.51763916015625 0.16949462890625
2324196875.0 1.3079833984375 -0.8212890625
2355418750.0 0.52569580078125 -1.42315673828125
2386640625.0 -0.4061279296875 -1.45208740234375
2417862500.0 -1.1849365234375 -1.0262451171875
2449084375.0 -1.61053466796875 -0.08203125
2480306250.0 -1.313720703125 0.92901611328125
2511528125.0 -0.493896484375 1.5126953125
2542750000.0 0.49151611328125 1.53985595703125
2573971875.0 1.37591552734375 0.96917724609375
2605193750.0 1.72210693359375 -0.114990234375
2636415625.0 1.263916015625 -1.1561279296875
2667637500.0 0.30535888671875 -1.67181396484375
2698859375.0 -0.77301025390625 -1.53778076171875
2730081250.0 -1.57867431640625 -0.74127197265625
2761303125.0 -1.68487548828125 0.39019775390625
2792525000.0 -1.10174560546875 1.31201171875
2823746875.0 -0.10101318359375 1.73321533203125
2854968750.0 1.0155029296875 1.45794677734375
2886190625.0 1.69720458984375 0.4912109375
2917412500.0 1.603759765625 -0.620849609375
2948634375.0 0.94110107421875 -1.4385986328125
2979856250.0 -0.1102294921875 -1.78094482421875
3011078125.0 -1.25274658203125 -1.3446044921875
3042300000.0 -1.77984619140625 -0.2337646484375
3073521875.0 -1.51141357421875 0.84136962890625
3104743750.0 -0.76318359375 1.57470703125
3135965625.0 0.3653564453125 1.81353759765625
3167187500.0 1.504150390625 1.16583251953125
3198409375.0 1.821533203125 -0.078125
3229631250.0 1.35076904296875 -1.0849609375
3260853125.0 0.48797607421875 -1.67431640625
3292075000.0 -0.657958984375 -1.7012939453125
3323296875.0 -1.62542724609375 -0.879638671875
3354518750.0 -1.73419189453125 0.3321533203125
3385740625.0 -1.15728759765625 1.237060546875
3416962500.0 -0.2301025390625 1.68646240234375
3448184375.0 0.86309814453125 1.52447509765625
3479406250.0 1.64044189453125 0.64495849609375
3510628125.0 1.6475830078125 -0.49737548828125
3541850000.0 1.00189208984375 -1.35906982421875
3573071875.0 -0.0091552734375 -1.68658447265625
3604293750.0 -1.0311279296875 -1.33984375
3635515625.0 -1.63031005859375 -0.4384765625
3666737500.0 -1.564697265625 0.64910888671875
3697959375.0 -0.82525634765625 1.48065185546875
3729181250.0 0.2711181640625 1.63470458984375
3760403125.0 1.15667724609375 1.0997314453125
3791625000.0 1.55682373046875 0.2169189453125
3822846875.0 1.40496826171875 -0.7642822265625
3854068750.0 0.619873046875 -1.486328125
3885290625.0 -0.423583984375 -1.48370361328125
3916512500.0 -1.1455078125 -0.912109375
3947734375.0 -1.451171875 -0.11846923828125
3978956250.0 -1.299560546875 0.7825927734375
4010178125.0 -0.53082275390625 1.458984375
4041400000.0 0.47650146484375 1.41827392578125
4072621875.0 1.1544189453125 0.8480224609375
4103843750.0 1.44769287109375 0.061767578125
4135065625.0 1.26995849609375 -0.8499755859375
4166287500.0 0.45751953125 -1.4996337890625
4197509375.0 -0.55999755859375 -1.4169921875
4228731250.0 -1.251220703125 -0.80316162109375
4259953125.0 -1.512451171875 0.0726318359375
4291175000.0 -1.189697265625 1.014404296875
4322396875.0 -0.288818359375 1.530029296875
4353618750.0 0.6767578125 1.35223388671875
4384840625.0 1.326171875 0.69683837890625
4416062500.0 1.5035400390625 -0.22998046875
4447284375.0 1.0556640625 -1.10711669921875
4478506250.0 0.1712646484375 -1.49871826171875
4509728125.0 -0.73516845703125 -1.30975341796875
4540950000.0 -1.3978271484375 -0.63580322265625
4572171875.0 -1.524658203125 0.36181640625
4603393750.0 -0.97283935546875 1.21661376953125
4634615625.0 -0.06005859375 1.5401611328125
4665837500.0 0.872802734375 1.30615234375
4697059375.0 1.546142578125 0.51458740234375
4728281250.0 1.532470703125 -0.58660888671875
4759503125.0 0.82305908203125 -1.37109375
4790725000.0 -0.14788818359375 -1.575927734375
4821946875.0 -1.0882568359375 -1.195556640625
4853168750.0 -1.6177978515625 -0.25006103515625
4884390625.0 -1.3802490234375 0.79779052734375
4915612500.0 -0.61236572265625 1.41607666015625
4946834375.0 0.33251953125 1.51263427734375
4978056250.0 1.20892333984375 1.017822265625
5009278125.0 1.5645751953125 0.038330078125
5040500000.0 1.23065185546875 -0.87860107421875
5071721875.0 0.50079345703125 -1.41839599609375
5102943750.0 -0.44927978515625 -1.49957275390625
5134165625.0 -1.340087890625 -0.90582275390625
5165387500.0 -1.57073974609375 0.14776611328125
5196609375.0 -1.13775634765625 1.013427734375
5227831250.0 -0.356689453125 1.5098876953125
5259053125.0 0.68951416015625 1.49383544921875
5290275000.0 1.52569580078125 0.66302490234375
5321496875.0 1.49639892578125 -0.43377685546875
5352718750.0 0.9219970703125 -1.156005859375
5383940625.0 0.0950927734375 -1.5040283203125
5415162500.0 -0.90460205078125 -1.28607177734375
5446384375.0 -1.48846435546875 -0.3681640625
5477606250.0 -1.3016357421875 0.5692138671875
5508828125.0 -0.7314453125 1.15472412109375
5540050000.0 0.05560302734375 1.40167236328125
5571271875.0 0.94097900390625 1.11004638671875
5602493750.0 1.4117431640625 0.2586669921875
5633715625.0 1.23388671875 -0.614990234375
5664937500.0 0.648193359375 -1.2049560546875
5696159375.0 -0.19830322265625 -1.38653564453125
5727381250.0 -1.0245361328125 -0.980224609375
5758603125.0 -1.3948974609375 -0.1439208984375
5789825000.0 -1.19622802734375 0.72119140625
5821046875.0 -0.50677490234375 1.31024169921875
5852268750.0 0.41424560546875 1.3154296875
5883490625.0 1.07562255859375 0.7725830078125
5914712500.0 1.30572509765625 0.01806640625
5945934375.0 1.09808349609375 -0.7803955078125
5977156250.0 0.3607177734375 -1.3155517578125
6008378125.0 -0.51190185546875 -1.18408203125
6039600000.0 -1.02435302734375 -0.64886474609375
6070821875.0 -1.2261962890625 -0.00360107421875
6102043750.0 -1.08477783203125 0.7657470703125
6133265625.0 -0.34130859375 1.34747314453125
6164487500.0 0.5667724609375 1.18975830078125
6195709375.0 1.073486328125 0.6298828125
6226931250.0 1.281982421875 -0.0439453125
6258153125.0 1.1063232421875 -0.875732421875
6289375000.0 0.25445556640625 -1.4503173828125
6320596875.0 -0.69287109375 -1.20782470703125
6351818750.0 -1.204345703125 -0.571533203125
6383040625.0 -1.358154296875 0.2091064453125
6414262500.0 -1.00067138671875 1.060546875
6445484375.0 -0.0760498046875 1.46063232421875
6476706250.0 0.7994384765625 1.14923095703125
6507928125.0 1.29376220703125 0.469482421875
6539150000.0 1.3504638671875 -0.38909912109375
6570371875.0 0.8416748046875 -1.14593505859375
6601593750.0 -0.0196533203125 -1.40789794921875
6632815625.0 -0.84344482421875 -1.1376953125
6664037500.0 -1.4044189453125 -0.419677734375
6695259375.0 -1.3759765625 0.5694580078125
6726481250.0 -0.71075439453125 1.2542724609375
6757703125.0 0.13372802734375 1.4105224609375
6788925000.0 0.9578857421875 1.13262939453125
6820146875.0 1.56396484375 0.28704833984375
6851368750.0 1.32818603515625 -0.8223876953125
6882590625.0 0.50634765625 -1.34185791015625
6913812500.0 -0.29364013671875 -1.35888671875
6945034375.0 -1.073974609375 -1.0228271484375
6976256250.0 -1.597412109375 -0.09027099609375
7007478125.0 -1.2386474609375 0.9364013671875
7038700000.0 -0.40203857421875 1.3468017578125
7069921875.0 0.36090087890625 1.32720947265625
7101143750.0 1.1239013671875 0.96881103515625
7132365625.0 1.60443115234375 0.01275634765625
7163587500.0 1.1588134765625 -1.028076171875
7194809375.0 0.3013916015625 -1.402099609375
7226031250.0 -0.51507568359375 -1.3292236328125
7257253125.0 -1.27178955078125 -0.82452392578125
7288475000.0 -1.562744140625 0.20257568359375
7319696875.0 -1.03070068359375 1.1143798828125
7350918750.0 -0.16217041015625 1.44879150390625
7382140625.0 0.71923828125 1.27880859375
7413362500.0 1.3822021484375 0.5762939453125
7444584375.0 1.41534423828125 -0.41058349609375
7475806250.0 0.85882568359375 -1.14794921875
7507028125.0 0.00274658203125 -1.4344482421875
7538250000.0 -0.89202880859375 -1.125244140625
7569471875.0 -1.3406982421875 -0.30926513671875
7600693750.0 -1.20440673828125 0.5001220703125
7631915625.0 -0.71832275390625 1.089599609375
7663137500.0 0.083740234375 1.3614501953125
7694359375.0 0.94573974609375 0.981536865234375
7725581250.0 1.2481689453125 0.1783447265625
7756803125.0 1.08489990234375 -0.503662109375
7788025000.0 0.67047119140625 -1.0484619140625
7819246875.0 -0.12353515625 -1.35015869140625
7850468750.0 -0.9971923828125 -0.91705322265625
7881690625.0 -1.23492431640625 -0.10333251953125
7912912500.0 -1.0572509765625 0.556884765625
7944134375.0 -0.60498046875 1.11920166015625
7975356250.0 0.2734375 1.3394775390625
8006578125.0 1.05126953125 0.7794189453125
8037800000.0 1.1971435546875 0.0135498046875
8069021875.0 1.008544921875 -0.62249755859375
8100243750.0 0.49853515625 -1.1663818359375
8131465625.0 -0.39056396484375 -1.257080078125
8162687500.0 -1.03643798828125 -0.68609619140625
8193909375.0 -1.185546875 0.0125732421875
8225131250.0 -1.019775390625 0.68206787109375
8256353125.0 -0.41937255859375 1.2529296875
8287575000.0 0.50396728515625 1.228271484375
8318796875.0 1.08642578125 0.63519287109375
8350018750.0 1.2470703125 -0.0771484375
8381240625.0 1.031982421875 -0.8436279296875
8412462500.0 0.25201416015625 -1.3778076171875
8443684375.0 -0.67254638671875 -1.17236328125
8474906250.0 -1.18096923828125 -0.53118896484375
8506128125.0 -1.30145263671875 0.23919677734375
8537350000.0 -0.92486572265625 1.05084228515625
8568571875.0 -0.01397705078125 1.3973388671875
8599793750.0 0.80596923828125 1.055419921875
8631015625.0 1.2462158203125 0.39752197265625
8662237500.0 1.2899169921875 -0.4339599609375
8693459375.0 0.73602294921875 -1.18109130859375
8724681250.0 -0.16595458984375 -1.33447265625
8755903125.0 -0.885833740234375 -0.958526611328125
8787125000.0 -1.306884765625 -0.28179931640625
8818346875.0 -1.25341796875 0.6197509765625
8849568750.0 -0.555908203125 1.26495361328125
8880790625.0 0.30291748046875 1.28778076171875
8912012500.0 0.985565185546875 0.893585205078125
8943234375.0 1.40283203125 0.12689208984375
8974456250.0 1.16845703125 -0.84588623046875
9005678125.0 0.3480224609375 -1.31671142578125
9036900000.0 -0.44866943359375 -1.22772216796875
9068121875.0 -1.10382080078125 -0.7864990234375
9099343750.0 -1.44525146484375 0.10064697265625
9130565625.0 -0.98016357421875 1.0155029296875
9161787500.0 -0.15228271484375 1.2860107421875
9193009375.0 0.55767822265625 1.13616943359375
9224231250.0 1.1856689453125 0.65460205078125
9255453125.0 1.40325927734375 -0.300537109375
9286675000.0 0.8065185546875 -1.0911865234375
9317896875.0 0.02410888671875 -1.25091552734375
9349118750.0 -0.6571044921875 -1.072509765625
9380340625.0 -1.2637939453125 -0.508056640625
9411562500.0 -1.3138427734375 0.47998046875
9442784375.0 -0.64697265625 1.1204833984375
9474006250.0 0.0908203125 1.2139892578125
9505228125.0 0.76885986328125 0.981719970703125
9536450000.0 1.27716064453125 0.3115234375
9567671875.0 1.1458740234375 -0.5841064453125
9598893750.0 0.5294189453125 -1.07354736328125
9630115625.0 -0.147705078125 -1.1630859375
9661337500.0 -0.823974609375 -0.9039306640625
9692559375.0 -1.24432373046875 -0.18780517578125
9723781250.0 -1.04534912109375 0.60638427734375
9755003125.0 -0.4847412109375 1.05499267578125
9786225000.0 0.20269775390625 1.16253662109375
9817446875.0 0.900482177734375 0.827911376953125
9848668750.0 1.2001953125 0.075927734375
9879890625.0 0.969390869140625 -0.61944580078125
9911112500.0 0.4515380859375 -1.05609130859375
9942334375.0 -0.271240234375 -1.16217041015625
9973556250.0 -0.947906494140625 -0.73773193359375
10004778125.0 -1.14886474609375 -0.01531982421875
10036000000.0 -0.94549560546875 0.619232177734375
10067221875.0 -0.44091796875 1.102783203125
10098443750.0 0.37347412109375 1.18426513671875
10129665625.0 1.00634765625 0.6427001953125
10160887500.0 1.12451171875 -0.054931640625
10192109375.0 0.9193115234375 -0.667236328125
10223331250.0 0.35980224609375 -1.1573486328125
10254553125.0 -0.49163818359375 -1.11688232421875
10285775000.0 -0.989044189453125 -0.534637451171875
10316996875.0 -1.0694580078125 0.07952880859375
10348218750.0 -0.901214599609375 0.67388916015625
10379440625.0 -0.32012939453125 1.17938232421875
10410662500.0 0.53204345703125 1.08843994140625
10441884375.0 0.9959716796875 0.52093505859375
10473106250.0 1.111328125 -0.0858154296875
10504328125.0 0.950439453125 -0.760498046875
10535550000.0 0.23797607421875 -1.2977294921875
10566771875.0 -0.66046142578125 -1.07867431640625
10597993750.0 -1.08544921875 -0.4581298828125
10629215625.0 -1.177978515625 0.20758056640625
10660437500.0 -0.88897705078125 0.956573486328125
10691659375.0 -0.0047607421875 1.3411865234375
10722881250.0 0.7886962890625 0.953460693359375
10754103125.0 1.1236572265625 0.32342529296875
10785325000.0 1.14141845703125 -0.36920166015625
10816546875.0 0.70220947265625 -1.052490234375
10847768750.0 -0.1502685546875 -1.2340087890625
10878990625.0 -0.808135986328125 -0.84381103515625
10910212500.0 -1.12744140625 -0.24310302734375
10941434375.0 -1.10028076171875 0.48175048828125
10972656250.0 -0.56683349609375 1.08984375
11003878125.0 0.22076416015625 1.1767578125
11035100000.0 0.8524169921875 0.822509765625
11066321875.0 1.2239990234375 0.1724853515625
11097543750.0 1.0999755859375 -0.68011474609375
11128765625.0 0.38421630859375 -1.20263671875
11159987500.0 -0.400146484375 -1.14154052734375
11191209375.0 -1.00567626953125 -0.70318603515625
11222431250.0 -1.2757568359375 0.095703125
11253653125.0 -0.860137939453125 0.8997802734375
11284875000.0 -0.11187744140625 1.131103515625
11316096875.0 0.515472412109375 0.958648681640625
11347318750.0 1.0078125 0.50177001953125
11378540625.0 1.1187744140625 -0.27239990234375
11409762500.0 0.633880615234375 -0.8641357421875
11440984375.0 0.034027099609375 -0.981658935546875
11472206250.0 -0.48419189453125 -0.851318359375
11503428125.0 -0.95654296875 -0.45489501953125
11534650000.0 -1.06976318359375 0.29119873046875
11565871875.0 -0.602294921875 0.8555908203125
11597093750.0 -0.01629638671875 0.993133544921875
11628315625.0 0.548431396484375 0.876983642578125
11659537500.0 1.06494140625 0.3909912109375
11690759375.0 1.06634521484375 -0.43768310546875
11721981250.0 0.515960693359375 -0.945343017578125
11753203125.0 -0.10748291015625 -1.039306640625
11784425000.0 -0.72906494140625 -0.80987548828125
11815646875.0 -1.1058349609375 -0.14794921875
11846868750.0 -0.893280029296875 0.556640625
11878090625.0 -0.390167236328125 0.911590576171875
11909312500.0 0.19073486328125 0.988433837890625
11940534375.0 0.785430908203125 0.69512939453125
11971756250.0 1.028076171875 0.0361328125
12002978125.0 0.80767822265625 -0.54205322265625
12034200000.0 0.37982177734375 -0.893402099609375
12065421875.0 -0.2188720703125 -1.01318359375
12096643750.0 -0.853057861328125 -0.664764404296875
12127865625.0 -1.03680419921875 0.01995849609375
12159087500.0 -0.815765380859375 0.579315185546875
12190309375.0 -0.3770751953125 0.9788818359375
12221531250.0 0.34271240234375 1.0906982421875
12252753125.0 0.984222412109375 0.580810546875
12283975000.0 1.05718994140625 -0.13134765625
12315196875.0 0.800567626953125 -0.6795654296875
12346418750.0 0.27947998046875 -1.0947265625
12377640625.0 -0.5430908203125 -1.06207275390625
12408862500.0 -1.03948974609375 -0.41705322265625
12440084375.0 -1.01031494140625 0.22760009765625
12471306250.0 -0.74267578125 0.74139404296875
12502528125.0 -0.1761474609375 1.125
12533750000.0 0.625 0.9949951171875
12564971875.0 1.0440673828125 0.36273193359375
12596193750.0 1.03240966796875 -0.26885986328125
12627415625.0 0.748016357421875 -0.83319091796875
12658637500.0 0.0750732421875 -1.21173095703125
12689859375.0 -0.739715576171875 -0.966827392578125
12721081250.0 -1.1202392578125 -0.30413818359375
12752303125.0 -1.099853515625 0.3858642578125
12783525000.0 -0.68719482421875 1.03240966796875
12814746875.0 0.16864013671875 1.25494384765625
12845968750.0 0.86724853515625 0.811431884765625
12877190625.0 1.12249755859375 0.1688232421875
12908412500.0 1.05780029296875 -0.50738525390625
12939634375.0 0.5413818359375 -1.12066650390625
12970856250.0 -0.32647705078125 -1.1796875
13002078125.0 -0.898651123046875 -0.692474365234375
13033300000.0 -1.110107421875 -0.0843505859375
13064521875.0 -1.01165771484375 0.59906005859375
13095743750.0 -0.41778564453125 1.15936279296875
13126965625.0 0.41656494140625 1.12408447265625
13158187500.0 0.949798583984375 0.63092041015625
13189409375.0 1.15301513671875 -0.02691650390625
13220631250.0 0.936492919921875 -0.752838134765625
13251853125.0 0.23095703125 -1.17535400390625
13283075000.0 -0.51312255859375 -1.0218505859375
13314296875.0 -0.993255615234375 -0.5281982421875
13345518750.0 -1.13916015625 0.18121337890625
13376740625.0 -0.753204345703125 0.863189697265625
13407962500.0 -0.0555419921875 1.07086181640625
