!Created with skrf (http://scikit-rf.org).
# Hz S RI R 50.0 
!freq ReS11 ImS11
45000000.0 -0.07706069946289062 -0.09670639038085938
76221875.0 -0.1964111328125 -0.047149658203125
107443750.0 -0.254730224609375 0.1197967529296875
138665625.0 -0.1479339599609375 0.32861328125
169887500.0 0.1238861083984375 0.4171295166015625
201109375.0 0.4219512939453125 0.280548095703125
232331250.0 0.5787353515625 -0.057891845703125
263553125.0 0.4891510009765625 -0.4528350830078125
294775000.0 0.097930908203125 -0.732421875
325996875.0 -0.415802001953125 -0.68023681640625
357218750.0 -0.806304931640625 -0.296417236328125
388440625.0 -0.885284423828125 0.300872802734375
419662500.0 -0.5166015625 0.8663330078125
450884375.0 0.17376708984375 1.0284423828125
482106250.0 0.798583984375 0.711944580078125
513328125.0 1.11907958984375 0.08648681640625
544550000.0 1.0030517578125 -0.68011474609375
575771875.0 0.33544921875 -1.23809814453125
606993750.0 -0.554443359375 -1.176513671875
638215625.0 -1.1656494140625 -0.58941650390625
669437500.0 -1.33905029296875 0.23419189453125
700659375.0 -0.9698486328125 1.09613037109375
731881250.0 -0.0030517578125 1.54254150390625
763103125.0 1.00579833984375 1.15472412109375
794325000.0 1.46807861328125 0.28070068359375
825546875.0 1.36627197265625 -0.65167236328125
856768750.0 0.79345703125 -1.4000244140625
887990625.0 -0.2933349609375 -1.647216796875
919212500.0 -1.28790283203125 -1.07720947265625
950434375.0 -1.6474609375 -0.0582275390625
981656250.0 -1.38128662109375 0.9459228515625
1012878125.0 -0.52838134765625 1.67132568359375
1044100000.0 0.69732666015625 1.66015625
1075321875.0 1.5738525390625 0.81060791015625
1106543750.0 1.703369140625 -0.3138427734375
1137765625.0 1.1851806640625 -1.2838134765625
1168987500.0 0.13702392578125 -1.795654296875
1200209375.0 -1.061767578125 -1.48187255859375
1231431250.0 -1.72650146484375 -0.4522705078125
1262653125.0 -1.59271240234375 0.68450927734375
1293875000.0 -0.8502197265625 1.49078369140625
1325096875.0 0.22857666015625 1.705078125
1356318750.0 1.23468017578125 1.21478271484375
1387540625.0 1.73876953125 0.18756103515625
1418762500.0 1.4676513671875 -0.95123291015625
1449984375.0 0.52825927734375 -1.62481689453125
1481206250.0 -0.55010986328125 -1.55450439453125
1512428125.0 -1.3411865234375 -0.91827392578125
1543650000.0 -1.6544189453125 0.06610107421875
1574871875.0 -1.27215576171875 1.10845947265625
1606093750.0 -0.271484375 1.6304931640625
1637315625.0 0.74224853515625 1.39892578125
1668537500.0 1.39520263671875 0.69476318359375
1699759375.0 1.571533203125 -0.27740478515625
1730981250.0 1.0626220703125 -1.22833251953125
1762203125.0 0.0413818359375 -1.56890869140625
1793425000.0 -0.8551025390625 -1.224853515625
1824646875.0 -1.3927001953125 -0.51409912109375
1855868750.0 -1.47247314453125 0.432373046875
1887090625.0 -0.8740234375 1.2843017578125
1918312500.0 0.11767578125 1.4853515625
1949534375.0 0.920654296875 1.087890625
1980756250.0 1.37371826171875 0.369140625
2011978125.0 1.35791015625 -0.53167724609375
2043200000.0 0.74847412109375 -1.260498046875
2074421875.0 -0.15740966796875 -1.4320068359375
2105643750.0 -0.95977783203125 -1.07080078125
2136865625.0 -1.44635009765625 -0.3040771484375
2168087500.0 -1.35565185546875 0.6712646484375
2199309375.0 -0.63787841796875 1.35028076171875
2230531250.0 0.28204345703125 1.43487548828125
2261753125.0 1.07183837890625 1.01251220703125
2292975000.0 1.512939453125 0.16973876953125
2324196875.0 1.303955078125 -0.81842041015625
2355418750.0 0.52447509765625 -1.418701171875
2386640625.0 -0.4041748046875 -1.44775390625
2417862500.0 -1.17950439453125 -1.02288818359375
2449084375.0 -1.60357666015625 -0.0831298828125
2480306250.0 -1.30987548828125 0.92633056640625
2511528125.0 -0.49334716796875 1.50567626953125
2542750000.0 0.48846435546875 1.53448486328125
2573971875.0 1.37005615234375 0.9664306640625
2605193750.0 1.71575927734375 -0.11309814453125
2636415625.0 1.25994873046875 -1.152099609375
2667637500.0 0.30584716796875 -1.66595458984375
2698859375.0 -0.76849365234375 -1.53240966796875
2730081250.0 -1.57269287109375 -0.73907470703125
2761303125.0 -1.67926025390625 0.38885498046875
2792525000.0 -1.0975341796875 1.3067626953125
2823746875.0 -0.10113525390625 1.72723388671875
2854968750.0 1.011474609375 1.4534912109375
2886190625.0 1.689697265625 0.4903564453125
2917412500.0 1.59747314453125 -0.6171875
2948634375.0 0.93780517578125 -1.4307861328125
2979856250.0 -0.10888671875 -1.774658203125
3011078125.0 -1.2469482421875 -1.34033203125
3042300000.0 -1.77398681640625 -0.23345947265625
3073521875.0 -1.50677490234375 0.83740234375
3104743750.0 -0.7620849609375 1.56524658203125
3135965625.0 0.36224365234375 1.8067626953125
3167187500.0 1.4964599609375 1.16265869140625
3198409375.0 1.8138427734375 -0.0760498046875
3229631250.0 1.346435546875 -1.080322265625
3260853125.0 0.4881591796875 -1.6661376953125
3292075000.0 -0.65338134765625 -1.6953125
3323296875.0 -1.6181640625 -0.87750244140625
3354518750.0 -1.72784423828125 0.32843017578125
3385740625.0 -1.1541748046875 1.231201171875
3416962500.0 -0.23089599609375 1.678466796875
3448184375.0 0.85955810546875 1.51983642578125
3479406250.0 1.63507080078125 0.6429443359375
3510628125.0 1.64190673828125 -0.49505615234375
3541850000.0 0.99908447265625 -1.3538818359375
3573071875.0 -0.00830078125 -1.68048095703125
3604293750.0 -1.02679443359375 -1.33575439453125
3635515625.0 -1.626220703125 -0.43731689453125
3666737500.0 -1.55975341796875 0.6466064453125
3697959375.0 -0.82373046875 1.4736328125
3729181250.0 0.26776123046875 1.62860107421875
3760403125.0 1.15106201171875 1.09613037109375
3791625000.0 1.5496826171875 0.21795654296875
3822846875.0 1.399658203125 -0.76123046875
3854068750.0 0.61944580078125 -1.47845458984375
3885290625.0 -0.4210205078125 -1.478759765625
3916512500.0 -1.14031982421875 -0.9097900390625
3947734375.0 -1.44525146484375 -0.11993408203125
3978956250.0 -1.295654296875 0.77703857421875
4010178125.0 -0.5303955078125 1.45294189453125
4041400000.0 0.47283935546875 1.4136962890625
4072621875.0 1.1502685546875 0.84613037109375
4103843750.0 1.44256591796875 0.063720703125
4135065625.0 1.26611328125 -0.8453369140625
4166287500.0 0.4569091796875 -1.49407958984375
4197509375.0 -0.5565185546875 -1.41326904296875
4228731250.0 -1.246337890625 -0.8017578125
4259953125.0 -1.50823974609375 0.07110595703125
4291175000.0 -1.1866455078125 1.00927734375
4322396875.0 -0.2886962890625 1.524658203125
4353618750.0 0.67205810546875 1.34814453125
4384840625.0 1.320068359375 0.69610595703125
4416062500.0 1.4990234375 -0.2279052734375
4447284375.0 1.05389404296875 -1.10321044921875
4478506250.0 0.17205810546875 -1.49407958984375
4509728125.0 -0.73272705078125 -1.30657958984375
4540950000.0 -1.39208984375 -0.63519287109375
4572171875.0 -1.51971435546875 0.35858154296875
4603393750.0 -0.97119140625 1.21173095703125
4634615625.0 -0.0615234375 1.5345458984375
4665837500.0 0.868896484375 1.30328369140625
4697059375.0 1.53948974609375 0.5147705078125
4728281250.0 1.52655029296875 -0.58099365234375
4759503125.0 0.82208251953125 -1.36669921875
4790725000.0 -0.1446533203125 -1.570556640625
4821946875.0 -1.08233642578125 -1.19293212890625
4853168750.0 -1.6126708984375 -0.2503662109375
4884390625.0 -1.37640380859375 0.7916259765625
4915612500.0 -0.61279296875 1.41070556640625
4946834375.0 0.32818603515625 1.507080078125
4978056250.0 1.2037353515625 1.015625
5009278125.0 1.55938720703125 0.03924560546875
5040500000.0 1.2276611328125 -0.87530517578125
5071721875.0 0.500732421875 -1.41302490234375
5102943750.0 -0.44622802734375 -1.49530029296875
5134165625.0 -1.3343505859375 -0.90478515625
5165387500.0 -1.56719970703125 0.14630126953125
5196609375.0 -1.13525390625 1.00860595703125
5227831250.0 -0.357666015625 1.50390625
5259053125.0 0.6868896484375 1.490478515625
5290275000.0 1.5196533203125 0.66259765625
5321496875.0 1.49017333984375 -0.4300537109375
5352718750.0 0.91998291015625 -1.15191650390625
5383940625.0 0.09576416015625 -1.49969482421875
5415162500.0 -0.8990478515625 -1.28240966796875
5446384375.0 -1.48223876953125 -0.3699951171875
5477606250.0 -1.2979736328125 0.56549072265625
5508828125.0 -0.73028564453125 1.14947509765625
5540050000.0 0.0538330078125 1.39703369140625
5571271875.0 0.9371337890625 1.10772705078125
5602493750.0 1.40655517578125 0.2596435546875
5633715625.0 1.23040771484375 -0.61175537109375
5664937500.0 0.64752197265625 -1.201171875
5696159375.0 -0.19561767578125 -1.38140869140625
5727381250.0 -1.01995849609375 -0.9779052734375
5758603125.0 -1.3902587890625 -0.145263671875
5789825000.0 -1.19317626953125 0.71710205078125
5821046875.0 -0.50665283203125 1.3048095703125
5852268750.0 0.410400390625 1.3116455078125
5883490625.0 1.0704345703125 0.771728515625
5914712500.0 1.30169677734375 0.0196533203125
5945934375.0 1.09521484375 -0.775146484375
5977156250.0 0.36114501953125 -1.310791015625
6008378125.0 -0.509521484375 -1.1815185546875
6039600000.0 -1.0208740234375 -0.64837646484375
6070821875.0 -1.2230224609375 -0.0042724609375
6102043750.0 -1.08233642578125 0.76165771484375
6133265625.0 -0.34259033203125 1.34271240234375
6164487500.0 0.5625 1.18658447265625
6195709375.0 1.0689697265625 0.6295166015625
6226931250.0 1.278564453125 -0.04248046875
6258153125.0 1.10345458984375 -0.8697509765625
6289375000.0 0.25616455078125 -1.44549560546875
6320596875.0 -0.68951416015625 -1.2060546875
6351818750.0 -1.1988525390625 -0.57208251953125
6383040625.0 -1.3541259765625 0.2066650390625
6414262500.0 -0.99932861328125 1.05682373046875
6445484375.0 -0.07830810546875 1.4560546875
6476706250.0 0.79461669921875 1.14703369140625
6507928125.0 1.29034423828125 0.4698486328125
6539150000.0 1.34661865234375 -0.3861083984375
6570371875.0 0.841064453125 -1.142333984375
6601593750.0 -0.01666259765625 -1.403076171875
6632815625.0 -0.83941650390625 -1.1353759765625
6664037500.0 -1.39996337890625 -0.41973876953125
6695259375.0 -1.37255859375 0.5648193359375
6726481250.0 -0.7099609375 1.25018310546875
6757703125.0 0.1300048828125 1.40509033203125
6788925000.0 0.95404052734375 1.129638671875
6820146875.0 1.55889892578125 0.287841796875
6851368750.0 1.3258056640625 -0.8193359375
6882590625.0 0.50604248046875 -1.336669921875
6913812500.0 -0.291259765625 -1.35498046875
6945034375.0 -1.068603515625 -1.02105712890625
6976256250.0 -1.591796875 -0.09368896484375
7007478125.0 -1.23565673828125 0.9324951171875
7038700000.0 -0.40093994140625 1.34368896484375
7069921875.0 0.35693359375 1.32208251953125
7101143750.0 1.11651611328125 0.96728515625
7132365625.0 1.60015869140625 0.01397705078125
7163587500.0 1.157470703125 -1.01873779296875
7194809375.0 0.30224609375 -1.3961181640625
7226031250.0 -0.51116943359375 -1.32476806640625
7257253125.0 -1.26666259765625 -0.82305908203125
7288475000.0 -1.55712890625 0.19854736328125
7319696875.0 -1.02978515625 1.1087646484375
7350918750.0 -0.16485595703125 1.4417724609375
7382140625.0 0.71429443359375 1.27490234375
7413362500.0 1.374267578125 0.57598876953125
7444584375.0 1.41082763671875 -0.40631103515625
7475806250.0 0.85821533203125 -1.14288330078125
7507028125.0 0.006103515625 -1.42755126953125
7538250000.0 -0.88671875 -1.123779296875
7569471875.0 -1.33563232421875 -0.31072998046875
7600693750.0 -1.20062255859375 0.4964599609375
7631915625.0 -0.7176513671875 1.0831298828125
7663137500.0 0.07965087890625 1.35711669921875
7694359375.0 0.94134521484375 0.980072021484375
7725581250.0 1.24249267578125 0.18048095703125
7756803125.0 1.08172607421875 -0.4989013671875
7788025000.0 0.6693115234375 -1.042724609375
7819246875.0 -0.1195068359375 -1.345458984375
7850468750.0 -0.991973876953125 -0.914947509765625
7881690625.0 -1.2308349609375 -0.105224609375
7912912500.0 -1.05426025390625 0.55328369140625
7944134375.0 -0.60552978515625 1.1107177734375
7975356250.0 0.270263671875 1.33294677734375
8006578125.0 1.04608154296875 0.77825927734375
8037800000.0 1.19287109375 0.0167236328125
8069021875.0 1.00677490234375 -0.617431640625
8100243750.0 0.500732421875 -1.1619873046875
8131465625.0 -0.38775634765625 -1.2547607421875
8162687500.0 -1.03076171875 -0.6866455078125
8193909375.0 -1.1800537109375 0.00732421875
8225131250.0 -1.01763916015625 0.677978515625
8256353125.0 -0.4207763671875 1.248291015625
8287575000.0 0.49896240234375 1.2249755859375
8318796875.0 1.08154296875 0.63555908203125
8350018750.0 1.24359130859375 -0.07464599609375
8381240625.0 1.0303955078125 -0.83758544921875
8412462500.0 0.2557373046875 -1.3712158203125
8443684375.0 -0.66851806640625 -1.16925048828125
8474906250.0 -1.17376708984375 -0.532470703125
8506128125.0 -1.29791259765625 0.2362060546875
8537350000.0 -0.92364501953125 1.04461669921875
8568571875.0 -0.01751708984375 1.39312744140625
8599793750.0 0.80230712890625 1.0528564453125
8631015625.0 1.2413330078125 0.3975830078125
8662237500.0 1.28570556640625 -0.43035888671875
8693459375.0 0.73663330078125 -1.17376708984375
8724681250.0 -0.16253662109375 -1.3311767578125
8755903125.0 -0.878814697265625 -0.95745849609375
8787125000.0 -1.30340576171875 -0.2813720703125
8818346875.0 -1.25079345703125 0.61419677734375
8849568750.0 -0.55694580078125 1.2593994140625
8880790625.0 0.2982177734375 1.28338623046875
8912012500.0 0.980682373046875 0.891754150390625
8943234375.0 1.3974609375 0.12890625
8974456250.0 1.16693115234375 -0.83868408203125
9005678125.0 0.3475341796875 -1.31329345703125
9036900000.0 -0.44384765625 -1.2242431640625
9068121875.0 -1.10052490234375 -0.7861328125
9099343750.0 -1.4407958984375 0.097412109375
9130565625.0 -0.97869873046875 1.00909423828125
9161787500.0 -0.15423583984375 1.28350830078125
9193009375.0 0.55377197265625 1.1328125
9224231250.0 1.17950439453125 0.65478515625
9255453125.0 1.400146484375 -0.29632568359375
9286675000.0 0.80712890625 -1.0830078125
9317896875.0 0.0269775390625 -1.24603271484375
9349118750.0 -0.6544189453125 -1.06866455078125
9380340625.0 -1.2574462890625 -0.50946044921875
9411562500.0 -1.3101806640625 0.4754638671875
9442784375.0 -0.64862060546875 1.11468505859375
9474006250.0 0.08770751953125 1.20989990234375
9505228125.0 0.76287841796875 0.97979736328125
9536450000.0 1.27197265625 0.31427001953125
9567671875.0 1.14410400390625 -0.57867431640625
9598893750.0 0.52978515625 -1.06793212890625
9630115625.0 -0.14324951171875 -1.15679931640625
9661337500.0 -0.81854248046875 -0.90264892578125
9692559375.0 -1.23834228515625 -0.190673828125
9723781250.0 -1.04296875 0.6025390625
9755003125.0 -0.48590087890625 1.0491943359375
9786225000.0 0.1966552734375 1.1572265625
9817446875.0 0.89404296875 0.8277587890625
9848668750.0 1.19818115234375 0.07843017578125
9879890625.0 0.96820068359375 -0.617340087890625
9911112500.0 0.4521484375 -1.05047607421875
9942334375.0 -0.2669677734375 -1.15850830078125
9973556250.0 -0.943023681640625 -0.7384033203125
10004778125.0 -1.1441650390625 -0.01910400390625
10036000000.0 -0.943695068359375 0.614288330078125
10067221875.0 -0.4423828125 1.09552001953125
10098443750.0 0.36761474609375 1.1796875
10129665625.0 1.00250244140625 0.64361572265625
10160887500.0 1.11920166015625 -0.05078125
10192109375.0 0.9178466796875 -0.663177490234375
10223331250.0 0.36212158203125 -1.151123046875
10254553125.0 -0.48858642578125 -1.1148681640625
10285775000.0 -0.9857177734375 -0.53564453125
10316996875.0 -1.06640625 0.07568359375
10348218750.0 -0.899383544921875 0.668365478515625
10379440625.0 -0.32293701171875 1.17437744140625
10410662500.0 0.5262451171875 1.08514404296875
10441884375.0 0.99005126953125 0.52191162109375
10473106250.0 1.10711669921875 -0.08319091796875
10504328125.0 0.94873046875 -0.75653076171875
10535550000.0 0.24078369140625 -1.29345703125
10566771875.0 -0.6568603515625 -1.0777587890625
10597993750.0 -1.081298828125 -0.45941162109375
10629215625.0 -1.1739501953125 0.20452880859375
10660437500.0 -0.888153076171875 0.949493408203125
10691659375.0 -0.0093994140625 1.33697509765625
10722881250.0 0.78363037109375 0.95172119140625
10754103125.0 1.1190185546875 0.3248291015625
10785325000.0 1.13848876953125 -0.3665771484375
10816546875.0 0.7001953125 -1.049072265625
10847768750.0 -0.14501953125 -1.22900390625
10878990625.0 -0.80169677734375 -0.84454345703125
10910212500.0 -1.1226806640625 -0.2459716796875
10941434375.0 -1.09808349609375 0.477783203125
10972656250.0 -0.5684814453125 1.08349609375
11003878125.0 0.21722412109375 1.17401123046875
11035100000.0 0.84771728515625 0.821685791015625
11066321875.0 1.21942138671875 0.174560546875
11097543750.0 1.0977783203125 -0.67633056640625
11128765625.0 0.386474609375 -1.197998046875
11159987500.0 -0.3953857421875 -1.13873291015625
11191209375.0 -0.999053955078125 -0.7021484375
11222431250.0 -1.271728515625 0.09271240234375
11253653125.0 -0.858978271484375 0.892425537109375
11284875000.0 -0.11566162109375 1.12493896484375
11316096875.0 0.510498046875 0.95574951171875
11347318750.0 1.00323486328125 0.5020751953125
11378540625.0 1.116455078125 -0.26727294921875
11409762500.0 0.635040283203125 -0.859527587890625
11440984375.0 0.03668212890625 -0.978607177734375
11472206250.0 -0.480377197265625 -0.848968505859375
11503428125.0 -0.951446533203125 -0.45672607421875
11534650000.0 -1.06878662109375 0.28717041015625
11565871875.0 -0.602569580078125 0.85418701171875
11597093750.0 -0.018035888671875 0.991943359375
11628315625.0 0.544219970703125 0.8746337890625
11659537500.0 1.05841064453125 0.39202880859375
11690759375.0 1.065185546875 -0.43426513671875
11721981250.0 0.5172119140625 -0.940032958984375
11753203125.0 -0.1055908203125 -1.037841796875
11784425000.0 -0.7235107421875 -0.809234619140625
11815646875.0 -1.10028076171875 -0.15179443359375
11846868750.0 -0.891448974609375 0.549774169921875
11878090625.0 -0.39129638671875 0.908935546875
11909312500.0 0.186004638671875 0.984619140625
11940534375.0 0.778900146484375 0.694793701171875
11971756250.0 1.02374267578125 0.040283203125
12002978125.0 0.806243896484375 -0.536712646484375
12034200000.0 0.38134765625 -0.889404296875
12065421875.0 -0.2142333984375 -1.00994873046875
12096643750.0 -0.846771240234375 -0.665496826171875
12127865625.0 -1.03369140625 0.01593017578125
12159087500.0 -0.814697265625 0.574493408203125
12190309375.0 -0.378387451171875 0.974639892578125
12221531250.0 0.33917236328125 1.0885009765625
12252753125.0 0.97833251953125 0.582305908203125
12283975000.0 1.05474853515625 -0.12750244140625
12315196875.0 0.79986572265625 -0.67578125
12346418750.0 0.28253173828125 -1.09149169921875
12377640625.0 -0.53948974609375 -1.06085205078125
12408862500.0 -1.0330810546875 -0.42059326171875
12440084375.0 -1.00921630859375 0.224365234375
12471306250.0 -0.742034912109375 0.73681640625
12502528125.0 -0.18023681640625 1.11956787109375
12533750000.0 0.61962890625 0.99334716796875
12564971875.0 1.03961181640625 0.36456298828125
12596193750.0 1.02984619140625 -0.264892578125
12627415625.0 0.748138427734375 -0.827880859375
12658637500.0 0.07952880859375 -1.2078857421875
12689859375.0 -0.736419677734375 -0.966552734375
12721081250.0 -1.11627197265625 -0.3067626953125
12752303125.0 -1.09759521484375 0.38214111328125
12783525000.0 -0.68768310546875 1.0257568359375
12814746875.0 0.16473388671875 1.2510986328125
12845968750.0 0.862762451171875 0.810791015625
12877190625.0 1.1163330078125 0.172119140625
12908412500.0 1.05517578125 -0.50067138671875
12939634375.0 0.54241943359375 -1.1173095703125
12970856250.0 -0.32061767578125 -1.17449951171875
13002078125.0 -0.893524169921875 -0.6937255859375
13033300000.0 -1.1055908203125 -0.0870361328125
13064521875.0 -1.00897216796875 0.59454345703125
13095743750.0 -0.42303466796875 1.153076171875
13126965625.0 0.40863037109375 1.1212158203125
13158187500.0 0.945831298828125 0.63238525390625
13189409375.0 1.14678955078125 -0.01959228515625
13220631250.0 0.936553955078125 -0.74700927734375
13251853125.0 0.23480224609375 -1.1708984375
13283075000.0 -0.50653076171875 -1.02020263671875
13314296875.0 -0.985443115234375 -0.5303955078125
13345518750.0 -1.13446044921875 0.17706298828125
