!Created with skrf (http://scikit-rf.org).
# Hz S RI R 50.0 
!freq ReS11 ImS11
45000000.0 -0.07727813720703125 -0.09673309326171875
76221875.0 -0.19745635986328125 -0.04746246337890625
107443750.0 -0.2560577392578125 0.120452880859375
138665625.0 -0.1483612060546875 0.3301239013671875
169887500.0 0.1244354248046875 0.419036865234375
201109375.0 0.423614501953125 0.2818603515625
232331250.0 0.58123779296875 -0.0579833984375
263553125.0 0.4915618896484375 -0.4555206298828125
294775000.0 0.0982666015625 -0.73638916015625
325996875.0 -0.418304443359375 -0.683990478515625
357218750.0 -0.811065673828125 -0.297821044921875
388440625.0 -0.890045166015625 0.30291748046875
419662500.0 -0.5189208984375 0.871063232421875
450884375.0 0.1748046875 1.0333251953125
482106250.0 0.802703857421875 0.71533203125
513328125.0 1.12457275390625 0.0865478515625
544550000.0 1.00726318359375 -0.6837158203125
575771875.0 0.3365478515625 -1.24334716796875
606993750.0 -0.55682373046875 -1.1815185546875
638215625.0 -1.170654296875 -0.5921630859375
669437500.0 -1.34490966796875 0.23541259765625
700659375.0 -0.9739990234375 1.10089111328125
731881250.0 -0.00335693359375 1.549072265625
763103125.0 1.00994873046875 1.16015625
794325000.0 1.47491455078125 0.2823486328125
825546875.0 1.37237548828125 -0.65484619140625
856768750.0 0.796630859375 -1.40863037109375
887990625.0 -0.29608154296875 -1.65576171875
919212500.0 -1.2955322265625 -1.08270263671875
950434375.0 -1.65765380859375 -0.05755615234375
981656250.0 -1.388916015625 0.95294189453125
1012878125.0 -0.53021240234375 1.6815185546875
1044100000.0 0.70233154296875 1.67010498046875
1075321875.0 1.58416748046875 0.8143310546875
1106543750.0 1.71343994140625 -0.317138671875
1137765625.0 1.1910400390625 -1.2918701171875
1168987500.0 0.1373291015625 -1.80633544921875
1200209375.0 -1.06866455078125 -1.49029541015625
1231431250.0 -1.7369384765625 -0.45379638671875
1262653125.0 -1.60064697265625 0.6898193359375
1293875000.0 -0.8541259765625 1.49945068359375
1325096875.0 0.23040771484375 1.71478271484375
1356318750.0 1.24169921875 1.2215576171875
1387540625.0 1.74798583984375 0.18878173828125
1418762500.0 1.475830078125 -0.95703125
1449984375.0 0.5303955078125 -1.6334228515625
1481206250.0 -0.5537109375 -1.5626220703125
1512428125.0 -1.3489990234375 -0.92266845703125
1543650000.0 -1.66259765625 0.06695556640625
1574871875.0 -1.27764892578125 1.114990234375
1606093750.0 -0.2720947265625 1.638671875
1637315625.0 0.746826171875 1.40533447265625
1668537500.0 1.4024658203125 0.697509765625
1699759375.0 1.57928466796875 -0.28009033203125
1730981250.0 1.0670166015625 -1.23541259765625
1762203125.0 0.04083251953125 -1.57672119140625
1793425000.0 -0.86029052734375 -1.23052978515625
1824646875.0 -1.399169921875 -0.515869140625
1855868750.0 -1.47955322265625 0.43499755859375
1887090625.0 -0.8780517578125 1.291259765625
1918312500.0 0.1187744140625 1.49322509765625
1949534375.0 0.92596435546875 1.0926513671875
1980756250.0 1.38128662109375 0.37066650390625
2011978125.0 1.3643798828125 -0.5350341796875
2043200000.0 0.751708984375 -1.267333984375
2074421875.0 -0.1588134765625 -1.43878173828125
2105643750.0 -0.96527099609375 -1.0760498046875
2136865625.0 -1.45306396484375 -0.304443359375
2168087500.0 -1.3616943359375 0.6749267578125
2199309375.0 -0.64007568359375 1.3572998046875
2230531250.0 0.28466796875 1.44140625
2261753125.0 1.07763671875 1.01678466796875
2292975000.0 1.520751953125 0.16925048828125
2324196875.0 1.30963134765625 -0.8226318359375
2355418750.0 0.52569580078125 -1.4254150390625
2386640625.0 -0.4071044921875 -1.4542236328125
2417862500.0 -1.18914794921875 -1.02764892578125
2449084375.0 -1.61285400390625 -0.08184814453125
2480306250.0 -1.3162841796875 0.93182373046875
2511528125.0 -0.493408203125 1.51611328125
2542750000.0 0.49322509765625 1.5428466796875
2573971875.0 1.37982177734375 0.9708251953125
2605193750.0 1.7257080078125 -0.11602783203125
2636415625.0 1.26593017578125 -1.15948486328125
2667637500.0 0.3056640625 -1.6751708984375
2698859375.0 -0.7760009765625 -1.54010009765625
2730081250.0 -1.582763671875 -0.74151611328125
2761303125.0 -1.6885986328125 0.39288330078125
2792525000.0 -1.1029052734375 1.3154296875
2823746875.0 -0.10076904296875 1.73785400390625
2854968750.0 1.018798828125 1.46044921875
2886190625.0 1.699951171875 0.49169921875
2917412500.0 1.6064453125 -0.623291015625
2948634375.0 0.94140625 -1.44195556640625
2979856250.0 -0.11260986328125 -1.78466796875
3011078125.0 -1.25640869140625 -1.34661865234375
3042300000.0 -1.783203125 -0.2332763671875
3073521875.0 -1.51470947265625 0.84454345703125
3104743750.0 -0.7647705078125 1.57647705078125
3135965625.0 0.36676025390625 1.81689453125
3167187500.0 1.5081787109375 1.16729736328125
3198409375.0 1.82421875 -0.07794189453125
3229631250.0 1.35369873046875 -1.088623046875
3260853125.0 0.4893798828125 -1.67706298828125
3292075000.0 -0.6611328125 -1.704833984375
3323296875.0 -1.628173828125 -0.88104248046875
3354518750.0 -1.73748779296875 0.332763671875
3385740625.0 -1.15924072265625 1.23956298828125
3416962500.0 -0.229248046875 1.69000244140625
3448184375.0 0.86737060546875 1.5272216796875
3479406250.0 1.643798828125 0.64471435546875
3510628125.0 1.65106201171875 -0.50030517578125
3541850000.0 1.0028076171875 -1.36279296875
3573071875.0 -0.0106201171875 -1.6895751953125
3604293750.0 -1.03436279296875 -1.34149169921875
3635515625.0 -1.635986328125 -0.43743896484375
3666737500.0 -1.567626953125 0.65081787109375
3697959375.0 -0.82562255859375 1.48419189453125
3729181250.0 0.27203369140625 1.63726806640625
3760403125.0 1.1590576171875 1.10107421875
3791625000.0 1.55938720703125 0.21649169921875
3822846875.0 1.4063720703125 -0.76556396484375
3854068750.0 0.6202392578125 -1.48968505859375
3885290625.0 -0.42529296875 -1.486572265625
3916512500.0 -1.14959716796875 -0.9130859375
3947734375.0 -1.45391845703125 -0.11846923828125
3978956250.0 -1.30181884765625 0.78326416015625
4010178125.0 -0.53143310546875 1.4613037109375
4041400000.0 0.47808837890625 1.41998291015625
4072621875.0 1.1590576171875 0.84869384765625
4103843750.0 1.4500732421875 0.06072998046875
4135065625.0 1.271728515625 -0.85186767578125
4166287500.0 0.4566650390625 -1.50250244140625
4197509375.0 -0.561767578125 -1.4188232421875
4228731250.0 -1.25457763671875 -0.80316162109375
4259953125.0 -1.514892578125 0.07354736328125
4291175000.0 -1.19122314453125 1.015380859375
4322396875.0 -0.2879638671875 1.53265380859375
4353618750.0 0.678466796875 1.3538818359375
4384840625.0 1.32794189453125 0.69769287109375
4416062500.0 1.50653076171875 -0.23089599609375
4447284375.0 1.0570068359375 -1.10992431640625
4478506250.0 0.16998291015625 -1.50146484375
4509728125.0 -0.7376708984375 -1.311279296875
4540950000.0 -1.40069580078125 -0.63580322265625
4572171875.0 -1.52752685546875 0.36431884765625
4603393750.0 -0.97381591796875 1.21844482421875
4634615625.0 -0.059326171875 1.54248046875
4665837500.0 0.8768310546875 1.3079833984375
4697059375.0 1.54864501953125 0.5147705078125
4728281250.0 1.53387451171875 -0.58740234375
4759503125.0 0.82366943359375 -1.373779296875
4790725000.0 -0.149169921875 -1.57818603515625
4821946875.0 -1.0906982421875 -1.19708251953125
4853168750.0 -1.62078857421875 -0.24896240234375
4884390625.0 -1.38177490234375 0.79949951171875
4915612500.0 -0.612548828125 1.41998291015625
4946834375.0 0.3328857421875 1.51422119140625
4978056250.0 1.21160888671875 1.01953125
5009278125.0 1.568115234375 0.0362548828125
5040500000.0 1.23248291015625 -0.880859375
5071721875.0 0.50091552734375 -1.41986083984375
5102943750.0 -0.45013427734375 -1.501220703125
5134165625.0 -1.34326171875 -0.90643310546875
5165387500.0 -1.57421875 0.14947509765625
5196609375.0 -1.13916015625 1.01611328125
5227831250.0 -0.3572998046875 1.5123291015625
5259053125.0 0.6922607421875 1.49658203125
5290275000.0 1.52984619140625 0.662353515625
5321496875.0 1.4971923828125 -0.4354248046875
5352718750.0 0.92236328125 -1.15966796875
5383940625.0 0.0941162109375 -1.50592041015625
5415162500.0 -0.9072265625 -1.28729248046875
5446384375.0 -1.49078369140625 -0.36932373046875
5477606250.0 -1.30291748046875 0.57012939453125
5508828125.0 -0.732177734375 1.1572265625
5540050000.0 0.05657958984375 1.4046630859375
5571271875.0 0.94512939453125 1.1116943359375
5602493750.0 1.4144287109375 0.25811767578125
5633715625.0 1.23565673828125 -0.6173095703125
5664937500.0 0.64874267578125 -1.207275390625
5696159375.0 -0.19927978515625 -1.38836669921875
5727381250.0 -1.0269775390625 -0.980224609375
5758603125.0 -1.39801025390625 -0.142578125
5789825000.0 -1.19781494140625 0.72283935546875
5821046875.0 -0.50592041015625 1.313720703125
5852268750.0 0.41571044921875 1.31756591796875
5883490625.0 1.07733154296875 0.77301025390625
5914712500.0 1.3084716796875 0.0167236328125
5945934375.0 1.0992431640625 -0.7806396484375
5977156250.0 0.3594970703125 -1.318359375
6008378125.0 -0.51470947265625 -1.1859130859375
6039600000.0 -1.0274658203125 -0.6492919921875
6070821875.0 -1.229248046875 -0.00152587890625
6102043750.0 -1.08612060546875 0.76715087890625
6133265625.0 -0.34002685546875 1.35028076171875
6164487500.0 0.5677490234375 1.19012451171875
6195709375.0 1.07562255859375 0.630615234375
6226931250.0 1.28466796875 -0.045654296875
6258153125.0 1.1072998046875 -0.87750244140625
6289375000.0 0.25335693359375 -1.452392578125
6320596875.0 -0.694580078125 -1.208984375
6351818750.0 -1.20635986328125 -0.57135009765625
6383040625.0 -1.35980224609375 0.210693359375
6414262500.0 -1.0010986328125 1.06396484375
6445484375.0 -0.07452392578125 1.46368408203125
6476706250.0 0.80181884765625 1.150390625
6507928125.0 1.29522705078125 0.4697265625
6539150000.0 1.35223388671875 -0.39166259765625
6570371875.0 0.84197998046875 -1.14984130859375
6601593750.0 -0.0203857421875 -1.41009521484375
6632815625.0 -0.84539794921875 -1.1387939453125
6664037500.0 -1.40838623046875 -0.4185791015625
6695259375.0 -1.37841796875 0.57275390625
6726481250.0 -0.7100830078125 1.25775146484375
6757703125.0 0.13360595703125 1.41217041015625
6788925000.0 0.96124267578125 1.1329345703125
6820146875.0 1.567138671875 0.28521728515625
6851368750.0 1.3289794921875 -0.8255615234375
6882590625.0 0.505615234375 -1.3443603515625
6913812500.0 -0.29583740234375 -1.361083984375
6945034375.0 -1.0767822265625 -1.02337646484375
6976256250.0 -1.59930419921875 -0.0894775390625
7007478125.0 -1.23956298828125 0.93896484375
7038700000.0 -0.4005126953125 1.3511962890625
7069921875.0 0.36328125 1.32940673828125
7101143750.0 1.12603759765625 0.9705810546875
7132365625.0 1.6080322265625 0.00872802734375
7163587500.0 1.15985107421875 -1.02996826171875
7194809375.0 0.30072021484375 -1.4031982421875
7226031250.0 -0.51849365234375 -1.33172607421875
7257253125.0 -1.275634765625 -0.82452392578125
7288475000.0 -1.56268310546875 0.20404052734375
7319696875.0 -1.0313720703125 1.1201171875
7350918750.0 -0.16131591796875 1.45159912109375
7382140625.0 0.7239990234375 1.28082275390625
7413362500.0 1.38580322265625 0.574951171875
7444584375.0 1.41796875 -0.41339111328125
7475806250.0 0.85882568359375 -1.1514892578125
7507028125.0 0.00067138671875 -1.437744140625
7538250000.0 -0.8955078125 -1.12615966796875
7569471875.0 -1.3426513671875 -0.30950927734375
7600693750.0 -1.2059326171875 0.5013427734375
7631915625.0 -0.7191162109375 1.092041015625
7663137500.0 0.08380126953125 1.3651123046875
7694359375.0 0.94842529296875 0.983062744140625
7725581250.0 1.2496337890625 0.17901611328125
7756803125.0 1.087158203125 -0.5045166015625
7788025000.0 0.670166015625 -1.05145263671875
7819246875.0 -0.1251220703125 -1.3531494140625
7850468750.0 -1.00018310546875 -0.917724609375
7881690625.0 -1.23870849609375 -0.10150146484375
7912912500.0 -1.05853271484375 0.5616455078125
7944134375.0 -0.60528564453125 1.11865234375
7975356250.0 0.27777099609375 1.34088134765625
8006578125.0 1.05316162109375 0.7796630859375
8037800000.0 1.19940185546875 0.011962890625
8069021875.0 1.0108642578125 -0.62353515625
8100243750.0 0.49951171875 -1.1676025390625
8131465625.0 -0.3946533203125 -1.2596435546875
8162687500.0 -1.0382080078125 -0.68621826171875
8193909375.0 -1.18603515625 0.01251220703125
8225131250.0 -1.02099609375 0.6842041015625
8256353125.0 -0.41949462890625 1.25677490234375
8287575000.0 0.5074462890625 1.23016357421875
8318796875.0 1.0904541015625 0.63458251953125
8350018750.0 1.25048828125 -0.0799560546875
8381240625.0 1.0335693359375 -0.8468017578125
8412462500.0 0.25286865234375 -1.37969970703125
8443684375.0 -0.6773681640625 -1.17364501953125
8474906250.0 -1.1829833984375 -0.5303955078125
8506128125.0 -1.30316162109375 0.24029541015625
8537350000.0 -0.92596435546875 1.05474853515625
8568571875.0 -0.0113525390625 1.40185546875
8599793750.0 0.8076171875 1.05523681640625
8631015625.0 1.24700927734375 0.39666748046875
8662237500.0 1.2919921875 -0.43792724609375
8693459375.0 0.73626708984375 -1.1839599609375
8724681250.0 -0.16705322265625 -1.33740234375
8755903125.0 -0.88653564453125 -0.959075927734375
8787125000.0 -1.3114013671875 -0.28045654296875
8818346875.0 -1.25543212890625 0.62237548828125
8849568750.0 -0.55517578125 1.2686767578125
8880790625.0 0.3043212890625 1.2890625
8912012500.0 0.988677978515625 0.893646240234375
8943234375.0 1.4066162109375 0.124755859375
8974456250.0 1.16937255859375 -0.8475341796875
9005678125.0 0.34576416015625 -1.3206787109375
9036900000.0 -0.451904296875 -1.22930908203125
9068121875.0 -1.10736083984375 -0.78759765625
9099343750.0 -1.44659423828125 0.10260009765625
9130565625.0 -0.97998046875 1.01959228515625
9161787500.0 -0.15106201171875 1.28912353515625
9193009375.0 0.56231689453125 1.13726806640625
9224231250.0 1.185302734375 0.6541748046875
9255453125.0 1.40478515625 -0.30181884765625
9286675000.0 0.806640625 -1.09173583984375
9317896875.0 0.0228271484375 -1.252685546875
9349118750.0 -0.662109375 -1.073974609375
9380340625.0 -1.266845703125 -0.50799560546875
9411562500.0 -1.315185546875 0.483154296875
9442784375.0 -0.64715576171875 1.12353515625
9474006250.0 0.09368896484375 1.2177734375
9505228125.0 0.770965576171875 0.982879638671875
9536450000.0 1.28179931640625 0.3104248046875
9567671875.0 1.14727783203125 -0.58758544921875
9598893750.0 0.52862548828125 -1.07623291015625
9630115625.0 -0.14886474609375 -1.16375732421875
9661337500.0 -0.8277587890625 -0.903717041015625
9692559375.0 -1.24542236328125 -0.1861572265625
9723781250.0 -1.046142578125 0.6104736328125
9755003125.0 -0.48504638671875 1.05694580078125
9786225000.0 0.20440673828125 1.16473388671875
9817446875.0 0.902191162109375 0.82830810546875
9848668750.0 1.20294189453125 0.074951171875
9879890625.0 0.970916748046875 -0.621368408203125
9911112500.0 0.45074462890625 -1.0584716796875
9942334375.0 -0.2733154296875 -1.163818359375
9973556250.0 -0.950042724609375 -0.737884521484375
10004778125.0 -1.15142822265625 -0.01336669921875
10036000000.0 -0.94598388671875 0.621917724609375
10067221875.0 -0.440185546875 1.103759765625
10098443750.0 0.37579345703125 1.185302734375
10129665625.0 1.00787353515625 0.641357421875
10160887500.0 1.1248779296875 -0.05657958984375
10192109375.0 0.91949462890625 -0.66998291015625
10223331250.0 0.35894775390625 -1.157958984375
10254553125.0 -0.4932861328125 -1.11651611328125
10285775000.0 -0.992462158203125 -0.533599853515625
10316996875.0 -1.0718994140625 0.0804443359375
10348218750.0 -0.902618408203125 0.67669677734375
10379440625.0 -0.318359375 1.18231201171875
10410662500.0 0.53387451171875 1.087890625
10441884375.0 0.997528076171875 0.52044677734375
10473106250.0 1.114013671875 -0.08868408203125
10504328125.0 0.951416015625 -0.76300048828125
10535550000.0 0.23516845703125 -1.3011474609375
10566771875.0 -0.666015625 -1.07977294921875
10597993750.0 -1.0869140625 -0.45599365234375
10629215625.0 -1.18023681640625 0.21038818359375
10660437500.0 -0.888641357421875 0.958831787109375
10691659375.0 -0.00396728515625 1.3421630859375
10722881250.0 0.791656494140625 0.95355224609375
10754103125.0 1.1265869140625 0.32159423828125
10785325000.0 1.14349365234375 -0.37286376953125
10816546875.0 0.69927978515625 -1.0577392578125
10847768750.0 -0.1517333984375 -1.234375
10878990625.0 -0.8095703125 -0.8446044921875
10910212500.0 -1.1282958984375 -0.24267578125
10941434375.0 -1.1011962890625 0.481689453125
10972656250.0 -0.56585693359375 1.09259033203125
11003878125.0 0.22271728515625 1.1783447265625
11035100000.0 0.854339599609375 0.82318115234375
11066321875.0 1.22723388671875 0.1715087890625
11097543750.0 1.1007080078125 -0.68206787109375
11128765625.0 0.382568359375 -1.20562744140625
11159987500.0 -0.40234375 -1.143310546875
11191209375.0 -1.00640869140625 -0.70245361328125
11222431250.0 -1.27899169921875 0.09893798828125
11253653125.0 -0.858306884765625 0.90087890625
11284875000.0 -0.10980224609375 1.13275146484375
11316096875.0 0.517242431640625 0.958740234375
11347318750.0 1.00927734375 0.50128173828125
11378540625.0 1.12109375 -0.27484130859375
11409762500.0 0.632720947265625 -0.86798095703125
11440984375.0 0.0328369140625 -0.9820556640625
11472206250.0 -0.4869384765625 -0.852630615234375
11503428125.0 -0.95977783203125 -0.45361328125
11534650000.0 -1.07177734375 0.29443359375
11565871875.0 -0.601409912109375 0.85919189453125
11597093750.0 -0.01513671875 0.995758056640625
11628315625.0 0.5489501953125 0.877593994140625
11659537500.0 1.06634521484375 0.38958740234375
11690759375.0 1.068603515625 -0.44183349609375
11721981250.0 0.51617431640625 -0.94818115234375
11753203125.0 -0.110107421875 -1.04083251953125
11784425000.0 -0.731842041015625 -0.80975341796875
11815646875.0 -1.107177734375 -0.14703369140625
11846868750.0 -0.892852783203125 0.557830810546875
11878090625.0 -0.389251708984375 0.9146728515625
11909312500.0 0.192626953125 0.989288330078125
11940534375.0 0.787445068359375 0.69586181640625
11971756250.0 1.0299072265625 0.0340576171875
12002978125.0 0.80780029296875 -0.543853759765625
12034200000.0 0.38067626953125 -0.89288330078125
12065421875.0 -0.2203369140625 -1.01397705078125
12096643750.0 -0.854888916015625 -0.664794921875
12127865625.0 -1.0386962890625 0.02130126953125
12159087500.0 -0.816436767578125 0.582916259765625
12190309375.0 -0.3756103515625 0.981781005859375
12221531250.0 0.34478759765625 1.0927734375
12252753125.0 0.9852294921875 0.579986572265625
12283975000.0 1.057861328125 -0.1318359375
12315196875.0 0.801666259765625 -0.68194580078125
12346418750.0 0.2779541015625 -1.098388671875
12377640625.0 -0.544677734375 -1.06292724609375
12408862500.0 -1.040283203125 -0.41668701171875
12440084375.0 -1.0113525390625 0.22821044921875
12471306250.0 -0.742584228515625 0.74285888671875
12502528125.0 -0.17626953125 1.12628173828125
12533750000.0 0.626190185546875 0.993804931640625
12564971875.0 1.04901123046875 0.3602294921875
12596193750.0 1.0330810546875 -0.269775390625
12627415625.0 0.7481689453125 -0.835784912109375
12658637500.0 0.07403564453125 -1.21417236328125
12689859375.0 -0.742828369140625 -0.967742919921875
12721081250.0 -1.122802734375 -0.30328369140625
12752303125.0 -1.101318359375 0.3876953125
12783525000.0 -0.68585205078125 1.03466796875
12814746875.0 0.17156982421875 1.257080078125
12845968750.0 0.8719482421875 0.8104248046875
12877190625.0 1.12506103515625 0.1673583984375
12908412500.0 1.05914306640625 -0.5098876953125
12939634375.0 0.54052734375 -1.12554931640625
12970856250.0 -0.3277587890625 -1.17926025390625
13002078125.0 -0.90234375 -0.692352294921875
13033300000.0 -1.11163330078125 -0.082763671875
13064521875.0 -1.0111083984375 0.6036376953125
13095743750.0 -0.41607666015625 1.1644287109375
13126965625.0 0.4161376953125 1.12359619140625
13158187500.0 0.95440673828125 0.63153076171875
13189409375.0 1.15350341796875 -0.026611328125
13220631250.0 0.937042236328125 -0.75787353515625
13251853125.0 0.2291259765625 -1.17864990234375
13283075000.0 -0.5150146484375 -1.0230712890625
13314296875.0 -0.994476318359375 -0.52703857421875
13345518750.0 -1.13995361328125 0.18182373046875
