!Created with skrf (http://scikit-rf.org).
# Hz S RI R 50.0 
!freq ReS11 ImS11
45000000.0 -0.0770416259765625 -0.0968170166015625
76221875.0 -0.19623565673828125 -0.04755401611328125
107443750.0 -0.2546539306640625 0.1197052001953125
138665625.0 -0.148040771484375 0.3283233642578125
169887500.0 0.123626708984375 0.417266845703125
201109375.0 0.4215545654296875 0.2805938720703125
232331250.0 0.5784912109375 -0.057464599609375
263553125.0 0.4891357421875 -0.45233154296875
294775000.0 0.0982666015625 -0.731597900390625
325996875.0 -0.41510009765625 -0.679718017578125
357218750.0 -0.805450439453125 -0.29669189453125
388440625.0 -0.88470458984375 0.30029296875
419662500.0 -0.5164794921875 0.865386962890625
450884375.0 0.17315673828125 1.0277099609375
482106250.0 0.797760009765625 0.711883544921875
513328125.0 1.1181640625 0.08685302734375
544550000.0 1.00244140625 -0.67926025390625
575771875.0 0.3359375 -1.23699951171875
606993750.0 -0.553466796875 -1.17596435546875
638215625.0 -1.1646728515625 -0.58953857421875
669437500.0 -1.338134765625 0.233642578125
700659375.0 -0.96978759765625 1.09527587890625
731881250.0 -0.0032958984375 1.54180908203125
763103125.0 1.00469970703125 1.1544189453125
794325000.0 1.4671630859375 0.281005859375
825546875.0 1.36566162109375 -0.65087890625
856768750.0 0.7933349609375 -1.39892578125
887990625.0 -0.29205322265625 -1.64581298828125
919212500.0 -1.28643798828125 -1.07684326171875
950434375.0 -1.64617919921875 -0.05865478515625
981656250.0 -1.38037109375 0.94482421875
1012878125.0 -0.52862548828125 1.669189453125
1044100000.0 0.69573974609375 1.6591796875
1075321875.0 1.57220458984375 0.810791015625
1106543750.0 1.7022705078125 -0.31268310546875
1137765625.0 1.18450927734375 -1.2823486328125
1168987500.0 0.13775634765625 -1.7939453125
1200209375.0 -1.05999755859375 -1.48138427734375
1231431250.0 -1.7244873046875 -0.452880859375
1262653125.0 -1.591552734375 0.6837158203125
1293875000.0 -0.8504638671875 1.48956298828125
1325096875.0 0.2275390625 1.703857421875
1356318750.0 1.2332763671875 1.214599609375
1387540625.0 1.7374267578125 0.18829345703125
1418762500.0 1.4671630859375 -0.94970703125
1449984375.0 0.52862548828125 -1.62310791015625
1481206250.0 -0.5489501953125 -1.55340576171875
1512428125.0 -1.340087890625 -0.91827392578125
1543650000.0 -1.6529541015625 0.06591796875
1574871875.0 -1.27130126953125 1.10723876953125
1606093750.0 -0.2725830078125 1.62896728515625
1637315625.0 0.7410888671875 1.39849853515625
1668537500.0 1.39410400390625 0.69488525390625
1699759375.0 1.57037353515625 -0.27655029296875
1730981250.0 1.0625 -1.22711181640625
1762203125.0 0.04229736328125 -1.5679931640625
1793425000.0 -0.85430908203125 -1.22442626953125
1824646875.0 -1.391845703125 -0.51422119140625
1855868750.0 -1.47198486328125 0.43182373046875
1887090625.0 -0.873291015625 1.283203125
1918312500.0 0.1171875 1.4844970703125
1949534375.0 0.91986083984375 1.08740234375
1980756250.0 1.3731689453125 0.36968994140625
2011978125.0 1.3572998046875 -0.53094482421875
2043200000.0 0.74871826171875 -1.25933837890625
2074421875.0 -0.1566162109375 -1.43121337890625
2105643750.0 -0.958740234375 -1.070556640625
2136865625.0 -1.445068359375 -0.30426025390625
2168087500.0 -1.3548583984375 0.6697998046875
2199309375.0 -0.637939453125 1.34906005859375
2230531250.0 0.281494140625 1.43365478515625
2261753125.0 1.071044921875 1.0126953125
2292975000.0 1.5120849609375 0.16998291015625
2324196875.0 1.30352783203125 -0.8173828125
2355418750.0 0.52423095703125 -1.4178466796875
2386640625.0 -0.4039306640625 -1.4466552734375
2417862500.0 -1.17767333984375 -1.0225830078125
2449084375.0 -1.60162353515625 -0.0843505859375
2480306250.0 -1.30926513671875 0.9237060546875
2511528125.0 -0.49322509765625 1.5047607421875
2542750000.0 0.48797607421875 1.5338134765625
2573971875.0 1.3685302734375 0.96612548828125
2605193750.0 1.71484375 -0.11279296875
2636415625.0 1.2589111328125 -1.15045166015625
2667637500.0 0.30584716796875 -1.6644287109375
2698859375.0 -0.76666259765625 -1.53118896484375
2730081250.0 -1.5706787109375 -0.7388916015625
2761303125.0 -1.6776123046875 0.3868408203125
2792525000.0 -1.09716796875 1.30438232421875
2823746875.0 -0.10162353515625 1.7259521484375
2854968750.0 1.01007080078125 1.45257568359375
2886190625.0 1.6883544921875 0.490966796875
2917412500.0 1.596435546875 -0.61578369140625
2948634375.0 0.9368896484375 -1.4302978515625
2979856250.0 -0.10797119140625 -1.772705078125
3011078125.0 -1.24560546875 -1.34014892578125
3042300000.0 -1.77099609375 -0.23455810546875
3073521875.0 -1.50482177734375 0.835693359375
3104743750.0 -0.76129150390625 1.56524658203125
3135965625.0 0.36090087890625 1.80560302734375
3167187500.0 1.49554443359375 1.162109375
3198409375.0 1.8125 -0.07525634765625
3229631250.0 1.34637451171875 -1.07867431640625
3260853125.0 0.48858642578125 -1.66497802734375
3292075000.0 -0.654052734375 -1.694580078125
3323296875.0 -1.6162109375 -0.8773193359375
3354518750.0 -1.72674560546875 0.3277587890625
3385740625.0 -1.15301513671875 1.2288818359375
3416962500.0 -0.230712890625 1.67816162109375
3448184375.0 0.858642578125 1.51849365234375
3479406250.0 1.6329345703125 0.642822265625
3510628125.0 1.640380859375 -0.49371337890625
3541850000.0 0.99847412109375 -1.352294921875
3573071875.0 -0.0068359375 -1.67864990234375
3604293750.0 -1.0255126953125 -1.3345947265625
3635515625.0 -1.62445068359375 -0.43792724609375
3666737500.0 -1.55877685546875 0.6451416015625
3697959375.0 -0.8238525390625 1.47247314453125
3729181250.0 0.267578125 1.62738037109375
3760403125.0 1.15008544921875 1.095947265625
3791625000.0 1.54974365234375 0.21759033203125
3822846875.0 1.398681640625 -0.75909423828125
3854068750.0 0.61956787109375 -1.4781494140625
3885290625.0 -0.419921875 -1.4783935546875
3916512500.0 -1.1387939453125 -0.9093017578125
3947734375.0 -1.44500732421875 -0.1199951171875
3978956250.0 -1.2952880859375 0.778076171875
4010178125.0 -0.53118896484375 1.4501953125
4041400000.0 0.471435546875 1.4119873046875
4072621875.0 1.149658203125 0.84649658203125
4103843750.0 1.442626953125 0.06329345703125
4135065625.0 1.26531982421875 -0.84375
4166287500.0 0.456787109375 -1.4932861328125
4197509375.0 -0.5555419921875 -1.41217041015625
4228731250.0 -1.2457275390625 -0.8016357421875
4259953125.0 -1.5057373046875 0.0697021484375
4291175000.0 -1.186279296875 1.0087890625
4322396875.0 -0.28973388671875 1.52276611328125
4353618750.0 0.67095947265625 1.34759521484375
4384840625.0 1.319091796875 0.69622802734375
4416062500.0 1.49847412109375 -0.22711181640625
4447284375.0 1.05364990234375 -1.10150146484375
4478506250.0 0.17236328125 -1.4927978515625
4509728125.0 -0.73101806640625 -1.30548095703125
4540950000.0 -1.39080810546875 -0.63519287109375
4572171875.0 -1.51904296875 0.35797119140625
4603393750.0 -0.971435546875 1.2099609375
4634615625.0 -0.06134033203125 1.53515625
4665837500.0 0.86846923828125 1.3021240234375
4697059375.0 1.53912353515625 0.51434326171875
4728281250.0 1.5263671875 -0.58056640625
4759503125.0 0.8223876953125 -1.36468505859375
4790725000.0 -0.14569091796875 -1.57037353515625
4821946875.0 -1.08087158203125 -1.192138671875
4853168750.0 -1.61053466796875 -0.2509765625
4884390625.0 -1.37615966796875 0.79248046875
4915612500.0 -0.61260986328125 1.409912109375
4946834375.0 0.327880859375 1.5064697265625
4978056250.0 1.20166015625 1.01556396484375
5009278125.0 1.5589599609375 0.0399169921875
5040500000.0 1.22674560546875 -0.87286376953125
5071721875.0 0.5009765625 -1.41241455078125
5102943750.0 -0.4453125 -1.4942626953125
5134165625.0 -1.33355712890625 -0.9044189453125
5165387500.0 -1.56500244140625 0.1451416015625
5196609375.0 -1.13421630859375 1.00701904296875
5227831250.0 -0.3582763671875 1.50244140625
5259053125.0 0.685791015625 1.4896240234375
5290275000.0 1.518310546875 0.66204833984375
5321496875.0 1.490234375 -0.4295654296875
5352718750.0 0.9195556640625 -1.15118408203125
5383940625.0 0.09674072265625 -1.4981689453125
5415162500.0 -0.89801025390625 -1.28228759765625
5446384375.0 -1.48162841796875 -0.3699951171875
5477606250.0 -1.29718017578125 0.564453125
5508828125.0 -0.73052978515625 1.1490478515625
5540050000.0 0.05291748046875 1.3958740234375
5571271875.0 0.93572998046875 1.107177734375
5602493750.0 1.4063720703125 0.259765625
5633715625.0 1.22991943359375 -0.61126708984375
5664937500.0 0.64788818359375 -1.1988525390625
5696159375.0 -0.1961669921875 -1.38134765625
5727381250.0 -1.01953125 -0.9771728515625
5758603125.0 -1.388671875 -0.1451416015625
5789825000.0 -1.19256591796875 0.716064453125
5821046875.0 -0.50616455078125 1.30438232421875
5852268750.0 0.41094970703125 1.3111572265625
5883490625.0 1.07037353515625 0.7708740234375
5914712500.0 1.3011474609375 0.0196533203125
5945934375.0 1.0948486328125 -0.773681640625
5977156250.0 0.36102294921875 -1.30975341796875
6008378125.0 -0.50787353515625 -1.1806640625
6039600000.0 -1.019775390625 -0.64849853515625
6070821875.0 -1.2222900390625 -0.00482177734375
6102043750.0 -1.08184814453125 0.7611083984375
6133265625.0 -0.342529296875 1.34234619140625
6164487500.0 0.56268310546875 1.18572998046875
6195709375.0 1.069091796875 0.629150390625
6226931250.0 1.27850341796875 -0.04248046875
6258153125.0 1.10345458984375 -0.869873046875
6289375000.0 0.25640869140625 -1.4439697265625
6320596875.0 -0.6875 -1.20477294921875
6351818750.0 -1.19732666015625 -0.57220458984375
6383040625.0 -1.35247802734375 0.20574951171875
6414262500.0 -0.99920654296875 1.0552978515625
6445484375.0 -0.078857421875 1.4547119140625
6476706250.0 0.7940673828125 1.14691162109375
6507928125.0 1.28857421875 0.47003173828125
6539150000.0 1.34576416015625 -0.38616943359375
6570371875.0 0.84033203125 -1.1417236328125
6601593750.0 -0.016357421875 -1.40264892578125
6632815625.0 -0.83740234375 -1.13482666015625
6664037500.0 -1.39959716796875 -0.419921875
6695259375.0 -1.37213134765625 0.56573486328125
6726481250.0 -0.71014404296875 1.248291015625
6757703125.0 0.13055419921875 1.40521240234375
6788925000.0 0.9534912109375 1.12939453125
6820146875.0 1.55615234375 0.2891845703125
6851368750.0 1.3248291015625 -0.81781005859375
6882590625.0 0.50592041015625 -1.3367919921875
6913812500.0 -0.2913818359375 -1.3544921875
6945034375.0 -1.06732177734375 -1.0208740234375
6976256250.0 -1.5908203125 -0.0933837890625
7007478125.0 -1.2342529296875 0.93072509765625
7038700000.0 -0.4017333984375 1.34100341796875
7069921875.0 0.35833740234375 1.32135009765625
7101143750.0 1.11590576171875 0.968017578125
7132365625.0 1.59661865234375 0.01617431640625
7163587500.0 1.1558837890625 -1.01666259765625
7194809375.0 0.3018798828125 -1.3955078125
7226031250.0 -0.51031494140625 -1.32318115234375
7257253125.0 -1.26513671875 -0.8232421875
7288475000.0 -1.55517578125 0.1983642578125
7319696875.0 -1.02862548828125 1.107177734375
7350918750.0 -0.1651611328125 1.44146728515625
7382140625.0 0.712890625 1.27337646484375
7413362500.0 1.373291015625 0.576171875
7444584375.0 1.41070556640625 -0.40618896484375
7475806250.0 0.85833740234375 -1.1407470703125
7507028125.0 0.006591796875 -1.4283447265625
7538250000.0 -0.88604736328125 -1.1221923828125
7569471875.0 -1.3343505859375 -0.3106689453125
7600693750.0 -1.19976806640625 0.494873046875
7631915625.0 -0.7174072265625 1.08123779296875
7663137500.0 0.08074951171875 1.358154296875
7694359375.0 0.9366455078125 0.979583740234375
7725581250.0 1.24298095703125 0.1796875
7756803125.0 1.0809326171875 -0.4974365234375
7788025000.0 0.66888427734375 -1.042724609375
7819246875.0 -0.12017822265625 -1.34674072265625
7850468750.0 -0.989990234375 -0.915283203125
7881690625.0 -1.22998046875 -0.10430908203125
7912912500.0 -1.0531005859375 0.55194091796875
7944134375.0 -0.6043701171875 1.11346435546875
7975356250.0 0.27154541015625 1.33453369140625
8006578125.0 1.045654296875 0.779296875
8037800000.0 1.19091796875 0.01751708984375
8069021875.0 1.006591796875 -0.61688232421875
8100243750.0 0.50042724609375 -1.1588134765625
8131465625.0 -0.38616943359375 -1.2528076171875
8162687500.0 -1.03106689453125 -0.6868896484375
8193909375.0 -1.1793212890625 0.00860595703125
8225131250.0 -1.0166015625 0.67730712890625
8256353125.0 -0.42236328125 1.24688720703125
8287575000.0 0.49920654296875 1.22491455078125
8318796875.0 1.0789794921875 0.6353759765625
8350018750.0 1.24267578125 -0.07421875
8381240625.0 1.02978515625 -0.8372802734375
8412462500.0 0.25396728515625 -1.3720703125
8443684375.0 -0.667236328125 -1.1678466796875
8474906250.0 -1.17333984375 -0.5325927734375
8506128125.0 -1.29461669921875 0.2349853515625
8537350000.0 -0.92327880859375 1.044189453125
8568571875.0 -0.01605224609375 1.39215087890625
8599793750.0 0.79937744140625 1.05206298828125
8631015625.0 1.24029541015625 0.39739990234375
8662237500.0 1.28411865234375 -0.4263916015625
8693459375.0 0.736083984375 -1.1749267578125
8724681250.0 -0.1614990234375 -1.329345703125
8755903125.0 -0.8804931640625 -0.957122802734375
8787125000.0 -1.30413818359375 -0.28173828125
8818346875.0 -1.2491455078125 0.6126708984375
8849568750.0 -0.55584716796875 1.26129150390625
8880790625.0 0.29705810546875 1.28399658203125
8912012500.0 0.980010986328125 0.891571044921875
8943234375.0 1.39971923828125 0.1287841796875
8974456250.0 1.16558837890625 -0.8359375
9005678125.0 0.34954833984375 -1.31121826171875
9036900000.0 -0.443115234375 -1.22344970703125
9068121875.0 -1.097900390625 -0.785888671875
9099343750.0 -1.43951416015625 0.0965576171875
9130565625.0 -0.97900390625 1.010498046875
9161787500.0 -0.154541015625 1.28125
9193009375.0 0.55242919921875 1.13189697265625
9224231250.0 1.17803955078125 0.6544189453125
9255453125.0 1.39837646484375 -0.29534912109375
9286675000.0 0.8070068359375 -1.08367919921875
9317896875.0 0.0279541015625 -1.2449951171875
9349118750.0 -0.65264892578125 -1.069580078125
9380340625.0 -1.25604248046875 -0.5096435546875
9411562500.0 -1.30999755859375 0.4757080078125
9442784375.0 -0.64813232421875 1.11407470703125
9474006250.0 0.0887451171875 1.20989990234375
9505228125.0 0.7630615234375 0.97900390625
9536450000.0 1.27166748046875 0.314208984375
9567671875.0 1.14361572265625 -0.57977294921875
9598893750.0 0.52886962890625 -1.06756591796875
9630115625.0 -0.1419677734375 -1.15533447265625
9661337500.0 -0.814361572265625 -0.90216064453125
9692559375.0 -1.23687744140625 -0.19146728515625
9723781250.0 -1.042236328125 0.600830078125
9755003125.0 -0.486083984375 1.04791259765625
9786225000.0 0.1982421875 1.15924072265625
9817446875.0 0.892730712890625 0.827728271484375
9848668750.0 1.197021484375 0.078369140625
9879890625.0 0.9677734375 -0.61431884765625
9911112500.0 0.45269775390625 -1.05010986328125
9942334375.0 -0.26544189453125 -1.1578369140625
9973556250.0 -0.9410400390625 -0.7384033203125
10004778125.0 -1.14556884765625 -0.0185546875
10036000000.0 -0.9434814453125 0.614349365234375
10067221875.0 -0.44219970703125 1.0943603515625
10098443750.0 0.36993408203125 1.18084716796875
10129665625.0 1.0006103515625 0.6424560546875
10160887500.0 1.119384765625 -0.051513671875
10192109375.0 0.916839599609375 -0.663238525390625
10223331250.0 0.362060546875 -1.15069580078125
10254553125.0 -0.4857177734375 -1.11328125
10285775000.0 -0.982940673828125 -0.53607177734375
10316996875.0 -1.06622314453125 0.07489013671875
10348218750.0 -0.899627685546875 0.669586181640625
10379440625.0 -0.3221435546875 1.17388916015625
10410662500.0 0.52618408203125 1.085693359375
10441884375.0 0.99188232421875 0.521575927734375
10473106250.0 1.1082763671875 -0.08392333984375
10504328125.0 0.94970703125 -0.755096435546875
10535550000.0 0.24041748046875 -1.29412841796875
10566771875.0 -0.655517578125 -1.07635498046875
10597993750.0 -1.08087158203125 -0.4583740234375
10629215625.0 -1.174072265625 0.20428466796875
10660437500.0 -0.887451171875 0.9490966796875
10691659375.0 -0.0125732421875 1.33209228515625
10722881250.0 0.783477783203125 0.95208740234375
10754103125.0 1.1173095703125 0.3253173828125
10785325000.0 1.1383056640625 -0.3656005859375
10816546875.0 0.70025634765625 -1.0450439453125
10847768750.0 -0.14434814453125 -1.22869873046875
10878990625.0 -0.80242919921875 -0.843963623046875
10910212500.0 -1.121826171875 -0.245361328125
10941434375.0 -1.09600830078125 0.47393798828125
10972656250.0 -0.5687255859375 1.08428955078125
11003878125.0 0.21795654296875 1.17462158203125
11035100000.0 0.84564208984375 0.821746826171875
11066321875.0 1.2191162109375 0.17572021484375
11097543750.0 1.09747314453125 -0.6751708984375
11128765625.0 0.38629150390625 -1.197265625
11159987500.0 -0.39532470703125 -1.13818359375
11191209375.0 -0.998931884765625 -0.702911376953125
11222431250.0 -1.27032470703125 0.09210205078125
11253653125.0 -0.858551025390625 0.89251708984375
11284875000.0 -0.1156005859375 1.1251220703125
11316096875.0 0.50921630859375 0.954986572265625
11347318750.0 1.00030517578125 0.5025634765625
11378540625.0 1.11627197265625 -0.2677001953125
11409762500.0 0.63397216796875 -0.858489990234375
11440984375.0 0.036224365234375 -0.977996826171875
11472206250.0 -0.479888916015625 -0.849884033203125
11503428125.0 -0.951416015625 -0.45672607421875
11534650000.0 -1.06707763671875 0.28662109375
11565871875.0 -0.6025390625 0.8525390625
11597093750.0 -0.018798828125 0.990875244140625
11628315625.0 0.542633056640625 0.874420166015625
11659537500.0 1.057861328125 0.39251708984375
11690759375.0 1.06475830078125 -0.4334716796875
11721981250.0 0.517181396484375 -0.94061279296875
11753203125.0 -0.10430908203125 -1.03448486328125
11784425000.0 -0.723876953125 -0.808929443359375
11815646875.0 -1.0992431640625 -0.15118408203125
11846868750.0 -0.890716552734375 0.549346923828125
11878090625.0 -0.3909912109375 0.908660888671875
11909312500.0 0.186370849609375 0.984100341796875
11940534375.0 0.779205322265625 0.694580078125
11971756250.0 1.02325439453125 0.04144287109375
12002978125.0 0.805633544921875 -0.536895751953125
12034200000.0 0.382354736328125 -0.887420654296875
12065421875.0 -0.21484375 -1.00885009765625
12096643750.0 -0.84649658203125 -0.66497802734375
12127865625.0 -1.03375244140625 0.01690673828125
12159087500.0 -0.814483642578125 0.57427978515625
12190309375.0 -0.377593994140625 0.974029541015625
12221531250.0 0.33636474609375 1.08673095703125
12252753125.0 0.977783203125 0.581817626953125
12283975000.0 1.05548095703125 -0.12774658203125
12315196875.0 0.799041748046875 -0.67498779296875
12346418750.0 0.28173828125 -1.09051513671875
12377640625.0 -0.53662109375 -1.05975341796875
12408862500.0 -1.03314208984375 -0.4202880859375
12440084375.0 -1.0067138671875 0.22357177734375
12471306250.0 -0.741485595703125 0.73638916015625
12502528125.0 -0.18115234375 1.11761474609375
12533750000.0 0.61767578125 0.992279052734375
12564971875.0 1.03997802734375 0.3642578125
12596193750.0 1.02862548828125 -0.26300048828125
12627415625.0 0.747222900390625 -0.826904296875
12658637500.0 0.080322265625 -1.20587158203125
12689859375.0 -0.735015869140625 -0.965606689453125
12721081250.0 -1.11480712890625 -0.30755615234375
12752303125.0 -1.096923828125 0.38153076171875
12783525000.0 -0.6871337890625 1.025146484375
12814746875.0 0.1641845703125 1.250244140625
12845968750.0 0.861907958984375 0.811309814453125
12877190625.0 1.1170654296875 0.17138671875
12908412500.0 1.0550537109375 -0.501220703125
12939634375.0 0.5440673828125 -1.11383056640625
12970856250.0 -0.31890869140625 -1.17425537109375
13002078125.0 -0.8936767578125 -0.69354248046875
13033300000.0 -1.10394287109375 -0.08734130859375
13064521875.0 -1.009033203125 0.59185791015625
13095743750.0 -0.4197998046875 1.15289306640625
13126965625.0 0.407958984375 1.11871337890625
13158187500.0 0.94512939453125 0.631683349609375
13189409375.0 1.14752197265625 -0.0208740234375
13220631250.0 0.935638427734375 -0.74652099609375
13251853125.0 0.23553466796875 -1.1690673828125
13283075000.0 -0.5062255859375 -1.01995849609375
13314296875.0 -0.984771728515625 -0.52947998046875
13345518750.0 -1.134033203125 0.175537109375
13376740625.0 -0.753509521484375 0.856597900390625
13407962500.0 -0.0599365234375 1.06597900390625
