!Created with skrf (http://scikit-rf.org).
# Hz S RI R 50.0 
!freq ReS11 ImS11
45000000.0 -0.07676315307617188 -0.09714508056640625
76221875.0 -0.19696044921875 -0.04811859130859375
107443750.0 -0.2561798095703125 0.11956787109375
138665625.0 -0.1492919921875 0.3294525146484375
169887500.0 0.122833251953125 0.4189910888671875
201109375.0 0.42242431640625 0.282928466796875
232331250.0 0.580902099609375 -0.056182861328125
263553125.0 0.492034912109375 -0.4532012939453125
294775000.0 0.1007080078125 -0.7347412109375
325996875.0 -0.41522216796875 -0.6842041015625
357218750.0 -0.808746337890625 -0.300323486328125
388440625.0 -0.88970947265625 0.299774169921875
419662500.0 -0.521240234375 0.868011474609375
450884375.0 0.1707763671875 1.0328369140625
482106250.0 0.799560546875 0.717193603515625
513328125.0 1.122802734375 0.09027099609375
544550000.0 1.008544921875 -0.67950439453125
575771875.0 0.34051513671875 -1.24053955078125
606993750.0 -0.55194091796875 -1.18212890625
638215625.0 -1.16766357421875 -0.59521484375
669437500.0 -1.34442138671875 0.2310791015625
700659375.0 -0.97625732421875 1.096435546875
731881250.0 -0.0079345703125 1.54742431640625
763103125.0 1.00537109375 1.16204833984375
794325000.0 1.472412109375 0.28643798828125
825546875.0 1.373046875 -0.64990234375
856768750.0 0.800048828125 -1.40386962890625
887990625.0 -0.29010009765625 -1.65447998046875
919212500.0 -1.290283203125 -1.085693359375
950434375.0 -1.654296875 -0.0628662109375
981656250.0 -1.38958740234375 0.946533203125
1012878125.0 -0.53546142578125 1.67718505859375
1044100000.0 0.6959228515625 1.669677734375
1075321875.0 1.579345703125 0.818359375
1106543750.0 1.71240234375 -0.30999755859375
1137765625.0 1.19378662109375 -1.2860107421875
1168987500.0 0.143310546875 -1.80322265625
1200209375.0 -1.062255859375 -1.49169921875
1231431250.0 -1.732666015625 -0.458984375
1262653125.0 -1.60113525390625 0.683837890625
1293875000.0 -0.8585205078125 1.4942626953125
1325096875.0 0.224365234375 1.713134765625
1356318750.0 1.2366943359375 1.22393798828125
1387540625.0 1.745361328125 0.1942138671875
1418762500.0 1.47662353515625 -0.95074462890625
1449984375.0 0.53509521484375 -1.6300048828125
1481206250.0 -0.5478515625 -1.56292724609375
1512428125.0 -1.3443603515625 -0.9254150390625
1543650000.0 -1.66082763671875 0.062255859375
1574871875.0 -1.27947998046875 1.1097412109375
1606093750.0 -0.277099609375 1.635986328125
1637315625.0 0.7410888671875 1.40631103515625
1668537500.0 1.398681640625 0.70135498046875
1699759375.0 1.57891845703125 -0.27435302734375
1730981250.0 1.0704345703125 -1.23065185546875
1762203125.0 0.04583740234375 -1.57464599609375
1793425000.0 -0.85565185546875 -1.23193359375
1824646875.0 -1.39642333984375 -0.51971435546875
1855868750.0 -1.47967529296875 0.4300537109375
1887090625.0 -0.880615234375 1.28704833984375
1918312500.0 0.11444091796875 1.4918212890625
1949534375.0 0.92181396484375 1.09423828125
1980756250.0 1.3782958984375 0.3741455078125
2011978125.0 1.36480712890625 -0.530029296875
2043200000.0 0.7550048828125 -1.263427734375
2074421875.0 -0.154296875 -1.437744140625
2105643750.0 -0.96112060546875 -1.07757568359375
2136865625.0 -1.4508056640625 -0.30865478515625
2168087500.0 -1.3624267578125 0.670166015625
2199309375.0 -0.6435546875 1.35369873046875
2230531250.0 0.28033447265625 1.44110107421875
2261753125.0 1.07379150390625 1.018798828125
2292975000.0 1.51806640625 0.173828125
2324196875.0 1.310791015625 -0.8184814453125
2355418750.0 0.52960205078125 -1.42254638671875
2386640625.0 -0.40277099609375 -1.45391845703125
2417862500.0 -1.18280029296875 -1.02972412109375
2449084375.0 -1.609375 -0.0872802734375
2480306250.0 -1.31707763671875 0.9251708984375
2511528125.0 -0.49737548828125 1.5118408203125
2542750000.0 0.48699951171875 1.5419921875
2573971875.0 1.37469482421875 0.9736328125
2605193750.0 1.72271728515625 -0.1092529296875
2636415625.0 1.2674560546875 -1.1536865234375
2667637500.0 0.30987548828125 -1.67218017578125
2698859375.0 -0.76910400390625 -1.5406494140625
2730081250.0 -1.576416015625 -0.74603271484375
2761303125.0 -1.68756103515625 0.3857421875
2792525000.0 -1.10504150390625 1.30926513671875
2823746875.0 -0.1053466796875 1.73504638671875
2854968750.0 1.01416015625 1.4627685546875
2886190625.0 1.6973876953125 0.4962158203125
2917412500.0 1.60675048828125 -0.61700439453125
2948634375.0 0.94580078125 -1.43603515625
2979856250.0 -0.10540771484375 -1.78271484375
3011078125.0 -1.24908447265625 -1.34893798828125
3042300000.0 -1.78057861328125 -0.238525390625
3073521875.0 -1.51458740234375 0.837646484375
3104743750.0 -0.768310546875 1.5731201171875
3135965625.0 0.36004638671875 1.81561279296875
3167187500.0 1.501708984375 1.17071533203125
3198409375.0 1.82177734375 -0.07275390625
3229631250.0 1.355224609375 -1.08172607421875
3260853125.0 0.49383544921875 -1.673828125
3292075000.0 -0.65386962890625 -1.70452880859375
3323296875.0 -1.62286376953125 -0.8851318359375
3354518750.0 -1.736572265625 0.3262939453125
3385740625.0 -1.161376953125 1.2333984375
3416962500.0 -0.23516845703125 1.68695068359375
3448184375.0 0.86041259765625 1.52801513671875
3479406250.0 1.640869140625 0.64886474609375
3510628125.0 1.650146484375 -0.493408203125
3541850000.0 1.00543212890625 -1.357421875
3573071875.0 -0.00494384765625 -1.68817138671875
3604293750.0 -1.02947998046875 -1.34271240234375
3635515625.0 -1.631591796875 -0.4423828125
3666737500.0 -1.56793212890625 0.645751953125
3697959375.0 -0.83013916015625 1.478759765625
3729181250.0 0.2655029296875 1.63568115234375
3760403125.0 1.15447998046875 1.10284423828125
3791625000.0 1.55718994140625 0.221435546875
3822846875.0 1.4075927734375 -0.760498046875
3854068750.0 0.625244140625 -1.484619140625
3885290625.0 -0.419921875 -1.48626708984375
3916512500.0 -1.1439208984375 -0.91607666015625
3947734375.0 -1.451904296875 -0.12213134765625
3978956250.0 -1.30340576171875 0.78021240234375
4010178125.0 -0.53521728515625 1.45843505859375
4041400000.0 0.47296142578125 1.419921875
4072621875.0 1.1539306640625 0.851318359375
4103843750.0 1.4486083984375 0.06561279296875
4135065625.0 1.27313232421875 -0.84661865234375
4166287500.0 0.46142578125 -1.498046875
4197509375.0 -0.5579833984375 -1.419677734375
4228731250.0 -1.249755859375 -0.80633544921875
4259953125.0 -1.5128173828125 0.06842041015625
4291175000.0 -1.19268798828125 1.01104736328125
4322396875.0 -0.292236328125 1.53045654296875
4353618750.0 0.6746826171875 1.355224609375
4384840625.0 1.32623291015625 0.7005615234375
4416062500.0 1.506103515625 -0.226318359375
4447284375.0 1.0599365234375 -1.1065673828125
4478506250.0 0.1749267578125 -1.49969482421875
4509728125.0 -0.733642578125 -1.31207275390625
4540950000.0 -1.397216796875 -0.6390380859375
4572171875.0 -1.52691650390625 0.35931396484375
4603393750.0 -0.9765625 1.21356201171875
4634615625.0 -0.062744140625 1.54107666015625
4665837500.0 0.8709716796875 1.30853271484375
4697059375.0 1.54583740234375 0.51824951171875
4728281250.0 1.53387451171875 -0.5830078125
4759503125.0 0.8267822265625 -1.3699951171875
4790725000.0 -0.14434814453125 -1.57757568359375
4821946875.0 -1.08563232421875 -1.19873046875
4853168750.0 -1.61846923828125 -0.2540283203125
4884390625.0 -1.3828125 0.793701171875
4915612500.0 -0.61712646484375 1.4150390625
4946834375.0 0.32745361328125 1.5137939453125
4978056250.0 1.20672607421875 1.021728515625
5009278125.0 1.56646728515625 0.04144287109375
5040500000.0 1.23388671875 -0.87738037109375
5071721875.0 0.5052490234375 -1.418212890625
5102943750.0 -0.4466552734375 -1.50189208984375
5134165625.0 -1.33795166015625 -0.90936279296875
5165387500.0 -1.57293701171875 0.1451416015625
5196609375.0 -1.140380859375 1.0113525390625
5227831250.0 -0.36053466796875 1.50927734375
5259053125.0 0.6876220703125 1.49737548828125
5290275000.0 1.52581787109375 0.66595458984375
5321496875.0 1.49658203125 -0.43096923828125
5352718750.0 0.924560546875 -1.156005859375
5383940625.0 0.0992431640625 -1.5040283203125
5415162500.0 -0.90203857421875 -1.288330078125
5446384375.0 -1.48876953125 -0.3724365234375
5477606250.0 -1.30389404296875 0.5670166015625
5508828125.0 -0.73529052734375 1.1531982421875
5540050000.0 0.0526123046875 1.40313720703125
5571271875.0 0.94110107421875 1.11309814453125
5602493750.0 1.4129638671875 0.26239013671875
5633715625.0 1.23675537109375 -0.6146240234375
5664937500.0 0.6510009765625 -1.2052001953125
5696159375.0 -0.1971435546875 -1.38812255859375
5727381250.0 -1.02459716796875 -0.981689453125
5758603125.0 -1.39581298828125 -0.1463623046875
5789825000.0 -1.19793701171875 0.7188720703125
5821046875.0 -0.50872802734375 1.31085205078125
5852268750.0 0.411865234375 1.31671142578125
5883490625.0 1.07464599609375 0.774658203125
5914712500.0 1.30633544921875 0.02081298828125
5945934375.0 1.1005859375 -0.7777099609375
5977156250.0 0.36322021484375 -1.3160400390625
6008378125.0 -0.5098876953125 -1.1854248046875
6039600000.0 -1.02410888671875 -0.6513671875
6070821875.0 -1.2281494140625 -0.00537109375
6102043750.0 -1.0870361328125 0.7645263671875
6133265625.0 -0.34332275390625 1.348876953125
6164487500.0 0.5643310546875 1.19122314453125
6195709375.0 1.07427978515625 0.6318359375
6226931250.0 1.28387451171875 -0.04168701171875
6258153125.0 1.10888671875 -0.87384033203125
6289375000.0 0.25653076171875 -1.450927734375
6320596875.0 -0.6915283203125 -1.2095947265625
6351818750.0 -1.20318603515625 -0.5738525390625
6383040625.0 -1.3587646484375 0.20745849609375
6414262500.0 -1.0025634765625 1.06005859375
6445484375.0 -0.078369140625 1.46148681640625
6476706250.0 0.79803466796875 1.15130615234375
6507928125.0 1.29388427734375 0.47186279296875
6539150000.0 1.35125732421875 -0.38653564453125
6570371875.0 0.8443603515625 -1.14581298828125
6601593750.0 -0.01611328125 -1.40814208984375
6632815625.0 -0.84130859375 -1.1402587890625
6664037500.0 -1.40509033203125 -0.42193603515625
6695259375.0 -1.37762451171875 0.56658935546875
6726481250.0 -0.712646484375 1.2542724609375
6757703125.0 0.1302490234375 1.410888671875
6788925000.0 0.95819091796875 1.13507080078125
6820146875.0 1.565185546875 0.28887939453125
6851368750.0 1.329833984375 -0.82110595703125
6882590625.0 0.5084228515625 -1.34173583984375
6913812500.0 -0.2930908203125 -1.36083984375
6945034375.0 -1.07415771484375 -1.02508544921875
6976256250.0 -1.59686279296875 -0.09368896484375
7007478125.0 -1.23980712890625 0.93438720703125
7038700000.0 -0.4036865234375 1.34765625
7069921875.0 0.35955810546875 1.32861328125
7101143750.0 1.12060546875 0.972900390625
7132365625.0 1.60369873046875 0.015869140625
7163587500.0 1.16241455078125 -1.0228271484375
7194809375.0 0.30377197265625 -1.4024658203125
7226031250.0 -0.5133056640625 -1.33074951171875
7257253125.0 -1.26898193359375 -0.8282470703125
7288475000.0 -1.56463623046875 0.199462890625
7319696875.0 -1.033447265625 1.11309814453125
7350918750.0 -0.1656494140625 1.44940185546875
7382140625.0 0.7191162109375 1.28179931640625
7413362500.0 1.3817138671875 0.578369140625
7444584375.0 1.4171142578125 -0.40789794921875
7475806250.0 0.86151123046875 -1.14581298828125
7507028125.0 0.00665283203125 -1.43389892578125
7538250000.0 -0.8907470703125 -1.12744140625
7569471875.0 -1.3411865234375 -0.31201171875
7600693750.0 -1.2064208984375 0.49932861328125
7631915625.0 -0.72076416015625 1.088134765625
7663137500.0 0.0789794921875 1.36236572265625
7694359375.0 0.94207763671875 0.98455810546875
7725581250.0 1.2484130859375 0.181640625
7756803125.0 1.0870361328125 -0.5015869140625
7788025000.0 0.673828125 -1.04656982421875
7819246875.0 -0.1201171875 -1.35235595703125
7850468750.0 -0.996490478515625 -0.91937255859375
7881690625.0 -1.23699951171875 -0.1063232421875
7912912500.0 -1.0592041015625 0.556884765625
7944134375.0 -0.6082763671875 1.11883544921875
7975356250.0 0.272705078125 1.3397216796875
8006578125.0 1.04937744140625 0.78125
8037800000.0 1.1966552734375 0.01690673828125
8069021875.0 1.0106201171875 -0.62091064453125
8100243750.0 0.50189208984375 -1.16473388671875
8131465625.0 -0.3902587890625 -1.25897216796875
8162687500.0 -1.0333251953125 -0.6884765625
8193909375.0 -1.1844482421875 0.00811767578125
8225131250.0 -1.021240234375 0.678955078125
8256353125.0 -0.42291259765625 1.25341796875
8287575000.0 0.50152587890625 1.22906494140625
8318796875.0 1.08697509765625 0.63690185546875
8350018750.0 1.24969482421875 -0.07525634765625
8381240625.0 1.0352783203125 -0.84259033203125
8412462500.0 0.255615234375 -1.37811279296875
8443684375.0 -0.6724853515625 -1.17291259765625
8474906250.0 -1.17803955078125 -0.5338134765625
8506128125.0 -1.30364990234375 0.23931884765625
8537350000.0 -0.92724609375 1.05029296875
8568571875.0 -0.015380859375 1.3990478515625
8599793750.0 0.805419921875 1.05706787109375
8631015625.0 1.24603271484375 0.39935302734375
8662237500.0 1.29052734375 -0.4306640625
8693459375.0 0.74041748046875 -1.18121337890625
8724681250.0 -0.162841796875 -1.3369140625
8755903125.0 -0.881378173828125 -0.961883544921875
8787125000.0 -1.30694580078125 -0.28497314453125
8818346875.0 -1.256103515625 0.61865234375
8849568750.0 -0.5577392578125 1.26507568359375
8880790625.0 0.29998779296875 1.2894287109375
8912012500.0 0.98553466796875 0.895477294921875
8943234375.0 1.40496826171875 0.1290283203125
8974456250.0 1.17047119140625 -0.84326171875
9005678125.0 0.34808349609375 -1.31829833984375
9036900000.0 -0.4468994140625 -1.22808837890625
9068121875.0 -1.10614013671875 -0.78790283203125
9099343750.0 -1.4471435546875 0.10101318359375
9130565625.0 -0.98211669921875 1.01385498046875
9161787500.0 -0.155029296875 1.28643798828125
9193009375.0 0.55657958984375 1.137939453125
9224231250.0 1.18414306640625 0.6578369140625
9255453125.0 1.405517578125 -0.29705810546875
9286675000.0 0.81060791015625 -1.090087890625
9317896875.0 0.02703857421875 -1.2513427734375
9349118750.0 -0.65576171875 -1.07379150390625
9380340625.0 -1.26397705078125 -0.51141357421875
9411562500.0 -1.3160400390625 0.4793701171875
9442784375.0 -0.64947509765625 1.121337890625
9474006250.0 0.08917236328125 1.21478271484375
9505228125.0 0.76861572265625 0.984527587890625
9536450000.0 1.27886962890625 0.3134765625
9567671875.0 1.14776611328125 -0.58355712890625
9598893750.0 0.53021240234375 -1.07452392578125
9630115625.0 -0.1441650390625 -1.1622314453125
9661337500.0 -0.821380615234375 -0.904693603515625
9692559375.0 -1.24267578125 -0.189453125
9723781250.0 -1.04547119140625 0.6055908203125
9755003125.0 -0.48834228515625 1.05206298828125
9786225000.0 0.19873046875 1.1636962890625
9817446875.0 0.899444580078125 0.829925537109375
9848668750.0 1.20245361328125 0.07733154296875
9879890625.0 0.971038818359375 -0.61871337890625
9911112500.0 0.45355224609375 -1.056396484375
9942334375.0 -0.27044677734375 -1.164794921875
9973556250.0 -0.947967529296875 -0.738861083984375
10004778125.0 -1.150634765625 -0.015625
10036000000.0 -0.946868896484375 0.619720458984375
10067221875.0 -0.44158935546875 1.101806640625
10098443750.0 0.37274169921875 1.1854248046875
10129665625.0 1.0064697265625 0.643310546875
10160887500.0 1.1241455078125 -0.05322265625
10192109375.0 0.91973876953125 -0.66693115234375
10223331250.0 0.36163330078125 -1.15533447265625
10254553125.0 -0.4871826171875 -1.11590576171875
10285775000.0 -0.988983154296875 -0.53594970703125
10316996875.0 -1.06988525390625 0.07635498046875
10348218750.0 -0.904052734375 0.67352294921875
10379440625.0 -0.32220458984375 1.17999267578125
10410662500.0 0.53045654296875 1.08868408203125
10441884375.0 0.99822998046875 0.52215576171875
10473106250.0 1.11260986328125 -0.08447265625
10504328125.0 0.95220947265625 -0.7596435546875
10535550000.0 0.2392578125 -1.299560546875
10566771875.0 -0.660400390625 -1.07952880859375
10597993750.0 -1.08624267578125 -0.45831298828125
10629215625.0 -1.1790771484375 0.207275390625
10660437500.0 -0.889739990234375 0.95855712890625
10691659375.0 -0.00567626953125 1.3409423828125
10722881250.0 0.7867431640625 0.953338623046875
10754103125.0 1.122314453125 0.32550048828125
10785325000.0 1.1435546875 -0.36871337890625
10816546875.0 0.7021484375 -1.05426025390625
10847768750.0 -0.14849853515625 -1.23455810546875
10878990625.0 -0.80718994140625 -0.84515380859375
10910212500.0 -1.12774658203125 -0.244384765625
10941434375.0 -1.10089111328125 0.47882080078125
10972656250.0 -0.56890869140625 1.08807373046875
11003878125.0 0.219970703125 1.17919921875
11035100000.0 0.85308837890625 0.824310302734375
11066321875.0 1.22491455078125 0.17449951171875
11097543750.0 1.10137939453125 -0.6798095703125
11128765625.0 0.3861083984375 -1.20367431640625
11159987500.0 -0.39678955078125 -1.141845703125
11191209375.0 -1.005615234375 -0.70379638671875
11222431250.0 -1.2774658203125 0.09588623046875
11253653125.0 -0.861602783203125 0.8992919921875
11284875000.0 -0.11346435546875 1.13116455078125
11316096875.0 0.51361083984375 0.959716796875
11347318750.0 1.008544921875 0.5025634765625
11378540625.0 1.12127685546875 -0.271728515625
11409762500.0 0.6353759765625 -0.86163330078125
11440984375.0 0.03546142578125 -0.98150634765625
11472206250.0 -0.482940673828125 -0.852630615234375
11503428125.0 -0.957122802734375 -0.45721435546875
11534650000.0 -1.07415771484375 0.2928466796875
11565871875.0 -0.603668212890625 0.858612060546875
11597093750.0 -0.01904296875 0.994049072265625
11628315625.0 0.547698974609375 0.879547119140625
11659537500.0 1.06494140625 0.39239501953125
11690759375.0 1.06854248046875 -0.4366455078125
11721981250.0 0.517181396484375 -0.942779541015625
11753203125.0 -0.10784912109375 -1.04144287109375
11784425000.0 -0.727691650390625 -0.81072998046875
11815646875.0 -1.1053466796875 -0.15032958984375
11846868750.0 -0.8934326171875 0.554290771484375
11878090625.0 -0.392578125 0.911163330078125
11909312500.0 0.18927001953125 0.98907470703125
11940534375.0 0.78436279296875 0.696533203125
11971756250.0 1.0283203125 0.0389404296875
12002978125.0 0.80877685546875 -0.53961181640625
12034200000.0 0.383056640625 -0.891876220703125
12065421875.0 -0.218017578125 -1.01373291015625
12096643750.0 -0.852783203125 -0.66552734375
12127865625.0 -1.03619384765625 0.01739501953125
12159087500.0 -0.817626953125 0.576416015625
12190309375.0 -0.377227783203125 0.97930908203125
12221531250.0 0.34320068359375 1.09197998046875
12252753125.0 0.985443115234375 0.581146240234375
12283975000.0 1.057373046875 -0.12841796875
12315196875.0 0.80255126953125 -0.67913818359375
12346418750.0 0.2801513671875 -1.0975341796875
12377640625.0 -0.54168701171875 -1.0635986328125
12408862500.0 -1.03662109375 -0.41937255859375
12440084375.0 -1.01165771484375 0.22576904296875
12471306250.0 -0.74322509765625 0.740081787109375
12502528125.0 -0.178466796875 1.12542724609375
12533750000.0 0.623779296875 0.995574951171875
12564971875.0 1.04730224609375 0.3634033203125
12596193750.0 1.03271484375 -0.26629638671875
12627415625.0 0.750457763671875 -0.833740234375
12658637500.0 0.07763671875 -1.2108154296875
12689859375.0 -0.740478515625 -0.968597412109375
12721081250.0 -1.1212158203125 -0.30596923828125
12752303125.0 -1.1005859375 0.38458251953125
12783525000.0 -0.6873779296875 1.03155517578125
12814746875.0 0.16754150390625 1.2547607421875
12845968750.0 0.86920166015625 0.81201171875
12877190625.0 1.1224365234375 0.171142578125
12908412500.0 1.0589599609375 -0.50457763671875
12939634375.0 0.54296875 -1.1217041015625
12970856250.0 -0.32440185546875 -1.17767333984375
13002078125.0 -0.898223876953125 -0.694549560546875
13033300000.0 -1.10968017578125 -0.0859375
13064521875.0 -1.011962890625 0.5977783203125
13095743750.0 -0.41986083984375 1.15985107421875
13126965625.0 0.4129638671875 1.1231689453125
13158187500.0 0.951934814453125 0.63311767578125
13189409375.0 1.15411376953125 -0.02362060546875
13220631250.0 0.93890380859375 -0.7530517578125
13251853125.0 0.233642578125 -1.1766357421875
13283075000.0 -0.51177978515625 -1.0223388671875
13314296875.0 -0.9918212890625 -0.529266357421875
13345518750.0 -1.1395263671875 0.17901611328125
13376740625.0 -0.75396728515625 0.8626708984375
