!Created with skrf (http://scikit-rf.org).
# Hz S RI R 50.0 
!freq ReS11 ImS11
45000000.0 -0.07668685913085938 -0.09705352783203125
76221875.0 -0.19677734375 -0.04796600341796875
107443750.0 -0.25567626953125 0.119476318359375
138665625.0 -0.14923095703125 0.3288726806640625
169887500.0 0.122802734375 0.4186248779296875
201109375.0 0.4220733642578125 0.2825775146484375
232331250.0 0.580291748046875 -0.056488037109375
263553125.0 0.4915771484375 -0.4528045654296875
294775000.0 0.10015869140625 -0.73394775390625
325996875.0 -0.4149169921875 -0.6832275390625
357218750.0 -0.80792236328125 -0.299652099609375
388440625.0 -0.888641357421875 0.2999267578125
419662500.0 -0.520263671875 0.866912841796875
450884375.0 0.1710205078125 1.031982421875
482106250.0 0.798675537109375 0.71612548828125
513328125.0 1.12164306640625 0.08953857421875
544550000.0 1.007080078125 -0.6790771484375
575771875.0 0.339599609375 -1.23944091796875
606993750.0 -0.55224609375 -1.180908203125
638215625.0 -1.1669921875 -0.59417724609375
669437500.0 -1.34295654296875 0.23162841796875
700659375.0 -0.97491455078125 1.09613037109375
731881250.0 -0.0074462890625 1.545654296875
763103125.0 1.0048828125 1.16064453125
794325000.0 1.4713134765625 0.28533935546875
825546875.0 1.37139892578125 -0.650146484375
856768750.0 0.79876708984375 -1.40216064453125
887990625.0 -0.28997802734375 -1.6522216796875
919212500.0 -1.2890625 -1.0836181640625
950434375.0 -1.65277099609375 -0.06195068359375
981656250.0 -1.38818359375 0.94671630859375
1012878125.0 -0.53375244140625 1.675537109375
1044100000.0 0.69635009765625 1.6678466796875
1075321875.0 1.57769775390625 0.816650390625
1106543750.0 1.70928955078125 -0.310302734375
1137765625.0 1.1917724609375 -1.28509521484375
1168987500.0 0.1419677734375 -1.8013916015625
1200209375.0 -1.06219482421875 -1.48956298828125
1231431250.0 -1.730712890625 -0.45758056640625
1262653125.0 -1.59893798828125 0.683349609375
1293875000.0 -0.856689453125 1.49298095703125
1325096875.0 0.2252197265625 1.7113037109375
1356318750.0 1.23577880859375 1.22247314453125
1387540625.0 1.74395751953125 0.192626953125
1418762500.0 1.47454833984375 -0.95098876953125
1449984375.0 0.53363037109375 -1.62860107421875
1481206250.0 -0.54840087890625 -1.5606689453125
1512428125.0 -1.343505859375 -0.92388916015625
1543650000.0 -1.6595458984375 0.06329345703125
1574871875.0 -1.27764892578125 1.10919189453125
1606093750.0 -0.2762451171875 1.63458251953125
1637315625.0 0.7412109375 1.40460205078125
1668537500.0 1.39776611328125 0.69976806640625
1699759375.0 1.5767822265625 -0.27508544921875
1730981250.0 1.0684814453125 -1.23040771484375
1762203125.0 0.04534912109375 -1.5738525390625
1793425000.0 -0.85565185546875 -1.23040771484375
1824646875.0 -1.395751953125 -0.51837158203125
1855868750.0 -1.4781494140625 0.43109130859375
1887090625.0 -0.87896728515625 1.286865234375
1918312500.0 0.115478515625 1.4901123046875
1949534375.0 0.9215087890625 1.0924072265625
1980756250.0 1.37725830078125 0.37322998046875
2011978125.0 1.3631591796875 -0.530517578125
2043200000.0 0.75360107421875 -1.2625732421875
2074421875.0 -0.15472412109375 -1.43670654296875
2105643750.0 -0.96075439453125 -1.0762939453125
2136865625.0 -1.44964599609375 -0.30810546875
2168087500.0 -1.3607177734375 0.67022705078125
2199309375.0 -0.64227294921875 1.353271484375
2230531250.0 0.28082275390625 1.4395751953125
2261753125.0 1.07366943359375 1.01739501953125
2292975000.0 1.517333984375 0.17236328125
2324196875.0 1.3092041015625 -0.8184814453125
2355418750.0 0.528076171875 -1.42218017578125
2386640625.0 -0.4033203125 -1.4517822265625
2417862500.0 -1.18218994140625 -1.02752685546875
2449084375.0 -1.607666015625 -0.08599853515625
2480306250.0 -1.3148193359375 0.92572021484375
2511528125.0 -0.49725341796875 1.50970458984375
2542750000.0 0.4884033203125 1.54052734375
2573971875.0 1.3734130859375 0.9716796875
2605193750.0 1.72137451171875 -0.11138916015625
2636415625.0 1.26519775390625 -1.15283203125
2667637500.0 0.30889892578125 -1.66961669921875
2698859375.0 -0.7691650390625 -1.53851318359375
2730081250.0 -1.5762939453125 -0.74383544921875
2761303125.0 -1.68597412109375 0.3880615234375
2792525000.0 -1.103515625 1.3092041015625
2823746875.0 -0.103515625 1.734375
2854968750.0 1.01416015625 1.460205078125
2886190625.0 1.6942138671875 0.494873046875
2917412500.0 1.60479736328125 -0.617919921875
2948634375.0 0.9429931640625 -1.4345703125
2979856250.0 -0.10723876953125 -1.78057861328125
3011078125.0 -1.2491455078125 -1.3463134765625
3042300000.0 -1.77886962890625 -0.237060546875
3073521875.0 -1.51220703125 0.83770751953125
3104743750.0 -0.766357421875 1.57135009765625
3135965625.0 0.3603515625 1.8131103515625
3167187500.0 1.5001220703125 1.1683349609375
3198409375.0 1.82049560546875 -0.0738525390625
3229631250.0 1.35308837890625 -1.08258056640625
3260853125.0 0.49334716796875 -1.6700439453125
3292075000.0 -0.6546630859375 -1.70196533203125
3323296875.0 -1.62274169921875 -0.88287353515625
3354518750.0 -1.73370361328125 0.32659912109375
3385740625.0 -1.16033935546875 1.23382568359375
3416962500.0 -0.233642578125 1.6846923828125
3448184375.0 0.86175537109375 1.5260009765625
3479406250.0 1.639404296875 0.64697265625
3510628125.0 1.64794921875 -0.49462890625
3541850000.0 1.0030517578125 -1.3575439453125
3573071875.0 -0.0068359375 -1.68658447265625
3604293750.0 -1.0272216796875 -1.34075927734375
3635515625.0 -1.6309814453125 -0.44036865234375
3666737500.0 -1.5654296875 0.64697265625
3697959375.0 -0.8280029296875 1.47894287109375
3729181250.0 0.26763916015625 1.6348876953125
3760403125.0 1.153564453125 1.10113525390625
3791625000.0 1.55462646484375 0.220458984375
3822846875.0 1.40545654296875 -0.760009765625
3854068750.0 0.6236572265625 -1.48333740234375
3885290625.0 -0.42047119140625 -1.48455810546875
3916512500.0 -1.14422607421875 -0.91400146484375
3947734375.0 -1.4505615234375 -0.1214599609375
3978956250.0 -1.30206298828125 0.78057861328125
4010178125.0 -0.53387451171875 1.4580078125
4041400000.0 0.4754638671875 1.41937255859375
4072621875.0 1.1536865234375 0.8494873046875
4103843750.0 1.44677734375 0.06414794921875
4135065625.0 1.2706298828125 -0.84710693359375
4166287500.0 0.458740234375 -1.49884033203125
4197509375.0 -0.55810546875 -1.41754150390625
4228731250.0 -1.2503662109375 -0.8040771484375
4259953125.0 -1.5107421875 0.06927490234375
4291175000.0 -1.19085693359375 1.01068115234375
4322396875.0 -0.29052734375 1.52923583984375
4353618750.0 0.6739501953125 1.3533935546875
4384840625.0 1.3251953125 0.69903564453125
4416062500.0 1.5042724609375 -0.22760009765625
4447284375.0 1.05780029296875 -1.1063232421875
4478506250.0 0.173583984375 -1.49755859375
4509728125.0 -0.73382568359375 -1.3104248046875
4540950000.0 -1.39678955078125 -0.6370849609375
4572171875.0 -1.525146484375 0.3607177734375
4603393750.0 -0.97412109375 1.2147216796875
4634615625.0 -0.06243896484375 1.5384521484375
4665837500.0 0.87255859375 1.307373046875
4697059375.0 1.54364013671875 0.51611328125
4728281250.0 1.5318603515625 -0.5828857421875
4759503125.0 0.82464599609375 -1.36962890625
4790725000.0 -0.14617919921875 -1.57659912109375
4821946875.0 -1.0849609375 -1.19683837890625
4853168750.0 -1.61553955078125 -0.2529296875
4884390625.0 -1.38092041015625 0.794921875
4915612500.0 -0.614990234375 1.41473388671875
4946834375.0 0.32861328125 1.51251220703125
4978056250.0 1.2076416015625 1.01922607421875
5009278125.0 1.56610107421875 0.03912353515625
5040500000.0 1.23211669921875 -0.87725830078125
5071721875.0 0.50335693359375 -1.41766357421875
5102943750.0 -0.44830322265625 -1.50018310546875
5134165625.0 -1.33935546875 -0.90673828125
5165387500.0 -1.5711669921875 0.1466064453125
5196609375.0 -1.13824462890625 1.0120849609375
5227831250.0 -0.358642578125 1.5089111328125
5259053125.0 0.6903076171875 1.495361328125
5290275000.0 1.52569580078125 0.66314697265625
5321496875.0 1.49395751953125 -0.4310302734375
5352718750.0 0.9224853515625 -1.1561279296875
5383940625.0 0.0968017578125 -1.50335693359375
5415162500.0 -0.90277099609375 -1.28656005859375
5446384375.0 -1.4873046875 -0.3709716796875
5477606250.0 -1.302001953125 0.5675048828125
5508828125.0 -0.7332763671875 1.1541748046875
5540050000.0 0.05426025390625 1.40240478515625
5571271875.0 0.9422607421875 1.1116943359375
5602493750.0 1.412841796875 0.2596435546875
5633715625.0 1.2347412109375 -0.614013671875
5664937500.0 0.64923095703125 -1.20440673828125
5696159375.0 -0.1976318359375 -1.38629150390625
5727381250.0 -1.025390625 -0.9796142578125
5758603125.0 -1.39501953125 -0.14398193359375
5789825000.0 -1.19659423828125 0.7198486328125
5821046875.0 -0.506103515625 1.310302734375
5852268750.0 0.41339111328125 1.315185546875
5883490625.0 1.073486328125 0.7725830078125
5914712500.0 1.3048095703125 0.02008056640625
5945934375.0 1.09808349609375 -0.77667236328125
5977156250.0 0.36090087890625 -1.31488037109375
6008378125.0 -0.51129150390625 -1.1839599609375
6039600000.0 -1.02447509765625 -0.64984130859375
6070821875.0 -1.226806640625 -0.00408935546875
6102043750.0 -1.0863037109375 0.76531982421875
6133265625.0 -0.34136962890625 1.34844970703125
6164487500.0 0.56585693359375 1.189453125
6195709375.0 1.07305908203125 0.63055419921875
6226931250.0 1.281982421875 -0.04296875
6258153125.0 1.10650634765625 -0.8751220703125
6289375000.0 0.25433349609375 -1.4495849609375
6320596875.0 -0.69287109375 -1.20733642578125
6351818750.0 -1.202392578125 -0.5711669921875
6383040625.0 -1.35675048828125 0.208251953125
6414262500.0 -1.000732421875 1.060302734375
6445484375.0 -0.07672119140625 1.45941162109375
6476706250.0 0.796875 1.14886474609375
6507928125.0 1.29327392578125 0.46990966796875
6539150000.0 1.350341796875 -0.38836669921875
6570371875.0 0.84228515625 -1.14697265625
6601593750.0 -0.0179443359375 -1.407470703125
6632815625.0 -0.8426513671875 -1.13818359375
6664037500.0 -1.405517578125 -0.4200439453125
6695259375.0 -1.376708984375 0.56927490234375
6726481250.0 -0.7105712890625 1.2545166015625
6757703125.0 0.1319580078125 1.40985107421875
6788925000.0 0.9583740234375 1.1328125
6820146875.0 1.5638427734375 0.287109375
6851368750.0 1.326904296875 -0.82275390625
6882590625.0 0.5064697265625 -1.34161376953125
6913812500.0 -0.2940673828125 -1.3592529296875
6945034375.0 -1.073486328125 -1.02288818359375
6976256250.0 -1.59686279296875 -0.090576171875
7007478125.0 -1.2376708984375 0.93878173828125
7038700000.0 -0.4024658203125 1.347900390625
7069921875.0 0.36224365234375 1.32733154296875
7101143750.0 1.12469482421875 0.9705810546875
7132365625.0 1.6044921875 0.011962890625
7163587500.0 1.160400390625 -1.02215576171875
7194809375.0 0.30242919921875 -1.4019775390625
7226031250.0 -0.5152587890625 -1.3289794921875
7257253125.0 -1.27081298828125 -0.82501220703125
7288475000.0 -1.5625 0.20220947265625
7319696875.0 -1.03125 1.11395263671875
7350918750.0 -0.162109375 1.45050048828125
7382140625.0 0.72210693359375 1.27996826171875
7413362500.0 1.38092041015625 0.57403564453125
7444584375.0 1.4134521484375 -0.4090576171875
7475806250.0 0.85882568359375 -1.14599609375
7507028125.0 0.0037841796875 -1.4334716796875
7538250000.0 -0.89300537109375 -1.125732421875
7569471875.0 -1.3389892578125 -0.31060791015625
7600693750.0 -1.20458984375 0.49884033203125
7631915625.0 -0.7191162109375 1.08734130859375
7663137500.0 0.08026123046875 1.36199951171875
7694359375.0 0.942657470703125 0.98272705078125
7725581250.0 1.24822998046875 0.1795654296875
7756803125.0 1.0859375 -0.5010986328125
7788025000.0 0.6715087890625 -1.04864501953125
7819246875.0 -0.123291015625 -1.3515625
7850468750.0 -0.998443603515625 -0.916259765625
7881690625.0 -1.23553466796875 -0.103759765625
7912912500.0 -1.056884765625 0.55859375
7944134375.0 -0.605712890625 1.11846923828125
7975356250.0 0.275390625 1.338134765625
8006578125.0 1.0499267578125 0.77752685546875
8037800000.0 1.1961669921875 0.0135498046875
8069021875.0 1.00909423828125 -0.61944580078125
8100243750.0 0.499267578125 -1.16522216796875
8131465625.0 -0.389892578125 -1.25543212890625
8162687500.0 -1.03662109375 -0.68597412109375
8193909375.0 -1.18353271484375 0.00921630859375
8225131250.0 -1.021240234375 0.68023681640625
8256353125.0 -0.42041015625 1.25421142578125
8287575000.0 0.50396728515625 1.22845458984375
8318796875.0 1.08416748046875 0.63555908203125
8350018750.0 1.247802734375 -0.0770263671875
8381240625.0 1.03350830078125 -0.84552001953125
8412462500.0 0.25213623046875 -1.37799072265625
8443684375.0 -0.6744384765625 -1.17108154296875
8474906250.0 -1.18048095703125 -0.53021240234375
8506128125.0 -1.30072021484375 0.2413330078125
8537350000.0 -0.9241943359375 1.04998779296875
8568571875.0 -0.01373291015625 1.397216796875
8599793750.0 0.8055419921875 1.05401611328125
8631015625.0 1.24560546875 0.396728515625
8662237500.0 1.2880859375 -0.4322509765625
8693459375.0 0.736328125 -1.18121337890625
8724681250.0 -0.1634521484375 -1.33441162109375
8755903125.0 -0.8822021484375 -0.959564208984375
8787125000.0 -1.3082275390625 -0.28070068359375
8818346875.0 -1.25384521484375 0.6202392578125
8849568750.0 -0.5560302734375 1.2664794921875
8880790625.0 0.302490234375 1.2890625
8912012500.0 0.98687744140625 0.894256591796875
8943234375.0 1.404296875 0.12774658203125
8974456250.0 1.16754150390625 -0.84539794921875
9005678125.0 0.3455810546875 -1.3172607421875
9036900000.0 -0.4503173828125 -1.2265625
9068121875.0 -1.10400390625 -0.78607177734375
9099343750.0 -1.44390869140625 0.10040283203125
9130565625.0 -0.9783935546875 1.01580810546875
9161787500.0 -0.1522216796875 1.28424072265625
9193009375.0 0.55731201171875 1.134765625
9224231250.0 1.184814453125 0.65411376953125
9255453125.0 1.40277099609375 -0.29840087890625
9286675000.0 0.8072509765625 -1.08734130859375
9317896875.0 0.02496337890625 -1.25030517578125
9349118750.0 -0.65704345703125 -1.0723876953125
9380340625.0 -1.26251220703125 -0.509765625
9411562500.0 -1.314453125 0.481689453125
9442784375.0 -0.64739990234375 1.12164306640625
9474006250.0 0.09173583984375 1.21575927734375
9505228125.0 0.769805908203125 0.9822998046875
9536450000.0 1.27911376953125 0.3101806640625
9567671875.0 1.14495849609375 -0.58544921875
9598893750.0 0.52728271484375 -1.0718994140625
9630115625.0 -0.14599609375 -1.1597900390625
9661337500.0 -0.82177734375 -0.902374267578125
9692559375.0 -1.24334716796875 -0.18634033203125
9723781250.0 -1.04437255859375 0.60601806640625
9755003125.0 -0.4854736328125 1.052978515625
9786225000.0 0.2015380859375 1.16326904296875
9817446875.0 0.899627685546875 0.827972412109375
9848668750.0 1.200927734375 0.075927734375
9879890625.0 0.969696044921875 -0.61968994140625
9911112500.0 0.45135498046875 -1.05584716796875
9942334375.0 -0.2708740234375 -1.1627197265625
9973556250.0 -0.947723388671875 -0.73760986328125
10004778125.0 -1.14990234375 -0.0133056640625
10036000000.0 -0.944488525390625 0.620849609375
10067221875.0 -0.44036865234375 1.10125732421875
10098443750.0 0.3748779296875 1.18328857421875
10129665625.0 1.005859375 0.640869140625
10160887500.0 1.12152099609375 -0.0543212890625
10192109375.0 0.91802978515625 -0.66815185546875
10223331250.0 0.36175537109375 -1.1531982421875
10254553125.0 -0.4888916015625 -1.11407470703125
10285775000.0 -0.989776611328125 -0.533721923828125
10316996875.0 -1.0697021484375 0.07940673828125
10348218750.0 -0.90106201171875 0.674591064453125
10379440625.0 -0.3194580078125 1.1800537109375
10410662500.0 0.5316162109375 1.086669921875
10441884375.0 0.995513916015625 0.52130126953125
10473106250.0 1.11248779296875 -0.0875244140625
10504328125.0 0.950775146484375 -0.76202392578125
10535550000.0 0.23529052734375 -1.3001708984375
10566771875.0 -0.66259765625 -1.0772705078125
10597993750.0 -1.0848388671875 -0.4566650390625
10629215625.0 -1.17681884765625 0.20806884765625
10660437500.0 -0.8868408203125 0.95697021484375
10691659375.0 -0.00396728515625 1.3385009765625
10722881250.0 0.787933349609375 0.95172119140625
10754103125.0 1.12298583984375 0.32244873046875
10785325000.0 1.14190673828125 -0.37109375
10816546875.0 0.7001953125 -1.05340576171875
10847768750.0 -0.14923095703125 -1.2325439453125
10878990625.0 -0.8060302734375 -0.843048095703125
10910212500.0 -1.1263427734375 -0.2431640625
10941434375.0 -1.0989990234375 0.4810791015625
10972656250.0 -0.568603515625 1.0906982421875
11003878125.0 0.22088623046875 1.17730712890625
11035100000.0 0.852447509765625 0.822113037109375
11066321875.0 1.22552490234375 0.17144775390625
11097543750.0 1.0989990234375 -0.68084716796875
11128765625.0 0.38409423828125 -1.20245361328125
11159987500.0 -0.40032958984375 -1.14080810546875
11191209375.0 -1.00457763671875 -0.70208740234375
11222431250.0 -1.27593994140625 0.09814453125
11253653125.0 -0.8577880859375 0.898284912109375
11284875000.0 -0.11151123046875 1.13018798828125
11316096875.0 0.51458740234375 0.9573974609375
11347318750.0 1.0078125 0.50103759765625
11378540625.0 1.1201171875 -0.2740478515625
11409762500.0 0.63385009765625 -0.864715576171875
11440984375.0 0.033447265625 -0.9805908203125
11472206250.0 -0.483673095703125 -0.852386474609375
11503428125.0 -0.958160400390625 -0.454681396484375
11534650000.0 -1.07122802734375 0.293701171875
11565871875.0 -0.60186767578125 0.85711669921875
11597093750.0 -0.01605224609375 0.994232177734375
11628315625.0 0.548553466796875 0.877593994140625
11659537500.0 1.06573486328125 0.39105224609375
11690759375.0 1.065673828125 -0.438720703125
11721981250.0 0.51495361328125 -0.943817138671875
11753203125.0 -0.10858154296875 -1.03875732421875
11784425000.0 -0.731201171875 -0.808563232421875
11815646875.0 -1.10479736328125 -0.146728515625
11846868750.0 -0.891845703125 0.5577392578125
11878090625.0 -0.389251708984375 0.91168212890625
11909312500.0 0.19049072265625 0.9864501953125
11940534375.0 0.78460693359375 0.69512939453125
11971756250.0 1.02783203125 0.03656005859375
12002978125.0 0.806610107421875 -0.5421142578125
12034200000.0 0.380645751953125 -0.891326904296875
12065421875.0 -0.21923828125 -1.01214599609375
12096643750.0 -0.85125732421875 -0.663726806640625
12127865625.0 -1.0355224609375 0.02020263671875
12159087500.0 -0.814544677734375 0.57904052734375
12190309375.0 -0.37451171875 0.981689453125
12221531250.0 0.3441162109375 1.0904541015625
12252753125.0 0.984222412109375 0.5787353515625
12283975000.0 1.05645751953125 -0.13140869140625
12315196875.0 0.8004150390625 -0.681915283203125
12346418750.0 0.27862548828125 -1.09503173828125
12377640625.0 -0.54254150390625 -1.0606689453125
12408862500.0 -1.038330078125 -0.416015625
12440084375.0 -1.010498046875 0.22900390625
12471306250.0 -0.742523193359375 0.7421875
12502528125.0 -0.176513671875 1.12591552734375
12533750000.0 0.62469482421875 0.99407958984375
12564971875.0 1.0440673828125 0.36126708984375
12596193750.0 1.03204345703125 -0.268798828125
12627415625.0 0.747833251953125 -0.833740234375
12658637500.0 0.0767822265625 -1.21112060546875
12689859375.0 -0.741912841796875 -0.965667724609375
12721081250.0 -1.121337890625 -0.3028564453125
12752303125.0 -1.10015869140625 0.3876953125
12783525000.0 -0.6851806640625 1.0347900390625
12814746875.0 0.17193603515625 1.25396728515625
12845968750.0 0.869964599609375 0.808990478515625
12877190625.0 1.1220703125 0.1685791015625
12908412500.0 1.05682373046875 -0.50848388671875
12939634375.0 0.53875732421875 -1.12542724609375
12970856250.0 -0.32684326171875 -1.17718505859375
13002078125.0 -0.8975830078125 -0.69244384765625
13033300000.0 -1.1099853515625 -0.08319091796875
13064521875.0 -1.0108642578125 0.600341796875
13095743750.0 -0.41546630859375 1.16021728515625
13126965625.0 0.41571044921875 1.12127685546875
13158187500.0 0.95281982421875 0.6304931640625
13189409375.0 1.15240478515625 -0.02587890625
13220631250.0 0.93609619140625 -0.754547119140625
13251853125.0 0.22930908203125 -1.17694091796875
13283075000.0 -0.51275634765625 -1.02008056640625
13314296875.0 -0.9930419921875 -0.526947021484375
13345518750.0 -1.13873291015625 0.18267822265625
13376740625.0 -0.7506103515625 0.86395263671875
13407962500.0 -0.0545654296875 1.07025146484375
