!Created with skrf (http://scikit-rf.org).
# Hz S RI R 50.0 
!freq ReS11 ImS11
45000000.0 -0.07690811157226562 -0.0968475341796875
76221875.0 -0.19629669189453125 -0.04749298095703125
107443750.0 -0.254852294921875 0.1193084716796875
138665625.0 -0.1483612060546875 0.328521728515625
169887500.0 0.1231536865234375 0.41729736328125
201109375.0 0.421417236328125 0.2809600830078125
232331250.0 0.5784912109375 -0.057342529296875
263553125.0 0.48919677734375 -0.4517974853515625
294775000.0 0.098876953125 -0.731689453125
325996875.0 -0.41461181640625 -0.6800537109375
357218750.0 -0.80535888671875 -0.297149658203125
388440625.0 -0.884735107421875 0.299896240234375
419662500.0 -0.51715087890625 0.865142822265625
450884375.0 0.17236328125 1.02777099609375
482106250.0 0.797393798828125 0.712432861328125
513328125.0 1.1181640625 0.08782958984375
544550000.0 1.003173828125 -0.67877197265625
575771875.0 0.336669921875 -1.23675537109375
606993750.0 -0.552734375 -1.1763916015625
638215625.0 -1.16436767578125 -0.59033203125
669437500.0 -1.338623046875 0.23291015625
700659375.0 -0.970703125 1.09490966796875
731881250.0 -0.00433349609375 1.54180908203125
763103125.0 1.0040283203125 1.15496826171875
794325000.0 1.46710205078125 0.28216552734375
825546875.0 1.3662109375 -0.64996337890625
856768750.0 0.79443359375 -1.39837646484375
887990625.0 -0.29107666015625 -1.64654541015625
919212500.0 -1.28558349609375 -1.0780029296875
950434375.0 -1.646484375 -0.05999755859375
981656250.0 -1.38134765625 0.94378662109375
1012878125.0 -0.5301513671875 1.6690673828125
1044100000.0 0.6949462890625 1.66009521484375
1075321875.0 1.57159423828125 0.81182861328125
1106543750.0 1.7022705078125 -0.31103515625
1137765625.0 1.18585205078125 -1.28204345703125
1168987500.0 0.1387939453125 -1.79400634765625
1200209375.0 -1.06011962890625 -1.482177734375
1231431250.0 -1.72430419921875 -0.4541015625
1262653125.0 -1.5924072265625 0.68231201171875
1293875000.0 -0.8515625 1.48919677734375
1325096875.0 0.22723388671875 1.70416259765625
1356318750.0 1.23211669921875 1.21588134765625
1387540625.0 1.7371826171875 0.1895751953125
1418762500.0 1.4677734375 -0.94921875
1449984375.0 0.5294189453125 -1.6231689453125
1481206250.0 -0.54852294921875 -1.55426025390625
1512428125.0 -1.33929443359375 -0.919189453125
1543650000.0 -1.6529541015625 0.06427001953125
1574871875.0 -1.272216796875 1.1063232421875
1606093750.0 -0.27349853515625 1.6287841796875
1637315625.0 0.7403564453125 1.3988037109375
1668537500.0 1.39349365234375 0.69586181640625
1699759375.0 1.57086181640625 -0.2755126953125
1730981250.0 1.063232421875 -1.22711181640625
1762203125.0 0.04290771484375 -1.56854248046875
1793425000.0 -0.8538818359375 -1.2249755859375
1824646875.0 -1.3916015625 -0.51507568359375
1855868750.0 -1.4718017578125 0.43084716796875
1887090625.0 -0.874267578125 1.28277587890625
1918312500.0 0.11614990234375 1.484375
1949534375.0 0.91949462890625 1.0877685546875
1980756250.0 1.37249755859375 0.37030029296875
2011978125.0 1.3575439453125 -0.52972412109375
2043200000.0 0.74969482421875 -1.25921630859375
2074421875.0 -0.15594482421875 -1.43133544921875
2105643750.0 -0.95880126953125 -1.0718994140625
2136865625.0 -1.44512939453125 -0.3052978515625
2168087500.0 -1.35546875 0.66943359375
2199309375.0 -0.63885498046875 1.349365234375
2230531250.0 0.2806396484375 1.4342041015625
2261753125.0 1.0709228515625 1.01312255859375
2292975000.0 1.51214599609375 0.1707763671875
2324196875.0 1.30401611328125 -0.81689453125
2355418750.0 0.52508544921875 -1.4178466796875
2386640625.0 -0.40283203125 -1.44683837890625
2417862500.0 -1.17840576171875 -1.02374267578125
2449084375.0 -1.60162353515625 -0.0850830078125
2480306250.0 -1.3096923828125 0.9227294921875
2511528125.0 -0.49383544921875 1.50506591796875
2542750000.0 0.48516845703125 1.53302001953125
2573971875.0 1.3677978515625 0.966796875
2605193750.0 1.71319580078125 -0.110107421875
2636415625.0 1.259765625 -1.14874267578125
2667637500.0 0.30743408203125 -1.66375732421875
2698859375.0 -0.7674560546875 -1.53216552734375
2730081250.0 -1.570068359375 -0.74005126953125
2761303125.0 -1.6785888671875 0.38665771484375
2792525000.0 -1.098876953125 1.30340576171875
2823746875.0 -0.10302734375 1.72607421875
2854968750.0 1.00872802734375 1.4534912109375
2886190625.0 1.68792724609375 0.49151611328125
2917412500.0 1.59716796875 -0.6158447265625
2948634375.0 0.9385986328125 -1.42919921875
2979856250.0 -0.106201171875 -1.7728271484375
3011078125.0 -1.24432373046875 -1.34075927734375
3042300000.0 -1.77069091796875 -0.2352294921875
3073521875.0 -1.506591796875 0.83636474609375
3104743750.0 -0.7630615234375 1.56427001953125
3135965625.0 0.35906982421875 1.80523681640625
3167187500.0 1.4954833984375 1.16412353515625
3198409375.0 1.811767578125 -0.073974609375
3229631250.0 1.34710693359375 -1.07861328125
3260853125.0 0.48944091796875 -1.66473388671875
3292075000.0 -0.6524658203125 -1.69482421875
3323296875.0 -1.61627197265625 -0.87933349609375
3354518750.0 -1.72705078125 0.32598876953125
3385740625.0 -1.1541748046875 1.22882080078125
3416962500.0 -0.23284912109375 1.6771240234375
3448184375.0 0.857666015625 1.51947021484375
3479406250.0 1.6324462890625 0.6439208984375
3510628125.0 1.64080810546875 -0.49310302734375
3541850000.0 0.9990234375 -1.35113525390625
3573071875.0 -0.00634765625 -1.67950439453125
3604293750.0 -1.0244140625 -1.33544921875
3635515625.0 -1.624267578125 -0.43896484375
3666737500.0 -1.55877685546875 0.64306640625
3697959375.0 -0.82403564453125 1.47186279296875
3729181250.0 0.266845703125 1.6278076171875
3760403125.0 1.1495361328125 1.0965576171875
3791625000.0 1.54901123046875 0.2193603515625
3822846875.0 1.399658203125 -0.75836181640625
3854068750.0 0.6207275390625 -1.4775390625
3885290625.0 -0.41790771484375 -1.47808837890625
3916512500.0 -1.13897705078125 -0.91064453125
3947734375.0 -1.445068359375 -0.12066650390625
3978956250.0 -1.2957763671875 0.77545166015625
4010178125.0 -0.53155517578125 1.4505615234375
4041400000.0 0.47119140625 1.41314697265625
4072621875.0 1.1500244140625 0.8468017578125
4103843750.0 1.4422607421875 0.06427001953125
4135065625.0 1.2662353515625 -0.84368896484375
4166287500.0 0.45770263671875 -1.49346923828125
4197509375.0 -0.55596923828125 -1.41339111328125
4228731250.0 -1.2451171875 -0.80255126953125
4259953125.0 -1.507080078125 0.0692138671875
4291175000.0 -1.18707275390625 1.008056640625
4322396875.0 -0.2896728515625 1.523193359375
4353618750.0 0.6712646484375 1.34814453125
4384840625.0 1.31890869140625 0.69708251953125
4416062500.0 1.4984130859375 -0.22601318359375
4447284375.0 1.054443359375 -1.10150146484375
4478506250.0 0.17340087890625 -1.492919921875
4509728125.0 -0.72967529296875 -1.30523681640625
4540950000.0 -1.39019775390625 -0.635986328125
4572171875.0 -1.519775390625 0.3575439453125
4603393750.0 -0.9720458984375 1.2098388671875
4634615625.0 -0.063232421875 1.53369140625
4665837500.0 0.868408203125 1.30267333984375
4697059375.0 1.53839111328125 0.5152587890625
4728281250.0 1.52685546875 -0.580078125
4759503125.0 0.82281494140625 -1.3651123046875
4790725000.0 -0.14361572265625 -1.5697021484375
4821946875.0 -1.080078125 -1.19281005859375
4853168750.0 -1.61114501953125 -0.25115966796875
4884390625.0 -1.37646484375 0.79119873046875
4915612500.0 -0.6138916015625 1.408935546875
4946834375.0 0.32733154296875 1.5074462890625
4978056250.0 1.202392578125 1.01666259765625
5009278125.0 1.559326171875 0.04058837890625
5040500000.0 1.22796630859375 -0.8736572265625
5071721875.0 0.50189208984375 -1.4114990234375
5102943750.0 -0.4451904296875 -1.49493408203125
5134165625.0 -1.33258056640625 -0.9049072265625
5165387500.0 -1.5655517578125 0.1453857421875
5196609375.0 -1.13519287109375 1.00677490234375
5227831250.0 -0.3577880859375 1.50390625
5259053125.0 0.68621826171875 1.4908447265625
5290275000.0 1.5181884765625 0.6630859375
5321496875.0 1.4898681640625 -0.42889404296875
5352718750.0 0.92041015625 -1.150390625
5383940625.0 0.0975341796875 -1.49798583984375
5415162500.0 -0.89825439453125 -1.28277587890625
5446384375.0 -1.48211669921875 -0.370849609375
5477606250.0 -1.29766845703125 0.56451416015625
5508828125.0 -0.730712890625 1.14892578125
5540050000.0 0.05169677734375 1.3953857421875
5571271875.0 0.93743896484375 1.10791015625
5602493750.0 1.40545654296875 0.26116943359375
5633715625.0 1.23052978515625 -0.61090087890625
5664937500.0 0.64801025390625 -1.19891357421875
5696159375.0 -0.19671630859375 -1.38232421875
5727381250.0 -1.02008056640625 -0.9776611328125
5758603125.0 -1.3900146484375 -0.14501953125
5789825000.0 -1.1927490234375 0.71600341796875
5821046875.0 -0.50689697265625 1.3043212890625
5852268750.0 0.410400390625 1.31146240234375
5883490625.0 1.0679931640625 0.77178955078125
5914712500.0 1.30084228515625 0.020751953125
5945934375.0 1.09503173828125 -0.77288818359375
5977156250.0 0.36248779296875 -1.30853271484375
6008378125.0 -0.50823974609375 -1.18133544921875
6039600000.0 -1.0201416015625 -0.64886474609375
6070821875.0 -1.22235107421875 -0.00506591796875
6102043750.0 -1.0821533203125 0.760986328125
6133265625.0 -0.34246826171875 1.34295654296875
6164487500.0 0.5616455078125 1.18646240234375
6195709375.0 1.0692138671875 0.62982177734375
6226931250.0 1.27899169921875 -0.0428466796875
6258153125.0 1.1031494140625 -0.86846923828125
6289375000.0 0.25726318359375 -1.44342041015625
6320596875.0 -0.68804931640625 -1.20501708984375
6351818750.0 -1.197998046875 -0.57208251953125
6383040625.0 -1.35308837890625 0.20599365234375
6414262500.0 -0.9990234375 1.05517578125
6445484375.0 -0.0789794921875 1.4549560546875
6476706250.0 0.7943115234375 1.14697265625
6507928125.0 1.2880859375 0.47039794921875
6539150000.0 1.345703125 -0.385009765625
6570371875.0 0.84033203125 -1.14166259765625
6601593750.0 -0.01605224609375 -1.402587890625
6632815625.0 -0.83868408203125 -1.1353759765625
6664037500.0 -1.3988037109375 -0.42059326171875
6695259375.0 -1.37213134765625 0.56439208984375
6726481250.0 -0.7103271484375 1.24847412109375
6757703125.0 0.12945556640625 1.40478515625
6788925000.0 0.9527587890625 1.12945556640625
6820146875.0 1.55804443359375 0.288330078125
6851368750.0 1.3250732421875 -0.8175048828125
6882590625.0 0.50653076171875 -1.33599853515625
6913812500.0 -0.291015625 -1.35418701171875
6945034375.0 -1.0682373046875 -1.02093505859375
6976256250.0 -1.590087890625 -0.0941162109375
7007478125.0 -1.23486328125 0.93060302734375
7038700000.0 -0.40374755859375 1.33929443359375
7069921875.0 0.3577880859375 1.32122802734375
7101143750.0 1.11767578125 0.96795654296875
7132365625.0 1.5986328125 0.0162353515625
7163587500.0 1.1568603515625 -1.017333984375
7194809375.0 0.30291748046875 -1.39581298828125
7226031250.0 -0.51092529296875 -1.32342529296875
7257253125.0 -1.2645263671875 -0.8238525390625
7288475000.0 -1.55523681640625 0.1966552734375
7319696875.0 -1.03033447265625 1.10833740234375
7350918750.0 -0.164306640625 1.44134521484375
7382140625.0 0.71527099609375 1.27569580078125
7413362500.0 1.3740234375 0.5770263671875
7444584375.0 1.41033935546875 -0.4046630859375
7475806250.0 0.85833740234375 -1.13983154296875
7507028125.0 0.005859375 -1.42828369140625
7538250000.0 -0.88641357421875 -1.12481689453125
7569471875.0 -1.333740234375 -0.31170654296875
7600693750.0 -1.20086669921875 0.49383544921875
7631915625.0 -0.7186279296875 1.08258056640625
7663137500.0 0.0799560546875 1.35662841796875
7694359375.0 0.93804931640625 0.979400634765625
7725581250.0 1.24066162109375 0.18218994140625
7756803125.0 1.082275390625 -0.49853515625
7788025000.0 0.67071533203125 -1.041259765625
7819246875.0 -0.11822509765625 -1.345458984375
7850468750.0 -0.99200439453125 -0.915985107421875
7881690625.0 -1.23046875 -0.10552978515625
7912912500.0 -1.0531005859375 0.55224609375
7944134375.0 -0.60498046875 1.1124267578125
7975356250.0 0.27001953125 1.33306884765625
8006578125.0 1.04522705078125 0.77813720703125
8037800000.0 1.19183349609375 0.01788330078125
8069021875.0 1.005126953125 -0.614990234375
8100243750.0 0.50030517578125 -1.15863037109375
8131465625.0 -0.38568115234375 -1.2529296875
8162687500.0 -1.0313720703125 -0.6854248046875
8193909375.0 -1.17999267578125 0.00836181640625
8225131250.0 -1.0167236328125 0.67559814453125
8256353125.0 -0.42132568359375 1.2479248046875
8287575000.0 0.49835205078125 1.22430419921875
8318796875.0 1.0797119140625 0.6365966796875
8350018750.0 1.24395751953125 -0.074951171875
8381240625.0 1.03106689453125 -0.8399658203125
8412462500.0 0.2547607421875 -1.3724365234375
8443684375.0 -0.66949462890625 -1.16900634765625
8474906250.0 -1.1739501953125 -0.5321044921875
8506128125.0 -1.29644775390625 0.23626708984375
8537350000.0 -0.9246826171875 1.04351806640625
8568571875.0 -0.015869140625 1.392578125
8599793750.0 0.80206298828125 1.0517578125
8631015625.0 1.23883056640625 0.39892578125
8662237500.0 1.284423828125 -0.42822265625
8693459375.0 0.7369384765625 -1.17730712890625
8724681250.0 -0.15960693359375 -1.32940673828125
8755903125.0 -0.880889892578125 -0.95703125
8787125000.0 -1.30126953125 -0.28363037109375
8818346875.0 -1.2501220703125 0.612548828125
8849568750.0 -0.5562744140625 1.25787353515625
8880790625.0 0.29730224609375 1.282470703125
8912012500.0 0.978271484375 0.890716552734375
8943234375.0 1.3958740234375 0.13134765625
8974456250.0 1.1666259765625 -0.8370361328125
9005678125.0 0.35040283203125 -1.31097412109375
9036900000.0 -0.44207763671875 -1.22296142578125
9068121875.0 -1.099365234375 -0.78558349609375
9099343750.0 -1.43829345703125 0.09539794921875
9130565625.0 -0.97998046875 1.00933837890625
9161787500.0 -0.1556396484375 1.2811279296875
9193009375.0 0.5528564453125 1.13262939453125
9224231250.0 1.17681884765625 0.65521240234375
9255453125.0 1.398681640625 -0.29345703125
9286675000.0 0.80682373046875 -1.0830078125
9317896875.0 0.026611328125 -1.24639892578125
9349118750.0 -0.6519775390625 -1.06890869140625
9380340625.0 -1.25421142578125 -0.51019287109375
9411562500.0 -1.30999755859375 0.475341796875
9442784375.0 -0.6470947265625 1.11590576171875
9474006250.0 0.088623046875 1.21087646484375
9505228125.0 0.76300048828125 0.97967529296875
9536450000.0 1.2706298828125 0.31524658203125
9567671875.0 1.1427001953125 -0.577880859375
9598893750.0 0.52911376953125 -1.06622314453125
9630115625.0 -0.14141845703125 -1.15606689453125
9661337500.0 -0.8165283203125 -0.902252197265625
9692559375.0 -1.23699951171875 -0.190673828125
9723781250.0 -1.04302978515625 0.603271484375
9755003125.0 -0.48663330078125 1.04937744140625
9786225000.0 0.1959228515625 1.15753173828125
9817446875.0 0.89453125 0.828094482421875
9848668750.0 1.1976318359375 0.078369140625
9879890625.0 0.968292236328125 -0.6143798828125
9911112500.0 0.45184326171875 -1.04998779296875
9942334375.0 -0.26605224609375 -1.15802001953125
9973556250.0 -0.942657470703125 -0.738800048828125
10004778125.0 -1.14520263671875 -0.0181884765625
10036000000.0 -0.9432373046875 0.61334228515625
10067221875.0 -0.442138671875 1.09454345703125
10098443750.0 0.369384765625 1.1810302734375
10129665625.0 1.001953125 0.64312744140625
10160887500.0 1.1195068359375 -0.05084228515625
10192109375.0 0.916900634765625 -0.662872314453125
10223331250.0 0.3607177734375 -1.15216064453125
10254553125.0 -0.4853515625 -1.11328125
10285775000.0 -0.9847412109375 -0.534759521484375
10316996875.0 -1.06671142578125 0.07586669921875
10348218750.0 -0.899383544921875 0.667816162109375
10379440625.0 -0.3218994140625 1.17529296875
10410662500.0 0.5262451171875 1.08544921875
10441884375.0 0.98974609375 0.523193359375
10473106250.0 1.10675048828125 -0.08160400390625
10504328125.0 0.949310302734375 -0.756378173828125
10535550000.0 0.2410888671875 -1.2928466796875
10566771875.0 -0.65545654296875 -1.076904296875
10597993750.0 -1.0787353515625 -0.459716796875
10629215625.0 -1.17327880859375 0.20355224609375
10660437500.0 -0.887298583984375 0.948974609375
10691659375.0 -0.00994873046875 1.33367919921875
10722881250.0 0.782989501953125 0.95184326171875
10754103125.0 1.11676025390625 0.3253173828125
10785325000.0 1.1380615234375 -0.3660888671875
10816546875.0 0.7010498046875 -1.046875
10847768750.0 -0.1431884765625 -1.226806640625
10878990625.0 -0.804290771484375 -0.842803955078125
10910212500.0 -1.1214599609375 -0.24609375
10941434375.0 -1.0963134765625 0.47479248046875
10972656250.0 -0.56842041015625 1.08258056640625
11003878125.0 0.21636962890625 1.17279052734375
11035100000.0 0.846160888671875 0.8216552734375
11066321875.0 1.21929931640625 0.1748046875
11097543750.0 1.0972900390625 -0.675537109375
11128765625.0 0.38616943359375 -1.1990966796875
11159987500.0 -0.39508056640625 -1.1390380859375
11191209375.0 -0.997283935546875 -0.702606201171875
11222431250.0 -1.2706298828125 0.09185791015625
11253653125.0 -0.85845947265625 0.895538330078125
11284875000.0 -0.11517333984375 1.12554931640625
11316096875.0 0.509246826171875 0.956024169921875
11347318750.0 1.0020751953125 0.50274658203125
11378540625.0 1.11492919921875 -0.26690673828125
11409762500.0 0.6348876953125 -0.857940673828125
11440984375.0 0.036346435546875 -0.978057861328125
11472206250.0 -0.478973388671875 -0.849761962890625
11503428125.0 -0.950653076171875 -0.45635986328125
11534650000.0 -1.06756591796875 0.28680419921875
11565871875.0 -0.60205078125 0.851165771484375
11597093750.0 -0.018829345703125 0.990203857421875
11628315625.0 0.54290771484375 0.874420166015625
11659537500.0 1.05902099609375 0.39263916015625
11690759375.0 1.06396484375 -0.43255615234375
11721981250.0 0.51800537109375 -0.939300537109375
11753203125.0 -0.10498046875 -1.03594970703125
11784425000.0 -0.723236083984375 -0.80816650390625
11815646875.0 -1.0989990234375 -0.1514892578125
11846868750.0 -0.890472412109375 0.550506591796875
11878090625.0 -0.39178466796875 0.907684326171875
11909312500.0 0.186767578125 0.983306884765625
11940534375.0 0.778228759765625 0.695220947265625
11971756250.0 1.02294921875 0.04107666015625
12002978125.0 0.805938720703125 -0.53570556640625
12034200000.0 0.382293701171875 -0.886810302734375
12065421875.0 -0.21435546875 -1.00909423828125
12096643750.0 -0.84661865234375 -0.665557861328125
12127865625.0 -1.03173828125 0.01580810546875
12159087500.0 -0.81488037109375 0.574859619140625
12190309375.0 -0.37738037109375 0.974945068359375
12221531250.0 0.3399658203125 1.08819580078125
12252753125.0 0.97723388671875 0.58251953125
12283975000.0 1.05291748046875 -0.1270751953125
12315196875.0 0.800048828125 -0.675628662109375
12346418750.0 0.2811279296875 -1.09149169921875
12377640625.0 -0.537353515625 -1.060546875
12408862500.0 -1.03387451171875 -0.4193115234375
12440084375.0 -1.00823974609375 0.22503662109375
12471306250.0 -0.740875244140625 0.73553466796875
12502528125.0 -0.1807861328125 1.1177978515625
12533750000.0 0.6192626953125 0.994293212890625
12564971875.0 1.040283203125 0.36431884765625
12596193750.0 1.0296630859375 -0.26495361328125
12627415625.0 0.747589111328125 -0.826324462890625
12658637500.0 0.08001708984375 -1.20654296875
12689859375.0 -0.736328125 -0.9664306640625
12721081250.0 -1.11651611328125 -0.30670166015625
12752303125.0 -1.09686279296875 0.38238525390625
12783525000.0 -0.686767578125 1.027587890625
12814746875.0 0.1619873046875 1.249267578125
12845968750.0 0.86248779296875 0.8099365234375
12877190625.0 1.11663818359375 0.17193603515625
12908412500.0 1.05426025390625 -0.5006103515625
12939634375.0 0.54254150390625 -1.11590576171875
12970856250.0 -0.318359375 -1.1732177734375
13002078125.0 -0.892486572265625 -0.69317626953125
13033300000.0 -1.10565185546875 -0.08819580078125
13064521875.0 -1.00860595703125 0.59112548828125
13095743750.0 -0.41943359375 1.15557861328125
13126965625.0 0.4080810546875 1.1192626953125
13158187500.0 0.94464111328125 0.6324462890625
13189409375.0 1.14569091796875 -0.01904296875
13220631250.0 0.93646240234375 -0.747955322265625
13251853125.0 0.2340087890625 -1.17120361328125
13283075000.0 -0.50604248046875 -1.0198974609375
13314296875.0 -0.98638916015625 -0.52978515625
13345518750.0 -1.1339111328125 0.1739501953125
