!Created with skrf (http://scikit-rf.org).
# Hz S RI R 50.0 
!freq ReS11 ImS11
45000000.0 -0.076904296875 -0.09682464599609375
76221875.0 -0.1962432861328125 -0.0476837158203125
107443750.0 -0.2547149658203125 0.1195220947265625
138665625.0 -0.1483306884765625 0.3285064697265625
169887500.0 0.123291015625 0.417236328125
201109375.0 0.4214324951171875 0.2808837890625
232331250.0 0.5784912109375 -0.057464599609375
263553125.0 0.4893646240234375 -0.451934814453125
294775000.0 0.098785400390625 -0.73187255859375
325996875.0 -0.4146728515625 -0.6802978515625
357218750.0 -0.8052978515625 -0.297119140625
388440625.0 -0.88494873046875 0.299896240234375
419662500.0 -0.517364501953125 0.86529541015625
450884375.0 0.17230224609375 1.02801513671875
482106250.0 0.797332763671875 0.712310791015625
513328125.0 1.118408203125 0.08758544921875
544550000.0 1.00311279296875 -0.6785888671875
575771875.0 0.3367919921875 -1.237060546875
606993750.0 -0.5528564453125 -1.1767578125
638215625.0 -1.16461181640625 -0.59033203125
669437500.0 -1.338623046875 0.2327880859375
700659375.0 -0.9705810546875 1.09478759765625
731881250.0 -0.00408935546875 1.54150390625
763103125.0 1.00421142578125 1.15484619140625
794325000.0 1.467041015625 0.28192138671875
825546875.0 1.3660888671875 -0.6502685546875
856768750.0 0.79437255859375 -1.39837646484375
887990625.0 -0.29168701171875 -1.6463623046875
919212500.0 -1.2860107421875 -1.07769775390625
950434375.0 -1.646484375 -0.05987548828125
981656250.0 -1.38116455078125 0.94439697265625
1012878125.0 -0.52984619140625 1.66864013671875
1044100000.0 0.69500732421875 1.65966796875
1075321875.0 1.571533203125 0.81170654296875
1106543750.0 1.70281982421875 -0.311767578125
1137765625.0 1.18572998046875 -1.28131103515625
1168987500.0 0.138671875 -1.79461669921875
1200209375.0 -1.0595703125 -1.48175048828125
1231431250.0 -1.724609375 -0.45367431640625
1262653125.0 -1.5921630859375 0.6827392578125
1293875000.0 -0.8514404296875 1.48931884765625
1325096875.0 0.22735595703125 1.70477294921875
1356318750.0 1.23358154296875 1.21527099609375
1387540625.0 1.7374267578125 0.1890869140625
1418762500.0 1.46746826171875 -0.94921875
1449984375.0 0.529296875 -1.62359619140625
1481206250.0 -0.54840087890625 -1.55413818359375
1512428125.0 -1.33941650390625 -0.9188232421875
1543650000.0 -1.65338134765625 0.06463623046875
1574871875.0 -1.27203369140625 1.1064453125
1606093750.0 -0.2733154296875 1.62896728515625
1637315625.0 0.740478515625 1.39886474609375
1668537500.0 1.39373779296875 0.6956787109375
1699759375.0 1.57110595703125 -0.27587890625
1730981250.0 1.0634765625 -1.22711181640625
1762203125.0 0.04254150390625 -1.56866455078125
1793425000.0 -0.85400390625 -1.22515869140625
1824646875.0 -1.3917236328125 -0.5145263671875
1855868750.0 -1.4720458984375 0.43121337890625
1887090625.0 -0.87408447265625 1.28338623046875
1918312500.0 0.1165771484375 1.484619140625
1949534375.0 0.91937255859375 1.0880126953125
1980756250.0 1.37261962890625 0.37042236328125
2011978125.0 1.35821533203125 -0.5306396484375
2043200000.0 0.74951171875 -1.2593994140625
2074421875.0 -0.15582275390625 -1.43115234375
2105643750.0 -0.95849609375 -1.07159423828125
2136865625.0 -1.44482421875 -0.30523681640625
2168087500.0 -1.35552978515625 0.66949462890625
2199309375.0 -0.638671875 1.3492431640625
2230531250.0 0.2808837890625 1.43426513671875
2261753125.0 1.0709228515625 1.0128173828125
2292975000.0 1.51226806640625 0.1710205078125
2324196875.0 1.303955078125 -0.81732177734375
2355418750.0 0.52484130859375 -1.41802978515625
2386640625.0 -0.4033203125 -1.4473876953125
2417862500.0 -1.17767333984375 -1.02337646484375
2449084375.0 -1.60107421875 -0.08587646484375
2480306250.0 -1.30987548828125 0.92279052734375
2511528125.0 -0.49359130859375 1.50469970703125
2542750000.0 0.48687744140625 1.53387451171875
2573971875.0 1.36932373046875 0.96722412109375
2605193750.0 1.71380615234375 -0.11151123046875
2636415625.0 1.260009765625 -1.14947509765625
2667637500.0 0.30718994140625 -1.66375732421875
2698859375.0 -0.766845703125 -1.53192138671875
2730081250.0 -1.57037353515625 -0.740478515625
2761303125.0 -1.67926025390625 0.3876953125
2792525000.0 -1.09832763671875 1.3035888671875
2823746875.0 -0.102294921875 1.72735595703125
2854968750.0 1.0093994140625 1.45330810546875
2886190625.0 1.6873779296875 0.49176025390625
2917412500.0 1.59716796875 -0.61590576171875
2948634375.0 0.93865966796875 -1.42822265625
2979856250.0 -0.1063232421875 -1.77294921875
3011078125.0 -1.243896484375 -1.34063720703125
3042300000.0 -1.769775390625 -0.236328125
3073521875.0 -1.506103515625 0.8359375
3104743750.0 -0.76300048828125 1.5643310546875
3135965625.0 0.36004638671875 1.80517578125
3167187500.0 1.49493408203125 1.16302490234375
3198409375.0 1.81298828125 -0.07415771484375
3229631250.0 1.346923828125 -1.0791015625
3260853125.0 0.48919677734375 -1.6654052734375
3292075000.0 -0.653076171875 -1.6954345703125
3323296875.0 -1.61578369140625 -0.879150390625
3354518750.0 -1.72662353515625 0.325927734375
3385740625.0 -1.1546630859375 1.22967529296875
3416962500.0 -0.2315673828125 1.678466796875
3448184375.0 0.8587646484375 1.51904296875
3479406250.0 1.63116455078125 0.64422607421875
3510628125.0 1.640869140625 -0.4925537109375
3541850000.0 0.99920654296875 -1.3516845703125
3573071875.0 -0.00714111328125 -1.68011474609375
3604293750.0 -1.0250244140625 -1.33477783203125
3635515625.0 -1.62481689453125 -0.43817138671875
3666737500.0 -1.5589599609375 0.64385986328125
3697959375.0 -0.82476806640625 1.47344970703125
3729181250.0 0.2657470703125 1.6265869140625
3760403125.0 1.15057373046875 1.09625244140625
3791625000.0 1.54974365234375 0.2183837890625
3822846875.0 1.3992919921875 -0.7589111328125
3854068750.0 0.62005615234375 -1.47723388671875
3885290625.0 -0.41943359375 -1.478515625
3916512500.0 -1.1385498046875 -0.91009521484375
3947734375.0 -1.44464111328125 -0.1201171875
3978956250.0 -1.29534912109375 0.77734375
4010178125.0 -0.5308837890625 1.45135498046875
4041400000.0 0.47149658203125 1.41265869140625
4072621875.0 1.14898681640625 0.84698486328125
4103843750.0 1.4410400390625 0.0645751953125
4135065625.0 1.26605224609375 -0.84344482421875
4166287500.0 0.4578857421875 -1.49298095703125
4197509375.0 -0.55499267578125 -1.41241455078125
4228731250.0 -1.24481201171875 -0.802001953125
4259953125.0 -1.50531005859375 0.06884765625
4291175000.0 -1.18682861328125 1.00823974609375
4322396875.0 -0.28948974609375 1.52392578125
4353618750.0 0.67010498046875 1.3477783203125
4384840625.0 1.31927490234375 0.697021484375
4416062500.0 1.498291015625 -0.226806640625
4447284375.0 1.0540771484375 -1.10113525390625
4478506250.0 0.1729736328125 -1.4925537109375
4509728125.0 -0.73065185546875 -1.3052978515625
4540950000.0 -1.3916015625 -0.635986328125
4572171875.0 -1.52056884765625 0.3592529296875
4603393750.0 -0.971435546875 1.21002197265625
4634615625.0 -0.06207275390625 1.53448486328125
4665837500.0 0.86859130859375 1.302734375
4697059375.0 1.53826904296875 0.51519775390625
4728281250.0 1.526611328125 -0.5810546875
4759503125.0 0.8228759765625 -1.36383056640625
4790725000.0 -0.14410400390625 -1.56964111328125
4821946875.0 -1.08050537109375 -1.19232177734375
4853168750.0 -1.61065673828125 -0.2518310546875
4884390625.0 -1.37591552734375 0.79083251953125
4915612500.0 -0.61309814453125 1.40985107421875
4946834375.0 0.3272705078125 1.507080078125
4978056250.0 1.20263671875 1.0159912109375
5009278125.0 1.5601806640625 0.0394287109375
5040500000.0 1.22772216796875 -0.87371826171875
5071721875.0 0.50140380859375 -1.41156005859375
5102943750.0 -0.4456787109375 -1.49530029296875
5134165625.0 -1.33465576171875 -0.90423583984375
5165387500.0 -1.5655517578125 0.1458740234375
5196609375.0 -1.13470458984375 1.00677490234375
5227831250.0 -0.35760498046875 1.50311279296875
5259053125.0 0.686279296875 1.4898681640625
5290275000.0 1.51898193359375 0.6624755859375
5321496875.0 1.48992919921875 -0.4288330078125
5352718750.0 0.91998291015625 -1.15106201171875
5383940625.0 0.0972900390625 -1.4970703125
5415162500.0 -0.89703369140625 -1.2816162109375
5446384375.0 -1.48236083984375 -0.37005615234375
5477606250.0 -1.2978515625 0.565185546875
5508828125.0 -0.73089599609375 1.14727783203125
5540050000.0 0.0526123046875 1.39605712890625
5571271875.0 0.9366455078125 1.10772705078125
5602493750.0 1.40631103515625 0.2601318359375
5633715625.0 1.2308349609375 -0.61102294921875
5664937500.0 0.64776611328125 -1.19952392578125
5696159375.0 -0.196044921875 -1.38165283203125
5727381250.0 -1.0201416015625 -0.9776611328125
5758603125.0 -1.38934326171875 -0.14544677734375
5789825000.0 -1.193115234375 0.71636962890625
5821046875.0 -0.50555419921875 1.3056640625
5852268750.0 0.40985107421875 1.3111572265625
5883490625.0 1.06982421875 0.77130126953125
5914712500.0 1.301025390625 0.0201416015625
5945934375.0 1.09539794921875 -0.7738037109375
5977156250.0 0.36181640625 -1.3104248046875
6008378125.0 -0.508056640625 -1.1810302734375
6039600000.0 -1.019775390625 -0.6490478515625
6070821875.0 -1.2222900390625 -0.0052490234375
6102043750.0 -1.08270263671875 0.7607421875
6133265625.0 -0.34234619140625 1.3424072265625
6164487500.0 0.56231689453125 1.1859130859375
6195709375.0 1.0693359375 0.629638671875
6226931250.0 1.27764892578125 -0.04132080078125
6258153125.0 1.10345458984375 -0.869384765625
6289375000.0 0.25628662109375 -1.44378662109375
6320596875.0 -0.6885986328125 -1.2054443359375
6351818750.0 -1.1998291015625 -0.5709228515625
6383040625.0 -1.35284423828125 0.20648193359375
6414262500.0 -0.998779296875 1.05548095703125
6445484375.0 -0.078857421875 1.454833984375
6476706250.0 0.79534912109375 1.14727783203125
6507928125.0 1.2874755859375 0.47027587890625
6539150000.0 1.3450927734375 -0.38555908203125
6570371875.0 0.84039306640625 -1.1419677734375
6601593750.0 -0.0164794921875 -1.4033203125
6632815625.0 -0.838623046875 -1.13525390625
6664037500.0 -1.39886474609375 -0.42022705078125
6695259375.0 -1.37237548828125 0.5653076171875
6726481250.0 -0.709716796875 1.2491455078125
6757703125.0 0.1300048828125 1.405029296875
6788925000.0 0.95257568359375 1.1292724609375
6820146875.0 1.55743408203125 0.28778076171875
6851368750.0 1.324462890625 -0.819580078125
6882590625.0 0.5059814453125 -1.337646484375
6913812500.0 -0.29150390625 -1.355224609375
6945034375.0 -1.06787109375 -1.020751953125
6976256250.0 -1.59051513671875 -0.09344482421875
7007478125.0 -1.23492431640625 0.93011474609375
7038700000.0 -0.402099609375 1.340576171875
7069921875.0 0.3570556640625 1.32379150390625
7101143750.0 1.11431884765625 0.9674072265625
7132365625.0 1.59613037109375 0.015869140625
7163587500.0 1.156982421875 -1.01806640625
7194809375.0 0.30242919921875 -1.39447021484375
7226031250.0 -0.5107421875 -1.324462890625
7257253125.0 -1.2625732421875 -0.82470703125
7288475000.0 -1.55609130859375 0.19659423828125
7319696875.0 -1.02862548828125 1.10467529296875
7350918750.0 -0.16510009765625 1.44268798828125
7382140625.0 0.71337890625 1.27484130859375
7413362500.0 1.37322998046875 0.57568359375
7444584375.0 1.4100341796875 -0.4049072265625
7475806250.0 0.8565673828125 -1.14276123046875
7507028125.0 0.00439453125 -1.4285888671875
7538250000.0 -0.884765625 -1.123046875
7569471875.0 -1.33441162109375 -0.31182861328125
7600693750.0 -1.2005615234375 0.49542236328125
7631915625.0 -0.71722412109375 1.0830078125
7663137500.0 0.08001708984375 1.357421875
7694359375.0 0.9393310546875 0.979949951171875
7725581250.0 1.24212646484375 0.18133544921875
7756803125.0 1.08099365234375 -0.49609375
7788025000.0 0.67010498046875 -1.0408935546875
7819246875.0 -0.12103271484375 -1.34661865234375
7850468750.0 -0.990478515625 -0.914947509765625
7881690625.0 -1.2301025390625 -0.10565185546875
7912912500.0 -1.0535888671875 0.5531005859375
7944134375.0 -0.6051025390625 1.11175537109375
7975356250.0 0.27154541015625 1.33349609375
8006578125.0 1.0447998046875 0.77862548828125
8037800000.0 1.19305419921875 0.01629638671875
8069021875.0 1.005126953125 -0.616455078125
8100243750.0 0.499755859375 -1.1591796875
8131465625.0 -0.3858642578125 -1.2529296875
8162687500.0 -1.03033447265625 -0.68609619140625
8193909375.0 -1.17889404296875 0.00787353515625
8225131250.0 -1.01751708984375 0.67681884765625
8256353125.0 -0.4207763671875 1.2462158203125
8287575000.0 0.4998779296875 1.22528076171875
8318796875.0 1.0814208984375 0.634765625
8350018750.0 1.243896484375 -0.0750732421875
8381240625.0 1.0308837890625 -0.83843994140625
8412462500.0 0.25408935546875 -1.37255859375
8443684375.0 -0.66815185546875 -1.169921875
8474906250.0 -1.174560546875 -0.5316162109375
8506128125.0 -1.29705810546875 0.2366943359375
8537350000.0 -0.92437744140625 1.04693603515625
8568571875.0 -0.01678466796875 1.39105224609375
8599793750.0 0.80084228515625 1.0521240234375
8631015625.0 1.2391357421875 0.3984375
8662237500.0 1.28424072265625 -0.42779541015625
8693459375.0 0.73626708984375 -1.1776123046875
8724681250.0 -0.161376953125 -1.32891845703125
8755903125.0 -0.87884521484375 -0.95654296875
8787125000.0 -1.302734375 -0.2818603515625
8818346875.0 -1.2501220703125 0.61212158203125
8849568750.0 -0.5574951171875 1.25909423828125
8880790625.0 0.298095703125 1.28375244140625
8912012500.0 0.975555419921875 0.892364501953125
8943234375.0 1.39794921875 0.1290283203125
8974456250.0 1.16619873046875 -0.8408203125
9005678125.0 0.3482666015625 -1.31207275390625
9036900000.0 -0.4439697265625 -1.22454833984375
9068121875.0 -1.10162353515625 -0.785888671875
9099343750.0 -1.439208984375 0.09722900390625
9130565625.0 -0.9791259765625 1.01080322265625
9161787500.0 -0.156005859375 1.281494140625
9193009375.0 0.553466796875 1.13397216796875
9224231250.0 1.18048095703125 0.6552734375
9255453125.0 1.39837646484375 -0.29339599609375
9286675000.0 0.8067626953125 -1.08355712890625
9317896875.0 0.02801513671875 -1.2447509765625
9349118750.0 -0.65228271484375 -1.0693359375
9380340625.0 -1.25762939453125 -0.50982666015625
9411562500.0 -1.30975341796875 0.47576904296875
9442784375.0 -0.64801025390625 1.1138916015625
9474006250.0 0.08795166015625 1.21112060546875
9505228125.0 0.764007568359375 0.97955322265625
9536450000.0 1.27093505859375 0.3138427734375
9567671875.0 1.14312744140625 -0.57806396484375
9598893750.0 0.53033447265625 -1.066650390625
9630115625.0 -0.14312744140625 -1.15789794921875
9661337500.0 -0.816131591796875 -0.901947021484375
9692559375.0 -1.236572265625 -0.19122314453125
9723781250.0 -1.04266357421875 0.603271484375
9755003125.0 -0.48626708984375 1.048583984375
9786225000.0 0.198486328125 1.15887451171875
9817446875.0 0.894744873046875 0.827606201171875
9848668750.0 1.1971435546875 0.07855224609375
9879890625.0 0.967864990234375 -0.61468505859375
9911112500.0 0.4520263671875 -1.052490234375
9942334375.0 -0.26568603515625 -1.15838623046875
9973556250.0 -0.9420166015625 -0.73797607421875
10004778125.0 -1.14361572265625 -0.0191650390625
10036000000.0 -0.94439697265625 0.614288330078125
10067221875.0 -0.4420166015625 1.094970703125
10098443750.0 0.3690185546875 1.1802978515625
10129665625.0 1.0015869140625 0.64306640625
10160887500.0 1.12005615234375 -0.0523681640625
10192109375.0 0.91650390625 -0.662506103515625
10223331250.0 0.36199951171875 -1.1507568359375
10254553125.0 -0.48370361328125 -1.11260986328125
10285775000.0 -0.98291015625 -0.53558349609375
10316996875.0 -1.066162109375 0.07598876953125
10348218750.0 -0.898956298828125 0.6693115234375
10379440625.0 -0.3216552734375 1.1737060546875
10410662500.0 0.52545166015625 1.084716796875
10441884375.0 0.99151611328125 0.521209716796875
10473106250.0 1.10845947265625 -0.0830078125
10504328125.0 0.9503173828125 -0.755584716796875
10535550000.0 0.239013671875 -1.29351806640625
10566771875.0 -0.6575927734375 -1.07647705078125
10597993750.0 -1.0797119140625 -0.4581298828125
10629215625.0 -1.17413330078125 0.20458984375
10660437500.0 -0.887725830078125 0.949462890625
10691659375.0 -0.009521484375 1.33624267578125
10722881250.0 0.782806396484375 0.951202392578125
10754103125.0 1.11822509765625 0.324462890625
10785325000.0 1.13824462890625 -0.3665771484375
10816546875.0 0.7008056640625 -1.0489501953125
10847768750.0 -0.14459228515625 -1.2296142578125
10878990625.0 -0.802734375 -0.843780517578125
10910212500.0 -1.12054443359375 -0.246826171875
10941434375.0 -1.0972900390625 0.47589111328125
10972656250.0 -0.56829833984375 1.08349609375
11003878125.0 0.2164306640625 1.1734619140625
11035100000.0 0.846771240234375 0.821807861328125
11066321875.0 1.219482421875 0.1744384765625
11097543750.0 1.09814453125 -0.6756591796875
11128765625.0 0.38592529296875 -1.197021484375
11159987500.0 -0.39520263671875 -1.13824462890625
11191209375.0 -0.998321533203125 -0.701812744140625
11222431250.0 -1.27215576171875 0.09344482421875
11253653125.0 -0.8580322265625 0.89337158203125
11284875000.0 -0.1138916015625 1.1259765625
11316096875.0 0.510589599609375 0.955902099609375
11347318750.0 1.0025634765625 0.5023193359375
11378540625.0 1.1158447265625 -0.26812744140625
11409762500.0 0.634613037109375 -0.8592529296875
11440984375.0 0.03619384765625 -0.978179931640625
11472206250.0 -0.479766845703125 -0.850006103515625
11503428125.0 -0.951141357421875 -0.4564208984375
11534650000.0 -1.067626953125 0.28631591796875
11565871875.0 -0.602569580078125 0.85260009765625
11597093750.0 -0.019073486328125 0.99005126953125
11628315625.0 0.54315185546875 0.873931884765625
11659537500.0 1.05926513671875 0.39117431640625
11690759375.0 1.06463623046875 -0.43377685546875
11721981250.0 0.516876220703125 -0.93951416015625
11753203125.0 -0.10540771484375 -1.03594970703125
11784425000.0 -0.724151611328125 -0.8089599609375
11815646875.0 -1.100830078125 -0.151611328125
11846868750.0 -0.890838623046875 0.55029296875
11878090625.0 -0.39007568359375 0.9090576171875
11909312500.0 0.186279296875 0.984161376953125
11940534375.0 0.77862548828125 0.69464111328125
11971756250.0 1.0234375 0.03955078125
12002978125.0 0.806549072265625 -0.53692626953125
12034200000.0 0.381561279296875 -0.888580322265625
12065421875.0 -0.215576171875 -1.0096435546875
12096643750.0 -0.84698486328125 -0.665557861328125
12127865625.0 -1.03271484375 0.01556396484375
12159087500.0 -0.8154296875 0.574920654296875
12190309375.0 -0.378265380859375 0.973907470703125
12221531250.0 0.3399658203125 1.0880126953125
12252753125.0 0.97906494140625 0.581756591796875
12283975000.0 1.05194091796875 -0.12628173828125
12315196875.0 0.799468994140625 -0.674530029296875
12346418750.0 0.2818603515625 -1.09014892578125
12377640625.0 -0.53790283203125 -1.05987548828125
12408862500.0 -1.03289794921875 -0.419677734375
12440084375.0 -1.00738525390625 0.223388671875
12471306250.0 -0.740966796875 0.73699951171875
12502528125.0 -0.17901611328125 1.119873046875
12533750000.0 0.61865234375 0.993438720703125
12564971875.0 1.03961181640625 0.36334228515625
12596193750.0 1.0279541015625 -0.26300048828125
12627415625.0 0.747772216796875 -0.829132080078125
12658637500.0 0.08013916015625 -1.2059326171875
12689859375.0 -0.734649658203125 -0.966064453125
12721081250.0 -1.11553955078125 -0.306396484375
12752303125.0 -1.0960693359375 0.38275146484375
12783525000.0 -0.6865234375 1.0262451171875
12814746875.0 0.164306640625 1.25048828125
12845968750.0 0.861907958984375 0.81072998046875
12877190625.0 1.1165771484375 0.1724853515625
12908412500.0 1.0552978515625 -0.50146484375
12939634375.0 0.54132080078125 -1.11639404296875
12970856250.0 -0.31939697265625 -1.17535400390625
13002078125.0 -0.89410400390625 -0.69342041015625
13033300000.0 -1.10614013671875 -0.08648681640625
13064521875.0 -1.00909423828125 0.59130859375
13095743750.0 -0.41973876953125 1.15386962890625
13126965625.0 0.40948486328125 1.12091064453125
13158187500.0 0.946197509765625 0.632568359375
13189409375.0 1.1468505859375 -0.02081298828125
13220631250.0 0.936279296875 -0.748199462890625
13251853125.0 0.2333984375 -1.17108154296875
13283075000.0 -0.50567626953125 -1.01873779296875
13314296875.0 -0.98651123046875 -0.52850341796875
13345518750.0 -1.1328125 0.17535400390625
