!Created with skrf (http://scikit-rf.org).
# Hz S RI R 50.0 
!freq ReS11 ImS11
45000000.0 -0.07698822021484375 -0.09675216674804688
76221875.0 -0.19625091552734375 -0.04749298095703125
107443750.0 -0.2546234130859375 0.1196441650390625
138665625.0 -0.147979736328125 0.3283233642578125
169887500.0 0.1236419677734375 0.4172210693359375
201109375.0 0.4217987060546875 0.2806854248046875
232331250.0 0.578582763671875 -0.0577392578125
263553125.0 0.4889984130859375 -0.452392578125
294775000.0 0.0982666015625 -0.73193359375
325996875.0 -0.415283203125 -0.6798095703125
357218750.0 -0.805755615234375 -0.29638671875
388440625.0 -0.88494873046875 0.30059814453125
419662500.0 -0.516632080078125 0.86572265625
450884375.0 0.17327880859375 1.02789306640625
482106250.0 0.79803466796875 0.711639404296875
513328125.0 1.1185302734375 0.08660888671875
544550000.0 1.00299072265625 -0.6798095703125
575771875.0 0.33575439453125 -1.23724365234375
606993750.0 -0.553955078125 -1.1759033203125
638215625.0 -1.1650390625 -0.5894775390625
669437500.0 -1.338623046875 0.23394775390625
700659375.0 -0.96978759765625 1.0953369140625
731881250.0 -0.003173828125 1.54168701171875
763103125.0 1.0052490234375 1.1544189453125
794325000.0 1.46728515625 0.281005859375
825546875.0 1.36590576171875 -0.65118408203125
856768750.0 0.79296875 -1.3995361328125
887990625.0 -0.292724609375 -1.64691162109375
919212500.0 -1.2869873046875 -1.07696533203125
950434375.0 -1.6466064453125 -0.0587158203125
981656250.0 -1.38079833984375 0.9449462890625
1012878125.0 -0.528564453125 1.669189453125
1044100000.0 0.6961669921875 1.659423828125
1075321875.0 1.57293701171875 0.8104248046875
1106543750.0 1.702392578125 -0.31304931640625
1137765625.0 1.18450927734375 -1.2825927734375
1168987500.0 0.13739013671875 -1.7947998046875
1200209375.0 -1.0606689453125 -1.48114013671875
1231431250.0 -1.72509765625 -0.45269775390625
1262653125.0 -1.59210205078125 0.6844482421875
1293875000.0 -0.85015869140625 1.48980712890625
1325096875.0 0.22833251953125 1.70404052734375
1356318750.0 1.23382568359375 1.2147216796875
1387540625.0 1.7376708984375 0.1881103515625
1418762500.0 1.4669189453125 -0.9505615234375
1449984375.0 0.5283203125 -1.62353515625
1481206250.0 -0.549560546875 -1.5538330078125
1512428125.0 -1.34033203125 -0.9180908203125
1543650000.0 -1.6533203125 0.0657958984375
1574871875.0 -1.271240234375 1.1077880859375
1606093750.0 -0.2720947265625 1.629638671875
1637315625.0 0.7412109375 1.3985595703125
1668537500.0 1.3944091796875 0.6947021484375
1699759375.0 1.5709228515625 -0.2774658203125
1730981250.0 1.0626220703125 -1.22784423828125
1762203125.0 0.0418701171875 -1.56829833984375
1793425000.0 -0.854736328125 -1.22454833984375
1824646875.0 -1.3917236328125 -0.5140380859375
1855868750.0 -1.4716796875 0.43182373046875
1887090625.0 -0.87353515625 1.28375244140625
1918312500.0 0.1175537109375 1.4847412109375
1949534375.0 0.9202880859375 1.0875244140625
1980756250.0 1.3736572265625 0.369140625
2011978125.0 1.35760498046875 -0.53167724609375
2043200000.0 0.7486572265625 -1.2601318359375
2074421875.0 -0.156982421875 -1.43145751953125
2105643750.0 -0.95892333984375 -1.07110595703125
2136865625.0 -1.4451904296875 -0.30419921875
2168087500.0 -1.3551025390625 0.6702880859375
2199309375.0 -0.63812255859375 1.349853515625
2230531250.0 0.28167724609375 1.43402099609375
2261753125.0 1.07098388671875 1.01214599609375
2292975000.0 1.5123291015625 0.169921875
2324196875.0 1.30352783203125 -0.81817626953125
2355418750.0 0.52410888671875 -1.4180908203125
2386640625.0 -0.40386962890625 -1.44683837890625
2417862500.0 -1.1802978515625 -1.02252197265625
2449084375.0 -1.602783203125 -0.0838623046875
2480306250.0 -1.30908203125 0.9228515625
2511528125.0 -0.4930419921875 1.50469970703125
2542750000.0 0.4871826171875 1.5338134765625
2573971875.0 1.36871337890625 0.96612548828125
2605193750.0 1.71441650390625 -0.1124267578125
2636415625.0 1.259765625 -1.150634765625
2667637500.0 0.30584716796875 -1.6641845703125
2698859375.0 -0.76910400390625 -1.53216552734375
2730081250.0 -1.57171630859375 -0.73883056640625
2761303125.0 -1.67852783203125 0.38739013671875
2792525000.0 -1.09765625 1.30572509765625
2823746875.0 -0.101806640625 1.72650146484375
2854968750.0 1.00897216796875 1.4525146484375
2886190625.0 1.6876220703125 0.49102783203125
2917412500.0 1.59759521484375 -0.61773681640625
2948634375.0 0.9375 -1.42950439453125
2979856250.0 -0.10821533203125 -1.7734375
3011078125.0 -1.24517822265625 -1.340087890625
3042300000.0 -1.7713623046875 -0.234619140625
3073521875.0 -1.50579833984375 0.83599853515625
3104743750.0 -0.76129150390625 1.56585693359375
3135965625.0 0.36114501953125 1.8057861328125
3167187500.0 1.49609375 1.1622314453125
3198409375.0 1.81256103515625 -0.07550048828125
3229631250.0 1.3463134765625 -1.08026123046875
3260853125.0 0.48797607421875 -1.66546630859375
3292075000.0 -0.65509033203125 -1.6949462890625
3323296875.0 -1.61614990234375 -0.87799072265625
3354518750.0 -1.72674560546875 0.3280029296875
3385740625.0 -1.15338134765625 1.22979736328125
3416962500.0 -0.2308349609375 1.67852783203125
3448184375.0 0.8587646484375 1.51910400390625
3479406250.0 1.633544921875 0.64306640625
3510628125.0 1.64111328125 -0.49365234375
3541850000.0 0.998291015625 -1.35284423828125
3573071875.0 -0.0078125 -1.67987060546875
3604293750.0 -1.025146484375 -1.3349609375
3635515625.0 -1.625 -0.43768310546875
3666737500.0 -1.55841064453125 0.64447021484375
3697959375.0 -0.82379150390625 1.47216796875
3729181250.0 0.2684326171875 1.6278076171875
3760403125.0 1.14947509765625 1.09588623046875
3791625000.0 1.55010986328125 0.217529296875
3822846875.0 1.39947509765625 -0.76019287109375
3854068750.0 0.6195068359375 -1.4783935546875
3885290625.0 -0.41998291015625 -1.4779052734375
3916512500.0 -1.13983154296875 -0.9097900390625
3947734375.0 -1.44464111328125 -0.11968994140625
3978956250.0 -1.295166015625 0.77740478515625
4010178125.0 -0.53021240234375 1.4515380859375
4041400000.0 0.47222900390625 1.4130859375
4072621875.0 1.14886474609375 0.846435546875
4103843750.0 1.441650390625 0.06365966796875
4135065625.0 1.265380859375 -0.84381103515625
4166287500.0 0.45709228515625 -1.4935302734375
4197509375.0 -0.55731201171875 -1.4132080078125
4228731250.0 -1.24603271484375 -0.80126953125
4259953125.0 -1.50628662109375 0.0706787109375
4291175000.0 -1.18634033203125 1.0084228515625
4322396875.0 -0.28955078125 1.5228271484375
4353618750.0 0.6722412109375 1.34783935546875
4384840625.0 1.31866455078125 0.6966552734375
4416062500.0 1.49810791015625 -0.22625732421875
4447284375.0 1.0538330078125 -1.1025390625
4478506250.0 0.172119140625 -1.49273681640625
4509728125.0 -0.7305908203125 -1.3052978515625
4540950000.0 -1.39166259765625 -0.6356201171875
4572171875.0 -1.52001953125 0.35906982421875
4603393750.0 -0.97113037109375 1.20941162109375
4634615625.0 -0.0616455078125 1.53411865234375
4665837500.0 0.86773681640625 1.30230712890625
4697059375.0 1.5382080078125 0.51513671875
4728281250.0 1.52728271484375 -0.5816650390625
4759503125.0 0.822021484375 -1.36383056640625
4790725000.0 -0.14495849609375 -1.5711669921875
4821946875.0 -1.08184814453125 -1.19244384765625
4853168750.0 -1.6094970703125 -0.25164794921875
4884390625.0 -1.376220703125 0.79150390625
4915612500.0 -0.6126708984375 1.40960693359375
4946834375.0 0.3284912109375 1.5072021484375
4978056250.0 1.20367431640625 1.01556396484375
5009278125.0 1.55908203125 0.039794921875
5040500000.0 1.2269287109375 -0.873291015625
5071721875.0 0.501220703125 -1.41241455078125
5102943750.0 -0.4459228515625 -1.494384765625
5134165625.0 -1.33282470703125 -0.9044189453125
5165387500.0 -1.5657958984375 0.14508056640625
5196609375.0 -1.135009765625 1.00732421875
5227831250.0 -0.35784912109375 1.5029296875
5259053125.0 0.68634033203125 1.48956298828125
5290275000.0 1.51934814453125 0.66217041015625
5321496875.0 1.49066162109375 -0.43060302734375
5352718750.0 0.91998291015625 -1.1517333984375
5383940625.0 0.09686279296875 -1.49774169921875
5415162500.0 -0.89837646484375 -1.2818603515625
5446384375.0 -1.48126220703125 -0.3697509765625
5477606250.0 -1.29742431640625 0.56500244140625
5508828125.0 -0.7305908203125 1.14923095703125
5540050000.0 0.05316162109375 1.39630126953125
5571271875.0 0.9376220703125 1.10748291015625
5602493750.0 1.406005859375 0.25982666015625
5633715625.0 1.23077392578125 -0.61151123046875
5664937500.0 0.64715576171875 -1.199462890625
5696159375.0 -0.19610595703125 -1.38116455078125
5727381250.0 -1.01922607421875 -0.97735595703125
5758603125.0 -1.3895263671875 -0.1451416015625
5789825000.0 -1.1922607421875 0.71502685546875
5821046875.0 -0.506103515625 1.30499267578125
5852268750.0 0.40960693359375 1.31085205078125
5883490625.0 1.0689697265625 0.77142333984375
5914712500.0 1.3017578125 0.019287109375
5945934375.0 1.0946044921875 -0.7747802734375
5977156250.0 0.36090087890625 -1.310546875
6008378125.0 -0.50799560546875 -1.18084716796875
6039600000.0 -1.0211181640625 -0.64837646484375
6070821875.0 -1.22247314453125 -0.0047607421875
6102043750.0 -1.0819091796875 0.7608642578125
6133265625.0 -0.34173583984375 1.3424072265625
6164487500.0 0.56182861328125 1.1861572265625
6195709375.0 1.06951904296875 0.6295166015625
6226931250.0 1.27813720703125 -0.042236328125
6258153125.0 1.10260009765625 -0.86810302734375
6289375000.0 0.25653076171875 -1.4437255859375
6320596875.0 -0.6881103515625 -1.20489501953125
6351818750.0 -1.19818115234375 -0.57220458984375
6383040625.0 -1.353515625 0.2059326171875
6414262500.0 -0.9990234375 1.0555419921875
6445484375.0 -0.07867431640625 1.4552001953125
6476706250.0 0.79296875 1.14642333984375
6507928125.0 1.2891845703125 0.46954345703125
6539150000.0 1.34527587890625 -0.38470458984375
6570371875.0 0.8408203125 -1.14215087890625
6601593750.0 -0.0174560546875 -1.40325927734375
6632815625.0 -0.8367919921875 -1.13458251953125
6664037500.0 -1.40020751953125 -0.41998291015625
6695259375.0 -1.37261962890625 0.56463623046875
6726481250.0 -0.70928955078125 1.249267578125
6757703125.0 0.13006591796875 1.4049072265625
6788925000.0 0.953125 1.12994384765625
6820146875.0 1.5594482421875 0.28741455078125
6851368750.0 1.32501220703125 -0.818115234375
6882590625.0 0.5057373046875 -1.337890625
6913812500.0 -0.2918701171875 -1.35516357421875
6945034375.0 -1.06829833984375 -1.02081298828125
6976256250.0 -1.591064453125 -0.09344482421875
7007478125.0 -1.2349853515625 0.93109130859375
7038700000.0 -0.4007568359375 1.34130859375
7069921875.0 0.3582763671875 1.32220458984375
7101143750.0 1.11614990234375 0.966796875
7132365625.0 1.596435546875 0.01409912109375
7163587500.0 1.15716552734375 -1.0206298828125
7194809375.0 0.302001953125 -1.39581298828125
7226031250.0 -0.50933837890625 -1.32305908203125
7257253125.0 -1.2645263671875 -0.823974609375
7288475000.0 -1.55718994140625 0.198486328125
7319696875.0 -1.029296875 1.10711669921875
7350918750.0 -0.1639404296875 1.44268798828125
7382140625.0 0.71392822265625 1.2744140625
7413362500.0 1.37359619140625 0.57586669921875
7444584375.0 1.4095458984375 -0.40496826171875
7475806250.0 0.85748291015625 -1.13995361328125
7507028125.0 0.00579833984375 -1.427490234375
7538250000.0 -0.88641357421875 -1.1221923828125
7569471875.0 -1.33453369140625 -0.3106689453125
7600693750.0 -1.2012939453125 0.49700927734375
7631915625.0 -0.7177734375 1.08380126953125
7663137500.0 0.07977294921875 1.35693359375
7694359375.0 0.938507080078125 0.979583740234375
7725581250.0 1.24188232421875 0.1810302734375
7756803125.0 1.08123779296875 -0.49749755859375
7788025000.0 0.66973876953125 -1.04339599609375
7819246875.0 -0.12127685546875 -1.3465576171875
7850468750.0 -0.99407958984375 -0.915069580078125
7881690625.0 -1.2303466796875 -0.1058349609375
7912912500.0 -1.05340576171875 0.55328369140625
7944134375.0 -0.6058349609375 1.110595703125
7975356250.0 0.269775390625 1.33343505859375
8006578125.0 1.04736328125 0.77777099609375
8037800000.0 1.19287109375 0.01629638671875
8069021875.0 1.00531005859375 -0.616943359375
8100243750.0 0.49957275390625 -1.16070556640625
8131465625.0 -0.3865966796875 -1.25323486328125
8162687500.0 -1.0306396484375 -0.68548583984375
8193909375.0 -1.1800537109375 0.008056640625
8225131250.0 -1.0169677734375 0.677490234375
8256353125.0 -0.4208984375 1.2464599609375
8287575000.0 0.499267578125 1.22564697265625
8318796875.0 1.08123779296875 0.63519287109375
8350018750.0 1.2432861328125 -0.07452392578125
8381240625.0 1.03021240234375 -0.8375244140625
8412462500.0 0.25457763671875 -1.371337890625
8443684375.0 -0.6689453125 -1.16973876953125
8474906250.0 -1.1744384765625 -0.53118896484375
8506128125.0 -1.29656982421875 0.23602294921875
8537350000.0 -0.92449951171875 1.04547119140625
8568571875.0 -0.01727294921875 1.39227294921875
8599793750.0 0.79962158203125 1.0523681640625
8631015625.0 1.24066162109375 0.3980712890625
8662237500.0 1.2840576171875 -0.427490234375
8693459375.0 0.73565673828125 -1.17608642578125
8724681250.0 -0.159423828125 -1.32891845703125
8755903125.0 -0.877960205078125 -0.95697021484375
8787125000.0 -1.300537109375 -0.2833251953125
8818346875.0 -1.24951171875 0.61370849609375
8849568750.0 -0.55706787109375 1.2586669921875
8880790625.0 0.29913330078125 1.28411865234375
8912012500.0 0.97882080078125 0.8917236328125
8943234375.0 1.398193359375 0.130126953125
8974456250.0 1.1666259765625 -0.83795166015625
9005678125.0 0.34869384765625 -1.3131103515625
9036900000.0 -0.4444580078125 -1.22418212890625
9068121875.0 -1.10089111328125 -0.78485107421875
9099343750.0 -1.44000244140625 0.096435546875
9130565625.0 -0.97998046875 1.00970458984375
9161787500.0 -0.15472412109375 1.28173828125
9193009375.0 0.55438232421875 1.1331787109375
9224231250.0 1.1771240234375 0.65496826171875
9255453125.0 1.3970947265625 -0.29510498046875
9286675000.0 0.806640625 -1.084228515625
9317896875.0 0.02557373046875 -1.24755859375
9349118750.0 -0.6524658203125 -1.0687255859375
9380340625.0 -1.25592041015625 -0.51007080078125
9411562500.0 -1.3089599609375 0.474853515625
9442784375.0 -0.6480712890625 1.11639404296875
9474006250.0 0.08892822265625 1.21087646484375
9505228125.0 0.7628173828125 0.979461669921875
9536450000.0 1.27349853515625 0.31201171875
9567671875.0 1.14385986328125 -0.5799560546875
9598893750.0 0.5306396484375 -1.06671142578125
9630115625.0 -0.142333984375 -1.1561279296875
9661337500.0 -0.816375732421875 -0.90228271484375
9692559375.0 -1.23773193359375 -0.1903076171875
9723781250.0 -1.0435791015625 0.60302734375
9755003125.0 -0.48553466796875 1.04974365234375
9786225000.0 0.1961669921875 1.15692138671875
9817446875.0 0.89312744140625 0.8272705078125
9848668750.0 1.196533203125 0.0797119140625
9879890625.0 0.9669189453125 -0.61663818359375
9911112500.0 0.4527587890625 -1.04937744140625
9942334375.0 -0.26678466796875 -1.158447265625
9973556250.0 -0.941802978515625 -0.73797607421875
10004778125.0 -1.14642333984375 -0.01812744140625
10036000000.0 -0.943359375 0.614288330078125
10067221875.0 -0.44232177734375 1.09442138671875
10098443750.0 0.3681640625 1.1806640625
10129665625.0 1.0013427734375 0.6434326171875
10160887500.0 1.1181640625 -0.0504150390625
10192109375.0 0.91717529296875 -0.6629638671875
10223331250.0 0.36163330078125 -1.1513671875
10254553125.0 -0.48291015625 -1.11309814453125
10285775000.0 -0.984344482421875 -0.53582763671875
10316996875.0 -1.06610107421875 0.07562255859375
10348218750.0 -0.899078369140625 0.669769287109375
10379440625.0 -0.32330322265625 1.1724853515625
10410662500.0 0.52642822265625 1.0855712890625
10441884375.0 0.99041748046875 0.523406982421875
10473106250.0 1.10931396484375 -0.08453369140625
10504328125.0 0.948455810546875 -0.755279541015625
10535550000.0 0.239501953125 -1.29400634765625
10566771875.0 -0.65509033203125 -1.07720947265625
10597993750.0 -1.07861328125 -0.4595947265625
10629215625.0 -1.1741943359375 0.2054443359375
10660437500.0 -0.8870849609375 0.949981689453125
10691659375.0 -0.01116943359375 1.33453369140625
10722881250.0 0.783782958984375 0.953094482421875
10754103125.0 1.11767578125 0.3248291015625
10785325000.0 1.13818359375 -0.36639404296875
10816546875.0 0.7008056640625 -1.0469970703125
10847768750.0 -0.144287109375 -1.22930908203125
10878990625.0 -0.801239013671875 -0.84344482421875
10910212500.0 -1.1214599609375 -0.2447509765625
10941434375.0 -1.09674072265625 0.474609375
10972656250.0 -0.56854248046875 1.08343505859375
11003878125.0 0.21685791015625 1.17388916015625
11035100000.0 0.84576416015625 0.82177734375
11066321875.0 1.22064208984375 0.17510986328125
11097543750.0 1.09808349609375 -0.67474365234375
11128765625.0 0.3857421875 -1.19805908203125
11159987500.0 -0.39483642578125 -1.1378173828125
11191209375.0 -0.998291015625 -0.702301025390625
11222431250.0 -1.27105712890625 0.09161376953125
11253653125.0 -0.859405517578125 0.89105224609375
11284875000.0 -0.1143798828125 1.126953125
11316096875.0 0.50872802734375 0.95526123046875
11347318750.0 1.0023193359375 0.5010986328125
11378540625.0 1.1163330078125 -0.2674560546875
11409762500.0 0.635162353515625 -0.858734130859375
11440984375.0 0.035736083984375 -0.978302001953125
11472206250.0 -0.4794921875 -0.84942626953125
11503428125.0 -0.951141357421875 -0.45697021484375
11534650000.0 -1.068115234375 0.28729248046875
11565871875.0 -0.60296630859375 0.85284423828125
11597093750.0 -0.019317626953125 0.9901123046875
11628315625.0 0.54339599609375 0.8746337890625
11659537500.0 1.0589599609375 0.39239501953125
11690759375.0 1.06439208984375 -0.4332275390625
11721981250.0 0.5172119140625 -0.940277099609375
11753203125.0 -0.1065673828125 -1.03631591796875
11784425000.0 -0.722198486328125 -0.808258056640625
11815646875.0 -1.1002197265625 -0.1512451171875
11846868750.0 -0.89105224609375 0.5489501953125
11878090625.0 -0.3919677734375 0.9071044921875
11909312500.0 0.18670654296875 0.98419189453125
11940534375.0 0.780731201171875 0.69561767578125
11971756250.0 1.02337646484375 0.04010009765625
12002978125.0 0.8055419921875 -0.536468505859375
12034200000.0 0.3814697265625 -0.888275146484375
12065421875.0 -0.2144775390625 -1.0098876953125
12096643750.0 -0.846221923828125 -0.66607666015625
12127865625.0 -1.034423828125 0.01593017578125
12159087500.0 -0.8148193359375 0.576568603515625
12190309375.0 -0.377960205078125 0.972747802734375
12221531250.0 0.3380126953125 1.08697509765625
12252753125.0 0.978546142578125 0.5823974609375
12283975000.0 1.0548095703125 -0.12872314453125
12315196875.0 0.79986572265625 -0.675262451171875
12346418750.0 0.28082275390625 -1.0888671875
12377640625.0 -0.5374755859375 -1.060546875
12408862500.0 -1.03424072265625 -0.4200439453125
12440084375.0 -1.0081787109375 0.22491455078125
12471306250.0 -0.741790771484375 0.73675537109375
12502528125.0 -0.17938232421875 1.11895751953125
12533750000.0 0.618621826171875 0.9931640625
12564971875.0 1.041015625 0.36334228515625
12596193750.0 1.02886962890625 -0.263427734375
12627415625.0 0.748626708984375 -0.827392578125
12658637500.0 0.08154296875 -1.20587158203125
12689859375.0 -0.7333984375 -0.965606689453125
12721081250.0 -1.115234375 -0.3072509765625
12752303125.0 -1.0970458984375 0.3814697265625
12783525000.0 -0.6876220703125 1.0257568359375
12814746875.0 0.16326904296875 1.25042724609375
12845968750.0 0.862945556640625 0.8114013671875
12877190625.0 1.1181640625 0.1715087890625
12908412500.0 1.0537109375 -0.4993896484375
12939634375.0 0.54461669921875 -1.1160888671875
12970856250.0 -0.31927490234375 -1.1737060546875
13002078125.0 -0.89501953125 -0.693359375
13033300000.0 -1.10528564453125 -0.08746337890625
13064521875.0 -1.00811767578125 0.5916748046875
13095743750.0 -0.42083740234375 1.15386962890625
13126965625.0 0.4066162109375 1.11993408203125
13158187500.0 0.94549560546875 0.63262939453125
13189409375.0 1.14715576171875 -0.02099609375
13220631250.0 0.93646240234375 -0.7464599609375
13251853125.0 0.23626708984375 -1.169677734375
13283075000.0 -0.50665283203125 -1.01904296875
13314296875.0 -0.986663818359375 -0.528778076171875
13345518750.0 -1.13433837890625 0.17474365234375
