!Created with skrf (http://scikit-rf.org).
# Hz S RI R 50.0 
!freq ReS11 ImS11
45000000.0 -0.07693099975585938 -0.09684371948242188
76221875.0 -0.19622802734375 -0.04766082763671875
107443750.0 -0.2546844482421875 0.11944580078125
138665625.0 -0.148284912109375 0.3283538818359375
169887500.0 0.1233062744140625 0.417236328125
201109375.0 0.421417236328125 0.28076171875
232331250.0 0.57855224609375 -0.05731201171875
263553125.0 0.4893951416015625 -0.4521026611328125
294775000.0 0.0987548828125 -0.7318115234375
325996875.0 -0.414459228515625 -0.68011474609375
357218750.0 -0.80517578125 -0.2972412109375
388440625.0 -0.88482666015625 0.299713134765625
419662500.0 -0.517120361328125 0.865142822265625
450884375.0 0.1722412109375 1.0279541015625
482106250.0 0.7972412109375 0.712310791015625
513328125.0 1.1182861328125 0.08770751953125
544550000.0 1.00311279296875 -0.67864990234375
575771875.0 0.33660888671875 -1.23675537109375
606993750.0 -0.55279541015625 -1.17626953125
638215625.0 -1.16436767578125 -0.59039306640625
669437500.0 -1.33856201171875 0.2330322265625
700659375.0 -0.9703369140625 1.09478759765625
731881250.0 -0.00433349609375 1.54193115234375
763103125.0 1.0042724609375 1.15533447265625
794325000.0 1.46697998046875 0.28179931640625
825546875.0 1.3662109375 -0.65020751953125
856768750.0 0.79449462890625 -1.39849853515625
887990625.0 -0.29119873046875 -1.64605712890625
919212500.0 -1.28570556640625 -1.07794189453125
950434375.0 -1.6461181640625 -0.05999755859375
981656250.0 -1.38134765625 0.94329833984375
1012878125.0 -0.53009033203125 1.66864013671875
1044100000.0 0.6949462890625 1.659912109375
1075321875.0 1.57159423828125 0.81219482421875
1106543750.0 1.7025146484375 -0.3114013671875
1137765625.0 1.18585205078125 -1.28179931640625
1168987500.0 0.1387939453125 -1.7938232421875
1200209375.0 -1.05908203125 -1.481689453125
1231431250.0 -1.724365234375 -0.45318603515625
1262653125.0 -1.59210205078125 0.6827392578125
1293875000.0 -0.85137939453125 1.489013671875
1325096875.0 0.2271728515625 1.70440673828125
1356318750.0 1.23297119140625 1.21539306640625
1387540625.0 1.73651123046875 0.1898193359375
1418762500.0 1.4676513671875 -0.94952392578125
1449984375.0 0.52923583984375 -1.62310791015625
1481206250.0 -0.54833984375 -1.55377197265625
1512428125.0 -1.33935546875 -0.91900634765625
1543650000.0 -1.6533203125 0.0643310546875
1574871875.0 -1.2718505859375 1.1063232421875
1606093750.0 -0.27325439453125 1.62872314453125
1637315625.0 0.74029541015625 1.39892578125
1668537500.0 1.39361572265625 0.6956787109375
1699759375.0 1.5709228515625 -0.27593994140625
1730981250.0 1.0633544921875 -1.2266845703125
1762203125.0 0.0428466796875 -1.5682373046875
1793425000.0 -0.8538818359375 -1.2249755859375
1824646875.0 -1.39117431640625 -0.51483154296875
1855868750.0 -1.47216796875 0.43115234375
1887090625.0 -0.87384033203125 1.28289794921875
1918312500.0 0.11602783203125 1.4847412109375
1949534375.0 0.91937255859375 1.087890625
1980756250.0 1.37261962890625 0.3702392578125
2011978125.0 1.35760498046875 -0.5301513671875
2043200000.0 0.74932861328125 -1.25909423828125
2074421875.0 -0.1558837890625 -1.4315185546875
2105643750.0 -0.95843505859375 -1.0714111328125
2136865625.0 -1.44488525390625 -0.30474853515625
2168087500.0 -1.35540771484375 0.66949462890625
2199309375.0 -0.638916015625 1.3489990234375
2230531250.0 0.28033447265625 1.4337158203125
2261753125.0 1.07049560546875 1.01275634765625
2292975000.0 1.5120849609375 0.17083740234375
2324196875.0 1.30401611328125 -0.8175048828125
2355418750.0 0.52520751953125 -1.41741943359375
2386640625.0 -0.4031982421875 -1.4466552734375
2417862500.0 -1.1787109375 -1.0233154296875
2449084375.0 -1.60125732421875 -0.08538818359375
2480306250.0 -1.30950927734375 0.92181396484375
2511528125.0 -0.493896484375 1.50439453125
2542750000.0 0.485595703125 1.53289794921875
2573971875.0 1.36688232421875 0.9671630859375
2605193750.0 1.71405029296875 -0.1112060546875
2636415625.0 1.26019287109375 -1.14971923828125
2667637500.0 0.3070068359375 -1.66363525390625
2698859375.0 -0.7669677734375 -1.53179931640625
2730081250.0 -1.570068359375 -0.73980712890625
2761303125.0 -1.67779541015625 0.38616943359375
2792525000.0 -1.097900390625 1.30474853515625
2823746875.0 -0.1026611328125 1.7259521484375
2854968750.0 1.00927734375 1.4532470703125
2886190625.0 1.688232421875 0.49163818359375
2917412500.0 1.59661865234375 -0.61505126953125
2948634375.0 0.9383544921875 -1.42877197265625
2979856250.0 -0.1063232421875 -1.77203369140625
3011078125.0 -1.24468994140625 -1.3404541015625
3042300000.0 -1.77105712890625 -0.23553466796875
3073521875.0 -1.50604248046875 0.83575439453125
3104743750.0 -0.76239013671875 1.56536865234375
3135965625.0 0.36004638671875 1.804443359375
3167187500.0 1.49462890625 1.1629638671875
3198409375.0 1.81158447265625 -0.0738525390625
3229631250.0 1.3466796875 -1.0770263671875
3260853125.0 0.48980712890625 -1.6646728515625
3292075000.0 -0.65264892578125 -1.6944580078125
3323296875.0 -1.61541748046875 -0.878662109375
3354518750.0 -1.7264404296875 0.32708740234375
3385740625.0 -1.1544189453125 1.2288818359375
3416962500.0 -0.23193359375 1.67889404296875
3448184375.0 0.8565673828125 1.51910400390625
3479406250.0 1.6317138671875 0.64373779296875
3510628125.0 1.64117431640625 -0.49273681640625
3541850000.0 0.99896240234375 -1.35186767578125
3573071875.0 -0.007080078125 -1.67938232421875
3604293750.0 -1.02508544921875 -1.3353271484375
3635515625.0 -1.6251220703125 -0.43804931640625
3666737500.0 -1.55859375 0.64453125
3697959375.0 -0.82427978515625 1.4722900390625
3729181250.0 0.26593017578125 1.6265869140625
3760403125.0 1.15045166015625 1.09710693359375
3791625000.0 1.54925537109375 0.218505859375
3822846875.0 1.39886474609375 -0.75799560546875
3854068750.0 0.62042236328125 -1.47711181640625
3885290625.0 -0.4188232421875 -1.47760009765625
3916512500.0 -1.13775634765625 -0.91015625
3947734375.0 -1.44464111328125 -0.120361328125
3978956250.0 -1.29541015625 0.7772216796875
4010178125.0 -0.53094482421875 1.45166015625
4041400000.0 0.47137451171875 1.412841796875
4072621875.0 1.1494140625 0.84722900390625
4103843750.0 1.4417724609375 0.06396484375
4135065625.0 1.265380859375 -0.84271240234375
4166287500.0 0.45806884765625 -1.492431640625
4197509375.0 -0.55523681640625 -1.41302490234375
4228731250.0 -1.2452392578125 -0.8023681640625
4259953125.0 -1.50592041015625 0.06878662109375
4291175000.0 -1.18701171875 1.00750732421875
4322396875.0 -0.289794921875 1.52325439453125
4353618750.0 0.6708984375 1.34765625
4384840625.0 1.31866455078125 0.69708251953125
4416062500.0 1.498046875 -0.225341796875
4447284375.0 1.05413818359375 -1.1015625
4478506250.0 0.17340087890625 -1.49310302734375
4509728125.0 -0.7293701171875 -1.30584716796875
4540950000.0 -1.39068603515625 -0.6356201171875
4572171875.0 -1.520263671875 0.3583984375
4603393750.0 -0.97174072265625 1.21026611328125
4634615625.0 -0.0616455078125 1.53509521484375
4665837500.0 0.8671875 1.30303955078125
4697059375.0 1.5384521484375 0.51556396484375
4728281250.0 1.5262451171875 -0.5802001953125
4759503125.0 0.82305908203125 -1.36468505859375
4790725000.0 -0.1446533203125 -1.5704345703125
4821946875.0 -1.0810546875 -1.19219970703125
4853168750.0 -1.61083984375 -0.25152587890625
4884390625.0 -1.37652587890625 0.7919921875
4915612500.0 -0.61358642578125 1.41021728515625
4946834375.0 0.32745361328125 1.507080078125
4978056250.0 1.20220947265625 1.0162353515625
5009278125.0 1.559326171875 0.04058837890625
5040500000.0 1.2275390625 -0.8741455078125
5071721875.0 0.50115966796875 -1.412109375
5102943750.0 -0.44549560546875 -1.49493408203125
5134165625.0 -1.3321533203125 -0.90484619140625
5165387500.0 -1.565185546875 0.14508056640625
5196609375.0 -1.13525390625 1.007568359375
5227831250.0 -0.3582763671875 1.5025634765625
5259053125.0 0.6868896484375 1.48980712890625
5290275000.0 1.51788330078125 0.66314697265625
5321496875.0 1.489990234375 -0.4287109375
5352718750.0 0.91998291015625 -1.1502685546875
5383940625.0 0.0968017578125 -1.498291015625
5415162500.0 -0.89862060546875 -1.2823486328125
5446384375.0 -1.48065185546875 -0.3712158203125
5477606250.0 -1.2972412109375 0.56390380859375
5508828125.0 -0.730712890625 1.1492919921875
5540050000.0 0.05322265625 1.3970947265625
5571271875.0 0.93646240234375 1.1077880859375
5602493750.0 1.40631103515625 0.26043701171875
5633715625.0 1.23046875 -0.61114501953125
5664937500.0 0.64764404296875 -1.19970703125
5696159375.0 -0.19573974609375 -1.38140869140625
5727381250.0 -1.01934814453125 -0.97735595703125
5758603125.0 -1.38946533203125 -0.14593505859375
5789825000.0 -1.192626953125 0.7156982421875
5821046875.0 -0.5064697265625 1.30584716796875
5852268750.0 0.40966796875 1.31085205078125
5883490625.0 1.06805419921875 0.7720947265625
5914712500.0 1.30133056640625 0.01971435546875
5945934375.0 1.09539794921875 -0.77349853515625
5977156250.0 0.36126708984375 -1.3109130859375
6008378125.0 -0.50787353515625 -1.18096923828125
6039600000.0 -1.020751953125 -0.6485595703125
6070821875.0 -1.2227783203125 -0.0052490234375
6102043750.0 -1.08245849609375 0.760986328125
6133265625.0 -0.34326171875 1.34149169921875
6164487500.0 0.56207275390625 1.185791015625
6195709375.0 1.068603515625 0.6295166015625
6226931250.0 1.278076171875 -0.04193115234375
6258153125.0 1.103515625 -0.87005615234375
6289375000.0 0.25726318359375 -1.4439697265625
6320596875.0 -0.68707275390625 -1.20501708984375
6351818750.0 -1.19854736328125 -0.57135009765625
6383040625.0 -1.3525390625 0.2059326171875
6414262500.0 -0.9990234375 1.05499267578125
6445484375.0 -0.0792236328125 1.4541015625
6476706250.0 0.7935791015625 1.1473388671875
6507928125.0 1.2884521484375 0.4698486328125
6539150000.0 1.345703125 -0.3848876953125
6570371875.0 0.8406982421875 -1.1424560546875
6601593750.0 -0.0162353515625 -1.4029541015625
6632815625.0 -0.83819580078125 -1.1356201171875
6664037500.0 -1.3995361328125 -0.42059326171875
6695259375.0 -1.3720703125 0.5645751953125
6726481250.0 -0.71002197265625 1.2493896484375
6757703125.0 0.12994384765625 1.406005859375
6788925000.0 0.95196533203125 1.1298828125
6820146875.0 1.55706787109375 0.28814697265625
6851368750.0 1.32464599609375 -0.81878662109375
6882590625.0 0.506591796875 -1.33642578125
6913812500.0 -0.291015625 -1.3546142578125
6945034375.0 -1.067626953125 -1.02044677734375
6976256250.0 -1.58941650390625 -0.094482421875
7007478125.0 -1.2353515625 0.9306640625
7038700000.0 -0.40228271484375 1.34136962890625
7069921875.0 0.358154296875 1.322509765625
7101143750.0 1.1163330078125 0.9676513671875
7132365625.0 1.595947265625 0.01629638671875
7163587500.0 1.15625 -1.01904296875
7194809375.0 0.3035888671875 -1.3944091796875
7226031250.0 -0.510009765625 -1.32354736328125
7257253125.0 -1.2655029296875 -0.82366943359375
7288475000.0 -1.55609130859375 0.197265625
7319696875.0 -1.03009033203125 1.108154296875
7350918750.0 -0.16448974609375 1.441650390625
7382140625.0 0.71429443359375 1.275634765625
7413362500.0 1.373046875 0.57635498046875
7444584375.0 1.408447265625 -0.4051513671875
7475806250.0 0.8568115234375 -1.14117431640625
7507028125.0 0.00701904296875 -1.4273681640625
7538250000.0 -0.88568115234375 -1.12286376953125
7569471875.0 -1.332275390625 -0.31109619140625
7600693750.0 -1.20098876953125 0.49420166015625
7631915625.0 -0.71734619140625 1.083740234375
7663137500.0 0.0777587890625 1.35528564453125
7694359375.0 0.93792724609375 0.98040771484375
7725581250.0 1.24041748046875 0.1812744140625
7756803125.0 1.081787109375 -0.4979248046875
7788025000.0 0.6697998046875 -1.040771484375
7819246875.0 -0.11865234375 -1.34478759765625
7850468750.0 -0.991119384765625 -0.915557861328125
7881690625.0 -1.22882080078125 -0.10748291015625
7912912500.0 -1.05389404296875 0.55401611328125
7944134375.0 -0.60546875 1.111328125
7975356250.0 0.27056884765625 1.333740234375
8006578125.0 1.0435791015625 0.77935791015625
8037800000.0 1.19085693359375 0.01739501953125
8069021875.0 1.00634765625 -0.616943359375
8100243750.0 0.498779296875 -1.1602783203125
8131465625.0 -0.38433837890625 -1.2528076171875
8162687500.0 -1.03131103515625 -0.68658447265625
8193909375.0 -1.17877197265625 0.00750732421875
8225131250.0 -1.01678466796875 0.6763916015625
8256353125.0 -0.42205810546875 1.24774169921875
8287575000.0 0.49859619140625 1.225341796875
8318796875.0 1.080810546875 0.6357421875
8350018750.0 1.24371337890625 -0.07427978515625
8381240625.0 1.03082275390625 -0.83648681640625
8412462500.0 0.25543212890625 -1.37176513671875
8443684375.0 -0.66766357421875 -1.16900634765625
8474906250.0 -1.173095703125 -0.53253173828125
8506128125.0 -1.29644775390625 0.23583984375
8537350000.0 -0.9234619140625 1.04315185546875
8568571875.0 -0.01513671875 1.39447021484375
8599793750.0 0.800048828125 1.05224609375
8631015625.0 1.23895263671875 0.39910888671875
8662237500.0 1.28533935546875 -0.429443359375
8693459375.0 0.73565673828125 -1.17437744140625
8724681250.0 -0.161865234375 -1.32867431640625
8755903125.0 -0.876983642578125 -0.95660400390625
8787125000.0 -1.3018798828125 -0.281982421875
8818346875.0 -1.2506103515625 0.61376953125
8849568750.0 -0.5565185546875 1.26025390625
8880790625.0 0.29815673828125 1.28448486328125
8912012500.0 0.978759765625 0.89276123046875
8943234375.0 1.39788818359375 0.129150390625
8974456250.0 1.16668701171875 -0.83929443359375
9005678125.0 0.34893798828125 -1.31060791015625
9036900000.0 -0.44378662109375 -1.22320556640625
9068121875.0 -1.10015869140625 -0.78594970703125
9099343750.0 -1.43896484375 0.09716796875
9130565625.0 -0.97930908203125 1.01055908203125
9161787500.0 -0.15594482421875 1.2813720703125
9193009375.0 0.55340576171875 1.13336181640625
9224231250.0 1.17816162109375 0.65496826171875
9255453125.0 1.39752197265625 -0.294189453125
9286675000.0 0.80657958984375 -1.0819091796875
9317896875.0 0.0279541015625 -1.24481201171875
9349118750.0 -0.6524658203125 -1.06927490234375
9380340625.0 -1.25469970703125 -0.5108642578125
9411562500.0 -1.30908203125 0.474609375
9442784375.0 -0.6480712890625 1.1143798828125
9474006250.0 0.0877685546875 1.2093505859375
9505228125.0 0.763458251953125 0.97930908203125
9536450000.0 1.27166748046875 0.31341552734375
9567671875.0 1.1439208984375 -0.5784912109375
9598893750.0 0.53009033203125 -1.06573486328125
9630115625.0 -0.14251708984375 -1.15618896484375
9661337500.0 -0.815704345703125 -0.901519775390625
9692559375.0 -1.2354736328125 -0.1923828125
9723781250.0 -1.04229736328125 0.60150146484375
9755003125.0 -0.4849853515625 1.04986572265625
9786225000.0 0.19677734375 1.1578369140625
9817446875.0 0.894287109375 0.82763671875
9848668750.0 1.19805908203125 0.07855224609375
9879890625.0 0.968353271484375 -0.617095947265625
9911112500.0 0.4521484375 -1.05126953125
9942334375.0 -0.264892578125 -1.15740966796875
9973556250.0 -0.941864013671875 -0.73834228515625
10004778125.0 -1.1444091796875 -0.01812744140625
10036000000.0 -0.943634033203125 0.6129150390625
10067221875.0 -0.4423828125 1.095947265625
10098443750.0 0.3685302734375 1.1796875
10129665625.0 1.001708984375 0.64337158203125
10160887500.0 1.1187744140625 -0.05194091796875
10192109375.0 0.91778564453125 -0.66290283203125
10223331250.0 0.362060546875 -1.1514892578125
10254553125.0 -0.4853515625 -1.1136474609375
10285775000.0 -0.983245849609375 -0.5357666015625
10316996875.0 -1.06756591796875 0.0770263671875
10348218750.0 -0.899810791015625 0.66900634765625
10379440625.0 -0.322509765625 1.1737060546875
10410662500.0 0.52618408203125 1.0850830078125
10441884375.0 0.98974609375 0.521942138671875
10473106250.0 1.10772705078125 -0.08270263671875
10504328125.0 0.9482421875 -0.7548828125
10535550000.0 0.240478515625 -1.292724609375
10566771875.0 -0.655517578125 -1.07696533203125
10597993750.0 -1.0794677734375 -0.46044921875
10629215625.0 -1.173583984375 0.20465087890625
10660437500.0 -0.887054443359375 0.949737548828125
10691659375.0 -0.0096435546875 1.334228515625
10722881250.0 0.78277587890625 0.952362060546875
10754103125.0 1.11761474609375 0.3248291015625
10785325000.0 1.1390380859375 -0.36572265625
10816546875.0 0.70086669921875 -1.0474853515625
10847768750.0 -0.14556884765625 -1.22930908203125
10878990625.0 -0.8013916015625 -0.8431396484375
10910212500.0 -1.120361328125 -0.2467041015625
10941434375.0 -1.0966796875 0.47607421875
10972656250.0 -0.56817626953125 1.083251953125
11003878125.0 0.215087890625 1.17236328125
11035100000.0 0.84686279296875 0.821502685546875
11066321875.0 1.21929931640625 0.17584228515625
11097543750.0 1.09783935546875 -0.673828125
11128765625.0 0.3857421875 -1.19708251953125
11159987500.0 -0.39422607421875 -1.13763427734375
11191209375.0 -0.99896240234375 -0.702178955078125
11222431250.0 -1.27044677734375 0.0919189453125
11253653125.0 -0.859130859375 0.895233154296875
11284875000.0 -0.1148681640625 1.1265869140625
11316096875.0 0.5106201171875 0.955810546875
11347318750.0 0.9998779296875 0.50244140625
11378540625.0 1.11517333984375 -0.2672119140625
11409762500.0 0.63409423828125 -0.8587646484375
11440984375.0 0.0380859375 -0.9759521484375
11472206250.0 -0.47955322265625 -0.849884033203125
11503428125.0 -0.95086669921875 -0.45709228515625
11534650000.0 -1.06854248046875 0.2872314453125
11565871875.0 -0.6025390625 0.852874755859375
11597093750.0 -0.019134521484375 0.990478515625
11628315625.0 0.54254150390625 0.874237060546875
11659537500.0 1.0595703125 0.39227294921875
11690759375.0 1.06475830078125 -0.4337158203125
11721981250.0 0.51690673828125 -0.939971923828125
11753203125.0 -0.10565185546875 -1.0361328125
11784425000.0 -0.723876953125 -0.808197021484375
11815646875.0 -1.09869384765625 -0.15203857421875
11846868750.0 -0.889617919921875 0.5496826171875
11878090625.0 -0.391265869140625 0.90765380859375
11909312500.0 0.187103271484375 0.983856201171875
11940534375.0 0.77850341796875 0.694549560546875
11971756250.0 1.022216796875 0.04095458984375
12002978125.0 0.806060791015625 -0.537841796875
12034200000.0 0.38299560546875 -0.8890380859375
12065421875.0 -0.2147216796875 -1.009765625
12096643750.0 -0.846343994140625 -0.665252685546875
12127865625.0 -1.03302001953125 0.01690673828125
12159087500.0 -0.814666748046875 0.57476806640625
12190309375.0 -0.377197265625 0.97576904296875
12221531250.0 0.3392333984375 1.08770751953125
12252753125.0 0.978973388671875 0.581573486328125
12283975000.0 1.0533447265625 -0.12713623046875
12315196875.0 0.800201416015625 -0.676177978515625
12346418750.0 0.281494140625 -1.091064453125
12377640625.0 -0.5367431640625 -1.060791015625
12408862500.0 -1.03289794921875 -0.41961669921875
12440084375.0 -1.0074462890625 0.224365234375
12471306250.0 -0.741485595703125 0.73583984375
12502528125.0 -0.17987060546875 1.11932373046875
12533750000.0 0.61859130859375 0.993011474609375
12564971875.0 1.0400390625 0.3643798828125
12596193750.0 1.0291748046875 -0.26373291015625
12627415625.0 0.7476806640625 -0.827606201171875
12658637500.0 0.07977294921875 -1.206787109375
12689859375.0 -0.73675537109375 -0.966094970703125
12721081250.0 -1.1168212890625 -0.30596923828125
12752303125.0 -1.09716796875 0.38238525390625
12783525000.0 -0.68621826171875 1.02850341796875
12814746875.0 0.16314697265625 1.24951171875
12845968750.0 0.860565185546875 0.811279296875
12877190625.0 1.11578369140625 0.17303466796875
12908412500.0 1.0556640625 -0.50225830078125
12939634375.0 0.54290771484375 -1.11676025390625
12970856250.0 -0.31903076171875 -1.17401123046875
13002078125.0 -0.8922119140625 -0.693572998046875
13033300000.0 -1.103271484375 -0.087890625
13064521875.0 -1.00830078125 0.593017578125
13095743750.0 -0.4217529296875 1.15289306640625
13126965625.0 0.4083251953125 1.120361328125
13158187500.0 0.94549560546875 0.6317138671875
13189409375.0 1.14605712890625 -0.01947021484375
13220631250.0 0.9364013671875 -0.74664306640625
13251853125.0 0.23565673828125 -1.1705322265625
13283075000.0 -0.50689697265625 -1.01898193359375
13314296875.0 -0.986541748046875 -0.5291748046875
13345518750.0 -1.13433837890625 0.17596435546875
13376740625.0 -0.752593994140625 0.85693359375
