!Created with skrf (http://scikit-rf.org).
# Hz S RI R 50.0 
!freq ReS11 ImS11
45000000.0 -0.0768280029296875 -0.09680557250976562
76221875.0 -0.19612884521484375 -0.04744720458984375
107443750.0 -0.2547149658203125 0.119384765625
138665625.0 -0.1482696533203125 0.3282928466796875
169887500.0 0.1233673095703125 0.4171295166015625
201109375.0 0.42144775390625 0.280792236328125
232331250.0 0.5784912109375 -0.057342529296875
263553125.0 0.4893951416015625 -0.4520721435546875
294775000.0 0.098785400390625 -0.73175048828125
325996875.0 -0.414703369140625 -0.68011474609375
357218750.0 -0.805419921875 -0.2969970703125
388440625.0 -0.884857177734375 0.2999267578125
419662500.0 -0.516845703125 0.865325927734375
450884375.0 0.172607421875 1.02783203125
482106250.0 0.797393798828125 0.71221923828125
513328125.0 1.11810302734375 0.0877685546875
544550000.0 1.003173828125 -0.67877197265625
575771875.0 0.33673095703125 -1.23675537109375
606993750.0 -0.55267333984375 -1.17645263671875
638215625.0 -1.1646728515625 -0.5902099609375
669437500.0 -1.3387451171875 0.23291015625
700659375.0 -0.97064208984375 1.0947265625
731881250.0 -0.00408935546875 1.54168701171875
763103125.0 1.00421142578125 1.15484619140625
794325000.0 1.4671630859375 0.28179931640625
825546875.0 1.365966796875 -0.65020751953125
856768750.0 0.79437255859375 -1.3984375
887990625.0 -0.29156494140625 -1.64666748046875
919212500.0 -1.28607177734375 -1.077880859375
950434375.0 -1.64605712890625 -0.0596923828125
981656250.0 -1.38092041015625 0.94354248046875
1012878125.0 -0.53009033203125 1.6690673828125
1044100000.0 0.695068359375 1.659912109375
1075321875.0 1.57196044921875 0.81170654296875
1106543750.0 1.7025146484375 -0.3114013671875
1137765625.0 1.18572998046875 -1.28167724609375
1168987500.0 0.138916015625 -1.7943115234375
1200209375.0 -1.0599365234375 -1.48187255859375
1231431250.0 -1.72412109375 -0.45379638671875
1262653125.0 -1.59234619140625 0.68243408203125
1293875000.0 -0.85162353515625 1.489013671875
1325096875.0 0.22705078125 1.70428466796875
1356318750.0 1.2325439453125 1.21539306640625
1387540625.0 1.73724365234375 0.18951416015625
1418762500.0 1.46728515625 -0.94952392578125
1449984375.0 0.52886962890625 -1.62396240234375
1481206250.0 -0.54815673828125 -1.55389404296875
1512428125.0 -1.3394775390625 -0.91888427734375
1543650000.0 -1.6531982421875 0.064208984375
1574871875.0 -1.27215576171875 1.1068115234375
1606093750.0 -0.27325439453125 1.62890625
1637315625.0 0.7406005859375 1.399169921875
1668537500.0 1.39361572265625 0.69580078125
1699759375.0 1.5712890625 -0.2760009765625
1730981250.0 1.063232421875 -1.22711181640625
1762203125.0 0.04266357421875 -1.568359375
1793425000.0 -0.8538818359375 -1.22503662109375
1824646875.0 -1.3914794921875 -0.51513671875
1855868750.0 -1.47235107421875 0.43121337890625
1887090625.0 -0.8740234375 1.2828369140625
1918312500.0 0.11669921875 1.48468017578125
1949534375.0 0.9197998046875 1.08770751953125
1980756250.0 1.3726806640625 0.3699951171875
2011978125.0 1.35791015625 -0.5301513671875
2043200000.0 0.74945068359375 -1.25897216796875
2074421875.0 -0.15594482421875 -1.43096923828125
2105643750.0 -0.95880126953125 -1.07171630859375
2136865625.0 -1.445068359375 -0.30548095703125
2168087500.0 -1.35546875 0.6697998046875
2199309375.0 -0.63873291015625 1.3492431640625
2230531250.0 0.28070068359375 1.43426513671875
2261753125.0 1.07080078125 1.01287841796875
2292975000.0 1.51239013671875 0.17059326171875
2324196875.0 1.30413818359375 -0.8170166015625
2355418750.0 0.52508544921875 -1.417724609375
2386640625.0 -0.4031982421875 -1.44677734375
2417862500.0 -1.17913818359375 -1.02337646484375
2449084375.0 -1.6009521484375 -0.0849609375
2480306250.0 -1.30950927734375 0.92266845703125
2511528125.0 -0.4937744140625 1.5047607421875
2542750000.0 0.4879150390625 1.5343017578125
2573971875.0 1.36676025390625 0.96722412109375
2605193750.0 1.71392822265625 -0.11083984375
2636415625.0 1.2596435546875 -1.1492919921875
2667637500.0 0.306396484375 -1.6641845703125
2698859375.0 -0.76690673828125 -1.53179931640625
2730081250.0 -1.570556640625 -0.740234375
2761303125.0 -1.67840576171875 0.385986328125
2792525000.0 -1.09796142578125 1.30413818359375
2823746875.0 -0.10369873046875 1.7254638671875
2854968750.0 1.0106201171875 1.45343017578125
2886190625.0 1.68768310546875 0.49163818359375
2917412500.0 1.597412109375 -0.615966796875
2948634375.0 0.9385986328125 -1.43011474609375
2979856250.0 -0.10693359375 -1.77313232421875
3011078125.0 -1.24493408203125 -1.3408203125
3042300000.0 -1.771484375 -0.23529052734375
3073521875.0 -1.5067138671875 0.83551025390625
3104743750.0 -0.76275634765625 1.564697265625
3135965625.0 0.35931396484375 1.80572509765625
3167187500.0 1.495361328125 1.16302490234375
3198409375.0 1.81207275390625 -0.0736083984375
3229631250.0 1.34686279296875 -1.0775146484375
3260853125.0 0.48919677734375 -1.6646728515625
3292075000.0 -0.65191650390625 -1.6943359375
3323296875.0 -1.61541748046875 -0.8787841796875
3354518750.0 -1.72698974609375 0.32611083984375
3385740625.0 -1.1546630859375 1.2291259765625
3416962500.0 -0.23193359375 1.677978515625
3448184375.0 0.8572998046875 1.51947021484375
3479406250.0 1.63330078125 0.6435546875
3510628125.0 1.640869140625 -0.49407958984375
3541850000.0 0.99920654296875 -1.3515625
3573071875.0 -0.00775146484375 -1.67926025390625
3604293750.0 -1.02569580078125 -1.335205078125
3635515625.0 -1.6240234375 -0.43853759765625
3666737500.0 -1.55902099609375 0.64404296875
3697959375.0 -0.82421875 1.4722900390625
3729181250.0 0.268310546875 1.62933349609375
3760403125.0 1.14984130859375 1.0966796875
3791625000.0 1.548828125 0.21942138671875
3822846875.0 1.399658203125 -0.75897216796875
3854068750.0 0.6202392578125 -1.477783203125
3885290625.0 -0.41961669921875 -1.4786376953125
3916512500.0 -1.138916015625 -0.9102783203125
3947734375.0 -1.44482421875 -0.1202392578125
3978956250.0 -1.2952880859375 0.77642822265625
4010178125.0 -0.53125 1.4508056640625
4041400000.0 0.47125244140625 1.41314697265625
4072621875.0 1.14923095703125 0.84637451171875
4103843750.0 1.4417724609375 0.0635986328125
4135065625.0 1.2657470703125 -0.84344482421875
4166287500.0 0.45733642578125 -1.4937744140625
4197509375.0 -0.55584716796875 -1.4132080078125
4228731250.0 -1.24578857421875 -0.80230712890625
4259953125.0 -1.50640869140625 0.06982421875
4291175000.0 -1.18670654296875 1.00762939453125
4322396875.0 -0.2899169921875 1.5235595703125
4353618750.0 0.67083740234375 1.34759521484375
4384840625.0 1.31939697265625 0.697021484375
4416062500.0 1.49908447265625 -0.2269287109375
4447284375.0 1.0538330078125 -1.1015625
4478506250.0 0.17376708984375 -1.49163818359375
4509728125.0 -0.73065185546875 -1.305908203125
4540950000.0 -1.389892578125 -0.6358642578125
4572171875.0 -1.52001953125 0.35833740234375
4603393750.0 -0.97137451171875 1.21014404296875
4634615625.0 -0.0621337890625 1.534912109375
4665837500.0 0.86749267578125 1.3026123046875
4697059375.0 1.53839111328125 0.51513671875
4728281250.0 1.52606201171875 -0.5799560546875
4759503125.0 0.8228759765625 -1.36468505859375
4790725000.0 -0.14495849609375 -1.57049560546875
4821946875.0 -1.08135986328125 -1.192626953125
4853168750.0 -1.60992431640625 -0.25164794921875
4884390625.0 -1.37640380859375 0.7904052734375
4915612500.0 -0.6134033203125 1.40966796875
4946834375.0 0.32659912109375 1.506103515625
4978056250.0 1.2032470703125 1.01629638671875
5009278125.0 1.55908203125 0.04022216796875
5040500000.0 1.2276611328125 -0.87432861328125
5071721875.0 0.50152587890625 -1.412109375
5102943750.0 -0.44512939453125 -1.49530029296875
5134165625.0 -1.333251953125 -0.90484619140625
5165387500.0 -1.5655517578125 0.14483642578125
5196609375.0 -1.134521484375 1.0081787109375
5227831250.0 -0.3570556640625 1.50408935546875
5259053125.0 0.684814453125 1.48992919921875
5290275000.0 1.51800537109375 0.66302490234375
5321496875.0 1.49053955078125 -0.4298095703125
5352718750.0 0.919677734375 -1.15142822265625
5383940625.0 0.09783935546875 -1.4969482421875
5415162500.0 -0.89862060546875 -1.2830810546875
5446384375.0 -1.48089599609375 -0.37060546875
5477606250.0 -1.29779052734375 0.564453125
5508828125.0 -0.73065185546875 1.14886474609375
5540050000.0 0.0535888671875 1.39739990234375
5571271875.0 0.936279296875 1.10791015625
5602493750.0 1.40618896484375 0.2603759765625
5633715625.0 1.2308349609375 -0.61102294921875
5664937500.0 0.64727783203125 -1.19970703125
5696159375.0 -0.19561767578125 -1.38153076171875
5727381250.0 -1.0198974609375 -0.97711181640625
5758603125.0 -1.3895263671875 -0.14532470703125
5789825000.0 -1.19305419921875 0.7156982421875
5821046875.0 -0.50640869140625 1.30523681640625
5852268750.0 0.41046142578125 1.31103515625
5883490625.0 1.06866455078125 0.7711181640625
5914712500.0 1.30126953125 0.019775390625
5945934375.0 1.09503173828125 -0.77490234375
5977156250.0 0.36151123046875 -1.3104248046875
6008378125.0 -0.50836181640625 -1.1806640625
6039600000.0 -1.01947021484375 -0.64892578125
6070821875.0 -1.222900390625 -0.00469970703125
6102043750.0 -1.08282470703125 0.76220703125
6133265625.0 -0.34259033203125 1.34344482421875
6164487500.0 0.56146240234375 1.18634033203125
6195709375.0 1.06964111328125 0.62994384765625
6226931250.0 1.27783203125 -0.04193115234375
6258153125.0 1.10333251953125 -0.870849609375
6289375000.0 0.2564697265625 -1.44403076171875
6320596875.0 -0.68646240234375 -1.204345703125
6351818750.0 -1.19830322265625 -0.57177734375
6383040625.0 -1.35260009765625 0.2061767578125
6414262500.0 -0.9989013671875 1.0562744140625
6445484375.0 -0.0789794921875 1.45556640625
6476706250.0 0.79351806640625 1.14666748046875
6507928125.0 1.2889404296875 0.46966552734375
6539150000.0 1.34539794921875 -0.38555908203125
6570371875.0 0.84063720703125 -1.14208984375
6601593750.0 -0.016845703125 -1.403564453125
6632815625.0 -0.83819580078125 -1.135498046875
6664037500.0 -1.399658203125 -0.42034912109375
6695259375.0 -1.37274169921875 0.5654296875
6726481250.0 -0.7100830078125 1.2501220703125
6757703125.0 0.13055419921875 1.4052734375
6788925000.0 0.95391845703125 1.1298828125
6820146875.0 1.55731201171875 0.2874755859375
6851368750.0 1.323974609375 -0.816650390625
6882590625.0 0.50604248046875 -1.33697509765625
6913812500.0 -0.29034423828125 -1.35406494140625
6945034375.0 -1.06866455078125 -1.02056884765625
6976256250.0 -1.5914306640625 -0.09332275390625
7007478125.0 -1.2349853515625 0.9283447265625
7038700000.0 -0.4019775390625 1.34136962890625
7069921875.0 0.3565673828125 1.3209228515625
7101143750.0 1.1171875 0.96759033203125
7132365625.0 1.59686279296875 0.01580810546875
7163587500.0 1.15570068359375 -1.01739501953125
7194809375.0 0.301513671875 -1.39630126953125
7226031250.0 -0.51031494140625 -1.32342529296875
7257253125.0 -1.26422119140625 -0.8236083984375
7288475000.0 -1.55706787109375 0.19720458984375
7319696875.0 -1.0303955078125 1.10858154296875
7350918750.0 -0.1644287109375 1.4434814453125
7382140625.0 0.71380615234375 1.2747802734375
7413362500.0 1.37249755859375 0.5765380859375
7444584375.0 1.40966796875 -0.4041748046875
7475806250.0 0.85699462890625 -1.1414794921875
7507028125.0 0.00738525390625 -1.42681884765625
7538250000.0 -0.88494873046875 -1.12298583984375
7569471875.0 -1.3319091796875 -0.312744140625
7600693750.0 -1.20037841796875 0.4954833984375
7631915625.0 -0.71734619140625 1.082763671875
7663137500.0 0.0806884765625 1.35797119140625
7694359375.0 0.936492919921875 0.97943115234375
7725581250.0 1.241943359375 0.18084716796875
7756803125.0 1.0806884765625 -0.4976806640625
7788025000.0 0.6700439453125 -1.0413818359375
7819246875.0 -0.119140625 -1.34619140625
7850468750.0 -0.99005126953125 -0.915130615234375
7881690625.0 -1.2291259765625 -0.10595703125
7912912500.0 -1.053955078125 0.55499267578125
7944134375.0 -0.60467529296875 1.11175537109375
7975356250.0 0.27008056640625 1.3333740234375
8006578125.0 1.04541015625 0.77874755859375
8037800000.0 1.19195556640625 0.0166015625
8069021875.0 1.0057373046875 -0.61578369140625
8100243750.0 0.49871826171875 -1.1622314453125
8131465625.0 -0.38763427734375 -1.2535400390625
8162687500.0 -1.03118896484375 -0.68609619140625
8193909375.0 -1.17913818359375 0.00775146484375
8225131250.0 -1.01763916015625 0.676513671875
8256353125.0 -0.42144775390625 1.24652099609375
8287575000.0 0.49957275390625 1.22479248046875
8318796875.0 1.0811767578125 0.6353759765625
8350018750.0 1.24346923828125 -0.07537841796875
8381240625.0 1.03070068359375 -0.83880615234375
8412462500.0 0.2554931640625 -1.370361328125
8443684375.0 -0.670166015625 -1.16961669921875
8474906250.0 -1.17254638671875 -0.53338623046875
8506128125.0 -1.296630859375 0.236572265625
8537350000.0 -0.92486572265625 1.0439453125
8568571875.0 -0.01580810546875 1.39306640625
8599793750.0 0.8021240234375 1.0526123046875
8631015625.0 1.2403564453125 0.39837646484375
8662237500.0 1.28509521484375 -0.427734375
8693459375.0 0.7353515625 -1.17486572265625
8724681250.0 -0.16107177734375 -1.329345703125
8755903125.0 -0.87884521484375 -0.957489013671875
8787125000.0 -1.30096435546875 -0.2833251953125
8818346875.0 -1.2506103515625 0.61578369140625
8849568750.0 -0.55718994140625 1.25897216796875
8880790625.0 0.2972412109375 1.2830810546875
8912012500.0 0.980743408203125 0.891937255859375
8943234375.0 1.39801025390625 0.129638671875
8974456250.0 1.166259765625 -0.837890625
9005678125.0 0.34747314453125 -1.31201171875
9036900000.0 -0.4456787109375 -1.2236328125
9068121875.0 -1.09912109375 -0.78558349609375
9099343750.0 -1.44134521484375 0.0985107421875
9130565625.0 -0.9788818359375 1.01068115234375
9161787500.0 -0.15380859375 1.28228759765625
9193009375.0 0.55218505859375 1.1326904296875
9224231250.0 1.175537109375 0.6558837890625
9255453125.0 1.3988037109375 -0.29486083984375
9286675000.0 0.80755615234375 -1.0836181640625
9317896875.0 0.02679443359375 -1.24609375
9349118750.0 -0.6533203125 -1.06903076171875
9380340625.0 -1.25616455078125 -0.5101318359375
9411562500.0 -1.3096923828125 0.4742431640625
9442784375.0 -0.64764404296875 1.11407470703125
9474006250.0 0.08837890625 1.21148681640625
9505228125.0 0.7626953125 0.979400634765625
9536450000.0 1.2733154296875 0.31329345703125
9567671875.0 1.14300537109375 -0.57916259765625
9598893750.0 0.52960205078125 -1.06695556640625
9630115625.0 -0.142822265625 -1.1566162109375
9661337500.0 -0.81689453125 -0.90203857421875
9692559375.0 -1.2376708984375 -0.190185546875
9723781250.0 -1.04351806640625 0.6024169921875
9755003125.0 -0.48583984375 1.04852294921875
9786225000.0 0.196044921875 1.15716552734375
9817446875.0 0.89306640625 0.82757568359375
9848668750.0 1.19537353515625 0.08001708984375
9879890625.0 0.968414306640625 -0.616363525390625
9911112500.0 0.45245361328125 -1.05078125
9942334375.0 -0.26641845703125 -1.15869140625
9973556250.0 -0.9417724609375 -0.737945556640625
10004778125.0 -1.143798828125 -0.0194091796875
10036000000.0 -0.944244384765625 0.61767578125
10067221875.0 -0.44219970703125 1.0960693359375
10098443750.0 0.36773681640625 1.1800537109375
10129665625.0 1.00213623046875 0.64306640625
10160887500.0 1.11920166015625 -0.05194091796875
10192109375.0 0.91693115234375 -0.662841796875
10223331250.0 0.36181640625 -1.15142822265625
10254553125.0 -0.4852294921875 -1.11260986328125
10285775000.0 -0.985198974609375 -0.534912109375
10316996875.0 -1.0665283203125 0.076171875
10348218750.0 -0.89923095703125 0.670928955078125
10379440625.0 -0.32257080078125 1.17352294921875
10410662500.0 0.5272216796875 1.08526611328125
10441884375.0 0.99090576171875 0.521820068359375
10473106250.0 1.1082763671875 -0.08203125
10504328125.0 0.94940185546875 -0.75531005859375
10535550000.0 0.23944091796875 -1.29461669921875
10566771875.0 -0.6585693359375 -1.07763671875
10597993750.0 -1.0792236328125 -0.45904541015625
10629215625.0 -1.17498779296875 0.204833984375
10660437500.0 -0.88714599609375 0.94940185546875
10691659375.0 -0.00970458984375 1.33477783203125
10722881250.0 0.783721923828125 0.951904296875
10754103125.0 1.11859130859375 0.32476806640625
10785325000.0 1.13873291015625 -0.3673095703125
10816546875.0 0.7010498046875 -1.04779052734375
10847768750.0 -0.14447021484375 -1.228515625
10878990625.0 -0.802581787109375 -0.8431396484375
10910212500.0 -1.12274169921875 -0.2451171875
10941434375.0 -1.097412109375 0.4775390625
10972656250.0 -0.56744384765625 1.08331298828125
11003878125.0 0.215576171875 1.172607421875
11035100000.0 0.848358154296875 0.82208251953125
11066321875.0 1.21966552734375 0.17486572265625
11097543750.0 1.09881591796875 -0.67645263671875
11128765625.0 0.38507080078125 -1.19921875
11159987500.0 -0.39508056640625 -1.13824462890625
11191209375.0 -1.000732421875 -0.7021484375
11222431250.0 -1.2708740234375 0.09234619140625
11253653125.0 -0.85845947265625 0.893707275390625
11284875000.0 -0.11529541015625 1.12530517578125
11316096875.0 0.51141357421875 0.95562744140625
11347318750.0 1.001708984375 0.50213623046875
11378540625.0 1.11651611328125 -0.26898193359375
11409762500.0 0.63421630859375 -0.86029052734375
11440984375.0 0.036529541015625 -0.977630615234375
11472206250.0 -0.480621337890625 -0.85015869140625
11503428125.0 -0.950408935546875 -0.45721435546875
11534650000.0 -1.06903076171875 0.28900146484375
11565871875.0 -0.601837158203125 0.85400390625
11597093750.0 -0.0186767578125 0.990264892578125
11628315625.0 0.543304443359375 0.874969482421875
11659537500.0 1.05859375 0.39300537109375
11690759375.0 1.0643310546875 -0.43243408203125
11721981250.0 0.51617431640625 -0.938812255859375
11753203125.0 -0.10491943359375 -1.03546142578125
11784425000.0 -0.72283935546875 -0.808349609375
11815646875.0 -1.09942626953125 -0.1519775390625
11846868750.0 -0.891265869140625 0.55072021484375
11878090625.0 -0.3912353515625 0.9075927734375
11909312500.0 0.186248779296875 0.983184814453125
11940534375.0 0.77935791015625 0.694976806640625
11971756250.0 1.024658203125 0.0396728515625
12002978125.0 0.806610107421875 -0.536468505859375
12034200000.0 0.382293701171875 -0.88763427734375
12065421875.0 -0.2149658203125 -1.0096435546875
12096643750.0 -0.848480224609375 -0.665283203125
12127865625.0 -1.03228759765625 0.01568603515625
12159087500.0 -0.815032958984375 0.57440185546875
12190309375.0 -0.37750244140625 0.975341796875
12221531250.0 0.337890625 1.08612060546875
12252753125.0 0.978118896484375 0.581787109375
12283975000.0 1.05364990234375 -0.12786865234375
12315196875.0 0.8001708984375 -0.674835205078125
12346418750.0 0.28125 -1.09039306640625
12377640625.0 -0.53680419921875 -1.05975341796875
12408862500.0 -1.03363037109375 -0.41900634765625
12440084375.0 -1.00787353515625 0.2239990234375
12471306250.0 -0.74139404296875 0.735198974609375
12502528125.0 -0.1795654296875 1.11920166015625
12533750000.0 0.619049072265625 0.992889404296875
12564971875.0 1.04095458984375 0.36431884765625
12596193750.0 1.02972412109375 -0.2642822265625
12627415625.0 0.74774169921875 -0.826446533203125
12658637500.0 0.07965087890625 -1.20489501953125
12689859375.0 -0.733123779296875 -0.9658203125
12721081250.0 -1.11578369140625 -0.3062744140625
12752303125.0 -1.09722900390625 0.38287353515625
12783525000.0 -0.6866455078125 1.02813720703125
12814746875.0 0.16375732421875 1.2501220703125
12845968750.0 0.862640380859375 0.810089111328125
12877190625.0 1.11541748046875 0.1727294921875
12908412500.0 1.055908203125 -0.50115966796875
12939634375.0 0.54241943359375 -1.11529541015625
12970856250.0 -0.31976318359375 -1.17498779296875
13002078125.0 -0.892333984375 -0.6932373046875
13033300000.0 -1.10528564453125 -0.08746337890625
13064521875.0 -1.00823974609375 0.5924072265625
13095743750.0 -0.42034912109375 1.15386962890625
13126965625.0 0.40997314453125 1.12054443359375
13158187500.0 0.94622802734375 0.63140869140625
13189409375.0 1.14727783203125 -0.021240234375
13220631250.0 0.93505859375 -0.746673583984375
13251853125.0 0.23333740234375 -1.1710205078125
13283075000.0 -0.50518798828125 -1.01806640625
13314296875.0 -0.987335205078125 -0.5291748046875
13345518750.0 -1.13421630859375 0.17718505859375
