!Created with skrf (http://scikit-rf.org).
# Hz S RI R 50.0 
!freq ReS11 ImS11
45000000.0 -0.07671737670898438 -0.09705734252929688
76221875.0 -0.1967926025390625 -0.04805755615234375
107443750.0 -0.255889892578125 0.1194915771484375
138665625.0 -0.149169921875 0.32904052734375
169887500.0 0.122650146484375 0.4188079833984375
201109375.0 0.42205810546875 0.2827301025390625
232331250.0 0.580352783203125 -0.056060791015625
263553125.0 0.4917755126953125 -0.452606201171875
294775000.0 0.100616455078125 -0.73419189453125
325996875.0 -0.414642333984375 -0.683624267578125
357218750.0 -0.80792236328125 -0.300079345703125
388440625.0 -0.888763427734375 0.2994384765625
419662500.0 -0.520721435546875 0.866943359375
450884375.0 0.17071533203125 1.03204345703125
482106250.0 0.798614501953125 0.716552734375
513328125.0 1.121826171875 0.0902099609375
544550000.0 1.0074462890625 -0.67877197265625
575771875.0 0.3404541015625 -1.2393798828125
606993750.0 -0.55181884765625 -1.18121337890625
638215625.0 -1.166748046875 -0.59478759765625
669437500.0 -1.34307861328125 0.23089599609375
700659375.0 -0.97515869140625 1.0960693359375
731881250.0 -0.0079345703125 1.54583740234375
763103125.0 1.004638671875 1.1610107421875
794325000.0 1.4713134765625 0.28668212890625
825546875.0 1.371826171875 -0.64923095703125
856768750.0 0.79962158203125 -1.40277099609375
887990625.0 -0.2890625 -1.653076171875
919212500.0 -1.28839111328125 -1.0845947265625
950434375.0 -1.65283203125 -0.06298828125
981656250.0 -1.38836669921875 0.9459228515625
1012878125.0 -0.53515625 1.6746826171875
1044100000.0 0.6949462890625 1.66845703125
1075321875.0 1.5775146484375 0.81817626953125
1106543750.0 1.710205078125 -0.30963134765625
1137765625.0 1.1932373046875 -1.2843017578125
1168987500.0 0.143310546875 -1.80194091796875
1200209375.0 -1.0609130859375 -1.49017333984375
1231431250.0 -1.73126220703125 -0.45867919921875
1262653125.0 -1.59930419921875 0.6824951171875
1293875000.0 -0.857666015625 1.49261474609375
1325096875.0 0.2239990234375 1.71160888671875
1356318750.0 1.23529052734375 1.2230224609375
1387540625.0 1.7437744140625 0.19342041015625
1418762500.0 1.4749755859375 -0.9501953125
1449984375.0 0.53460693359375 -1.6280517578125
1481206250.0 -0.54742431640625 -1.5609130859375
1512428125.0 -1.34307861328125 -0.92449951171875
1543650000.0 -1.65911865234375 0.06195068359375
1574871875.0 -1.27850341796875 1.10858154296875
1606093750.0 -0.2769775390625 1.6346435546875
1637315625.0 0.7408447265625 1.4052734375
1668537500.0 1.39739990234375 0.700439453125
1699759375.0 1.5772705078125 -0.2744140625
1730981250.0 1.06915283203125 -1.2294921875
1762203125.0 0.04583740234375 -1.57373046875
1793425000.0 -0.85491943359375 -1.230712890625
1824646875.0 -1.39508056640625 -0.5189208984375
1855868750.0 -1.477783203125 0.4295654296875
1887090625.0 -0.87982177734375 1.28631591796875
1918312500.0 0.11431884765625 1.49029541015625
1949534375.0 0.92138671875 1.09344482421875
1980756250.0 1.37701416015625 0.3739013671875
2011978125.0 1.36370849609375 -0.52984619140625
2043200000.0 0.75433349609375 -1.2625732421875
2074421875.0 -0.15411376953125 -1.43646240234375
2105643750.0 -0.9599609375 -1.0765380859375
2136865625.0 -1.44940185546875 -0.30828857421875
2168087500.0 -1.36114501953125 0.6693115234375
2199309375.0 -0.64306640625 1.35284423828125
2230531250.0 0.2799072265625 1.4395751953125
2261753125.0 1.0726318359375 1.01806640625
2292975000.0 1.517333984375 0.1737060546875
2324196875.0 1.3099365234375 -0.81793212890625
2355418750.0 0.52911376953125 -1.4215087890625
2386640625.0 -0.40264892578125 -1.45233154296875
2417862500.0 -1.1812744140625 -1.028564453125
2449084375.0 -1.60858154296875 -0.08636474609375
2480306250.0 -1.31591796875 0.92559814453125
2511528125.0 -0.49737548828125 1.51104736328125
2542750000.0 0.48663330078125 1.54071044921875
2573971875.0 1.37158203125 0.97283935546875
2605193750.0 1.7216796875 -0.10986328125
2636415625.0 1.2662353515625 -1.15313720703125
2667637500.0 0.31103515625 -1.6685791015625
2698859375.0 -0.7691650390625 -1.53948974609375
2730081250.0 -1.57550048828125 -0.7454833984375
2761303125.0 -1.68560791015625 0.38604736328125
2792525000.0 -1.1043701171875 1.3087158203125
2823746875.0 -0.10589599609375 1.73284912109375
2854968750.0 1.01202392578125 1.46075439453125
2886190625.0 1.6949462890625 0.49591064453125
2917412500.0 1.60504150390625 -0.6162109375
2948634375.0 0.944580078125 -1.43524169921875
2979856250.0 -0.10491943359375 -1.7796630859375
3011078125.0 -1.2474365234375 -1.347412109375
3042300000.0 -1.7784423828125 -0.23858642578125
3073521875.0 -1.51385498046875 0.8375244140625
3104743750.0 -0.7674560546875 1.57086181640625
3135965625.0 0.3590087890625 1.81317138671875
3167187500.0 1.50152587890625 1.1695556640625
3198409375.0 1.81915283203125 -0.07122802734375
3229631250.0 1.3541259765625 -1.08160400390625
3260853125.0 0.49359130859375 -1.67095947265625
3292075000.0 -0.65374755859375 -1.70294189453125
3323296875.0 -1.62152099609375 -0.8848876953125
3354518750.0 -1.73480224609375 0.326171875
3385740625.0 -1.16094970703125 1.23321533203125
3416962500.0 -0.23516845703125 1.6845703125
3448184375.0 0.85858154296875 1.52630615234375
3479406250.0 1.6405029296875 0.6475830078125
3510628125.0 1.64825439453125 -0.49395751953125
3541850000.0 1.00457763671875 -1.35626220703125
3573071875.0 -0.0042724609375 -1.68536376953125
3604293750.0 -1.02728271484375 -1.341796875
3635515625.0 -1.63043212890625 -0.4415283203125
3666737500.0 -1.5662841796875 0.64532470703125
3697959375.0 -0.8292236328125 1.478271484375
3729181250.0 0.26727294921875 1.63519287109375
3760403125.0 1.15289306640625 1.1021728515625
3791625000.0 1.55462646484375 0.2215576171875
3822846875.0 1.40625 -0.759521484375
3854068750.0 0.62451171875 -1.4835205078125
3885290625.0 -0.41937255859375 -1.48443603515625
3916512500.0 -1.14239501953125 -0.91455078125
3947734375.0 -1.4503173828125 -0.12225341796875
3978956250.0 -1.3021240234375 0.7801513671875
4010178125.0 -0.5341796875 1.45697021484375
4041400000.0 0.472412109375 1.41851806640625
4072621875.0 1.152587890625 0.85107421875
4103843750.0 1.4473876953125 0.06488037109375
4135065625.0 1.27142333984375 -0.8450927734375
4166287500.0 0.4603271484375 -1.49822998046875
4197509375.0 -0.55792236328125 -1.41827392578125
4228731250.0 -1.24908447265625 -0.8052978515625
4259953125.0 -1.5115966796875 0.06890869140625
4291175000.0 -1.19189453125 1.00921630859375
4322396875.0 -0.29266357421875 1.5286865234375
4353618750.0 0.67242431640625 1.3533935546875
4384840625.0 1.32421875 0.70062255859375
4416062500.0 1.50445556640625 -0.22625732421875
4447284375.0 1.058837890625 -1.10601806640625
4478506250.0 0.17413330078125 -1.49871826171875
4509728125.0 -0.73345947265625 -1.31103515625
4540950000.0 -1.39605712890625 -0.638916015625
4572171875.0 -1.5263671875 0.35955810546875
4603393750.0 -0.975341796875 1.2139892578125
4634615625.0 -0.06219482421875 1.5406494140625
4665837500.0 0.87005615234375 1.30780029296875
4697059375.0 1.544189453125 0.51763916015625
4728281250.0 1.532470703125 -0.58160400390625
4759503125.0 0.82574462890625 -1.36907958984375
4790725000.0 -0.14373779296875 -1.57537841796875
4821946875.0 -1.083984375 -1.197509765625
4853168750.0 -1.61627197265625 -0.25311279296875
4884390625.0 -1.3817138671875 0.793212890625
4915612500.0 -0.61602783203125 1.4149169921875
4946834375.0 0.32806396484375 1.51275634765625
4978056250.0 1.2071533203125 1.0203857421875
5009278125.0 1.5650634765625 0.04071044921875
5040500000.0 1.23248291015625 -0.87725830078125
5071721875.0 0.504150390625 -1.41729736328125
5102943750.0 -0.44677734375 -1.5001220703125
5134165625.0 -1.3370361328125 -0.9080810546875
5165387500.0 -1.57025146484375 0.1448974609375
5196609375.0 -1.13916015625 1.0111083984375
5227831250.0 -0.35943603515625 1.50860595703125
5259053125.0 0.68780517578125 1.49530029296875
5290275000.0 1.524658203125 0.66497802734375
5321496875.0 1.49493408203125 -0.429931640625
5352718750.0 0.92401123046875 -1.15374755859375
5383940625.0 0.09808349609375 -1.50360107421875
5415162500.0 -0.900634765625 -1.287353515625
5446384375.0 -1.488037109375 -0.37225341796875
5477606250.0 -1.3028564453125 0.56732177734375
5508828125.0 -0.7342529296875 1.15240478515625
5540050000.0 0.0523681640625 1.40191650390625
5571271875.0 0.9400634765625 1.11260986328125
5602493750.0 1.41143798828125 0.26220703125
5633715625.0 1.23516845703125 -0.612548828125
5664937500.0 0.6507568359375 -1.2032470703125
5696159375.0 -0.19708251953125 -1.38702392578125
5727381250.0 -1.02423095703125 -0.98095703125
5758603125.0 -1.39349365234375 -0.14630126953125
5789825000.0 -1.19757080078125 0.71881103515625
5821046875.0 -0.50799560546875 1.3094482421875
5852268750.0 0.41204833984375 1.3160400390625
5883490625.0 1.07220458984375 0.7745361328125
5914712500.0 1.30572509765625 0.020751953125
5945934375.0 1.09942626953125 -0.776123046875
5977156250.0 0.36309814453125 -1.315185546875
6008378125.0 -0.50970458984375 -1.18524169921875
6039600000.0 -1.02301025390625 -0.6510009765625
6070821875.0 -1.226806640625 -0.00555419921875
6102043750.0 -1.0863037109375 0.7635498046875
6133265625.0 -0.34326171875 1.3480224609375
6164487500.0 0.56512451171875 1.1904296875
6195709375.0 1.07208251953125 0.6318359375
6226931250.0 1.282958984375 -0.04229736328125
6258153125.0 1.1072998046875 -0.87200927734375
6289375000.0 0.256591796875 -1.44879150390625
6320596875.0 -0.69073486328125 -1.2080078125
6351818750.0 -1.2020263671875 -0.5733642578125
6383040625.0 -1.357421875 0.20709228515625
6414262500.0 -1.001953125 1.0587158203125
6445484375.0 -0.0780029296875 1.45947265625
6476706250.0 0.79736328125 1.1502685546875
6507928125.0 1.29241943359375 0.4716796875
6539150000.0 1.3502197265625 -0.3857421875
6570371875.0 0.84368896484375 -1.14666748046875
6601593750.0 -0.0159912109375 -1.406982421875
6632815625.0 -0.84075927734375 -1.13909912109375
6664037500.0 -1.40435791015625 -0.42144775390625
6695259375.0 -1.37744140625 0.5673828125
6726481250.0 -0.71209716796875 1.25408935546875
6757703125.0 0.13037109375 1.41015625
6788925000.0 0.95611572265625 1.1336669921875
6820146875.0 1.564208984375 0.28814697265625
6851368750.0 1.32843017578125 -0.82147216796875
6882590625.0 0.50787353515625 -1.33990478515625
6913812500.0 -0.29193115234375 -1.35845947265625
6945034375.0 -1.07220458984375 -1.023681640625
6976256250.0 -1.595703125 -0.0931396484375
7007478125.0 -1.240234375 0.93438720703125
7038700000.0 -0.40380859375 1.3453369140625
7069921875.0 0.35980224609375 1.3270263671875
7101143750.0 1.12115478515625 0.97174072265625
7132365625.0 1.60174560546875 0.01593017578125
7163587500.0 1.1612548828125 -1.02215576171875
7194809375.0 0.30328369140625 -1.400390625
7226031250.0 -0.5120849609375 -1.32861328125
7257253125.0 -1.27276611328125 -0.82525634765625
7288475000.0 -1.56231689453125 0.19873046875
7319696875.0 -1.031982421875 1.11273193359375
7350918750.0 -0.16339111328125 1.45025634765625
7382140625.0 0.71783447265625 1.2796630859375
7413362500.0 1.37945556640625 0.57757568359375
7444584375.0 1.41357421875 -0.4061279296875
7475806250.0 0.86077880859375 -1.14398193359375
7507028125.0 0.0052490234375 -1.434326171875
7538250000.0 -0.88916015625 -1.12646484375
7569471875.0 -1.34112548828125 -0.3111572265625
7600693750.0 -1.20440673828125 0.49652099609375
7631915625.0 -0.720703125 1.08673095703125
7663137500.0 0.08026123046875 1.3621826171875
7694359375.0 0.94183349609375 0.984130859375
7725581250.0 1.248291015625 0.180419921875
7756803125.0 1.0865478515625 -0.50030517578125
7788025000.0 0.6717529296875 -1.04888916015625
7819246875.0 -0.1199951171875 -1.35089111328125
7850468750.0 -0.998291015625 -0.918670654296875
7881690625.0 -1.2335205078125 -0.10626220703125
7912912500.0 -1.05743408203125 0.55731201171875
7944134375.0 -0.6063232421875 1.116943359375
7975356250.0 0.273681640625 1.33868408203125
8006578125.0 1.04901123046875 0.78076171875
8037800000.0 1.19580078125 0.01715087890625
8069021875.0 1.010498046875 -0.6187744140625
8100243750.0 0.5008544921875 -1.16552734375
8131465625.0 -0.3897705078125 -1.25775146484375
8162687500.0 -1.03485107421875 -0.686767578125
8193909375.0 -1.1837158203125 0.00823974609375
8225131250.0 -1.021728515625 0.67938232421875
8256353125.0 -0.42169189453125 1.253662109375
8287575000.0 0.5020751953125 1.227783203125
8318796875.0 1.08587646484375 0.636962890625
8350018750.0 1.2484130859375 -0.075439453125
8381240625.0 1.03497314453125 -0.84527587890625
8412462500.0 0.253662109375 -1.377685546875
8443684375.0 -0.675048828125 -1.1739501953125
8474906250.0 -1.17816162109375 -0.53289794921875
8506128125.0 -1.30078125 0.236572265625
8537350000.0 -0.9263916015625 1.0487060546875
8568571875.0 -0.01556396484375 1.3968505859375
8599793750.0 0.80364990234375 1.0560302734375
8631015625.0 1.2431640625 0.39959716796875
8662237500.0 1.2890625 -0.43048095703125
8693459375.0 0.73883056640625 -1.18145751953125
8724681250.0 -0.162841796875 -1.33465576171875
8755903125.0 -0.8817138671875 -0.9603271484375
8787125000.0 -1.3057861328125 -0.28466796875
8818346875.0 -1.25421142578125 0.6171875
8849568750.0 -0.55780029296875 1.26507568359375
8880790625.0 0.30059814453125 1.28900146484375
8912012500.0 0.98614501953125 0.8946533203125
8943234375.0 1.403564453125 0.128173828125
8974456250.0 1.16766357421875 -0.84393310546875
9005678125.0 0.347412109375 -1.31707763671875
9036900000.0 -0.44805908203125 -1.2274169921875
9068121875.0 -1.10546875 -0.7867431640625
9099343750.0 -1.44488525390625 0.10052490234375
9130565625.0 -0.98065185546875 1.0137939453125
9161787500.0 -0.1572265625 1.28302001953125
9193009375.0 0.5546875 1.1351318359375
9224231250.0 1.18182373046875 0.6571044921875
9255453125.0 1.4029541015625 -0.2984619140625
9286675000.0 0.8099365234375 -1.0872802734375
9317896875.0 0.0260009765625 -1.25006103515625
9349118750.0 -0.6568603515625 -1.07342529296875
9380340625.0 -1.26190185546875 -0.51068115234375
9411562500.0 -1.31634521484375 0.4818115234375
9442784375.0 -0.6483154296875 1.12115478515625
9474006250.0 0.09002685546875 1.21484375
9505228125.0 0.768096923828125 0.982391357421875
9536450000.0 1.2784423828125 0.3118896484375
9567671875.0 1.145263671875 -0.58251953125
9598893750.0 0.5299072265625 -1.07073974609375
9630115625.0 -0.1444091796875 -1.16058349609375
9661337500.0 -0.820404052734375 -0.90380859375
9692559375.0 -1.2431640625 -0.18780517578125
9723781250.0 -1.0457763671875 0.60736083984375
9755003125.0 -0.48614501953125 1.052734375
9786225000.0 0.1973876953125 1.16192626953125
9817446875.0 0.901092529296875 0.82965087890625
9848668750.0 1.2017822265625 0.07745361328125
9879890625.0 0.97039794921875 -0.61773681640625
9911112500.0 0.45318603515625 -1.05517578125
9942334375.0 -0.2686767578125 -1.16259765625
9973556250.0 -0.946563720703125 -0.738861083984375
10004778125.0 -1.14959716796875 -0.014892578125
10036000000.0 -0.946258544921875 0.618988037109375
10067221875.0 -0.44146728515625 1.100830078125
10098443750.0 0.37335205078125 1.18377685546875
10129665625.0 1.00799560546875 0.64276123046875
10160887500.0 1.12371826171875 -0.05377197265625
10192109375.0 0.918701171875 -0.66607666015625
10223331250.0 0.36090087890625 -1.15496826171875
10254553125.0 -0.4896240234375 -1.1158447265625
10285775000.0 -0.986602783203125 -0.535064697265625
10316996875.0 -1.0697021484375 0.07781982421875
10348218750.0 -0.90191650390625 0.67193603515625
10379440625.0 -0.32208251953125 1.1805419921875
10410662500.0 0.52911376953125 1.08782958984375
10441884375.0 0.995513916015625 0.522796630859375
10473106250.0 1.11248779296875 -0.08477783203125
10504328125.0 0.95111083984375 -0.760101318359375
10535550000.0 0.23809814453125 -1.29852294921875
10566771875.0 -0.65972900390625 -1.07830810546875
10597993750.0 -1.08404541015625 -0.45819091796875
10629215625.0 -1.1785888671875 0.2071533203125
10660437500.0 -0.88824462890625 0.956207275390625
10691659375.0 -0.00714111328125 1.33905029296875
10722881250.0 0.788116455078125 0.95318603515625
10754103125.0 1.12335205078125 0.32427978515625
10785325000.0 1.140869140625 -0.36724853515625
10816546875.0 0.7022705078125 -1.05169677734375
10847768750.0 -0.14715576171875 -1.23150634765625
10878990625.0 -0.807159423828125 -0.845001220703125
10910212500.0 -1.126220703125 -0.2437744140625
10941434375.0 -1.100341796875 0.47998046875
10972656250.0 -0.5679931640625 1.0908203125
11003878125.0 0.2198486328125 1.17730712890625
11035100000.0 0.85284423828125 0.823089599609375
11066321875.0 1.22576904296875 0.1724853515625
11097543750.0 1.0997314453125 -0.67889404296875
11128765625.0 0.3853759765625 -1.203369140625
11159987500.0 -0.397216796875 -1.14105224609375
11191209375.0 -1.004638671875 -0.7034912109375
11222431250.0 -1.2762451171875 0.09625244140625
11253653125.0 -0.8603515625 0.897552490234375
11284875000.0 -0.113525390625 1.1279296875
11316096875.0 0.512176513671875 0.95770263671875
11347318750.0 1.00738525390625 0.50152587890625
11378540625.0 1.1190185546875 -0.27069091796875
11409762500.0 0.63555908203125 -0.860595703125
11440984375.0 0.0352783203125 -0.98101806640625
11472206250.0 -0.482391357421875 -0.85260009765625
11503428125.0 -0.95623779296875 -0.4561767578125
11534650000.0 -1.07177734375 0.291259765625
11565871875.0 -0.602142333984375 0.8570556640625
11597093750.0 -0.016754150390625 0.994171142578125
11628315625.0 0.547576904296875 0.877685546875
11659537500.0 1.06402587890625 0.39178466796875
11690759375.0 1.0675048828125 -0.43695068359375
11721981250.0 0.51666259765625 -0.943756103515625
11753203125.0 -0.10797119140625 -1.03912353515625
11784425000.0 -0.727325439453125 -0.810333251953125
11815646875.0 -1.10382080078125 -0.14990234375
11846868750.0 -0.892059326171875 0.554962158203125
11878090625.0 -0.390625 0.911529541015625
11909312500.0 0.190948486328125 0.988525390625
11940534375.0 0.7835693359375 0.695770263671875
11971756250.0 1.026123046875 0.03955078125
12002978125.0 0.807403564453125 -0.54034423828125
12034200000.0 0.38177490234375 -0.892333984375
12065421875.0 -0.21734619140625 -1.01336669921875
12096643750.0 -0.851806640625 -0.6646728515625
12127865625.0 -1.0352783203125 0.01824951171875
12159087500.0 -0.8157958984375 0.57794189453125
12190309375.0 -0.37811279296875 0.978851318359375
12221531250.0 0.34326171875 1.09112548828125
12252753125.0 0.984710693359375 0.579925537109375
12283975000.0 1.0567626953125 -0.12982177734375
12315196875.0 0.8016357421875 -0.6793212890625
12346418750.0 0.2803955078125 -1.09527587890625
12377640625.0 -0.54229736328125 -1.06231689453125
12408862500.0 -1.0367431640625 -0.4178466796875
12440084375.0 -1.0106201171875 0.22723388671875
12471306250.0 -0.74310302734375 0.739898681640625
12502528125.0 -0.17889404296875 1.12451171875
12533750000.0 0.623046875 0.994537353515625
12564971875.0 1.0465087890625 0.3612060546875
12596193750.0 1.03240966796875 -0.267822265625
12627415625.0 0.74981689453125 -0.833404541015625
12658637500.0 0.07818603515625 -1.21099853515625
12689859375.0 -0.74005126953125 -0.966705322265625
12721081250.0 -1.12152099609375 -0.30450439453125
12752303125.0 -1.10113525390625 0.3868408203125
12783525000.0 -0.68634033203125 1.032470703125
12814746875.0 0.1680908203125 1.253662109375
12845968750.0 0.864501953125 0.810821533203125
12877190625.0 1.12091064453125 0.1697998046875
12908412500.0 1.0589599609375 -0.5072021484375
12939634375.0 0.54107666015625 -1.12286376953125
12970856250.0 -0.32568359375 -1.17633056640625
13002078125.0 -0.899169921875 -0.692901611328125
13033300000.0 -1.1092529296875 -0.08447265625
13064521875.0 -1.01068115234375 0.5986328125
13095743750.0 -0.41802978515625 1.15924072265625
13126965625.0 0.4141845703125 1.12298583984375
13158187500.0 0.951141357421875 0.63116455078125
13189409375.0 1.1527099609375 -0.02374267578125
13220631250.0 0.937469482421875 -0.7530517578125
13251853125.0 0.23199462890625 -1.176025390625
13283075000.0 -0.5111083984375 -1.02178955078125
13314296875.0 -0.99151611328125 -0.52801513671875
13345518750.0 -1.13751220703125 0.1798095703125
