!Created with skrf (http://scikit-rf.org).
# Hz S RI R 50.0 
!freq ReS11 ImS11
45000000.0 -0.07701873779296875 -0.09682846069335938
76221875.0 -0.19620513916015625 -0.04750823974609375
107443750.0 -0.2547149658203125 0.1195220947265625
138665625.0 -0.147979736328125 0.328216552734375
169887500.0 0.123626708984375 0.41729736328125
201109375.0 0.4215850830078125 0.280731201171875
232331250.0 0.57843017578125 -0.057769775390625
263553125.0 0.488983154296875 -0.452545166015625
294775000.0 0.0982666015625 -0.731964111328125
325996875.0 -0.41522216796875 -0.6798095703125
357218750.0 -0.805572509765625 -0.29656982421875
388440625.0 -0.88470458984375 0.30047607421875
419662500.0 -0.5166015625 0.865509033203125
450884375.0 0.17315673828125 1.02777099609375
482106250.0 0.797821044921875 0.711822509765625
513328125.0 1.1181640625 0.08697509765625
544550000.0 1.00286865234375 -0.67919921875
575771875.0 0.3360595703125 -1.23712158203125
606993750.0 -0.55352783203125 -1.176025390625
638215625.0 -1.164794921875 -0.589599609375
669437500.0 -1.33856201171875 0.23358154296875
700659375.0 -0.96978759765625 1.09515380859375
731881250.0 -0.00341796875 1.54150390625
763103125.0 1.00457763671875 1.15423583984375
794325000.0 1.467041015625 0.2811279296875
825546875.0 1.3656005859375 -0.651123046875
856768750.0 0.79351806640625 -1.39923095703125
887990625.0 -0.2921142578125 -1.64569091796875
919212500.0 -1.28619384765625 -1.0771484375
950434375.0 -1.646240234375 -0.05877685546875
981656250.0 -1.3802490234375 0.94427490234375
1012878125.0 -0.52862548828125 1.669677734375
1044100000.0 0.69610595703125 1.65960693359375
1075321875.0 1.5723876953125 0.81060791015625
1106543750.0 1.7022705078125 -0.31268310546875
1137765625.0 1.18499755859375 -1.28240966796875
1168987500.0 0.137939453125 -1.79437255859375
1200209375.0 -1.0599365234375 -1.4808349609375
1231431250.0 -1.724609375 -0.45233154296875
1262653125.0 -1.591796875 0.68359375
1293875000.0 -0.85052490234375 1.4892578125
1325096875.0 0.22808837890625 1.7039794921875
1356318750.0 1.23333740234375 1.21435546875
1387540625.0 1.73724365234375 0.18865966796875
1418762500.0 1.46685791015625 -0.9495849609375
1449984375.0 0.528076171875 -1.62371826171875
1481206250.0 -0.54901123046875 -1.55322265625
1512428125.0 -1.33984375 -0.9180908203125
1543650000.0 -1.65301513671875 0.065185546875
1574871875.0 -1.27130126953125 1.1075439453125
1606093750.0 -0.27227783203125 1.6287841796875
1637315625.0 0.74151611328125 1.39825439453125
1668537500.0 1.393798828125 0.69451904296875
1699759375.0 1.57080078125 -0.2769775390625
1730981250.0 1.06231689453125 -1.2279052734375
1762203125.0 0.0418701171875 -1.56817626953125
1793425000.0 -0.854736328125 -1.22454833984375
1824646875.0 -1.391357421875 -0.5145263671875
1855868750.0 -1.4718017578125 0.4322509765625
1887090625.0 -0.8736572265625 1.28302001953125
1918312500.0 0.11737060546875 1.48443603515625
1949534375.0 0.92022705078125 1.08746337890625
1980756250.0 1.37274169921875 0.369384765625
2011978125.0 1.3572998046875 -0.53082275390625
2043200000.0 0.74859619140625 -1.259521484375
2074421875.0 -0.15667724609375 -1.4307861328125
2105643750.0 -0.95892333984375 -1.0706787109375
2136865625.0 -1.44549560546875 -0.30419921875
2168087500.0 -1.3548583984375 0.66973876953125
2199309375.0 -0.63787841796875 1.34979248046875
2230531250.0 0.28155517578125 1.433837890625
2261753125.0 1.07122802734375 1.01275634765625
2292975000.0 1.51251220703125 0.16998291015625
2324196875.0 1.3037109375 -0.81756591796875
2355418750.0 0.52423095703125 -1.4173583984375
2386640625.0 -0.4033203125 -1.44677734375
2417862500.0 -1.17779541015625 -1.02227783203125
2449084375.0 -1.6019287109375 -0.08404541015625
2480306250.0 -1.30902099609375 0.92364501953125
2511528125.0 -0.49273681640625 1.50537109375
2542750000.0 0.48828125 1.5338134765625
2573971875.0 1.36798095703125 0.9661865234375
2605193750.0 1.71453857421875 -0.112548828125
2636415625.0 1.25885009765625 -1.14898681640625
2667637500.0 0.30584716796875 -1.66473388671875
2698859375.0 -0.76873779296875 -1.531494140625
2730081250.0 -1.570556640625 -0.7392578125
2761303125.0 -1.677490234375 0.38690185546875
2792525000.0 -1.0968017578125 1.30364990234375
2823746875.0 -0.1021728515625 1.72601318359375
2854968750.0 1.00897216796875 1.4527587890625
2886190625.0 1.6885986328125 0.49053955078125
2917412500.0 1.5966796875 -0.6168212890625
2948634375.0 0.93743896484375 -1.4310302734375
2979856250.0 -0.1065673828125 -1.77166748046875
3011078125.0 -1.24444580078125 -1.3402099609375
3042300000.0 -1.77197265625 -0.23388671875
3073521875.0 -1.5050048828125 0.8353271484375
3104743750.0 -0.76165771484375 1.5648193359375
3135965625.0 0.3602294921875 1.804931640625
3167187500.0 1.49658203125 1.16217041015625
3198409375.0 1.8116455078125 -0.0750732421875
3229631250.0 1.3458251953125 -1.0787353515625
3260853125.0 0.4886474609375 -1.664794921875
3292075000.0 -0.65374755859375 -1.6942138671875
3323296875.0 -1.61602783203125 -0.877685546875
3354518750.0 -1.7259521484375 0.32745361328125
3385740625.0 -1.15374755859375 1.22900390625
3416962500.0 -0.23199462890625 1.6776123046875
3448184375.0 0.8583984375 1.51885986328125
3479406250.0 1.6324462890625 0.64324951171875
3510628125.0 1.6407470703125 -0.4937744140625
3541850000.0 0.99859619140625 -1.35260009765625
3573071875.0 -0.00701904296875 -1.67864990234375
3604293750.0 -1.02532958984375 -1.3345947265625
3635515625.0 -1.62451171875 -0.43768310546875
3666737500.0 -1.55914306640625 0.645263671875
3697959375.0 -0.82342529296875 1.47222900390625
3729181250.0 0.267578125 1.62762451171875
3760403125.0 1.1495361328125 1.0958251953125
3791625000.0 1.548828125 0.21807861328125
3822846875.0 1.39874267578125 -0.759765625
3854068750.0 0.61993408203125 -1.477294921875
3885290625.0 -0.4202880859375 -1.4776611328125
3916512500.0 -1.13995361328125 -0.90985107421875
3947734375.0 -1.4451904296875 -0.1192626953125
3978956250.0 -1.29498291015625 0.7779541015625
4010178125.0 -0.53076171875 1.45037841796875
4041400000.0 0.4715576171875 1.41265869140625
4072621875.0 1.149169921875 0.84600830078125
4103843750.0 1.441650390625 0.0633544921875
4135065625.0 1.26544189453125 -0.8436279296875
4166287500.0 0.45782470703125 -1.49237060546875
4197509375.0 -0.55621337890625 -1.41217041015625
4228731250.0 -1.24578857421875 -0.80157470703125
4259953125.0 -1.50628662109375 0.07000732421875
4291175000.0 -1.18658447265625 1.00836181640625
4322396875.0 -0.28912353515625 1.52325439453125
4353618750.0 0.67169189453125 1.34735107421875
4384840625.0 1.31976318359375 0.696044921875
4416062500.0 1.4979248046875 -0.22711181640625
4447284375.0 1.05364990234375 -1.1004638671875
4478506250.0 0.1724853515625 -1.49237060546875
4509728125.0 -0.72967529296875 -1.3052978515625
4540950000.0 -1.39202880859375 -0.635009765625
4572171875.0 -1.52008056640625 0.35858154296875
4603393750.0 -0.971435546875 1.2095947265625
4634615625.0 -0.0611572265625 1.5343017578125
4665837500.0 0.86932373046875 1.30206298828125
4697059375.0 1.5377197265625 0.514892578125
4728281250.0 1.52630615234375 -0.58056640625
4759503125.0 0.82177734375 -1.36456298828125
4790725000.0 -0.14453125 -1.5697021484375
4821946875.0 -1.08160400390625 -1.1922607421875
4853168750.0 -1.60955810546875 -0.25128173828125
4884390625.0 -1.37542724609375 0.79046630859375
4915612500.0 -0.61279296875 1.40948486328125
4946834375.0 0.327392578125 1.5059814453125
4978056250.0 1.2020263671875 1.0157470703125
5009278125.0 1.5584716796875 0.04010009765625
5040500000.0 1.22747802734375 -0.8743896484375
5071721875.0 0.5010986328125 -1.41229248046875
5102943750.0 -0.4443359375 -1.49395751953125
5134165625.0 -1.332275390625 -0.90399169921875
5165387500.0 -1.5654296875 0.14569091796875
5196609375.0 -1.134521484375 1.0068359375
5227831250.0 -0.35699462890625 1.50408935546875
5259053125.0 0.68609619140625 1.4893798828125
5290275000.0 1.519287109375 0.66229248046875
5321496875.0 1.49017333984375 -0.43011474609375
5352718750.0 0.9195556640625 -1.1507568359375
5383940625.0 0.09625244140625 -1.4981689453125
5415162500.0 -0.8983154296875 -1.2821044921875
5446384375.0 -1.4830322265625 -0.369384765625
5477606250.0 -1.29766845703125 0.56585693359375
5508828125.0 -0.730712890625 1.1495361328125
5540050000.0 0.05328369140625 1.3961181640625
5571271875.0 0.9376220703125 1.10699462890625
5602493750.0 1.40557861328125 0.26019287109375
5633715625.0 1.230224609375 -0.61114501953125
5664937500.0 0.64697265625 -1.19927978515625
5696159375.0 -0.19525146484375 -1.38079833984375
5727381250.0 -1.01922607421875 -0.9771728515625
5758603125.0 -1.3887939453125 -0.14581298828125
5789825000.0 -1.19219970703125 0.716552734375
5821046875.0 -0.50579833984375 1.30511474609375
5852268750.0 0.4112548828125 1.311767578125
5883490625.0 1.06964111328125 0.770751953125
5914712500.0 1.301025390625 0.019775390625
5945934375.0 1.0947265625 -0.7735595703125
5977156250.0 0.361572265625 -1.3099365234375
6008378125.0 -0.5086669921875 -1.180908203125
6039600000.0 -1.02105712890625 -0.64837646484375
6070821875.0 -1.22186279296875 -0.00439453125
6102043750.0 -1.08221435546875 0.76104736328125
6133265625.0 -0.341796875 1.34295654296875
6164487500.0 0.56195068359375 1.18597412109375
6195709375.0 1.0689697265625 0.6292724609375
6226931250.0 1.2779541015625 -0.04193115234375
6258153125.0 1.10308837890625 -0.86932373046875
6289375000.0 0.25677490234375 -1.4439697265625
6320596875.0 -0.68768310546875 -1.204833984375
6351818750.0 -1.19793701171875 -0.57147216796875
6383040625.0 -1.35321044921875 0.206298828125
6414262500.0 -0.998779296875 1.0546875
6445484375.0 -0.0784912109375 1.454833984375
6476706250.0 0.79443359375 1.1466064453125
6507928125.0 1.28863525390625 0.4696044921875
6539150000.0 1.34576416015625 -0.38543701171875
6570371875.0 0.8402099609375 -1.142578125
6601593750.0 -0.01654052734375 -1.402587890625
6632815625.0 -0.8385009765625 -1.135009765625
6664037500.0 -1.3995361328125 -0.4197998046875
6695259375.0 -1.3726806640625 0.564453125
6726481250.0 -0.7093505859375 1.24920654296875
6757703125.0 0.129638671875 1.40496826171875
6788925000.0 0.95184326171875 1.12841796875
6820146875.0 1.5579833984375 0.28826904296875
6851368750.0 1.32440185546875 -0.81756591796875
6882590625.0 0.50640869140625 -1.33575439453125
6913812500.0 -0.292236328125 -1.3543701171875
6945034375.0 -1.068115234375 -1.021240234375
6976256250.0 -1.59033203125 -0.09332275390625
7007478125.0 -1.23309326171875 0.9306640625
7038700000.0 -0.40252685546875 1.34088134765625
7069921875.0 0.3575439453125 1.32037353515625
7101143750.0 1.11651611328125 0.9677734375
7132365625.0 1.5950927734375 0.01531982421875
7163587500.0 1.15655517578125 -1.019775390625
7194809375.0 0.3017578125 -1.39556884765625
7226031250.0 -0.51043701171875 -1.32391357421875
7257253125.0 -1.26275634765625 -0.8228759765625
7288475000.0 -1.55645751953125 0.1981201171875
7319696875.0 -1.02783203125 1.1087646484375
7350918750.0 -0.16583251953125 1.44091796875
7382140625.0 0.71380615234375 1.2757568359375
7413362500.0 1.37445068359375 0.57562255859375
7444584375.0 1.40875244140625 -0.40374755859375
7475806250.0 0.85711669921875 -1.14166259765625
7507028125.0 0.006591796875 -1.426513671875
7538250000.0 -0.8851318359375 -1.1226806640625
7569471875.0 -1.3341064453125 -0.31146240234375
7600693750.0 -1.20111083984375 0.4945068359375
7631915625.0 -0.7171630859375 1.08551025390625
7663137500.0 0.08038330078125 1.35601806640625
7694359375.0 0.937957763671875 0.9786376953125
7725581250.0 1.240966796875 0.1805419921875
7756803125.0 1.08056640625 -0.49786376953125
7788025000.0 0.66876220703125 -1.04150390625
7819246875.0 -0.11883544921875 -1.34503173828125
7850468750.0 -0.990631103515625 -0.915374755859375
7881690625.0 -1.22998046875 -0.10528564453125
7912912500.0 -1.05224609375 0.5518798828125
7944134375.0 -0.60443115234375 1.11199951171875
7975356250.0 0.27197265625 1.33514404296875
8006578125.0 1.04595947265625 0.779052734375
8037800000.0 1.190673828125 0.0179443359375
8069021875.0 1.005615234375 -0.615234375
8100243750.0 0.50018310546875 -1.1591796875
8131465625.0 -0.386474609375 -1.2518310546875
8162687500.0 -1.0313720703125 -0.68548583984375
8193909375.0 -1.17919921875 0.00885009765625
8225131250.0 -1.01666259765625 0.676513671875
8256353125.0 -0.421142578125 1.24761962890625
8287575000.0 0.49993896484375 1.22509765625
8318796875.0 1.0821533203125 0.63525390625
8350018750.0 1.2430419921875 -0.07391357421875
8381240625.0 1.03033447265625 -0.83660888671875
8412462500.0 0.25311279296875 -1.37200927734375
8443684375.0 -0.66748046875 -1.16888427734375
8474906250.0 -1.1727294921875 -0.531982421875
8506128125.0 -1.295654296875 0.23602294921875
8537350000.0 -0.92315673828125 1.04388427734375
8568571875.0 -0.015380859375 1.393798828125
8599793750.0 0.80072021484375 1.05218505859375
8631015625.0 1.23779296875 0.39874267578125
8662237500.0 1.28448486328125 -0.42822265625
8693459375.0 0.73614501953125 -1.17633056640625
8724681250.0 -0.160888671875 -1.33026123046875
8755903125.0 -0.878662109375 -0.956268310546875
8787125000.0 -1.30120849609375 -0.28240966796875
8818346875.0 -1.2490234375 0.6124267578125
8849568750.0 -0.556640625 1.2591552734375
8880790625.0 0.2974853515625 1.283447265625
8912012500.0 0.978790283203125 0.891510009765625
8943234375.0 1.3978271484375 0.128662109375
8974456250.0 1.1666259765625 -0.83599853515625
9005678125.0 0.34967041015625 -1.3115234375
9036900000.0 -0.44525146484375 -1.22418212890625
9068121875.0 -1.100830078125 -0.7847900390625
9099343750.0 -1.43914794921875 0.0963134765625
9130565625.0 -0.97955322265625 1.0107421875
9161787500.0 -0.15509033203125 1.2818603515625
9193009375.0 0.553466796875 1.1329345703125
9224231250.0 1.178466796875 0.65411376953125
9255453125.0 1.39825439453125 -0.295166015625
9286675000.0 0.8057861328125 -1.08258056640625
9317896875.0 0.026611328125 -1.24615478515625
9349118750.0 -0.65228271484375 -1.06890869140625
9380340625.0 -1.255615234375 -0.5098876953125
9411562500.0 -1.30987548828125 0.4737548828125
9442784375.0 -0.64794921875 1.1142578125
9474006250.0 0.0875244140625 1.20965576171875
9505228125.0 0.763580322265625 0.979827880859375
9536450000.0 1.2720947265625 0.3143310546875
9567671875.0 1.1435546875 -0.58001708984375
9598893750.0 0.529541015625 -1.06781005859375
9630115625.0 -0.141845703125 -1.1552734375
9661337500.0 -0.8167724609375 -0.901580810546875
9692559375.0 -1.2369384765625 -0.19073486328125
9723781250.0 -1.0419921875 0.60211181640625
9755003125.0 -0.486083984375 1.049560546875
9786225000.0 0.19781494140625 1.15838623046875
9817446875.0 0.89349365234375 0.827423095703125
9848668750.0 1.19696044921875 0.07940673828125
9879890625.0 0.9676513671875 -0.614593505859375
9911112500.0 0.45233154296875 -1.04913330078125
9942334375.0 -0.26776123046875 -1.15850830078125
9973556250.0 -0.9420166015625 -0.737945556640625
10004778125.0 -1.14410400390625 -0.01934814453125
10036000000.0 -0.94305419921875 0.61395263671875
10067221875.0 -0.4420166015625 1.09503173828125
10098443750.0 0.3690185546875 1.1800537109375
10129665625.0 1.00164794921875 0.64288330078125
10160887500.0 1.11859130859375 -0.05120849609375
10192109375.0 0.91748046875 -0.6619873046875
10223331250.0 0.36212158203125 -1.1495361328125
10254553125.0 -0.48675537109375 -1.11358642578125
10285775000.0 -0.983795166015625 -0.536102294921875
10316996875.0 -1.06640625 0.0758056640625
10348218750.0 -0.8988037109375 0.669403076171875
10379440625.0 -0.32220458984375 1.172607421875
10410662500.0 0.526123046875 1.0845947265625
10441884375.0 0.990997314453125 0.52142333984375
10473106250.0 1.1085205078125 -0.08447265625
10504328125.0 0.94921875 -0.756011962890625
10535550000.0 0.24102783203125 -1.29150390625
10566771875.0 -0.65673828125 -1.077392578125
10597993750.0 -1.07904052734375 -0.45819091796875
10629215625.0 -1.173583984375 0.203369140625
10660437500.0 -0.887786865234375 0.94891357421875
10691659375.0 -0.010498046875 1.33349609375
10722881250.0 0.78289794921875 0.95172119140625
10754103125.0 1.118896484375 0.324462890625
10785325000.0 1.138671875 -0.3663330078125
10816546875.0 0.7010498046875 -1.0465087890625
10847768750.0 -0.14300537109375 -1.22747802734375
10878990625.0 -0.802703857421875 -0.843719482421875
10910212500.0 -1.1202392578125 -0.2459716796875
10941434375.0 -1.095947265625 0.47613525390625
10972656250.0 -0.567138671875 1.08404541015625
11003878125.0 0.21807861328125 1.173828125
11035100000.0 0.847259521484375 0.821929931640625
11066321875.0 1.2188720703125 0.17462158203125
11097543750.0 1.09619140625 -0.67608642578125
11128765625.0 0.38604736328125 -1.197265625
11159987500.0 -0.39532470703125 -1.13958740234375
11191209375.0 -0.99871826171875 -0.70172119140625
11222431250.0 -1.27154541015625 0.09326171875
11253653125.0 -0.85980224609375 0.8934326171875
11284875000.0 -0.115234375 1.12506103515625
11316096875.0 0.510284423828125 0.955657958984375
11347318750.0 1.001953125 0.5025634765625
11378540625.0 1.11688232421875 -0.267578125
11409762500.0 0.635040283203125 -0.85870361328125
11440984375.0 0.036163330078125 -0.97747802734375
11472206250.0 -0.479827880859375 -0.8494873046875
11503428125.0 -0.952484130859375 -0.4559326171875
11534650000.0 -1.068115234375 0.287109375
11565871875.0 -0.602294921875 0.85345458984375
11597093750.0 -0.0186767578125 0.990936279296875
11628315625.0 0.5430908203125 0.87408447265625
11659537500.0 1.06097412109375 0.39141845703125
11690759375.0 1.063720703125 -0.432373046875
11721981250.0 0.51708984375 -0.93927001953125
11753203125.0 -0.10638427734375 -1.0352783203125
11784425000.0 -0.72296142578125 -0.80841064453125
11815646875.0 -1.099609375 -0.15118408203125
11846868750.0 -0.891204833984375 0.550079345703125
11878090625.0 -0.390869140625 0.908233642578125
11909312500.0 0.186004638671875 0.9833984375
11940534375.0 0.78009033203125 0.6947021484375
11971756250.0 1.02288818359375 0.04132080078125
12002978125.0 0.8056640625 -0.536041259765625
12034200000.0 0.382110595703125 -0.888824462890625
12065421875.0 -0.2152099609375 -1.00958251953125
12096643750.0 -0.84710693359375 -0.665374755859375
12127865625.0 -1.0323486328125 0.0157470703125
12159087500.0 -0.814788818359375 0.575347900390625
12190309375.0 -0.378509521484375 0.97357177734375
12221531250.0 0.33795166015625 1.08624267578125
12252753125.0 0.977691650390625 0.58245849609375
12283975000.0 1.05438232421875 -0.127197265625
12315196875.0 0.799468994140625 -0.674591064453125
12346418750.0 0.28155517578125 -1.09039306640625
12377640625.0 -0.53607177734375 -1.05999755859375
12408862500.0 -1.033203125 -0.41973876953125
12440084375.0 -1.0072021484375 0.222900390625
12471306250.0 -0.7415771484375 0.73699951171875
12502528125.0 -0.18072509765625 1.11871337890625
12533750000.0 0.61737060546875 0.992706298828125
12564971875.0 1.0418701171875 0.363525390625
12596193750.0 1.02862548828125 -0.26324462890625
12627415625.0 0.747344970703125 -0.82806396484375
12658637500.0 0.08026123046875 -1.20587158203125
12689859375.0 -0.7330322265625 -0.96575927734375
12721081250.0 -1.1170654296875 -0.3052978515625
12752303125.0 -1.09521484375 0.38018798828125
12783525000.0 -0.68817138671875 1.02655029296875
12814746875.0 0.16339111328125 1.250244140625
12845968750.0 0.861297607421875 0.810882568359375
12877190625.0 1.117431640625 0.17218017578125
12908412500.0 1.05657958984375 -0.502685546875
12939634375.0 0.5433349609375 -1.11572265625
12970856250.0 -0.3189697265625 -1.17474365234375
13002078125.0 -0.892242431640625 -0.69366455078125
13033300000.0 -1.10455322265625 -0.0880126953125
13064521875.0 -1.00775146484375 0.5908203125
13095743750.0 -0.42108154296875 1.1539306640625
13126965625.0 0.40936279296875 1.1201171875
13158187500.0 0.947021484375 0.63250732421875
13189409375.0 1.1474609375 -0.02178955078125
13220631250.0 0.93572998046875 -0.746337890625
13251853125.0 0.23602294921875 -1.16937255859375
13283075000.0 -0.50555419921875 -1.01861572265625
13314296875.0 -0.9849853515625 -0.528289794921875
13345518750.0 -1.13238525390625 0.17462158203125
13376740625.0 -0.7518310546875 0.855499267578125
