!Created with skrf (http://scikit-rf.org).
# Hz S RI R 50.0 
!freq ReS11 ImS11
45000000.0 -0.07675933837890625 -0.0969085693359375
76221875.0 -0.19622039794921875 -0.04781341552734375
107443750.0 -0.25506591796875 0.1193695068359375
138665625.0 -0.1483917236328125 0.32861328125
169887500.0 0.1229705810546875 0.41778564453125
201109375.0 0.42144775390625 0.2813720703125
232331250.0 0.57879638671875 -0.05657958984375
263553125.0 0.489837646484375 -0.4520263671875
294775000.0 0.099273681640625 -0.73211669921875
325996875.0 -0.414215087890625 -0.680450439453125
357218750.0 -0.805633544921875 -0.29803466796875
388440625.0 -0.885589599609375 0.299560546875
419662500.0 -0.518096923828125 0.865020751953125
450884375.0 0.17169189453125 1.02862548828125
482106250.0 0.797149658203125 0.7135009765625
513328125.0 1.11883544921875 0.08868408203125
544550000.0 1.004150390625 -0.67803955078125
575771875.0 0.33782958984375 -1.2371826171875
606993750.0 -0.55206298828125 -1.177490234375
638215625.0 -1.16448974609375 -0.591552734375
669437500.0 -1.3394775390625 0.23199462890625
700659375.0 -0.97174072265625 1.0946044921875
731881250.0 -0.00567626953125 1.54248046875
763103125.0 1.0037841796875 1.156494140625
794325000.0 1.4674072265625 0.2833251953125
825546875.0 1.36724853515625 -0.64947509765625
856768750.0 0.796142578125 -1.39862060546875
887990625.0 -0.29010009765625 -1.6478271484375
919212500.0 -1.285888671875 -1.07928466796875
950434375.0 -1.64703369140625 -0.06121826171875
981656250.0 -1.3822021484375 0.943115234375
1012878125.0 -0.5313720703125 1.66986083984375
1044100000.0 0.694091796875 1.6612548828125
1075321875.0 1.5718994140625 0.8135986328125
1106543750.0 1.7041015625 -0.3104248046875
1137765625.0 1.18756103515625 -1.28204345703125
1168987500.0 0.14044189453125 -1.7952880859375
1200209375.0 -1.05908203125 -1.48358154296875
1231431250.0 -1.72540283203125 -0.45477294921875
1262653125.0 -1.5938720703125 0.68231201171875
1293875000.0 -0.85321044921875 1.48907470703125
1325096875.0 0.22540283203125 1.70526123046875
1356318750.0 1.23260498046875 1.21710205078125
1387540625.0 1.7376708984375 0.19073486328125
1418762500.0 1.46881103515625 -0.94879150390625
1449984375.0 0.53076171875 -1.62371826171875
1481206250.0 -0.547119140625 -1.5548095703125
1512428125.0 -1.3397216796875 -0.92041015625
1543650000.0 -1.6539306640625 0.06341552734375
1574871875.0 -1.27337646484375 1.10650634765625
1606093750.0 -0.27435302734375 1.6302490234375
1637315625.0 0.7401123046875 1.400390625
1668537500.0 1.39410400390625 0.697021484375
1699759375.0 1.57183837890625 -0.27435302734375
1730981250.0 1.06494140625 -1.226806640625
1762203125.0 0.0440673828125 -1.569091796875
1793425000.0 -0.85345458984375 -1.2266845703125
1824646875.0 -1.391357421875 -0.51641845703125
1855868750.0 -1.4730224609375 0.43023681640625
1887090625.0 -0.87542724609375 1.2833251953125
1918312500.0 0.11541748046875 1.4852294921875
1949534375.0 0.919189453125 1.0888671875
1980756250.0 1.373291015625 0.37127685546875
2011978125.0 1.3587646484375 -0.52947998046875
2043200000.0 0.7510986328125 -1.2593994140625
2074421875.0 -0.1549072265625 -1.4315185546875
2105643750.0 -0.958251953125 -1.0728759765625
2136865625.0 -1.4454345703125 -0.30633544921875
2168087500.0 -1.35650634765625 0.66925048828125
2199309375.0 -0.6400146484375 1.348876953125
2230531250.0 0.2802734375 1.43505859375
2261753125.0 1.070068359375 1.013671875
2292975000.0 1.51300048828125 0.1717529296875
2324196875.0 1.30535888671875 -0.8167724609375
2355418750.0 0.526123046875 -1.41802978515625
2386640625.0 -0.40240478515625 -1.44781494140625
2417862500.0 -1.17767333984375 -1.02423095703125
2449084375.0 -1.60272216796875 -0.0860595703125
2480306250.0 -1.31085205078125 0.92242431640625
2511528125.0 -0.49603271484375 1.5048828125
2542750000.0 0.48663330078125 1.53497314453125
2573971875.0 1.36749267578125 0.96856689453125
2605193750.0 1.7149658203125 -0.1099853515625
2636415625.0 1.26129150390625 -1.14923095703125
2667637500.0 0.30914306640625 -1.66265869140625
2698859375.0 -0.76678466796875 -1.5328369140625
2730081250.0 -1.57012939453125 -0.7415771484375
2761303125.0 -1.678466796875 0.38470458984375
2792525000.0 -1.09979248046875 1.30328369140625
2823746875.0 -0.10455322265625 1.727294921875
2854968750.0 1.009521484375 1.4549560546875
2886190625.0 1.68865966796875 0.49365234375
2917412500.0 1.59857177734375 -0.61431884765625
2948634375.0 0.93988037109375 -1.42950439453125
2979856250.0 -0.10589599609375 -1.77423095703125
3011078125.0 -1.2442626953125 -1.3411865234375
3042300000.0 -1.771728515625 -0.2369384765625
3073521875.0 -1.50750732421875 0.83514404296875
3104743750.0 -0.7642822265625 1.564208984375
3135965625.0 0.35955810546875 1.80712890625
3167187500.0 1.49688720703125 1.16473388671875
3198409375.0 1.8140869140625 -0.07342529296875
3229631250.0 1.348876953125 -1.07794189453125
3260853125.0 0.49114990234375 -1.6641845703125
3292075000.0 -0.65032958984375 -1.6951904296875
3323296875.0 -1.61572265625 -0.88043212890625
3354518750.0 -1.72784423828125 0.325927734375
3385740625.0 -1.15570068359375 1.22857666015625
3416962500.0 -0.2332763671875 1.67864990234375
3448184375.0 0.85797119140625 1.5203857421875
3479406250.0 1.632080078125 0.6455078125
3510628125.0 1.64263916015625 -0.4920654296875
3541850000.0 1.000244140625 -1.3525390625
3573071875.0 -0.0062255859375 -1.6795654296875
3604293750.0 -1.02484130859375 -1.3370361328125
3635515625.0 -1.62481689453125 -0.43939208984375
3666737500.0 -1.56085205078125 0.64373779296875
3697959375.0 -0.82525634765625 1.47308349609375
3729181250.0 0.265625 1.62872314453125
3760403125.0 1.1488037109375 1.09808349609375
3791625000.0 1.54986572265625 0.21978759765625
3822846875.0 1.40045166015625 -0.75738525390625
3854068750.0 0.62109375 -1.47845458984375
3885290625.0 -0.41937255859375 -1.47979736328125
3916512500.0 -1.1397705078125 -0.91162109375
3947734375.0 -1.44500732421875 -0.12152099609375
3978956250.0 -1.296875 0.7772216796875
4010178125.0 -0.5322265625 1.45098876953125
4041400000.0 0.470947265625 1.41412353515625
4072621875.0 1.1485595703125 0.84814453125
4103843750.0 1.4425048828125 0.06475830078125
4135065625.0 1.267333984375 -0.84393310546875
4166287500.0 0.45880126953125 -1.4927978515625
4197509375.0 -0.55517578125 -1.41363525390625
4228731250.0 -1.2447509765625 -0.80303955078125
4259953125.0 -1.50701904296875 0.068603515625
4291175000.0 -1.18756103515625 1.007568359375
4322396875.0 -0.291015625 1.52374267578125
4353618750.0 0.67108154296875 1.3499755859375
4384840625.0 1.31903076171875 0.69830322265625
4416062500.0 1.4998779296875 -0.22607421875
4447284375.0 1.05548095703125 -1.100830078125
4478506250.0 0.17401123046875 -1.49267578125
4509728125.0 -0.72967529296875 -1.306884765625
4540950000.0 -1.39166259765625 -0.6368408203125
4572171875.0 -1.520751953125 0.35760498046875
4603393750.0 -0.972412109375 1.210693359375
4634615625.0 -0.0633544921875 1.53509521484375
4665837500.0 0.86749267578125 1.303466796875
4697059375.0 1.5391845703125 0.51629638671875
4728281250.0 1.52728271484375 -0.579833984375
4759503125.0 0.82318115234375 -1.36480712890625
4790725000.0 -0.14385986328125 -1.57073974609375
4821946875.0 -1.080078125 -1.1929931640625
4853168750.0 -1.61065673828125 -0.25341796875
4884390625.0 -1.3770751953125 0.78997802734375
4915612500.0 -0.61431884765625 1.409912109375
4946834375.0 0.3272705078125 1.50799560546875
4978056250.0 1.2027587890625 1.0174560546875
5009278125.0 1.55999755859375 0.041015625
5040500000.0 1.22833251953125 -0.8726806640625
5071721875.0 0.50274658203125 -1.41204833984375
5102943750.0 -0.44525146484375 -1.4959716796875
5134165625.0 -1.333740234375 -0.9056396484375
5165387500.0 -1.56658935546875 0.14483642578125
5196609375.0 -1.135986328125 1.0068359375
5227831250.0 -0.35784912109375 1.5037841796875
5259053125.0 0.68536376953125 1.49114990234375
5290275000.0 1.51983642578125 0.6634521484375
5321496875.0 1.49090576171875 -0.42840576171875
5352718750.0 0.92095947265625 -1.15130615234375
5383940625.0 0.09814453125 -1.49847412109375
5415162500.0 -0.8985595703125 -1.28350830078125
5446384375.0 -1.483154296875 -0.3712158203125
5477606250.0 -1.29833984375 0.5640869140625
5508828125.0 -0.73175048828125 1.14923095703125
5540050000.0 0.05242919921875 1.39697265625
5571271875.0 0.9373779296875 1.10882568359375
5602493750.0 1.4066162109375 0.2615966796875
5633715625.0 1.23138427734375 -0.6104736328125
5664937500.0 0.64849853515625 -1.1995849609375
5696159375.0 -0.19622802734375 -1.38226318359375
5727381250.0 -1.02093505859375 -0.97869873046875
5758603125.0 -1.3905029296875 -0.1461181640625
5789825000.0 -1.19366455078125 0.71624755859375
5821046875.0 -0.50634765625 1.30535888671875
5852268750.0 0.40997314453125 1.31219482421875
5883490625.0 1.06927490234375 0.77227783203125
5914712500.0 1.30194091796875 0.02069091796875
5945934375.0 1.09625244140625 -0.77386474609375
5977156250.0 0.362060546875 -1.31024169921875
6008378125.0 -0.507568359375 -1.18133544921875
6039600000.0 -1.01995849609375 -0.649658203125
6070821875.0 -1.222900390625 -0.005859375
6102043750.0 -1.0830078125 0.76153564453125
6133265625.0 -0.34234619140625 1.34320068359375
6164487500.0 0.56060791015625 1.18634033203125
6195709375.0 1.0684814453125 0.63067626953125
6226931250.0 1.27825927734375 -0.041259765625
6258153125.0 1.10394287109375 -0.8697509765625
6289375000.0 0.25726318359375 -1.44439697265625
6320596875.0 -0.68829345703125 -1.20556640625
6351818750.0 -1.197998046875 -0.57244873046875
6383040625.0 -1.353759765625 0.2061767578125
6414262500.0 -0.99945068359375 1.0552978515625
6445484375.0 -0.0802001953125 1.4542236328125
6476706250.0 0.7943115234375 1.1474609375
6507928125.0 1.28900146484375 0.47064208984375
6539150000.0 1.346923828125 -0.3853759765625
6570371875.0 0.84124755859375 -1.1416015625
6601593750.0 -0.0157470703125 -1.40325927734375
6632815625.0 -0.83740234375 -1.13580322265625
6664037500.0 -1.40057373046875 -0.42022705078125
6695259375.0 -1.37322998046875 0.56427001953125
6726481250.0 -0.710693359375 1.25054931640625
6757703125.0 0.12969970703125 1.40618896484375
6788925000.0 0.9541015625 1.13092041015625
6820146875.0 1.55987548828125 0.2882080078125
6851368750.0 1.32574462890625 -0.8179931640625
6882590625.0 0.50677490234375 -1.33770751953125
6913812500.0 -0.29046630859375 -1.35504150390625
6945034375.0 -1.069091796875 -1.0208740234375
6976256250.0 -1.590576171875 -0.09442138671875
7007478125.0 -1.23583984375 0.93121337890625
7038700000.0 -0.403076171875 1.34130859375
7069921875.0 0.35723876953125 1.32244873046875
7101143750.0 1.1168212890625 0.969482421875
7132365625.0 1.5958251953125 0.01776123046875
7163587500.0 1.15753173828125 -1.01837158203125
7194809375.0 0.302734375 -1.3970947265625
7226031250.0 -0.51068115234375 -1.32672119140625
7257253125.0 -1.26513671875 -0.82525634765625
7288475000.0 -1.55621337890625 0.196533203125
7319696875.0 -1.03045654296875 1.1102294921875
7350918750.0 -0.16485595703125 1.44293212890625
7382140625.0 0.71246337890625 1.27520751953125
7413362500.0 1.3741455078125 0.57659912109375
7444584375.0 1.4102783203125 -0.405029296875
7475806250.0 0.8580322265625 -1.141357421875
7507028125.0 0.00714111328125 -1.4266357421875
7538250000.0 -0.885498046875 -1.12420654296875
7569471875.0 -1.33428955078125 -0.31182861328125
7600693750.0 -1.200927734375 0.4940185546875
7631915625.0 -0.71795654296875 1.0828857421875
7663137500.0 0.0784912109375 1.3564453125
7694359375.0 0.9368896484375 0.98077392578125
7725581250.0 1.241943359375 0.18182373046875
7756803125.0 1.0828857421875 -0.49810791015625
7788025000.0 0.6705322265625 -1.0423583984375
7819246875.0 -0.12017822265625 -1.348388671875
7850468750.0 -0.989471435546875 -0.916290283203125
7881690625.0 -1.23016357421875 -0.10601806640625
7912912500.0 -1.05279541015625 0.55169677734375
7944134375.0 -0.606201171875 1.111572265625
7975356250.0 0.2711181640625 1.333251953125
8006578125.0 1.04608154296875 0.7786865234375
8037800000.0 1.19305419921875 0.0166015625
8069021875.0 1.00555419921875 -0.61553955078125
8100243750.0 0.49993896484375 -1.16009521484375
8131465625.0 -0.38616943359375 -1.25347900390625
8162687500.0 -1.03155517578125 -0.6865234375
8193909375.0 -1.179443359375 0.00714111328125
8225131250.0 -1.0181884765625 0.67840576171875
8256353125.0 -0.4219970703125 1.248046875
8287575000.0 0.4979248046875 1.22607421875
8318796875.0 1.08111572265625 0.635498046875
8350018750.0 1.24444580078125 -0.073486328125
8381240625.0 1.0311279296875 -0.83697509765625
8412462500.0 0.25494384765625 -1.37261962890625
8443684375.0 -0.667724609375 -1.1697998046875
8474906250.0 -1.174072265625 -0.53228759765625
8506128125.0 -1.297119140625 0.23577880859375
8537350000.0 -0.92413330078125 1.04608154296875
8568571875.0 -0.01654052734375 1.39410400390625
8599793750.0 0.79913330078125 1.0526123046875
8631015625.0 1.23809814453125 0.39996337890625
8662237500.0 1.28521728515625 -0.42645263671875
8693459375.0 0.736572265625 -1.17645263671875
8724681250.0 -0.158935546875 -1.32879638671875
8755903125.0 -0.87933349609375 -0.958282470703125
8787125000.0 -1.302490234375 -0.28375244140625
8818346875.0 -1.25079345703125 0.61395263671875
8849568750.0 -0.55712890625 1.261474609375
8880790625.0 0.29864501953125 1.285400390625
8912012500.0 0.98101806640625 0.8924560546875
8943234375.0 1.39898681640625 0.12890625
8974456250.0 1.16619873046875 -0.838134765625
9005678125.0 0.34906005859375 -1.31365966796875
9036900000.0 -0.444091796875 -1.2244873046875
9068121875.0 -1.09991455078125 -0.78668212890625
9099343750.0 -1.44024658203125 0.0972900390625
9130565625.0 -0.9796142578125 1.0086669921875
9161787500.0 -0.15655517578125 1.27935791015625
9193009375.0 0.55352783203125 1.13372802734375
9224231250.0 1.17828369140625 0.65570068359375
9255453125.0 1.3990478515625 -0.29534912109375
9286675000.0 0.8076171875 -1.0830078125
9317896875.0 0.02850341796875 -1.24554443359375
9349118750.0 -0.6514892578125 -1.0682373046875
9380340625.0 -1.25732421875 -0.5101318359375
9411562500.0 -1.3116455078125 0.47625732421875
9442784375.0 -0.64837646484375 1.114990234375
9474006250.0 0.08740234375 1.21026611328125
9505228125.0 0.764373779296875 0.980712890625
9536450000.0 1.27337646484375 0.314453125
9567671875.0 1.14404296875 -0.57952880859375
9598893750.0 0.53094482421875 -1.06854248046875
9630115625.0 -0.1416015625 -1.15740966796875
9661337500.0 -0.815673828125 -0.902435302734375
9692559375.0 -1.23602294921875 -0.191162109375
9723781250.0 -1.0430908203125 0.6014404296875
9755003125.0 -0.48638916015625 1.049072265625
9786225000.0 0.19708251953125 1.15869140625
9817446875.0 0.893402099609375 0.828460693359375
9848668750.0 1.19805908203125 0.07989501953125
9879890625.0 0.968048095703125 -0.61492919921875
9911112500.0 0.45220947265625 -1.0509033203125
9942334375.0 -0.26678466796875 -1.1605224609375
9973556250.0 -0.94256591796875 -0.7381591796875
10004778125.0 -1.14599609375 -0.017822265625
10036000000.0 -0.944122314453125 0.616363525390625
10067221875.0 -0.44140625 1.097900390625
10098443750.0 0.36981201171875 1.1817626953125
10129665625.0 1.00335693359375 0.642822265625
10160887500.0 1.11962890625 -0.05126953125
10192109375.0 0.91754150390625 -0.66278076171875
10223331250.0 0.3614501953125 -1.1510009765625
10254553125.0 -0.4857177734375 -1.11395263671875
10285775000.0 -0.98455810546875 -0.53521728515625
10316996875.0 -1.06524658203125 0.074951171875
10348218750.0 -0.90045166015625 0.667877197265625
10379440625.0 -0.32354736328125 1.174072265625
10410662500.0 0.52667236328125 1.0849609375
10441884375.0 0.99072265625 0.522613525390625
10473106250.0 1.10858154296875 -0.082763671875
10504328125.0 0.949676513671875 -0.755340576171875
10535550000.0 0.24041748046875 -1.29315185546875
10566771875.0 -0.655029296875 -1.07623291015625
10597993750.0 -1.07855224609375 -0.46026611328125
10629215625.0 -1.1756591796875 0.20501708984375
10660437500.0 -0.887847900390625 0.95147705078125
10691659375.0 -0.00994873046875 1.3355712890625
10722881250.0 0.782012939453125 0.951995849609375
10754103125.0 1.11810302734375 0.32476806640625
10785325000.0 1.13909912109375 -0.36676025390625
10816546875.0 0.7010498046875 -1.04766845703125
10847768750.0 -0.1446533203125 -1.2286376953125
10878990625.0 -0.80194091796875 -0.84405517578125
10910212500.0 -1.12158203125 -0.2457275390625
10941434375.0 -1.09735107421875 0.47607421875
10972656250.0 -0.56878662109375 1.08416748046875
11003878125.0 0.2161865234375 1.1732177734375
11035100000.0 0.845855712890625 0.82244873046875
11066321875.0 1.22113037109375 0.173095703125
11097543750.0 1.09820556640625 -0.67498779296875
11128765625.0 0.38653564453125 -1.19842529296875
11159987500.0 -0.39569091796875 -1.1390380859375
11191209375.0 -1.0 -0.703277587890625
11222431250.0 -1.27178955078125 0.09326171875
11253653125.0 -0.85858154296875 0.89251708984375
11284875000.0 -0.115478515625 1.12554931640625
11316096875.0 0.510162353515625 0.956573486328125
11347318750.0 1.0028076171875 0.50262451171875
11378540625.0 1.11676025390625 -0.26873779296875
11409762500.0 0.635467529296875 -0.8583984375
11440984375.0 0.036224365234375 -0.977691650390625
11472206250.0 -0.480194091796875 -0.851287841796875
11503428125.0 -0.951416015625 -0.45672607421875
11534650000.0 -1.06829833984375 0.2882080078125
11565871875.0 -0.6026611328125 0.85400390625
11597093750.0 -0.01812744140625 0.9908447265625
11628315625.0 0.543731689453125 0.87432861328125
11659537500.0 1.05987548828125 0.39276123046875
11690759375.0 1.065185546875 -0.4342041015625
11721981250.0 0.517974853515625 -0.938262939453125
11753203125.0 -0.10479736328125 -1.0362548828125
11784425000.0 -0.725128173828125 -0.809326171875
11815646875.0 -1.09991455078125 -0.15185546875
11846868750.0 -0.8902587890625 0.55145263671875
11878090625.0 -0.391204833984375 0.90814208984375
11909312500.0 0.18499755859375 0.9844970703125
11940534375.0 0.77947998046875 0.69439697265625
11971756250.0 1.0240478515625 0.04010009765625
12002978125.0 0.806243896484375 -0.536468505859375
12034200000.0 0.3829345703125 -0.8875732421875
12065421875.0 -0.21575927734375 -1.010498046875
12096643750.0 -0.84600830078125 -0.665435791015625
12127865625.0 -1.03277587890625 0.0147705078125
12159087500.0 -0.815155029296875 0.57537841796875
12190309375.0 -0.377349853515625 0.97576904296875
12221531250.0 0.33929443359375 1.08734130859375
12252753125.0 0.9810791015625 0.580230712890625
12283975000.0 1.0528564453125 -0.12628173828125
12315196875.0 0.80133056640625 -0.676239013671875
12346418750.0 0.28240966796875 -1.0897216796875
12377640625.0 -0.53533935546875 -1.059814453125
12408862500.0 -1.0323486328125 -0.4197998046875
12440084375.0 -1.0084228515625 0.22515869140625
12471306250.0 -0.74224853515625 0.7369384765625
12502528125.0 -0.179443359375 1.12005615234375
12533750000.0 0.620819091796875 0.99365234375
12564971875.0 1.04193115234375 0.3638916015625
12596193750.0 1.02978515625 -0.264404296875
12627415625.0 0.7486572265625 -0.828887939453125
12658637500.0 0.0809326171875 -1.205810546875
12689859375.0 -0.735443115234375 -0.966644287109375
12721081250.0 -1.1171875 -0.3056640625
12752303125.0 -1.09765625 0.38232421875
12783525000.0 -0.68701171875 1.02593994140625
12814746875.0 0.1641845703125 1.24957275390625
12845968750.0 0.860809326171875 0.810943603515625
12877190625.0 1.11810302734375 0.17120361328125
12908412500.0 1.05535888671875 -0.50042724609375
12939634375.0 0.5426025390625 -1.1171875
12970856250.0 -0.3204345703125 -1.17449951171875
13002078125.0 -0.894561767578125 -0.693572998046875
13033300000.0 -1.104248046875 -0.08782958984375
13064521875.0 -1.00836181640625 0.59210205078125
13095743750.0 -0.4202880859375 1.15509033203125
13126965625.0 0.40814208984375 1.11993408203125
13158187500.0 0.945526123046875 0.6319580078125
13189409375.0 1.14849853515625 -0.0211181640625
13220631250.0 0.935882568359375 -0.747650146484375
13251853125.0 0.23468017578125 -1.16973876953125
13283075000.0 -0.50640869140625 -1.0194091796875
13314296875.0 -0.9857177734375 -0.529754638671875
