!Created with skrf (http://scikit-rf.org).
# Hz S RI R 50.0 
!freq ReS11 ImS11
45000000.0 -0.07704925537109375 -0.09692001342773438
76221875.0 -0.19625091552734375 -0.0475006103515625
107443750.0 -0.25469970703125 0.11962890625
138665625.0 -0.1479644775390625 0.3283538818359375
169887500.0 0.123565673828125 0.4171905517578125
201109375.0 0.4215850830078125 0.2805328369140625
232331250.0 0.57843017578125 -0.057708740234375
263553125.0 0.488983154296875 -0.452484130859375
294775000.0 0.09832763671875 -0.731781005859375
325996875.0 -0.415069580078125 -0.679656982421875
357218750.0 -0.805572509765625 -0.2967529296875
388440625.0 -0.88470458984375 0.30047607421875
419662500.0 -0.51654052734375 0.865478515625
450884375.0 0.1732177734375 1.0274658203125
482106250.0 0.797821044921875 0.7117919921875
513328125.0 1.11822509765625 0.08685302734375
544550000.0 1.00250244140625 -0.679443359375
575771875.0 0.336181640625 -1.237060546875
606993750.0 -0.55364990234375 -1.176025390625
638215625.0 -1.164794921875 -0.589599609375
669437500.0 -1.3385009765625 0.23358154296875
700659375.0 -0.96978759765625 1.09503173828125
731881250.0 -0.0032958984375 1.54180908203125
763103125.0 1.0050048828125 1.1541748046875
794325000.0 1.4669189453125 0.28094482421875
825546875.0 1.3656005859375 -0.65093994140625
856768750.0 0.7935791015625 -1.39825439453125
887990625.0 -0.29266357421875 -1.64599609375
919212500.0 -1.286376953125 -1.0771484375
950434375.0 -1.64605712890625 -0.05853271484375
981656250.0 -1.3804931640625 0.9447021484375
1012878125.0 -0.52899169921875 1.668701171875
1044100000.0 0.69598388671875 1.65924072265625
1075321875.0 1.57257080078125 0.81048583984375
1106543750.0 1.70220947265625 -0.3121337890625
1137765625.0 1.18450927734375 -1.28228759765625
1168987500.0 0.13763427734375 -1.79437255859375
1200209375.0 -1.06024169921875 -1.4810791015625
1231431250.0 -1.72467041015625 -0.45269775390625
1262653125.0 -1.59149169921875 0.68389892578125
1293875000.0 -0.85028076171875 1.48956298828125
1325096875.0 0.2279052734375 1.70391845703125
1356318750.0 1.23345947265625 1.2147216796875
1387540625.0 1.73699951171875 0.18853759765625
1418762500.0 1.46685791015625 -0.9508056640625
1449984375.0 0.52825927734375 -1.6234130859375
1481206250.0 -0.54913330078125 -1.55364990234375
1512428125.0 -1.340087890625 -0.9183349609375
1543650000.0 -1.6531982421875 0.06536865234375
1574871875.0 -1.27178955078125 1.10723876953125
1606093750.0 -0.2724609375 1.628662109375
1637315625.0 0.74102783203125 1.39813232421875
1668537500.0 1.39404296875 0.694580078125
1699759375.0 1.5706787109375 -0.2769775390625
1730981250.0 1.0626220703125 -1.2275390625
1762203125.0 0.04248046875 -1.567626953125
1793425000.0 -0.854736328125 -1.22430419921875
1824646875.0 -1.39129638671875 -0.51409912109375
1855868750.0 -1.471923828125 0.43194580078125
1887090625.0 -0.87384033203125 1.28363037109375
1918312500.0 0.11700439453125 1.4842529296875
1949534375.0 0.9197998046875 1.08758544921875
1980756250.0 1.37298583984375 0.36944580078125
2011978125.0 1.35791015625 -0.53118896484375
2043200000.0 0.74908447265625 -1.2596435546875
2074421875.0 -0.15679931640625 -1.4307861328125
2105643750.0 -0.958740234375 -1.07086181640625
2136865625.0 -1.44525146484375 -0.3045654296875
2168087500.0 -1.3548583984375 0.6700439453125
2199309375.0 -0.63812255859375 1.34906005859375
2230531250.0 0.28192138671875 1.4339599609375
2261753125.0 1.0711669921875 1.012451171875
2292975000.0 1.51226806640625 0.169921875
2324196875.0 1.3035888671875 -0.8177490234375
2355418750.0 0.52447509765625 -1.41778564453125
2386640625.0 -0.4039306640625 -1.44696044921875
2417862500.0 -1.1788330078125 -1.0223388671875
2449084375.0 -1.6019287109375 -0.0836181640625
2480306250.0 -1.30914306640625 0.92352294921875
2511528125.0 -0.49310302734375 1.5040283203125
2542750000.0 0.48687744140625 1.53338623046875
2573971875.0 1.36883544921875 0.96636962890625
2605193750.0 1.71319580078125 -0.11181640625
2636415625.0 1.25927734375 -1.15057373046875
2667637500.0 0.306396484375 -1.66357421875
2698859375.0 -0.76763916015625 -1.53143310546875
2730081250.0 -1.56988525390625 -0.739501953125
2761303125.0 -1.67755126953125 0.38720703125
2792525000.0 -1.0972900390625 1.30389404296875
2823746875.0 -0.1026611328125 1.7255859375
2854968750.0 1.0107421875 1.45245361328125
2886190625.0 1.68792724609375 0.490234375
2917412500.0 1.5968017578125 -0.6170654296875
2948634375.0 0.93701171875 -1.43048095703125
2979856250.0 -0.10772705078125 -1.77227783203125
3011078125.0 -1.24407958984375 -1.339111328125
3042300000.0 -1.7701416015625 -0.23577880859375
3073521875.0 -1.505859375 0.83551025390625
3104743750.0 -0.7620849609375 1.56622314453125
3135965625.0 0.3609619140625 1.80517578125
3167187500.0 1.49578857421875 1.16217041015625
3198409375.0 1.81201171875 -0.07513427734375
3229631250.0 1.3458251953125 -1.0784912109375
3260853125.0 0.48834228515625 -1.66571044921875
3292075000.0 -0.65338134765625 -1.69439697265625
3323296875.0 -1.6153564453125 -0.8779296875
3354518750.0 -1.7265625 0.32696533203125
3385740625.0 -1.15374755859375 1.229248046875
3416962500.0 -0.231201171875 1.67779541015625
3448184375.0 0.858642578125 1.51837158203125
3479406250.0 1.63177490234375 0.64312744140625
3510628125.0 1.64111328125 -0.4947509765625
3541850000.0 0.9984130859375 -1.35150146484375
3573071875.0 -0.00677490234375 -1.677978515625
3604293750.0 -1.023681640625 -1.3341064453125
3635515625.0 -1.6248779296875 -0.437744140625
3666737500.0 -1.55877685546875 0.64447021484375
3697959375.0 -0.82330322265625 1.47369384765625
3729181250.0 0.26739501953125 1.62701416015625
3760403125.0 1.1497802734375 1.0960693359375
3791625000.0 1.5494384765625 0.21795654296875
3822846875.0 1.3984375 -0.75909423828125
3854068750.0 0.6190185546875 -1.4786376953125
3885290625.0 -0.41937255859375 -1.4776611328125
3916512500.0 -1.1396484375 -0.90972900390625
3947734375.0 -1.4443359375 -0.119873046875
3978956250.0 -1.29461669921875 0.77630615234375
4010178125.0 -0.5306396484375 1.45074462890625
4041400000.0 0.47186279296875 1.4124755859375
4072621875.0 1.15008544921875 0.8463134765625
4103843750.0 1.44189453125 0.062744140625
4135065625.0 1.26568603515625 -0.84405517578125
4166287500.0 0.45751953125 -1.49188232421875
4197509375.0 -0.5556640625 -1.41241455078125
4228731250.0 -1.2457275390625 -0.80169677734375
4259953125.0 -1.50537109375 0.070068359375
4291175000.0 -1.1859130859375 1.00665283203125
4322396875.0 -0.28857421875 1.52325439453125
4353618750.0 0.6719970703125 1.34783935546875
4384840625.0 1.31976318359375 0.69635009765625
4416062500.0 1.498291015625 -0.226806640625
4447284375.0 1.05303955078125 -1.10162353515625
4478506250.0 0.1727294921875 -1.49298095703125
4509728125.0 -0.73101806640625 -1.3055419921875
4540950000.0 -1.390625 -0.635009765625
4572171875.0 -1.520263671875 0.35888671875
4603393750.0 -0.97161865234375 1.20928955078125
4634615625.0 -0.062255859375 1.533447265625
4665837500.0 0.86785888671875 1.30230712890625
4697059375.0 1.53778076171875 0.51507568359375
4728281250.0 1.5264892578125 -0.5816650390625
4759503125.0 0.82220458984375 -1.36376953125
4790725000.0 -0.1463623046875 -1.57135009765625
4821946875.0 -1.08203125 -1.19219970703125
4853168750.0 -1.61016845703125 -0.25103759765625
4884390625.0 -1.37646484375 0.79290771484375
4915612500.0 -0.613037109375 1.409912109375
4946834375.0 0.32745361328125 1.5064697265625
4978056250.0 1.203125 1.01568603515625
5009278125.0 1.557861328125 0.0406494140625
5040500000.0 1.22705078125 -0.87445068359375
5071721875.0 0.501220703125 -1.41204833984375
5102943750.0 -0.4453125 -1.494140625
5134165625.0 -1.33306884765625 -0.904541015625
5165387500.0 -1.56512451171875 0.1448974609375
5196609375.0 -1.13427734375 1.0068359375
5227831250.0 -0.3570556640625 1.5025634765625
5259053125.0 0.6873779296875 1.490234375
5290275000.0 1.5185546875 0.662841796875
5321496875.0 1.4901123046875 -0.42987060546875
5352718750.0 0.91986083984375 -1.1505126953125
5383940625.0 0.09686279296875 -1.4976806640625
5415162500.0 -0.89849853515625 -1.28167724609375
5446384375.0 -1.48187255859375 -0.37030029296875
5477606250.0 -1.29705810546875 0.5643310546875
5508828125.0 -0.7305908203125 1.1483154296875
5540050000.0 0.05364990234375 1.3958740234375
5571271875.0 0.93646240234375 1.10711669921875
5602493750.0 1.40643310546875 0.259521484375
5633715625.0 1.2296142578125 -0.61029052734375
5664937500.0 0.647705078125 -1.198974609375
5696159375.0 -0.19635009765625 -1.38165283203125
5727381250.0 -1.02056884765625 -0.9769287109375
5758603125.0 -1.38995361328125 -0.14520263671875
5789825000.0 -1.192626953125 0.71551513671875
5821046875.0 -0.50579833984375 1.3052978515625
5852268750.0 0.41015625 1.310791015625
5883490625.0 1.06903076171875 0.77142333984375
5914712500.0 1.30078125 0.0201416015625
5945934375.0 1.09466552734375 -0.77301025390625
5977156250.0 0.36181640625 -1.3094482421875
6008378125.0 -0.50811767578125 -1.18011474609375
6039600000.0 -1.01953125 -0.6485595703125
6070821875.0 -1.2215576171875 -0.00537109375
6102043750.0 -1.0814208984375 0.7608642578125
6133265625.0 -0.34185791015625 1.34326171875
6164487500.0 0.5626220703125 1.18621826171875
6195709375.0 1.06805419921875 0.62945556640625
6226931250.0 1.2781982421875 -0.0426025390625
6258153125.0 1.10272216796875 -0.86907958984375
6289375000.0 0.2564697265625 -1.4442138671875
6320596875.0 -0.68865966796875 -1.2047119140625
6351818750.0 -1.19671630859375 -0.571533203125
6383040625.0 -1.35235595703125 0.206298828125
6414262500.0 -0.99884033203125 1.05474853515625
6445484375.0 -0.078369140625 1.45526123046875
6476706250.0 0.7943115234375 1.147216796875
6507928125.0 1.28936767578125 0.46929931640625
6539150000.0 1.3455810546875 -0.385498046875
6570371875.0 0.84027099609375 -1.141845703125
6601593750.0 -0.0166015625 -1.40252685546875
6632815625.0 -0.83843994140625 -1.13525390625
6664037500.0 -1.39984130859375 -0.41961669921875
6695259375.0 -1.371826171875 0.564453125
6726481250.0 -0.70977783203125 1.250244140625
6757703125.0 0.1302490234375 1.40478515625
6788925000.0 0.9525146484375 1.1297607421875
6820146875.0 1.55792236328125 0.28826904296875
6851368750.0 1.3243408203125 -0.81787109375
6882590625.0 0.5059814453125 -1.33642578125
6913812500.0 -0.2911376953125 -1.35382080078125
6945034375.0 -1.0682373046875 -1.02105712890625
6976256250.0 -1.5897216796875 -0.09454345703125
7007478125.0 -1.23406982421875 0.9298095703125
7038700000.0 -0.4029541015625 1.338623046875
7069921875.0 0.35614013671875 1.32080078125
7101143750.0 1.1129150390625 0.96710205078125
7132365625.0 1.59722900390625 0.01336669921875
7163587500.0 1.1566162109375 -1.01910400390625
7194809375.0 0.30181884765625 -1.39605712890625
7226031250.0 -0.51025390625 -1.32342529296875
7257253125.0 -1.263916015625 -0.8233642578125
7288475000.0 -1.55633544921875 0.1978759765625
7319696875.0 -1.0284423828125 1.108642578125
7350918750.0 -0.1636962890625 1.4429931640625
7382140625.0 0.7154541015625 1.27484130859375
7413362500.0 1.372802734375 0.57623291015625
7444584375.0 1.40924072265625 -0.40411376953125
7475806250.0 0.85736083984375 -1.14044189453125
7507028125.0 0.007568359375 -1.42620849609375
7538250000.0 -0.884521484375 -1.12213134765625
7569471875.0 -1.33392333984375 -0.310546875
7600693750.0 -1.20050048828125 0.49542236328125
7631915625.0 -0.7178955078125 1.0821533203125
7663137500.0 0.079345703125 1.3564453125
7694359375.0 0.93450927734375 0.979278564453125
7725581250.0 1.2418212890625 0.18115234375
7756803125.0 1.08221435546875 -0.49847412109375
7788025000.0 0.669677734375 -1.04107666015625
7819246875.0 -0.1192626953125 -1.34539794921875
7850468750.0 -0.98931884765625 -0.914642333984375
7881690625.0 -1.22967529296875 -0.10540771484375
7912912500.0 -1.0533447265625 0.55377197265625
7944134375.0 -0.60516357421875 1.11181640625
7975356250.0 0.27020263671875 1.33404541015625
8006578125.0 1.04547119140625 0.77923583984375
8037800000.0 1.1923828125 0.01617431640625
8069021875.0 1.00543212890625 -0.61590576171875
8100243750.0 0.49993896484375 -1.158203125
8131465625.0 -0.385498046875 -1.25299072265625
8162687500.0 -1.0316162109375 -0.68621826171875
8193909375.0 -1.18017578125 0.0093994140625
8225131250.0 -1.0167236328125 0.6768798828125
8256353125.0 -0.42120361328125 1.24639892578125
8287575000.0 0.5001220703125 1.2254638671875
8318796875.0 1.08074951171875 0.63458251953125
8350018750.0 1.24334716796875 -0.07611083984375
8381240625.0 1.03070068359375 -0.8385009765625
8412462500.0 0.2535400390625 -1.37115478515625
8443684375.0 -0.668212890625 -1.16827392578125
8474906250.0 -1.17401123046875 -0.5328369140625
8506128125.0 -1.29681396484375 0.23736572265625
8537350000.0 -0.9239501953125 1.04364013671875
8568571875.0 -0.0174560546875 1.39276123046875
8599793750.0 0.79913330078125 1.0526123046875
8631015625.0 1.23785400390625 0.3992919921875
8662237500.0 1.2857666015625 -0.4295654296875
8693459375.0 0.735595703125 -1.17486572265625
8724681250.0 -0.1619873046875 -1.33111572265625
8755903125.0 -0.87744140625 -0.95654296875
8787125000.0 -1.301025390625 -0.28302001953125
8818346875.0 -1.249755859375 0.61370849609375
8849568750.0 -0.55682373046875 1.259765625
8880790625.0 0.296630859375 1.283203125
8912012500.0 0.977142333984375 0.8912353515625
8943234375.0 1.397705078125 0.12847900390625
8974456250.0 1.1658935546875 -0.83843994140625
9005678125.0 0.350341796875 -1.3104248046875
9036900000.0 -0.443603515625 -1.22369384765625
9068121875.0 -1.1019287109375 -0.78485107421875
9099343750.0 -1.43975830078125 0.0975341796875
9130565625.0 -0.97900390625 1.0106201171875
9161787500.0 -0.155517578125 1.2801513671875
9193009375.0 0.5556640625 1.1336669921875
9224231250.0 1.17791748046875 0.6544189453125
9255453125.0 1.3978271484375 -0.29400634765625
9286675000.0 0.80718994140625 -1.08465576171875
9317896875.0 0.02679443359375 -1.24566650390625
9349118750.0 -0.65362548828125 -1.06939697265625
9380340625.0 -1.2589111328125 -0.50927734375
9411562500.0 -1.3099365234375 0.47320556640625
9442784375.0 -0.64752197265625 1.11602783203125
9474006250.0 0.08709716796875 1.20843505859375
9505228125.0 0.76336669921875 0.97918701171875
9536450000.0 1.2701416015625 0.31317138671875
9567671875.0 1.14251708984375 -0.5784912109375
9598893750.0 0.5289306640625 -1.06781005859375
9630115625.0 -0.14208984375 -1.1553955078125
9661337500.0 -0.817535400390625 -0.901702880859375
9692559375.0 -1.23822021484375 -0.19097900390625
9723781250.0 -1.0426025390625 0.60205078125
9755003125.0 -0.48553466796875 1.050048828125
9786225000.0 0.1971435546875 1.15777587890625
9817446875.0 0.89385986328125 0.82794189453125
9848668750.0 1.196044921875 0.07879638671875
9879890625.0 0.967376708984375 -0.61431884765625
9911112500.0 0.45184326171875 -1.0506591796875
9942334375.0 -0.26629638671875 -1.15826416015625
9973556250.0 -0.941375732421875 -0.73846435546875
10004778125.0 -1.1468505859375 -0.0186767578125
10036000000.0 -0.943756103515625 0.615753173828125
10067221875.0 -0.44183349609375 1.09454345703125
10098443750.0 0.36968994140625 1.1807861328125
10129665625.0 1.0020751953125 0.6427001953125
10160887500.0 1.11895751953125 -0.0506591796875
10192109375.0 0.9173583984375 -0.66229248046875
10223331250.0 0.36175537109375 -1.149658203125
10254553125.0 -0.48486328125 -1.11260986328125
10285775000.0 -0.984832763671875 -0.535919189453125
10316996875.0 -1.06689453125 0.076416015625
10348218750.0 -0.89984130859375 0.668975830078125
10379440625.0 -0.3216552734375 1.173828125
10410662500.0 0.525146484375 1.08489990234375
10441884375.0 0.99041748046875 0.521575927734375
10473106250.0 1.107421875 -0.08294677734375
10504328125.0 0.948638916015625 -0.75537109375
10535550000.0 0.24139404296875 -1.2913818359375
10566771875.0 -0.6541748046875 -1.07666015625
10597993750.0 -1.07830810546875 -0.4593505859375
10629215625.0 -1.17315673828125 0.20367431640625
10660437500.0 -0.886993408203125 0.95086669921875
10691659375.0 -0.00982666015625 1.33447265625
10722881250.0 0.782196044921875 0.951416015625
10754103125.0 1.12030029296875 0.32318115234375
10785325000.0 1.13861083984375 -0.3660888671875
10816546875.0 0.70098876953125 -1.0478515625
10847768750.0 -0.14324951171875 -1.22735595703125
10878990625.0 -0.802764892578125 -0.84381103515625
10910212500.0 -1.120849609375 -0.24627685546875
10941434375.0 -1.09649658203125 0.47607421875
10972656250.0 -0.5682373046875 1.08477783203125
11003878125.0 0.2159423828125 1.17303466796875
11035100000.0 0.845855712890625 0.821014404296875
11066321875.0 1.2193603515625 0.17498779296875
11097543750.0 1.09783935546875 -0.677001953125
11128765625.0 0.38543701171875 -1.19891357421875
11159987500.0 -0.3961181640625 -1.13897705078125
11191209375.0 -0.998748779296875 -0.702423095703125
11222431250.0 -1.2716064453125 0.09307861328125
11253653125.0 -0.858245849609375 0.8912353515625
11284875000.0 -0.11553955078125 1.12432861328125
11316096875.0 0.5093994140625 0.955657958984375
11347318750.0 1.0020751953125 0.5018310546875
11378540625.0 1.11553955078125 -0.267578125
11409762500.0 0.634124755859375 -0.857421875
11440984375.0 0.037322998046875 -0.977325439453125
11472206250.0 -0.4779052734375 -0.85028076171875
11503428125.0 -0.95111083984375 -0.456390380859375
11534650000.0 -1.0689697265625 0.28729248046875
11565871875.0 -0.602447509765625 0.853179931640625
11597093750.0 -0.019073486328125 0.990325927734375
11628315625.0 0.543792724609375 0.87451171875
11659537500.0 1.0592041015625 0.392578125
11690759375.0 1.06396484375 -0.432861328125
11721981250.0 0.516815185546875 -0.939971923828125
11753203125.0 -0.10479736328125 -1.03472900390625
11784425000.0 -0.723236083984375 -0.807952880859375
11815646875.0 -1.09930419921875 -0.15185546875
11846868750.0 -0.890869140625 0.550201416015625
11878090625.0 -0.390960693359375 0.907989501953125
11909312500.0 0.18603515625 0.98406982421875
11940534375.0 0.78106689453125 0.69482421875
11971756250.0 1.02349853515625 0.03924560546875
12002978125.0 0.806182861328125 -0.536376953125
12034200000.0 0.38134765625 -0.8885498046875
12065421875.0 -0.21368408203125 -1.00860595703125
12096643750.0 -0.846923828125 -0.665802001953125
12127865625.0 -1.0338134765625 0.01629638671875
12159087500.0 -0.81512451171875 0.5755615234375
12190309375.0 -0.377655029296875 0.974029541015625
12221531250.0 0.3365478515625 1.0869140625
12252753125.0 0.97784423828125 0.582275390625
12283975000.0 1.05474853515625 -0.12890625
12315196875.0 0.80023193359375 -0.67559814453125
12346418750.0 0.28192138671875 -1.0899658203125
12377640625.0 -0.5386962890625 -1.0601806640625
12408862500.0 -1.03399658203125 -0.419921875
12440084375.0 -1.00762939453125 0.22454833984375
12471306250.0 -0.741912841796875 0.73687744140625
12502528125.0 -0.17950439453125 1.11968994140625
12533750000.0 0.6175537109375 0.99371337890625
12564971875.0 1.0399169921875 0.364501953125
12596193750.0 1.02899169921875 -0.26373291015625
12627415625.0 0.74713134765625 -0.827789306640625
12658637500.0 0.08154296875 -1.2049560546875
12689859375.0 -0.734710693359375 -0.965423583984375
12721081250.0 -1.11480712890625 -0.30609130859375
12752303125.0 -1.0958251953125 0.37896728515625
12783525000.0 -0.6866455078125 1.0264892578125
12814746875.0 0.1629638671875 1.2498779296875
12845968750.0 0.8616943359375 0.810882568359375
12877190625.0 1.1170654296875 0.17120361328125
12908412500.0 1.05450439453125 -0.4996337890625
12939634375.0 0.5443115234375 -1.1143798828125
12970856250.0 -0.31854248046875 -1.17425537109375
13002078125.0 -0.8931884765625 -0.693695068359375
13033300000.0 -1.1046142578125 -0.0872802734375
13064521875.0 -1.01007080078125 0.59130859375
13095743750.0 -0.4200439453125 1.15374755859375
13126965625.0 0.40765380859375 1.1202392578125
13158187500.0 0.945526123046875 0.631500244140625
13189409375.0 1.14788818359375 -0.02099609375
13220631250.0 0.935211181640625 -0.744720458984375
13251853125.0 0.23504638671875 -1.16949462890625
13283075000.0 -0.507568359375 -1.01934814453125
13314296875.0 -0.986297607421875 -0.529510498046875
13345518750.0 -1.1331787109375 0.17425537109375
