!Created with skrf (http://scikit-rf.org).
# Hz S RI R 50.0 
!freq ReS11 ImS11
45000000.0 -0.07718276977539062 -0.09679794311523438
76221875.0 -0.1965484619140625 -0.04730224609375
107443750.0 -0.25506591796875 0.1200103759765625
138665625.0 -0.147918701171875 0.3285980224609375
169887500.0 0.1238250732421875 0.41754150390625
201109375.0 0.422119140625 0.28076171875
232331250.0 0.579010009765625 -0.057861328125
263553125.0 0.4895172119140625 -0.4533233642578125
294775000.0 0.0980224609375 -0.732879638671875
325996875.0 -0.416015625 -0.680511474609375
357218750.0 -0.806793212890625 -0.29638671875
388440625.0 -0.885711669921875 0.301239013671875
419662500.0 -0.516876220703125 0.8671875
450884375.0 0.17388916015625 1.02874755859375
482106250.0 0.799163818359375 0.712310791015625
513328125.0 1.1197509765625 0.08642578125
544550000.0 1.00341796875 -0.68084716796875
575771875.0 0.3355712890625 -1.23870849609375
606993750.0 -0.5546875 -1.17694091796875
638215625.0 -1.1661376953125 -0.589599609375
669437500.0 -1.33953857421875 0.23455810546875
700659375.0 -0.97039794921875 1.0970458984375
731881250.0 -0.00274658203125 1.54302978515625
763103125.0 1.00628662109375 1.15545654296875
794325000.0 1.46893310546875 0.2808837890625
825546875.0 1.36700439453125 -0.652099609375
856768750.0 0.79425048828125 -1.40167236328125
887990625.0 -0.293701171875 -1.6480712890625
919212500.0 -1.28900146484375 -1.07781982421875
950434375.0 -1.648681640625 -0.05792236328125
981656250.0 -1.3822021484375 0.94696044921875
1012878125.0 -0.5286865234375 1.67193603515625
1044100000.0 0.69842529296875 1.6614990234375
1075321875.0 1.5755615234375 0.8106689453125
1106543750.0 1.704345703125 -0.3138427734375
1137765625.0 1.18560791015625 -1.28515625
1168987500.0 0.13653564453125 -1.79705810546875
1200209375.0 -1.0626220703125 -1.48248291015625
1231431250.0 -1.7276611328125 -0.45220947265625
1262653125.0 -1.593505859375 0.68487548828125
1293875000.0 -0.8509521484375 1.49151611328125
1325096875.0 0.22918701171875 1.70611572265625
1356318750.0 1.2349853515625 1.21588134765625
1387540625.0 1.739501953125 0.18768310546875
1418762500.0 1.46856689453125 -0.95196533203125
1449984375.0 0.52813720703125 -1.62603759765625
1481206250.0 -0.55078125 -1.55535888671875
1512428125.0 -1.34197998046875 -0.918701171875
1543650000.0 -1.65533447265625 0.06646728515625
1574871875.0 -1.27197265625 1.109375
1606093750.0 -0.271728515625 1.63104248046875
1637315625.0 0.742919921875 1.39959716796875
1668537500.0 1.39605712890625 0.6947021484375
1699759375.0 1.57196044921875 -0.27825927734375
1730981250.0 1.06298828125 -1.22930908203125
1762203125.0 0.0413818359375 -1.56988525390625
1793425000.0 -0.85589599609375 -1.225341796875
1824646875.0 -1.3929443359375 -0.513916015625
1855868750.0 -1.47344970703125 0.4326171875
1887090625.0 -0.8741455078125 1.28497314453125
1918312500.0 0.1175537109375 1.48614501953125
1949534375.0 0.92181396484375 1.08831787109375
1980756250.0 1.37493896484375 0.36920166015625
2011978125.0 1.3592529296875 -0.53253173828125
2043200000.0 0.74871826171875 -1.2615966796875
2074421875.0 -0.15765380859375 -1.43218994140625
2105643750.0 -0.96063232421875 -1.07135009765625
2136865625.0 -1.44720458984375 -0.3043212890625
2168087500.0 -1.35650634765625 0.671630859375
2199309375.0 -0.63818359375 1.3507080078125
2230531250.0 0.2823486328125 1.4351806640625
2261753125.0 1.07269287109375 1.012939453125
2292975000.0 1.5135498046875 0.16961669921875
2324196875.0 1.3048095703125 -0.81939697265625
2355418750.0 0.52447509765625 -1.4193115234375
2386640625.0 -0.40472412109375 -1.4478759765625
2417862500.0 -1.18121337890625 -1.0238037109375
2449084375.0 -1.6046142578125 -0.08331298828125
2480306250.0 -1.31011962890625 0.925537109375
2511528125.0 -0.49267578125 1.5074462890625
2542750000.0 0.48907470703125 1.53509521484375
2573971875.0 1.36981201171875 0.9669189453125
2605193750.0 1.71649169921875 -0.11328125
2636415625.0 1.2606201171875 -1.153076171875
2667637500.0 0.30523681640625 -1.6678466796875
2698859375.0 -0.76953125 -1.532470703125
2730081250.0 -1.573974609375 -0.739013671875
2761303125.0 -1.67987060546875 0.38897705078125
2792525000.0 -1.09771728515625 1.30694580078125
2823746875.0 -0.10125732421875 1.7294921875
2854968750.0 1.01251220703125 1.4541015625
2886190625.0 1.69061279296875 0.490966796875
2917412500.0 1.59906005859375 -0.61883544921875
2948634375.0 0.93853759765625 -1.43359375
2979856250.0 -0.1082763671875 -1.77508544921875
3011078125.0 -1.24835205078125 -1.34130859375
3042300000.0 -1.7738037109375 -0.23382568359375
3073521875.0 -1.50732421875 0.83917236328125
3104743750.0 -0.76226806640625 1.5684814453125
3135965625.0 0.3619384765625 1.80780029296875
3167187500.0 1.49884033203125 1.16253662109375
3198409375.0 1.81561279296875 -0.07672119140625
3229631250.0 1.34735107421875 -1.08123779296875
3260853125.0 0.48828125 -1.66680908203125
3292075000.0 -0.65521240234375 -1.69635009765625
3323296875.0 -1.61810302734375 -0.8780517578125
3354518750.0 -1.72900390625 0.329833984375
3385740625.0 -1.15435791015625 1.2315673828125
3416962500.0 -0.23095703125 1.680419921875
3448184375.0 0.8604736328125 1.5198974609375
3479406250.0 1.635009765625 0.642822265625
3510628125.0 1.64227294921875 -0.49468994140625
3541850000.0 0.99945068359375 -1.35491943359375
3573071875.0 -0.008056640625 -1.681396484375
3604293750.0 -1.0283203125 -1.33612060546875
3635515625.0 -1.62750244140625 -0.437255859375
3666737500.0 -1.56060791015625 0.64703369140625
3697959375.0 -0.82354736328125 1.47503662109375
3729181250.0 0.26861572265625 1.62933349609375
3760403125.0 1.1536865234375 1.097412109375
3791625000.0 1.55084228515625 0.21759033203125
3822846875.0 1.400146484375 -0.76080322265625
3854068750.0 0.619384765625 -1.48016357421875
3885290625.0 -0.42095947265625 -1.47979736328125
3916512500.0 -1.14215087890625 -0.90966796875
3947734375.0 -1.446044921875 -0.11932373046875
3978956250.0 -1.29608154296875 0.77813720703125
4010178125.0 -0.53082275390625 1.453125
4041400000.0 0.47271728515625 1.41424560546875
4072621875.0 1.15179443359375 0.84698486328125
4103843750.0 1.443359375 0.06292724609375
4135065625.0 1.2674560546875 -0.8460693359375
4166287500.0 0.4576416015625 -1.49530029296875
4197509375.0 -0.55767822265625 -1.41424560546875
4228731250.0 -1.24664306640625 -0.80206298828125
4259953125.0 -1.5079345703125 0.07098388671875
4291175000.0 -1.1873779296875 1.00958251953125
4322396875.0 -0.28863525390625 1.5252685546875
4353618750.0 0.67401123046875 1.34912109375
4384840625.0 1.32232666015625 0.6961669921875
4416062500.0 1.4993896484375 -0.22833251953125
4447284375.0 1.0540771484375 -1.1016845703125
4478506250.0 0.17181396484375 -1.49493408203125
4509728125.0 -0.73175048828125 -1.3062744140625
4540950000.0 -1.3931884765625 -0.635009765625
4572171875.0 -1.521240234375 0.35931396484375
4603393750.0 -0.97149658203125 1.21295166015625
4634615625.0 -0.06158447265625 1.53564453125
4665837500.0 0.87109375 1.30364990234375
4697059375.0 1.54095458984375 0.5145263671875
4728281250.0 1.52850341796875 -0.58319091796875
4759503125.0 0.82257080078125 -1.36602783203125
4790725000.0 -0.145263671875 -1.57147216796875
4821946875.0 -1.08380126953125 -1.19366455078125
4853168750.0 -1.61273193359375 -0.25006103515625
4884390625.0 -1.37689208984375 0.79302978515625
4915612500.0 -0.6123046875 1.4124755859375
4946834375.0 0.32818603515625 1.50811767578125
4978056250.0 1.20428466796875 1.01611328125
5009278125.0 1.5599365234375 0.04034423828125
5040500000.0 1.22796630859375 -0.8751220703125
5071721875.0 0.50103759765625 -1.4134521484375
5102943750.0 -0.44708251953125 -1.49603271484375
5134165625.0 -1.33544921875 -0.90472412109375
5165387500.0 -1.5665283203125 0.14544677734375
5196609375.0 -1.1356201171875 1.00885009765625
5227831250.0 -0.3568115234375 1.50592041015625
5259053125.0 0.68780517578125 1.49127197265625
5290275000.0 1.52099609375 0.66265869140625
5321496875.0 1.4921875 -0.4312744140625
5352718750.0 0.9205322265625 -1.15338134765625
5383940625.0 0.09661865234375 -1.4996337890625
5415162500.0 -0.8997802734375 -1.28338623046875
5446384375.0 -1.4825439453125 -0.3704833984375
5477606250.0 -1.29827880859375 0.56658935546875
5508828125.0 -0.73040771484375 1.15087890625
5540050000.0 0.05401611328125 1.397705078125
5571271875.0 0.93756103515625 1.10784912109375
5602493750.0 1.4078369140625 0.25982666015625
5633715625.0 1.2310791015625 -0.612060546875
5664937500.0 0.64813232421875 -1.19989013671875
5696159375.0 -0.1961669921875 -1.3822021484375
5727381250.0 -1.0218505859375 -0.97760009765625
5758603125.0 -1.3902587890625 -0.14544677734375
5789825000.0 -1.19378662109375 0.71746826171875
5821046875.0 -0.50653076171875 1.30621337890625
5852268750.0 0.41143798828125 1.3128662109375
5883490625.0 1.07122802734375 0.77142333984375
5914712500.0 1.30291748046875 0.018798828125
5945934375.0 1.095947265625 -0.7757568359375
5977156250.0 0.36077880859375 -1.311767578125
6008378125.0 -0.51019287109375 -1.182373046875
6039600000.0 -1.021728515625 -0.64849853515625
6070821875.0 -1.22308349609375 -0.00421142578125
6102043750.0 -1.0828857421875 0.76202392578125
6133265625.0 -0.342041015625 1.343994140625
6164487500.0 0.56201171875 1.18670654296875
6195709375.0 1.07000732421875 0.62957763671875
6226931250.0 1.2794189453125 -0.04266357421875
6258153125.0 1.1044921875 -0.87078857421875
6289375000.0 0.2559814453125 -1.44635009765625
6320596875.0 -0.68853759765625 -1.20556640625
6351818750.0 -1.20074462890625 -0.57196044921875
6383040625.0 -1.35394287109375 0.20672607421875
6414262500.0 -0.99951171875 1.05584716796875
6445484375.0 -0.0784912109375 1.45648193359375
6476706250.0 0.79559326171875 1.14776611328125
6507928125.0 1.29071044921875 0.4700927734375
6539150000.0 1.34686279296875 -0.38629150390625
6570371875.0 0.840576171875 -1.14398193359375
6601593750.0 -0.0184326171875 -1.40484619140625
6632815625.0 -0.8402099609375 -1.1358642578125
6664037500.0 -1.4010009765625 -0.4195556640625
6695259375.0 -1.373291015625 0.56585693359375
6726481250.0 -0.709716796875 1.2508544921875
6757703125.0 0.12994384765625 1.405517578125
6788925000.0 0.95501708984375 1.13055419921875
6820146875.0 1.55950927734375 0.2880859375
6851368750.0 1.32598876953125 -0.81915283203125
6882590625.0 0.50634765625 -1.338623046875
6913812500.0 -0.29217529296875 -1.3564453125
6945034375.0 -1.0701904296875 -1.021728515625
6976256250.0 -1.59271240234375 -0.09295654296875
7007478125.0 -1.2354736328125 0.9306640625
7038700000.0 -0.40185546875 1.34381103515625
7069921875.0 0.36004638671875 1.3236083984375
7101143750.0 1.11895751953125 0.9676513671875
7132365625.0 1.59765625 0.0152587890625
7163587500.0 1.15643310546875 -1.022216796875
7194809375.0 0.3018798828125 -1.39801025390625
7226031250.0 -0.51263427734375 -1.32562255859375
7257253125.0 -1.2652587890625 -0.82550048828125
7288475000.0 -1.55877685546875 0.199462890625
7319696875.0 -1.0286865234375 1.1075439453125
7350918750.0 -0.1634521484375 1.4451904296875
7382140625.0 0.7147216796875 1.27618408203125
7413362500.0 1.377197265625 0.5767822265625
7444584375.0 1.41265869140625 -0.40789794921875
7475806250.0 0.857421875 -1.1434326171875
7507028125.0 0.0057373046875 -1.4293212890625
7538250000.0 -0.88861083984375 -1.1239013671875
7569471875.0 -1.3348388671875 -0.310791015625
7600693750.0 -1.202392578125 0.497314453125
7631915625.0 -0.7177734375 1.08447265625
7663137500.0 0.0811767578125 1.35894775390625
7694359375.0 0.9388427734375 0.980224609375
7725581250.0 1.24359130859375 0.18048095703125
7756803125.0 1.082763671875 -0.49969482421875
7788025000.0 0.67047119140625 -1.04229736328125
7819246875.0 -0.1201171875 -1.34637451171875
7850468750.0 -0.993438720703125 -0.9156494140625
7881690625.0 -1.2314453125 -0.104248046875
7912912500.0 -1.054443359375 0.554443359375
7944134375.0 -0.6053466796875 1.1119384765625
7975356250.0 0.270751953125 1.33502197265625
8006578125.0 1.04754638671875 0.778564453125
8037800000.0 1.1944580078125 0.01641845703125
8069021875.0 1.00665283203125 -0.61846923828125
8100243750.0 0.49957275390625 -1.16162109375
8131465625.0 -0.38800048828125 -1.254638671875
8162687500.0 -1.032470703125 -0.68670654296875
8193909375.0 -1.18072509765625 0.00823974609375
8225131250.0 -1.0177001953125 0.6788330078125
8256353125.0 -0.42230224609375 1.2489013671875
8287575000.0 0.5008544921875 1.22589111328125
8318796875.0 1.080322265625 0.6351318359375
8350018750.0 1.24395751953125 -0.07470703125
8381240625.0 1.03167724609375 -0.838623046875
8412462500.0 0.25335693359375 -1.3731689453125
8443684375.0 -0.66888427734375 -1.17120361328125
8474906250.0 -1.17535400390625 -0.5321044921875
8506128125.0 -1.29949951171875 0.23687744140625
8537350000.0 -0.92425537109375 1.0452880859375
8568571875.0 -0.01678466796875 1.39483642578125
8599793750.0 0.8038330078125 1.0533447265625
8631015625.0 1.24072265625 0.39825439453125
8662237500.0 1.28466796875 -0.42779541015625
8693459375.0 0.736083984375 -1.17901611328125
8724681250.0 -0.162109375 -1.3319091796875
8755903125.0 -0.87939453125 -0.956787109375
8787125000.0 -1.302490234375 -0.28192138671875
8818346875.0 -1.25006103515625 0.61444091796875
8849568750.0 -0.556396484375 1.26171875
8880790625.0 0.29888916015625 1.28472900390625
8912012500.0 0.98046875 0.892608642578125
8943234375.0 1.3995361328125 0.12933349609375
8974456250.0 1.16693115234375 -0.838134765625
9005678125.0 0.34832763671875 -1.31524658203125
9036900000.0 -0.44482421875 -1.22564697265625
9068121875.0 -1.102783203125 -0.78662109375
9099343750.0 -1.4415283203125 0.0958251953125
9130565625.0 -0.9803466796875 1.01116943359375
9161787500.0 -0.15460205078125 1.28253173828125
9193009375.0 0.556884765625 1.13433837890625
9224231250.0 1.17938232421875 0.65460205078125
9255453125.0 1.3992919921875 -0.2972412109375
9286675000.0 0.80743408203125 -1.08489990234375
9317896875.0 0.02813720703125 -1.2452392578125
9349118750.0 -0.65447998046875 -1.06884765625
9380340625.0 -1.25604248046875 -0.50994873046875
9411562500.0 -1.3109130859375 0.47698974609375
9442784375.0 -0.64837646484375 1.1163330078125
9474006250.0 0.0887451171875 1.2100830078125
9505228125.0 0.763641357421875 0.980499267578125
9536450000.0 1.27392578125 0.31268310546875
9567671875.0 1.14373779296875 -0.58013916015625
9598893750.0 0.5294189453125 -1.06927490234375
9630115625.0 -0.1441650390625 -1.1590576171875
9661337500.0 -0.820281982421875 -0.9027099609375
9692559375.0 -1.23992919921875 -0.19012451171875
9723781250.0 -1.0435791015625 0.60260009765625
9755003125.0 -0.48663330078125 1.0509033203125
9786225000.0 0.197998046875 1.1597900390625
9817446875.0 0.894866943359375 0.82733154296875
9848668750.0 1.19757080078125 0.07861328125
9879890625.0 0.967559814453125 -0.614288330078125
9911112500.0 0.45233154296875 -1.05078125
9942334375.0 -0.26739501953125 -1.1595458984375
9973556250.0 -0.9447021484375 -0.737396240234375
10004778125.0 -1.14581298828125 -0.017333984375
10036000000.0 -0.94451904296875 0.615081787109375
10067221875.0 -0.44207763671875 1.09588623046875
10098443750.0 0.36968994140625 1.181884765625
10129665625.0 1.00445556640625 0.6427001953125
10160887500.0 1.11907958984375 -0.05108642578125
10192109375.0 0.91778564453125 -0.661956787109375
10223331250.0 0.36175537109375 -1.15234375
10254553125.0 -0.4849853515625 -1.11334228515625
10285775000.0 -0.986175537109375 -0.536773681640625
10316996875.0 -1.06793212890625 0.07708740234375
10348218750.0 -0.899658203125 0.6695556640625
10379440625.0 -0.32159423828125 1.1763916015625
10410662500.0 0.52716064453125 1.08526611328125
10441884375.0 0.9903564453125 0.52252197265625
10473106250.0 1.1094970703125 -0.08489990234375
10504328125.0 0.949493408203125 -0.755828857421875
10535550000.0 0.240966796875 -1.29388427734375
10566771875.0 -0.6568603515625 -1.0771484375
10597993750.0 -1.08050537109375 -0.459716796875
10629215625.0 -1.17578125 0.2049560546875
10660437500.0 -0.88775634765625 0.951202392578125
10691659375.0 -0.0106201171875 1.33575439453125
10722881250.0 0.786712646484375 0.953155517578125
10754103125.0 1.12115478515625 0.32415771484375
10785325000.0 1.1387939453125 -0.3668212890625
10816546875.0 0.70123291015625 -1.0487060546875
10847768750.0 -0.14666748046875 -1.2301025390625
10878990625.0 -0.803863525390625 -0.84429931640625
10910212500.0 -1.1243896484375 -0.2457275390625
10941434375.0 -1.0975341796875 0.47723388671875
10972656250.0 -0.56768798828125 1.0849609375
11003878125.0 0.21661376953125 1.1732177734375
11035100000.0 0.848175048828125 0.822021484375
11066321875.0 1.2205810546875 0.17462158203125
11097543750.0 1.09869384765625 -0.6761474609375
11128765625.0 0.3857421875 -1.19976806640625
11159987500.0 -0.39697265625 -1.14013671875
11191209375.0 -1.0001220703125 -0.702392578125
11222431250.0 -1.27197265625 0.092529296875
11253653125.0 -0.858551025390625 0.895355224609375
11284875000.0 -0.11480712890625 1.125732421875
11316096875.0 0.51190185546875 0.95770263671875
11347318750.0 1.00274658203125 0.50262451171875
11378540625.0 1.11724853515625 -0.26861572265625
11409762500.0 0.636077880859375 -0.859039306640625
11440984375.0 0.03509521484375 -0.9793701171875
11472206250.0 -0.479827880859375 -0.850128173828125
11503428125.0 -0.951995849609375 -0.456695556640625
11534650000.0 -1.0693359375 0.28973388671875
11565871875.0 -0.60235595703125 0.8546142578125
11597093750.0 -0.01947021484375 0.9901123046875
11628315625.0 0.544586181640625 0.8751220703125
11659537500.0 1.05877685546875 0.3927001953125
11690759375.0 1.0653076171875 -0.434326171875
11721981250.0 0.517852783203125 -0.938873291015625
11753203125.0 -0.105224609375 -1.03643798828125
11784425000.0 -0.724212646484375 -0.808807373046875
11815646875.0 -1.1009521484375 -0.15167236328125
11846868750.0 -0.891876220703125 0.5523681640625
11878090625.0 -0.39093017578125 0.90972900390625
11909312500.0 0.186859130859375 0.985137939453125
11940534375.0 0.78192138671875 0.69537353515625
11971756250.0 1.024658203125 0.040283203125
12002978125.0 0.80657958984375 -0.53826904296875
12034200000.0 0.38165283203125 -0.889312744140625
12065421875.0 -0.21636962890625 -1.01080322265625
12096643750.0 -0.847442626953125 -0.66583251953125
12127865625.0 -1.0325927734375 0.014404296875
12159087500.0 -0.8148193359375 0.5748291015625
12190309375.0 -0.377655029296875 0.975433349609375
12221531250.0 0.3377685546875 1.0877685546875
12252753125.0 0.980133056640625 0.58203125
12283975000.0 1.054443359375 -0.12762451171875
12315196875.0 0.80084228515625 -0.67828369140625
12346418750.0 0.28179931640625 -1.09161376953125
12377640625.0 -0.53900146484375 -1.06182861328125
12408862500.0 -1.03289794921875 -0.4200439453125
12440084375.0 -1.00897216796875 0.22503662109375
12471306250.0 -0.74176025390625 0.737060546875
12502528125.0 -0.17889404296875 1.12158203125
12533750000.0 0.61993408203125 0.993377685546875
12564971875.0 1.0418701171875 0.36431884765625
12596193750.0 1.0299072265625 -0.26434326171875
12627415625.0 0.7489013671875 -0.829132080078125
12658637500.0 0.0794677734375 -1.20574951171875
12689859375.0 -0.734832763671875 -0.965972900390625
12721081250.0 -1.11773681640625 -0.30657958984375
12752303125.0 -1.098388671875 0.38165283203125
12783525000.0 -0.6875 1.02667236328125
12814746875.0 0.1641845703125 1.25054931640625
12845968750.0 0.863861083984375 0.811614990234375
12877190625.0 1.11865234375 0.17169189453125
12908412500.0 1.05621337890625 -0.5025634765625
12939634375.0 0.5435791015625 -1.11749267578125
12970856250.0 -0.32049560546875 -1.17578125
13002078125.0 -0.89324951171875 -0.6943359375
13033300000.0 -1.10760498046875 -0.085693359375
13064521875.0 -1.0087890625 0.5924072265625
13095743750.0 -0.4195556640625 1.15704345703125
13126965625.0 0.40936279296875 1.12091064453125
13158187500.0 0.946044921875 0.632476806640625
13189409375.0 1.14971923828125 -0.02294921875
13220631250.0 0.936004638671875 -0.7481689453125
13251853125.0 0.23388671875 -1.17218017578125
13283075000.0 -0.50640869140625 -1.02081298828125
13314296875.0 -0.98663330078125 -0.53076171875
13345518750.0 -1.13543701171875 0.1759033203125
