!Created with skrf (http://scikit-rf.org).
# Hz S RI R 50.0 
!freq ReS11 ImS11
45000000.0 -0.07715606689453125 -0.096588134765625
76221875.0 -0.196563720703125 -0.04747772216796875
107443750.0 -0.255096435546875 0.1197662353515625
138665625.0 -0.14794921875 0.3288116455078125
169887500.0 0.123870849609375 0.417449951171875
201109375.0 0.4220123291015625 0.280914306640625
232331250.0 0.57891845703125 -0.05780029296875
263553125.0 0.4893341064453125 -0.452789306640625
294775000.0 0.09814453125 -0.7327880859375
325996875.0 -0.415985107421875 -0.6806640625
357218750.0 -0.8067626953125 -0.29669189453125
388440625.0 -0.885589599609375 0.301025390625
419662500.0 -0.516937255859375 0.866668701171875
450884375.0 0.17376708984375 1.02874755859375
482106250.0 0.79888916015625 0.712310791015625
513328125.0 1.1195068359375 0.08660888671875
544550000.0 1.00347900390625 -0.68035888671875
575771875.0 0.335693359375 -1.23846435546875
606993750.0 -0.554443359375 -1.17681884765625
638215625.0 -1.166015625 -0.58984375
669437500.0 -1.339599609375 0.2342529296875
700659375.0 -0.9703369140625 1.09613037109375
731881250.0 -0.00323486328125 1.54278564453125
763103125.0 1.00604248046875 1.155029296875
794325000.0 1.468505859375 0.2813720703125
825546875.0 1.36669921875 -0.65179443359375
856768750.0 0.7940673828125 -1.4010009765625
887990625.0 -0.29351806640625 -1.648193359375
919212500.0 -1.2884521484375 -1.0777587890625
950434375.0 -1.64813232421875 -0.05816650390625
981656250.0 -1.38214111328125 0.94610595703125
1012878125.0 -0.5291748046875 1.67132568359375
1044100000.0 0.6971435546875 1.66094970703125
1075321875.0 1.57452392578125 0.81085205078125
1106543750.0 1.70440673828125 -0.31365966796875
1137765625.0 1.18560791015625 -1.28466796875
1168987500.0 0.13739013671875 -1.79656982421875
1200209375.0 -1.0618896484375 -1.48309326171875
1231431250.0 -1.72698974609375 -0.4525146484375
1262653125.0 -1.593017578125 0.68487548828125
1293875000.0 -0.8505859375 1.49151611328125
1325096875.0 0.228515625 1.705810546875
1356318750.0 1.23541259765625 1.2156982421875
1387540625.0 1.73876953125 0.1884765625
1418762500.0 1.46844482421875 -0.951904296875
1449984375.0 0.52862548828125 -1.625244140625
1481206250.0 -0.55047607421875 -1.555419921875
1512428125.0 -1.34185791015625 -0.91845703125
1543650000.0 -1.65472412109375 0.06591796875
1574871875.0 -1.2724609375 1.1090087890625
1606093750.0 -0.27203369140625 1.6307373046875
1637315625.0 0.74285888671875 1.3995361328125
1668537500.0 1.39581298828125 0.6949462890625
1699759375.0 1.57244873046875 -0.27789306640625
1730981250.0 1.06298828125 -1.22900390625
1762203125.0 0.04132080078125 -1.56982421875
1793425000.0 -0.85546875 -1.22528076171875
1824646875.0 -1.39276123046875 -0.5146484375
1855868750.0 -1.47296142578125 0.4322509765625
1887090625.0 -0.87420654296875 1.2845458984375
1918312500.0 0.11773681640625 1.486572265625
1949534375.0 0.92108154296875 1.08843994140625
1980756250.0 1.37457275390625 0.36932373046875
2011978125.0 1.35888671875 -0.5313720703125
2043200000.0 0.749267578125 -1.26123046875
2074421875.0 -0.1572265625 -1.43255615234375
2105643750.0 -0.9599609375 -1.07147216796875
2136865625.0 -1.44659423828125 -0.30438232421875
2168087500.0 -1.35601806640625 0.6710205078125
2199309375.0 -0.6380615234375 1.3507080078125
2230531250.0 0.28240966796875 1.43505859375
2261753125.0 1.0723876953125 1.01318359375
2292975000.0 1.5133056640625 0.1697998046875
2324196875.0 1.30462646484375 -0.81866455078125
2355418750.0 0.524658203125 -1.4193115234375
2386640625.0 -0.40460205078125 -1.44830322265625
2417862500.0 -1.17950439453125 -1.0235595703125
2449084375.0 -1.604736328125 -0.0836181640625
2480306250.0 -1.310546875 0.92633056640625
2511528125.0 -0.4927978515625 1.50701904296875
2542750000.0 0.48822021484375 1.53515625
2573971875.0 1.3709716796875 0.9671630859375
2605193750.0 1.71563720703125 -0.11248779296875
2636415625.0 1.260498046875 -1.1527099609375
2667637500.0 0.30633544921875 -1.66534423828125
2698859375.0 -0.7696533203125 -1.53265380859375
2730081250.0 -1.57196044921875 -0.73956298828125
2761303125.0 -1.68023681640625 0.387939453125
2792525000.0 -1.0987548828125 1.3074951171875
2823746875.0 -0.10162353515625 1.7281494140625
2854968750.0 1.01171875 1.4542236328125
2886190625.0 1.69097900390625 0.48992919921875
2917412500.0 1.59796142578125 -0.616943359375
2948634375.0 0.938232421875 -1.4327392578125
2979856250.0 -0.108154296875 -1.77490234375
3011078125.0 -1.247314453125 -1.34149169921875
3042300000.0 -1.77288818359375 -0.23443603515625
3073521875.0 -1.507080078125 0.837890625
3104743750.0 -0.76239013671875 1.568603515625
3135965625.0 0.3612060546875 1.8076171875
3167187500.0 1.49822998046875 1.16314697265625
3198409375.0 1.814697265625 -0.07586669921875
3229631250.0 1.34735107421875 -1.0806884765625
3260853125.0 0.48895263671875 -1.667724609375
3292075000.0 -0.65496826171875 -1.696044921875
3323296875.0 -1.61932373046875 -0.8782958984375
3354518750.0 -1.72760009765625 0.32769775390625
3385740625.0 -1.1546630859375 1.2318115234375
3416962500.0 -0.23101806640625 1.6795654296875
3448184375.0 0.860595703125 1.52081298828125
3479406250.0 1.63494873046875 0.6431884765625
3510628125.0 1.64306640625 -0.49493408203125
3541850000.0 0.99951171875 -1.3543701171875
3573071875.0 -0.00799560546875 -1.68121337890625
3604293750.0 -1.02716064453125 -1.33648681640625
3635515625.0 -1.62664794921875 -0.43804931640625
3666737500.0 -1.56024169921875 0.6455078125
3697959375.0 -0.82427978515625 1.475341796875
3729181250.0 0.26885986328125 1.62945556640625
3760403125.0 1.15240478515625 1.096435546875
3791625000.0 1.5509033203125 0.21746826171875
3822846875.0 1.39996337890625 -0.7593994140625
3854068750.0 0.61932373046875 -1.48052978515625
3885290625.0 -0.421875 -1.47991943359375
3916512500.0 -1.141357421875 -0.91015625
3947734375.0 -1.4466552734375 -0.11920166015625
3978956250.0 -1.29638671875 0.779296875
4010178125.0 -0.5306396484375 1.4532470703125
4041400000.0 0.47265625 1.4136962890625
4072621875.0 1.15179443359375 0.84716796875
4103843750.0 1.4429931640625 0.06365966796875
4135065625.0 1.26715087890625 -0.84576416015625
4166287500.0 0.45733642578125 -1.4949951171875
4197509375.0 -0.5577392578125 -1.4141845703125
4228731250.0 -1.24676513671875 -0.802490234375
4259953125.0 -1.5081787109375 0.071044921875
4291175000.0 -1.18743896484375 1.00994873046875
4322396875.0 -0.2884521484375 1.525390625
4353618750.0 0.671875 1.34869384765625
4384840625.0 1.32122802734375 0.6966552734375
4416062500.0 1.49981689453125 -0.227783203125
4447284375.0 1.053955078125 -1.10369873046875
4478506250.0 0.1722412109375 -1.49365234375
4509728125.0 -0.7313232421875 -1.30694580078125
4540950000.0 -1.3922119140625 -0.6357421875
4572171875.0 -1.52130126953125 0.3597412109375
4603393750.0 -0.9720458984375 1.2113037109375
4634615625.0 -0.06195068359375 1.5355224609375
4665837500.0 0.8682861328125 1.30364990234375
4697059375.0 1.53948974609375 0.51507568359375
4728281250.0 1.5284423828125 -0.58428955078125
4759503125.0 0.82220458984375 -1.366455078125
4790725000.0 -0.14599609375 -1.57244873046875
4821946875.0 -1.0830078125 -1.19305419921875
4853168750.0 -1.6134033203125 -0.25048828125
4884390625.0 -1.37701416015625 0.79248046875
4915612500.0 -0.6126708984375 1.411376953125
4946834375.0 0.328857421875 1.50799560546875
4978056250.0 1.20477294921875 1.016357421875
5009278125.0 1.5595703125 0.03973388671875
5040500000.0 1.227783203125 -0.87457275390625
5071721875.0 0.5013427734375 -1.41375732421875
5102943750.0 -0.44500732421875 -1.49530029296875
5134165625.0 -1.33514404296875 -0.9053955078125
5165387500.0 -1.56756591796875 0.14599609375
5196609375.0 -1.1358642578125 1.0086669921875
5227831250.0 -0.35687255859375 1.50592041015625
5259053125.0 0.6871337890625 1.49127197265625
5290275000.0 1.5208740234375 0.66229248046875
5321496875.0 1.49066162109375 -0.42919921875
5352718750.0 0.92047119140625 -1.15301513671875
5383940625.0 0.09765625 -1.49859619140625
5415162500.0 -0.899658203125 -1.28240966796875
5446384375.0 -1.4835205078125 -0.36981201171875
5477606250.0 -1.29827880859375 0.56549072265625
5508828125.0 -0.73077392578125 1.1502685546875
5540050000.0 0.05322265625 1.39697265625
5571271875.0 0.93817138671875 1.10833740234375
5602493750.0 1.4078369140625 0.2596435546875
5633715625.0 1.23101806640625 -0.61083984375
5664937500.0 0.64794921875 -1.20013427734375
5696159375.0 -0.19696044921875 -1.38323974609375
5727381250.0 -1.02056884765625 -0.97821044921875
5758603125.0 -1.39056396484375 -0.14569091796875
5789825000.0 -1.19342041015625 0.71649169921875
5821046875.0 -0.50604248046875 1.30694580078125
5852268750.0 0.41107177734375 1.3128662109375
5883490625.0 1.07000732421875 0.77197265625
5914712500.0 1.3011474609375 0.01995849609375
5945934375.0 1.09576416015625 -0.77545166015625
5977156250.0 0.36212158203125 -1.310791015625
6008378125.0 -0.5086669921875 -1.18206787109375
6039600000.0 -1.02117919921875 -0.64892578125
6070821875.0 -1.2232666015625 -0.005126953125
6102043750.0 -1.08233642578125 0.76141357421875
6133265625.0 -0.3416748046875 1.34375
6164487500.0 0.5621337890625 1.1865234375
6195709375.0 1.0706787109375 0.6297607421875
6226931250.0 1.2789306640625 -0.04266357421875
6258153125.0 1.10491943359375 -0.8707275390625
6289375000.0 0.25634765625 -1.44622802734375
6320596875.0 -0.68914794921875 -1.2060546875
6351818750.0 -1.1988525390625 -0.572021484375
6383040625.0 -1.35394287109375 0.20611572265625
6414262500.0 -0.99951171875 1.0567626953125
6445484375.0 -0.07830810546875 1.45635986328125
6476706250.0 0.7952880859375 1.14801025390625
6507928125.0 1.28912353515625 0.47039794921875
6539150000.0 1.34765625 -0.3870849609375
6570371875.0 0.84063720703125 -1.14373779296875
6601593750.0 -0.01715087890625 -1.40399169921875
6632815625.0 -0.839111328125 -1.13507080078125
6664037500.0 -1.39971923828125 -0.420654296875
6695259375.0 -1.37322998046875 0.5655517578125
6726481250.0 -0.7099609375 1.25079345703125
6757703125.0 0.13037109375 1.40582275390625
6788925000.0 0.95318603515625 1.1304931640625
6820146875.0 1.55908203125 0.2886962890625
6851368750.0 1.3258056640625 -0.81915283203125
6882590625.0 0.50640869140625 -1.33795166015625
6913812500.0 -0.29168701171875 -1.35595703125
6945034375.0 -1.0703125 -1.0216064453125
6976256250.0 -1.592041015625 -0.09393310546875
7007478125.0 -1.23541259765625 0.9342041015625
7038700000.0 -0.40185546875 1.34417724609375
7069921875.0 0.3582763671875 1.32342529296875
7101143750.0 1.11871337890625 0.9688720703125
7132365625.0 1.59912109375 0.01397705078125
7163587500.0 1.15643310546875 -1.01898193359375
7194809375.0 0.3016357421875 -1.39715576171875
7226031250.0 -0.51220703125 -1.325439453125
7257253125.0 -1.2646484375 -0.82470703125
7288475000.0 -1.557861328125 0.19873046875
7319696875.0 -1.0301513671875 1.10919189453125
7350918750.0 -0.16314697265625 1.44482421875
7382140625.0 0.71380615234375 1.27593994140625
7413362500.0 1.37359619140625 0.57684326171875
7444584375.0 1.41278076171875 -0.4085693359375
7475806250.0 0.858154296875 -1.14105224609375
7507028125.0 0.005126953125 -1.42913818359375
7538250000.0 -0.88739013671875 -1.12451171875
7569471875.0 -1.334228515625 -0.3125
7600693750.0 -1.20220947265625 0.4962158203125
7631915625.0 -0.7177734375 1.08447265625
7663137500.0 0.0804443359375 1.35791015625
7694359375.0 0.938232421875 0.98114013671875
7725581250.0 1.24359130859375 0.1802978515625
7756803125.0 1.0814208984375 -0.4984130859375
7788025000.0 0.67022705078125 -1.0418701171875
7819246875.0 -0.12103271484375 -1.34661865234375
7850468750.0 -0.993194580078125 -0.91558837890625
7881690625.0 -1.2296142578125 -0.10626220703125
7912912500.0 -1.05426025390625 0.554443359375
7944134375.0 -0.604736328125 1.1143798828125
7975356250.0 0.27142333984375 1.33489990234375
8006578125.0 1.04608154296875 0.7783203125
8037800000.0 1.1932373046875 0.01641845703125
8069021875.0 1.0072021484375 -0.61767578125
8100243750.0 0.49951171875 -1.16259765625
8131465625.0 -0.3865966796875 -1.2532958984375
8162687500.0 -1.031005859375 -0.68621826171875
8193909375.0 -1.17987060546875 0.008544921875
8225131250.0 -1.0184326171875 0.67938232421875
8256353125.0 -0.42156982421875 1.2490234375
8287575000.0 0.49908447265625 1.2254638671875
8318796875.0 1.0826416015625 0.6356201171875
8350018750.0 1.24346923828125 -0.0751953125
8381240625.0 1.030517578125 -0.8392333984375
8412462500.0 0.254150390625 -1.37237548828125
8443684375.0 -0.6680908203125 -1.17022705078125
8474906250.0 -1.17486572265625 -0.53228759765625
8506128125.0 -1.2974853515625 0.23602294921875
8537350000.0 -0.9241943359375 1.04412841796875
8568571875.0 -0.01702880859375 1.3944091796875
8599793750.0 0.80169677734375 1.054931640625
8631015625.0 1.240478515625 0.39849853515625
8662237500.0 1.28631591796875 -0.427978515625
8693459375.0 0.73541259765625 -1.17633056640625
8724681250.0 -0.1617431640625 -1.33111572265625
8755903125.0 -0.881103515625 -0.95751953125
8787125000.0 -1.30194091796875 -0.2828369140625
8818346875.0 -1.2510986328125 0.61651611328125
8849568750.0 -0.55694580078125 1.2572021484375
8880790625.0 0.29931640625 1.28594970703125
8912012500.0 0.97955322265625 0.8916015625
8943234375.0 1.39813232421875 0.12969970703125
8974456250.0 1.16644287109375 -0.83782958984375
9005678125.0 0.3486328125 -1.3140869140625
9036900000.0 -0.44195556640625 -1.22479248046875
9068121875.0 -1.1021728515625 -0.7861328125
9099343750.0 -1.4398193359375 0.0963134765625
9130565625.0 -0.98089599609375 1.0135498046875
9161787500.0 -0.15423583984375 1.2830810546875
9193009375.0 0.5543212890625 1.13372802734375
9224231250.0 1.177734375 0.6558837890625
9255453125.0 1.4000244140625 -0.29595947265625
9286675000.0 0.80694580078125 -1.0843505859375
9317896875.0 0.02716064453125 -1.24591064453125
9349118750.0 -0.6529541015625 -1.0693359375
9380340625.0 -1.2576904296875 -0.510498046875
9411562500.0 -1.31085205078125 0.4769287109375
9442784375.0 -0.64825439453125 1.11456298828125
9474006250.0 0.0880126953125 1.2113037109375
9505228125.0 0.76275634765625 0.9798583984375
9536450000.0 1.27264404296875 0.31396484375
9567671875.0 1.14495849609375 -0.57965087890625
9598893750.0 0.5299072265625 -1.06805419921875
9630115625.0 -0.14312744140625 -1.15667724609375
9661337500.0 -0.816375732421875 -0.902862548828125
9692559375.0 -1.23828125 -0.191650390625
9723781250.0 -1.0433349609375 0.601318359375
9755003125.0 -0.48583984375 1.05010986328125
9786225000.0 0.1986083984375 1.1602783203125
9817446875.0 0.89666748046875 0.82763671875
9848668750.0 1.19873046875 0.0789794921875
9879890625.0 0.968780517578125 -0.6177978515625
9911112500.0 0.45184326171875 -1.0538330078125
9942334375.0 -0.266845703125 -1.15960693359375
9973556250.0 -0.945037841796875 -0.738250732421875
10004778125.0 -1.14520263671875 -0.0196533203125
10036000000.0 -0.94403076171875 0.61688232421875
10067221875.0 -0.44183349609375 1.0970458984375
10098443750.0 0.3695068359375 1.18170166015625
10129665625.0 1.00274658203125 0.64306640625
10160887500.0 1.120361328125 -0.05108642578125
10192109375.0 0.918243408203125 -0.662933349609375
10223331250.0 0.360595703125 -1.15411376953125
10254553125.0 -0.48638916015625 -1.11370849609375
10285775000.0 -0.98553466796875 -0.5352783203125
10316996875.0 -1.066162109375 0.07611083984375
10348218750.0 -0.899017333984375 0.669097900390625
10379440625.0 -0.32135009765625 1.1751708984375
10410662500.0 0.52642822265625 1.0860595703125
10441884375.0 0.99151611328125 0.521942138671875
10473106250.0 1.1085205078125 -0.08306884765625
10504328125.0 0.948760986328125 -0.7545166015625
10535550000.0 0.23980712890625 -1.294677734375
10566771875.0 -0.6571044921875 -1.07708740234375
10597993750.0 -1.0811767578125 -0.4593505859375
10629215625.0 -1.175537109375 0.20550537109375
10660437500.0 -0.888427734375 0.94970703125
10691659375.0 -0.01080322265625 1.3348388671875
10722881250.0 0.784088134765625 0.95281982421875
10754103125.0 1.1195068359375 0.3253173828125
10785325000.0 1.139404296875 -0.3677978515625
10816546875.0 0.70074462890625 -1.04791259765625
10847768750.0 -0.14508056640625 -1.22857666015625
10878990625.0 -0.80487060546875 -0.84356689453125
10910212500.0 -1.12249755859375 -0.2457275390625
10941434375.0 -1.096923828125 0.476806640625
10972656250.0 -0.56884765625 1.084716796875
11003878125.0 0.2139892578125 1.17242431640625
11035100000.0 0.8458251953125 0.82147216796875
11066321875.0 1.2198486328125 0.17449951171875
11097543750.0 1.0977783203125 -0.6759033203125
11128765625.0 0.38531494140625 -1.19873046875
11159987500.0 -0.39520263671875 -1.13934326171875
11191209375.0 -0.998870849609375 -0.70330810546875
11222431250.0 -1.2718505859375 0.09173583984375
11253653125.0 -0.85992431640625 0.893096923828125
11284875000.0 -0.1158447265625 1.12579345703125
11316096875.0 0.5120849609375 0.956878662109375
11347318750.0 1.00286865234375 0.5025634765625
11378540625.0 1.1165771484375 -0.26922607421875
11409762500.0 0.635528564453125 -0.8582763671875
11440984375.0 0.036468505859375 -0.977447509765625
11472206250.0 -0.48126220703125 -0.849822998046875
11503428125.0 -0.9527587890625 -0.456085205078125
11534650000.0 -1.068603515625 0.2880859375
11565871875.0 -0.60284423828125 0.8544921875
11597093750.0 -0.017974853515625 0.992218017578125
11628315625.0 0.544830322265625 0.875213623046875
11659537500.0 1.05938720703125 0.39263916015625
11690759375.0 1.0648193359375 -0.431884765625
11721981250.0 0.516937255859375 -0.9407958984375
11753203125.0 -0.10491943359375 -1.0374755859375
11784425000.0 -0.725677490234375 -0.80938720703125
11815646875.0 -1.10089111328125 -0.15142822265625
11846868750.0 -0.89215087890625 0.551910400390625
11878090625.0 -0.390869140625 0.909576416015625
11909312500.0 0.185760498046875 0.983917236328125
11940534375.0 0.77996826171875 0.6953125
11971756250.0 1.02423095703125 0.0401611328125
12002978125.0 0.80645751953125 -0.538055419921875
12034200000.0 0.381866455078125 -0.88995361328125
12065421875.0 -0.213623046875 -1.01068115234375
12096643750.0 -0.848297119140625 -0.665252685546875
12127865625.0 -1.0338134765625 0.01666259765625
12159087500.0 -0.815338134765625 0.5758056640625
12190309375.0 -0.37847900390625 0.973602294921875
12221531250.0 0.3382568359375 1.08758544921875
12252753125.0 0.980255126953125 0.5826416015625
12283975000.0 1.05450439453125 -0.12744140625
12315196875.0 0.79986572265625 -0.6761474609375
12346418750.0 0.28118896484375 -1.0919189453125
12377640625.0 -0.53607177734375 -1.06024169921875
12408862500.0 -1.03546142578125 -0.42041015625
12440084375.0 -1.008544921875 0.2236328125
12471306250.0 -0.74212646484375 0.7371826171875
12502528125.0 -0.17999267578125 1.1202392578125
12533750000.0 0.620269775390625 0.993560791015625
12564971875.0 1.0404052734375 0.36407470703125
12596193750.0 1.02899169921875 -0.26373291015625
12627415625.0 0.74945068359375 -0.828338623046875
12658637500.0 0.08099365234375 -1.2076416015625
12689859375.0 -0.734619140625 -0.96624755859375
12721081250.0 -1.1165771484375 -0.3067626953125
12752303125.0 -1.09808349609375 0.38232421875
12783525000.0 -0.68701171875 1.02801513671875
12814746875.0 0.16290283203125 1.25079345703125
12845968750.0 0.86273193359375 0.8109130859375
12877190625.0 1.11810302734375 0.1717529296875
12908412500.0 1.05511474609375 -0.500732421875
12939634375.0 0.54351806640625 -1.11773681640625
12970856250.0 -0.32025146484375 -1.17608642578125
13002078125.0 -0.895233154296875 -0.6929931640625
13033300000.0 -1.1048583984375 -0.08746337890625
13064521875.0 -1.00927734375 0.59246826171875
13095743750.0 -0.420166015625 1.15484619140625
13126965625.0 0.408203125 1.1209716796875
13158187500.0 0.9483642578125 0.631500244140625
13189409375.0 1.1483154296875 -0.02081298828125
13220631250.0 0.937774658203125 -0.749847412109375
13251853125.0 0.23541259765625 -1.17205810546875
13283075000.0 -0.5069580078125 -1.0201416015625
13314296875.0 -0.988800048828125 -0.52911376953125
13345518750.0 -1.13555908203125 0.17755126953125
13376740625.0 -0.753204345703125 0.855712890625
13407962500.0 -0.05987548828125 1.0675048828125
