!Created with skrf (http://scikit-rf.org).
# Hz S RI R 50.0 
!freq ReS11 ImS11
45000000.0 -0.07721328735351562 -0.09666061401367188
76221875.0 -0.1966094970703125 -0.04743194580078125
107443750.0 -0.2549591064453125 0.1200103759765625
138665625.0 -0.14794921875 0.3290252685546875
169887500.0 0.123992919921875 0.417633056640625
201109375.0 0.4222869873046875 0.2806854248046875
232331250.0 0.579071044921875 -0.058135986328125
263553125.0 0.489288330078125 -0.4536590576171875
294775000.0 0.09771728515625 -0.733245849609375
325996875.0 -0.4163818359375 -0.680694580078125
357218750.0 -0.80712890625 -0.296051025390625
388440625.0 -0.885955810546875 0.3017578125
419662500.0 -0.516571044921875 0.867218017578125
450884375.0 0.17437744140625 1.0289306640625
482106250.0 0.7994384765625 0.7119140625
513328125.0 1.119873046875 0.0859375
544550000.0 1.0035400390625 -0.68096923828125
575771875.0 0.33526611328125 -1.239013671875
606993750.0 -0.55511474609375 -1.17669677734375
638215625.0 -1.16668701171875 -0.58953857421875
669437500.0 -1.3397216796875 0.2349853515625
700659375.0 -0.9703369140625 1.09759521484375
731881250.0 -0.0023193359375 1.54339599609375
763103125.0 1.0067138671875 1.15509033203125
794325000.0 1.46905517578125 0.28057861328125
825546875.0 1.36724853515625 -0.6527099609375
856768750.0 0.79345703125 -1.40228271484375
887990625.0 -0.29473876953125 -1.64862060546875
919212500.0 -1.28985595703125 -1.07769775390625
950434375.0 -1.648681640625 -0.0576171875
981656250.0 -1.38189697265625 0.947265625
1012878125.0 -0.52813720703125 1.6727294921875
1044100000.0 0.6990966796875 1.6617431640625
1075321875.0 1.575439453125 0.8104248046875
1106543750.0 1.7042236328125 -0.314697265625
1137765625.0 1.1851806640625 -1.28594970703125
1168987500.0 0.13641357421875 -1.79718017578125
1200209375.0 -1.063232421875 -1.48297119140625
1231431250.0 -1.72772216796875 -0.45166015625
1262653125.0 -1.5938720703125 0.68646240234375
1293875000.0 -0.8507080078125 1.4923095703125
1325096875.0 0.2296142578125 1.7059326171875
1356318750.0 1.23577880859375 1.21527099609375
1387540625.0 1.74005126953125 0.187255859375
1418762500.0 1.4686279296875 -0.95281982421875
1449984375.0 0.52783203125 -1.62664794921875
1481206250.0 -0.55108642578125 -1.5556640625
1512428125.0 -1.343017578125 -0.9185791015625
1543650000.0 -1.6553955078125 0.06695556640625
1574871875.0 -1.27239990234375 1.1102294921875
1606093750.0 -0.27099609375 1.6317138671875
1637315625.0 0.7432861328125 1.39959716796875
1668537500.0 1.3963623046875 0.6939697265625
1699759375.0 1.57269287109375 -0.27862548828125
1730981250.0 1.0625 -1.23004150390625
1762203125.0 0.04058837890625 -1.56988525390625
1793425000.0 -0.8564453125 -1.22540283203125
1824646875.0 -1.3934326171875 -0.5135498046875
1855868750.0 -1.47314453125 0.43310546875
1887090625.0 -0.8741455078125 1.285400390625
1918312500.0 0.1182861328125 1.486572265625
1949534375.0 0.92236328125 1.08843994140625
1980756250.0 1.3753662109375 0.368896484375
2011978125.0 1.35882568359375 -0.53314208984375
2043200000.0 0.74859619140625 -1.26171875
2074421875.0 -0.1580810546875 -1.43231201171875
2105643750.0 -0.9609375 -1.07135009765625
2136865625.0 -1.44732666015625 -0.30389404296875
2168087500.0 -1.35589599609375 0.6717529296875
2199309375.0 -0.63775634765625 1.3511962890625
2230531250.0 0.28314208984375 1.435546875
2261753125.0 1.0731201171875 1.01300048828125
2292975000.0 1.5142822265625 0.1690673828125
2324196875.0 1.3048095703125 -0.81982421875
2355418750.0 0.5242919921875 -1.41943359375
2386640625.0 -0.40496826171875 -1.4481201171875
2417862500.0 -1.18170166015625 -1.02337646484375
2449084375.0 -1.60546875 -0.0823974609375
2480306250.0 -1.3109130859375 0.9281005859375
2511528125.0 -0.49188232421875 1.50885009765625
2542750000.0 0.49017333984375 1.53558349609375
2573971875.0 1.3704833984375 0.9669189453125
2605193750.0 1.71673583984375 -0.11407470703125
2636415625.0 1.26031494140625 -1.15264892578125
2667637500.0 0.30413818359375 -1.66839599609375
2698859375.0 -0.76934814453125 -1.53240966796875
2730081250.0 -1.573486328125 -0.7393798828125
2761303125.0 -1.6805419921875 0.3896484375
2792525000.0 -1.09765625 1.30816650390625
2823746875.0 -0.10064697265625 1.72967529296875
2854968750.0 1.01324462890625 1.4539794921875
2886190625.0 1.6927490234375 0.48944091796875
2917412500.0 1.5987548828125 -0.619140625
2948634375.0 0.93829345703125 -1.43328857421875
2979856250.0 -0.1094970703125 -1.77655029296875
3011078125.0 -1.247314453125 -1.34136962890625
3042300000.0 -1.77392578125 -0.23370361328125
3073521875.0 -1.5074462890625 0.8380126953125
3104743750.0 -0.76165771484375 1.56890869140625
3135965625.0 0.3624267578125 1.80804443359375
3167187500.0 1.4998779296875 1.162353515625
3198409375.0 1.81536865234375 -0.07720947265625
3229631250.0 1.34759521484375 -1.0826416015625
3260853125.0 0.4874267578125 -1.6683349609375
3292075000.0 -0.65679931640625 -1.69683837890625
3323296875.0 -1.6199951171875 -0.877197265625
3354518750.0 -1.72906494140625 0.32958984375
3385740625.0 -1.15423583984375 1.2314453125
3416962500.0 -0.23004150390625 1.68109130859375
3448184375.0 0.8609619140625 1.5201416015625
3479406250.0 1.63470458984375 0.64361572265625
3510628125.0 1.6427001953125 -0.49560546875
3541850000.0 0.99908447265625 -1.355224609375
3573071875.0 -0.009765625 -1.681884765625
3604293750.0 -1.02813720703125 -1.336181640625
3635515625.0 -1.6278076171875 -0.43670654296875
3666737500.0 -1.5599365234375 0.64642333984375
3697959375.0 -0.8233642578125 1.4766845703125
3729181250.0 0.26983642578125 1.62994384765625
3760403125.0 1.15277099609375 1.09686279296875
3791625000.0 1.55126953125 0.21728515625
3822846875.0 1.40020751953125 -0.76141357421875
3854068750.0 0.618896484375 -1.4808349609375
3885290625.0 -0.421630859375 -1.47955322265625
3916512500.0 -1.14208984375 -0.90997314453125
3947734375.0 -1.44647216796875 -0.1190185546875
3978956250.0 -1.29644775390625 0.7796630859375
4010178125.0 -0.5302734375 1.45404052734375
4041400000.0 0.47296142578125 1.41400146484375
4072621875.0 1.15106201171875 0.84619140625
4103843750.0 1.44403076171875 0.06231689453125
4135065625.0 1.26666259765625 -0.84698486328125
4166287500.0 0.45648193359375 -1.49591064453125
4197509375.0 -0.5577392578125 -1.41436767578125
4228731250.0 -1.24786376953125 -0.80206298828125
4259953125.0 -1.5086669921875 0.07061767578125
4291175000.0 -1.1873779296875 1.00982666015625
4322396875.0 -0.287841796875 1.52593994140625
4353618750.0 0.67230224609375 1.34832763671875
4384840625.0 1.32159423828125 0.6962890625
4416062500.0 1.499755859375 -0.22845458984375
4447284375.0 1.05352783203125 -1.1041259765625
4478506250.0 0.171630859375 -1.49432373046875
4509728125.0 -0.732421875 -1.306396484375
4540950000.0 -1.39288330078125 -0.63531494140625
4572171875.0 -1.52093505859375 0.35980224609375
4603393750.0 -0.97119140625 1.21246337890625
4634615625.0 -0.06048583984375 1.53668212890625
4665837500.0 0.86907958984375 1.3037109375
4697059375.0 1.541259765625 0.51397705078125
4728281250.0 1.528564453125 -0.58355712890625
4759503125.0 0.82244873046875 -1.3663330078125
4790725000.0 -0.146484375 -1.57208251953125
4821946875.0 -1.0836181640625 -1.19293212890625
4853168750.0 -1.61285400390625 -0.250244140625
4884390625.0 -1.37713623046875 0.79388427734375
4915612500.0 -0.61248779296875 1.41131591796875
4946834375.0 0.32958984375 1.50830078125
4978056250.0 1.20538330078125 1.01580810546875
5009278125.0 1.55999755859375 0.03924560546875
5040500000.0 1.22821044921875 -0.87591552734375
5071721875.0 0.5003662109375 -1.41436767578125
5102943750.0 -0.4471435546875 -1.49591064453125
5134165625.0 -1.33563232421875 -0.9052734375
5165387500.0 -1.56744384765625 0.146728515625
5196609375.0 -1.135498046875 1.009521484375
5227831250.0 -0.35699462890625 1.50555419921875
5259053125.0 0.68829345703125 1.4915771484375
5290275000.0 1.5216064453125 0.662353515625
5321496875.0 1.4918212890625 -0.43115234375
5352718750.0 0.9200439453125 -1.15411376953125
5383940625.0 0.09576416015625 -1.50018310546875
5415162500.0 -0.901123046875 -1.28302001953125
5446384375.0 -1.4837646484375 -0.3695068359375
5477606250.0 -1.2969970703125 0.56439208984375
5508828125.0 -0.7308349609375 1.15020751953125
5540050000.0 0.05450439453125 1.39849853515625
5571271875.0 0.93792724609375 1.108154296875
5602493750.0 1.40814208984375 0.25909423828125
5633715625.0 1.230712890625 -0.61199951171875
5664937500.0 0.64764404296875 -1.2015380859375
5696159375.0 -0.1962890625 -1.38238525390625
5727381250.0 -1.02178955078125 -0.9781494140625
5758603125.0 -1.39080810546875 -0.1448974609375
5789825000.0 -1.19354248046875 0.71728515625
5821046875.0 -0.50579833984375 1.30731201171875
5852268750.0 0.4112548828125 1.31292724609375
5883490625.0 1.0718994140625 0.77154541015625
5914712500.0 1.302490234375 0.01904296875
5945934375.0 1.09564208984375 -0.77667236328125
5977156250.0 0.36138916015625 -1.31182861328125
6008378125.0 -0.50811767578125 -1.18115234375
6039600000.0 -1.02178955078125 -0.64886474609375
6070821875.0 -1.223876953125 -0.00372314453125
6102043750.0 -1.08245849609375 0.76214599609375
6133265625.0 -0.3414306640625 1.34515380859375
6164487500.0 0.563720703125 1.18707275390625
6195709375.0 1.0703125 0.63018798828125
6226931250.0 1.2794189453125 -0.0430908203125
6258153125.0 1.1041259765625 -0.8714599609375
6289375000.0 0.25628662109375 -1.44598388671875
6320596875.0 -0.68951416015625 -1.20635986328125
6351818750.0 -1.20025634765625 -0.57122802734375
6383040625.0 -1.35479736328125 0.2071533203125
6414262500.0 -0.9998779296875 1.058349609375
6445484375.0 -0.0782470703125 1.45654296875
6476706250.0 0.796630859375 1.14739990234375
6507928125.0 1.28973388671875 0.46990966796875
6539150000.0 1.34716796875 -0.3868408203125
6570371875.0 0.8406982421875 -1.14404296875
6601593750.0 -0.017578125 -1.40478515625
6632815625.0 -0.840576171875 -1.135986328125
6664037500.0 -1.40234375 -0.4185791015625
6695259375.0 -1.3731689453125 0.566162109375
6726481250.0 -0.70977783203125 1.25091552734375
6757703125.0 0.1317138671875 1.406982421875
6788925000.0 0.95550537109375 1.13043212890625
6820146875.0 1.558837890625 0.28851318359375
6851368750.0 1.3258056640625 -0.818603515625
6882590625.0 0.505859375 -1.33892822265625
6913812500.0 -0.29254150390625 -1.35650634765625
6945034375.0 -1.07049560546875 -1.0211181640625
6976256250.0 -1.59326171875 -0.09246826171875
7007478125.0 -1.23681640625 0.93310546875
7038700000.0 -0.401611328125 1.341552734375
7069921875.0 0.3619384765625 1.32513427734375
7101143750.0 1.11822509765625 0.96820068359375
7132365625.0 1.597900390625 0.01617431640625
7163587500.0 1.15692138671875 -1.02288818359375
7194809375.0 0.3017578125 -1.39862060546875
7226031250.0 -0.51220703125 -1.324951171875
7257253125.0 -1.2647705078125 -0.82366943359375
7288475000.0 -1.557373046875 0.19781494140625
7319696875.0 -1.02935791015625 1.11029052734375
7350918750.0 -0.163818359375 1.44512939453125
7382140625.0 0.71624755859375 1.27581787109375
7413362500.0 1.37384033203125 0.57769775390625
7444584375.0 1.41192626953125 -0.4068603515625
7475806250.0 0.85675048828125 -1.1446533203125
7507028125.0 0.0047607421875 -1.4302978515625
7538250000.0 -0.88800048828125 -1.123779296875
7569471875.0 -1.3360595703125 -0.310546875
7600693750.0 -1.2025146484375 0.49859619140625
7631915625.0 -0.71826171875 1.0848388671875
7663137500.0 0.0806884765625 1.3580322265625
7694359375.0 0.93792724609375 0.98016357421875
7725581250.0 1.2440185546875 0.17938232421875
7756803125.0 1.08221435546875 -0.49761962890625
7788025000.0 0.66937255859375 -1.04241943359375
7819246875.0 -0.119140625 -1.34613037109375
7850468750.0 -0.990386962890625 -0.91607666015625
7881690625.0 -1.2315673828125 -0.10455322265625
7912912500.0 -1.05474853515625 0.55517578125
7944134375.0 -0.60540771484375 1.1134033203125
7975356250.0 0.27099609375 1.33453369140625
8006578125.0 1.0487060546875 0.77880859375
8037800000.0 1.19287109375 0.0169677734375
8069021875.0 1.0064697265625 -0.617431640625
8100243750.0 0.5001220703125 -1.16180419921875
8131465625.0 -0.38677978515625 -1.25360107421875
8162687500.0 -1.03326416015625 -0.6849365234375
8193909375.0 -1.18072509765625 0.00860595703125
8225131250.0 -1.01763916015625 0.679443359375
8256353125.0 -0.419921875 1.2503662109375
8287575000.0 0.50103759765625 1.22576904296875
8318796875.0 1.08331298828125 0.635986328125
8350018750.0 1.245361328125 -0.0771484375
8381240625.0 1.03131103515625 -0.837646484375
8412462500.0 0.25482177734375 -1.37408447265625
8443684375.0 -0.66796875 -1.17041015625
8474906250.0 -1.17523193359375 -0.53253173828125
8506128125.0 -1.2977294921875 0.23675537109375
8537350000.0 -0.9239501953125 1.0472412109375
8568571875.0 -0.01495361328125 1.39593505859375
8599793750.0 0.80462646484375 1.053955078125
8631015625.0 1.24163818359375 0.3990478515625
8662237500.0 1.28570556640625 -0.430908203125
8693459375.0 0.73638916015625 -1.17730712890625
8724681250.0 -0.16204833984375 -1.33050537109375
8755903125.0 -0.880859375 -0.95794677734375
8787125000.0 -1.3048095703125 -0.28082275390625
8818346875.0 -1.2506103515625 0.6158447265625
8849568750.0 -0.5570068359375 1.25970458984375
8880790625.0 0.2978515625 1.28399658203125
8912012500.0 0.982086181640625 0.89306640625
8943234375.0 1.3984375 0.12969970703125
8974456250.0 1.167236328125 -0.8389892578125
9005678125.0 0.34991455078125 -1.3135986328125
9036900000.0 -0.4439697265625 -1.22393798828125
9068121875.0 -1.10272216796875 -0.78521728515625
9099343750.0 -1.44024658203125 0.09619140625
9130565625.0 -0.97998046875 1.0113525390625
9161787500.0 -0.15374755859375 1.28350830078125
9193009375.0 0.5560302734375 1.1343994140625
9224231250.0 1.17938232421875 0.65484619140625
9255453125.0 1.40020751953125 -0.29638671875
9286675000.0 0.8056640625 -1.08673095703125
9317896875.0 0.0262451171875 -1.2471923828125
9349118750.0 -0.6533203125 -1.06951904296875
9380340625.0 -1.2572021484375 -0.50970458984375
9411562500.0 -1.31201171875 0.47796630859375
9442784375.0 -0.6478271484375 1.1158447265625
9474006250.0 0.08905029296875 1.2105712890625
9505228125.0 0.7646484375 0.980010986328125
9536450000.0 1.273193359375 0.3145751953125
9567671875.0 1.1453857421875 -0.58038330078125
9598893750.0 0.52984619140625 -1.0692138671875
9630115625.0 -0.14459228515625 -1.158935546875
9661337500.0 -0.81707763671875 -0.9019775390625
9692559375.0 -1.2391357421875 -0.1903076171875
9723781250.0 -1.0435791015625 0.60321044921875
9755003125.0 -0.48553466796875 1.0509033203125
9786225000.0 0.1968994140625 1.15771484375
9817446875.0 0.895751953125 0.8280029296875
9848668750.0 1.19903564453125 0.07794189453125
9879890625.0 0.968353271484375 -0.6175537109375
9911112500.0 0.4525146484375 -1.052001953125
9942334375.0 -0.26849365234375 -1.1597900390625
9973556250.0 -0.94189453125 -0.73870849609375
10004778125.0 -1.14666748046875 -0.0177001953125
10036000000.0 -0.9434814453125 0.614990234375
10067221875.0 -0.44293212890625 1.09515380859375
10098443750.0 0.36907958984375 1.18133544921875
10129665625.0 1.00189208984375 0.64459228515625
10160887500.0 1.1197509765625 -0.05133056640625
10192109375.0 0.917694091796875 -0.66461181640625
10223331250.0 0.36114501953125 -1.15179443359375
10254553125.0 -0.4864501953125 -1.11395263671875
10285775000.0 -0.985870361328125 -0.53570556640625
10316996875.0 -1.0673828125 0.0765380859375
10348218750.0 -0.899749755859375 0.671630859375
10379440625.0 -0.321044921875 1.1759033203125
10410662500.0 0.52740478515625 1.0855712890625
10441884375.0 0.99200439453125 0.521575927734375
10473106250.0 1.109375 -0.0841064453125
10504328125.0 0.949127197265625 -0.756195068359375
10535550000.0 0.2392578125 -1.2952880859375
10566771875.0 -0.65704345703125 -1.0770263671875
10597993750.0 -1.08306884765625 -0.45843505859375
10629215625.0 -1.17498779296875 0.204833984375
10660437500.0 -0.8875732421875 0.949981689453125
10691659375.0 -0.01068115234375 1.3345947265625
10722881250.0 0.785064697265625 0.953125
10754103125.0 1.120361328125 0.3243408203125
10785325000.0 1.13958740234375 -0.36749267578125
10816546875.0 0.70172119140625 -1.0489501953125
10847768750.0 -0.147705078125 -1.23223876953125
10878990625.0 -0.80389404296875 -0.843231201171875
10910212500.0 -1.12353515625 -0.244873046875
10941434375.0 -1.09759521484375 0.4761962890625
10972656250.0 -0.56744384765625 1.08624267578125
11003878125.0 0.21771240234375 1.17486572265625
11035100000.0 0.848236083984375 0.82177734375
11066321875.0 1.22149658203125 0.1734619140625
11097543750.0 1.09771728515625 -0.67462158203125
11128765625.0 0.38677978515625 -1.1978759765625
11159987500.0 -0.39642333984375 -1.13922119140625
11191209375.0 -0.999786376953125 -0.702728271484375
11222431250.0 -1.27215576171875 0.09185791015625
11253653125.0 -0.859100341796875 0.894805908203125
11284875000.0 -0.11468505859375 1.12677001953125
11316096875.0 0.51068115234375 0.956512451171875
11347318750.0 1.0032958984375 0.50225830078125
11378540625.0 1.116455078125 -0.267822265625
11409762500.0 0.635223388671875 -0.85980224609375
11440984375.0 0.0360107421875 -0.979522705078125
11472206250.0 -0.48150634765625 -0.850189208984375
11503428125.0 -0.95404052734375 -0.4554443359375
11534650000.0 -1.06964111328125 0.28912353515625
11565871875.0 -0.60302734375 0.8541259765625
11597093750.0 -0.01983642578125 0.99090576171875
11628315625.0 0.54473876953125 0.8759765625
11659537500.0 1.06072998046875 0.39190673828125
11690759375.0 1.06610107421875 -0.43438720703125
11721981250.0 0.516845703125 -0.94049072265625
11753203125.0 -0.10626220703125 -1.03692626953125
11784425000.0 -0.723876953125 -0.80914306640625
11815646875.0 -1.101806640625 -0.15093994140625
11846868750.0 -0.891571044921875 0.5513916015625
11878090625.0 -0.391265869140625 0.90997314453125
11909312500.0 0.18798828125 0.98553466796875
11940534375.0 0.78076171875 0.69537353515625
11971756250.0 1.02508544921875 0.03961181640625
12002978125.0 0.8070068359375 -0.5384521484375
12034200000.0 0.381134033203125 -0.8902587890625
12065421875.0 -0.21478271484375 -1.010498046875
12096643750.0 -0.845855712890625 -0.666107177734375
12127865625.0 -1.03509521484375 0.017578125
12159087500.0 -0.815338134765625 0.576812744140625
12190309375.0 -0.377685546875 0.974884033203125
12221531250.0 0.33966064453125 1.08843994140625
12252753125.0 0.982696533203125 0.582550048828125
12283975000.0 1.05517578125 -0.127685546875
12315196875.0 0.801177978515625 -0.676727294921875
12346418750.0 0.2806396484375 -1.09356689453125
12377640625.0 -0.53887939453125 -1.06146240234375
12408862500.0 -1.03460693359375 -0.42047119140625
12440084375.0 -1.009033203125 0.22412109375
12471306250.0 -0.741607666015625 0.73797607421875
12502528125.0 -0.17950439453125 1.1204833984375
12533750000.0 0.6192626953125 0.993194580078125
12564971875.0 1.0418701171875 0.3642578125
12596193750.0 1.0306396484375 -0.26568603515625
12627415625.0 0.747589111328125 -0.829315185546875
12658637500.0 0.07904052734375 -1.20745849609375
12689859375.0 -0.736114501953125 -0.96746826171875
12721081250.0 -1.11676025390625 -0.30633544921875
12752303125.0 -1.09771728515625 0.381591796875
12783525000.0 -0.68682861328125 1.0257568359375
12814746875.0 0.16485595703125 1.2513427734375
12845968750.0 0.862945556640625 0.811004638671875
12877190625.0 1.118896484375 0.171875
12908412500.0 1.05682373046875 -0.502197265625
12939634375.0 0.54290771484375 -1.11956787109375
12970856250.0 -0.32073974609375 -1.17681884765625
13002078125.0 -0.89404296875 -0.694183349609375
13033300000.0 -1.1065673828125 -0.0855712890625
13064521875.0 -1.00921630859375 0.59356689453125
13095743750.0 -0.4205322265625 1.1552734375
13126965625.0 0.409423828125 1.1220703125
13158187500.0 0.9466552734375 0.6324462890625
13189409375.0 1.14825439453125 -0.021728515625
13220631250.0 0.937530517578125 -0.74798583984375
13251853125.0 0.235107421875 -1.17266845703125
13283075000.0 -0.5045166015625 -1.0186767578125
13314296875.0 -0.989654541015625 -0.5289306640625
13345518750.0 -1.13592529296875 0.1776123046875
13376740625.0 -0.752960205078125 0.858856201171875
