!Created with skrf (http://scikit-rf.org).
# Hz S RI R 50.0 
!freq ReS11 ImS11
45000000.0 -0.07691574096679688 -0.0968475341796875
76221875.0 -0.1964263916015625 -0.04766845703125
107443750.0 -0.255096435546875 0.11993408203125
138665625.0 -0.1483612060546875 0.328582763671875
169887500.0 0.1231536865234375 0.41778564453125
201109375.0 0.4218292236328125 0.28125
232331250.0 0.5791015625 -0.057037353515625
263553125.0 0.4899139404296875 -0.4523468017578125
294775000.0 0.09918212890625 -0.732696533203125
325996875.0 -0.414886474609375 -0.68109130859375
357218750.0 -0.806182861328125 -0.297607421875
388440625.0 -0.88604736328125 0.29986572265625
419662500.0 -0.518157958984375 0.866180419921875
450884375.0 0.1724853515625 1.0289306640625
482106250.0 0.798095703125 0.713409423828125
513328125.0 1.1195068359375 0.088134765625
544550000.0 1.00439453125 -0.67919921875
575771875.0 0.3372802734375 -1.238037109375
606993750.0 -0.55322265625 -1.1778564453125
638215625.0 -1.16558837890625 -0.59100341796875
669437500.0 -1.340087890625 0.23297119140625
700659375.0 -0.97161865234375 1.09576416015625
731881250.0 -0.00457763671875 1.5430908203125
763103125.0 1.0050048828125 1.156494140625
794325000.0 1.46856689453125 0.28240966796875
825546875.0 1.3677978515625 -0.65045166015625
856768750.0 0.79547119140625 -1.400390625
887990625.0 -0.29150390625 -1.64862060546875
919212500.0 -1.2874755859375 -1.0794677734375
950434375.0 -1.64862060546875 -0.06011962890625
981656250.0 -1.3828125 0.9447021484375
1012878125.0 -0.531005859375 1.67059326171875
1044100000.0 0.6959228515625 1.662353515625
1075321875.0 1.57379150390625 0.813232421875
1106543750.0 1.7044677734375 -0.3114013671875
1137765625.0 1.1876220703125 -1.28289794921875
1168987500.0 0.13958740234375 -1.79656982421875
1200209375.0 -1.06072998046875 -1.484375
1231431250.0 -1.7264404296875 -0.4544677734375
1262653125.0 -1.59393310546875 0.6832275390625
1293875000.0 -0.85296630859375 1.49066162109375
1325096875.0 0.22723388671875 1.70684814453125
1356318750.0 1.23406982421875 1.2174072265625
1387540625.0 1.73919677734375 0.1898193359375
1418762500.0 1.4696044921875 -0.9503173828125
1449984375.0 0.5302734375 -1.62493896484375
1481206250.0 -0.5487060546875 -1.555908203125
1512428125.0 -1.34075927734375 -0.92010498046875
1543650000.0 -1.655029296875 0.06414794921875
1574871875.0 -1.27337646484375 1.10760498046875
1606093750.0 -0.27410888671875 1.6304931640625
1637315625.0 0.74163818359375 1.40057373046875
1668537500.0 1.39495849609375 0.69647216796875
1699759375.0 1.5728759765625 -0.27618408203125
1730981250.0 1.06451416015625 -1.2279052734375
1762203125.0 0.04302978515625 -1.57025146484375
1793425000.0 -0.85479736328125 -1.22674560546875
1824646875.0 -1.39312744140625 -0.5155029296875
1855868750.0 -1.4735107421875 0.431396484375
1887090625.0 -0.87506103515625 1.28460693359375
1918312500.0 0.1165771484375 1.48638916015625
1949534375.0 0.92034912109375 1.08905029296875
1980756250.0 1.37432861328125 0.37078857421875
2011978125.0 1.35955810546875 -0.53070068359375
2043200000.0 0.75079345703125 -1.26092529296875
2074421875.0 -0.1561279296875 -1.43304443359375
2105643750.0 -0.95947265625 -1.07257080078125
2136865625.0 -1.44671630859375 -0.3052978515625
2168087500.0 -1.3570556640625 0.67047119140625
2199309375.0 -0.639404296875 1.35064697265625
2230531250.0 0.28131103515625 1.43621826171875
2261753125.0 1.07183837890625 1.01409912109375
2292975000.0 1.513916015625 0.1705322265625
2324196875.0 1.305419921875 -0.81787109375
2355418750.0 0.52545166015625 -1.41925048828125
2386640625.0 -0.40386962890625 -1.44854736328125
2417862500.0 -1.1800537109375 -1.024169921875
2449084375.0 -1.603515625 -0.084716796875
2480306250.0 -1.3116455078125 0.9239501953125
2511528125.0 -0.49420166015625 1.50787353515625
2542750000.0 0.48797607421875 1.5361328125
2573971875.0 1.369873046875 0.96832275390625
2605193750.0 1.7164306640625 -0.1119384765625
2636415625.0 1.2613525390625 -1.151123046875
2667637500.0 0.30706787109375 -1.6668701171875
2698859375.0 -0.7686767578125 -1.5343017578125
2730081250.0 -1.57061767578125 -0.74114990234375
2761303125.0 -1.68072509765625 0.3870849609375
2792525000.0 -1.10003662109375 1.30535888671875
2823746875.0 -0.102783203125 1.72900390625
2854968750.0 1.01068115234375 1.4552001953125
2886190625.0 1.68988037109375 0.4921875
2917412500.0 1.599609375 -0.61749267578125
2948634375.0 0.93963623046875 -1.43133544921875
2979856250.0 -0.10687255859375 -1.7755126953125
3011078125.0 -1.24560546875 -1.34173583984375
3042300000.0 -1.774658203125 -0.2354736328125
3073521875.0 -1.508056640625 0.83624267578125
3104743750.0 -0.763916015625 1.56671142578125
3135965625.0 0.36163330078125 1.80902099609375
3167187500.0 1.49725341796875 1.164306640625
3198409375.0 1.81512451171875 -0.07427978515625
3229631250.0 1.3486328125 -1.0794677734375
3260853125.0 0.4906005859375 -1.666259765625
3292075000.0 -0.6541748046875 -1.69757080078125
3323296875.0 -1.6175537109375 -0.8798828125
3354518750.0 -1.7291259765625 0.327392578125
3385740625.0 -1.15594482421875 1.22991943359375
3416962500.0 -0.23236083984375 1.68109130859375
3448184375.0 0.8592529296875 1.521484375
3479406250.0 1.63580322265625 0.644287109375
3510628125.0 1.6436767578125 -0.49432373046875
3541850000.0 0.99993896484375 -1.35400390625
3573071875.0 -0.00701904296875 -1.681396484375
3604293750.0 -1.0260009765625 -1.33709716796875
3635515625.0 -1.62451171875 -0.43994140625
3666737500.0 -1.56121826171875 0.645263671875
3697959375.0 -0.82464599609375 1.4744873046875
3729181250.0 0.2664794921875 1.629150390625
3760403125.0 1.15081787109375 1.0977783203125
3791625000.0 1.5513916015625 0.2188720703125
3822846875.0 1.4013671875 -0.75958251953125
3854068750.0 0.62091064453125 -1.48004150390625
3885290625.0 -0.42022705078125 -1.48114013671875
3916512500.0 -1.13995361328125 -0.91107177734375
3947734375.0 -1.4464111328125 -0.12060546875
3978956250.0 -1.2972412109375 0.77862548828125
4010178125.0 -0.53204345703125 1.45269775390625
4041400000.0 0.471923828125 1.414794921875
4072621875.0 1.1512451171875 0.84716796875
4103843750.0 1.44366455078125 0.0640869140625
4135065625.0 1.2674560546875 -0.8448486328125
4166287500.0 0.45855712890625 -1.4940185546875
4197509375.0 -0.5567626953125 -1.41485595703125
4228731250.0 -1.24560546875 -0.80291748046875
4259953125.0 -1.507568359375 0.0694580078125
4291175000.0 -1.18792724609375 1.00958251953125
4322396875.0 -0.2901611328125 1.52532958984375
4353618750.0 0.671630859375 1.3497314453125
4384840625.0 1.32049560546875 0.6973876953125
4416062500.0 1.50006103515625 -0.2265625
4447284375.0 1.05523681640625 -1.10369873046875
4478506250.0 0.17315673828125 -1.49383544921875
4509728125.0 -0.7313232421875 -1.30712890625
4540950000.0 -1.39215087890625 -0.63616943359375
4572171875.0 -1.52154541015625 0.35894775390625
4603393750.0 -0.97271728515625 1.211669921875
4634615625.0 -0.06231689453125 1.5361328125
4665837500.0 0.868408203125 1.3033447265625
4697059375.0 1.54034423828125 0.51544189453125
4728281250.0 1.52813720703125 -0.58148193359375
4759503125.0 0.82275390625 -1.3665771484375
4790725000.0 -0.14471435546875 -1.5714111328125
4821946875.0 -1.08245849609375 -1.19439697265625
4853168750.0 -1.61199951171875 -0.2518310546875
4884390625.0 -1.37774658203125 0.79156494140625
4915612500.0 -0.613525390625 1.41119384765625
4946834375.0 0.32806396484375 1.50836181640625
4978056250.0 1.20452880859375 1.0172119140625
5009278125.0 1.560791015625 0.03985595703125
5040500000.0 1.22900390625 -0.87548828125
5071721875.0 0.50164794921875 -1.4144287109375
5102943750.0 -0.44598388671875 -1.49627685546875
5134165625.0 -1.335205078125 -0.9052734375
5165387500.0 -1.5672607421875 0.1455078125
5196609375.0 -1.13641357421875 1.00787353515625
5227831250.0 -0.3572998046875 1.5057373046875
5259053125.0 0.687744140625 1.49163818359375
5290275000.0 1.52117919921875 0.6629638671875
5321496875.0 1.4912109375 -0.42938232421875
5352718750.0 0.9212646484375 -1.15167236328125
5383940625.0 0.09710693359375 -1.49969482421875
5415162500.0 -0.8997802734375 -1.283935546875
5446384375.0 -1.4840087890625 -0.3702392578125
5477606250.0 -1.29864501953125 0.56561279296875
5508828125.0 -0.73162841796875 1.150390625
5540050000.0 0.0537109375 1.3980712890625
5571271875.0 0.9376220703125 1.1087646484375
5602493750.0 1.4072265625 0.26092529296875
5633715625.0 1.23236083984375 -0.61181640625
5664937500.0 0.648193359375 -1.20050048828125
5696159375.0 -0.19610595703125 -1.38348388671875
5727381250.0 -1.02166748046875 -0.9779052734375
5758603125.0 -1.39093017578125 -0.1453857421875
5789825000.0 -1.19378662109375 0.71783447265625
5821046875.0 -0.50604248046875 1.30682373046875
5852268750.0 0.41131591796875 1.31182861328125
5883490625.0 1.0701904296875 0.77215576171875
5914712500.0 1.301513671875 0.02044677734375
5945934375.0 1.0958251953125 -0.7742919921875
5977156250.0 0.3614501953125 -1.31103515625
6008378125.0 -0.50830078125 -1.18157958984375
6039600000.0 -1.0218505859375 -0.64923095703125
6070821875.0 -1.223388671875 -0.00439453125
6102043750.0 -1.08294677734375 0.76220703125
6133265625.0 -0.3421630859375 1.34490966796875
6164487500.0 0.56304931640625 1.18707275390625
6195709375.0 1.0706787109375 0.6300048828125
6226931250.0 1.2801513671875 -0.0430908203125
6258153125.0 1.10418701171875 -0.87115478515625
6289375000.0 0.256103515625 -1.44549560546875
6320596875.0 -0.688720703125 -1.20556640625
6351818750.0 -1.19970703125 -0.57110595703125
6383040625.0 -1.35479736328125 0.2076416015625
6414262500.0 -0.99969482421875 1.05615234375
6445484375.0 -0.07891845703125 1.4560546875
6476706250.0 0.796142578125 1.14739990234375
6507928125.0 1.28924560546875 0.470458984375
6539150000.0 1.34735107421875 -0.38629150390625
6570371875.0 0.84124755859375 -1.1427001953125
6601593750.0 -0.01690673828125 -1.40484619140625
6632815625.0 -0.83953857421875 -1.1361083984375
6664037500.0 -1.40130615234375 -0.419677734375
6695259375.0 -1.37359619140625 0.56585693359375
6726481250.0 -0.70989990234375 1.2509765625
6757703125.0 0.1304931640625 1.40679931640625
6788925000.0 0.95556640625 1.130615234375
6820146875.0 1.56011962890625 0.2869873046875
6851368750.0 1.32501220703125 -0.8193359375
6882590625.0 0.5062255859375 -1.33795166015625
6913812500.0 -0.29302978515625 -1.35614013671875
6945034375.0 -1.07025146484375 -1.02105712890625
6976256250.0 -1.59161376953125 -0.09283447265625
7007478125.0 -1.2359619140625 0.9324951171875
7038700000.0 -0.403076171875 1.341552734375
7069921875.0 0.35791015625 1.3226318359375
7101143750.0 1.11737060546875 0.9683837890625
7132365625.0 1.59814453125 0.0157470703125
7163587500.0 1.15789794921875 -1.01861572265625
7194809375.0 0.3026123046875 -1.3968505859375
7226031250.0 -0.5107421875 -1.324951171875
7257253125.0 -1.2669677734375 -0.82373046875
7288475000.0 -1.5574951171875 0.19769287109375
7319696875.0 -1.030029296875 1.10882568359375
7350918750.0 -0.16400146484375 1.44427490234375
7382140625.0 0.71484375 1.27642822265625
7413362500.0 1.37445068359375 0.575927734375
7444584375.0 1.41162109375 -0.40692138671875
7475806250.0 0.85797119140625 -1.14105224609375
7507028125.0 0.0064697265625 -1.42755126953125
7538250000.0 -0.88702392578125 -1.1234130859375
7569471875.0 -1.33587646484375 -0.31097412109375
7600693750.0 -1.2022705078125 0.49713134765625
7631915625.0 -0.718017578125 1.08453369140625
7663137500.0 0.08074951171875 1.3592529296875
7694359375.0 0.93994140625 0.98175048828125
7725581250.0 1.24432373046875 0.180908203125
7756803125.0 1.0831298828125 -0.49835205078125
7788025000.0 0.67083740234375 -1.04254150390625
7819246875.0 -0.12017822265625 -1.34796142578125
7850468750.0 -0.99359130859375 -0.91644287109375
7881690625.0 -1.2320556640625 -0.104736328125
7912912500.0 -1.054443359375 0.55487060546875
7944134375.0 -0.6043701171875 1.114501953125
7975356250.0 0.27142333984375 1.33514404296875
8006578125.0 1.0452880859375 0.7783203125
8037800000.0 1.193115234375 0.01678466796875
8069021875.0 1.00726318359375 -0.6177978515625
8100243750.0 0.4993896484375 -1.16241455078125
8131465625.0 -0.38580322265625 -1.25244140625
8162687500.0 -1.03265380859375 -0.68621826171875
8193909375.0 -1.18096923828125 0.00823974609375
8225131250.0 -1.01812744140625 0.6778564453125
8256353125.0 -0.42169189453125 1.24896240234375
8287575000.0 0.49896240234375 1.2254638671875
8318796875.0 1.0830078125 0.6346435546875
8350018750.0 1.24566650390625 -0.07568359375
8381240625.0 1.03167724609375 -0.84033203125
8412462500.0 0.25518798828125 -1.3719482421875
8443684375.0 -0.67041015625 -1.17083740234375
8474906250.0 -1.17474365234375 -0.53228759765625
8506128125.0 -1.2989501953125 0.23712158203125
8537350000.0 -0.92401123046875 1.04534912109375
8568571875.0 -0.01544189453125 1.395751953125
8599793750.0 0.80224609375 1.0523681640625
8631015625.0 1.239501953125 0.3994140625
8662237500.0 1.28692626953125 -0.429443359375
8693459375.0 0.73687744140625 -1.17645263671875
8724681250.0 -0.16058349609375 -1.332275390625
8755903125.0 -0.880279541015625 -0.957183837890625
8787125000.0 -1.30377197265625 -0.2821044921875
8818346875.0 -1.25048828125 0.613525390625
8849568750.0 -0.5565185546875 1.2623291015625
8880790625.0 0.299560546875 1.28564453125
8912012500.0 0.980010986328125 0.892791748046875
8943234375.0 1.4012451171875 0.12823486328125
8974456250.0 1.16607666015625 -0.8392333984375
9005678125.0 0.34832763671875 -1.31451416015625
9036900000.0 -0.443603515625 -1.22467041015625
9068121875.0 -1.0999755859375 -0.78564453125
9099343750.0 -1.44091796875 0.09918212890625
9130565625.0 -0.979736328125 1.010498046875
9161787500.0 -0.15386962890625 1.28277587890625
9193009375.0 0.5535888671875 1.13238525390625
9224231250.0 1.17730712890625 0.65594482421875
9255453125.0 1.39874267578125 -0.29443359375
9286675000.0 0.8092041015625 -1.08380126953125
9317896875.0 0.0274658203125 -1.24676513671875
9349118750.0 -0.652587890625 -1.0703125
9380340625.0 -1.2589111328125 -0.5096435546875
9411562500.0 -1.31072998046875 0.47589111328125
9442784375.0 -0.64825439453125 1.11810302734375
9474006250.0 0.0892333984375 1.21173095703125
9505228125.0 0.766815185546875 0.980682373046875
9536450000.0 1.27337646484375 0.313720703125
9567671875.0 1.14459228515625 -0.5799560546875
9598893750.0 0.52838134765625 -1.07012939453125
9630115625.0 -0.14276123046875 -1.1571044921875
9661337500.0 -0.818084716796875 -0.90087890625
9692559375.0 -1.23974609375 -0.1893310546875
9723781250.0 -1.043212890625 0.60321044921875
9755003125.0 -0.48590087890625 1.0501708984375
9786225000.0 0.19757080078125 1.15911865234375
9817446875.0 0.897064208984375 0.826629638671875
9848668750.0 1.1981201171875 0.07830810546875
9879890625.0 0.96923828125 -0.617095947265625
9911112500.0 0.452880859375 -1.0506591796875
9942334375.0 -0.2674560546875 -1.1595458984375
9973556250.0 -0.9434814453125 -0.73828125
10004778125.0 -1.14697265625 -0.017578125
10036000000.0 -0.9444580078125 0.616363525390625
10067221875.0 -0.4425048828125 1.0958251953125
10098443750.0 0.37091064453125 1.18109130859375
10129665625.0 1.0020751953125 0.642578125
10160887500.0 1.11968994140625 -0.05169677734375
10192109375.0 0.9178466796875 -0.663818359375
10223331250.0 0.3616943359375 -1.1514892578125
10254553125.0 -0.48516845703125 -1.11309814453125
10285775000.0 -0.986663818359375 -0.535125732421875
10316996875.0 -1.06646728515625 0.07611083984375
10348218750.0 -0.89984130859375 0.6702880859375
10379440625.0 -0.3218994140625 1.17449951171875
10410662500.0 0.526123046875 1.08599853515625
10441884375.0 0.992919921875 0.521392822265625
10473106250.0 1.11004638671875 -0.08392333984375
10504328125.0 0.94927978515625 -0.757598876953125
10535550000.0 0.24029541015625 -1.29376220703125
10566771875.0 -0.65771484375 -1.07696533203125
10597993750.0 -1.08135986328125 -0.45855712890625
10629215625.0 -1.175537109375 0.20654296875
10660437500.0 -0.888336181640625 0.952667236328125
10691659375.0 -0.00836181640625 1.33709716796875
10722881250.0 0.7843017578125 0.951324462890625
10754103125.0 1.1204833984375 0.32379150390625
10785325000.0 1.1396484375 -0.36798095703125
10816546875.0 0.7012939453125 -1.050537109375
10847768750.0 -0.14495849609375 -1.22882080078125
10878990625.0 -0.80267333984375 -0.84326171875
10910212500.0 -1.1219482421875 -0.24603271484375
10941434375.0 -1.0972900390625 0.476318359375
10972656250.0 -0.56756591796875 1.08563232421875
11003878125.0 0.218017578125 1.1746826171875
11035100000.0 0.850372314453125 0.821868896484375
11066321875.0 1.22039794921875 0.17547607421875
11097543750.0 1.09881591796875 -0.67877197265625
11128765625.0 0.38525390625 -1.19879150390625
11159987500.0 -0.396484375 -1.13922119140625
11191209375.0 -0.997406005859375 -0.701324462890625
11222431250.0 -1.272705078125 0.094482421875
11253653125.0 -0.85833740234375 0.895782470703125
11284875000.0 -0.1146240234375 1.12640380859375
11316096875.0 0.5126953125 0.9566650390625
11347318750.0 1.00396728515625 0.50140380859375
11378540625.0 1.1165771484375 -0.26934814453125
11409762500.0 0.63494873046875 -0.859130859375
11440984375.0 0.03564453125 -0.97906494140625
11472206250.0 -0.481781005859375 -0.8505859375
11503428125.0 -0.95361328125 -0.455718994140625
11534650000.0 -1.06915283203125 0.28887939453125
11565871875.0 -0.601959228515625 0.854217529296875
11597093750.0 -0.018280029296875 0.99163818359375
11628315625.0 0.54388427734375 0.8748779296875
11659537500.0 1.06024169921875 0.39190673828125
11690759375.0 1.06463623046875 -0.43426513671875
11721981250.0 0.516937255859375 -0.93963623046875
11753203125.0 -0.1065673828125 -1.03680419921875
11784425000.0 -0.72540283203125 -0.809295654296875
11815646875.0 -1.10089111328125 -0.1510009765625
11846868750.0 -0.89117431640625 0.551666259765625
11878090625.0 -0.391143798828125 0.9080810546875
11909312500.0 0.187469482421875 0.98443603515625
11940534375.0 0.77923583984375 0.695037841796875
11971756250.0 1.0245361328125 0.0399169921875
12002978125.0 0.80645751953125 -0.53814697265625
12034200000.0 0.381378173828125 -0.889251708984375
12065421875.0 -0.21746826171875 -1.01104736328125
12096643750.0 -0.848724365234375 -0.664306640625
12127865625.0 -1.03460693359375 0.01824951171875
12159087500.0 -0.814697265625 0.576629638671875
12190309375.0 -0.37677001953125 0.976806640625
12221531250.0 0.34051513671875 1.08770751953125
12252753125.0 0.98028564453125 0.580780029296875
12283975000.0 1.0540771484375 -0.12872314453125
12315196875.0 0.801025390625 -0.676666259765625
12346418750.0 0.28192138671875 -1.09222412109375
12377640625.0 -0.53948974609375 -1.06048583984375
12408862500.0 -1.03375244140625 -0.41845703125
12440084375.0 -1.0081787109375 0.22393798828125
12471306250.0 -0.741851806640625 0.737213134765625
12502528125.0 -0.17938232421875 1.12103271484375
12533750000.0 0.620513916015625 0.9935302734375
12564971875.0 1.04058837890625 0.3636474609375
12596193750.0 1.02972412109375 -0.26531982421875
12627415625.0 0.748504638671875 -0.82891845703125
12658637500.0 0.07904052734375 -1.20733642578125
12689859375.0 -0.73553466796875 -0.965911865234375
12721081250.0 -1.117919921875 -0.30511474609375
12752303125.0 -1.09783935546875 0.382568359375
12783525000.0 -0.68707275390625 1.02880859375
12814746875.0 0.16619873046875 1.2509765625
12845968750.0 0.863311767578125 0.8101806640625
12877190625.0 1.1180419921875 0.17132568359375
12908412500.0 1.0550537109375 -0.50238037109375
12939634375.0 0.5421142578125 -1.11724853515625
12970856250.0 -0.31927490234375 -1.173828125
13002078125.0 -0.894256591796875 -0.692413330078125
13033300000.0 -1.106689453125 -0.0860595703125
13064521875.0 -1.01007080078125 0.5958251953125
13095743750.0 -0.4189453125 1.15509033203125
13126965625.0 0.40911865234375 1.1202392578125
13158187500.0 0.948486328125 0.631591796875
13189409375.0 1.14886474609375 -0.02191162109375
13220631250.0 0.936370849609375 -0.74896240234375
13251853125.0 0.2330322265625 -1.17205810546875
13283075000.0 -0.50958251953125 -1.02020263671875
13314296875.0 -0.988189697265625 -0.52825927734375
13345518750.0 -1.1356201171875 0.1776123046875
