!Created with skrf (http://scikit-rf.org).
# Hz S RI R 50.0 
!freq ReS11 ImS11
45000000.0 -0.07715225219726562 -0.096710205078125
76221875.0 -0.19644927978515625 -0.04720306396484375
107443750.0 -0.254791259765625 0.1200408935546875
138665625.0 -0.1476898193359375 0.3287506103515625
169887500.0 0.1240081787109375 0.417266845703125
201109375.0 0.422149658203125 0.280303955078125
232331250.0 0.57879638671875 -0.0582275390625
263553125.0 0.489013671875 -0.4534149169921875
294775000.0 0.09771728515625 -0.732666015625
325996875.0 -0.41632080078125 -0.680023193359375
357218750.0 -0.806732177734375 -0.295989990234375
388440625.0 -0.885223388671875 0.3017578125
419662500.0 -0.51605224609375 0.866607666015625
450884375.0 0.17462158203125 1.0283203125
482106250.0 0.799102783203125 0.711395263671875
513328125.0 1.11920166015625 0.0859375
544550000.0 1.0028076171875 -0.68115234375
575771875.0 0.33489990234375 -1.2384033203125
606993750.0 -0.5550537109375 -1.17645263671875
638215625.0 -1.16619873046875 -0.5887451171875
669437500.0 -1.33917236328125 0.23516845703125
700659375.0 -0.96942138671875 1.09686279296875
731881250.0 -0.00213623046875 1.5423583984375
763103125.0 1.006591796875 1.1541748046875
794325000.0 1.46832275390625 0.280029296875
825546875.0 1.36572265625 -0.6527099609375
856768750.0 0.792236328125 -1.40118408203125
887990625.0 -0.29461669921875 -1.64703369140625
919212500.0 -1.2891845703125 -1.07666015625
950434375.0 -1.6480712890625 -0.05682373046875
981656250.0 -1.380859375 0.94708251953125
1012878125.0 -0.52752685546875 1.671875
1044100000.0 0.69879150390625 1.66033935546875
1075321875.0 1.57452392578125 0.809814453125
1106543750.0 1.70355224609375 -0.3150634765625
1137765625.0 1.184326171875 -1.2850341796875
1168987500.0 0.13616943359375 -1.79632568359375
1200209375.0 -1.06231689453125 -1.481201171875
1231431250.0 -1.7271728515625 -0.45074462890625
1262653125.0 -1.59283447265625 0.6861572265625
1293875000.0 -0.8494873046875 1.49200439453125
1325096875.0 0.23016357421875 1.70513916015625
1356318750.0 1.2354736328125 1.2142333984375
1387540625.0 1.73876953125 0.1868896484375
1418762500.0 1.46746826171875 -0.95269775390625
1449984375.0 0.52734375 -1.6259765625
1481206250.0 -0.55084228515625 -1.5543212890625
1512428125.0 -1.34210205078125 -0.91741943359375
1543650000.0 -1.654296875 0.067138671875
1574871875.0 -1.27142333984375 1.109619140625
1606093750.0 -0.2706298828125 1.631103515625
1637315625.0 0.7430419921875 1.398681640625
1668537500.0 1.39617919921875 0.69342041015625
1699759375.0 1.57147216796875 -0.27911376953125
1730981250.0 1.06195068359375 -1.22979736328125
1762203125.0 0.04022216796875 -1.56927490234375
1793425000.0 -0.8560791015625 -1.2244873046875
1824646875.0 -1.3927001953125 -0.513427734375
1855868750.0 -1.47235107421875 0.4339599609375
1887090625.0 -0.87310791015625 1.28460693359375
1918312500.0 0.1181640625 1.4857177734375
1949534375.0 0.9217529296875 1.08758544921875
1980756250.0 1.37481689453125 0.3682861328125
2011978125.0 1.35797119140625 -0.53302001953125
2043200000.0 0.74798583984375 -1.26092529296875
2074421875.0 -0.15863037109375 -1.43170166015625
2105643750.0 -0.96014404296875 -1.070556640625
2136865625.0 -1.4468994140625 -0.30303955078125
2168087500.0 -1.35516357421875 0.67181396484375
2199309375.0 -0.63720703125 1.35076904296875
2230531250.0 0.28314208984375 1.43475341796875
2261753125.0 1.0723876953125 1.011962890625
2292975000.0 1.51318359375 0.1685791015625
2324196875.0 1.3037109375 -0.81927490234375
2355418750.0 0.52337646484375 -1.4190673828125
2386640625.0 -0.4052734375 -1.447509765625
2417862500.0 -1.1796875 -1.022705078125
2449084375.0 -1.6038818359375 -0.08270263671875
2480306250.0 -1.30926513671875 0.927001953125
2511528125.0 -0.4918212890625 1.50750732421875
2542750000.0 0.48992919921875 1.534423828125
2573971875.0 1.3701171875 0.9659423828125
2605193750.0 1.71478271484375 -0.11297607421875
2636415625.0 1.25933837890625 -1.15313720703125
2667637500.0 0.3050537109375 -1.66497802734375
2698859375.0 -0.77142333984375 -1.53192138671875
2730081250.0 -1.57177734375 -0.738037109375
2761303125.0 -1.6790771484375 0.38916015625
2792525000.0 -1.09710693359375 1.30584716796875
2823746875.0 -0.10015869140625 1.72735595703125
2854968750.0 1.01263427734375 1.45306396484375
2886190625.0 1.6900634765625 0.48956298828125
2917412500.0 1.597900390625 -0.61920166015625
2948634375.0 0.936767578125 -1.432373046875
2979856250.0 -0.10906982421875 -1.77362060546875
3011078125.0 -1.24774169921875 -1.33953857421875
3042300000.0 -1.7735595703125 -0.232421875
3073521875.0 -1.5059814453125 0.837890625
3104743750.0 -0.76068115234375 1.56768798828125
3135965625.0 0.36383056640625 1.8065185546875
3167187500.0 1.498779296875 1.1614990234375
3198409375.0 1.8143310546875 -0.07745361328125
3229631250.0 1.34600830078125 -1.0806884765625
3260853125.0 0.48724365234375 -1.66668701171875
3292075000.0 -0.6573486328125 -1.6961669921875
3323296875.0 -1.6185302734375 -0.8773193359375
3354518750.0 -1.72821044921875 0.330322265625
3385740625.0 -1.1529541015625 1.23272705078125
3416962500.0 -0.2293701171875 1.67974853515625
3448184375.0 0.86053466796875 1.5189208984375
3479406250.0 1.63482666015625 0.6414794921875
3510628125.0 1.64178466796875 -0.4962158203125
3541850000.0 0.99835205078125 -1.35540771484375
3573071875.0 -0.0089111328125 -1.68023681640625
3604293750.0 -1.0274658203125 -1.33514404296875
3635515625.0 -1.625732421875 -0.43695068359375
3666737500.0 -1.55950927734375 0.64715576171875
3697959375.0 -0.822509765625 1.47479248046875
3729181250.0 0.2694091796875 1.62835693359375
3760403125.0 1.1531982421875 1.09576416015625
3791625000.0 1.55010986328125 0.2169189453125
3822846875.0 1.39947509765625 -0.761474609375
3854068750.0 0.61798095703125 -1.47943115234375
3885290625.0 -0.4217529296875 -1.478515625
3916512500.0 -1.140625 -0.90875244140625
3947734375.0 -1.4453125 -0.118896484375
3978956250.0 -1.29461669921875 0.7777099609375
4010178125.0 -0.52960205078125 1.4525146484375
4041400000.0 0.474609375 1.41339111328125
4072621875.0 1.151611328125 0.845703125
4103843750.0 1.4432373046875 0.06170654296875
4135065625.0 1.26556396484375 -0.8455810546875
4166287500.0 0.456787109375 -1.493408203125
4197509375.0 -0.55767822265625 -1.41314697265625
4228731250.0 -1.24725341796875 -0.80126953125
4259953125.0 -1.50738525390625 0.07159423828125
4291175000.0 -1.1861572265625 1.00970458984375
4322396875.0 -0.288330078125 1.52447509765625
4353618750.0 0.672607421875 1.34771728515625
4384840625.0 1.3212890625 0.69512939453125
4416062500.0 1.49951171875 -0.22900390625
4447284375.0 1.05267333984375 -1.103271484375
4478506250.0 0.17156982421875 -1.4931640625
4509728125.0 -0.732666015625 -1.3056640625
4540950000.0 -1.39276123046875 -0.63409423828125
4572171875.0 -1.52056884765625 0.36114501953125
4603393750.0 -0.9710693359375 1.21197509765625
4634615625.0 -0.05975341796875 1.5360107421875
4665837500.0 0.87005615234375 1.3026123046875
4697059375.0 1.54132080078125 0.512939453125
4728281250.0 1.52685546875 -0.582763671875
4759503125.0 0.82080078125 -1.36669921875
4790725000.0 -0.1468505859375 -1.5711669921875
4821946875.0 -1.083740234375 -1.1925048828125
4853168750.0 -1.61126708984375 -0.25030517578125
4884390625.0 -1.375732421875 0.79278564453125
4915612500.0 -0.61175537109375 1.4117431640625
4946834375.0 0.3291015625 1.5069580078125
4978056250.0 1.2041015625 1.014892578125
5009278125.0 1.5604248046875 0.03863525390625
5040500000.0 1.2271728515625 -0.87591552734375
5071721875.0 0.49993896484375 -1.4144287109375
5102943750.0 -0.44732666015625 -1.4949951171875
5134165625.0 -1.33636474609375 -0.9039306640625
5165387500.0 -1.56707763671875 0.14752197265625
5196609375.0 -1.1343994140625 1.00909423828125
5227831250.0 -0.3560791015625 1.5050048828125
5259053125.0 0.6873779296875 1.49005126953125
5290275000.0 1.520263671875 0.66162109375
5321496875.0 1.49090576171875 -0.430908203125
5352718750.0 0.91961669921875 -1.15386962890625
5383940625.0 0.0955810546875 -1.49871826171875
5415162500.0 -0.89984130859375 -1.28179931640625
5446384375.0 -1.48291015625 -0.369140625
5477606250.0 -1.29736328125 0.56689453125
5508828125.0 -0.72967529296875 1.15045166015625
5540050000.0 0.05401611328125 1.39678955078125
5571271875.0 0.9385986328125 1.10748291015625
5602493750.0 1.4078369140625 0.2586669921875
5633715625.0 1.23065185546875 -0.6138916015625
5664937500.0 0.64697265625 -1.20135498046875
5696159375.0 -0.19769287109375 -1.3828125
5727381250.0 -1.02142333984375 -0.9774169921875
5758603125.0 -1.3907470703125 -0.1439208984375
5789825000.0 -1.19268798828125 0.71746826171875
5821046875.0 -0.50555419921875 1.30657958984375
5852268750.0 0.41192626953125 1.31182861328125
5883490625.0 1.0714111328125 0.77093505859375
5914712500.0 1.30242919921875 0.01837158203125
5945934375.0 1.09515380859375 -0.77642822265625
5977156250.0 0.35980224609375 -1.3116455078125
6008378125.0 -0.51031494140625 -1.18133544921875
6039600000.0 -1.02191162109375 -0.6474609375
6070821875.0 -1.22320556640625 -0.00360107421875
6102043750.0 -1.08209228515625 0.762939453125
6133265625.0 -0.3408203125 1.3441162109375
6164487500.0 0.562744140625 1.18609619140625
6195709375.0 1.07122802734375 0.6285400390625
6226931250.0 1.27874755859375 -0.0433349609375
6258153125.0 1.1031494140625 -0.87066650390625
6289375000.0 0.25579833984375 -1.44549560546875
6320596875.0 -0.68994140625 -1.20489501953125
6351818750.0 -1.19989013671875 -0.57110595703125
6383040625.0 -1.353759765625 0.20703125
6414262500.0 -0.9981689453125 1.05712890625
6445484375.0 -0.0771484375 1.45648193359375
6476706250.0 0.79571533203125 1.1468505859375
6507928125.0 1.28985595703125 0.468994140625
6539150000.0 1.34637451171875 -0.38726806640625
6570371875.0 0.8397216796875 -1.14337158203125
6601593750.0 -0.0184326171875 -1.40338134765625
6632815625.0 -0.83868408203125 -1.13433837890625
6664037500.0 -1.40118408203125 -0.4189453125
6695259375.0 -1.372802734375 0.56719970703125
6726481250.0 -0.70892333984375 1.2513427734375
6757703125.0 0.13140869140625 1.4061279296875
6788925000.0 0.9547119140625 1.12896728515625
6820146875.0 1.55859375 0.2874755859375
6851368750.0 1.3250732421875 -0.8197021484375
6882590625.0 0.50518798828125 -1.33892822265625
6913812500.0 -0.2933349609375 -1.3560791015625
6945034375.0 -1.06976318359375 -1.0206298828125
6976256250.0 -1.59100341796875 -0.09283447265625
7007478125.0 -1.235107421875 0.9345703125
7038700000.0 -0.4007568359375 1.34185791015625
7069921875.0 0.36053466796875 1.3236083984375
7101143750.0 1.11822509765625 0.96710205078125
7132365625.0 1.5987548828125 0.012939453125
7163587500.0 1.15692138671875 -1.0194091796875
7194809375.0 0.300048828125 -1.39837646484375
7226031250.0 -0.51190185546875 -1.323486328125
7257253125.0 -1.26849365234375 -0.82421875
7288475000.0 -1.5579833984375 0.19915771484375
7319696875.0 -1.02923583984375 1.10821533203125
7350918750.0 -0.16448974609375 1.44342041015625
7382140625.0 0.7152099609375 1.27532958984375
7413362500.0 1.3741455078125 0.57562255859375
7444584375.0 1.41204833984375 -0.4072265625
7475806250.0 0.85662841796875 -1.14239501953125
7507028125.0 0.00408935546875 -1.42938232421875
7538250000.0 -0.88592529296875 -1.123779296875
7569471875.0 -1.33544921875 -0.3095703125
7600693750.0 -1.20098876953125 0.4970703125
7631915625.0 -0.7169189453125 1.0845947265625
7663137500.0 0.0821533203125 1.35748291015625
7694359375.0 0.937469482421875 0.977996826171875
7725581250.0 1.2425537109375 0.1798095703125
7756803125.0 1.081787109375 -0.500244140625
7788025000.0 0.6683349609375 -1.0435791015625
7819246875.0 -0.1217041015625 -1.34649658203125
7850468750.0 -0.99237060546875 -0.914794921875
7881690625.0 -1.23046875 -0.10491943359375
7912912500.0 -1.05389404296875 0.5533447265625
7944134375.0 -0.60516357421875 1.1124267578125
7975356250.0 0.27166748046875 1.3343505859375
8006578125.0 1.047119140625 0.77838134765625
8037800000.0 1.1939697265625 0.0155029296875
8069021875.0 1.00531005859375 -0.617919921875
8100243750.0 0.498779296875 -1.16131591796875
8131465625.0 -0.38690185546875 -1.25360107421875
8162687500.0 -1.03076171875 -0.68597412109375
8193909375.0 -1.18017578125 0.00970458984375
8225131250.0 -1.01641845703125 0.67919921875
8256353125.0 -0.42010498046875 1.24786376953125
8287575000.0 0.50018310546875 1.2257080078125
8318796875.0 1.08245849609375 0.63525390625
8350018750.0 1.24530029296875 -0.07684326171875
8381240625.0 1.0299072265625 -0.83953857421875
8412462500.0 0.254638671875 -1.37188720703125
8443684375.0 -0.66973876953125 -1.169677734375
8474906250.0 -1.175048828125 -0.53173828125
8506128125.0 -1.2958984375 0.2357177734375
8537350000.0 -0.92266845703125 1.046630859375
8568571875.0 -0.01715087890625 1.39337158203125
8599793750.0 0.8031005859375 1.05279541015625
8631015625.0 1.24169921875 0.39678955078125
8662237500.0 1.28497314453125 -0.4298095703125
8693459375.0 0.73577880859375 -1.17938232421875
8724681250.0 -0.16363525390625 -1.33099365234375
8755903125.0 -0.880035400390625 -0.9569091796875
8787125000.0 -1.302490234375 -0.2808837890625
8818346875.0 -1.24920654296875 0.614990234375
8849568750.0 -0.5557861328125 1.26007080078125
8880790625.0 0.29864501953125 1.28472900390625
8912012500.0 0.983306884765625 0.891571044921875
8943234375.0 1.39849853515625 0.1285400390625
8974456250.0 1.166259765625 -0.83770751953125
9005678125.0 0.3485107421875 -1.31292724609375
9036900000.0 -0.44635009765625 -1.22503662109375
9068121875.0 -1.10272216796875 -0.78460693359375
9099343750.0 -1.43988037109375 0.09735107421875
9130565625.0 -0.9791259765625 1.01318359375
9161787500.0 -0.154052734375 1.2833251953125
9193009375.0 0.5546875 1.133544921875
9224231250.0 1.1827392578125 0.65362548828125
9255453125.0 1.3985595703125 -0.29449462890625
9286675000.0 0.806396484375 -1.08624267578125
9317896875.0 0.0257568359375 -1.24700927734375
9349118750.0 -0.65533447265625 -1.06890869140625
9380340625.0 -1.25701904296875 -0.50909423828125
9411562500.0 -1.31085205078125 0.47747802734375
9442784375.0 -0.6466064453125 1.11737060546875
9474006250.0 0.0880126953125 1.21002197265625
9505228125.0 0.764251708984375 0.979278564453125
9536450000.0 1.2738037109375 0.31329345703125
9567671875.0 1.14385986328125 -0.58013916015625
9598893750.0 0.52996826171875 -1.06884765625
9630115625.0 -0.1435546875 -1.15753173828125
9661337500.0 -0.82061767578125 -0.900970458984375
9692559375.0 -1.23907470703125 -0.190185546875
9723781250.0 -1.0426025390625 0.602783203125
9755003125.0 -0.48541259765625 1.05078125
9786225000.0 0.198974609375 1.15972900390625
9817446875.0 0.89727783203125 0.826995849609375
9848668750.0 1.1978759765625 0.0780029296875
9879890625.0 0.968231201171875 -0.616973876953125
9911112500.0 0.45111083984375 -1.0538330078125
9942334375.0 -0.2689208984375 -1.15875244140625
9973556250.0 -0.94122314453125 -0.737762451171875
10004778125.0 -1.1448974609375 -0.017822265625
10036000000.0 -0.94366455078125 0.616668701171875
10067221875.0 -0.44195556640625 1.095703125
10098443750.0 0.36895751953125 1.180908203125
10129665625.0 1.00262451171875 0.642822265625
10160887500.0 1.1212158203125 -0.05279541015625
10192109375.0 0.91717529296875 -0.664215087890625
10223331250.0 0.3616943359375 -1.1517333984375
10254553125.0 -0.48602294921875 -1.11322021484375
10285775000.0 -0.9866943359375 -0.53515625
10316996875.0 -1.0667724609375 0.0765380859375
10348218750.0 -0.899200439453125 0.668975830078125
10379440625.0 -0.322021484375 1.17523193359375
10410662500.0 0.5264892578125 1.0850830078125
10441884375.0 0.99163818359375 0.521392822265625
10473106250.0 1.10858154296875 -0.08380126953125
10504328125.0 0.9476318359375 -0.75506591796875
10535550000.0 0.2396240234375 -1.29376220703125
10566771875.0 -0.65838623046875 -1.0771484375
10597993750.0 -1.081787109375 -0.4581298828125
10629215625.0 -1.17462158203125 0.20587158203125
10660437500.0 -0.886383056640625 0.9505615234375
10691659375.0 -0.00909423828125 1.33636474609375
10722881250.0 0.786346435546875 0.952301025390625
10754103125.0 1.11895751953125 0.32489013671875
10785325000.0 1.1395263671875 -0.36749267578125
10816546875.0 0.700439453125 -1.049072265625
10847768750.0 -0.1461181640625 -1.22906494140625
10878990625.0 -0.804046630859375 -0.843231201171875
10910212500.0 -1.1219482421875 -0.24493408203125
10941434375.0 -1.0968017578125 0.47760009765625
10972656250.0 -0.56781005859375 1.0848388671875
11003878125.0 0.2166748046875 1.1719970703125
11035100000.0 0.847564697265625 0.821258544921875
11066321875.0 1.221923828125 0.172119140625
11097543750.0 1.097412109375 -0.6763916015625
11128765625.0 0.38519287109375 -1.198486328125
11159987500.0 -0.396484375 -1.13922119140625
11191209375.0 -0.99993896484375 -0.701385498046875
11222431250.0 -1.27069091796875 0.0933837890625
11253653125.0 -0.85888671875 0.8939208984375
11284875000.0 -0.11474609375 1.126953125
11316096875.0 0.51141357421875 0.956298828125
11347318750.0 1.00225830078125 0.50103759765625
11378540625.0 1.11639404296875 -0.26910400390625
11409762500.0 0.634429931640625 -0.86004638671875
11440984375.0 0.034881591796875 -0.978179931640625
11472206250.0 -0.48193359375 -0.84991455078125
11503428125.0 -0.950927734375 -0.455596923828125
11534650000.0 -1.067626953125 0.2874755859375
11565871875.0 -0.602142333984375 0.85369873046875
11597093750.0 -0.017181396484375 0.9918212890625
11628315625.0 0.54559326171875 0.875579833984375
11659537500.0 1.05999755859375 0.39324951171875
11690759375.0 1.0640869140625 -0.43353271484375
11721981250.0 0.5167236328125 -0.94140625
11753203125.0 -0.10528564453125 -1.036865234375
11784425000.0 -0.72491455078125 -0.808013916015625
11815646875.0 -1.10101318359375 -0.15008544921875
11846868750.0 -0.892364501953125 0.5511474609375
11878090625.0 -0.39044189453125 0.907958984375
11909312500.0 0.187347412109375 0.984527587890625
11940534375.0 0.77850341796875 0.6942138671875
11971756250.0 1.02398681640625 0.03997802734375
12002978125.0 0.8062744140625 -0.53717041015625
12034200000.0 0.381683349609375 -0.889495849609375
12065421875.0 -0.21533203125 -1.009521484375
12096643750.0 -0.847991943359375 -0.664581298828125
12127865625.0 -1.0343017578125 0.01861572265625
12159087500.0 -0.8148193359375 0.575927734375
12190309375.0 -0.37786865234375 0.975128173828125
12221531250.0 0.33868408203125 1.08758544921875
12252753125.0 0.980072021484375 0.581756591796875
12283975000.0 1.0546875 -0.12884521484375
12315196875.0 0.79998779296875 -0.67431640625
12346418750.0 0.28094482421875 -1.09130859375
12377640625.0 -0.53717041015625 -1.05999755859375
12408862500.0 -1.03387451171875 -0.42047119140625
12440084375.0 -1.00726318359375 0.22393798828125
12471306250.0 -0.740753173828125 0.73651123046875
12502528125.0 -0.17724609375 1.122314453125
12533750000.0 0.62042236328125 0.99322509765625
12564971875.0 1.04156494140625 0.36297607421875
12596193750.0 1.029541015625 -0.26312255859375
12627415625.0 0.74786376953125 -0.82891845703125
12658637500.0 0.0792236328125 -1.2076416015625
12689859375.0 -0.7340087890625 -0.96502685546875
12721081250.0 -1.11566162109375 -0.30584716796875
12752303125.0 -1.09735107421875 0.38330078125
12783525000.0 -0.6871337890625 1.02764892578125
12814746875.0 0.16741943359375 1.252685546875
12845968750.0 0.861053466796875 0.81060791015625
12877190625.0 1.11688232421875 0.17083740234375
12908412500.0 1.0552978515625 -0.50225830078125
12939634375.0 0.543212890625 -1.1168212890625
12970856250.0 -0.31951904296875 -1.17352294921875
13002078125.0 -0.89483642578125 -0.691680908203125
13033300000.0 -1.1043701171875 -0.08721923828125
13064521875.0 -1.00933837890625 0.5933837890625
13095743750.0 -0.42059326171875 1.15478515625
13126965625.0 0.40948486328125 1.12109375
13158187500.0 0.9464111328125 0.631500244140625
13189409375.0 1.1475830078125 -0.02227783203125
13220631250.0 0.934722900390625 -0.74676513671875
13251853125.0 0.23394775390625 -1.1710205078125
13283075000.0 -0.50665283203125 -1.01910400390625
13314296875.0 -0.986328125 -0.528106689453125
13345518750.0 -1.134033203125 0.17608642578125
