!Created with skrf (http://scikit-rf.org).
# Hz S RI R 50.0 
!freq ReS11 ImS11
45000000.0 -0.07720565795898438 -0.096923828125
76221875.0 -0.19732666015625 -0.04773712158203125
107443750.0 -0.2561798095703125 0.1206207275390625
138665625.0 -0.14874267578125 0.3299713134765625
169887500.0 0.1240234375 0.41925048828125
201109375.0 0.4234619140625 0.2824554443359375
232331250.0 0.5814208984375 -0.0574951171875
263553125.0 0.491973876953125 -0.455169677734375
294775000.0 0.09869384765625 -0.736236572265625
325996875.0 -0.417694091796875 -0.6842041015625
357218750.0 -0.810943603515625 -0.298858642578125
388440625.0 -0.890411376953125 0.3021240234375
419662500.0 -0.51995849609375 0.870269775390625
450884375.0 0.17364501953125 1.0338134765625
482106250.0 0.80194091796875 0.71612548828125
513328125.0 1.12451171875 0.087890625
544550000.0 1.00799560546875 -0.6826171875
575771875.0 0.3380126953125 -1.2430419921875
606993750.0 -0.55535888671875 -1.1822509765625
638215625.0 -1.17022705078125 -0.5933837890625
669437500.0 -1.34521484375 0.23406982421875
700659375.0 -0.97528076171875 1.09991455078125
731881250.0 -0.00469970703125 1.54901123046875
763103125.0 1.0089111328125 1.1612548828125
794325000.0 1.4747314453125 0.28399658203125
825546875.0 1.37335205078125 -0.65350341796875
856768750.0 0.79833984375 -1.4075927734375
887990625.0 -0.2945556640625 -1.6566162109375
919212500.0 -1.294921875 -1.08416748046875
950434375.0 -1.657958984375 -0.0587158203125
981656250.0 -1.38970947265625 0.951171875
1012878125.0 -0.53228759765625 1.6810302734375
1044100000.0 0.70111083984375 1.6707763671875
1075321875.0 1.58404541015625 0.8157958984375
1106543750.0 1.7135009765625 -0.31463623046875
1137765625.0 1.1923828125 -1.2906494140625
1168987500.0 0.13916015625 -1.80621337890625
1200209375.0 -1.0672607421875 -1.4915771484375
1231431250.0 -1.73675537109375 -0.45562744140625
1262653125.0 -1.601806640625 0.68865966796875
1293875000.0 -0.85614013671875 1.49774169921875
1325096875.0 0.22857666015625 1.71466064453125
1356318750.0 1.2410888671875 1.22271728515625
1387540625.0 1.74847412109375 0.1900634765625
1418762500.0 1.476806640625 -0.955322265625
1449984375.0 0.53204345703125 -1.63372802734375
1481206250.0 -0.55224609375 -1.56353759765625
1512428125.0 -1.347900390625 -0.924072265625
1543650000.0 -1.66314697265625 0.06591796875
1574871875.0 -1.2786865234375 1.11383056640625
1606093750.0 -0.27374267578125 1.6385498046875
1637315625.0 0.745361328125 1.4063720703125
1668537500.0 1.40216064453125 0.6988525390625
1699759375.0 1.57928466796875 -0.2781982421875
1730981250.0 1.06854248046875 -1.2340087890625
1762203125.0 0.04254150390625 -1.576416015625
1793425000.0 -0.85906982421875 -1.2313232421875
1824646875.0 -1.39874267578125 -0.5177001953125
1855868750.0 -1.48040771484375 0.43365478515625
1887090625.0 -0.87939453125 1.290283203125
1918312500.0 0.1171875 1.4932861328125
1949534375.0 0.9251708984375 1.0938720703125
1980756250.0 1.38092041015625 0.3719482421875
2011978125.0 1.364990234375 -0.53350830078125
2043200000.0 0.753173828125 -1.26666259765625
2074421875.0 -0.1572265625 -1.4388427734375
2105643750.0 -0.964111328125 -1.07672119140625
2136865625.0 -1.45269775390625 -0.30615234375
2168087500.0 -1.3623046875 0.673583984375
2199309375.0 -0.6417236328125 1.35614013671875
2230531250.0 0.2828369140625 1.441650390625
2261753125.0 1.07684326171875 1.0179443359375
2292975000.0 1.51995849609375 0.17108154296875
2324196875.0 1.31036376953125 -0.82110595703125
2355418750.0 0.52789306640625 -1.4251708984375
2386640625.0 -0.40606689453125 -1.45452880859375
2417862500.0 -1.1865234375 -1.02911376953125
2449084375.0 -1.61376953125 -0.08282470703125
2480306250.0 -1.3167724609375 0.93060302734375
2511528125.0 -0.495849609375 1.513916015625
2542750000.0 0.490966796875 1.54278564453125
2573971875.0 1.377197265625 0.97198486328125
2605193750.0 1.72564697265625 -0.1134033203125
2636415625.0 1.26702880859375 -1.16064453125
2667637500.0 0.3070068359375 -1.6751708984375
2698859375.0 -0.774658203125 -1.541259765625
2730081250.0 -1.58282470703125 -0.74298095703125
2761303125.0 -1.6900634765625 0.39129638671875
2792525000.0 -1.1043701171875 1.31500244140625
2823746875.0 -0.10125732421875 1.73870849609375
2854968750.0 1.01715087890625 1.46240234375
2886190625.0 1.6993408203125 0.49365234375
2917412500.0 1.60760498046875 -0.6209716796875
2948634375.0 0.94384765625 -1.43927001953125
2979856250.0 -0.10968017578125 -1.78485107421875
3011078125.0 -1.25531005859375 -1.3486328125
3042300000.0 -1.784423828125 -0.23388671875
3073521875.0 -1.5159912109375 0.84417724609375
3104743750.0 -0.76666259765625 1.57647705078125
3135965625.0 0.364501953125 1.81805419921875
3167187500.0 1.5076904296875 1.16961669921875
3198409375.0 1.82440185546875 -0.07659912109375
3229631250.0 1.355224609375 -1.08740234375
3260853125.0 0.490966796875 -1.6766357421875
3292075000.0 -0.65850830078125 -1.70562744140625
3323296875.0 -1.62860107421875 -0.8826904296875
3354518750.0 -1.73785400390625 0.33062744140625
3385740625.0 -1.16033935546875 1.23797607421875
3416962500.0 -0.23077392578125 1.6903076171875
3448184375.0 0.86553955078125 1.5286865234375
3479406250.0 1.64471435546875 0.646240234375
3510628125.0 1.6512451171875 -0.4971923828125
3541850000.0 1.0047607421875 -1.36102294921875
3573071875.0 -0.008056640625 -1.689697265625
3604293750.0 -1.03240966796875 -1.34283447265625
3635515625.0 -1.635009765625 -0.44000244140625
3666737500.0 -1.56866455078125 0.650634765625
3697959375.0 -0.8280029296875 1.48187255859375
3729181250.0 0.270751953125 1.637451171875
3760403125.0 1.15924072265625 1.1024169921875
3791625000.0 1.56024169921875 0.21783447265625
3822846875.0 1.4078369140625 -0.7640380859375
3854068750.0 0.62255859375 -1.4881591796875
3885290625.0 -0.42401123046875 -1.48748779296875
3916512500.0 -1.14739990234375 -0.9141845703125
3947734375.0 -1.45281982421875 -0.120849609375
3978956250.0 -1.30328369140625 0.78265380859375
4010178125.0 -0.53265380859375 1.4619140625
4041400000.0 0.47674560546875 1.42108154296875
4072621875.0 1.15655517578125 0.85009765625
4103843750.0 1.45037841796875 0.06304931640625
4135065625.0 1.27227783203125 -0.8507080078125
4166287500.0 0.458740234375 -1.5028076171875
4197509375.0 -0.56146240234375 -1.42034912109375
4228731250.0 -1.2532958984375 -0.804931640625
4259953125.0 -1.51470947265625 0.07183837890625
4291175000.0 -1.1927490234375 1.0152587890625
4322396875.0 -0.29022216796875 1.5328369140625
4353618750.0 0.67718505859375 1.35491943359375
4384840625.0 1.32879638671875 0.6986083984375
4416062500.0 1.5067138671875 -0.2301025390625
4447284375.0 1.05877685546875 -1.1094970703125
4478506250.0 0.171875 -1.5015869140625
4509728125.0 -0.7371826171875 -1.3126220703125
4540950000.0 -1.40032958984375 -0.63775634765625
4572171875.0 -1.5284423828125 0.3634033203125
4603393750.0 -0.9754638671875 1.21710205078125
4634615625.0 -0.0596923828125 1.54302978515625
4665837500.0 0.8741455078125 1.30853271484375
4697059375.0 1.54754638671875 0.51739501953125
4728281250.0 1.5355224609375 -0.58624267578125
4759503125.0 0.82537841796875 -1.3734130859375
4790725000.0 -0.14697265625 -1.57855224609375
4821946875.0 -1.08758544921875 -1.1981201171875
4853168750.0 -1.6197509765625 -0.25140380859375
4884390625.0 -1.38330078125 0.7979736328125
4915612500.0 -0.61456298828125 1.41815185546875
4946834375.0 0.3314208984375 1.51519775390625
4978056250.0 1.21014404296875 1.0208740234375
5009278125.0 1.56878662109375 0.03875732421875
5040500000.0 1.23345947265625 -0.8809814453125
5071721875.0 0.502197265625 -1.42059326171875
5102943750.0 -0.44903564453125 -1.502197265625
5134165625.0 -1.3414306640625 -0.908203125
5165387500.0 -1.57403564453125 0.1470947265625
5196609375.0 -1.1402587890625 1.0135498046875
5227831250.0 -0.35760498046875 1.51202392578125
5259053125.0 0.6917724609375 1.49737548828125
5290275000.0 1.52923583984375 0.6641845703125
5321496875.0 1.49822998046875 -0.43463134765625
5352718750.0 0.92364501953125 -1.15802001953125
5383940625.0 0.09661865234375 -1.5057373046875
5415162500.0 -0.90472412109375 -1.288330078125
5446384375.0 -1.4913330078125 -0.37017822265625
5477606250.0 -1.3035888671875 0.56842041015625
5508828125.0 -0.7335205078125 1.155517578125
5540050000.0 0.055419921875 1.40472412109375
5571271875.0 0.9442138671875 1.11279296875
5602493750.0 1.4134521484375 0.260498046875
5633715625.0 1.23602294921875 -0.614990234375
5664937500.0 0.65008544921875 -1.2061767578125
5696159375.0 -0.198974609375 -1.38958740234375
5727381250.0 -1.02642822265625 -0.9818115234375
5758603125.0 -1.39727783203125 -0.144775390625
5789825000.0 -1.19915771484375 0.72210693359375
5821046875.0 -0.50750732421875 1.31231689453125
5852268750.0 0.413818359375 1.31787109375
5883490625.0 1.07666015625 0.77490234375
5914712500.0 1.308349609375 0.01849365234375
5945934375.0 1.10064697265625 -0.78009033203125
5977156250.0 0.36181640625 -1.317626953125
6008378125.0 -0.5135498046875 -1.18695068359375
6039600000.0 -1.0267333984375 -0.650634765625
6070821875.0 -1.2281494140625 -0.0037841796875
6102043750.0 -1.0872802734375 0.76690673828125
6133265625.0 -0.341552734375 1.35003662109375
6164487500.0 0.56719970703125 1.19134521484375
6195709375.0 1.074951171875 0.6319580078125
6226931250.0 1.28509521484375 -0.044189453125
6258153125.0 1.10845947265625 -0.87548828125
6289375000.0 0.2559814453125 -1.45166015625
6320596875.0 -0.69329833984375 -1.20947265625
6351818750.0 -1.204833984375 -0.572998046875
6383040625.0 -1.35968017578125 0.2081298828125
6414262500.0 -1.002685546875 1.06280517578125
6445484375.0 -0.07611083984375 1.4635009765625
6476706250.0 0.8006591796875 1.15118408203125
6507928125.0 1.29571533203125 0.470703125
6539150000.0 1.35247802734375 -0.38909912109375
6570371875.0 0.84356689453125 -1.149658203125
6601593750.0 -0.01861572265625 -1.4102783203125
6632815625.0 -0.8455810546875 -1.14044189453125
6664037500.0 -1.406494140625 -0.420654296875
6695259375.0 -1.378173828125 0.5689697265625
6726481250.0 -0.7117919921875 1.2568359375
6757703125.0 0.1326904296875 1.4122314453125
6788925000.0 0.96063232421875 1.1343994140625
6820146875.0 1.5675048828125 0.2869873046875
6851368750.0 1.33026123046875 -0.82330322265625
6882590625.0 0.5072021484375 -1.34417724609375
6913812500.0 -0.2947998046875 -1.361328125
6945034375.0 -1.0765380859375 -1.024658203125
6976256250.0 -1.59942626953125 -0.09185791015625
7007478125.0 -1.24072265625 0.93853759765625
7038700000.0 -0.4019775390625 1.351318359375
7069921875.0 0.3626708984375 1.32940673828125
7101143750.0 1.12872314453125 0.9722900390625
7132365625.0 1.6068115234375 0.01226806640625
7163587500.0 1.16107177734375 -1.02569580078125
7194809375.0 0.30084228515625 -1.40509033203125
7226031250.0 -0.51556396484375 -1.3319091796875
7257253125.0 -1.27581787109375 -0.82666015625
7288475000.0 -1.56488037109375 0.20001220703125
7319696875.0 -1.033203125 1.11676025390625
7350918750.0 -0.1624755859375 1.45159912109375
7382140625.0 0.7210693359375 1.28155517578125
7413362500.0 1.38226318359375 0.57769775390625
7444584375.0 1.41693115234375 -0.408935546875
7475806250.0 0.861083984375 -1.15057373046875
7507028125.0 0.00262451171875 -1.4365234375
7538250000.0 -0.89520263671875 -1.12811279296875
7569471875.0 -1.34429931640625 -0.30938720703125
7600693750.0 -1.207763671875 0.5015869140625
7631915625.0 -0.719970703125 1.09075927734375
7663137500.0 0.08203125 1.36376953125
7694359375.0 0.9461669921875 0.983489990234375
7725581250.0 1.249267578125 0.1800537109375
7756803125.0 1.08709716796875 -0.50152587890625
7788025000.0 0.6712646484375 -1.0513916015625
7819246875.0 -0.12164306640625 -1.352294921875
7850468750.0 -0.998046875 -0.919097900390625
7881690625.0 -1.2386474609375 -0.10302734375
7912912500.0 -1.05987548828125 0.55889892578125
7944134375.0 -0.6072998046875 1.119140625
7975356250.0 0.27783203125 1.34271240234375
8006578125.0 1.05291748046875 0.78094482421875
8037800000.0 1.19842529296875 0.01495361328125
8069021875.0 1.01116943359375 -0.62237548828125
8100243750.0 0.49993896484375 -1.168701171875
8131465625.0 -0.39239501953125 -1.25860595703125
8162687500.0 -1.03802490234375 -0.68743896484375
8193909375.0 -1.186279296875 0.01025390625
8225131250.0 -1.02191162109375 0.6820068359375
8256353125.0 -0.42047119140625 1.25592041015625
8287575000.0 0.50531005859375 1.23101806640625
8318796875.0 1.08758544921875 0.63665771484375
8350018750.0 1.25128173828125 -0.0780029296875
8381240625.0 1.0350341796875 -0.84405517578125
8412462500.0 0.252685546875 -1.38018798828125
8443684375.0 -0.6759033203125 -1.17425537109375
8474906250.0 -1.18243408203125 -0.5325927734375
8506128125.0 -1.30279541015625 0.23974609375
8537350000.0 -0.927490234375 1.0528564453125
8568571875.0 -0.0130615234375 1.400390625
8599793750.0 0.8072509765625 1.05694580078125
8631015625.0 1.2467041015625 0.39910888671875
8662237500.0 1.29241943359375 -0.43426513671875
8693459375.0 0.73822021484375 -1.1832275390625
8724681250.0 -0.16436767578125 -1.33648681640625
8755903125.0 -0.888397216796875 -0.961822509765625
8787125000.0 -1.3114013671875 -0.28033447265625
8818346875.0 -1.25701904296875 0.62164306640625
8849568750.0 -0.5570068359375 1.26885986328125
8880790625.0 0.30218505859375 1.29034423828125
8912012500.0 0.986480712890625 0.896148681640625
8943234375.0 1.4073486328125 0.1270751953125
8974456250.0 1.172119140625 -0.8468017578125
9005678125.0 0.34686279296875 -1.3211669921875
9036900000.0 -0.45025634765625 -1.228759765625
9068121875.0 -1.1077880859375 -0.78790283203125
9099343750.0 -1.4478759765625 0.09979248046875
9130565625.0 -0.98114013671875 1.01763916015625
9161787500.0 -0.15301513671875 1.2882080078125
9193009375.0 0.55950927734375 1.13775634765625
9224231250.0 1.18621826171875 0.65625
9255453125.0 1.40594482421875 -0.29913330078125
9286675000.0 0.80859375 -1.0904541015625
9317896875.0 0.02374267578125 -1.25360107421875
9349118750.0 -0.661376953125 -1.07452392578125
9380340625.0 -1.264404296875 -0.51025390625
9411562500.0 -1.3155517578125 0.4803466796875
9442784375.0 -0.64874267578125 1.12109375
9474006250.0 0.089599609375 1.2154541015625
9505228125.0 0.7706298828125 0.98480224609375
9536450000.0 1.28204345703125 0.31182861328125
9567671875.0 1.14825439453125 -0.5863037109375
9598893750.0 0.5294189453125 -1.07476806640625
9630115625.0 -0.1453857421875 -1.16290283203125
9661337500.0 -0.825347900390625 -0.904815673828125
9692559375.0 -1.24456787109375 -0.18939208984375
9723781250.0 -1.046875 0.60760498046875
9755003125.0 -0.48583984375 1.05633544921875
9786225000.0 0.2012939453125 1.16497802734375
9817446875.0 0.90081787109375 0.829498291015625
9848668750.0 1.20452880859375 0.07464599609375
9879890625.0 0.971282958984375 -0.62249755859375
9911112500.0 0.4515380859375 -1.0577392578125
9942334375.0 -0.27203369140625 -1.16522216796875
9973556250.0 -0.94964599609375 -0.7398681640625
10004778125.0 -1.1513671875 -0.0152587890625
10036000000.0 -0.947509765625 0.620330810546875
10067221875.0 -0.44134521484375 1.10345458984375
10098443750.0 0.37445068359375 1.18548583984375
10129665625.0 1.00787353515625 0.6429443359375
10160887500.0 1.12432861328125 -0.054443359375
10192109375.0 0.921142578125 -0.6700439453125
10223331250.0 0.36083984375 -1.15850830078125
10254553125.0 -0.4923095703125 -1.117431640625
10285775000.0 -0.99163818359375 -0.534698486328125
10316996875.0 -1.07025146484375 0.07861328125
10348218750.0 -0.902801513671875 0.673187255859375
10379440625.0 -0.32061767578125 1.18255615234375
10410662500.0 0.53253173828125 1.08935546875
10441884375.0 0.99835205078125 0.521820068359375
10473106250.0 1.11419677734375 -0.0869140625
10504328125.0 0.9517822265625 -0.76129150390625
10535550000.0 0.23638916015625 -1.30169677734375
10566771875.0 -0.66217041015625 -1.08056640625
10597993750.0 -1.08636474609375 -0.4586181640625
10629215625.0 -1.1810302734375 0.20928955078125
10660437500.0 -0.89007568359375 0.957977294921875
10691659375.0 -0.00628662109375 1.34130859375
10722881250.0 0.789031982421875 0.95465087890625
10754103125.0 1.1243896484375 0.32403564453125
10785325000.0 1.14447021484375 -0.3724365234375
10816546875.0 0.70147705078125 -1.05670166015625
10847768750.0 -0.1473388671875 -1.2332763671875
10878990625.0 -0.808868408203125 -0.84600830078125
10910212500.0 -1.1287841796875 -0.24432373046875
10941434375.0 -1.1021728515625 0.482666015625
10972656250.0 -0.56732177734375 1.0927734375
11003878125.0 0.21905517578125 1.17877197265625
11035100000.0 0.854888916015625 0.824249267578125
11066321875.0 1.22735595703125 0.17230224609375
11097543750.0 1.10284423828125 -0.6827392578125
11128765625.0 0.38494873046875 -1.2049560546875
11159987500.0 -0.4002685546875 -1.1439208984375
11191209375.0 -1.00439453125 -0.7042236328125
11222431250.0 -1.27801513671875 0.09552001953125
11253653125.0 -0.860321044921875 0.900909423828125
11284875000.0 -0.1114501953125 1.13201904296875
11316096875.0 0.515960693359375 0.960418701171875
11347318750.0 1.00970458984375 0.50164794921875
11378540625.0 1.12286376953125 -0.2742919921875
11409762500.0 0.635589599609375 -0.865203857421875
11440984375.0 0.033294677734375 -0.983428955078125
11472206250.0 -0.484161376953125 -0.853485107421875
11503428125.0 -0.95953369140625 -0.4561767578125
11534650000.0 -1.07342529296875 0.2911376953125
11565871875.0 -0.603179931640625 0.85943603515625
11597093750.0 -0.016815185546875 0.995361328125
11628315625.0 0.54827880859375 0.878692626953125
11659537500.0 1.0662841796875 0.39166259765625
11690759375.0 1.068359375 -0.4375
11721981250.0 0.518218994140625 -0.946258544921875
11753203125.0 -0.1075439453125 -1.0423583984375
11784425000.0 -0.730621337890625 -0.8111572265625
11815646875.0 -1.10693359375 -0.148681640625
11846868750.0 -0.893646240234375 0.5570068359375
11878090625.0 -0.391021728515625 0.9150390625
11909312500.0 0.19049072265625 0.9892578125
11940534375.0 0.785400390625 0.696685791015625
11971756250.0 1.02880859375 0.03826904296875
12002978125.0 0.808441162109375 -0.542022705078125
12034200000.0 0.381134033203125 -0.895538330078125
12065421875.0 -0.21923828125 -1.01422119140625
12096643750.0 -0.855316162109375 -0.665557861328125
12127865625.0 -1.0386962890625 0.0194091796875
12159087500.0 -0.817626953125 0.580780029296875
12190309375.0 -0.376739501953125 0.98095703125
12221531250.0 0.34356689453125 1.09185791015625
12252753125.0 0.9847412109375 0.581085205078125
12283975000.0 1.0582275390625 -0.1312255859375
12315196875.0 0.802337646484375 -0.681549072265625
12346418750.0 0.27783203125 -1.0997314453125
12377640625.0 -0.54473876953125 -1.06524658203125
12408862500.0 -1.040283203125 -0.41845703125
12440084375.0 -1.01318359375 0.22760009765625
12471306250.0 -0.74407958984375 0.742584228515625
12502528125.0 -0.17816162109375 1.12628173828125
12533750000.0 0.625 0.997222900390625
12564971875.0 1.04559326171875 0.36322021484375
12596193750.0 1.03375244140625 -0.26837158203125
12627415625.0 0.749237060546875 -0.83416748046875
12658637500.0 0.0772705078125 -1.21307373046875
12689859375.0 -0.742340087890625 -0.968597412109375
12721081250.0 -1.12237548828125 -0.30389404296875
12752303125.0 -1.10333251953125 0.3868408203125
12783525000.0 -0.6883544921875 1.036865234375
12814746875.0 0.169921875 1.25762939453125
12845968750.0 0.8690185546875 0.813262939453125
12877190625.0 1.1241455078125 0.16943359375
12908412500.0 1.05950927734375 -0.506591796875
12939634375.0 0.54193115234375 -1.1246337890625
12970856250.0 -0.326416015625 -1.1798095703125
13002078125.0 -0.9000244140625 -0.694244384765625
13033300000.0 -1.11004638671875 -0.0849609375
13064521875.0 -1.0123291015625 0.59930419921875
13095743750.0 -0.41802978515625 1.16180419921875
13126965625.0 0.41424560546875 1.12542724609375
13158187500.0 0.952850341796875 0.632598876953125
13189409375.0 1.1544189453125 -0.02581787109375
13220631250.0 0.93865966796875 -0.755035400390625
13251853125.0 0.2320556640625 -1.17730712890625
13283075000.0 -0.51190185546875 -1.02197265625
13314296875.0 -0.9937744140625 -0.528717041015625
13345518750.0 -1.141357421875 0.1815185546875
