!Created with skrf (http://scikit-rf.org).
# Hz S RI R 50.0 
!freq ReS11 ImS11
45000000.0 -0.07666397094726562 -0.097198486328125
76221875.0 -0.19680023193359375 -0.04802703857421875
107443750.0 -0.255828857421875 0.1194305419921875
138665625.0 -0.1492156982421875 0.3290863037109375
169887500.0 0.12274169921875 0.4185943603515625
201109375.0 0.4220123291015625 0.2826080322265625
232331250.0 0.5804443359375 -0.056121826171875
263553125.0 0.4915771484375 -0.4526519775390625
294775000.0 0.10040283203125 -0.734039306640625
325996875.0 -0.414642333984375 -0.683563232421875
357218750.0 -0.807891845703125 -0.299957275390625
388440625.0 -0.888641357421875 0.299346923828125
419662500.0 -0.5205078125 0.867340087890625
450884375.0 0.17059326171875 1.0318603515625
482106250.0 0.7984619140625 0.716644287109375
513328125.0 1.12188720703125 0.0899658203125
544550000.0 1.00750732421875 -0.67877197265625
575771875.0 0.340087890625 -1.23956298828125
606993750.0 -0.5516357421875 -1.18115234375
638215625.0 -1.16668701171875 -0.5946044921875
669437500.0 -1.34283447265625 0.23077392578125
700659375.0 -0.975341796875 1.0958251953125
731881250.0 -0.00762939453125 1.54583740234375
763103125.0 1.00457763671875 1.1610107421875
794325000.0 1.47125244140625 0.286376953125
825546875.0 1.3717041015625 -0.6497802734375
856768750.0 0.7994384765625 -1.40228271484375
887990625.0 -0.28961181640625 -1.65277099609375
919212500.0 -1.2882080078125 -1.0843505859375
950434375.0 -1.65277099609375 -0.06280517578125
981656250.0 -1.38800048828125 0.94482421875
1012878125.0 -0.53448486328125 1.6754150390625
1044100000.0 0.69500732421875 1.66790771484375
1075321875.0 1.577392578125 0.81768798828125
1106543750.0 1.70989990234375 -0.309814453125
1137765625.0 1.1922607421875 -1.28448486328125
1168987500.0 0.14300537109375 -1.801513671875
1200209375.0 -1.0611572265625 -1.49005126953125
1231431250.0 -1.73016357421875 -0.45831298828125
1262653125.0 -1.5992431640625 0.68267822265625
1293875000.0 -0.8572998046875 1.49322509765625
1325096875.0 0.22454833984375 1.7119140625
1356318750.0 1.2352294921875 1.22265625
1387540625.0 1.74346923828125 0.19317626953125
1418762500.0 1.47503662109375 -0.95025634765625
1449984375.0 0.5343017578125 -1.62847900390625
1481206250.0 -0.5472412109375 -1.56097412109375
1512428125.0 -1.34295654296875 -0.92462158203125
1543650000.0 -1.659423828125 0.06231689453125
1574871875.0 -1.278076171875 1.1090087890625
1606093750.0 -0.277099609375 1.63421630859375
1637315625.0 0.7410888671875 1.4052734375
1668537500.0 1.3973388671875 0.70025634765625
1699759375.0 1.5771484375 -0.27459716796875
1730981250.0 1.06903076171875 -1.2296142578125
1762203125.0 0.04583740234375 -1.573486328125
1793425000.0 -0.8548583984375 -1.23101806640625
1824646875.0 -1.39532470703125 -0.5191650390625
1855868750.0 -1.47784423828125 0.43023681640625
1887090625.0 -0.879638671875 1.2862548828125
1918312500.0 0.1146240234375 1.4903564453125
1949534375.0 0.92144775390625 1.093017578125
1980756250.0 1.37713623046875 0.37353515625
2011978125.0 1.36322021484375 -0.52978515625
2043200000.0 0.7540283203125 -1.26239013671875
2074421875.0 -0.15447998046875 -1.4368896484375
2105643750.0 -0.9599609375 -1.07623291015625
2136865625.0 -1.44989013671875 -0.30828857421875
2168087500.0 -1.361328125 0.66949462890625
2199309375.0 -0.6427001953125 1.3529052734375
2230531250.0 0.27984619140625 1.4395751953125
2261753125.0 1.07330322265625 1.01800537109375
2292975000.0 1.516845703125 0.173583984375
2324196875.0 1.30938720703125 -0.81805419921875
2355418750.0 0.52862548828125 -1.421875
2386640625.0 -0.402587890625 -1.45245361328125
2417862500.0 -1.1817626953125 -1.02801513671875
2449084375.0 -1.60772705078125 -0.08697509765625
2480306250.0 -1.3155517578125 0.925537109375
2511528125.0 -0.4971923828125 1.51031494140625
2542750000.0 0.48736572265625 1.5413818359375
2573971875.0 1.37255859375 0.97222900390625
2605193750.0 1.72088623046875 -0.1094970703125
2636415625.0 1.26580810546875 -1.15216064453125
2667637500.0 0.30987548828125 -1.67083740234375
2698859375.0 -0.76861572265625 -1.539306640625
2730081250.0 -1.5760498046875 -0.74481201171875
2761303125.0 -1.68634033203125 0.38714599609375
2792525000.0 -1.10394287109375 1.3082275390625
2823746875.0 -0.10577392578125 1.73284912109375
2854968750.0 1.0118408203125 1.46075439453125
2886190625.0 1.6947021484375 0.49560546875
2917412500.0 1.6041259765625 -0.6160888671875
2948634375.0 0.9434814453125 -1.43463134765625
2979856250.0 -0.10638427734375 -1.7808837890625
3011078125.0 -1.2479248046875 -1.34747314453125
3042300000.0 -1.77703857421875 -0.238525390625
3073521875.0 -1.5135498046875 0.83770751953125
3104743750.0 -0.76837158203125 1.5704345703125
3135965625.0 0.36065673828125 1.81378173828125
3167187500.0 1.49993896484375 1.1690673828125
3198409375.0 1.81964111328125 -0.072021484375
3229631250.0 1.35321044921875 -1.080322265625
3260853125.0 0.49298095703125 -1.6708984375
3292075000.0 -0.65362548828125 -1.702392578125
3323296875.0 -1.62115478515625 -0.88458251953125
3354518750.0 -1.73455810546875 0.32574462890625
3385740625.0 -1.16082763671875 1.23095703125
3416962500.0 -0.2340087890625 1.6859130859375
3448184375.0 0.8590087890625 1.5260009765625
3479406250.0 1.63812255859375 0.6478271484375
3510628125.0 1.64801025390625 -0.49383544921875
3541850000.0 1.00390625 -1.35693359375
3573071875.0 -0.00384521484375 -1.6842041015625
3604293750.0 -1.02825927734375 -1.3414306640625
3635515625.0 -1.63037109375 -0.44122314453125
3666737500.0 -1.56591796875 0.64508056640625
3697959375.0 -0.8291015625 1.4783935546875
3729181250.0 0.26666259765625 1.63446044921875
3760403125.0 1.15380859375 1.1016845703125
3791625000.0 1.55487060546875 0.22125244140625
3822846875.0 1.40594482421875 -0.759521484375
3854068750.0 0.6241455078125 -1.48345947265625
3885290625.0 -0.4197998046875 -1.48468017578125
3916512500.0 -1.1427001953125 -0.914306640625
3947734375.0 -1.45086669921875 -0.12200927734375
3978956250.0 -1.301025390625 0.77838134765625
4010178125.0 -0.53363037109375 1.4581298828125
4041400000.0 0.4722900390625 1.41864013671875
4072621875.0 1.1524658203125 0.8504638671875
4103843750.0 1.4481201171875 0.0645751953125
4135065625.0 1.27117919921875 -0.845458984375
4166287500.0 0.4598388671875 -1.49835205078125
4197509375.0 -0.55731201171875 -1.4178466796875
4228731250.0 -1.24932861328125 -0.80499267578125
4259953125.0 -1.51165771484375 0.06927490234375
4291175000.0 -1.19183349609375 1.010009765625
4322396875.0 -0.29156494140625 1.528076171875
4353618750.0 0.67254638671875 1.3536376953125
4384840625.0 1.324462890625 0.70013427734375
4416062500.0 1.503662109375 -0.22515869140625
4447284375.0 1.05841064453125 -1.10546875
4478506250.0 0.1744384765625 -1.49798583984375
4509728125.0 -0.732421875 -1.31097412109375
4540950000.0 -1.396728515625 -0.638427734375
4572171875.0 -1.52630615234375 0.3603515625
4603393750.0 -0.9749755859375 1.21343994140625
4634615625.0 -0.06280517578125 1.53912353515625
4665837500.0 0.8707275390625 1.30755615234375
4697059375.0 1.54425048828125 0.5174560546875
4728281250.0 1.532470703125 -0.58258056640625
4759503125.0 0.82537841796875 -1.3690185546875
4790725000.0 -0.14422607421875 -1.57550048828125
4821946875.0 -1.08441162109375 -1.197265625
4853168750.0 -1.61627197265625 -0.2530517578125
4884390625.0 -1.38165283203125 0.79248046875
4915612500.0 -0.614990234375 1.41571044921875
4946834375.0 0.328369140625 1.5133056640625
4978056250.0 1.20635986328125 1.0205078125
5009278125.0 1.565673828125 0.0408935546875
5040500000.0 1.23248291015625 -0.87677001953125
5071721875.0 0.50421142578125 -1.4168701171875
5102943750.0 -0.447021484375 -1.50091552734375
5134165625.0 -1.33807373046875 -0.90789794921875
5165387500.0 -1.57159423828125 0.14630126953125
5196609375.0 -1.13909912109375 1.01055908203125
5227831250.0 -0.3592529296875 1.50848388671875
5259053125.0 0.6885986328125 1.49530029296875
5290275000.0 1.5250244140625 0.6640625
5321496875.0 1.49530029296875 -0.430908203125
5352718750.0 0.92364501953125 -1.154296875
5383940625.0 0.09832763671875 -1.50286865234375
5415162500.0 -0.9012451171875 -1.28704833984375
5446384375.0 -1.48724365234375 -0.37237548828125
5477606250.0 -1.30169677734375 0.56610107421875
5508828125.0 -0.7340087890625 1.1524658203125
5540050000.0 0.05322265625 1.40228271484375
5571271875.0 0.94049072265625 1.11236572265625
5602493750.0 1.41070556640625 0.2615966796875
5633715625.0 1.2352294921875 -0.61260986328125
5664937500.0 0.64996337890625 -1.2034912109375
5696159375.0 -0.19732666015625 -1.38702392578125
5727381250.0 -1.0240478515625 -0.980224609375
5758603125.0 -1.3946533203125 -0.1451416015625
5789825000.0 -1.197021484375 0.71868896484375
5821046875.0 -0.5079345703125 1.3096923828125
5852268750.0 0.41217041015625 1.3155517578125
5883490625.0 1.07318115234375 0.7740478515625
5914712500.0 1.30523681640625 0.0205078125
5945934375.0 1.098876953125 -0.77655029296875
5977156250.0 0.36212158203125 -1.3148193359375
6008378125.0 -0.510986328125 -1.1849365234375
6039600000.0 -1.0240478515625 -0.650634765625
6070821875.0 -1.2266845703125 -0.00482177734375
6102043750.0 -1.086181640625 0.765380859375
6133265625.0 -0.3424072265625 1.34796142578125
6164487500.0 0.565185546875 1.18994140625
6195709375.0 1.0731201171875 0.63116455078125
6226931250.0 1.28253173828125 -0.04193115234375
6258153125.0 1.10711669921875 -0.873291015625
6289375000.0 0.25555419921875 -1.4498291015625
6320596875.0 -0.6904296875 -1.20770263671875
6351818750.0 -1.20172119140625 -0.57269287109375
6383040625.0 -1.3570556640625 0.20770263671875
6414262500.0 -1.0010986328125 1.058837890625
6445484375.0 -0.07757568359375 1.459228515625
6476706250.0 0.7969970703125 1.14984130859375
6507928125.0 1.2921142578125 0.4710693359375
6539150000.0 1.349365234375 -0.3857421875
6570371875.0 0.84320068359375 -1.14642333984375
6601593750.0 -0.017822265625 -1.40826416015625
6632815625.0 -0.84161376953125 -1.138916015625
6664037500.0 -1.40521240234375 -0.42022705078125
6695259375.0 -1.3765869140625 0.56768798828125
6726481250.0 -0.71099853515625 1.25469970703125
6757703125.0 0.132080078125 1.41070556640625
6788925000.0 0.9586181640625 1.1336669921875
6820146875.0 1.5643310546875 0.287841796875
6851368750.0 1.32843017578125 -0.821533203125
6882590625.0 0.5074462890625 -1.33984375
6913812500.0 -0.29229736328125 -1.3587646484375
6945034375.0 -1.07281494140625 -1.0234375
6976256250.0 -1.5950927734375 -0.09332275390625
7007478125.0 -1.23974609375 0.93597412109375
7038700000.0 -0.4036865234375 1.346435546875
7069921875.0 0.358642578125 1.326904296875
7101143750.0 1.12176513671875 0.97137451171875
7132365625.0 1.60284423828125 0.0146484375
7163587500.0 1.16033935546875 -1.024658203125
7194809375.0 0.30377197265625 -1.4012451171875
7226031250.0 -0.51214599609375 -1.32958984375
7257253125.0 -1.27105712890625 -0.82666015625
7288475000.0 -1.560791015625 0.19976806640625
7319696875.0 -1.0318603515625 1.1148681640625
7350918750.0 -0.165283203125 1.44891357421875
7382140625.0 0.71826171875 1.27923583984375
7413362500.0 1.3802490234375 0.577880859375
7444584375.0 1.415771484375 -0.40911865234375
7475806250.0 0.859130859375 -1.144775390625
7507028125.0 0.00482177734375 -1.434326171875
7538250000.0 -0.89105224609375 -1.1258544921875
7569471875.0 -1.3387451171875 -0.31195068359375
7600693750.0 -1.20452880859375 0.49761962890625
7631915625.0 -0.72064208984375 1.08831787109375
7663137500.0 0.07989501953125 1.3623046875
7694359375.0 0.94207763671875 0.984375
7725581250.0 1.2476806640625 0.18060302734375
7756803125.0 1.0853271484375 -0.50079345703125
7788025000.0 0.6717529296875 -1.04779052734375
7819246875.0 -0.1219482421875 -1.35479736328125
7850468750.0 -0.996490478515625 -0.91717529296875
7881690625.0 -1.2344970703125 -0.10638427734375
7912912500.0 -1.05792236328125 0.556640625
7944134375.0 -0.60577392578125 1.11822509765625
7975356250.0 0.2747802734375 1.33837890625
8006578125.0 1.05120849609375 0.7791748046875
8037800000.0 1.1959228515625 0.015869140625
8069021875.0 1.01007080078125 -0.6197509765625
8100243750.0 0.50054931640625 -1.16656494140625
8131465625.0 -0.3905029296875 -1.2574462890625
8162687500.0 -1.03472900390625 -0.6876220703125
8193909375.0 -1.1837158203125 0.00872802734375
8225131250.0 -1.02081298828125 0.6805419921875
8256353125.0 -0.42193603515625 1.2530517578125
8287575000.0 0.50323486328125 1.22955322265625
8318796875.0 1.0859375 0.6361083984375
8350018750.0 1.24957275390625 -0.07708740234375
8381240625.0 1.0343017578125 -0.8406982421875
8412462500.0 0.25457763671875 -1.3765869140625
8443684375.0 -0.67266845703125 -1.17218017578125
8474906250.0 -1.1776123046875 -0.53179931640625
8506128125.0 -1.3011474609375 0.2393798828125
8537350000.0 -0.92633056640625 1.0499267578125
8568571875.0 -0.01507568359375 1.39599609375
8599793750.0 0.80377197265625 1.05548095703125
8631015625.0 1.242919921875 0.39898681640625
8662237500.0 1.2879638671875 -0.42919921875
8693459375.0 0.7376708984375 -1.18017578125
8724681250.0 -0.16351318359375 -1.33544921875
8755903125.0 -0.8828125 -0.959991455078125
8787125000.0 -1.30816650390625 -0.282470703125
8818346875.0 -1.2547607421875 0.61773681640625
8849568750.0 -0.5570068359375 1.2645263671875
8880790625.0 0.30047607421875 1.28863525390625
8912012500.0 0.986846923828125 0.89459228515625
8943234375.0 1.40289306640625 0.128173828125
8974456250.0 1.16900634765625 -0.8465576171875
9005678125.0 0.347900390625 -1.314697265625
9036900000.0 -0.4471435546875 -1.22711181640625
9068121875.0 -1.1051025390625 -0.787353515625
9099343750.0 -1.4456787109375 0.100341796875
9130565625.0 -0.97955322265625 1.01788330078125
9161787500.0 -0.15374755859375 1.2857666015625
9193009375.0 0.5556640625 1.13543701171875
9224231250.0 1.1834716796875 0.65618896484375
9255453125.0 1.40277099609375 -0.29840087890625
9286675000.0 0.80853271484375 -1.0887451171875
9317896875.0 0.0262451171875 -1.2501220703125
9349118750.0 -0.65545654296875 -1.07275390625
9380340625.0 -1.2620849609375 -0.5106201171875
9411562500.0 -1.31561279296875 0.47998046875
9442784375.0 -0.64794921875 1.120849609375
9474006250.0 0.08935546875 1.21466064453125
9505228125.0 0.768035888671875 0.981964111328125
9536450000.0 1.280029296875 0.3111572265625
9567671875.0 1.145263671875 -0.58319091796875
9598893750.0 0.52880859375 -1.072998046875
9630115625.0 -0.14617919921875 -1.16119384765625
9661337500.0 -0.821929931640625 -0.903350830078125
9692559375.0 -1.24169921875 -0.188232421875
9723781250.0 -1.04486083984375 0.6064453125
9755003125.0 -0.48626708984375 1.05438232421875
9786225000.0 0.1998291015625 1.161865234375
9817446875.0 0.899078369140625 0.8289794921875
9848668750.0 1.20111083984375 0.0760498046875
9879890625.0 0.969573974609375 -0.61822509765625
9911112500.0 0.453369140625 -1.05499267578125
9942334375.0 -0.27081298828125 -1.1634521484375
9973556250.0 -0.948760986328125 -0.738525390625
10004778125.0 -1.1484375 -0.01593017578125
10036000000.0 -0.945709228515625 0.61932373046875
10067221875.0 -0.4417724609375 1.09869384765625
10098443750.0 0.3734130859375 1.18414306640625
10129665625.0 1.00860595703125 0.641357421875
10160887500.0 1.121826171875 -0.0545654296875
10192109375.0 0.91796875 -0.66485595703125
10223331250.0 0.36065673828125 -1.1558837890625
10254553125.0 -0.48883056640625 -1.1158447265625
10285775000.0 -0.988433837890625 -0.53424072265625
10316996875.0 -1.07000732421875 0.079345703125
10348218750.0 -0.901611328125 0.672637939453125
10379440625.0 -0.32220458984375 1.17828369140625
10410662500.0 0.53179931640625 1.08880615234375
10441884375.0 0.99566650390625 0.522064208984375
10473106250.0 1.11212158203125 -0.08551025390625
10504328125.0 0.951141357421875 -0.761444091796875
10535550000.0 0.2366943359375 -1.29888916015625
10566771875.0 -0.662109375 -1.0780029296875
10597993750.0 -1.083984375 -0.4586181640625
10629215625.0 -1.17877197265625 0.20916748046875
10660437500.0 -0.88818359375 0.957183837890625
10691659375.0 -0.00677490234375 1.338134765625
10722881250.0 0.78863525390625 0.952606201171875
10754103125.0 1.12255859375 0.3238525390625
10785325000.0 1.1416015625 -0.3697509765625
10816546875.0 0.70098876953125 -1.05255126953125
10847768750.0 -0.1484375 -1.232177734375
10878990625.0 -0.805755615234375 -0.843994140625
10910212500.0 -1.12353515625 -0.24517822265625
10941434375.0 -1.1005859375 0.48046875
10972656250.0 -0.56756591796875 1.08843994140625
11003878125.0 0.2188720703125 1.17681884765625
11035100000.0 0.8516845703125 0.823974609375
11066321875.0 1.22509765625 0.1724853515625
11097543750.0 1.09942626953125 -0.67913818359375
11128765625.0 0.38427734375 -1.2030029296875
11159987500.0 -0.39990234375 -1.14154052734375
11191209375.0 -1.004150390625 -0.70263671875
11222431250.0 -1.275634765625 0.095947265625
11253653125.0 -0.859405517578125 0.900177001953125
11284875000.0 -0.1126708984375 1.13037109375
11316096875.0 0.515045166015625 0.959014892578125
11347318750.0 1.007080078125 0.50213623046875
11378540625.0 1.11907958984375 -0.27166748046875
11409762500.0 0.6343994140625 -0.86126708984375
11440984375.0 0.034698486328125 -0.981231689453125
11472206250.0 -0.483612060546875 -0.852874755859375
11503428125.0 -0.95599365234375 -0.455718994140625
11534650000.0 -1.07183837890625 0.29150390625
11565871875.0 -0.601898193359375 0.85748291015625
11597093750.0 -0.016693115234375 0.994964599609375
11628315625.0 0.548248291015625 0.877197265625
11659537500.0 1.065185546875 0.39141845703125
11690759375.0 1.06671142578125 -0.43756103515625
11721981250.0 0.515869140625 -0.943817138671875
11753203125.0 -0.1075439453125 -1.03900146484375
11784425000.0 -0.729400634765625 -0.810516357421875
11815646875.0 -1.1046142578125 -0.14886474609375
11846868750.0 -0.89141845703125 0.55426025390625
11878090625.0 -0.3912353515625 0.912200927734375
11909312500.0 0.1898193359375 0.9869384765625
11940534375.0 0.784423828125 0.695526123046875
11971756250.0 1.0277099609375 0.0380859375
12002978125.0 0.80712890625 -0.541015625
12034200000.0 0.381500244140625 -0.89263916015625
12065421875.0 -0.21722412109375 -1.01220703125
12096643750.0 -0.852081298828125 -0.66485595703125
12127865625.0 -1.0357666015625 0.01959228515625
12159087500.0 -0.8154296875 0.5789794921875
12190309375.0 -0.377166748046875 0.97845458984375
12221531250.0 0.34259033203125 1.090576171875
12252753125.0 0.98419189453125 0.58056640625
12283975000.0 1.05621337890625 -0.13031005859375
12315196875.0 0.801055908203125 -0.679046630859375
12346418750.0 0.28009033203125 -1.0950927734375
12377640625.0 -0.54168701171875 -1.061279296875
12408862500.0 -1.03741455078125 -0.41802978515625
12440084375.0 -1.01019287109375 0.2265625
12471306250.0 -0.743255615234375 0.741241455078125
12502528125.0 -0.1776123046875 1.1231689453125
12533750000.0 0.625274658203125 0.994873046875
12564971875.0 1.04449462890625 0.3631591796875
12596193750.0 1.03204345703125 -0.2681884765625
12627415625.0 0.74951171875 -0.83453369140625
12658637500.0 0.07647705078125 -1.21270751953125
12689859375.0 -0.74029541015625 -0.966766357421875
12721081250.0 -1.12176513671875 -0.303955078125
12752303125.0 -1.10028076171875 0.3857421875
12783525000.0 -0.6864013671875 1.033935546875
12814746875.0 0.16925048828125 1.2540283203125
12845968750.0 0.866790771484375 0.809906005859375
12877190625.0 1.1229248046875 0.16912841796875
12908412500.0 1.05755615234375 -0.50494384765625
12939634375.0 0.53973388671875 -1.1221923828125
12970856250.0 -0.32513427734375 -1.1766357421875
13002078125.0 -0.897491455078125 -0.692291259765625
13033300000.0 -1.109130859375 -0.08477783203125
13064521875.0 -1.011474609375 0.59820556640625
13095743750.0 -0.41778564453125 1.15985107421875
13126965625.0 0.4139404296875 1.1221923828125
13158187500.0 0.95123291015625 0.6322021484375
13189409375.0 1.15069580078125 -0.023681640625
13220631250.0 0.936767578125 -0.753326416015625
13251853125.0 0.23126220703125 -1.17724609375
13283075000.0 -0.5111083984375 -1.02001953125
13314296875.0 -0.9920654296875 -0.5274658203125
13345518750.0 -1.13885498046875 0.18194580078125
13376740625.0 -0.75146484375 0.86328125
