!Created with skrf (http://scikit-rf.org).
# Hz S RI R 50.0 
!freq ReS11 ImS11
45000000.0 -0.0766143798828125 -0.09700393676757812
76221875.0 -0.196685791015625 -0.04802703857421875
107443750.0 -0.2558135986328125 0.119598388671875
138665625.0 -0.1490631103515625 0.3289642333984375
169887500.0 0.1228485107421875 0.4185638427734375
201109375.0 0.422027587890625 0.2826385498046875
232331250.0 0.580291748046875 -0.05621337890625
263553125.0 0.4915771484375 -0.4526214599609375
294775000.0 0.100250244140625 -0.733734130859375
325996875.0 -0.414825439453125 -0.6832275390625
357218750.0 -0.807891845703125 -0.2996826171875
388440625.0 -0.8885498046875 0.2998046875
419662500.0 -0.520416259765625 0.866943359375
450884375.0 0.1707763671875 1.03155517578125
482106250.0 0.79864501953125 0.7161865234375
513328125.0 1.1217041015625 0.0897216796875
544550000.0 1.007080078125 -0.6790771484375
575771875.0 0.33966064453125 -1.2392578125
606993750.0 -0.5518798828125 -1.180908203125
638215625.0 -1.1669921875 -0.5943603515625
669437500.0 -1.3428955078125 0.23138427734375
700659375.0 -0.9747314453125 1.096435546875
731881250.0 -0.00732421875 1.5457763671875
763103125.0 1.00469970703125 1.16082763671875
794325000.0 1.47119140625 0.2857666015625
825546875.0 1.37127685546875 -0.64996337890625
856768750.0 0.79888916015625 -1.40240478515625
887990625.0 -0.2896728515625 -1.652587890625
919212500.0 -1.28924560546875 -1.0841064453125
950434375.0 -1.65264892578125 -0.06182861328125
981656250.0 -1.38751220703125 0.94537353515625
1012878125.0 -0.53350830078125 1.67559814453125
1044100000.0 0.69561767578125 1.66790771484375
1075321875.0 1.57745361328125 0.81707763671875
1106543750.0 1.7099609375 -0.3104248046875
1137765625.0 1.1923828125 -1.28448486328125
1168987500.0 0.14215087890625 -1.8011474609375
1200209375.0 -1.0615234375 -1.4896240234375
1231431250.0 -1.73089599609375 -0.4576416015625
1262653125.0 -1.59906005859375 0.6837158203125
1293875000.0 -0.8570556640625 1.49298095703125
1325096875.0 0.22491455078125 1.7113037109375
1356318750.0 1.23577880859375 1.22216796875
1387540625.0 1.7435302734375 0.1925048828125
1418762500.0 1.47467041015625 -0.95098876953125
1449984375.0 0.53363037109375 -1.628662109375
1481206250.0 -0.5478515625 -1.560546875
1512428125.0 -1.343505859375 -0.92425537109375
1543650000.0 -1.6590576171875 0.06256103515625
1574871875.0 -1.27783203125 1.1087646484375
1606093750.0 -0.27655029296875 1.63433837890625
1637315625.0 0.74090576171875 1.40484619140625
1668537500.0 1.39776611328125 0.69970703125
1699759375.0 1.576904296875 -0.27496337890625
1730981250.0 1.0684814453125 -1.2298583984375
1762203125.0 0.045166015625 -1.57354736328125
1793425000.0 -0.8555908203125 -1.23040771484375
1824646875.0 -1.39569091796875 -0.51849365234375
1855868750.0 -1.4779052734375 0.4306640625
1887090625.0 -0.879150390625 1.28656005859375
1918312500.0 0.11529541015625 1.490234375
1949534375.0 0.921630859375 1.09295654296875
1980756250.0 1.377197265625 0.373291015625
2011978125.0 1.36346435546875 -0.53033447265625
2043200000.0 0.75390625 -1.2630615234375
2074421875.0 -0.15472412109375 -1.436767578125
2105643750.0 -0.96112060546875 -1.076171875
2136865625.0 -1.4500732421875 -0.30767822265625
2168087500.0 -1.361083984375 0.6702880859375
2199309375.0 -0.64227294921875 1.3533935546875
2230531250.0 0.2802734375 1.43951416015625
2261753125.0 1.07379150390625 1.01739501953125
2292975000.0 1.5169677734375 0.17291259765625
2324196875.0 1.3089599609375 -0.818603515625
2355418750.0 0.52789306640625 -1.421875
2386640625.0 -0.40325927734375 -1.4520263671875
2417862500.0 -1.1829833984375 -1.02764892578125
2449084375.0 -1.60736083984375 -0.08660888671875
2480306250.0 -1.31524658203125 0.92620849609375
2511528125.0 -0.49725341796875 1.51007080078125
2542750000.0 0.4881591796875 1.5404052734375
2573971875.0 1.37322998046875 0.97210693359375
2605193750.0 1.720947265625 -0.11090087890625
2636415625.0 1.26544189453125 -1.15386962890625
2667637500.0 0.30889892578125 -1.67047119140625
2698859375.0 -0.7694091796875 -1.53814697265625
2730081250.0 -1.57489013671875 -0.74420166015625
2761303125.0 -1.6854248046875 0.386962890625
2792525000.0 -1.1036376953125 1.30975341796875
2823746875.0 -0.1044921875 1.73321533203125
2854968750.0 1.013427734375 1.459716796875
2886190625.0 1.69476318359375 0.4951171875
2917412500.0 1.60406494140625 -0.6170654296875
2948634375.0 0.94329833984375 -1.43603515625
2979856250.0 -0.106689453125 -1.7799072265625
3011078125.0 -1.2491455078125 -1.3466796875
3042300000.0 -1.7786865234375 -0.23736572265625
3073521875.0 -1.512939453125 0.8382568359375
3104743750.0 -0.76654052734375 1.57073974609375
3135965625.0 0.361572265625 1.8140869140625
3167187500.0 1.50103759765625 1.16827392578125
3198409375.0 1.820556640625 -0.0745849609375
3229631250.0 1.35302734375 -1.08221435546875
3260853125.0 0.49169921875 -1.671142578125
3292075000.0 -0.65423583984375 -1.70184326171875
3323296875.0 -1.62237548828125 -0.88311767578125
3354518750.0 -1.73321533203125 0.32611083984375
3385740625.0 -1.15966796875 1.23419189453125
3416962500.0 -0.23284912109375 1.68634033203125
3448184375.0 0.8614501953125 1.52587890625
3479406250.0 1.638671875 0.64666748046875
3510628125.0 1.64837646484375 -0.49456787109375
3541850000.0 1.00323486328125 -1.35693359375
3573071875.0 -0.00653076171875 -1.685791015625
3604293750.0 -1.0284423828125 -1.3402099609375
3635515625.0 -1.62994384765625 -0.440673828125
3666737500.0 -1.56585693359375 0.64678955078125
3697959375.0 -0.82757568359375 1.478759765625
3729181250.0 0.267333984375 1.6336669921875
3760403125.0 1.15338134765625 1.1005859375
3791625000.0 1.55499267578125 0.2200927734375
3822846875.0 1.40594482421875 -0.76171875
3854068750.0 0.623779296875 -1.48309326171875
3885290625.0 -0.421875 -1.485107421875
3916512500.0 -1.14410400390625 -0.91387939453125
3947734375.0 -1.45037841796875 -0.1212158203125
3978956250.0 -1.3011474609375 0.780517578125
4010178125.0 -0.53277587890625 1.4581298828125
4041400000.0 0.47503662109375 1.4183349609375
4072621875.0 1.15374755859375 0.8489990234375
4103843750.0 1.44696044921875 0.064453125
4135065625.0 1.270751953125 -0.84765625
4166287500.0 0.4583740234375 -1.49853515625
4197509375.0 -0.55877685546875 -1.41754150390625
4228731250.0 -1.25006103515625 -0.80364990234375
4259953125.0 -1.5107421875 0.06951904296875
4291175000.0 -1.19097900390625 1.01104736328125
4322396875.0 -0.2908935546875 1.52911376953125
4353618750.0 0.6737060546875 1.3525390625
4384840625.0 1.32470703125 0.69927978515625
4416062500.0 1.50494384765625 -0.2286376953125
4447284375.0 1.0572509765625 -1.1063232421875
4478506250.0 0.1732177734375 -1.498291015625
4509728125.0 -0.73431396484375 -1.31036376953125
4540950000.0 -1.3963623046875 -0.63726806640625
4572171875.0 -1.525390625 0.361083984375
4603393750.0 -0.97369384765625 1.21551513671875
4634615625.0 -0.06036376953125 1.54022216796875
4665837500.0 0.87176513671875 1.3072509765625
4697059375.0 1.5447998046875 0.5162353515625
4728281250.0 1.53204345703125 -0.58428955078125
4759503125.0 0.82421875 -1.369384765625
4790725000.0 -0.14556884765625 -1.5755615234375
4821946875.0 -1.08404541015625 -1.1962890625
4853168750.0 -1.61602783203125 -0.2518310546875
4884390625.0 -1.3804931640625 0.79412841796875
4915612500.0 -0.61431884765625 1.41473388671875
4946834375.0 0.3294677734375 1.512451171875
4978056250.0 1.20751953125 1.01959228515625
5009278125.0 1.566162109375 0.03912353515625
5040500000.0 1.2318115234375 -0.8785400390625
5071721875.0 0.5025634765625 -1.417236328125
5102943750.0 -0.44873046875 -1.49993896484375
5134165625.0 -1.33966064453125 -0.90679931640625
5165387500.0 -1.5714111328125 0.14697265625
5196609375.0 -1.13824462890625 1.01153564453125
5227831250.0 -0.35809326171875 1.50885009765625
5259053125.0 0.69061279296875 1.4952392578125
5290275000.0 1.524658203125 0.6634521484375
5321496875.0 1.49493408203125 -0.4320068359375
5352718750.0 0.9227294921875 -1.15484619140625
5383940625.0 0.0965576171875 -1.50299072265625
5415162500.0 -0.90252685546875 -1.2869873046875
5446384375.0 -1.48773193359375 -0.37078857421875
5477606250.0 -1.30169677734375 0.5673828125
5508828125.0 -0.73272705078125 1.1529541015625
5540050000.0 0.05377197265625 1.402099609375
5571271875.0 0.94140625 1.11181640625
5602493750.0 1.41192626953125 0.2598876953125
5633715625.0 1.2347412109375 -0.6146240234375
5664937500.0 0.64886474609375 -1.20501708984375
5696159375.0 -0.19842529296875 -1.38726806640625
5727381250.0 -1.02459716796875 -0.9798583984375
5758603125.0 -1.39495849609375 -0.1441650390625
5789825000.0 -1.19659423828125 0.72064208984375
5821046875.0 -0.50665283203125 1.31011962890625
5852268750.0 0.41278076171875 1.3150634765625
5883490625.0 1.07293701171875 0.772705078125
5914712500.0 1.30517578125 0.019287109375
5945934375.0 1.09832763671875 -0.77874755859375
5977156250.0 0.36138916015625 -1.31524658203125
6008378125.0 -0.51116943359375 -1.18402099609375
6039600000.0 -1.024169921875 -0.6497802734375
6070821875.0 -1.22637939453125 -0.004150390625
6102043750.0 -1.085205078125 0.764892578125
6133265625.0 -0.341064453125 1.34832763671875
6164487500.0 0.566162109375 1.189453125
6195709375.0 1.0731201171875 0.6300048828125
6226931250.0 1.2823486328125 -0.04339599609375
6258153125.0 1.10614013671875 -0.87432861328125
6289375000.0 0.25433349609375 -1.4498291015625
6320596875.0 -0.69219970703125 -1.2064208984375
6351818750.0 -1.202392578125 -0.57177734375
6383040625.0 -1.35699462890625 0.2083740234375
6414262500.0 -1.00048828125 1.06121826171875
6445484375.0 -0.07611083984375 1.4591064453125
6476706250.0 0.79827880859375 1.14898681640625
6507928125.0 1.29296875 0.46978759765625
6539150000.0 1.34954833984375 -0.38787841796875
6570371875.0 0.84210205078125 -1.14605712890625
6601593750.0 -0.01849365234375 -1.407958984375
6632815625.0 -0.8433837890625 -1.13812255859375
6664037500.0 -1.4051513671875 -0.41925048828125
6695259375.0 -1.37591552734375 0.5689697265625
6726481250.0 -0.71063232421875 1.2545166015625
6757703125.0 0.1319580078125 1.40960693359375
6788925000.0 0.95928955078125 1.132080078125
6820146875.0 1.56475830078125 0.28509521484375
6851368750.0 1.3265380859375 -0.82269287109375
6882590625.0 0.5054931640625 -1.34136962890625
6913812500.0 -0.294189453125 -1.35894775390625
6945034375.0 -1.07281494140625 -1.02252197265625
6976256250.0 -1.59619140625 -0.0906982421875
7007478125.0 -1.23822021484375 0.93646240234375
7038700000.0 -0.40155029296875 1.34716796875
7069921875.0 0.36102294921875 1.3267822265625
7101143750.0 1.12432861328125 0.97052001953125
7132365625.0 1.6031494140625 0.0133056640625
7163587500.0 1.1580810546875 -1.02410888671875
7194809375.0 0.302978515625 -1.3994140625
7226031250.0 -0.51531982421875 -1.329345703125
7257253125.0 -1.27301025390625 -0.82525634765625
7288475000.0 -1.5621337890625 0.20172119140625
7319696875.0 -1.031982421875 1.11553955078125
7350918750.0 -0.16302490234375 1.4488525390625
7382140625.0 0.7216796875 1.27862548828125
7413362500.0 1.3809814453125 0.57574462890625
7444584375.0 1.41253662109375 -0.40704345703125
7475806250.0 0.858642578125 -1.14508056640625
7507028125.0 0.0045166015625 -1.43206787109375
7538250000.0 -0.8916015625 -1.125
7569471875.0 -1.33929443359375 -0.31005859375
7600693750.0 -1.20343017578125 0.49932861328125
7631915625.0 -0.71917724609375 1.08782958984375
7663137500.0 0.08111572265625 1.36077880859375
7694359375.0 0.9444580078125 0.982635498046875
7725581250.0 1.24761962890625 0.1790771484375
7756803125.0 1.0853271484375 -0.50164794921875
7788025000.0 0.67120361328125 -1.04852294921875
7819246875.0 -0.12310791015625 -1.35125732421875
7850468750.0 -0.996368408203125 -0.917266845703125
7881690625.0 -1.23333740234375 -0.10491943359375
7912912500.0 -1.05731201171875 0.55914306640625
7944134375.0 -0.60546875 1.11773681640625
7975356250.0 0.27703857421875 1.33880615234375
8006578125.0 1.05023193359375 0.77734375
8037800000.0 1.19573974609375 0.0147705078125
8069021875.0 1.00823974609375 -0.62109375
8100243750.0 0.4991455078125 -1.1651611328125
8131465625.0 -0.39013671875 -1.2559814453125
8162687500.0 -1.034423828125 -0.68658447265625
8193909375.0 -1.18280029296875 0.0091552734375
8225131250.0 -1.02069091796875 0.6824951171875
8256353125.0 -0.41900634765625 1.2542724609375
8287575000.0 0.5040283203125 1.2274169921875
8318796875.0 1.0875244140625 0.6348876953125
8350018750.0 1.248046875 -0.07745361328125
8381240625.0 1.03277587890625 -0.8443603515625
8412462500.0 0.2518310546875 -1.37774658203125
8443684375.0 -0.673095703125 -1.171630859375
8474906250.0 -1.1798095703125 -0.53021240234375
8506128125.0 -1.30035400390625 0.2396240234375
8537350000.0 -0.9244384765625 1.0513916015625
8568571875.0 -0.0130615234375 1.39739990234375
8599793750.0 0.80487060546875 1.05328369140625
8631015625.0 1.24432373046875 0.39776611328125
8662237500.0 1.28887939453125 -0.431884765625
8693459375.0 0.7369384765625 -1.17999267578125
8724681250.0 -0.16497802734375 -1.3348388671875
8755903125.0 -0.88385009765625 -0.959686279296875
8787125000.0 -1.308837890625 -0.28118896484375
8818346875.0 -1.25494384765625 0.62225341796875
8849568750.0 -0.5560302734375 1.26544189453125
8880790625.0 0.302490234375 1.2879638671875
8912012500.0 0.985809326171875 0.893463134765625
8943234375.0 1.404296875 0.12567138671875
8974456250.0 1.1678466796875 -0.84625244140625
9005678125.0 0.34613037109375 -1.31719970703125
9036900000.0 -0.44927978515625 -1.2271728515625
9068121875.0 -1.1055908203125 -0.7855224609375
9099343750.0 -1.44354248046875 0.10107421875
9130565625.0 -0.97833251953125 1.01470947265625
9161787500.0 -0.153076171875 1.28558349609375
9193009375.0 0.55914306640625 1.13592529296875
9224231250.0 1.18511962890625 0.65423583984375
9255453125.0 1.4034423828125 -0.30120849609375
9286675000.0 0.80645751953125 -1.08984375
9317896875.0 0.0247802734375 -1.24993896484375
9349118750.0 -0.65814208984375 -1.07196044921875
9380340625.0 -1.2635498046875 -0.5086669921875
9411562500.0 -1.3135986328125 0.48162841796875
9442784375.0 -0.646728515625 1.12274169921875
9474006250.0 0.09271240234375 1.21533203125
9505228125.0 0.769256591796875 0.981353759765625
9536450000.0 1.27874755859375 0.3101806640625
9567671875.0 1.1444091796875 -0.58349609375
9598893750.0 0.5277099609375 -1.0726318359375
9630115625.0 -0.1461181640625 -1.15863037109375
9661337500.0 -0.821533203125 -0.902069091796875
9692559375.0 -1.2425537109375 -0.1866455078125
9723781250.0 -1.0433349609375 0.60577392578125
9755003125.0 -0.48431396484375 1.0552978515625
9786225000.0 0.20281982421875 1.163330078125
9817446875.0 0.899993896484375 0.8282470703125
9848668750.0 1.2001953125 0.074951171875
9879890625.0 0.96966552734375 -0.620452880859375
9911112500.0 0.45196533203125 -1.05609130859375
9942334375.0 -0.27166748046875 -1.16259765625
9973556250.0 -0.94873046875 -0.73675537109375
10004778125.0 -1.14849853515625 -0.01385498046875
10036000000.0 -0.9447021484375 0.619964599609375
10067221875.0 -0.43975830078125 1.1026611328125
10098443750.0 0.37762451171875 1.184326171875
10129665625.0 1.0093994140625 0.6407470703125
10160887500.0 1.1214599609375 -0.05511474609375
10192109375.0 0.91668701171875 -0.666046142578125
10223331250.0 0.35797119140625 -1.15618896484375
10254553125.0 -0.49139404296875 -1.11407470703125
10285775000.0 -0.98907470703125 -0.53350830078125
10316996875.0 -1.06915283203125 0.0797119140625
10348218750.0 -0.900482177734375 0.675506591796875
10379440625.0 -0.320068359375 1.18023681640625
10410662500.0 0.5313720703125 1.0863037109375
10441884375.0 0.996337890625 0.51959228515625
10473106250.0 1.1119384765625 -0.086669921875
10504328125.0 0.95025634765625 -0.7626953125
10535550000.0 0.23529052734375 -1.2999267578125
10566771875.0 -0.6630859375 -1.077880859375
10597993750.0 -1.0841064453125 -0.45703125
10629215625.0 -1.17742919921875 0.2088623046875
10660437500.0 -0.88739013671875 0.959503173828125
10691659375.0 -0.00469970703125 1.33807373046875
10722881250.0 0.788299560546875 0.95135498046875
10754103125.0 1.1224365234375 0.32208251953125
10785325000.0 1.141845703125 -0.37005615234375
10816546875.0 0.69873046875 -1.05517578125
10847768750.0 -0.1502685546875 -1.232177734375
10878990625.0 -0.806243896484375 -0.842681884765625
10910212500.0 -1.1263427734375 -0.24322509765625
10941434375.0 -1.099365234375 0.4820556640625
10972656250.0 -0.5655517578125 1.0902099609375
11003878125.0 0.220703125 1.17596435546875
11035100000.0 0.852203369140625 0.822052001953125
11066321875.0 1.226806640625 0.17071533203125
11097543750.0 1.0999755859375 -0.68359375
11128765625.0 0.38470458984375 -1.2020263671875
11159987500.0 -0.40020751953125 -1.1405029296875
11191209375.0 -1.0037841796875 -0.701416015625
11222431250.0 -1.27606201171875 0.09832763671875
11253653125.0 -0.85772705078125 0.89996337890625
11284875000.0 -0.11065673828125 1.12908935546875
11316096875.0 0.5167236328125 0.95721435546875
11347318750.0 1.007568359375 0.50091552734375
11378540625.0 1.1195068359375 -0.27374267578125
11409762500.0 0.632659912109375 -0.864410400390625
11440984375.0 0.033538818359375 -0.980560302734375
11472206250.0 -0.484283447265625 -0.851348876953125
11503428125.0 -0.957061767578125 -0.454620361328125
11534650000.0 -1.0709228515625 0.2955322265625
11565871875.0 -0.60052490234375 0.8582763671875
11597093750.0 -0.0166015625 0.992950439453125
11628315625.0 0.548614501953125 0.876617431640625
11659537500.0 1.0657958984375 0.38970947265625
11690759375.0 1.06658935546875 -0.43902587890625
11721981250.0 0.515045166015625 -0.944732666015625
11753203125.0 -0.1094970703125 -1.03948974609375
11784425000.0 -0.730072021484375 -0.808746337890625
11815646875.0 -1.10516357421875 -0.1468505859375
11846868750.0 -0.8912353515625 0.555755615234375
11878090625.0 -0.38909912109375 0.91339111328125
11909312500.0 0.19097900390625 0.986846923828125
11940534375.0 0.7855224609375 0.694427490234375
11971756250.0 1.0277099609375 0.03515625
12002978125.0 0.8070068359375 -0.541839599609375
12034200000.0 0.37939453125 -0.892547607421875
12065421875.0 -0.2188720703125 -1.01202392578125
12096643750.0 -0.85443115234375 -0.6634521484375
12127865625.0 -1.0355224609375 0.02130126953125
12159087500.0 -0.815032958984375 0.58111572265625
12190309375.0 -0.3753662109375 0.980133056640625
12221531250.0 0.34503173828125 1.08984375
12252753125.0 0.985565185546875 0.578094482421875
12283975000.0 1.05572509765625 -0.1322021484375
12315196875.0 0.800537109375 -0.6807861328125
12346418750.0 0.2784423828125 -1.09600830078125
12377640625.0 -0.54443359375 -1.06103515625
12408862500.0 -1.0374755859375 -0.41510009765625
12440084375.0 -1.00958251953125 0.22760009765625
12471306250.0 -0.74212646484375 0.741302490234375
12502528125.0 -0.1761474609375 1.12542724609375
12533750000.0 0.6263427734375 0.993804931640625
12564971875.0 1.04620361328125 0.35919189453125
12596193750.0 1.03179931640625 -0.26953125
12627415625.0 0.74774169921875 -0.83477783203125
12658637500.0 0.07452392578125 -1.21240234375
12689859375.0 -0.74200439453125 -0.964813232421875
12721081250.0 -1.12188720703125 -0.30230712890625
12752303125.0 -1.0999755859375 0.38751220703125
12783525000.0 -0.68475341796875 1.03546142578125
12814746875.0 0.171630859375 1.2548828125
12845968750.0 0.86865234375 0.80902099609375
12877190625.0 1.1212158203125 0.16827392578125
12908412500.0 1.058837890625 -0.51055908203125
12939634375.0 0.53875732421875 -1.12451171875
12970856250.0 -0.3271484375 -1.17620849609375
13002078125.0 -0.898681640625 -0.690948486328125
13033300000.0 -1.108154296875 -0.0841064453125
13064521875.0 -1.01129150390625 0.60052490234375
13095743750.0 -0.4156494140625 1.16131591796875
13126965625.0 0.416259765625 1.12200927734375
13158187500.0 0.951019287109375 0.629638671875
13189409375.0 1.15142822265625 -0.0255126953125
13220631250.0 0.9354248046875 -0.75604248046875
13251853125.0 0.22918701171875 -1.1759033203125
13283075000.0 -0.51287841796875 -1.0205078125
13314296875.0 -0.992584228515625 -0.526123046875
13345518750.0 -1.138671875 0.1842041015625
