!Created with skrf (http://scikit-rf.org).
# Hz S RI R 50.0 
!freq ReS11 ImS11
45000000.0 -0.07692337036132812 -0.09682846069335938
76221875.0 -0.196258544921875 -0.047607421875
107443750.0 -0.2547607421875 0.1193084716796875
138665625.0 -0.1481781005859375 0.328399658203125
169887500.0 0.1232452392578125 0.417083740234375
201109375.0 0.4213714599609375 0.2808074951171875
232331250.0 0.578460693359375 -0.0572509765625
263553125.0 0.4893341064453125 -0.4519500732421875
294775000.0 0.098785400390625 -0.7318115234375
325996875.0 -0.414520263671875 -0.68011474609375
357218750.0 -0.80517578125 -0.29736328125
388440625.0 -0.884765625 0.299957275390625
419662500.0 -0.517181396484375 0.865081787109375
450884375.0 0.1722412109375 1.02777099609375
482106250.0 0.79736328125 0.71234130859375
513328125.0 1.11822509765625 0.08770751953125
544550000.0 1.00335693359375 -0.67864990234375
575771875.0 0.336669921875 -1.236572265625
606993750.0 -0.55267333984375 -1.176513671875
638215625.0 -1.16424560546875 -0.5902099609375
669437500.0 -1.33843994140625 0.23284912109375
700659375.0 -0.97052001953125 1.0947265625
731881250.0 -0.00433349609375 1.5413818359375
763103125.0 1.0040283203125 1.15484619140625
794325000.0 1.46685791015625 0.28216552734375
825546875.0 1.36602783203125 -0.6497802734375
856768750.0 0.7945556640625 -1.39849853515625
887990625.0 -0.29095458984375 -1.64642333984375
919212500.0 -1.285400390625 -1.0777587890625
950434375.0 -1.646240234375 -0.0599365234375
981656250.0 -1.380859375 0.9434814453125
1012878125.0 -0.5299072265625 1.6689453125
1044100000.0 0.69500732421875 1.65972900390625
1075321875.0 1.57159423828125 0.81201171875
1106543750.0 1.70220947265625 -0.31146240234375
1137765625.0 1.18524169921875 -1.28094482421875
1168987500.0 0.13909912109375 -1.7939453125
1200209375.0 -1.05926513671875 -1.481689453125
1231431250.0 -1.72454833984375 -0.4537353515625
1262653125.0 -1.59222412109375 0.6824951171875
1293875000.0 -0.85174560546875 1.48858642578125
1325096875.0 0.227294921875 1.70458984375
1356318750.0 1.2325439453125 1.215576171875
1387540625.0 1.73687744140625 0.18951416015625
1418762500.0 1.46722412109375 -0.94952392578125
1449984375.0 0.529541015625 -1.6231689453125
1481206250.0 -0.54827880859375 -1.55389404296875
1512428125.0 -1.339111328125 -0.91888427734375
1543650000.0 -1.65313720703125 0.06390380859375
1574871875.0 -1.27215576171875 1.10662841796875
1606093750.0 -0.2735595703125 1.62841796875
1637315625.0 0.74005126953125 1.39898681640625
1668537500.0 1.39337158203125 0.69537353515625
1699759375.0 1.5706787109375 -0.27593994140625
1730981250.0 1.063232421875 -1.22674560546875
1762203125.0 0.04290771484375 -1.56817626953125
1793425000.0 -0.8536376953125 -1.22491455078125
1824646875.0 -1.39105224609375 -0.5150146484375
1855868750.0 -1.47222900390625 0.43121337890625
1887090625.0 -0.8743896484375 1.28289794921875
1918312500.0 0.116455078125 1.48455810546875
1949534375.0 0.91943359375 1.087646484375
1980756250.0 1.37249755859375 0.37030029296875
2011978125.0 1.3577880859375 -0.53009033203125
2043200000.0 0.74951171875 -1.25909423828125
2074421875.0 -0.15582275390625 -1.4312744140625
2105643750.0 -0.958251953125 -1.07135009765625
2136865625.0 -1.4449462890625 -0.305419921875
2168087500.0 -1.35528564453125 0.66937255859375
2199309375.0 -0.638916015625 1.3487548828125
2230531250.0 0.28070068359375 1.43402099609375
2261753125.0 1.07061767578125 1.01312255859375
2292975000.0 1.5120849609375 0.1707763671875
2324196875.0 1.30401611328125 -0.81671142578125
2355418750.0 0.5250244140625 -1.417724609375
2386640625.0 -0.40301513671875 -1.44683837890625
2417862500.0 -1.1771240234375 -1.02313232421875
2449084375.0 -1.6019287109375 -0.08514404296875
2480306250.0 -1.309326171875 0.92169189453125
2511528125.0 -0.494140625 1.50494384765625
2542750000.0 0.48553466796875 1.53314208984375
2573971875.0 1.3675537109375 0.96685791015625
2605193750.0 1.71392822265625 -0.11114501953125
2636415625.0 1.25946044921875 -1.1492919921875
2667637500.0 0.30755615234375 -1.66302490234375
2698859375.0 -0.767333984375 -1.53192138671875
2730081250.0 -1.571044921875 -0.73980712890625
2761303125.0 -1.677001953125 0.38507080078125
2792525000.0 -1.09783935546875 1.30316162109375
2823746875.0 -0.10369873046875 1.72589111328125
2854968750.0 1.009765625 1.452880859375
2886190625.0 1.68780517578125 0.49151611328125
2917412500.0 1.59674072265625 -0.61456298828125
2948634375.0 0.93804931640625 -1.43035888671875
2979856250.0 -0.1065673828125 -1.7723388671875
3011078125.0 -1.2437744140625 -1.3402099609375
3042300000.0 -1.77081298828125 -0.23583984375
3073521875.0 -1.5052490234375 0.8345947265625
3104743750.0 -0.7628173828125 1.56427001953125
3135965625.0 0.35931396484375 1.80450439453125
3167187500.0 1.4945068359375 1.16278076171875
3198409375.0 1.811279296875 -0.07281494140625
3229631250.0 1.34661865234375 -1.0787353515625
3260853125.0 0.4893798828125 -1.66461181640625
3292075000.0 -0.6522216796875 -1.69500732421875
3323296875.0 -1.616943359375 -0.87860107421875
3354518750.0 -1.7275390625 0.32720947265625
3385740625.0 -1.15423583984375 1.22894287109375
3416962500.0 -0.232421875 1.67852783203125
3448184375.0 0.8580322265625 1.51959228515625
3479406250.0 1.63116455078125 0.64453125
3510628125.0 1.64093017578125 -0.49285888671875
3541850000.0 0.9996337890625 -1.35223388671875
3573071875.0 -0.00604248046875 -1.67852783203125
3604293750.0 -1.024658203125 -1.3355712890625
3635515625.0 -1.6246337890625 -0.43865966796875
3666737500.0 -1.55926513671875 0.64373779296875
3697959375.0 -0.82470703125 1.470458984375
3729181250.0 0.26715087890625 1.6279296875
3760403125.0 1.1495361328125 1.0968017578125
3791625000.0 1.5491943359375 0.2183837890625
3822846875.0 1.39910888671875 -0.757568359375
3854068750.0 0.6201171875 -1.47772216796875
3885290625.0 -0.4185791015625 -1.47808837890625
3916512500.0 -1.13848876953125 -0.9100341796875
3947734375.0 -1.44403076171875 -0.1209716796875
3978956250.0 -1.29534912109375 0.77606201171875
4010178125.0 -0.53167724609375 1.4500732421875
4041400000.0 0.47100830078125 1.41314697265625
4072621875.0 1.14910888671875 0.84698486328125
4103843750.0 1.44189453125 0.064697265625
4135065625.0 1.26593017578125 -0.8428955078125
4166287500.0 0.45794677734375 -1.4932861328125
4197509375.0 -0.55499267578125 -1.4124755859375
4228731250.0 -1.2445068359375 -0.80255126953125
4259953125.0 -1.50665283203125 0.06939697265625
4291175000.0 -1.1866455078125 1.007568359375
4322396875.0 -0.2901611328125 1.52337646484375
4353618750.0 0.67095947265625 1.34814453125
4384840625.0 1.318603515625 0.6968994140625
4416062500.0 1.497802734375 -0.2254638671875
4447284375.0 1.05413818359375 -1.1011962890625
4478506250.0 0.17352294921875 -1.4918212890625
4509728125.0 -0.72991943359375 -1.30548095703125
4540950000.0 -1.3905029296875 -0.63629150390625
4572171875.0 -1.51995849609375 0.35845947265625
4603393750.0 -0.97186279296875 1.21087646484375
4634615625.0 -0.0621337890625 1.53387451171875
4665837500.0 0.86761474609375 1.30255126953125
4697059375.0 1.537109375 0.5157470703125
4728281250.0 1.5264892578125 -0.58026123046875
4759503125.0 0.82220458984375 -1.365234375
4790725000.0 -0.14404296875 -1.56988525390625
4821946875.0 -1.08135986328125 -1.19207763671875
4853168750.0 -1.61041259765625 -0.25164794921875
4884390625.0 -1.376708984375 0.7906494140625
4915612500.0 -0.61358642578125 1.409423828125
4946834375.0 0.32720947265625 1.50775146484375
4978056250.0 1.202880859375 1.01611328125
5009278125.0 1.5579833984375 0.041748046875
5040500000.0 1.2275390625 -0.8741455078125
5071721875.0 0.5013427734375 -1.41314697265625
5102943750.0 -0.44451904296875 -1.494140625
5134165625.0 -1.3341064453125 -0.9049072265625
5165387500.0 -1.56597900390625 0.1456298828125
5196609375.0 -1.1348876953125 1.00653076171875
5227831250.0 -0.357177734375 1.50384521484375
5259053125.0 0.68597412109375 1.489990234375
5290275000.0 1.518310546875 0.66278076171875
5321496875.0 1.489501953125 -0.42840576171875
5352718750.0 0.920166015625 -1.1500244140625
5383940625.0 0.097412109375 -1.498291015625
5415162500.0 -0.898193359375 -1.2822265625
5446384375.0 -1.48193359375 -0.3702392578125
5477606250.0 -1.29766845703125 0.56536865234375
5508828125.0 -0.730712890625 1.14874267578125
5540050000.0 0.05322265625 1.3968505859375
5571271875.0 0.9371337890625 1.10784912109375
5602493750.0 1.406005859375 0.26025390625
5633715625.0 1.2310791015625 -0.612060546875
5664937500.0 0.6484375 -1.19805908203125
5696159375.0 -0.19561767578125 -1.38153076171875
5727381250.0 -1.01959228515625 -0.97760009765625
5758603125.0 -1.3890380859375 -0.1456298828125
5789825000.0 -1.193359375 0.7169189453125
5821046875.0 -0.50616455078125 1.30487060546875
5852268750.0 0.41021728515625 1.3109130859375
5883490625.0 1.0682373046875 0.771484375
5914712500.0 1.3006591796875 0.01995849609375
5945934375.0 1.0955810546875 -0.77459716796875
5977156250.0 0.36236572265625 -1.30926513671875
6008378125.0 -0.5072021484375 -1.1807861328125
6039600000.0 -1.0205078125 -0.64898681640625
6070821875.0 -1.2220458984375 -0.00506591796875
6102043750.0 -1.08270263671875 0.7615966796875
6133265625.0 -0.3426513671875 1.3421630859375
6164487500.0 0.56182861328125 1.18603515625
6195709375.0 1.06787109375 0.62994384765625
6226931250.0 1.27783203125 -0.04156494140625
6258153125.0 1.103515625 -0.86865234375
6289375000.0 0.25787353515625 -1.4429931640625
6320596875.0 -0.68719482421875 -1.20428466796875
6351818750.0 -1.1973876953125 -0.5718994140625
6383040625.0 -1.35308837890625 0.20562744140625
6414262500.0 -0.99945068359375 1.05462646484375
6445484375.0 -0.07952880859375 1.45416259765625
6476706250.0 0.79345703125 1.14654541015625
6507928125.0 1.28851318359375 0.47021484375
6539150000.0 1.3460693359375 -0.38525390625
6570371875.0 0.84075927734375 -1.14105224609375
6601593750.0 -0.01641845703125 -1.4031982421875
6632815625.0 -0.83734130859375 -1.1353759765625
6664037500.0 -1.39923095703125 -0.42034912109375
6695259375.0 -1.37298583984375 0.56549072265625
6726481250.0 -0.7099609375 1.24835205078125
6757703125.0 0.12908935546875 1.40423583984375
6788925000.0 0.953125 1.1300048828125
6820146875.0 1.5584716796875 0.2880859375
6851368750.0 1.32513427734375 -0.81817626953125
6882590625.0 0.50628662109375 -1.3363037109375
6913812500.0 -0.29095458984375 -1.35479736328125
6945034375.0 -1.0677490234375 -1.0211181640625
6976256250.0 -1.5904541015625 -0.0943603515625
7007478125.0 -1.2347412109375 0.9300537109375
7038700000.0 -0.40374755859375 1.339111328125
7069921875.0 0.356689453125 1.3218994140625
7101143750.0 1.1143798828125 0.96875
7132365625.0 1.5968017578125 0.01580810546875
7163587500.0 1.15740966796875 -1.01971435546875
7194809375.0 0.30316162109375 -1.3953857421875
7226031250.0 -0.51043701171875 -1.32366943359375
7257253125.0 -1.26409912109375 -0.8243408203125
7288475000.0 -1.55694580078125 0.19586181640625
7319696875.0 -1.0294189453125 1.10528564453125
7350918750.0 -0.16448974609375 1.44244384765625
7382140625.0 0.71429443359375 1.2747802734375
7413362500.0 1.375244140625 0.5745849609375
7444584375.0 1.40838623046875 -0.4033203125
7475806250.0 0.85797119140625 -1.14044189453125
7507028125.0 0.00762939453125 -1.4254150390625
7538250000.0 -0.885009765625 -1.1234130859375
7569471875.0 -1.333984375 -0.31170654296875
7600693750.0 -1.200927734375 0.49639892578125
7631915625.0 -0.71820068359375 1.0831298828125
7663137500.0 0.080078125 1.35650634765625
7694359375.0 0.938690185546875 0.979949951171875
7725581250.0 1.24176025390625 0.18072509765625
7756803125.0 1.080810546875 -0.49652099609375
7788025000.0 0.6702880859375 -1.043212890625
7819246875.0 -0.1197509765625 -1.34686279296875
7850468750.0 -0.990509033203125 -0.91473388671875
7881690625.0 -1.2294921875 -0.10546875
7912912500.0 -1.053466796875 0.5523681640625
7944134375.0 -0.605712890625 1.1107177734375
7975356250.0 0.26983642578125 1.3331298828125
8006578125.0 1.043701171875 0.7784423828125
8037800000.0 1.19146728515625 0.017578125
8069021875.0 1.00592041015625 -0.614990234375
8100243750.0 0.50054931640625 -1.15960693359375
8131465625.0 -0.38458251953125 -1.25299072265625
8162687500.0 -1.0311279296875 -0.68621826171875
8193909375.0 -1.1793212890625 0.0079345703125
8225131250.0 -1.01727294921875 0.67755126953125
8256353125.0 -0.42181396484375 1.2467041015625
8287575000.0 0.4996337890625 1.22540283203125
8318796875.0 1.08172607421875 0.6357421875
8350018750.0 1.24334716796875 -0.07427978515625
8381240625.0 1.0306396484375 -0.8387451171875
8412462500.0 0.256103515625 -1.37017822265625
8443684375.0 -0.66497802734375 -1.1683349609375
8474906250.0 -1.1727294921875 -0.5322265625
8506128125.0 -1.2958984375 0.2359619140625
8537350000.0 -0.92388916015625 1.046142578125
8568571875.0 -0.01708984375 1.39324951171875
8599793750.0 0.79937744140625 1.0531005859375
8631015625.0 1.2376708984375 0.398681640625
8662237500.0 1.2847900390625 -0.4276123046875
8693459375.0 0.73675537109375 -1.173095703125
8724681250.0 -0.1605224609375 -1.3284912109375
8755903125.0 -0.876983642578125 -0.957427978515625
8787125000.0 -1.30267333984375 -0.2828369140625
8818346875.0 -1.25042724609375 0.613037109375
8849568750.0 -0.55718994140625 1.25830078125
8880790625.0 0.29730224609375 1.28375244140625
8912012500.0 0.9791259765625 0.892730712890625
8943234375.0 1.3985595703125 0.1287841796875
8974456250.0 1.16595458984375 -0.83880615234375
9005678125.0 0.34893798828125 -1.310302734375
9036900000.0 -0.4442138671875 -1.22412109375
9068121875.0 -1.0989990234375 -0.78533935546875
9099343750.0 -1.43914794921875 0.09588623046875
9130565625.0 -0.97882080078125 1.00897216796875
9161787500.0 -0.15521240234375 1.28033447265625
9193009375.0 0.5543212890625 1.13238525390625
9224231250.0 1.17803955078125 0.654541015625
9255453125.0 1.3980712890625 -0.29522705078125
9286675000.0 0.807373046875 -1.08349609375
9317896875.0 0.02752685546875 -1.2462158203125
9349118750.0 -0.65374755859375 -1.06866455078125
9380340625.0 -1.253662109375 -0.51080322265625
9411562500.0 -1.3101806640625 0.47650146484375
9442784375.0 -0.64788818359375 1.11370849609375
9474006250.0 0.08721923828125 1.20977783203125
9505228125.0 0.763214111328125 0.97967529296875
9536450000.0 1.271728515625 0.31353759765625
9567671875.0 1.14312744140625 -0.57958984375
9598893750.0 0.530029296875 -1.06646728515625
9630115625.0 -0.1435546875 -1.15704345703125
9661337500.0 -0.81640625 -0.901641845703125
9692559375.0 -1.2379150390625 -0.19061279296875
9723781250.0 -1.0426025390625 0.6026611328125
9755003125.0 -0.486083984375 1.0501708984375
9786225000.0 0.1968994140625 1.15777587890625
9817446875.0 0.89251708984375 0.8272705078125
9848668750.0 1.19744873046875 0.07904052734375
9879890625.0 0.967681884765625 -0.6138916015625
9911112500.0 0.45233154296875 -1.05108642578125
9942334375.0 -0.2679443359375 -1.1593017578125
9973556250.0 -0.94195556640625 -0.73858642578125
10004778125.0 -1.14471435546875 -0.01849365234375
10036000000.0 -0.943603515625 0.614471435546875
10067221875.0 -0.44207763671875 1.09588623046875
10098443750.0 0.3687744140625 1.18096923828125
10129665625.0 1.0015869140625 0.64306640625
10160887500.0 1.1195068359375 -0.0506591796875
10192109375.0 0.917510986328125 -0.66143798828125
10223331250.0 0.36248779296875 -1.1507568359375
10254553125.0 -0.48443603515625 -1.11346435546875
10285775000.0 -0.98382568359375 -0.535430908203125
10316996875.0 -1.06622314453125 0.0762939453125
10348218750.0 -0.8997802734375 0.668914794921875
10379440625.0 -0.32269287109375 1.17352294921875
10410662500.0 0.5255126953125 1.08477783203125
10441884375.0 0.9906005859375 0.521942138671875
10473106250.0 1.10748291015625 -0.08209228515625
10504328125.0 0.9495849609375 -0.75628662109375
10535550000.0 0.240966796875 -1.2919921875
10566771875.0 -0.656982421875 -1.07598876953125
10597993750.0 -1.07965087890625 -0.45941162109375
10629215625.0 -1.174560546875 0.204345703125
10660437500.0 -0.88629150390625 0.95025634765625
10691659375.0 -0.0096435546875 1.33404541015625
10722881250.0 0.783905029296875 0.95166015625
10754103125.0 1.11767578125 0.32568359375
10785325000.0 1.13836669921875 -0.3651123046875
10816546875.0 0.7012939453125 -1.0447998046875
10847768750.0 -0.1429443359375 -1.22802734375
10878990625.0 -0.802032470703125 -0.843109130859375
10910212500.0 -1.12109375 -0.24603271484375
10941434375.0 -1.095947265625 0.47515869140625
10972656250.0 -0.56817626953125 1.08282470703125
11003878125.0 0.21527099609375 1.173095703125
11035100000.0 0.845123291015625 0.82110595703125
11066321875.0 1.21881103515625 0.17449951171875
11097543750.0 1.09698486328125 -0.673095703125
11128765625.0 0.3853759765625 -1.198974609375
11159987500.0 -0.39495849609375 -1.1383056640625
11191209375.0 -0.9976806640625 -0.70233154296875
11222431250.0 -1.2711181640625 0.09246826171875
11253653125.0 -0.8577880859375 0.893646240234375
11284875000.0 -0.11602783203125 1.125
11316096875.0 0.51104736328125 0.955810546875
11347318750.0 1.00140380859375 0.5030517578125
11378540625.0 1.11639404296875 -0.26922607421875
11409762500.0 0.634521484375 -0.859375
11440984375.0 0.036895751953125 -0.97802734375
11472206250.0 -0.48004150390625 -0.85028076171875
11503428125.0 -0.9503173828125 -0.456939697265625
11534650000.0 -1.06884765625 0.2879638671875
11565871875.0 -0.602386474609375 0.85162353515625
11597093750.0 -0.01837158203125 0.989959716796875
11628315625.0 0.54278564453125 0.87548828125
11659537500.0 1.0599365234375 0.39251708984375
11690759375.0 1.06341552734375 -0.43096923828125
11721981250.0 0.517730712890625 -0.9378662109375
11753203125.0 -0.10491943359375 -1.0355224609375
11784425000.0 -0.722625732421875 -0.808502197265625
11815646875.0 -1.10089111328125 -0.15087890625
11846868750.0 -0.891387939453125 0.550994873046875
11878090625.0 -0.391571044921875 0.906707763671875
11909312500.0 0.186767578125 0.98394775390625
11940534375.0 0.77923583984375 0.69525146484375
11971756250.0 1.02301025390625 0.041259765625
12002978125.0 0.80670166015625 -0.537322998046875
12034200000.0 0.382537841796875 -0.88629150390625
12065421875.0 -0.21405029296875 -1.00921630859375
12096643750.0 -0.846893310546875 -0.664703369140625
12127865625.0 -1.03253173828125 0.01611328125
12159087500.0 -0.81475830078125 0.57373046875
12190309375.0 -0.378021240234375 0.974151611328125
12221531250.0 0.33709716796875 1.08563232421875
12252753125.0 0.979156494140625 0.581329345703125
12283975000.0 1.0543212890625 -0.12835693359375
12315196875.0 0.79949951171875 -0.674346923828125
12346418750.0 0.28173828125 -1.09100341796875
12377640625.0 -0.53839111328125 -1.06072998046875
12408862500.0 -1.0323486328125 -0.4205322265625
12440084375.0 -1.00750732421875 0.222900390625
12471306250.0 -0.74127197265625 0.7352294921875
12502528125.0 -0.17950439453125 1.118408203125
12533750000.0 0.62030029296875 0.993560791015625
12564971875.0 1.041748046875 0.36346435546875
12596193750.0 1.029541015625 -0.26531982421875
12627415625.0 0.748138427734375 -0.82672119140625
12658637500.0 0.08074951171875 -1.20703125
12689859375.0 -0.73455810546875 -0.965972900390625
12721081250.0 -1.1146240234375 -0.3067626953125
12752303125.0 -1.09674072265625 0.38214111328125
12783525000.0 -0.686279296875 1.02606201171875
12814746875.0 0.1646728515625 1.25018310546875
12845968750.0 0.85980224609375 0.8106689453125
12877190625.0 1.11651611328125 0.17254638671875
12908412500.0 1.05474853515625 -0.50018310546875
12939634375.0 0.54364013671875 -1.1138916015625
12970856250.0 -0.3193359375 -1.1744384765625
13002078125.0 -0.89508056640625 -0.692535400390625
13033300000.0 -1.10504150390625 -0.08721923828125
13064521875.0 -1.00823974609375 0.59173583984375
13095743750.0 -0.42120361328125 1.152099609375
13126965625.0 0.408203125 1.12042236328125
13158187500.0 0.945709228515625 0.631683349609375
13189409375.0 1.14703369140625 -0.02056884765625
13220631250.0 0.935882568359375 -0.746856689453125
13251853125.0 0.23431396484375 -1.171142578125
13283075000.0 -0.507568359375 -1.01885986328125
13314296875.0 -0.985687255859375 -0.529022216796875
13345518750.0 -1.13519287109375 0.1783447265625
