!Created with skrf (http://scikit-rf.org).
# Hz S RI R 50.0 
!freq ReS11 ImS11
45000000.0 -0.077178955078125 -0.096954345703125
76221875.0 -0.19732666015625 -0.0474395751953125
107443750.0 -0.2562713623046875 0.12054443359375
138665625.0 -0.148468017578125 0.3300018310546875
169887500.0 0.1240234375 0.4190826416015625
201109375.0 0.423492431640625 0.2822113037109375
232331250.0 0.581298828125 -0.057586669921875
263553125.0 0.49169921875 -0.4554595947265625
294775000.0 0.098663330078125 -0.736297607421875
325996875.0 -0.417938232421875 -0.6842041015625
357218750.0 -0.81097412109375 -0.298492431640625
388440625.0 -0.89044189453125 0.302978515625
419662500.0 -0.51922607421875 0.870941162109375
450884375.0 0.1739501953125 1.03369140625
482106250.0 0.802215576171875 0.715789794921875
513328125.0 1.1243896484375 0.08740234375
544550000.0 1.0078125 -0.6829833984375
575771875.0 0.33734130859375 -1.2431640625
606993750.0 -0.5560302734375 -1.1820068359375
638215625.0 -1.17041015625 -0.59283447265625
669437500.0 -1.34515380859375 0.23468017578125
700659375.0 -0.97491455078125 1.10052490234375
731881250.0 -0.0040283203125 1.5491943359375
763103125.0 1.009033203125 1.16094970703125
794325000.0 1.47479248046875 0.28314208984375
825546875.0 1.37286376953125 -0.654052734375
856768750.0 0.79779052734375 -1.40814208984375
887990625.0 -0.29510498046875 -1.65618896484375
919212500.0 -1.29534912109375 -1.08380126953125
950434375.0 -1.65728759765625 -0.0584716796875
981656250.0 -1.3895263671875 0.951904296875
1012878125.0 -0.53192138671875 1.680908203125
1044100000.0 0.7015380859375 1.67034912109375
1075321875.0 1.583740234375 0.81549072265625
1106543750.0 1.71337890625 -0.3154296875
1137765625.0 1.19189453125 -1.29107666015625
1168987500.0 0.1380615234375 -1.8062744140625
1200209375.0 -1.06719970703125 -1.4910888671875
1231431250.0 -1.73638916015625 -0.4547119140625
1262653125.0 -1.60107421875 0.68902587890625
1293875000.0 -0.85528564453125 1.4986572265625
1325096875.0 0.22943115234375 1.71405029296875
1356318750.0 1.24090576171875 1.222412109375
1387540625.0 1.74798583984375 0.18994140625
1418762500.0 1.4764404296875 -0.956298828125
1449984375.0 0.53131103515625 -1.6331787109375
1481206250.0 -0.55267333984375 -1.56298828125
1512428125.0 -1.3482666015625 -0.9234619140625
1543650000.0 -1.66290283203125 0.066162109375
1574871875.0 -1.27801513671875 1.11383056640625
1606093750.0 -0.2734375 1.63836669921875
1637315625.0 0.74554443359375 1.40606689453125
1668537500.0 1.40203857421875 0.69793701171875
1699759375.0 1.57928466796875 -0.278564453125
1730981250.0 1.06842041015625 -1.23431396484375
1762203125.0 0.04193115234375 -1.5767822265625
1793425000.0 -0.859130859375 -1.2310791015625
1824646875.0 -1.39898681640625 -0.51678466796875
1855868750.0 -1.479736328125 0.43353271484375
1887090625.0 -0.8787841796875 1.28997802734375
1918312500.0 0.11798095703125 1.49310302734375
1949534375.0 0.92547607421875 1.09344482421875
1980756250.0 1.3804931640625 0.371337890625
2011978125.0 1.36505126953125 -0.5341796875
2043200000.0 0.75244140625 -1.26666259765625
2074421875.0 -0.1575927734375 -1.4385986328125
2105643750.0 -0.964111328125 -1.075927734375
2136865625.0 -1.452880859375 -0.3055419921875
2168087500.0 -1.362060546875 0.67401123046875
2199309375.0 -0.6412353515625 1.356689453125
2230531250.0 0.28350830078125 1.44158935546875
2261753125.0 1.076904296875 1.0174560546875
2292975000.0 1.51971435546875 0.1705322265625
2324196875.0 1.3101806640625 -0.822021484375
2355418750.0 0.52691650390625 -1.42510986328125
2386640625.0 -0.40594482421875 -1.45404052734375
2417862500.0 -1.1878662109375 -1.02783203125
2449084375.0 -1.6129150390625 -0.0826416015625
2480306250.0 -1.31683349609375 0.931396484375
2511528125.0 -0.49481201171875 1.51513671875
2542750000.0 0.4932861328125 1.54345703125
2573971875.0 1.37799072265625 0.9715576171875
2605193750.0 1.72528076171875 -0.11376953125
2636415625.0 1.26629638671875 -1.15814208984375
2667637500.0 0.30706787109375 -1.67474365234375
2698859375.0 -0.775390625 -1.5408935546875
2730081250.0 -1.582275390625 -0.74273681640625
2761303125.0 -1.68927001953125 0.3912353515625
2792525000.0 -1.10308837890625 1.3145751953125
2823746875.0 -0.100830078125 1.73883056640625
2854968750.0 1.01812744140625 1.461669921875
2886190625.0 1.7008056640625 0.49237060546875
2917412500.0 1.6068115234375 -0.6212158203125
2948634375.0 0.942626953125 -1.4403076171875
2979856250.0 -0.10931396484375 -1.78411865234375
3011078125.0 -1.25347900390625 -1.34796142578125
3042300000.0 -1.78302001953125 -0.234619140625
3073521875.0 -1.5147705078125 0.84161376953125
3104743750.0 -0.765869140625 1.576904296875
3135965625.0 0.36492919921875 1.8175048828125
3167187500.0 1.5062255859375 1.16900634765625
3198409375.0 1.82415771484375 -0.076904296875
3229631250.0 1.35443115234375 -1.08795166015625
3260853125.0 0.49053955078125 -1.67681884765625
3292075000.0 -0.65936279296875 -1.704833984375
3323296875.0 -1.6282958984375 -0.882568359375
3354518750.0 -1.73760986328125 0.33099365234375
3385740625.0 -1.1602783203125 1.23846435546875
3416962500.0 -0.23101806640625 1.68975830078125
3448184375.0 0.86541748046875 1.52789306640625
3479406250.0 1.64398193359375 0.6463623046875
3510628125.0 1.6502685546875 -0.49700927734375
3541850000.0 1.00360107421875 -1.3616943359375
3573071875.0 -0.0086669921875 -1.689453125
3604293750.0 -1.03192138671875 -1.3421630859375
3635515625.0 -1.63458251953125 -0.439697265625
3666737500.0 -1.568115234375 0.65081787109375
3697959375.0 -0.8277587890625 1.48260498046875
3729181250.0 0.27130126953125 1.63812255859375
3760403125.0 1.15850830078125 1.10205078125
3791625000.0 1.55908203125 0.2183837890625
3822846875.0 1.4075927734375 -0.76544189453125
3854068750.0 0.62200927734375 -1.4881591796875
3885290625.0 -0.423583984375 -1.48687744140625
3916512500.0 -1.14642333984375 -0.91412353515625
3947734375.0 -1.45318603515625 -0.11993408203125
3978956250.0 -1.302978515625 0.78350830078125
4010178125.0 -0.53265380859375 1.46038818359375
4041400000.0 0.4764404296875 1.420654296875
4072621875.0 1.15618896484375 0.8499755859375
4103843750.0 1.45025634765625 0.062255859375
4135065625.0 1.27252197265625 -0.8502197265625
4166287500.0 0.45843505859375 -1.50244140625
4197509375.0 -0.5615234375 -1.4202880859375
4228731250.0 -1.25384521484375 -0.804443359375
4259953125.0 -1.51568603515625 0.07232666015625
4291175000.0 -1.19207763671875 1.01544189453125
4322396875.0 -0.2889404296875 1.5341796875
4353618750.0 0.67669677734375 1.35504150390625
4384840625.0 1.32855224609375 0.6986083984375
4416062500.0 1.50567626953125 -0.2288818359375
4447284375.0 1.05810546875 -1.1092529296875
4478506250.0 0.17181396484375 -1.50146484375
4509728125.0 -0.7366943359375 -1.31182861328125
4540950000.0 -1.39996337890625 -0.6370849609375
4572171875.0 -1.5281982421875 0.36309814453125
4603393750.0 -0.97607421875 1.2169189453125
4634615625.0 -0.060546875 1.543212890625
4665837500.0 0.87493896484375 1.30865478515625
4697059375.0 1.54901123046875 0.51605224609375
4728281250.0 1.53515625 -0.58636474609375
4759503125.0 0.82537841796875 -1.37310791015625
4790725000.0 -0.14678955078125 -1.57843017578125
4821946875.0 -1.08929443359375 -1.1981201171875
4853168750.0 -1.619873046875 -0.25054931640625
4884390625.0 -1.38262939453125 0.79730224609375
4915612500.0 -0.61480712890625 1.4178466796875
4946834375.0 0.3311767578125 1.51409912109375
4978056250.0 1.211669921875 1.02008056640625
5009278125.0 1.56842041015625 0.03778076171875
5040500000.0 1.2330322265625 -0.88043212890625
5071721875.0 0.50213623046875 -1.42059326171875
5102943750.0 -0.44921875 -1.501220703125
5134165625.0 -1.34185791015625 -0.90826416015625
5165387500.0 -1.57354736328125 0.14715576171875
5196609375.0 -1.14031982421875 1.01483154296875
5227831250.0 -0.3577880859375 1.512451171875
5259053125.0 0.691162109375 1.497314453125
5290275000.0 1.5281982421875 0.66424560546875
5321496875.0 1.49761962890625 -0.43365478515625
5352718750.0 0.92315673828125 -1.15850830078125
5383940625.0 0.09564208984375 -1.50604248046875
5415162500.0 -0.905029296875 -1.2879638671875
5446384375.0 -1.49053955078125 -0.370361328125
5477606250.0 -1.3035888671875 0.57000732421875
5508828125.0 -0.7332763671875 1.1553955078125
5540050000.0 0.05517578125 1.40399169921875
5571271875.0 0.94329833984375 1.11236572265625
5602493750.0 1.41510009765625 0.25909423828125
5633715625.0 1.23577880859375 -0.61517333984375
5664937500.0 0.6497802734375 -1.206787109375
5696159375.0 -0.198486328125 -1.38873291015625
5727381250.0 -1.026611328125 -0.98211669921875
5758603125.0 -1.396484375 -0.144775390625
5789825000.0 -1.19818115234375 0.7213134765625
5821046875.0 -0.50726318359375 1.31256103515625
5852268750.0 0.41339111328125 1.3175048828125
5883490625.0 1.0760498046875 0.77410888671875
5914712500.0 1.30865478515625 0.01824951171875
5945934375.0 1.10009765625 -0.77972412109375
5977156250.0 0.3614501953125 -1.317138671875
6008378125.0 -0.51263427734375 -1.1865234375
6039600000.0 -1.02606201171875 -0.65057373046875
6070821875.0 -1.22857666015625 -0.00341796875
6102043750.0 -1.08685302734375 0.7667236328125
6133265625.0 -0.34210205078125 1.34979248046875
6164487500.0 0.5662841796875 1.191162109375
6195709375.0 1.0750732421875 0.6312255859375
6226931250.0 1.28436279296875 -0.04345703125
6258153125.0 1.1085205078125 -0.87542724609375
6289375000.0 0.25543212890625 -1.4520263671875
6320596875.0 -0.69342041015625 -1.20953369140625
6351818750.0 -1.20526123046875 -0.5732421875
6383040625.0 -1.35919189453125 0.2091064453125
6414262500.0 -1.0025634765625 1.0625
6445484375.0 -0.07720947265625 1.46240234375
6476706250.0 0.7998046875 1.1510009765625
6507928125.0 1.296630859375 0.47027587890625
6539150000.0 1.3516845703125 -0.38897705078125
6570371875.0 0.84332275390625 -1.14898681640625
6601593750.0 -0.01910400390625 -1.4107666015625
6632815625.0 -0.84454345703125 -1.13946533203125
6664037500.0 -1.40625 -0.42041015625
6695259375.0 -1.37872314453125 0.57049560546875
6726481250.0 -0.71160888671875 1.257080078125
6757703125.0 0.13214111328125 1.412353515625
6788925000.0 0.9600830078125 1.13385009765625
6820146875.0 1.56634521484375 0.2869873046875
6851368750.0 1.33050537109375 -0.82489013671875
6882590625.0 0.5069580078125 -1.3441162109375
6913812500.0 -0.29547119140625 -1.362548828125
6945034375.0 -1.07513427734375 -1.02496337890625
6976256250.0 -1.599853515625 -0.0909423828125
7007478125.0 -1.24066162109375 0.9393310546875
7038700000.0 -0.40264892578125 1.3485107421875
7069921875.0 0.36102294921875 1.32879638671875
7101143750.0 1.127197265625 0.97186279296875
7132365625.0 1.609375 0.00921630859375
7163587500.0 1.1611328125 -1.02716064453125
7194809375.0 0.3013916015625 -1.406005859375
7226031250.0 -0.51641845703125 -1.33203125
7257253125.0 -1.27325439453125 -0.8275146484375
7288475000.0 -1.56475830078125 0.2022705078125
7319696875.0 -1.03387451171875 1.11395263671875
7350918750.0 -0.1630859375 1.45074462890625
7382140625.0 0.72125244140625 1.2813720703125
7413362500.0 1.38543701171875 0.57720947265625
7444584375.0 1.4190673828125 -0.4122314453125
7475806250.0 0.86114501953125 -1.14813232421875
7507028125.0 0.0037841796875 -1.43829345703125
7538250000.0 -0.894775390625 -1.12762451171875
7569471875.0 -1.3428955078125 -0.309814453125
7600693750.0 -1.206787109375 0.501220703125
7631915625.0 -0.72015380859375 1.09271240234375
7663137500.0 0.082275390625 1.36407470703125
7694359375.0 0.944610595703125 0.983856201171875
7725581250.0 1.24920654296875 0.1800537109375
7756803125.0 1.08734130859375 -0.50384521484375
7788025000.0 0.672119140625 -1.05035400390625
7819246875.0 -0.12481689453125 -1.35418701171875
7850468750.0 -0.998626708984375 -0.91888427734375
7881690625.0 -1.2373046875 -0.1043701171875
7912912500.0 -1.05908203125 0.55743408203125
7944134375.0 -0.607666015625 1.11871337890625
7975356250.0 0.2742919921875 1.33990478515625
8006578125.0 1.0521240234375 0.780517578125
8037800000.0 1.19805908203125 0.01617431640625
8069021875.0 1.0103759765625 -0.62042236328125
8100243750.0 0.5003662109375 -1.168212890625
8131465625.0 -0.39166259765625 -1.25848388671875
8162687500.0 -1.03778076171875 -0.6875
8193909375.0 -1.18695068359375 0.010986328125
8225131250.0 -1.0218505859375 0.68280029296875
8256353125.0 -0.421630859375 1.2564697265625
8287575000.0 0.50634765625 1.23095703125
8318796875.0 1.0880126953125 0.63720703125
8350018750.0 1.2496337890625 -0.07696533203125
8381240625.0 1.03411865234375 -0.84417724609375
8412462500.0 0.25311279296875 -1.381103515625
8443684375.0 -0.6754150390625 -1.1749267578125
8474906250.0 -1.18170166015625 -0.5321044921875
8506128125.0 -1.30316162109375 0.239013671875
8537350000.0 -0.92626953125 1.054443359375
8568571875.0 -0.013671875 1.399658203125
8599793750.0 0.8087158203125 1.056884765625
8631015625.0 1.2470703125 0.39892578125
8662237500.0 1.29046630859375 -0.4306640625
8693459375.0 0.7373046875 -1.1845703125
8724681250.0 -0.1649169921875 -1.3372802734375
8755903125.0 -0.88568115234375 -0.960601806640625
8787125000.0 -1.3089599609375 -0.2823486328125
8818346875.0 -1.2562255859375 0.62139892578125
8849568750.0 -0.556640625 1.26824951171875
8880790625.0 0.3016357421875 1.2899169921875
8912012500.0 0.987091064453125 0.895294189453125
8943234375.0 1.40728759765625 0.1259765625
8974456250.0 1.1715087890625 -0.84527587890625
9005678125.0 0.34661865234375 -1.32098388671875
9036900000.0 -0.44952392578125 -1.22943115234375
9068121875.0 -1.107421875 -0.787841796875
9099343750.0 -1.4488525390625 0.10113525390625
9130565625.0 -0.9814453125 1.0206298828125
9161787500.0 -0.15185546875 1.29022216796875
9193009375.0 0.55938720703125 1.13787841796875
9224231250.0 1.18597412109375 0.65576171875
9255453125.0 1.40655517578125 -0.301025390625
9286675000.0 0.808349609375 -1.09051513671875
9317896875.0 0.02557373046875 -1.25177001953125
9349118750.0 -0.65771484375 -1.07379150390625
9380340625.0 -1.26434326171875 -0.51019287109375
9411562500.0 -1.317138671875 0.48309326171875
9442784375.0 -0.64849853515625 1.12359619140625
9474006250.0 0.09228515625 1.218017578125
9505228125.0 0.7711181640625 0.983917236328125
9536450000.0 1.28070068359375 0.31219482421875
9567671875.0 1.14788818359375 -0.58544921875
9598893750.0 0.5291748046875 -1.07574462890625
9630115625.0 -0.147216796875 -1.16400146484375
9661337500.0 -0.822296142578125 -0.90570068359375
9692559375.0 -1.24481201171875 -0.18841552734375
9723781250.0 -1.0465087890625 0.6082763671875
9755003125.0 -0.48681640625 1.056884765625
9786225000.0 0.20233154296875 1.16510009765625
9817446875.0 0.901763916015625 0.829345703125
9848668750.0 1.20355224609375 0.0767822265625
9879890625.0 0.97119140625 -0.6214599609375
9911112500.0 0.451904296875 -1.05706787109375
9942334375.0 -0.27130126953125 -1.164306640625
9973556250.0 -0.948577880859375 -0.739990234375
10004778125.0 -1.15142822265625 -0.01507568359375
10036000000.0 -0.947723388671875 0.621978759765625
10067221875.0 -0.441162109375 1.102783203125
10098443750.0 0.37396240234375 1.18701171875
10129665625.0 1.009033203125 0.64251708984375
10160887500.0 1.126220703125 -0.0550537109375
10192109375.0 0.920867919921875 -0.6680908203125
10223331250.0 0.36029052734375 -1.1583251953125
10254553125.0 -0.49078369140625 -1.11767578125
10285775000.0 -0.99102783203125 -0.535064697265625
10316996875.0 -1.070556640625 0.0777587890625
10348218750.0 -0.90338134765625 0.67608642578125
10379440625.0 -0.32061767578125 1.18212890625
10410662500.0 0.53253173828125 1.08880615234375
10441884375.0 0.997039794921875 0.521942138671875
10473106250.0 1.1148681640625 -0.08734130859375
10504328125.0 0.95166015625 -0.76123046875
10535550000.0 0.23748779296875 -1.3021240234375
10566771875.0 -0.66351318359375 -1.0809326171875
10597993750.0 -1.08642578125 -0.4581298828125
10629215625.0 -1.179443359375 0.209228515625
10660437500.0 -0.890716552734375 0.958282470703125
10691659375.0 -0.006103515625 1.34112548828125
10722881250.0 0.791046142578125 0.95477294921875
10754103125.0 1.12506103515625 0.3240966796875
10785325000.0 1.1446533203125 -0.371826171875
10816546875.0 0.70159912109375 -1.05499267578125
10847768750.0 -0.14825439453125 -1.23394775390625
10878990625.0 -0.80743408203125 -0.846343994140625
10910212500.0 -1.1285400390625 -0.2442626953125
10941434375.0 -1.10137939453125 0.4815673828125
10972656250.0 -0.568359375 1.09246826171875
11003878125.0 0.21929931640625 1.17791748046875
11035100000.0 0.853607177734375 0.824554443359375
11066321875.0 1.22845458984375 0.1717529296875
11097543750.0 1.10150146484375 -0.67999267578125
11128765625.0 0.38543701171875 -1.20404052734375
11159987500.0 -0.39984130859375 -1.1435546875
11191209375.0 -1.0048828125 -0.7039794921875
11222431250.0 -1.27728271484375 0.09539794921875
11253653125.0 -0.86102294921875 0.899993896484375
11284875000.0 -0.112060546875 1.1328125
11316096875.0 0.515045166015625 0.9599609375
11347318750.0 1.00872802734375 0.50244140625
11378540625.0 1.1214599609375 -0.2730712890625
11409762500.0 0.635711669921875 -0.86474609375
11440984375.0 0.03411865234375 -0.982208251953125
11472206250.0 -0.485748291015625 -0.85284423828125
11503428125.0 -0.958953857421875 -0.45635986328125
11534650000.0 -1.0732421875 0.2923583984375
11565871875.0 -0.6029052734375 0.860137939453125
11597093750.0 -0.016632080078125 0.99591064453125
11628315625.0 0.5482177734375 0.878326416015625
11659537500.0 1.06640625 0.39208984375
11690759375.0 1.06817626953125 -0.438720703125
11721981250.0 0.516876220703125 -0.945709228515625
11753203125.0 -0.1082763671875 -1.041259765625
11784425000.0 -0.7293701171875 -0.810821533203125
11815646875.0 -1.10699462890625 -0.1494140625
11846868750.0 -0.894134521484375 0.555572509765625
11878090625.0 -0.391021728515625 0.914337158203125
11909312500.0 0.19073486328125 0.98907470703125
11940534375.0 0.784912109375 0.69708251953125
11971756250.0 1.0289306640625 0.03741455078125
12002978125.0 0.80859375 -0.542816162109375
12034200000.0 0.381317138671875 -0.894561767578125
12065421875.0 -0.2188720703125 -1.01434326171875
12096643750.0 -0.8526611328125 -0.665283203125
12127865625.0 -1.03875732421875 0.01922607421875
12159087500.0 -0.817169189453125 0.580291748046875
12190309375.0 -0.377197265625 0.980804443359375
12221531250.0 0.3433837890625 1.09210205078125
12252753125.0 0.986114501953125 0.582061767578125
12283975000.0 1.0594482421875 -0.1312255859375
12315196875.0 0.8018798828125 -0.6817626953125
12346418750.0 0.27972412109375 -1.09735107421875
12377640625.0 -0.54443359375 -1.06475830078125
12408862500.0 -1.03839111328125 -0.42047119140625
12440084375.0 -1.0118408203125 0.22674560546875
12471306250.0 -0.74359130859375 0.742950439453125
12502528125.0 -0.17742919921875 1.12677001953125
12533750000.0 0.626068115234375 0.997039794921875
12564971875.0 1.0467529296875 0.36297607421875
12596193750.0 1.03314208984375 -0.26837158203125
12627415625.0 0.750579833984375 -0.833251953125
12658637500.0 0.07757568359375 -1.21337890625
12689859375.0 -0.7413330078125 -0.9688720703125
12721081250.0 -1.123046875 -0.3040771484375
12752303125.0 -1.103515625 0.388671875
12783525000.0 -0.68878173828125 1.03509521484375
12814746875.0 0.169677734375 1.2567138671875
12845968750.0 0.867645263671875 0.812164306640625
12877190625.0 1.12335205078125 0.17041015625
12908412500.0 1.05926513671875 -0.505615234375
12939634375.0 0.5433349609375 -1.12274169921875
12970856250.0 -0.32550048828125 -1.18084716796875
13002078125.0 -0.9000244140625 -0.694732666015625
13033300000.0 -1.1103515625 -0.0848388671875
13064521875.0 -1.01251220703125 0.5980224609375
13095743750.0 -0.4185791015625 1.16180419921875
13126965625.0 0.413818359375 1.12359619140625
13158187500.0 0.953094482421875 0.63311767578125
13189409375.0 1.15252685546875 -0.02276611328125
13220631250.0 0.93890380859375 -0.754150390625
13251853125.0 0.2320556640625 -1.1787109375
13283075000.0 -0.51263427734375 -1.0234375
13314296875.0 -0.99261474609375 -0.529449462890625
13345518750.0 -1.1400146484375 0.18035888671875
13376740625.0 -0.7542724609375 0.86456298828125
