!Created with skrf (http://scikit-rf.org).
# Hz S RI R 50.0 
!freq ReS11 ImS11
45000000.0 -0.07720184326171875 -0.09687042236328125
76221875.0 -0.19744110107421875 -0.04740142822265625
107443750.0 -0.2561798095703125 0.1205902099609375
138665625.0 -0.14849853515625 0.3298797607421875
169887500.0 0.1240997314453125 0.4190216064453125
201109375.0 0.4234161376953125 0.2822418212890625
232331250.0 0.58148193359375 -0.0576171875
263553125.0 0.4916229248046875 -0.4554901123046875
294775000.0 0.098480224609375 -0.73651123046875
325996875.0 -0.4180908203125 -0.684234619140625
357218750.0 -0.811065673828125 -0.29840087890625
388440625.0 -0.89031982421875 0.302703857421875
419662500.0 -0.519287109375 0.871002197265625
450884375.0 0.1741943359375 1.0335693359375
482106250.0 0.802490234375 0.716217041015625
513328125.0 1.1248779296875 0.0870361328125
544550000.0 1.0076904296875 -0.68328857421875
575771875.0 0.33746337890625 -1.24298095703125
606993750.0 -0.5560302734375 -1.18218994140625
638215625.0 -1.17059326171875 -0.59271240234375
669437500.0 -1.34521484375 0.23468017578125
700659375.0 -0.97454833984375 1.10040283203125
731881250.0 -0.0040283203125 1.54876708984375
763103125.0 1.00909423828125 1.16094970703125
794325000.0 1.47509765625 0.283203125
825546875.0 1.37298583984375 -0.6541748046875
856768750.0 0.797607421875 -1.408447265625
887990625.0 -0.29547119140625 -1.65643310546875
919212500.0 -1.29571533203125 -1.08380126953125
950434375.0 -1.65802001953125 -0.058349609375
981656250.0 -1.389892578125 0.95263671875
1012878125.0 -0.5308837890625 1.68170166015625
1044100000.0 0.70208740234375 1.6702880859375
1075321875.0 1.584228515625 0.81536865234375
1106543750.0 1.713623046875 -0.31585693359375
1137765625.0 1.19195556640625 -1.29168701171875
1168987500.0 0.13800048828125 -1.806640625
1200209375.0 -1.0679931640625 -1.49102783203125
1231431250.0 -1.73675537109375 -0.45477294921875
1262653125.0 -1.60150146484375 0.68939208984375
1293875000.0 -0.8553466796875 1.49871826171875
1325096875.0 0.229248046875 1.71484375
1356318750.0 1.24114990234375 1.22247314453125
1387540625.0 1.74853515625 0.18939208984375
1418762500.0 1.47607421875 -0.95635986328125
1449984375.0 0.53125 -1.63348388671875
1481206250.0 -0.55328369140625 -1.5634765625
1512428125.0 -1.34893798828125 -0.9234619140625
1543650000.0 -1.6636962890625 0.06646728515625
1574871875.0 -1.2784423828125 1.114501953125
1606093750.0 -0.2730712890625 1.63885498046875
1637315625.0 0.745849609375 1.4058837890625
1668537500.0 1.40277099609375 0.69793701171875
1699759375.0 1.57958984375 -0.27899169921875
1730981250.0 1.06805419921875 -1.23455810546875
1762203125.0 0.04156494140625 -1.57696533203125
1793425000.0 -0.8594970703125 -1.23101806640625
1824646875.0 -1.3990478515625 -0.5172119140625
1855868750.0 -1.4801025390625 0.43438720703125
1887090625.0 -0.87884521484375 1.29083251953125
1918312500.0 0.11798095703125 1.4932861328125
1949534375.0 0.926025390625 1.09368896484375
1980756250.0 1.38104248046875 0.37115478515625
2011978125.0 1.365234375 -0.533935546875
2043200000.0 0.7525634765625 -1.26702880859375
2074421875.0 -0.158447265625 -1.43927001953125
2105643750.0 -0.9649658203125 -1.07635498046875
2136865625.0 -1.45330810546875 -0.30535888671875
2168087500.0 -1.3623046875 0.67437744140625
2199309375.0 -0.6407470703125 1.35736083984375
2230531250.0 0.28350830078125 1.44146728515625
2261753125.0 1.07781982421875 1.01727294921875
2292975000.0 1.5205078125 0.16998291015625
2324196875.0 1.3101806640625 -0.822509765625
2355418750.0 0.52679443359375 -1.42572021484375
2386640625.0 -0.40673828125 -1.4547119140625
2417862500.0 -1.1871337890625 -1.02838134765625
2449084375.0 -1.61297607421875 -0.08270263671875
2480306250.0 -1.31671142578125 0.93194580078125
2511528125.0 -0.493896484375 1.515869140625
2542750000.0 0.4932861328125 1.543212890625
2573971875.0 1.37890625 0.97161865234375
2605193750.0 1.725830078125 -0.1148681640625
2636415625.0 1.26629638671875 -1.1585693359375
2667637500.0 0.306396484375 -1.67529296875
2698859375.0 -0.77642822265625 -1.54132080078125
2730081250.0 -1.58233642578125 -0.74237060546875
2761303125.0 -1.6895751953125 0.392578125
2792525000.0 -1.10345458984375 1.3155517578125
2823746875.0 -0.09979248046875 1.73919677734375
2854968750.0 1.0203857421875 1.46209716796875
2886190625.0 1.7003173828125 0.49261474609375
2917412500.0 1.60772705078125 -0.62274169921875
2948634375.0 0.94268798828125 -1.44110107421875
2979856250.0 -0.11090087890625 -1.7847900390625
3011078125.0 -1.255859375 -1.34716796875
3042300000.0 -1.783935546875 -0.23333740234375
3073521875.0 -1.51531982421875 0.8443603515625
3104743750.0 -0.76519775390625 1.57830810546875
3135965625.0 0.365478515625 1.817626953125
3167187500.0 1.5086669921875 1.1678466796875
3198409375.0 1.82476806640625 -0.0782470703125
3229631250.0 1.35400390625 -1.08837890625
3260853125.0 0.4893798828125 -1.678466796875
3292075000.0 -0.66107177734375 -1.70654296875
3323296875.0 -1.62774658203125 -0.882080078125
3354518750.0 -1.73748779296875 0.3326416015625
3385740625.0 -1.15936279296875 1.23931884765625
3416962500.0 -0.23028564453125 1.6907958984375
3448184375.0 0.8663330078125 1.5274658203125
3479406250.0 1.64434814453125 0.64556884765625
3510628125.0 1.651611328125 -0.4996337890625
3541850000.0 1.00286865234375 -1.362060546875
3573071875.0 -0.01025390625 -1.68994140625
3604293750.0 -1.03564453125 -1.342041015625
3635515625.0 -1.63525390625 -0.4384765625
3666737500.0 -1.5684814453125 0.651123046875
3697959375.0 -0.826904296875 1.48431396484375
3729181250.0 0.27178955078125 1.6376953125
3760403125.0 1.1590576171875 1.10113525390625
3791625000.0 1.5594482421875 0.217529296875
3822846875.0 1.40765380859375 -0.76605224609375
3854068750.0 0.62164306640625 -1.4888916015625
3885290625.0 -0.425537109375 -1.4873046875
3916512500.0 -1.1473388671875 -0.91339111328125
3947734375.0 -1.4534912109375 -0.11846923828125
3978956250.0 -1.30255126953125 0.78363037109375
4010178125.0 -0.53125 1.461181640625
4041400000.0 0.47802734375 1.42083740234375
4072621875.0 1.157958984375 0.8492431640625
4103843750.0 1.4501953125 0.0618896484375
4135065625.0 1.27197265625 -0.85235595703125
4166287500.0 0.45654296875 -1.50408935546875
4197509375.0 -0.56170654296875 -1.4200439453125
4228731250.0 -1.25390625 -0.80364990234375
4259953125.0 -1.51556396484375 0.072998046875
4291175000.0 -1.19195556640625 1.016357421875
4322396875.0 -0.28839111328125 1.533935546875
4353618750.0 0.67852783203125 1.35491943359375
4384840625.0 1.32855224609375 0.69757080078125
4416062500.0 1.5064697265625 -0.2308349609375
4447284375.0 1.0574951171875 -1.11029052734375
4478506250.0 0.1702880859375 -1.5023193359375
4509728125.0 -0.73773193359375 -1.3121337890625
4540950000.0 -1.39990234375 -0.636474609375
4572171875.0 -1.52825927734375 0.36468505859375
4603393750.0 -0.974365234375 1.22003173828125
4634615625.0 -0.05950927734375 1.54266357421875
4665837500.0 0.87677001953125 1.30926513671875
4697059375.0 1.54840087890625 0.51531982421875
4728281250.0 1.53485107421875 -0.58770751953125
4759503125.0 0.82379150390625 -1.3751220703125
4790725000.0 -0.1484375 -1.57891845703125
4821946875.0 -1.08990478515625 -1.197265625
4853168750.0 -1.6209716796875 -0.2498779296875
4884390625.0 -1.3819580078125 0.79815673828125
4915612500.0 -0.61322021484375 1.4195556640625
4946834375.0 0.33197021484375 1.51434326171875
4978056250.0 1.21221923828125 1.019287109375
5009278125.0 1.5687255859375 0.03717041015625
5040500000.0 1.232666015625 -0.882080078125
5071721875.0 0.50091552734375 -1.42138671875
5102943750.0 -0.4510498046875 -1.5020751953125
5134165625.0 -1.34375 -0.906982421875
5165387500.0 -1.57464599609375 0.14971923828125
5196609375.0 -1.13946533203125 1.014892578125
5227831250.0 -0.35626220703125 1.512939453125
5259053125.0 0.693359375 1.496826171875
5290275000.0 1.52947998046875 0.66265869140625
5321496875.0 1.49725341796875 -0.43499755859375
5352718750.0 0.92279052734375 -1.158447265625
5383940625.0 0.0946044921875 -1.50689697265625
5415162500.0 -0.9072265625 -1.287841796875
5446384375.0 -1.491455078125 -0.36932373046875
5477606250.0 -1.3035888671875 0.571044921875
5508828125.0 -0.73223876953125 1.15692138671875
5540050000.0 0.05645751953125 1.40435791015625
5571271875.0 0.9447021484375 1.11187744140625
5602493750.0 1.41473388671875 0.2584228515625
5633715625.0 1.23577880859375 -0.6173095703125
5664937500.0 0.64849853515625 -1.208251953125
5696159375.0 -0.20062255859375 -1.3892822265625
5727381250.0 -1.02850341796875 -0.98101806640625
5758603125.0 -1.39727783203125 -0.143310546875
5789825000.0 -1.19818115234375 0.72357177734375
5821046875.0 -0.50634765625 1.31365966796875
5852268750.0 0.416259765625 1.3179931640625
5883490625.0 1.07769775390625 0.77313232421875
5914712500.0 1.30908203125 0.0167236328125
5945934375.0 1.0994873046875 -0.78173828125
5977156250.0 0.3602294921875 -1.31781005859375
6008378125.0 -0.51397705078125 -1.1856689453125
6039600000.0 -1.02679443359375 -0.649658203125
6070821875.0 -1.228515625 -0.002197265625
6102043750.0 -1.08673095703125 0.76812744140625
6133265625.0 -0.340087890625 1.35101318359375
6164487500.0 0.567138671875 1.19012451171875
6195709375.0 1.0750732421875 0.6307373046875
6226931250.0 1.2847900390625 -0.04486083984375
6258153125.0 1.1075439453125 -0.8782958984375
6289375000.0 0.25372314453125 -1.45318603515625
6320596875.0 -0.6943359375 -1.2088623046875
6351818750.0 -1.20611572265625 -0.571533203125
6383040625.0 -1.3599853515625 0.21087646484375
6414262500.0 -1.0015869140625 1.06549072265625
6445484375.0 -0.0740966796875 1.46405029296875
6476706250.0 0.801025390625 1.1505126953125
6507928125.0 1.29620361328125 0.46917724609375
6539150000.0 1.3515625 -0.39019775390625
6570371875.0 0.842041015625 -1.1505126953125
6601593750.0 -0.02130126953125 -1.41119384765625
6632815625.0 -0.84490966796875 -1.13873291015625
6664037500.0 -1.40826416015625 -0.41845703125
6695259375.0 -1.3778076171875 0.57147216796875
6726481250.0 -0.71014404296875 1.2578125
6757703125.0 0.1339111328125 1.41217041015625
6788925000.0 0.96044921875 1.13348388671875
6820146875.0 1.566650390625 0.286376953125
6851368750.0 1.3299560546875 -0.82684326171875
6882590625.0 0.5057373046875 -1.3443603515625
6913812500.0 -0.2967529296875 -1.3619384765625
6945034375.0 -1.07769775390625 -1.02374267578125
6976256250.0 -1.59954833984375 -0.08990478515625
7007478125.0 -1.24066162109375 0.93963623046875
7038700000.0 -0.4007568359375 1.35150146484375
7069921875.0 0.36370849609375 1.32916259765625
7101143750.0 1.12811279296875 0.97198486328125
7132365625.0 1.60540771484375 0.01043701171875
7163587500.0 1.16094970703125 -1.02801513671875
7194809375.0 0.2999267578125 -1.40472412109375
7226031250.0 -0.51824951171875 -1.33111572265625
7257253125.0 -1.27398681640625 -0.8260498046875
7288475000.0 -1.56494140625 0.20257568359375
7319696875.0 -1.0321044921875 1.119384765625
7350918750.0 -0.161376953125 1.452392578125
7382140625.0 0.72161865234375 1.28143310546875
7413362500.0 1.3829345703125 0.57659912109375
7444584375.0 1.4163818359375 -0.412109375
7475806250.0 0.85858154296875 -1.15350341796875
7507028125.0 0.0015869140625 -1.4368896484375
7538250000.0 -0.895263671875 -1.1279296875
7569471875.0 -1.344970703125 -0.30767822265625
7600693750.0 -1.20709228515625 0.5028076171875
7631915625.0 -0.71978759765625 1.0921630859375
7663137500.0 0.083740234375 1.3665771484375
7694359375.0 0.947662353515625 0.98248291015625
7725581250.0 1.2503662109375 0.1776123046875
7756803125.0 1.0870361328125 -0.50518798828125
7788025000.0 0.67181396484375 -1.0489501953125
7819246875.0 -0.125244140625 -1.3536376953125
7850468750.0 -1.00018310546875 -0.91632080078125
7881690625.0 -1.23779296875 -0.10198974609375
7912912500.0 -1.0587158203125 0.5606689453125
7944134375.0 -0.60504150390625 1.12274169921875
7975356250.0 0.27716064453125 1.34149169921875
8006578125.0 1.0545654296875 0.7802734375
8037800000.0 1.20135498046875 0.0120849609375
8069021875.0 1.01025390625 -0.6236572265625
8100243750.0 0.49920654296875 -1.169189453125
8131465625.0 -0.39501953125 -1.2591552734375
8162687500.0 -1.03948974609375 -0.68560791015625
8193909375.0 -1.18560791015625 0.01092529296875
8225131250.0 -1.0216064453125 0.68658447265625
8256353125.0 -0.4189453125 1.2564697265625
8287575000.0 0.50732421875 1.2305908203125
8318796875.0 1.08892822265625 0.6358642578125
8350018750.0 1.2508544921875 -0.079833984375
8381240625.0 1.03466796875 -0.84808349609375
8412462500.0 0.25067138671875 -1.38189697265625
8443684375.0 -0.67608642578125 -1.17431640625
8474906250.0 -1.18267822265625 -0.53173828125
8506128125.0 -1.30413818359375 0.2427978515625
8537350000.0 -0.9251708984375 1.05364990234375
8568571875.0 -0.0107421875 1.4022216796875
8599793750.0 0.8092041015625 1.0557861328125
8631015625.0 1.247802734375 0.3978271484375
8662237500.0 1.29107666015625 -0.43389892578125
8693459375.0 0.736572265625 -1.18524169921875
8724681250.0 -0.166259765625 -1.33575439453125
8755903125.0 -0.885772705078125 -0.959259033203125
8787125000.0 -1.3114013671875 -0.28021240234375
8818346875.0 -1.2569580078125 0.62274169921875
8849568750.0 -0.5560302734375 1.267822265625
8880790625.0 0.304443359375 1.29034423828125
8912012500.0 0.98779296875 0.894439697265625
8943234375.0 1.4088134765625 0.125244140625
8974456250.0 1.16937255859375 -0.85076904296875
9005678125.0 0.34539794921875 -1.32025146484375
9036900000.0 -0.45123291015625 -1.22808837890625
9068121875.0 -1.111328125 -0.78582763671875
9099343750.0 -1.44757080078125 0.1026611328125
9130565625.0 -0.98046875 1.02093505859375
9161787500.0 -0.1513671875 1.28839111328125
9193009375.0 0.56158447265625 1.1385498046875
9224231250.0 1.1883544921875 0.6544189453125
9255453125.0 1.4056396484375 -0.3026123046875
9286675000.0 0.8072509765625 -1.093994140625
9317896875.0 0.02362060546875 -1.2528076171875
9349118750.0 -0.66070556640625 -1.07318115234375
9380340625.0 -1.26641845703125 -0.50830078125
9411562500.0 -1.31536865234375 0.48211669921875
9442784375.0 -0.647216796875 1.124755859375
9474006250.0 0.093017578125 1.21636962890625
9505228125.0 0.771759033203125 0.983123779296875
9536450000.0 1.28204345703125 0.31048583984375
9567671875.0 1.147705078125 -0.58740234375
9598893750.0 0.52801513671875 -1.07568359375
9630115625.0 -0.14849853515625 -1.16448974609375
9661337500.0 -0.826324462890625 -0.904510498046875
9692559375.0 -1.24591064453125 -0.18682861328125
9723781250.0 -1.04571533203125 0.6092529296875
9755003125.0 -0.48468017578125 1.0576171875
9786225000.0 0.2054443359375 1.16546630859375
9817446875.0 0.90203857421875 0.828216552734375
9848668750.0 1.204345703125 0.07342529296875
9879890625.0 0.970672607421875 -0.62347412109375
9911112500.0 0.45086669921875 -1.05902099609375
9942334375.0 -0.27459716796875 -1.164794921875
9973556250.0 -0.952239990234375 -0.738189697265625
10004778125.0 -1.1514892578125 -0.01336669921875
10036000000.0 -0.94677734375 0.621917724609375
10067221875.0 -0.43963623046875 1.10565185546875
10098443750.0 0.3775634765625 1.1866455078125
10129665625.0 1.011962890625 0.641357421875
10160887500.0 1.1248779296875 -0.05633544921875
10192109375.0 0.92010498046875 -0.67010498046875
10223331250.0 0.3583984375 -1.15997314453125
10254553125.0 -0.49310302734375 -1.11737060546875
10285775000.0 -0.99176025390625 -0.53363037109375
10316996875.0 -1.07171630859375 0.0814208984375
10348218750.0 -0.9024658203125 0.677001953125
10379440625.0 -0.3189697265625 1.18206787109375
10410662500.0 0.5340576171875 1.0880126953125
10441884375.0 0.998260498046875 0.52001953125
10473106250.0 1.11444091796875 -0.08837890625
10504328125.0 0.951019287109375 -0.7620849609375
10535550000.0 0.2359619140625 -1.302001953125
10566771875.0 -0.66583251953125 -1.0791015625
10597993750.0 -1.08770751953125 -0.456787109375
10629215625.0 -1.1807861328125 0.2105712890625
10660437500.0 -0.889129638671875 0.960540771484375
10691659375.0 -0.0032958984375 1.34149169921875
10722881250.0 0.792266845703125 0.95361328125
10754103125.0 1.1256103515625 0.32196044921875
10785325000.0 1.14434814453125 -0.374267578125
10816546875.0 0.70037841796875 -1.05767822265625
10847768750.0 -0.15032958984375 -1.2337646484375
10878990625.0 -0.810516357421875 -0.84393310546875
10910212500.0 -1.1285400390625 -0.242431640625
10941434375.0 -1.1016845703125 0.48321533203125
10972656250.0 -0.56549072265625 1.093017578125
11003878125.0 0.22137451171875 1.17779541015625
11035100000.0 0.856231689453125 0.823394775390625
11066321875.0 1.22698974609375 0.17132568359375
11097543750.0 1.10162353515625 -0.68408203125
11128765625.0 0.3828125 -1.20672607421875
11159987500.0 -0.404541015625 -1.1439208984375
11191209375.0 -1.0067138671875 -0.703369140625
11222431250.0 -1.27838134765625 0.0997314453125
11253653125.0 -0.859344482421875 0.903472900390625
11284875000.0 -0.11016845703125 1.134033203125
11316096875.0 0.516510009765625 0.957977294921875
11347318750.0 1.01080322265625 0.50048828125
11378540625.0 1.1212158203125 -0.27508544921875
11409762500.0 0.634674072265625 -0.866546630859375
11440984375.0 0.032867431640625 -0.982269287109375
11472206250.0 -0.48614501953125 -0.853118896484375
11503428125.0 -0.959991455078125 -0.455169677734375
11534650000.0 -1.07318115234375 0.29486083984375
11565871875.0 -0.60125732421875 0.861602783203125
11597093750.0 -0.01483154296875 0.99591064453125
11628315625.0 0.55181884765625 0.877838134765625
11659537500.0 1.0672607421875 0.3905029296875
11690759375.0 1.067626953125 -0.4398193359375
11721981250.0 0.515716552734375 -0.94659423828125
11753203125.0 -0.10943603515625 -1.04119873046875
11784425000.0 -0.731292724609375 -0.810394287109375
11815646875.0 -1.10687255859375 -0.14703369140625
11846868750.0 -0.8927001953125 0.558197021484375
11878090625.0 -0.38958740234375 0.915740966796875
11909312500.0 0.192108154296875 0.989471435546875
11940534375.0 0.787078857421875 0.695220947265625
11971756250.0 1.02960205078125 0.03472900390625
12002978125.0 0.80712890625 -0.542694091796875
12034200000.0 0.37969970703125 -0.894866943359375
12065421875.0 -0.2205810546875 -1.014404296875
12096643750.0 -0.854522705078125 -0.664794921875
12127865625.0 -1.037353515625 0.021484375
12159087500.0 -0.81610107421875 0.5816650390625
12190309375.0 -0.375732421875 0.982269287109375
12221531250.0 0.34600830078125 1.09222412109375
12252753125.0 0.9888916015625 0.5794677734375
12283975000.0 1.0592041015625 -0.13421630859375
12315196875.0 0.801025390625 -0.683319091796875
12346418750.0 0.2779541015625 -1.09942626953125
12377640625.0 -0.54742431640625 -1.06280517578125
12408862500.0 -1.03948974609375 -0.4169921875
12440084375.0 -1.01202392578125 0.22979736328125
12471306250.0 -0.742950439453125 0.74383544921875
12502528125.0 -0.1759033203125 1.12640380859375
12533750000.0 0.62860107421875 0.995452880859375
12564971875.0 1.047119140625 0.36053466796875
12596193750.0 1.03369140625 -0.26953125
12627415625.0 0.74859619140625 -0.8367919921875
12658637500.0 0.074462890625 -1.2130126953125
12689859375.0 -0.744415283203125 -0.967742919921875
12721081250.0 -1.12628173828125 -0.300537109375
12752303125.0 -1.1011962890625 0.38775634765625
12783525000.0 -0.6866455078125 1.0357666015625
12814746875.0 0.17095947265625 1.25628662109375
12845968750.0 0.87115478515625 0.810302734375
12877190625.0 1.12481689453125 0.1678466796875
12908412500.0 1.0587158203125 -0.50958251953125
12939634375.0 0.53973388671875 -1.12548828125
12970856250.0 -0.3289794921875 -1.1793212890625
13002078125.0 -0.903045654296875 -0.692108154296875
13033300000.0 -1.11309814453125 -0.0821533203125
13064521875.0 -1.0123291015625 0.60272216796875
13095743750.0 -0.415771484375 1.1641845703125
13126965625.0 0.4166259765625 1.12445068359375
13158187500.0 0.9564208984375 0.630462646484375
13189409375.0 1.154052734375 -0.02752685546875
13220631250.0 0.937255859375 -0.7572021484375
13251853125.0 0.2286376953125 -1.17822265625
13283075000.0 -0.51544189453125 -1.0220947265625
13314296875.0 -0.99639892578125 -0.52691650390625
13345518750.0 -1.14129638671875 0.18426513671875
