!Created with skrf (http://scikit-rf.org).
# Hz S RI R 50.0 
!freq ReS11 ImS11
45000000.0 -0.07703018188476562 -0.096710205078125
76221875.0 -0.196258544921875 -0.047515869140625
107443750.0 -0.25469970703125 0.1195831298828125
138665625.0 -0.14801025390625 0.328216552734375
169887500.0 0.123565673828125 0.4170379638671875
201109375.0 0.4215850830078125 0.2806396484375
232331250.0 0.578521728515625 -0.05755615234375
263553125.0 0.489227294921875 -0.45233154296875
294775000.0 0.098114013671875 -0.73187255859375
325996875.0 -0.415283203125 -0.679962158203125
357218750.0 -0.8056640625 -0.296661376953125
388440625.0 -0.8848876953125 0.30029296875
419662500.0 -0.516754150390625 0.865234375
450884375.0 0.1732177734375 1.02777099609375
482106250.0 0.797882080078125 0.711700439453125
513328125.0 1.118408203125 0.08685302734375
544550000.0 1.00274658203125 -0.67926025390625
575771875.0 0.33575439453125 -1.23699951171875
606993750.0 -0.55364990234375 -1.1761474609375
638215625.0 -1.16473388671875 -0.5897216796875
669437500.0 -1.33837890625 0.23358154296875
700659375.0 -0.96966552734375 1.0950927734375
731881250.0 -0.0032958984375 1.54150390625
763103125.0 1.00494384765625 1.1544189453125
794325000.0 1.4671630859375 0.28131103515625
825546875.0 1.36572265625 -0.650634765625
856768750.0 0.79351806640625 -1.39892578125
887990625.0 -0.292236328125 -1.6463623046875
919212500.0 -1.2867431640625 -1.07684326171875
950434375.0 -1.64654541015625 -0.05859375
981656250.0 -1.3804931640625 0.9444580078125
1012878125.0 -0.529052734375 1.66900634765625
1044100000.0 0.69586181640625 1.65924072265625
1075321875.0 1.5723876953125 0.81060791015625
1106543750.0 1.7020263671875 -0.31298828125
1137765625.0 1.18524169921875 -1.282958984375
1168987500.0 0.13739013671875 -1.794677734375
1200209375.0 -1.06005859375 -1.4813232421875
1231431250.0 -1.7249755859375 -0.45281982421875
1262653125.0 -1.59234619140625 0.68389892578125
1293875000.0 -0.85040283203125 1.4898681640625
1325096875.0 0.22784423828125 1.70416259765625
1356318750.0 1.23358154296875 1.21484375
1387540625.0 1.73687744140625 0.188720703125
1418762500.0 1.4669189453125 -0.9498291015625
1449984375.0 0.52850341796875 -1.6234130859375
1481206250.0 -0.54925537109375 -1.55352783203125
1512428125.0 -1.3399658203125 -0.9180908203125
1543650000.0 -1.65374755859375 0.065673828125
1574871875.0 -1.2716064453125 1.10693359375
1606093750.0 -0.2720947265625 1.62908935546875
1637315625.0 0.7412109375 1.3983154296875
1668537500.0 1.3941650390625 0.6949462890625
1699759375.0 1.57110595703125 -0.27691650390625
1730981250.0 1.06256103515625 -1.2281494140625
1762203125.0 0.0421142578125 -1.5679931640625
1793425000.0 -0.854248046875 -1.22454833984375
1824646875.0 -1.39129638671875 -0.51446533203125
1855868750.0 -1.4716796875 0.431640625
1887090625.0 -0.87335205078125 1.28399658203125
1918312500.0 0.11724853515625 1.485107421875
1949534375.0 0.9200439453125 1.08758544921875
1980756250.0 1.37310791015625 0.3695068359375
2011978125.0 1.357666015625 -0.53094482421875
2043200000.0 0.7486572265625 -1.259521484375
2074421875.0 -0.1568603515625 -1.43109130859375
2105643750.0 -0.95867919921875 -1.07073974609375
2136865625.0 -1.44464111328125 -0.30462646484375
2168087500.0 -1.35516357421875 0.67022705078125
2199309375.0 -0.63800048828125 1.349365234375
2230531250.0 0.28125 1.43389892578125
2261753125.0 1.071533203125 1.01275634765625
2292975000.0 1.511962890625 0.16986083984375
2324196875.0 1.3035888671875 -0.81768798828125
2355418750.0 0.52459716796875 -1.41796875
2386640625.0 -0.40399169921875 -1.446533203125
2417862500.0 -1.17889404296875 -1.02276611328125
2449084375.0 -1.6019287109375 -0.08441162109375
2480306250.0 -1.30963134765625 0.924072265625
2511528125.0 -0.49371337890625 1.50433349609375
2542750000.0 0.48797607421875 1.5338134765625
2573971875.0 1.36920166015625 0.96630859375
2605193750.0 1.7142333984375 -0.11236572265625
2636415625.0 1.2589111328125 -1.1494140625
2667637500.0 0.306396484375 -1.6629638671875
2698859375.0 -0.76800537109375 -1.53106689453125
2730081250.0 -1.57049560546875 -0.739013671875
2761303125.0 -1.6783447265625 0.38671875
2792525000.0 -1.0972900390625 1.30389404296875
2823746875.0 -0.10205078125 1.7255859375
2854968750.0 1.01068115234375 1.45257568359375
2886190625.0 1.68756103515625 0.490966796875
2917412500.0 1.59698486328125 -0.616943359375
2948634375.0 0.937744140625 -1.43011474609375
2979856250.0 -0.1065673828125 -1.772216796875
3011078125.0 -1.245849609375 -1.3397216796875
3042300000.0 -1.7718505859375 -0.23419189453125
3073521875.0 -1.50518798828125 0.8348388671875
3104743750.0 -0.7618408203125 1.565185546875
3135965625.0 0.36102294921875 1.8052978515625
3167187500.0 1.49627685546875 1.1624755859375
3198409375.0 1.8125 -0.0753173828125
3229631250.0 1.34613037109375 -1.07855224609375
3260853125.0 0.4884033203125 -1.6656494140625
3292075000.0 -0.65374755859375 -1.6947021484375
3323296875.0 -1.61614990234375 -0.8780517578125
3354518750.0 -1.726806640625 0.32830810546875
3385740625.0 -1.15338134765625 1.22991943359375
3416962500.0 -0.23101806640625 1.6778564453125
3448184375.0 0.858154296875 1.518798828125
3479406250.0 1.63153076171875 0.64398193359375
3510628125.0 1.64129638671875 -0.49444580078125
3541850000.0 0.99896240234375 -1.35174560546875
3573071875.0 -0.00714111328125 -1.6785888671875
3604293750.0 -1.02655029296875 -1.33489990234375
3635515625.0 -1.62451171875 -0.43829345703125
3666737500.0 -1.55889892578125 0.6453857421875
3697959375.0 -0.8238525390625 1.47149658203125
3729181250.0 0.267822265625 1.6278076171875
3760403125.0 1.150390625 1.09613037109375
3791625000.0 1.55035400390625 0.21734619140625
3822846875.0 1.39886474609375 -0.75927734375
3854068750.0 0.61944580078125 -1.47760009765625
3885290625.0 -0.41943359375 -1.477783203125
3916512500.0 -1.1395263671875 -0.90936279296875
3947734375.0 -1.44464111328125 -0.11993408203125
3978956250.0 -1.29498291015625 0.7764892578125
4010178125.0 -0.53045654296875 1.45220947265625
4041400000.0 0.471923828125 1.41290283203125
4072621875.0 1.14959716796875 0.8466796875
4103843750.0 1.44146728515625 0.0638427734375
4135065625.0 1.26519775390625 -0.84368896484375
4166287500.0 0.45745849609375 -1.49407958984375
4197509375.0 -0.55621337890625 -1.41259765625
4228731250.0 -1.24395751953125 -0.8017578125
4259953125.0 -1.50616455078125 0.07000732421875
4291175000.0 -1.18609619140625 1.00738525390625
4322396875.0 -0.289306640625 1.52374267578125
4353618750.0 0.67132568359375 1.34771728515625
4384840625.0 1.3209228515625 0.69580078125
4416062500.0 1.49847412109375 -0.22723388671875
4447284375.0 1.05352783203125 -1.10223388671875
4478506250.0 0.17291259765625 -1.49212646484375
4509728125.0 -0.7308349609375 -1.3056640625
4540950000.0 -1.39154052734375 -0.63531494140625
4572171875.0 -1.519287109375 0.357177734375
4603393750.0 -0.97119140625 1.20953369140625
4634615625.0 -0.061279296875 1.534423828125
4665837500.0 0.8680419921875 1.30267333984375
4697059375.0 1.53851318359375 0.514404296875
4728281250.0 1.52630615234375 -0.58111572265625
4759503125.0 0.822021484375 -1.36529541015625
4790725000.0 -0.1446533203125 -1.570068359375
4821946875.0 -1.0806884765625 -1.1925048828125
4853168750.0 -1.61029052734375 -0.25152587890625
4884390625.0 -1.3768310546875 0.792724609375
4915612500.0 -0.61285400390625 1.4100341796875
4946834375.0 0.32830810546875 1.50677490234375
4978056250.0 1.20281982421875 1.01556396484375
5009278125.0 1.55914306640625 0.039794921875
5040500000.0 1.22735595703125 -0.873779296875
5071721875.0 0.5018310546875 -1.41058349609375
5102943750.0 -0.44580078125 -1.49481201171875
5134165625.0 -1.333251953125 -0.9041748046875
5165387500.0 -1.565673828125 0.1453857421875
5196609375.0 -1.13458251953125 1.0072021484375
5227831250.0 -0.3572998046875 1.50421142578125
5259053125.0 0.68658447265625 1.49041748046875
5290275000.0 1.5186767578125 0.6627197265625
5321496875.0 1.49072265625 -0.43035888671875
5352718750.0 0.91961669921875 -1.15057373046875
5383940625.0 0.097412109375 -1.4974365234375
5415162500.0 -0.89910888671875 -1.2822265625
5446384375.0 -1.48223876953125 -0.3701171875
5477606250.0 -1.29742431640625 0.56597900390625
5508828125.0 -0.7303466796875 1.149169921875
5540050000.0 0.05291748046875 1.3948974609375
5571271875.0 0.9365234375 1.1072998046875
5602493750.0 1.40594482421875 0.26043701171875
5633715625.0 1.23101806640625 -0.61181640625
5664937500.0 0.64776611328125 -1.19927978515625
5696159375.0 -0.1961669921875 -1.3817138671875
5727381250.0 -1.0191650390625 -0.9775390625
5758603125.0 -1.38970947265625 -0.14495849609375
5789825000.0 -1.19287109375 0.7164306640625
5821046875.0 -0.505859375 1.30511474609375
5852268750.0 0.41009521484375 1.31109619140625
5883490625.0 1.0692138671875 0.77105712890625
5914712500.0 1.30072021484375 0.0196533203125
5945934375.0 1.0953369140625 -0.7752685546875
5977156250.0 0.36126708984375 -1.3095703125
6008378125.0 -0.5084228515625 -1.1810302734375
6039600000.0 -1.02069091796875 -0.64862060546875
6070821875.0 -1.22186279296875 -0.005126953125
6102043750.0 -1.08172607421875 0.76123046875
6133265625.0 -0.34228515625 1.3426513671875
6164487500.0 0.56182861328125 1.18603515625
6195709375.0 1.0689697265625 0.629638671875
6226931250.0 1.27789306640625 -0.0419921875
6258153125.0 1.103271484375 -0.869873046875
6289375000.0 0.2564697265625 -1.44415283203125
6320596875.0 -0.68792724609375 -1.2042236328125
6351818750.0 -1.19769287109375 -0.57183837890625
6383040625.0 -1.35260009765625 0.20623779296875
6414262500.0 -0.99908447265625 1.05511474609375
6445484375.0 -0.07879638671875 1.4564208984375
6476706250.0 0.7945556640625 1.146728515625
6507928125.0 1.2900390625 0.4693603515625
6539150000.0 1.345703125 -0.38494873046875
6570371875.0 0.84063720703125 -1.14080810546875
6601593750.0 -0.0164794921875 -1.403076171875
6632815625.0 -0.83734130859375 -1.13482666015625
6664037500.0 -1.39935302734375 -0.420166015625
6695259375.0 -1.37200927734375 0.56427001953125
6726481250.0 -0.71002197265625 1.24908447265625
6757703125.0 0.1297607421875 1.40472412109375
6788925000.0 0.9525146484375 1.12982177734375
6820146875.0 1.55767822265625 0.28814697265625
6851368750.0 1.324462890625 -0.81781005859375
6882590625.0 0.506591796875 -1.3359375
6913812500.0 -0.29217529296875 -1.35552978515625
6945034375.0 -1.06927490234375 -1.0211181640625
6976256250.0 -1.590576171875 -0.09344482421875
7007478125.0 -1.235107421875 0.93048095703125
7038700000.0 -0.40264892578125 1.34130859375
7069921875.0 0.3577880859375 1.3216552734375
7101143750.0 1.11541748046875 0.96844482421875
7132365625.0 1.597900390625 0.0147705078125
7163587500.0 1.1568603515625 -1.01959228515625
7194809375.0 0.30133056640625 -1.39617919921875
7226031250.0 -0.510009765625 -1.3236083984375
7257253125.0 -1.2625732421875 -0.8232421875
7288475000.0 -1.5545654296875 0.19683837890625
7319696875.0 -1.0281982421875 1.10784912109375
7350918750.0 -0.16412353515625 1.44146728515625
7382140625.0 0.71343994140625 1.27484130859375
7413362500.0 1.3756103515625 0.57537841796875
7444584375.0 1.409423828125 -0.4036865234375
7475806250.0 0.85809326171875 -1.1407470703125
7507028125.0 0.00689697265625 -1.4261474609375
7538250000.0 -0.887451171875 -1.12213134765625
7569471875.0 -1.334716796875 -0.31146240234375
7600693750.0 -1.200927734375 0.49786376953125
7631915625.0 -0.71795654296875 1.08221435546875
7663137500.0 0.0804443359375 1.3577880859375
7694359375.0 0.936309814453125 0.9793701171875
7725581250.0 1.24102783203125 0.1802978515625
7756803125.0 1.08203125 -0.49835205078125
7788025000.0 0.67059326171875 -1.0413818359375
7819246875.0 -0.11993408203125 -1.34466552734375
7850468750.0 -0.989044189453125 -0.9154052734375
7881690625.0 -1.22784423828125 -0.107421875
7912912500.0 -1.0523681640625 0.55279541015625
7944134375.0 -0.60504150390625 1.11029052734375
7975356250.0 0.2672119140625 1.3321533203125
8006578125.0 1.04412841796875 0.77862548828125
8037800000.0 1.19189453125 0.0169677734375
8069021875.0 1.00543212890625 -0.6141357421875
8100243750.0 0.5 -1.15850830078125
8131465625.0 -0.3853759765625 -1.2520751953125
8162687500.0 -1.03125 -0.68621826171875
8193909375.0 -1.1802978515625 0.00909423828125
8225131250.0 -1.01666259765625 0.67718505859375
8256353125.0 -0.42181396484375 1.24542236328125
8287575000.0 0.5009765625 1.22503662109375
8318796875.0 1.07989501953125 0.635498046875
8350018750.0 1.24298095703125 -0.07464599609375
8381240625.0 1.03033447265625 -0.8372802734375
8412462500.0 0.25421142578125 -1.37158203125
8443684375.0 -0.66790771484375 -1.16900634765625
8474906250.0 -1.17333984375 -0.53240966796875
8506128125.0 -1.29595947265625 0.23492431640625
8537350000.0 -0.92333984375 1.04412841796875
8568571875.0 -0.0166015625 1.39263916015625
8599793750.0 0.8004150390625 1.05267333984375
8631015625.0 1.23956298828125 0.39886474609375
8662237500.0 1.28509521484375 -0.42938232421875
8693459375.0 0.73602294921875 -1.1771240234375
8724681250.0 -0.16253662109375 -1.33026123046875
8755903125.0 -0.877685546875 -0.95635986328125
8787125000.0 -1.30206298828125 -0.28253173828125
8818346875.0 -1.24993896484375 0.6138916015625
8849568750.0 -0.55645751953125 1.25933837890625
8880790625.0 0.2979736328125 1.28363037109375
8912012500.0 0.976715087890625 0.892547607421875
8943234375.0 1.3974609375 0.1300048828125
8974456250.0 1.16650390625 -0.83721923828125
9005678125.0 0.3502197265625 -1.3116455078125
9036900000.0 -0.44342041015625 -1.22320556640625
9068121875.0 -1.1005859375 -0.7862548828125
9099343750.0 -1.43927001953125 0.09759521484375
9130565625.0 -0.97930908203125 1.00958251953125
9161787500.0 -0.15509033203125 1.28076171875
9193009375.0 0.55462646484375 1.1329345703125
9224231250.0 1.17877197265625 0.654541015625
9255453125.0 1.39910888671875 -0.29522705078125
9286675000.0 0.80670166015625 -1.08453369140625
9317896875.0 0.0279541015625 -1.2451171875
9349118750.0 -0.65478515625 -1.069091796875
9380340625.0 -1.2567138671875 -0.51007080078125
9411562500.0 -1.3106689453125 0.4747314453125
9442784375.0 -0.64862060546875 1.11383056640625
9474006250.0 0.08770751953125 1.208984375
9505228125.0 0.763214111328125 0.97930908203125
9536450000.0 1.27337646484375 0.31280517578125
9567671875.0 1.1436767578125 -0.57891845703125
9598893750.0 0.529541015625 -1.06689453125
9630115625.0 -0.14361572265625 -1.156982421875
9661337500.0 -0.816253662109375 -0.901458740234375
9692559375.0 -1.23638916015625 -0.1907958984375
9723781250.0 -1.04266357421875 0.60205078125
9755003125.0 -0.486083984375 1.04949951171875
9786225000.0 0.1978759765625 1.157470703125
9817446875.0 0.893768310546875 0.826751708984375
9848668750.0 1.19683837890625 0.078857421875
9879890625.0 0.967926025390625 -0.615753173828125
9911112500.0 0.4520263671875 -1.0506591796875
9942334375.0 -0.265380859375 -1.1568603515625
9973556250.0 -0.941314697265625 -0.737884521484375
10004778125.0 -1.14471435546875 -0.01904296875
10036000000.0 -0.944061279296875 0.615966796875
10067221875.0 -0.44171142578125 1.09722900390625
10098443750.0 0.36871337890625 1.17999267578125
10129665625.0 1.0029296875 0.64306640625
10160887500.0 1.119873046875 -0.05181884765625
10192109375.0 0.9176025390625 -0.661651611328125
10223331250.0 0.36163330078125 -1.14971923828125
10254553125.0 -0.483154296875 -1.1116943359375
10285775000.0 -0.984375 -0.535186767578125
10316996875.0 -1.06512451171875 0.07537841796875
10348218750.0 -0.899810791015625 0.66845703125
10379440625.0 -0.3226318359375 1.174072265625
10410662500.0 0.52593994140625 1.084716796875
10441884375.0 0.9901123046875 0.521575927734375
10473106250.0 1.1085205078125 -0.0845947265625
10504328125.0 0.94830322265625 -0.757293701171875
10535550000.0 0.24114990234375 -1.29229736328125
10566771875.0 -0.65631103515625 -1.07647705078125
10597993750.0 -1.079345703125 -0.4599609375
10629215625.0 -1.174072265625 0.2056884765625
10660437500.0 -0.8880615234375 0.948638916015625
10691659375.0 -0.0106201171875 1.33489990234375
10722881250.0 0.783935546875 0.9517822265625
10754103125.0 1.11822509765625 0.325439453125
10785325000.0 1.13787841796875 -0.36480712890625
10816546875.0 0.70062255859375 -1.046630859375
10847768750.0 -0.1455078125 -1.2291259765625
10878990625.0 -0.800689697265625 -0.843841552734375
10910212500.0 -1.122802734375 -0.24554443359375
10941434375.0 -1.09564208984375 0.47369384765625
10972656250.0 -0.568603515625 1.08221435546875
11003878125.0 0.21466064453125 1.17327880859375
11035100000.0 0.845733642578125 0.821563720703125
11066321875.0 1.21923828125 0.1759033203125
11097543750.0 1.0972900390625 -0.67437744140625
11128765625.0 0.38604736328125 -1.19708251953125
11159987500.0 -0.39459228515625 -1.1378173828125
11191209375.0 -0.999755859375 -0.7025146484375
11222431250.0 -1.27178955078125 0.0924072265625
11253653125.0 -0.858673095703125 0.89398193359375
11284875000.0 -0.11474609375 1.12646484375
11316096875.0 0.50860595703125 0.95452880859375
11347318750.0 1.00201416015625 0.50189208984375
11378540625.0 1.11651611328125 -0.26788330078125
11409762500.0 0.634613037109375 -0.857879638671875
11440984375.0 0.036865234375 -0.977203369140625
11472206250.0 -0.4805908203125 -0.849578857421875
11503428125.0 -0.951751708984375 -0.456268310546875
11534650000.0 -1.0673828125 0.28753662109375
11565871875.0 -0.6025390625 0.85302734375
11597093750.0 -0.01904296875 0.990447998046875
11628315625.0 0.543212890625 0.873992919921875
11659537500.0 1.06060791015625 0.39239501953125
11690759375.0 1.06439208984375 -0.4329833984375
11721981250.0 0.517486572265625 -0.939178466796875
11753203125.0 -0.10504150390625 -1.03533935546875
11784425000.0 -0.723663330078125 -0.80828857421875
11815646875.0 -1.09912109375 -0.152587890625
11846868750.0 -0.890625 0.55023193359375
11878090625.0 -0.390716552734375 0.907867431640625
11909312500.0 0.186370849609375 0.9835205078125
11940534375.0 0.778594970703125 0.694732666015625
11971756250.0 1.0235595703125 0.04046630859375
12002978125.0 0.8056640625 -0.536956787109375
12034200000.0 0.382171630859375 -0.88861083984375
12065421875.0 -0.2154541015625 -1.01031494140625
12096643750.0 -0.847991943359375 -0.66497802734375
12127865625.0 -1.03271484375 0.0164794921875
12159087500.0 -0.81451416015625 0.5740966796875
12190309375.0 -0.37786865234375 0.973419189453125
12221531250.0 0.33880615234375 1.08740234375
12252753125.0 0.980743408203125 0.581390380859375
12283975000.0 1.05322265625 -0.12725830078125
12315196875.0 0.8001708984375 -0.6748046875
12346418750.0 0.28118896484375 -1.091796875
12377640625.0 -0.53790283203125 -1.0601806640625
12408862500.0 -1.032470703125 -0.42034912109375
12440084375.0 -1.00738525390625 0.2242431640625
12471306250.0 -0.7420654296875 0.736358642578125
12502528125.0 -0.1798095703125 1.11785888671875
12533750000.0 0.618865966796875 0.99346923828125
12564971875.0 1.040283203125 0.3638916015625
12596193750.0 1.02850341796875 -0.26348876953125
12627415625.0 0.747589111328125 -0.828125
12658637500.0 0.08013916015625 -1.20733642578125
12689859375.0 -0.733551025390625 -0.965850830078125
12721081250.0 -1.11474609375 -0.30633544921875
12752303125.0 -1.09619140625 0.38128662109375
12783525000.0 -0.6876220703125 1.02490234375
12814746875.0 0.16387939453125 1.24945068359375
12845968750.0 0.861968994140625 0.811187744140625
12877190625.0 1.11669921875 0.171630859375
12908412500.0 1.05517578125 -0.50091552734375
12939634375.0 0.54327392578125 -1.11297607421875
12970856250.0 -0.3189697265625 -1.1744384765625
13002078125.0 -0.89398193359375 -0.6929931640625
13033300000.0 -1.105712890625 -0.08697509765625
13064521875.0 -1.00811767578125 0.589599609375
13095743750.0 -0.42291259765625 1.15264892578125
13126965625.0 0.40850830078125 1.12066650390625
13158187500.0 0.94647216796875 0.6322021484375
13189409375.0 1.1470947265625 -0.020263671875
13220631250.0 0.93524169921875 -0.74615478515625
13251853125.0 0.2354736328125 -1.1695556640625
13283075000.0 -0.50732421875 -1.01849365234375
13314296875.0 -0.986114501953125 -0.528533935546875
13345518750.0 -1.134521484375 0.17547607421875
13376740625.0 -0.752838134765625 0.85614013671875
