!Created with skrf (http://scikit-rf.org).
# Hz S RI R 50.0 
!freq ReS11 ImS11
45000000.0 -0.07713699340820312 -0.09670639038085938
76221875.0 -0.19643402099609375 -0.04715728759765625
107443750.0 -0.2548828125 0.1199188232421875
138665625.0 -0.14788818359375 0.3285369873046875
169887500.0 0.1238861083984375 0.4174041748046875
201109375.0 0.4220123291015625 0.2805633544921875
232331250.0 0.57879638671875 -0.057891845703125
263553125.0 0.4892578125 -0.4527740478515625
294775000.0 0.097900390625 -0.73260498046875
325996875.0 -0.415924072265625 -0.680023193359375
357218750.0 -0.806365966796875 -0.29632568359375
388440625.0 -0.88543701171875 0.301300048828125
419662500.0 -0.516448974609375 0.8665771484375
450884375.0 0.1739501953125 1.028564453125
482106250.0 0.79888916015625 0.7117919921875
513328125.0 1.119140625 0.0863037109375
544550000.0 1.00311279296875 -0.67999267578125
575771875.0 0.3355712890625 -1.2379150390625
606993750.0 -0.554443359375 -1.176513671875
638215625.0 -1.16571044921875 -0.58941650390625
669437500.0 -1.33905029296875 0.2347412109375
700659375.0 -0.96990966796875 1.09661865234375
731881250.0 -0.002685546875 1.54241943359375
763103125.0 1.0059814453125 1.15472412109375
794325000.0 1.46832275390625 0.2806396484375
825546875.0 1.36651611328125 -0.65185546875
856768750.0 0.79327392578125 -1.4010009765625
887990625.0 -0.2940673828125 -1.6478271484375
919212500.0 -1.28814697265625 -1.076904296875
950434375.0 -1.64776611328125 -0.05792236328125
981656250.0 -1.38134765625 0.94586181640625
1012878125.0 -0.5283203125 1.67120361328125
1044100000.0 0.697998046875 1.6605224609375
1075321875.0 1.57421875 0.80999755859375
1106543750.0 1.70306396484375 -0.3134765625
1137765625.0 1.18548583984375 -1.2838134765625
1168987500.0 0.13739013671875 -1.79571533203125
1200209375.0 -1.06201171875 -1.4820556640625
1231431250.0 -1.72637939453125 -0.451904296875
1262653125.0 -1.59283447265625 0.6851806640625
1293875000.0 -0.8502197265625 1.4910888671875
1325096875.0 0.229248046875 1.70513916015625
1356318750.0 1.23504638671875 1.21527099609375
1387540625.0 1.73846435546875 0.187744140625
1418762500.0 1.4678955078125 -0.9515380859375
1449984375.0 0.52801513671875 -1.6243896484375
1481206250.0 -0.55047607421875 -1.5545654296875
1512428125.0 -1.34149169921875 -0.91827392578125
1543650000.0 -1.65399169921875 0.066162109375
1574871875.0 -1.2720947265625 1.10894775390625
1606093750.0 -0.27178955078125 1.630126953125
1637315625.0 0.74237060546875 1.3988037109375
1668537500.0 1.395263671875 0.69439697265625
1699759375.0 1.57147216796875 -0.27777099609375
1730981250.0 1.0623779296875 -1.22894287109375
1762203125.0 0.04132080078125 -1.56903076171875
1793425000.0 -0.85565185546875 -1.22503662109375
1824646875.0 -1.3924560546875 -0.51385498046875
1855868750.0 -1.4722900390625 0.43243408203125
1887090625.0 -0.873779296875 1.28466796875
1918312500.0 0.1177978515625 1.48529052734375
1949534375.0 0.9212646484375 1.088134765625
1980756250.0 1.3746337890625 0.36895751953125
2011978125.0 1.35821533203125 -0.5321044921875
2043200000.0 0.7484130859375 -1.26043701171875
2074421875.0 -0.1575927734375 -1.43218994140625
2105643750.0 -0.95977783203125 -1.071044921875
2136865625.0 -1.446533203125 -0.30389404296875
2168087500.0 -1.35546875 0.671142578125
2199309375.0 -0.6378173828125 1.350341796875
2230531250.0 0.2821044921875 1.43487548828125
2261753125.0 1.07257080078125 1.01251220703125
2292975000.0 1.5126953125 0.1700439453125
2324196875.0 1.30377197265625 -0.818359375
2355418750.0 0.52423095703125 -1.4185791015625
2386640625.0 -0.40496826171875 -1.44781494140625
2417862500.0 -1.18017578125 -1.0233154296875
2449084375.0 -1.60382080078125 -0.08294677734375
2480306250.0 -1.30987548828125 0.925537109375
2511528125.0 -0.49261474609375 1.506103515625
2542750000.0 0.48907470703125 1.53387451171875
2573971875.0 1.369873046875 0.96624755859375
2605193750.0 1.7156982421875 -0.11358642578125
2636415625.0 1.2596435546875 -1.150634765625
2667637500.0 0.30609130859375 -1.66461181640625
2698859375.0 -0.76922607421875 -1.531982421875
2730081250.0 -1.57244873046875 -0.73834228515625
2761303125.0 -1.67962646484375 0.38934326171875
2792525000.0 -1.09765625 1.30584716796875
2823746875.0 -0.1016845703125 1.72698974609375
2854968750.0 1.01141357421875 1.4532470703125
2886190625.0 1.68963623046875 0.49041748046875
2917412500.0 1.59814453125 -0.61798095703125
2948634375.0 0.93768310546875 -1.43194580078125
2979856250.0 -0.1083984375 -1.774169921875
3011078125.0 -1.24554443359375 -1.34002685546875
3042300000.0 -1.7716064453125 -0.234130859375
3073521875.0 -1.50677490234375 0.83782958984375
3104743750.0 -0.76165771484375 1.56695556640625
3135965625.0 0.36248779296875 1.806396484375
3167187500.0 1.49737548828125 1.16278076171875
3198409375.0 1.81268310546875 -0.07476806640625
3229631250.0 1.3466796875 -1.08062744140625
3260853125.0 0.48828125 -1.66632080078125
3292075000.0 -0.6552734375 -1.69549560546875
3323296875.0 -1.6197509765625 -0.87744140625
3354518750.0 -1.7271728515625 0.32843017578125
3385740625.0 -1.15362548828125 1.23101806640625
3416962500.0 -0.23065185546875 1.6785888671875
3448184375.0 0.8592529296875 1.5198974609375
3479406250.0 1.6337890625 0.64324951171875
3510628125.0 1.64202880859375 -0.49566650390625
3541850000.0 0.9986572265625 -1.353515625
3573071875.0 -0.0081787109375 -1.68072509765625
3604293750.0 -1.02691650390625 -1.33514404296875
3635515625.0 -1.62420654296875 -0.4376220703125
3666737500.0 -1.55963134765625 0.64569091796875
3697959375.0 -0.8236083984375 1.474609375
3729181250.0 0.26885986328125 1.62994384765625
3760403125.0 1.151611328125 1.0965576171875
3791625000.0 1.54962158203125 0.21746826171875
3822846875.0 1.39959716796875 -0.7596435546875
3854068750.0 0.61907958984375 -1.4793701171875
3885290625.0 -0.4217529296875 -1.47906494140625
3916512500.0 -1.14019775390625 -0.90936279296875
3947734375.0 -1.4453125 -0.1195068359375
3978956250.0 -1.295654296875 0.77874755859375
4010178125.0 -0.53045654296875 1.45269775390625
4041400000.0 0.4735107421875 1.4136962890625
4072621875.0 1.1502685546875 0.84613037109375
4103843750.0 1.4420166015625 0.0634765625
4135065625.0 1.2666015625 -0.84613037109375
4166287500.0 0.45703125 -1.49371337890625
4197509375.0 -0.5572509765625 -1.41357421875
4228731250.0 -1.24639892578125 -0.80126953125
4259953125.0 -1.50726318359375 0.07061767578125
4291175000.0 -1.186279296875 1.00872802734375
4322396875.0 -0.2889404296875 1.52508544921875
4353618750.0 0.67333984375 1.3486328125
4384840625.0 1.3209228515625 0.69549560546875
4416062500.0 1.499267578125 -0.22833251953125
4447284375.0 1.05352783203125 -1.102783203125
4478506250.0 0.17120361328125 -1.49383544921875
4509728125.0 -0.7315673828125 -1.30596923828125
4540950000.0 -1.3916015625 -0.635009765625
4572171875.0 -1.5203857421875 0.3590087890625
4603393750.0 -0.97186279296875 1.210693359375
4634615625.0 -0.06103515625 1.53558349609375
4665837500.0 0.8692626953125 1.3033447265625
4697059375.0 1.539306640625 0.51483154296875
4728281250.0 1.527587890625 -0.581787109375
4759503125.0 0.82232666015625 -1.3643798828125
4790725000.0 -0.145263671875 -1.5712890625
4821946875.0 -1.0823974609375 -1.19293212890625
4853168750.0 -1.611328125 -0.2509765625
4884390625.0 -1.37689208984375 0.79278564453125
4915612500.0 -0.61260986328125 1.411376953125
4946834375.0 0.3289794921875 1.5074462890625
4978056250.0 1.20477294921875 1.01641845703125
5009278125.0 1.5596923828125 0.0396728515625
5040500000.0 1.2276611328125 -0.874267578125
5071721875.0 0.500244140625 -1.41314697265625
5102943750.0 -0.44598388671875 -1.494873046875
5134165625.0 -1.33367919921875 -0.90435791015625
5165387500.0 -1.56622314453125 0.145263671875
5196609375.0 -1.135009765625 1.00762939453125
5227831250.0 -0.35699462890625 1.505126953125
5259053125.0 0.68707275390625 1.49053955078125
5290275000.0 1.52056884765625 0.6624755859375
5321496875.0 1.4915771484375 -0.43072509765625
5352718750.0 0.92022705078125 -1.15277099609375
5383940625.0 0.09625244140625 -1.49920654296875
5415162500.0 -0.8995361328125 -1.2823486328125
5446384375.0 -1.48248291015625 -0.369873046875
5477606250.0 -1.29791259765625 0.5660400390625
5508828125.0 -0.7303466796875 1.150146484375
5540050000.0 0.0543212890625 1.3970947265625
5571271875.0 0.938720703125 1.107666015625
5602493750.0 1.4072265625 0.25982666015625
5633715625.0 1.23101806640625 -0.6123046875
5664937500.0 0.64727783203125 -1.1998291015625
5696159375.0 -0.1964111328125 -1.38238525390625
5727381250.0 -1.0211181640625 -0.97747802734375
5758603125.0 -1.3902587890625 -0.14532470703125
5789825000.0 -1.193115234375 0.71759033203125
5821046875.0 -0.50616455078125 1.3055419921875
5852268750.0 0.4112548828125 1.311767578125
5883490625.0 1.07012939453125 0.77166748046875
5914712500.0 1.30145263671875 0.0196533203125
5945934375.0 1.09539794921875 -0.77545166015625
5977156250.0 0.3607177734375 -1.31103515625
6008378125.0 -0.50927734375 -1.181640625
6039600000.0 -1.02166748046875 -0.6484375
6070821875.0 -1.22222900390625 -0.004638671875
6102043750.0 -1.08282470703125 0.76116943359375
6133265625.0 -0.34210205078125 1.34356689453125
6164487500.0 0.5626220703125 1.18621826171875
6195709375.0 1.0704345703125 0.62945556640625
6226931250.0 1.27850341796875 -0.0423583984375
6258153125.0 1.10308837890625 -0.869140625
6289375000.0 0.256103515625 -1.44549560546875
6320596875.0 -0.68853759765625 -1.2056884765625
6351818750.0 -1.199462890625 -0.57135009765625
6383040625.0 -1.35302734375 0.20635986328125
6414262500.0 -0.99957275390625 1.056884765625
6445484375.0 -0.07855224609375 1.45550537109375
6476706250.0 0.79425048828125 1.14691162109375
6507928125.0 1.2889404296875 0.47003173828125
6539150000.0 1.34710693359375 -0.38671875
6570371875.0 0.840576171875 -1.143310546875
6601593750.0 -0.01800537109375 -1.40496826171875
6632815625.0 -0.83880615234375 -1.1353759765625
6664037500.0 -1.3994140625 -0.420166015625
6695259375.0 -1.3726806640625 0.56671142578125
6726481250.0 -0.70928955078125 1.2523193359375
6757703125.0 0.13055419921875 1.40570068359375
6788925000.0 0.95343017578125 1.12982177734375
6820146875.0 1.5596923828125 0.287109375
6851368750.0 1.3251953125 -0.81915283203125
6882590625.0 0.50653076171875 -1.3385009765625
6913812500.0 -0.29132080078125 -1.35504150390625
6945034375.0 -1.0689697265625 -1.020751953125
6976256250.0 -1.59136962890625 -0.0933837890625
7007478125.0 -1.235107421875 0.9327392578125
7038700000.0 -0.40325927734375 1.34027099609375
7069921875.0 0.35601806640625 1.32147216796875
7101143750.0 1.1175537109375 0.96856689453125
7132365625.0 1.59930419921875 0.01458740234375
7163587500.0 1.15716552734375 -1.0186767578125
7194809375.0 0.30181884765625 -1.3973388671875
7226031250.0 -0.51153564453125 -1.32403564453125
7257253125.0 -1.26519775390625 -0.82415771484375
7288475000.0 -1.55877685546875 0.19866943359375
7319696875.0 -1.02880859375 1.1075439453125
7350918750.0 -0.16387939453125 1.44366455078125
7382140625.0 0.7142333984375 1.27569580078125
7413362500.0 1.3753662109375 0.57525634765625
7444584375.0 1.41094970703125 -0.40557861328125
7475806250.0 0.858154296875 -1.14349365234375
7507028125.0 0.00836181640625 -1.42657470703125
7538250000.0 -0.8873291015625 -1.12298583984375
7569471875.0 -1.33489990234375 -0.31109619140625
7600693750.0 -1.20098876953125 0.49591064453125
7631915625.0 -0.71734619140625 1.085693359375
7663137500.0 0.0814208984375 1.35882568359375
7694359375.0 0.939300537109375 0.979766845703125
7725581250.0 1.24224853515625 0.18035888671875
7756803125.0 1.080810546875 -0.498046875
7788025000.0 0.6702880859375 -1.04254150390625
7819246875.0 -0.1202392578125 -1.34600830078125
7850468750.0 -0.990570068359375 -0.915679931640625
7881690625.0 -1.2322998046875 -0.10430908203125
7912912500.0 -1.05377197265625 0.55377197265625
7944134375.0 -0.6055908203125 1.1143798828125
7975356250.0 0.27069091796875 1.3345947265625
8006578125.0 1.04766845703125 0.77874755859375
8037800000.0 1.19451904296875 0.0157470703125
8069021875.0 1.0069580078125 -0.61932373046875
8100243750.0 0.499267578125 -1.16217041015625
8131465625.0 -0.38519287109375 -1.25244140625
8162687500.0 -1.03155517578125 -0.68658447265625
8193909375.0 -1.17962646484375 0.0086669921875
8225131250.0 -1.0167236328125 0.67706298828125
8256353125.0 -0.42108154296875 1.24713134765625
8287575000.0 0.50189208984375 1.2257080078125
8318796875.0 1.0816650390625 0.63525390625
8350018750.0 1.24432373046875 -0.07537841796875
8381240625.0 1.03076171875 -0.83795166015625
8412462500.0 0.25439453125 -1.3719482421875
8443684375.0 -0.66845703125 -1.16973876953125
8474906250.0 -1.17333984375 -0.53179931640625
8506128125.0 -1.2974853515625 0.23516845703125
8537350000.0 -0.92364501953125 1.0458984375
8568571875.0 -0.01568603515625 1.39373779296875
8599793750.0 0.8018798828125 1.0531005859375
8631015625.0 1.238525390625 0.39862060546875
8662237500.0 1.284912109375 -0.42877197265625
8693459375.0 0.73675537109375 -1.17645263671875
8724681250.0 -0.16162109375 -1.33013916015625
8755903125.0 -0.87884521484375 -0.957061767578125
8787125000.0 -1.3013916015625 -0.28265380859375
8818346875.0 -1.25054931640625 0.615234375
8849568750.0 -0.55633544921875 1.26123046875
8880790625.0 0.298095703125 1.28350830078125
8912012500.0 0.97882080078125 0.89141845703125
8943234375.0 1.39764404296875 0.1282958984375
8974456250.0 1.166259765625 -0.83770751953125
9005678125.0 0.3499755859375 -1.31231689453125
9036900000.0 -0.44580078125 -1.225341796875
9068121875.0 -1.0992431640625 -0.7860107421875
9099343750.0 -1.4393310546875 0.09686279296875
9130565625.0 -0.9788818359375 1.01019287109375
9161787500.0 -0.15386962890625 1.28375244140625
9193009375.0 0.55596923828125 1.1337890625
9224231250.0 1.17742919921875 0.65545654296875
9255453125.0 1.3995361328125 -0.296142578125
9286675000.0 0.806640625 -1.08404541015625
9317896875.0 0.02642822265625 -1.2469482421875
9349118750.0 -0.65362548828125 -1.0684814453125
9380340625.0 -1.25775146484375 -0.508544921875
9411562500.0 -1.31024169921875 0.47479248046875
9442784375.0 -0.64776611328125 1.11614990234375
9474006250.0 0.08734130859375 1.20989990234375
9505228125.0 0.76458740234375 0.979522705078125
9536450000.0 1.27117919921875 0.31463623046875
9567671875.0 1.14434814453125 -0.5787353515625
9598893750.0 0.52923583984375 -1.069091796875
9630115625.0 -0.1446533203125 -1.15875244140625
9661337500.0 -0.81756591796875 -0.902496337890625
9692559375.0 -1.23907470703125 -0.1898193359375
9723781250.0 -1.04510498046875 0.603515625
9755003125.0 -0.48675537109375 1.0499267578125
9786225000.0 0.1982421875 1.15887451171875
9817446875.0 0.89447021484375 0.827117919921875
9848668750.0 1.1983642578125 0.07794189453125
9879890625.0 0.967529296875 -0.614349365234375
9911112500.0 0.45208740234375 -1.04931640625
9942334375.0 -0.26666259765625 -1.158203125
9973556250.0 -0.942108154296875 -0.738189697265625
10004778125.0 -1.14666748046875 -0.01739501953125
10036000000.0 -0.94482421875 0.616302490234375
10067221875.0 -0.4422607421875 1.0960693359375
10098443750.0 0.3690185546875 1.18115234375
10129665625.0 1.00140380859375 0.643798828125
10160887500.0 1.1182861328125 -0.05096435546875
10192109375.0 0.917633056640625 -0.66290283203125
10223331250.0 0.36181640625 -1.1513671875
10254553125.0 -0.483642578125 -1.1138916015625
10285775000.0 -0.98541259765625 -0.5350341796875
10316996875.0 -1.06683349609375 0.07623291015625
10348218750.0 -0.8997802734375 0.67047119140625
10379440625.0 -0.32122802734375 1.17724609375
10410662500.0 0.52716064453125 1.0850830078125
10441884375.0 0.991455078125 0.521728515625
10473106250.0 1.10723876953125 -0.083251953125
10504328125.0 0.9483642578125 -0.753570556640625
10535550000.0 0.24029541015625 -1.2945556640625
10566771875.0 -0.656494140625 -1.07696533203125
10597993750.0 -1.080078125 -0.45904541015625
10629215625.0 -1.1749267578125 0.20513916015625
10660437500.0 -0.8876953125 0.95233154296875
10691659375.0 -0.01220703125 1.33355712890625
10722881250.0 0.783538818359375 0.952392578125
10754103125.0 1.1204833984375 0.3240966796875
10785325000.0 1.137939453125 -0.36663818359375
10816546875.0 0.7020263671875 -1.0482177734375
10847768750.0 -0.14434814453125 -1.22918701171875
10878990625.0 -0.803009033203125 -0.843231201171875
10910212500.0 -1.12261962890625 -0.2452392578125
10941434375.0 -1.09661865234375 0.475830078125
10972656250.0 -0.56817626953125 1.08453369140625
11003878125.0 0.21636962890625 1.17413330078125
11035100000.0 0.84857177734375 0.822265625
11066321875.0 1.2198486328125 0.17523193359375
11097543750.0 1.09844970703125 -0.6749267578125
11128765625.0 0.3858642578125 -1.1986083984375
11159987500.0 -0.395751953125 -1.138671875
11191209375.0 -0.998291015625 -0.703094482421875
11222431250.0 -1.2716064453125 0.0936279296875
11253653125.0 -0.858489990234375 0.89361572265625
11284875000.0 -0.11474609375 1.126220703125
11316096875.0 0.51092529296875 0.956329345703125
11347318750.0 1.00244140625 0.50238037109375
11378540625.0 1.11602783203125 -0.26922607421875
11409762500.0 0.63482666015625 -0.8604736328125
11440984375.0 0.037078857421875 -0.976715087890625
11472206250.0 -0.47943115234375 -0.849456787109375
11503428125.0 -0.952545166015625 -0.456085205078125
11534650000.0 -1.068359375 0.28826904296875
11565871875.0 -0.60235595703125 0.85308837890625
11597093750.0 -0.01910400390625 0.9906005859375
11628315625.0 0.543853759765625 0.87554931640625
11659537500.0 1.05987548828125 0.39166259765625
11690759375.0 1.065185546875 -0.4329833984375
11721981250.0 0.51678466796875 -0.940521240234375
11753203125.0 -0.1038818359375 -1.0352783203125
11784425000.0 -0.724639892578125 -0.808807373046875
11815646875.0 -1.10137939453125 -0.15069580078125
11846868750.0 -0.891448974609375 0.55078125
11878090625.0 -0.391143798828125 0.910247802734375
11909312500.0 0.18707275390625 0.984649658203125
11940534375.0 0.780364990234375 0.695068359375
11971756250.0 1.02435302734375 0.03924560546875
12002978125.0 0.806060791015625 -0.537628173828125
12034200000.0 0.381866455078125 -0.88836669921875
12065421875.0 -0.216064453125 -1.009521484375
12096643750.0 -0.848052978515625 -0.6661376953125
12127865625.0 -1.03338623046875 0.01702880859375
12159087500.0 -0.814788818359375 0.57574462890625
12190309375.0 -0.3775634765625 0.975372314453125
12221531250.0 0.3380126953125 1.08660888671875
12252753125.0 0.979949951171875 0.582183837890625
12283975000.0 1.05596923828125 -0.1290283203125
12315196875.0 0.80078125 -0.677001953125
12346418750.0 0.28118896484375 -1.09124755859375
12377640625.0 -0.535888671875 -1.05999755859375
12408862500.0 -1.0333251953125 -0.42095947265625
12440084375.0 -1.0098876953125 0.2257080078125
12471306250.0 -0.742095947265625 0.735382080078125
12502528125.0 -0.18017578125 1.119384765625
12533750000.0 0.62005615234375 0.99407958984375
12564971875.0 1.041259765625 0.364013671875
12596193750.0 1.03009033203125 -0.26568603515625
12627415625.0 0.74786376953125 -0.827362060546875
12658637500.0 0.07867431640625 -1.20806884765625
12689859375.0 -0.735107421875 -0.96624755859375
12721081250.0 -1.11566162109375 -0.3070068359375
12752303125.0 -1.0975341796875 0.38189697265625
12783525000.0 -0.68756103515625 1.0264892578125
12814746875.0 0.16290283203125 1.25115966796875
12845968750.0 0.8621826171875 0.81231689453125
12877190625.0 1.1175537109375 0.17327880859375
12908412500.0 1.05450439453125 -0.5003662109375
12939634375.0 0.5428466796875 -1.11749267578125
12970856250.0 -0.32025146484375 -1.175537109375
13002078125.0 -0.8951416015625 -0.69403076171875
13033300000.0 -1.10589599609375 -0.08587646484375
13064521875.0 -1.00909423828125 0.59429931640625
13095743750.0 -0.42083740234375 1.15338134765625
13126965625.0 0.40911865234375 1.1220703125
13158187500.0 0.94476318359375 0.632110595703125
13189409375.0 1.14739990234375 -0.02069091796875
13220631250.0 0.936309814453125 -0.74676513671875
13251853125.0 0.23492431640625 -1.17034912109375
13283075000.0 -0.50543212890625 -1.01873779296875
13314296875.0 -0.986785888671875 -0.52886962890625
