!Created with skrf (http://scikit-rf.org).
# Hz S RI R 50.0 
!freq ReS11 ImS11
45000000.0 -0.07707977294921875 -0.09683990478515625
76221875.0 -0.19652557373046875 -0.04726409912109375
107443750.0 -0.2550811767578125 0.1199951171875
138665625.0 -0.1479339599609375 0.3289337158203125
169887500.0 0.123809814453125 0.4173431396484375
201109375.0 0.42205810546875 0.2805938720703125
232331250.0 0.578887939453125 -0.0577392578125
263553125.0 0.4895172119140625 -0.4532623291015625
294775000.0 0.097900390625 -0.732574462890625
325996875.0 -0.4161376953125 -0.680511474609375
357218750.0 -0.806732177734375 -0.2965087890625
388440625.0 -0.8856201171875 0.30108642578125
419662500.0 -0.516815185546875 0.8668212890625
450884375.0 0.17401123046875 1.0289306640625
482106250.0 0.799041748046875 0.712249755859375
513328125.0 1.11968994140625 0.08642578125
544550000.0 1.0032958984375 -0.6807861328125
575771875.0 0.33551025390625 -1.23846435546875
606993750.0 -0.55438232421875 -1.17706298828125
638215625.0 -1.1661376953125 -0.58953857421875
669437500.0 -1.3397216796875 0.23443603515625
700659375.0 -0.97021484375 1.0965576171875
731881250.0 -0.0029296875 1.54278564453125
763103125.0 1.00604248046875 1.1551513671875
794325000.0 1.46868896484375 0.28094482421875
825546875.0 1.36676025390625 -0.6519775390625
856768750.0 0.7938232421875 -1.40155029296875
887990625.0 -0.293701171875 -1.6483154296875
919212500.0 -1.28875732421875 -1.07769775390625
950434375.0 -1.6485595703125 -0.05841064453125
981656250.0 -1.38165283203125 0.94696044921875
1012878125.0 -0.52862548828125 1.67193603515625
1044100000.0 0.697998046875 1.66156005859375
1075321875.0 1.57513427734375 0.8109130859375
1106543750.0 1.7044677734375 -0.31427001953125
1137765625.0 1.18560791015625 -1.28472900390625
1168987500.0 0.136962890625 -1.79669189453125
1200209375.0 -1.06256103515625 -1.48236083984375
1231431250.0 -1.72723388671875 -0.45269775390625
1262653125.0 -1.59332275390625 0.68548583984375
1293875000.0 -0.85089111328125 1.49188232421875
1325096875.0 0.2296142578125 1.7059326171875
1356318750.0 1.235107421875 1.21551513671875
1387540625.0 1.73956298828125 0.1883544921875
1418762500.0 1.46826171875 -0.9515380859375
1449984375.0 0.52838134765625 -1.6253662109375
1481206250.0 -0.5506591796875 -1.55511474609375
1512428125.0 -1.34210205078125 -0.9185791015625
1543650000.0 -1.6553955078125 0.06646728515625
1574871875.0 -1.272216796875 1.10894775390625
1606093750.0 -0.27191162109375 1.631103515625
1637315625.0 0.7427978515625 1.39959716796875
1668537500.0 1.39593505859375 0.69488525390625
1699759375.0 1.5718994140625 -0.27777099609375
1730981250.0 1.06298828125 -1.22930908203125
1762203125.0 0.04119873046875 -1.5697021484375
1793425000.0 -0.85589599609375 -1.22528076171875
1824646875.0 -1.39263916015625 -0.513916015625
1855868750.0 -1.4732666015625 0.432861328125
1887090625.0 -0.874267578125 1.285400390625
1918312500.0 0.117431640625 1.4862060546875
1949534375.0 0.921875 1.088134765625
1980756250.0 1.37518310546875 0.3695068359375
2011978125.0 1.35906982421875 -0.53228759765625
2043200000.0 0.7489013671875 -1.26123046875
2074421875.0 -0.157958984375 -1.432373046875
2105643750.0 -0.96063232421875 -1.07183837890625
2136865625.0 -1.44683837890625 -0.30413818359375
2168087500.0 -1.35614013671875 0.67108154296875
2199309375.0 -0.63824462890625 1.3507080078125
2230531250.0 0.28228759765625 1.43536376953125
2261753125.0 1.072509765625 1.0130615234375
2292975000.0 1.5137939453125 0.16937255859375
2324196875.0 1.30450439453125 -0.81878662109375
2355418750.0 0.52435302734375 -1.41937255859375
2386640625.0 -0.40496826171875 -1.4486083984375
2417862500.0 -1.18145751953125 -1.023681640625
2449084375.0 -1.604736328125 -0.082763671875
2480306250.0 -1.31024169921875 0.92535400390625
2511528125.0 -0.49249267578125 1.50726318359375
2542750000.0 0.48858642578125 1.5352783203125
2573971875.0 1.37005615234375 0.96661376953125
2605193750.0 1.71575927734375 -0.11224365234375
2636415625.0 1.26068115234375 -1.1531982421875
2667637500.0 0.30633544921875 -1.66546630859375
2698859375.0 -0.77105712890625 -1.53350830078125
2730081250.0 -1.57196044921875 -0.739990234375
2761303125.0 -1.67877197265625 0.3875732421875
2792525000.0 -1.0980224609375 1.3070068359375
2823746875.0 -0.10137939453125 1.7288818359375
2854968750.0 1.01220703125 1.45367431640625
2886190625.0 1.69134521484375 0.490478515625
2917412500.0 1.5989990234375 -0.61810302734375
2948634375.0 0.938720703125 -1.43231201171875
2979856250.0 -0.10894775390625 -1.77508544921875
3011078125.0 -1.2471923828125 -1.3404541015625
3042300000.0 -1.77398681640625 -0.2340087890625
3073521875.0 -1.50775146484375 0.83831787109375
3104743750.0 -0.76275634765625 1.56634521484375
3135965625.0 0.3621826171875 1.80780029296875
3167187500.0 1.498291015625 1.16265869140625
3198409375.0 1.8150634765625 -0.076416015625
3229631250.0 1.34759521484375 -1.08123779296875
3260853125.0 0.48809814453125 -1.66717529296875
3292075000.0 -0.6551513671875 -1.69580078125
3323296875.0 -1.6181640625 -0.87860107421875
3354518750.0 -1.72900390625 0.3289794921875
3385740625.0 -1.1544189453125 1.23193359375
3416962500.0 -0.23052978515625 1.68048095703125
3448184375.0 0.859130859375 1.51953125
3479406250.0 1.6348876953125 0.64324951171875
3510628125.0 1.64263916015625 -0.49517822265625
3541850000.0 0.99884033203125 -1.35382080078125
3573071875.0 -0.00872802734375 -1.68145751953125
3604293750.0 -1.0272216796875 -1.33587646484375
3635515625.0 -1.62664794921875 -0.43792724609375
3666737500.0 -1.56060791015625 0.64703369140625
3697959375.0 -0.8236083984375 1.47607421875
3729181250.0 0.26837158203125 1.62945556640625
3760403125.0 1.15155029296875 1.0966796875
3791625000.0 1.5517578125 0.21722412109375
3822846875.0 1.40106201171875 -0.76251220703125
3854068750.0 0.61920166015625 -1.4788818359375
3885290625.0 -0.42205810546875 -1.48028564453125
3916512500.0 -1.14068603515625 -0.9100341796875
3947734375.0 -1.44586181640625 -0.1197509765625
3978956250.0 -1.2962646484375 0.7779541015625
4010178125.0 -0.5308837890625 1.4532470703125
4041400000.0 0.472900390625 1.4140625
4072621875.0 1.15142822265625 0.84686279296875
4103843750.0 1.44384765625 0.0635986328125
4135065625.0 1.2667236328125 -0.8453369140625
4166287500.0 0.45794677734375 -1.4940185546875
4197509375.0 -0.55767822265625 -1.4140625
4228731250.0 -1.2471923828125 -0.80242919921875
4259953125.0 -1.50775146484375 0.07110595703125
4291175000.0 -1.1873779296875 1.0103759765625
4322396875.0 -0.28875732421875 1.525390625
4353618750.0 0.67315673828125 1.34844970703125
4384840625.0 1.32110595703125 0.69580078125
4416062500.0 1.49969482421875 -0.22833251953125
4447284375.0 1.05450439453125 -1.103759765625
4478506250.0 0.1719970703125 -1.494384765625
4509728125.0 -0.7320556640625 -1.30621337890625
4540950000.0 -1.39190673828125 -0.63543701171875
4572171875.0 -1.5211181640625 0.35992431640625
4603393750.0 -0.9713134765625 1.211669921875
4634615625.0 -0.06201171875 1.53582763671875
4665837500.0 0.8687744140625 1.3031005859375
4697059375.0 1.54107666015625 0.5147705078125
4728281250.0 1.528076171875 -0.5816650390625
4759503125.0 0.8226318359375 -1.36602783203125
4790725000.0 -0.1458740234375 -1.5716552734375
4821946875.0 -1.083740234375 -1.1934814453125
4853168750.0 -1.61309814453125 -0.25048828125
4884390625.0 -1.376953125 0.7930908203125
4915612500.0 -0.6124267578125 1.41241455078125
4946834375.0 0.32891845703125 1.508544921875
4978056250.0 1.20379638671875 1.01666259765625
5009278125.0 1.56097412109375 0.039306640625
5040500000.0 1.22772216796875 -0.87506103515625
5071721875.0 0.50079345703125 -1.41375732421875
5102943750.0 -0.44598388671875 -1.4951171875
5134165625.0 -1.3336181640625 -0.9044189453125
5165387500.0 -1.567138671875 0.14654541015625
5196609375.0 -1.13555908203125 1.00848388671875
5227831250.0 -0.35687255859375 1.5062255859375
5259053125.0 0.686767578125 1.490966796875
5290275000.0 1.52130126953125 0.66204833984375
5321496875.0 1.49188232421875 -0.430419921875
5352718750.0 0.92071533203125 -1.15338134765625
5383940625.0 0.09686279296875 -1.49853515625
5415162500.0 -0.90020751953125 -1.28240966796875
5446384375.0 -1.48272705078125 -0.37030029296875
5477606250.0 -1.298583984375 0.5660400390625
5508828125.0 -0.73095703125 1.14996337890625
5540050000.0 0.053955078125 1.3970947265625
5571271875.0 0.93682861328125 1.10821533203125
5602493750.0 1.4073486328125 0.25958251953125
5633715625.0 1.23162841796875 -0.61297607421875
5664937500.0 0.64801025390625 -1.20074462890625
5696159375.0 -0.19683837890625 -1.3834228515625
5727381250.0 -1.021484375 -0.9779052734375
5758603125.0 -1.39105224609375 -0.1451416015625
5789825000.0 -1.19415283203125 0.7178955078125
5821046875.0 -0.50604248046875 1.3062744140625
5852268750.0 0.41119384765625 1.31298828125
5883490625.0 1.07049560546875 0.7720947265625
5914712500.0 1.30279541015625 0.018798828125
5945934375.0 1.09600830078125 -0.7757568359375
5977156250.0 0.36077880859375 -1.3116455078125
6008378125.0 -0.5098876953125 -1.18212890625
6039600000.0 -1.0206298828125 -0.648681640625
6070821875.0 -1.2232666015625 -0.00390625
6102043750.0 -1.0823974609375 0.76263427734375
6133265625.0 -0.34228515625 1.34381103515625
6164487500.0 0.56207275390625 1.18670654296875
6195709375.0 1.069580078125 0.62982177734375
6226931250.0 1.2786865234375 -0.0423583984375
6258153125.0 1.10394287109375 -0.870361328125
6289375000.0 0.25604248046875 -1.44561767578125
6320596875.0 -0.68951416015625 -1.2059326171875
6351818750.0 -1.19903564453125 -0.5726318359375
6383040625.0 -1.35498046875 0.2076416015625
6414262500.0 -0.99932861328125 1.055419921875
6445484375.0 -0.0777587890625 1.45733642578125
6476706250.0 0.79510498046875 1.1473388671875
6507928125.0 1.290283203125 0.4697265625
6539150000.0 1.347412109375 -0.38641357421875
6570371875.0 0.8406982421875 -1.14361572265625
6601593750.0 -0.01824951171875 -1.4046630859375
6632815625.0 -0.83819580078125 -1.13543701171875
6664037500.0 -1.40142822265625 -0.41925048828125
6695259375.0 -1.3734130859375 0.5657958984375
6726481250.0 -0.709716796875 1.25018310546875
6757703125.0 0.13043212890625 1.40631103515625
6788925000.0 0.954833984375 1.13031005859375
6820146875.0 1.55987548828125 0.28778076171875
6851368750.0 1.3260498046875 -0.81939697265625
6882590625.0 0.5072021484375 -1.337158203125
6913812500.0 -0.29241943359375 -1.35589599609375
6945034375.0 -1.0699462890625 -1.021240234375
6976256250.0 -1.59320068359375 -0.09234619140625
7007478125.0 -1.2362060546875 0.93121337890625
7038700000.0 -0.4019775390625 1.34326171875
7069921875.0 0.35809326171875 1.3233642578125
7101143750.0 1.11871337890625 0.96783447265625
7132365625.0 1.5985107421875 0.01483154296875
7163587500.0 1.15740966796875 -1.019775390625
7194809375.0 0.3013916015625 -1.3978271484375
7226031250.0 -0.5103759765625 -1.3233642578125
7257253125.0 -1.266357421875 -0.82415771484375
7288475000.0 -1.55908203125 0.19842529296875
7319696875.0 -1.03009033203125 1.10943603515625
7350918750.0 -0.16436767578125 1.44476318359375
7382140625.0 0.7154541015625 1.27630615234375
7413362500.0 1.37469482421875 0.57684326171875
7444584375.0 1.41229248046875 -0.4049072265625
7475806250.0 0.85809326171875 -1.14385986328125
7507028125.0 0.00555419921875 -1.42987060546875
7538250000.0 -0.8883056640625 -1.12347412109375
7569471875.0 -1.33575439453125 -0.31072998046875
7600693750.0 -1.20159912109375 0.49737548828125
7631915625.0 -0.71795654296875 1.08367919921875
7663137500.0 0.08184814453125 1.359619140625
7694359375.0 0.938323974609375 0.980987548828125
7725581250.0 1.24249267578125 0.1810302734375
7756803125.0 1.08154296875 -0.49749755859375
7788025000.0 0.6695556640625 -1.0418701171875
7819246875.0 -0.12005615234375 -1.3472900390625
7850468750.0 -0.99176025390625 -0.916748046875
7881690625.0 -1.2313232421875 -0.10479736328125
7912912500.0 -1.05389404296875 0.55364990234375
7944134375.0 -0.60528564453125 1.11297607421875
7975356250.0 0.27191162109375 1.3353271484375
8006578125.0 1.04693603515625 0.779296875
8037800000.0 1.19378662109375 0.01519775390625
8069021875.0 1.00592041015625 -0.61676025390625
8100243750.0 0.49945068359375 -1.162841796875
8131465625.0 -0.38824462890625 -1.2540283203125
8162687500.0 -1.03289794921875 -0.6868896484375
8193909375.0 -1.180908203125 0.0086669921875
8225131250.0 -1.01739501953125 0.6798095703125
8256353125.0 -0.4217529296875 1.248046875
8287575000.0 0.5015869140625 1.22650146484375
8318796875.0 1.0826416015625 0.6357421875
8350018750.0 1.24517822265625 -0.07586669921875
8381240625.0 1.03076171875 -0.83984375
8412462500.0 0.25445556640625 -1.37249755859375
8443684375.0 -0.66851806640625 -1.17010498046875
8474906250.0 -1.17413330078125 -0.532958984375
8506128125.0 -1.29864501953125 0.23760986328125
8537350000.0 -0.923583984375 1.04754638671875
8568571875.0 -0.015380859375 1.394775390625
8599793750.0 0.8009033203125 1.05389404296875
8631015625.0 1.241943359375 0.39776611328125
8662237500.0 1.28631591796875 -0.4295654296875
8693459375.0 0.7357177734375 -1.17718505859375
8724681250.0 -0.1622314453125 -1.33197021484375
8755903125.0 -0.87994384765625 -0.957305908203125
8787125000.0 -1.3023681640625 -0.28302001953125
8818346875.0 -1.25146484375 0.61700439453125
8849568750.0 -0.55633544921875 1.26171875
8880790625.0 0.30035400390625 1.2852783203125
8912012500.0 0.98260498046875 0.89208984375
8943234375.0 1.398681640625 0.12969970703125
8974456250.0 1.1669921875 -0.83953857421875
9005678125.0 0.3494873046875 -1.31396484375
9036900000.0 -0.444580078125 -1.2259521484375
9068121875.0 -1.10223388671875 -0.785888671875
9099343750.0 -1.44097900390625 0.09686279296875
9130565625.0 -0.97955322265625 1.01214599609375
9161787500.0 -0.15478515625 1.28131103515625
9193009375.0 0.5550537109375 1.1326904296875
9224231250.0 1.177734375 0.65594482421875
9255453125.0 1.4002685546875 -0.2962646484375
9286675000.0 0.8067626953125 -1.08673095703125
9317896875.0 0.02740478515625 -1.24578857421875
9349118750.0 -0.65411376953125 -1.06976318359375
9380340625.0 -1.25537109375 -0.5106201171875
9411562500.0 -1.3101806640625 0.47454833984375
9442784375.0 -0.64837646484375 1.1162109375
9474006250.0 0.08892822265625 1.21063232421875
9505228125.0 0.764404296875 0.97906494140625
9536450000.0 1.27484130859375 0.3133544921875
9567671875.0 1.14459228515625 -0.58050537109375
9598893750.0 0.52996826171875 -1.06671142578125
9630115625.0 -0.142333984375 -1.15655517578125
9661337500.0 -0.8197021484375 -0.903289794921875
9692559375.0 -1.23809814453125 -0.19110107421875
9723781250.0 -1.0447998046875 0.6053466796875
9755003125.0 -0.48748779296875 1.04986572265625
9786225000.0 0.1995849609375 1.15972900390625
9817446875.0 0.89349365234375 0.827911376953125
9848668750.0 1.19781494140625 0.07781982421875
9879890625.0 0.96820068359375 -0.61614990234375
9911112500.0 0.452880859375 -1.05126953125
9942334375.0 -0.26629638671875 -1.1580810546875
9973556250.0 -0.943756103515625 -0.73779296875
10004778125.0 -1.14520263671875 -0.01837158203125
10036000000.0 -0.945098876953125 0.61541748046875
10067221875.0 -0.4420166015625 1.09661865234375
10098443750.0 0.37005615234375 1.18212890625
10129665625.0 1.00244140625 0.6435546875
10160887500.0 1.121337890625 -0.05255126953125
10192109375.0 0.91845703125 -0.66424560546875
10223331250.0 0.36175537109375 -1.15179443359375
10254553125.0 -0.487060546875 -1.1153564453125
10285775000.0 -0.985870361328125 -0.535369873046875
10316996875.0 -1.06597900390625 0.07489013671875
10348218750.0 -0.90008544921875 0.66876220703125
10379440625.0 -0.3221435546875 1.17486572265625
10410662500.0 0.5279541015625 1.08599853515625
10441884375.0 0.99127197265625 0.521759033203125
10473106250.0 1.1090087890625 -0.08428955078125
10504328125.0 0.949127197265625 -0.75506591796875
10535550000.0 0.24029541015625 -1.29473876953125
10566771875.0 -0.6572265625 -1.077392578125
10597993750.0 -1.0811767578125 -0.4583740234375
10629215625.0 -1.173828125 0.2042236328125
10660437500.0 -0.88787841796875 0.95147705078125
10691659375.0 -0.01019287109375 1.33624267578125
10722881250.0 0.785430908203125 0.95257568359375
10754103125.0 1.12030029296875 0.32379150390625
10785325000.0 1.1400146484375 -0.367919921875
10816546875.0 0.7015380859375 -1.04833984375
10847768750.0 -0.1436767578125 -1.22894287109375
10878990625.0 -0.8048095703125 -0.843597412109375
10910212500.0 -1.12384033203125 -0.24542236328125
10941434375.0 -1.097412109375 0.4766845703125
10972656250.0 -0.5679931640625 1.08612060546875
11003878125.0 0.216552734375 1.1732177734375
11035100000.0 0.8443603515625 0.823822021484375
11066321875.0 1.22125244140625 0.17333984375
11097543750.0 1.0987548828125 -0.67529296875
11128765625.0 0.3858642578125 -1.1993408203125
11159987500.0 -0.3968505859375 -1.13983154296875
11191209375.0 -0.999267578125 -0.702850341796875
11222431250.0 -1.2734375 0.09283447265625
11253653125.0 -0.8592529296875 0.8935546875
11284875000.0 -0.1146240234375 1.1265869140625
11316096875.0 0.511505126953125 0.957366943359375
11347318750.0 1.0032958984375 0.502197265625
11378540625.0 1.11578369140625 -0.26812744140625
11409762500.0 0.634765625 -0.861572265625
11440984375.0 0.035888671875 -0.9781494140625
11472206250.0 -0.48193359375 -0.850250244140625
11503428125.0 -0.95269775390625 -0.45562744140625
11534650000.0 -1.06903076171875 0.2889404296875
11565871875.0 -0.602264404296875 0.85418701171875
11597093750.0 -0.0198974609375 0.9903564453125
11628315625.0 0.544677734375 0.876434326171875
11659537500.0 1.060791015625 0.3927001953125
11690759375.0 1.06597900390625 -0.43255615234375
11721981250.0 0.517120361328125 -0.942474365234375
11753203125.0 -0.10504150390625 -1.035888671875
11784425000.0 -0.72442626953125 -0.809356689453125
11815646875.0 -1.10125732421875 -0.152587890625
11846868750.0 -0.89093017578125 0.551025390625
11878090625.0 -0.391143798828125 0.9078369140625
11909312500.0 0.187713623046875 0.9849853515625
11940534375.0 0.780059814453125 0.6951904296875
11971756250.0 1.02459716796875 0.04052734375
12002978125.0 0.806243896484375 -0.537353515625
12034200000.0 0.381561279296875 -0.8880615234375
12065421875.0 -0.2152099609375 -1.00927734375
12096643750.0 -0.84942626953125 -0.6661376953125
12127865625.0 -1.033203125 0.01556396484375
12159087500.0 -0.814727783203125 0.57476806640625
12190309375.0 -0.377044677734375 0.974456787109375
12221531250.0 0.33758544921875 1.0882568359375
12252753125.0 0.97845458984375 0.5828857421875
12283975000.0 1.053955078125 -0.12689208984375
12315196875.0 0.800537109375 -0.676239013671875
12346418750.0 0.28106689453125 -1.09173583984375
12377640625.0 -0.5369873046875 -1.0611572265625
12408862500.0 -1.0330810546875 -0.4208984375
12440084375.0 -1.009033203125 0.2244873046875
12471306250.0 -0.742156982421875 0.73846435546875
12502528125.0 -0.18023681640625 1.119384765625
12533750000.0 0.62255859375 0.9940185546875
12564971875.0 1.04168701171875 0.3638916015625
12596193750.0 1.02911376953125 -0.26385498046875
12627415625.0 0.748565673828125 -0.82818603515625
12658637500.0 0.078857421875 -1.20819091796875
12689859375.0 -0.734466552734375 -0.967041015625
12721081250.0 -1.11798095703125 -0.30535888671875
12752303125.0 -1.09783935546875 0.38201904296875
12783525000.0 -0.68841552734375 1.0274658203125
12814746875.0 0.1654052734375 1.2510986328125
12845968750.0 0.864166259765625 0.81060791015625
12877190625.0 1.11773681640625 0.17205810546875
12908412500.0 1.0557861328125 -0.500244140625
12939634375.0 0.54296875 -1.116943359375
12970856250.0 -0.320068359375 -1.17608642578125
13002078125.0 -0.895263671875 -0.694061279296875
13033300000.0 -1.10552978515625 -0.08740234375
13064521875.0 -1.009033203125 0.59393310546875
13095743750.0 -0.41973876953125 1.15576171875
13126965625.0 0.41064453125 1.1221923828125
13158187500.0 0.94671630859375 0.631622314453125
13189409375.0 1.14813232421875 -0.020263671875
13220631250.0 0.936065673828125 -0.74859619140625
13251853125.0 0.23553466796875 -1.1715087890625
13283075000.0 -0.5072021484375 -1.02001953125
13314296875.0 -0.987701416015625 -0.529541015625
