!Created with skrf (http://scikit-rf.org).
# Hz S RI R 50.0 
!freq ReS11 ImS11
45000000.0 -0.0767822265625 -0.09714889526367188
76221875.0 -0.19680023193359375 -0.0479278564453125
107443750.0 -0.255767822265625 0.1197052001953125
138665625.0 -0.14892578125 0.3291015625
169887500.0 0.1230926513671875 0.4185943603515625
201109375.0 0.422210693359375 0.2822418212890625
232331250.0 0.580047607421875 -0.056854248046875
263553125.0 0.491058349609375 -0.4529876708984375
294775000.0 0.099761962890625 -0.73358154296875
325996875.0 -0.415496826171875 -0.683135986328125
357218750.0 -0.80792236328125 -0.299041748046875
388440625.0 -0.88818359375 0.300048828125
419662500.0 -0.519744873046875 0.86700439453125
450884375.0 0.1717529296875 1.03155517578125
482106250.0 0.79913330078125 0.71563720703125
513328125.0 1.12176513671875 0.0888671875
544550000.0 1.0064697265625 -0.67974853515625
575771875.0 0.3388671875 -1.23944091796875
606993750.0 -0.5528564453125 -1.1805419921875
638215625.0 -1.16748046875 -0.593505859375
669437500.0 -1.34283447265625 0.232666015625
700659375.0 -0.97406005859375 1.09686279296875
731881250.0 -0.0062255859375 1.54620361328125
763103125.0 1.0057373046875 1.15997314453125
794325000.0 1.47137451171875 0.28448486328125
825546875.0 1.37103271484375 -0.65118408203125
856768750.0 0.79754638671875 -1.4029541015625
887990625.0 -0.29095458984375 -1.65185546875
919212500.0 -1.2891845703125 -1.08282470703125
950434375.0 -1.65301513671875 -0.06085205078125
981656250.0 -1.38690185546875 0.94720458984375
1012878125.0 -0.53326416015625 1.6749267578125
1044100000.0 0.6964111328125 1.66668701171875
1075321875.0 1.5772705078125 0.81622314453125
1106543750.0 1.70928955078125 -0.31158447265625
1137765625.0 1.1910400390625 -1.2852783203125
1168987500.0 0.14080810546875 -1.8016357421875
1200209375.0 -1.06231689453125 -1.48895263671875
1231431250.0 -1.7308349609375 -0.45684814453125
1262653125.0 -1.5982666015625 0.68450927734375
1293875000.0 -0.85589599609375 1.493408203125
1325096875.0 0.2259521484375 1.71136474609375
1356318750.0 1.23675537109375 1.2213134765625
1387540625.0 1.74346923828125 0.1912841796875
1418762500.0 1.47369384765625 -0.9517822265625
1449984375.0 0.53253173828125 -1.62896728515625
1481206250.0 -0.5494384765625 -1.56036376953125
1512428125.0 -1.34368896484375 -0.92303466796875
1543650000.0 -1.65899658203125 0.0638427734375
1574871875.0 -1.2772216796875 1.10968017578125
1606093750.0 -0.2755126953125 1.6343994140625
1637315625.0 0.74212646484375 1.404541015625
1668537500.0 1.39837646484375 0.6990966796875
1699759375.0 1.5765380859375 -0.2757568359375
1730981250.0 1.06781005859375 -1.23046875
1762203125.0 0.0440673828125 -1.57373046875
1793425000.0 -0.8563232421875 -1.23004150390625
1824646875.0 -1.3961181640625 -0.51727294921875
1855868750.0 -1.477783203125 0.43182373046875
1887090625.0 -0.87823486328125 1.28717041015625
1918312500.0 0.1162109375 1.48992919921875
1949534375.0 0.92254638671875 1.09185791015625
1980756250.0 1.37744140625 0.37164306640625
2011978125.0 1.3631591796875 -0.53179931640625
2043200000.0 0.7529296875 -1.26348876953125
2074421875.0 -0.15570068359375 -1.43621826171875
2105643750.0 -0.96197509765625 -1.0755615234375
2136865625.0 -1.4501953125 -0.30645751953125
2168087500.0 -1.36041259765625 0.6719970703125
2199309375.0 -0.64166259765625 1.35321044921875
2230531250.0 0.28131103515625 1.43914794921875
2261753125.0 1.0743408203125 1.01678466796875
2292975000.0 1.51763916015625 0.17120361328125
2324196875.0 1.30865478515625 -0.82012939453125
2355418750.0 0.52703857421875 -1.4227294921875
2386640625.0 -0.40423583984375 -1.45166015625
2417862500.0 -1.18267822265625 -1.02685546875
2449084375.0 -1.60791015625 -0.08441162109375
2480306250.0 -1.31427001953125 0.92681884765625
2511528125.0 -0.4954833984375 1.51080322265625
2542750000.0 0.48846435546875 1.5391845703125
2573971875.0 1.37298583984375 0.970947265625
2605193750.0 1.7215576171875 -0.11248779296875
2636415625.0 1.26422119140625 -1.15460205078125
2667637500.0 0.30804443359375 -1.67047119140625
2698859375.0 -0.77069091796875 -1.5379638671875
2730081250.0 -1.5762939453125 -0.74310302734375
2761303125.0 -1.6851806640625 0.38873291015625
2792525000.0 -1.1024169921875 1.30914306640625
2823746875.0 -0.10272216796875 1.73394775390625
2854968750.0 1.01544189453125 1.45928955078125
2886190625.0 1.69580078125 0.4923095703125
2917412500.0 1.603515625 -0.6182861328125
2948634375.0 0.94183349609375 -1.43646240234375
2979856250.0 -0.10809326171875 -1.779541015625
3011078125.0 -1.25164794921875 -1.34503173828125
3042300000.0 -1.77886962890625 -0.2353515625
3073521875.0 -1.511962890625 0.83935546875
3104743750.0 -0.764404296875 1.57244873046875
3135965625.0 0.36260986328125 1.81280517578125
3167187500.0 1.50244140625 1.16729736328125
3198409375.0 1.8189697265625 -0.0745849609375
3229631250.0 1.35198974609375 -1.082763671875
3260853125.0 0.4910888671875 -1.6707763671875
3292075000.0 -0.6551513671875 -1.70166015625
3323296875.0 -1.623291015625 -0.88116455078125
3354518750.0 -1.7342529296875 0.3291015625
3385740625.0 -1.15863037109375 1.234130859375
3416962500.0 -0.23150634765625 1.68560791015625
3448184375.0 0.86328125 1.52490234375
3479406250.0 1.640625 0.64447021484375
3510628125.0 1.64697265625 -0.4962158203125
3541850000.0 1.0023193359375 -1.35906982421875
3573071875.0 -0.0076904296875 -1.68524169921875
3604293750.0 -1.029052734375 -1.33953857421875
3635515625.0 -1.63079833984375 -0.43927001953125
3666737500.0 -1.56463623046875 0.6473388671875
3697959375.0 -0.8267822265625 1.48028564453125
3729181250.0 0.26953125 1.63409423828125
3760403125.0 1.155029296875 1.10009765625
3791625000.0 1.55560302734375 0.2188720703125
3822846875.0 1.40496826171875 -0.76226806640625
3854068750.0 0.621826171875 -1.48443603515625
3885290625.0 -0.42254638671875 -1.48443603515625
3916512500.0 -1.14453125 -0.91229248046875
3947734375.0 -1.4508056640625 -0.1199951171875
3978956250.0 -1.30096435546875 0.78192138671875
4010178125.0 -0.53155517578125 1.45782470703125
4041400000.0 0.47735595703125 1.4185791015625
4072621875.0 1.154541015625 0.8482666015625
4103843750.0 1.44757080078125 0.06231689453125
4135065625.0 1.2696533203125 -0.8486328125
4166287500.0 0.45703125 -1.499755859375
4197509375.0 -0.56085205078125 -1.416748046875
4228731250.0 -1.2508544921875 -0.802734375
4259953125.0 -1.5115966796875 0.072021484375
4291175000.0 -1.1904296875 1.01312255859375
4322396875.0 -0.28985595703125 1.52838134765625
4353618750.0 0.67523193359375 1.35198974609375
4384840625.0 1.32574462890625 0.697998046875
4416062500.0 1.50335693359375 -0.228271484375
4447284375.0 1.056396484375 -1.107421875
4478506250.0 0.17095947265625 -1.49951171875
4509728125.0 -0.73486328125 -1.31011962890625
4540950000.0 -1.39801025390625 -0.6361083984375
4572171875.0 -1.52532958984375 0.362548828125
4603393750.0 -0.97320556640625 1.2154541015625
4634615625.0 -0.0596923828125 1.5399169921875
4665837500.0 0.8731689453125 1.30657958984375
4697059375.0 1.545654296875 0.51446533203125
4728281250.0 1.53143310546875 -0.58575439453125
4759503125.0 0.82354736328125 -1.36993408203125
4790725000.0 -0.14691162109375 -1.574951171875
4821946875.0 -1.08673095703125 -1.1956787109375
4853168750.0 -1.61627197265625 -0.25079345703125
4884390625.0 -1.37969970703125 0.7950439453125
4915612500.0 -0.613525390625 1.4150390625
4946834375.0 0.3310546875 1.51263427734375
4978056250.0 1.208740234375 1.01885986328125
5009278125.0 1.5645751953125 0.038330078125
5040500000.0 1.2314453125 -0.87896728515625
5071721875.0 0.50128173828125 -1.4185791015625
5102943750.0 -0.44879150390625 -1.49932861328125
5134165625.0 -1.3394775390625 -0.90570068359375
5165387500.0 -1.57135009765625 0.1488037109375
5196609375.0 -1.13702392578125 1.01318359375
5227831250.0 -0.3564453125 1.50927734375
5259053125.0 0.6912841796875 1.4940185546875
5290275000.0 1.52679443359375 0.66168212890625
5321496875.0 1.49365234375 -0.43328857421875
5352718750.0 0.92132568359375 -1.15704345703125
5383940625.0 0.09454345703125 -1.50396728515625
5415162500.0 -0.9031982421875 -1.285888671875
5446384375.0 -1.48822021484375 -0.3690185546875
5477606250.0 -1.30120849609375 0.5689697265625
5508828125.0 -0.7318115234375 1.15447998046875
5540050000.0 0.0555419921875 1.40240478515625
5571271875.0 0.9422607421875 1.110107421875
5602493750.0 1.41253662109375 0.2578125
5633715625.0 1.2337646484375 -0.615234375
5664937500.0 0.6480712890625 -1.20562744140625
5696159375.0 -0.199462890625 -1.38653564453125
5727381250.0 -1.0262451171875 -0.97869873046875
5758603125.0 -1.39483642578125 -0.14324951171875
5789825000.0 -1.19512939453125 0.72161865234375
5821046875.0 -0.50506591796875 1.31134033203125
5852268750.0 0.414306640625 1.314697265625
5883490625.0 1.0743408203125 0.77191162109375
5914712500.0 1.30499267578125 0.01824951171875
5945934375.0 1.09765625 -0.77984619140625
5977156250.0 0.35931396484375 -1.3155517578125
6008378125.0 -0.5123291015625 -1.18389892578125
6039600000.0 -1.02508544921875 -0.648681640625
6070821875.0 -1.2265625 -0.00311279296875
6102043750.0 -1.0848388671875 0.76617431640625
6133265625.0 -0.34039306640625 1.34808349609375
6164487500.0 0.567138671875 1.18853759765625
6195709375.0 1.0738525390625 0.629150390625
6226931250.0 1.28277587890625 -0.04473876953125
6258153125.0 1.10498046875 -0.87677001953125
6289375000.0 0.25201416015625 -1.450927734375
6320596875.0 -0.6934814453125 -1.20587158203125
6351818750.0 -1.202392578125 -0.5704345703125
6383040625.0 -1.3564453125 0.2099609375
6414262500.0 -0.99920654296875 1.0611572265625
6445484375.0 -0.0751953125 1.4593505859375
6476706250.0 0.798828125 1.14776611328125
6507928125.0 1.29327392578125 0.4678955078125
6539150000.0 1.34979248046875 -0.39013671875
6570371875.0 0.84088134765625 -1.1474609375
6601593750.0 -0.01922607421875 -1.40673828125
6632815625.0 -0.84393310546875 -1.13763427734375
6664037500.0 -1.4063720703125 -0.417236328125
6695259375.0 -1.3760986328125 0.57080078125
6726481250.0 -0.70928955078125 1.2554931640625
6757703125.0 0.13385009765625 1.40948486328125
6788925000.0 0.9595947265625 1.1312255859375
6820146875.0 1.56439208984375 0.28375244140625
6851368750.0 1.3258056640625 -0.8248291015625
6882590625.0 0.50360107421875 -1.34234619140625
6913812500.0 -0.2952880859375 -1.3582763671875
6945034375.0 -1.07379150390625 -1.021484375
6976256250.0 -1.595947265625 -0.0892333984375
7007478125.0 -1.23626708984375 0.93682861328125
7038700000.0 -0.399658203125 1.34661865234375
7069921875.0 0.3616943359375 1.325927734375
7101143750.0 1.1220703125 0.96844482421875
7132365625.0 1.6021728515625 0.009765625
7163587500.0 1.1583251953125 -1.02545166015625
7194809375.0 0.301025390625 -1.39892578125
7226031250.0 -0.51593017578125 -1.3280029296875
7257253125.0 -1.27099609375 -0.82415771484375
7288475000.0 -1.56048583984375 0.2022705078125
7319696875.0 -1.0299072265625 1.11553955078125
7350918750.0 -0.16094970703125 1.44927978515625
7382140625.0 0.72198486328125 1.278076171875
7413362500.0 1.381591796875 0.57476806640625
7444584375.0 1.41351318359375 -0.4132080078125
7475806250.0 0.8564453125 -1.1492919921875
7507028125.0 0.00274658203125 -1.431884765625
7538250000.0 -0.8931884765625 -1.12335205078125
7569471875.0 -1.33892822265625 -0.3079833984375
7600693750.0 -1.203125 0.5003662109375
7631915625.0 -0.71722412109375 1.09112548828125
7663137500.0 0.08343505859375 1.36431884765625
7694359375.0 0.942779541015625 0.982208251953125
7725581250.0 1.24737548828125 0.17803955078125
7756803125.0 1.08489990234375 -0.501708984375
7788025000.0 0.671142578125 -1.047119140625
7819246875.0 -0.124755859375 -1.3514404296875
7850468750.0 -0.9981689453125 -0.91583251953125
7881690625.0 -1.23516845703125 -0.1009521484375
7912912500.0 -1.05670166015625 0.55853271484375
7944134375.0 -0.603271484375 1.118896484375
7975356250.0 0.278076171875 1.33868408203125
8006578125.0 1.05078125 0.77691650390625
8037800000.0 1.1949462890625 0.01397705078125
8069021875.0 1.0076904296875 -0.61962890625
8100243750.0 0.49658203125 -1.16705322265625
8131465625.0 -0.39288330078125 -1.25665283203125
8162687500.0 -1.0357666015625 -0.68560791015625
8193909375.0 -1.1845703125 0.0118408203125
8225131250.0 -1.01947021484375 0.6837158203125
8256353125.0 -0.41949462890625 1.25311279296875
8287575000.0 0.50689697265625 1.22845458984375
8318796875.0 1.0870361328125 0.634033203125
8350018750.0 1.24896240234375 -0.080078125
8381240625.0 1.0321044921875 -0.843994140625
8412462500.0 0.250244140625 -1.37841796875
8443684375.0 -0.67315673828125 -1.17041015625
8474906250.0 -1.18060302734375 -0.5286865234375
8506128125.0 -1.3009033203125 0.24249267578125
8537350000.0 -0.923095703125 1.05133056640625
8568571875.0 -0.0128173828125 1.3961181640625
8599793750.0 0.8055419921875 1.05242919921875
8631015625.0 1.2467041015625 0.39501953125
8662237500.0 1.287109375 -0.43341064453125
8693459375.0 0.735107421875 -1.18212890625
8724681250.0 -0.1656494140625 -1.33428955078125
8755903125.0 -0.883880615234375 -0.958251953125
8787125000.0 -1.3109130859375 -0.27947998046875
8818346875.0 -1.25244140625 0.62078857421875
8849568750.0 -0.55413818359375 1.2659912109375
8880790625.0 0.303955078125 1.2880859375
8912012500.0 0.986236572265625 0.891815185546875
8943234375.0 1.4051513671875 0.1239013671875
8974456250.0 1.16510009765625 -0.84588623046875
9005678125.0 0.34326171875 -1.31640625
9036900000.0 -0.449951171875 -1.2261962890625
9068121875.0 -1.10638427734375 -0.784423828125
9099343750.0 -1.4444580078125 0.10455322265625
9130565625.0 -0.9769287109375 1.01702880859375
9161787500.0 -0.15087890625 1.285400390625
9193009375.0 0.5595703125 1.1348876953125
9224231250.0 1.18438720703125 0.6539306640625
9255453125.0 1.4017333984375 -0.30023193359375
9286675000.0 0.8056640625 -1.09100341796875
9317896875.0 0.02484130859375 -1.24822998046875
9349118750.0 -0.65985107421875 -1.0714111328125
9380340625.0 -1.26300048828125 -0.50714111328125
9411562500.0 -1.31378173828125 0.48309326171875
9442784375.0 -0.64532470703125 1.122314453125
9474006250.0 0.09375 1.215576171875
9505228125.0 0.769927978515625 0.979888916015625
9536450000.0 1.279541015625 0.308349609375
9567671875.0 1.143798828125 -0.58740234375
9598893750.0 0.52716064453125 -1.07183837890625
9630115625.0 -0.148193359375 -1.16046142578125
9661337500.0 -0.82562255859375 -0.902313232421875
9692559375.0 -1.2431640625 -0.18450927734375
9723781250.0 -1.04296875 0.60772705078125
9755003125.0 -0.48370361328125 1.05511474609375
9786225000.0 0.2032470703125 1.16326904296875
9817446875.0 0.902496337890625 0.8260498046875
9848668750.0 1.20159912109375 0.07373046875
9879890625.0 0.968475341796875 -0.62164306640625
9911112500.0 0.45111083984375 -1.05584716796875
9942334375.0 -0.2738037109375 -1.1622314453125
9973556250.0 -0.95111083984375 -0.736297607421875
10004778125.0 -1.15032958984375 -0.0130615234375
10036000000.0 -0.94464111328125 0.62158203125
10067221875.0 -0.438232421875 1.1025390625
10098443750.0 0.37774658203125 1.1845703125
10129665625.0 1.0076904296875 0.63848876953125
10160887500.0 1.12335205078125 -0.05908203125
10192109375.0 0.91650390625 -0.66845703125
10223331250.0 0.356201171875 -1.15765380859375
10254553125.0 -0.49322509765625 -1.1141357421875
10285775000.0 -0.988861083984375 -0.532257080078125
10316996875.0 -1.06878662109375 0.08062744140625
10348218750.0 -0.900146484375 0.675140380859375
10379440625.0 -0.317626953125 1.18035888671875
10410662500.0 0.53460693359375 1.0858154296875
10441884375.0 0.996826171875 0.519134521484375
10473106250.0 1.1121826171875 -0.08905029296875
10504328125.0 0.94873046875 -0.7628173828125
10535550000.0 0.2332763671875 -1.299560546875
10566771875.0 -0.66497802734375 -1.07666015625
10597993750.0 -1.08477783203125 -0.45562744140625
10629215625.0 -1.17767333984375 0.21160888671875
10660437500.0 -0.885650634765625 0.959686279296875
10691659375.0 -0.00213623046875 1.338623046875
10722881250.0 0.7894287109375 0.949798583984375
10754103125.0 1.1226806640625 0.32073974609375
10785325000.0 1.14080810546875 -0.37127685546875
10816546875.0 0.69805908203125 -1.05731201171875
10847768750.0 -0.1513671875 -1.23138427734375
10878990625.0 -0.808929443359375 -0.841888427734375
10910212500.0 -1.12640380859375 -0.24163818359375
10941434375.0 -1.099365234375 0.48236083984375
10972656250.0 -0.56463623046875 1.09271240234375
11003878125.0 0.2216796875 1.17608642578125
11035100000.0 0.855255126953125 0.82049560546875
11066321875.0 1.225830078125 0.16912841796875
11097543750.0 1.09942626953125 -0.68316650390625
11128765625.0 0.38140869140625 -1.203369140625
11159987500.0 -0.40203857421875 -1.14117431640625
11191209375.0 -1.00579833984375 -0.69970703125
11222431250.0 -1.27587890625 0.10009765625
11253653125.0 -0.85662841796875 0.901824951171875
11284875000.0 -0.11004638671875 1.1295166015625
11316096875.0 0.5167236328125 0.95770263671875
11347318750.0 1.00897216796875 0.49884033203125
11378540625.0 1.11871337890625 -0.276611328125
11409762500.0 0.6322021484375 -0.8641357421875
11440984375.0 0.03179931640625 -0.980712890625
11472206250.0 -0.485626220703125 -0.85064697265625
11503428125.0 -0.958343505859375 -0.453277587890625
11534650000.0 -1.06982421875 0.29400634765625
11565871875.0 -0.600250244140625 0.859100341796875
11597093750.0 -0.01580810546875 0.993804931640625
11628315625.0 0.550384521484375 0.87591552734375
11659537500.0 1.06610107421875 0.3876953125
11690759375.0 1.06475830078125 -0.4415283203125
11721981250.0 0.51300048828125 -0.946075439453125
11753203125.0 -0.1121826171875 -1.03961181640625
11784425000.0 -0.732513427734375 -0.808380126953125
11815646875.0 -1.105224609375 -0.14483642578125
11846868750.0 -0.89019775390625 0.556976318359375
11878090625.0 -0.3883056640625 0.9130859375
11909312500.0 0.1925048828125 0.987396240234375
11940534375.0 0.78607177734375 0.692779541015625
11971756250.0 1.02813720703125 0.03460693359375
12002978125.0 0.805908203125 -0.543304443359375
12034200000.0 0.378326416015625 -0.89166259765625
12065421875.0 -0.2215576171875 -1.0126953125
12096643750.0 -0.8553466796875 -0.661865234375
12127865625.0 -1.035888671875 0.021240234375
12159087500.0 -0.814697265625 0.581634521484375
12190309375.0 -0.374359130859375 0.980255126953125
12221531250.0 0.3468017578125 1.08978271484375
12252753125.0 0.985748291015625 0.57696533203125
12283975000.0 1.05517578125 -0.134033203125
12315196875.0 0.79949951171875 -0.683349609375
12346418750.0 0.2763671875 -1.096435546875
12377640625.0 -0.54571533203125 -1.05926513671875
12408862500.0 -1.0369873046875 -0.41510009765625
12440084375.0 -1.00860595703125 0.22918701171875
12471306250.0 -0.740325927734375 0.74176025390625
12502528125.0 -0.17333984375 1.126708984375
12533750000.0 0.6285400390625 0.993133544921875
12564971875.0 1.044677734375 0.35919189453125
12596193750.0 1.031982421875 -0.27032470703125
12627415625.0 0.74658203125 -0.836151123046875
12658637500.0 0.07244873046875 -1.21337890625
12689859375.0 -0.742828369140625 -0.9647216796875
12721081250.0 -1.1220703125 -0.30023193359375
12752303125.0 -1.100830078125 0.39080810546875
12783525000.0 -0.6822509765625 1.0369873046875
12814746875.0 0.174072265625 1.25262451171875
12845968750.0 0.868621826171875 0.8082275390625
12877190625.0 1.12225341796875 0.16497802734375
12908412500.0 1.05755615234375 -0.5103759765625
12939634375.0 0.537109375 -1.1234130859375
12970856250.0 -0.32891845703125 -1.17596435546875
13002078125.0 -0.899139404296875 -0.690826416015625
13033300000.0 -1.1092529296875 -0.081787109375
13064521875.0 -1.008544921875 0.60064697265625
13095743750.0 -0.4149169921875 1.16162109375
13126965625.0 0.41839599609375 1.12066650390625
13158187500.0 0.952545166015625 0.627838134765625
13189409375.0 1.15234375 -0.02886962890625
13220631250.0 0.935211181640625 -0.757965087890625
13251853125.0 0.22637939453125 -1.17816162109375
13283075000.0 -0.51715087890625 -1.0203857421875
13314296875.0 -0.992156982421875 -0.525360107421875
13345518750.0 -1.1378173828125 0.1844482421875
13376740625.0 -0.74908447265625 0.86553955078125
