!Created with skrf (http://scikit-rf.org).
# Hz S RI R 50.0 
!freq ReS11 ImS11
45000000.0 -0.07715606689453125 -0.09688568115234375
76221875.0 -0.1966552734375 -0.04732513427734375
107443750.0 -0.2548980712890625 0.12017822265625
138665625.0 -0.1479339599609375 0.329010009765625
169887500.0 0.12420654296875 0.41766357421875
201109375.0 0.4222869873046875 0.28070068359375
232331250.0 0.579132080078125 -0.058135986328125
263553125.0 0.4893341064453125 -0.453277587890625
294775000.0 0.097900390625 -0.733154296875
325996875.0 -0.416412353515625 -0.6807861328125
357218750.0 -0.807159423828125 -0.2965087890625
388440625.0 -0.886077880859375 0.3018798828125
419662500.0 -0.5166015625 0.867462158203125
450884375.0 0.17425537109375 1.029052734375
482106250.0 0.79962158203125 0.71234130859375
513328125.0 1.1201171875 0.08612060546875
544550000.0 1.0035400390625 -0.6810302734375
575771875.0 0.3353271484375 -1.239013671875
606993750.0 -0.55523681640625 -1.17694091796875
638215625.0 -1.1666259765625 -0.5894775390625
669437500.0 -1.34002685546875 0.23504638671875
700659375.0 -0.97039794921875 1.09722900390625
731881250.0 -0.0023193359375 1.5433349609375
763103125.0 1.006591796875 1.1552734375
794325000.0 1.46923828125 0.280517578125
825546875.0 1.36688232421875 -0.65264892578125
856768750.0 0.79351806640625 -1.402099609375
887990625.0 -0.2945556640625 -1.6484375
919212500.0 -1.2896728515625 -1.07757568359375
950434375.0 -1.6494140625 -0.05718994140625
981656250.0 -1.38232421875 0.94757080078125
1012878125.0 -0.52813720703125 1.67266845703125
1044100000.0 0.69866943359375 1.66131591796875
1075321875.0 1.575439453125 0.81072998046875
1106543750.0 1.70465087890625 -0.3145751953125
1137765625.0 1.18572998046875 -1.28570556640625
1168987500.0 0.13665771484375 -1.79693603515625
1200209375.0 -1.0635986328125 -1.48284912109375
1231431250.0 -1.728271484375 -0.45196533203125
1262653125.0 -1.59368896484375 0.6861572265625
1293875000.0 -0.8507080078125 1.4925537109375
1325096875.0 0.22967529296875 1.706787109375
1356318750.0 1.23577880859375 1.21551513671875
1387540625.0 1.73974609375 0.18743896484375
1418762500.0 1.468505859375 -0.952880859375
1449984375.0 0.52801513671875 -1.62640380859375
1481206250.0 -0.5513916015625 -1.55560302734375
1512428125.0 -1.34283447265625 -0.91851806640625
1543650000.0 -1.655517578125 0.06658935546875
1574871875.0 -1.27239990234375 1.10968017578125
1606093750.0 -0.27105712890625 1.6317138671875
1637315625.0 0.7432861328125 1.3995361328125
1668537500.0 1.39630126953125 0.6944580078125
1699759375.0 1.57305908203125 -0.27874755859375
1730981250.0 1.0628662109375 -1.230224609375
1762203125.0 0.04052734375 -1.570556640625
1793425000.0 -0.85650634765625 -1.225341796875
1824646875.0 -1.39361572265625 -0.51373291015625
1855868750.0 -1.47314453125 0.4326171875
1887090625.0 -0.87420654296875 1.28533935546875
1918312500.0 0.1182861328125 1.4869384765625
1949534375.0 0.92218017578125 1.0887451171875
1980756250.0 1.37542724609375 0.3687744140625
2011978125.0 1.35906982421875 -0.53314208984375
2043200000.0 0.74853515625 -1.26190185546875
2074421875.0 -0.15814208984375 -1.43255615234375
2105643750.0 -0.96038818359375 -1.07135009765625
2136865625.0 -1.447509765625 -0.30389404296875
2168087500.0 -1.35601806640625 0.671875
2199309375.0 -0.63800048828125 1.3514404296875
2230531250.0 0.28302001953125 1.43585205078125
2261753125.0 1.07342529296875 1.0130615234375
2292975000.0 1.51416015625 0.1689453125
2324196875.0 1.3045654296875 -0.8194580078125
2355418750.0 0.5240478515625 -1.420166015625
2386640625.0 -0.40533447265625 -1.44873046875
2417862500.0 -1.18011474609375 -1.02325439453125
2449084375.0 -1.604248046875 -0.0831298828125
2480306250.0 -1.31060791015625 0.9273681640625
2511528125.0 -0.4923095703125 1.5081787109375
2542750000.0 0.49017333984375 1.53546142578125
2573971875.0 1.37127685546875 0.9664306640625
2605193750.0 1.7171630859375 -0.113525390625
2636415625.0 1.26019287109375 -1.1534423828125
2667637500.0 0.304931640625 -1.666748046875
2698859375.0 -0.77020263671875 -1.5328369140625
2730081250.0 -1.5745849609375 -0.73876953125
2761303125.0 -1.68084716796875 0.38970947265625
2792525000.0 -1.09796142578125 1.30780029296875
2823746875.0 -0.10076904296875 1.72894287109375
2854968750.0 1.01318359375 1.45404052734375
2886190625.0 1.69140625 0.490234375
2917412500.0 1.59881591796875 -0.61932373046875
2948634375.0 0.937744140625 -1.43450927734375
2979856250.0 -0.1094970703125 -1.77606201171875
3011078125.0 -1.24810791015625 -1.3406982421875
3042300000.0 -1.77392578125 -0.23358154296875
3073521875.0 -1.5076904296875 0.83953857421875
3104743750.0 -0.761474609375 1.568603515625
3135965625.0 0.36376953125 1.80828857421875
3167187500.0 1.5006103515625 1.1627197265625
3198409375.0 1.81390380859375 -0.075927734375
3229631250.0 1.34722900390625 -1.08197021484375
3260853125.0 0.487060546875 -1.66876220703125
3292075000.0 -0.65728759765625 -1.69732666015625
3323296875.0 -1.62005615234375 -0.87762451171875
3354518750.0 -1.7296142578125 0.33026123046875
3385740625.0 -1.154296875 1.2320556640625
3416962500.0 -0.2301025390625 1.6805419921875
3448184375.0 0.86077880859375 1.52032470703125
3479406250.0 1.63519287109375 0.6429443359375
3510628125.0 1.64276123046875 -0.49517822265625
3541850000.0 0.99884033203125 -1.35479736328125
3573071875.0 -0.0089111328125 -1.68182373046875
3604293750.0 -1.02886962890625 -1.33642578125
3635515625.0 -1.627197265625 -0.437744140625
3666737500.0 -1.561279296875 0.6483154296875
3697959375.0 -0.82379150390625 1.4764404296875
3729181250.0 0.26934814453125 1.6295166015625
3760403125.0 1.15301513671875 1.096923828125
3791625000.0 1.5517578125 0.21673583984375
3822846875.0 1.4005126953125 -0.7620849609375
3854068750.0 0.61932373046875 -1.4805908203125
3885290625.0 -0.422119140625 -1.4805908203125
3916512500.0 -1.14190673828125 -0.91015625
3947734375.0 -1.4466552734375 -0.118896484375
3978956250.0 -1.296875 0.78021240234375
4010178125.0 -0.5313720703125 1.45233154296875
4041400000.0 0.4735107421875 1.414306640625
4072621875.0 1.15155029296875 0.84674072265625
4103843750.0 1.444091796875 0.06195068359375
4135065625.0 1.26666259765625 -0.84661865234375
4166287500.0 0.45745849609375 -1.49456787109375
4197509375.0 -0.5579833984375 -1.41424560546875
4228731250.0 -1.24755859375 -0.8017578125
4259953125.0 -1.5086669921875 0.0712890625
4291175000.0 -1.187255859375 1.0098876953125
4322396875.0 -0.2882080078125 1.52557373046875
4353618750.0 0.67291259765625 1.34869384765625
4384840625.0 1.3211669921875 0.69573974609375
4416062500.0 1.4993896484375 -0.22796630859375
4447284375.0 1.0540771484375 -1.10430908203125
4478506250.0 0.17156982421875 -1.49468994140625
4509728125.0 -0.733642578125 -1.30706787109375
4540950000.0 -1.39447021484375 -0.63433837890625
4572171875.0 -1.521240234375 0.359619140625
4603393750.0 -0.9715576171875 1.21160888671875
4634615625.0 -0.0609130859375 1.5364990234375
4665837500.0 0.8717041015625 1.3038330078125
4697059375.0 1.54156494140625 0.51422119140625
4728281250.0 1.52789306640625 -0.58197021484375
4759503125.0 0.82220458984375 -1.36767578125
4790725000.0 -0.1453857421875 -1.57183837890625
4821946875.0 -1.083984375 -1.1932373046875
4853168750.0 -1.61297607421875 -0.2501220703125
4884390625.0 -1.3773193359375 0.7943115234375
4915612500.0 -0.612060546875 1.4130859375
4946834375.0 0.3292236328125 1.50787353515625
4978056250.0 1.2056884765625 1.01580810546875
5009278125.0 1.56109619140625 0.03887939453125
5040500000.0 1.2283935546875 -0.87548828125
5071721875.0 0.50054931640625 -1.41534423828125
5102943750.0 -0.4471435546875 -1.496337890625
5134165625.0 -1.33563232421875 -0.9044189453125
5165387500.0 -1.56732177734375 0.1466064453125
5196609375.0 -1.13568115234375 1.01043701171875
5227831250.0 -0.35662841796875 1.5064697265625
5259053125.0 0.6873779296875 1.4910888671875
5290275000.0 1.5206298828125 0.6622314453125
5321496875.0 1.49212646484375 -0.43145751953125
5352718750.0 0.9205322265625 -1.15289306640625
5383940625.0 0.09613037109375 -1.499755859375
5415162500.0 -0.90167236328125 -1.282470703125
5446384375.0 -1.48431396484375 -0.36920166015625
5477606250.0 -1.2982177734375 0.56622314453125
5508828125.0 -0.73052978515625 1.1519775390625
5540050000.0 0.0548095703125 1.3984375
5571271875.0 0.9395751953125 1.10809326171875
5602493750.0 1.40716552734375 0.259765625
5633715625.0 1.231689453125 -0.61334228515625
5664937500.0 0.64825439453125 -1.20098876953125
5696159375.0 -0.1966552734375 -1.38311767578125
5727381250.0 -1.02301025390625 -0.97833251953125
5758603125.0 -1.39227294921875 -0.1441650390625
5789825000.0 -1.1942138671875 0.71875
5821046875.0 -0.50567626953125 1.30780029296875
5852268750.0 0.411865234375 1.3128662109375
5883490625.0 1.07147216796875 0.77197265625
5914712500.0 1.3028564453125 0.0184326171875
5945934375.0 1.09552001953125 -0.77630615234375
5977156250.0 0.36083984375 -1.3123779296875
6008378125.0 -0.50933837890625 -1.181884765625
6039600000.0 -1.02154541015625 -0.648681640625
6070821875.0 -1.2236328125 -0.0037841796875
6102043750.0 -1.0823974609375 0.76263427734375
6133265625.0 -0.341796875 1.3433837890625
6164487500.0 0.5638427734375 1.18707275390625
6195709375.0 1.0712890625 0.62939453125
6226931250.0 1.27972412109375 -0.04315185546875
6258153125.0 1.10418701171875 -0.87139892578125
6289375000.0 0.2554931640625 -1.44598388671875
6320596875.0 -0.68902587890625 -1.2056884765625
6351818750.0 -1.19964599609375 -0.57183837890625
6383040625.0 -1.3551025390625 0.20770263671875
6414262500.0 -0.9998779296875 1.0574951171875
6445484375.0 -0.07708740234375 1.4573974609375
6476706250.0 0.79547119140625 1.1475830078125
6507928125.0 1.290283203125 0.46923828125
6539150000.0 1.34771728515625 -0.3876953125
6570371875.0 0.84051513671875 -1.14453125
6601593750.0 -0.01873779296875 -1.4056396484375
6632815625.0 -0.83917236328125 -1.1353759765625
6664037500.0 -1.40087890625 -0.41949462890625
6695259375.0 -1.373046875 0.56561279296875
6726481250.0 -0.70977783203125 1.2523193359375
6757703125.0 0.1317138671875 1.40728759765625
6788925000.0 0.954833984375 1.1304931640625
6820146875.0 1.55950927734375 0.28851318359375
6851368750.0 1.3260498046875 -0.81976318359375
6882590625.0 0.5067138671875 -1.339111328125
6913812500.0 -0.29278564453125 -1.35650634765625
6945034375.0 -1.07037353515625 -1.0211181640625
6976256250.0 -1.5919189453125 -0.09344482421875
7007478125.0 -1.23590087890625 0.9322509765625
7038700000.0 -0.40228271484375 1.343505859375
7069921875.0 0.35931396484375 1.32373046875
7101143750.0 1.11798095703125 0.96875
7132365625.0 1.5994873046875 0.01470947265625
7163587500.0 1.15728759765625 -1.02191162109375
7194809375.0 0.30255126953125 -1.3961181640625
7226031250.0 -0.51318359375 -1.32586669921875
7257253125.0 -1.26593017578125 -0.8248291015625
7288475000.0 -1.55755615234375 0.1982421875
7319696875.0 -1.02911376953125 1.10992431640625
7350918750.0 -0.1640625 1.44482421875
7382140625.0 0.71533203125 1.27716064453125
7413362500.0 1.3756103515625 0.57623291015625
7444584375.0 1.41058349609375 -0.40618896484375
7475806250.0 0.8583984375 -1.14385986328125
7507028125.0 0.005126953125 -1.43048095703125
7538250000.0 -0.88726806640625 -1.1236572265625
7569471875.0 -1.33709716796875 -0.3104248046875
7600693750.0 -1.2025146484375 0.49884033203125
7631915625.0 -0.7166748046875 1.0869140625
7663137500.0 0.0811767578125 1.35906982421875
7694359375.0 0.94140625 0.980621337890625
7725581250.0 1.2432861328125 0.17999267578125
7756803125.0 1.08258056640625 -0.49993896484375
7788025000.0 0.669921875 -1.0435791015625
7819246875.0 -0.1201171875 -1.34649658203125
7850468750.0 -0.993621826171875 -0.91607666015625
7881690625.0 -1.2315673828125 -0.1043701171875
7912912500.0 -1.0548095703125 0.55633544921875
7944134375.0 -0.60498046875 1.1136474609375
7975356250.0 0.27178955078125 1.3367919921875
8006578125.0 1.04705810546875 0.779541015625
8037800000.0 1.19403076171875 0.01519775390625
8069021875.0 1.007080078125 -0.6187744140625
8100243750.0 0.50042724609375 -1.1617431640625
8131465625.0 -0.3883056640625 -1.2548828125
8162687500.0 -1.03277587890625 -0.68597412109375
8193909375.0 -1.180419921875 0.0098876953125
8225131250.0 -1.017822265625 0.67877197265625
8256353125.0 -0.42083740234375 1.2498779296875
8287575000.0 0.50201416015625 1.22662353515625
8318796875.0 1.083984375 0.63494873046875
8350018750.0 1.24688720703125 -0.07696533203125
8381240625.0 1.031005859375 -0.84002685546875
8412462500.0 0.2540283203125 -1.37255859375
8443684375.0 -0.67022705078125 -1.1693115234375
8474906250.0 -1.17572021484375 -0.5316162109375
8506128125.0 -1.2974853515625 0.23504638671875
8537350000.0 -0.9248046875 1.046875
8568571875.0 -0.01495361328125 1.39471435546875
8599793750.0 0.8040771484375 1.0535888671875
8631015625.0 1.24298095703125 0.39874267578125
8662237500.0 1.28607177734375 -0.42962646484375
8693459375.0 0.73583984375 -1.17742919921875
8724681250.0 -0.1629638671875 -1.33135986328125
8755903125.0 -0.8812255859375 -0.957763671875
8787125000.0 -1.30255126953125 -0.28216552734375
8818346875.0 -1.25054931640625 0.6136474609375
8849568750.0 -0.55560302734375 1.260986328125
8880790625.0 0.29779052734375 1.2835693359375
8912012500.0 0.98065185546875 0.893402099609375
8943234375.0 1.3984375 0.12945556640625
8974456250.0 1.1671142578125 -0.83856201171875
9005678125.0 0.34918212890625 -1.3128662109375
9036900000.0 -0.44537353515625 -1.22540283203125
9068121875.0 -1.10284423828125 -0.78570556640625
9099343750.0 -1.44140625 0.09832763671875
9130565625.0 -0.98004150390625 1.01153564453125
9161787500.0 -0.153564453125 1.28485107421875
9193009375.0 0.5560302734375 1.13421630859375
9224231250.0 1.17901611328125 0.65447998046875
9255453125.0 1.4005126953125 -0.297607421875
9286675000.0 0.80548095703125 -1.08544921875
9317896875.0 0.02679443359375 -1.246826171875
9349118750.0 -0.6546630859375 -1.07012939453125
9380340625.0 -1.25885009765625 -0.50927734375
9411562500.0 -1.3115234375 0.47747802734375
9442784375.0 -0.64788818359375 1.1162109375
9474006250.0 0.08868408203125 1.210205078125
9505228125.0 0.766082763671875 0.9805908203125
9536450000.0 1.2728271484375 0.31427001953125
9567671875.0 1.1441650390625 -0.58026123046875
9598893750.0 0.52984619140625 -1.06915283203125
9630115625.0 -0.14398193359375 -1.15875244140625
9661337500.0 -0.818603515625 -0.90283203125
9692559375.0 -1.24078369140625 -0.1898193359375
9723781250.0 -1.04376220703125 0.60400390625
9755003125.0 -0.48565673828125 1.05078125
9786225000.0 0.2003173828125 1.16033935546875
9817446875.0 0.896209716796875 0.827972412109375
9848668750.0 1.19927978515625 0.07733154296875
9879890625.0 0.968658447265625 -0.61688232421875
9911112500.0 0.45208740234375 -1.05169677734375
9942334375.0 -0.267822265625 -1.15899658203125
9973556250.0 -0.94287109375 -0.737884521484375
10004778125.0 -1.1461181640625 -0.01861572265625
10036000000.0 -0.944000244140625 0.61572265625
10067221875.0 -0.44207763671875 1.09588623046875
10098443750.0 0.36883544921875 1.18084716796875
10129665625.0 1.00250244140625 0.643798828125
10160887500.0 1.12103271484375 -0.0509033203125
10192109375.0 0.918609619140625 -0.663818359375
10223331250.0 0.361328125 -1.1541748046875
10254553125.0 -0.48773193359375 -1.11444091796875
10285775000.0 -0.986541748046875 -0.535186767578125
10316996875.0 -1.06622314453125 0.076416015625
10348218750.0 -0.9007568359375 0.671875
10379440625.0 -0.32232666015625 1.1746826171875
10410662500.0 0.527099609375 1.0859375
10441884375.0 0.99285888671875 0.520843505859375
10473106250.0 1.1083984375 -0.0836181640625
10504328125.0 0.950408935546875 -0.7562255859375
10535550000.0 0.23907470703125 -1.2957763671875
10566771875.0 -0.65625 -1.07720947265625
10597993750.0 -1.08001708984375 -0.458984375
10629215625.0 -1.176025390625 0.20654296875
10660437500.0 -0.88824462890625 0.951934814453125
10691659375.0 -0.01104736328125 1.336181640625
10722881250.0 0.786956787109375 0.953094482421875
10754103125.0 1.11932373046875 0.324462890625
10785325000.0 1.13922119140625 -0.36822509765625
10816546875.0 0.70037841796875 -1.0477294921875
10847768750.0 -0.14678955078125 -1.23046875
10878990625.0 -0.803253173828125 -0.843963623046875
10910212500.0 -1.123291015625 -0.24462890625
10941434375.0 -1.097412109375 0.4765625
10972656250.0 -0.56658935546875 1.0870361328125
11003878125.0 0.21783447265625 1.17437744140625
11035100000.0 0.8487548828125 0.821990966796875
11066321875.0 1.2213134765625 0.173583984375
11097543750.0 1.09881591796875 -0.67694091796875
11128765625.0 0.38665771484375 -1.19708251953125
11159987500.0 -0.397216796875 -1.14044189453125
11191209375.0 -0.9986572265625 -0.702606201171875
11222431250.0 -1.27252197265625 0.09259033203125
11253653125.0 -0.858978271484375 0.895355224609375
11284875000.0 -0.114013671875 1.1290283203125
11316096875.0 0.510589599609375 0.95623779296875
11347318750.0 1.00347900390625 0.50225830078125
11378540625.0 1.11669921875 -0.2694091796875
11409762500.0 0.6353759765625 -0.859619140625
11440984375.0 0.035736083984375 -0.978973388671875
11472206250.0 -0.480316162109375 -0.8509521484375
11503428125.0 -0.9532470703125 -0.456329345703125
11534650000.0 -1.06939697265625 0.287841796875
11565871875.0 -0.602203369140625 0.8538818359375
11597093750.0 -0.018341064453125 0.99066162109375
11628315625.0 0.544830322265625 0.87481689453125
11659537500.0 1.06011962890625 0.39227294921875
11690759375.0 1.06524658203125 -0.43414306640625
11721981250.0 0.51690673828125 -0.940277099609375
11753203125.0 -0.105712890625 -1.03668212890625
11784425000.0 -0.725067138671875 -0.80908203125
11815646875.0 -1.1021728515625 -0.149169921875
11846868750.0 -0.8922119140625 0.552398681640625
11878090625.0 -0.391082763671875 0.909088134765625
11909312500.0 0.187591552734375 0.984832763671875
11940534375.0 0.780731201171875 0.69549560546875
11971756250.0 1.02587890625 0.038818359375
12002978125.0 0.8062744140625 -0.537872314453125
12034200000.0 0.380859375 -0.890625
12065421875.0 -0.2159423828125 -1.0098876953125
12096643750.0 -0.846099853515625 -0.665740966796875
12127865625.0 -1.03350830078125 0.01556396484375
12159087500.0 -0.815155029296875 0.57562255859375
12190309375.0 -0.376983642578125 0.976043701171875
12221531250.0 0.33941650390625 1.0887451171875
12252753125.0 0.980926513671875 0.58282470703125
12283975000.0 1.05462646484375 -0.12750244140625
12315196875.0 0.800201416015625 -0.67584228515625
12346418750.0 0.2808837890625 -1.09295654296875
12377640625.0 -0.53985595703125 -1.061767578125
12408862500.0 -1.03411865234375 -0.4202880859375
12440084375.0 -1.0084228515625 0.22509765625
12471306250.0 -0.7423095703125 0.7376708984375
12502528125.0 -0.1790771484375 1.1202392578125
12533750000.0 0.621307373046875 0.9945068359375
12564971875.0 1.04193115234375 0.36358642578125
12596193750.0 1.02978515625 -0.26446533203125
12627415625.0 0.7484130859375 -0.828216552734375
12658637500.0 0.08001708984375 -1.207275390625
12689859375.0 -0.73443603515625 -0.9661865234375
12721081250.0 -1.1168212890625 -0.305908203125
12752303125.0 -1.09765625 0.38134765625
12783525000.0 -0.6871337890625 1.02764892578125
12814746875.0 0.1632080078125 1.25067138671875
12845968750.0 0.86468505859375 0.81170654296875
12877190625.0 1.1177978515625 0.171630859375
12908412500.0 1.05609130859375 -0.503173828125
12939634375.0 0.54278564453125 -1.1181640625
12970856250.0 -0.3201904296875 -1.1761474609375
13002078125.0 -0.89495849609375 -0.693695068359375
13033300000.0 -1.1068115234375 -0.0855712890625
13064521875.0 -1.008544921875 0.5921630859375
13095743750.0 -0.42071533203125 1.15399169921875
13126965625.0 0.40863037109375 1.121337890625
13158187500.0 0.947723388671875 0.632904052734375
13189409375.0 1.14935302734375 -0.0223388671875
13220631250.0 0.93707275390625 -0.74932861328125
13251853125.0 0.234130859375 -1.17327880859375
13283075000.0 -0.50775146484375 -1.02020263671875
13314296875.0 -0.988555908203125 -0.528900146484375
13345518750.0 -1.13604736328125 0.17742919921875
13376740625.0 -0.753875732421875 0.858642578125
