!Created with skrf (http://scikit-rf.org).
# Hz S RI R 50.0 
!freq ReS11 ImS11
45000000.0 -0.07717132568359375 -0.096649169921875
76221875.0 -0.196533203125 -0.047271728515625
107443750.0 -0.25506591796875 0.1201019287109375
138665625.0 -0.147796630859375 0.328704833984375
169887500.0 0.12384033203125 0.4174957275390625
201109375.0 0.4220733642578125 0.28070068359375
232331250.0 0.57891845703125 -0.057891845703125
263553125.0 0.4893798828125 -0.4531097412109375
294775000.0 0.09808349609375 -0.7327880859375
325996875.0 -0.416107177734375 -0.680419921875
357218750.0 -0.806915283203125 -0.296478271484375
388440625.0 -0.88580322265625 0.30133056640625
419662500.0 -0.51666259765625 0.866973876953125
450884375.0 0.17388916015625 1.02874755859375
482106250.0 0.79901123046875 0.7122802734375
513328125.0 1.1195068359375 0.0863037109375
544550000.0 1.00335693359375 -0.68048095703125
575771875.0 0.33563232421875 -1.2384033203125
606993750.0 -0.55474853515625 -1.17694091796875
638215625.0 -1.1661376953125 -0.5894775390625
669437500.0 -1.33978271484375 0.23443603515625
700659375.0 -0.97052001953125 1.096923828125
731881250.0 -0.0025634765625 1.5428466796875
763103125.0 1.0062255859375 1.1551513671875
794325000.0 1.4688720703125 0.2808837890625
825546875.0 1.36669921875 -0.652099609375
856768750.0 0.79345703125 -1.40142822265625
887990625.0 -0.294189453125 -1.648193359375
919212500.0 -1.28900146484375 -1.0777587890625
950434375.0 -1.64837646484375 -0.0574951171875
981656250.0 -1.3814697265625 0.9466552734375
1012878125.0 -0.52825927734375 1.671875
1044100000.0 0.6986083984375 1.66162109375
1075321875.0 1.574951171875 0.81097412109375
1106543750.0 1.70404052734375 -0.31353759765625
1137765625.0 1.18560791015625 -1.28509521484375
1168987500.0 0.13714599609375 -1.79638671875
1200209375.0 -1.06231689453125 -1.4827880859375
1231431250.0 -1.727294921875 -0.4521484375
1262653125.0 -1.5933837890625 0.6854248046875
1293875000.0 -0.8505859375 1.49176025390625
1325096875.0 0.229248046875 1.70599365234375
1356318750.0 1.23565673828125 1.21563720703125
1387540625.0 1.7392578125 0.18798828125
1418762500.0 1.46844482421875 -0.95245361328125
1449984375.0 0.52813720703125 -1.62548828125
1481206250.0 -0.5504150390625 -1.55517578125
1512428125.0 -1.34222412109375 -0.91851806640625
1543650000.0 -1.6552734375 0.06646728515625
1574871875.0 -1.27239990234375 1.1094970703125
1606093750.0 -0.27166748046875 1.631103515625
1637315625.0 0.74273681640625 1.39935302734375
1668537500.0 1.3958740234375 0.69500732421875
1699759375.0 1.57257080078125 -0.2783203125
1730981250.0 1.06280517578125 -1.22918701171875
1762203125.0 0.0411376953125 -1.56964111328125
1793425000.0 -0.85638427734375 -1.2254638671875
1824646875.0 -1.39312744140625 -0.514404296875
1855868750.0 -1.472900390625 0.43292236328125
1887090625.0 -0.874267578125 1.28558349609375
1918312500.0 0.1175537109375 1.4859619140625
1949534375.0 0.92156982421875 1.08843994140625
1980756250.0 1.3748779296875 0.369140625
2011978125.0 1.358642578125 -0.53204345703125
2043200000.0 0.7490234375 -1.26123046875
2074421875.0 -0.15771484375 -1.43231201171875
2105643750.0 -0.96026611328125 -1.07147216796875
2136865625.0 -1.4468994140625 -0.30401611328125
2168087500.0 -1.355712890625 0.67144775390625
2199309375.0 -0.6380615234375 1.35076904296875
2230531250.0 0.28240966796875 1.435302734375
2261753125.0 1.0728759765625 1.01287841796875
2292975000.0 1.51385498046875 0.169677734375
2324196875.0 1.30426025390625 -0.81884765625
2355418750.0 0.5245361328125 -1.41937255859375
2386640625.0 -0.40496826171875 -1.4482421875
2417862500.0 -1.181396484375 -1.02374267578125
2449084375.0 -1.60479736328125 -0.08331298828125
2480306250.0 -1.31005859375 0.9259033203125
2511528125.0 -0.49261474609375 1.5072021484375
2542750000.0 0.48895263671875 1.53472900390625
2573971875.0 1.3699951171875 0.966796875
2605193750.0 1.71612548828125 -0.11346435546875
2636415625.0 1.2606201171875 -1.1524658203125
2667637500.0 0.3057861328125 -1.66607666015625
2698859375.0 -0.7689208984375 -1.53289794921875
2730081250.0 -1.57269287109375 -0.73956298828125
2761303125.0 -1.68048095703125 0.38897705078125
2792525000.0 -1.0982666015625 1.30670166015625
2823746875.0 -0.10162353515625 1.72869873046875
2854968750.0 1.01153564453125 1.45355224609375
2886190625.0 1.69097900390625 0.48992919921875
2917412500.0 1.59930419921875 -0.61810302734375
2948634375.0 0.9384765625 -1.43218994140625
2979856250.0 -0.1080322265625 -1.77471923828125
3011078125.0 -1.24853515625 -1.341064453125
3042300000.0 -1.77349853515625 -0.23388671875
3073521875.0 -1.507080078125 0.837890625
3104743750.0 -0.76220703125 1.5687255859375
3135965625.0 0.36181640625 1.80792236328125
3167187500.0 1.498046875 1.163330078125
3198409375.0 1.81463623046875 -0.07598876953125
3229631250.0 1.34722900390625 -1.08056640625
3260853125.0 0.48773193359375 -1.667724609375
3292075000.0 -0.65460205078125 -1.69647216796875
3323296875.0 -1.61871337890625 -0.8780517578125
3354518750.0 -1.72857666015625 0.3292236328125
3385740625.0 -1.15399169921875 1.23046875
3416962500.0 -0.23052978515625 1.6807861328125
3448184375.0 0.859130859375 1.5203857421875
3479406250.0 1.6348876953125 0.6436767578125
3510628125.0 1.64300537109375 -0.496337890625
3541850000.0 0.9990234375 -1.3544921875
3573071875.0 -0.0086669921875 -1.68182373046875
3604293750.0 -1.02886962890625 -1.3358154296875
3635515625.0 -1.626708984375 -0.4373779296875
3666737500.0 -1.560791015625 0.647216796875
3697959375.0 -0.824462890625 1.474609375
3729181250.0 0.2679443359375 1.62872314453125
3760403125.0 1.1527099609375 1.09710693359375
3791625000.0 1.55029296875 0.2181396484375
3822846875.0 1.4005126953125 -0.76104736328125
3854068750.0 0.61956787109375 -1.4796142578125
3885290625.0 -0.42138671875 -1.47943115234375
3916512500.0 -1.1416015625 -0.90985107421875
3947734375.0 -1.44573974609375 -0.11944580078125
3978956250.0 -1.2960205078125 0.77850341796875
4010178125.0 -0.5306396484375 1.4527587890625
4041400000.0 0.473876953125 1.41455078125
4072621875.0 1.15118408203125 0.84649658203125
4103843750.0 1.44384765625 0.06256103515625
4135065625.0 1.2666015625 -0.84503173828125
4166287500.0 0.457275390625 -1.494873046875
4197509375.0 -0.55816650390625 -1.413818359375
4228731250.0 -1.24700927734375 -0.8021240234375
4259953125.0 -1.50848388671875 0.07122802734375
4291175000.0 -1.18780517578125 1.00909423828125
4322396875.0 -0.28948974609375 1.52484130859375
4353618750.0 0.6729736328125 1.34930419921875
4384840625.0 1.3214111328125 0.69549560546875
4416062500.0 1.49920654296875 -0.2275390625
4447284375.0 1.0540771484375 -1.1029052734375
4478506250.0 0.1712646484375 -1.494873046875
4509728125.0 -0.732177734375 -1.30621337890625
4540950000.0 -1.39251708984375 -0.6351318359375
4572171875.0 -1.52081298828125 0.35986328125
4603393750.0 -0.97149658203125 1.21270751953125
4634615625.0 -0.061767578125 1.5355224609375
4665837500.0 0.86932373046875 1.3037109375
4697059375.0 1.541748046875 0.51446533203125
4728281250.0 1.52734375 -0.581298828125
4759503125.0 0.8218994140625 -1.3673095703125
4790725000.0 -0.1456298828125 -1.57177734375
4821946875.0 -1.082275390625 -1.19256591796875
4853168750.0 -1.6119384765625 -0.25091552734375
4884390625.0 -1.376953125 0.793212890625
4915612500.0 -0.61224365234375 1.41131591796875
4946834375.0 0.32843017578125 1.50762939453125
4978056250.0 1.20489501953125 1.016357421875
5009278125.0 1.560791015625 0.03936767578125
5040500000.0 1.22796630859375 -0.87548828125
5071721875.0 0.5008544921875 -1.4132080078125
5102943750.0 -0.44635009765625 -1.4952392578125
5134165625.0 -1.334716796875 -0.90472412109375
5165387500.0 -1.5670166015625 0.14581298828125
5196609375.0 -1.135498046875 1.00836181640625
5227831250.0 -0.35723876953125 1.5054931640625
5259053125.0 0.68719482421875 1.49102783203125
5290275000.0 1.5205078125 0.6624755859375
5321496875.0 1.49176025390625 -0.431396484375
5352718750.0 0.9205322265625 -1.1539306640625
5383940625.0 0.09625244140625 -1.49920654296875
5415162500.0 -0.9007568359375 -1.2828369140625
5446384375.0 -1.484619140625 -0.36932373046875
5477606250.0 -1.2978515625 0.565185546875
5508828125.0 -0.73077392578125 1.14990234375
5540050000.0 0.05328369140625 1.39666748046875
5571271875.0 0.93865966796875 1.10809326171875
5602493750.0 1.4072265625 0.260009765625
5633715625.0 1.23114013671875 -0.61199951171875
5664937500.0 0.64788818359375 -1.201171875
5696159375.0 -0.19573974609375 -1.38262939453125
5727381250.0 -1.02130126953125 -0.97821044921875
5758603125.0 -1.39117431640625 -0.14471435546875
5789825000.0 -1.1939697265625 0.71746826171875
5821046875.0 -0.50555419921875 1.3070068359375
5852268750.0 0.4100341796875 1.3121337890625
5883490625.0 1.07049560546875 0.7716064453125
5914712500.0 1.30255126953125 0.01904296875
5945934375.0 1.09613037109375 -0.7755126953125
5977156250.0 0.3614501953125 -1.3111572265625
6008378125.0 -0.50909423828125 -1.181884765625
6039600000.0 -1.02130126953125 -0.6488037109375
6070821875.0 -1.223388671875 -0.004638671875
6102043750.0 -1.08258056640625 0.762451171875
6133265625.0 -0.341552734375 1.34381103515625
6164487500.0 0.5628662109375 1.18731689453125
6195709375.0 1.0704345703125 0.6298828125
6226931250.0 1.27874755859375 -0.0419921875
6258153125.0 1.1038818359375 -0.8707275390625
6289375000.0 0.25604248046875 -1.446533203125
6320596875.0 -0.6883544921875 -1.2060546875
6351818750.0 -1.20001220703125 -0.57183837890625
6383040625.0 -1.35357666015625 0.205810546875
6414262500.0 -0.9996337890625 1.05645751953125
6445484375.0 -0.0782470703125 1.45721435546875
6476706250.0 0.79400634765625 1.1473388671875
6507928125.0 1.29052734375 0.46990966796875
6539150000.0 1.34735107421875 -0.38677978515625
6570371875.0 0.84088134765625 -1.1435546875
6601593750.0 -0.017578125 -1.4044189453125
6632815625.0 -0.83935546875 -1.13519287109375
6664037500.0 -1.40045166015625 -0.42022705078125
6695259375.0 -1.37359619140625 0.56536865234375
6726481250.0 -0.7100830078125 1.25079345703125
6757703125.0 0.13031005859375 1.40582275390625
6788925000.0 0.95465087890625 1.13006591796875
6820146875.0 1.55908203125 0.28839111328125
6851368750.0 1.32623291015625 -0.82012939453125
6882590625.0 0.50616455078125 -1.33782958984375
6913812500.0 -0.29193115234375 -1.35614013671875
6945034375.0 -1.0699462890625 -1.021240234375
6976256250.0 -1.59234619140625 -0.09283447265625
7007478125.0 -1.23626708984375 0.933349609375
7038700000.0 -0.40185546875 1.3441162109375
7069921875.0 0.357177734375 1.32220458984375
7101143750.0 1.11712646484375 0.96881103515625
7132365625.0 1.5985107421875 0.013427734375
7163587500.0 1.15740966796875 -1.02008056640625
7194809375.0 0.30194091796875 -1.39605712890625
7226031250.0 -0.5103759765625 -1.32586669921875
7257253125.0 -1.26690673828125 -0.82330322265625
7288475000.0 -1.55731201171875 0.19793701171875
7319696875.0 -1.02886962890625 1.1080322265625
7350918750.0 -0.165283203125 1.4443359375
7382140625.0 0.71490478515625 1.27593994140625
7413362500.0 1.3748779296875 0.57635498046875
7444584375.0 1.4112548828125 -0.40557861328125
7475806250.0 0.857177734375 -1.142578125
7507028125.0 0.0054931640625 -1.43048095703125
7538250000.0 -0.8875732421875 -1.12396240234375
7569471875.0 -1.3358154296875 -0.31036376953125
7600693750.0 -1.20062255859375 0.49554443359375
7631915625.0 -0.71685791015625 1.08514404296875
7663137500.0 0.08172607421875 1.35845947265625
7694359375.0 0.939697265625 0.979949951171875
7725581250.0 1.2427978515625 0.1812744140625
7756803125.0 1.08203125 -0.49969482421875
7788025000.0 0.66912841796875 -1.04345703125
7819246875.0 -0.1199951171875 -1.34613037109375
7850468750.0 -0.990447998046875 -0.915924072265625
7881690625.0 -1.2325439453125 -0.105712890625
7912912500.0 -1.0540771484375 0.55517578125
7944134375.0 -0.604736328125 1.114013671875
7975356250.0 0.27099609375 1.33636474609375
8006578125.0 1.0458984375 0.77923583984375
8037800000.0 1.193115234375 0.0164794921875
8069021875.0 1.0062255859375 -0.6173095703125
8100243750.0 0.4993896484375 -1.16168212890625
8131465625.0 -0.38690185546875 -1.25384521484375
8162687500.0 -1.033203125 -0.68572998046875
8193909375.0 -1.1805419921875 0.00897216796875
8225131250.0 -1.0164794921875 0.67779541015625
8256353125.0 -0.42242431640625 1.24652099609375
8287575000.0 0.50048828125 1.2261962890625
8318796875.0 1.08056640625 0.63623046875
8350018750.0 1.2452392578125 -0.07647705078125
8381240625.0 1.0308837890625 -0.83648681640625
8412462500.0 0.2545166015625 -1.37353515625
8443684375.0 -0.6688232421875 -1.16986083984375
8474906250.0 -1.17718505859375 -0.53167724609375
8506128125.0 -1.2977294921875 0.23651123046875
8537350000.0 -0.9248046875 1.0457763671875
8568571875.0 -0.016357421875 1.3946533203125
8599793750.0 0.80194091796875 1.05322265625
8631015625.0 1.24176025390625 0.39874267578125
8662237500.0 1.2862548828125 -0.43084716796875
8693459375.0 0.73529052734375 -1.17742919921875
8724681250.0 -0.16473388671875 -1.33319091796875
8755903125.0 -0.879486083984375 -0.957366943359375
8787125000.0 -1.3043212890625 -0.28082275390625
8818346875.0 -1.25042724609375 0.615478515625
8849568750.0 -0.55743408203125 1.25946044921875
8880790625.0 0.298583984375 1.28643798828125
8912012500.0 0.97845458984375 0.892303466796875
8943234375.0 1.39703369140625 0.13018798828125
8974456250.0 1.16644287109375 -0.83868408203125
9005678125.0 0.34912109375 -1.3135986328125
9036900000.0 -0.446044921875 -1.22528076171875
9068121875.0 -1.1011962890625 -0.78680419921875
9099343750.0 -1.4404296875 0.09771728515625
9130565625.0 -0.9791259765625 1.0113525390625
9161787500.0 -0.15386962890625 1.28302001953125
9193009375.0 0.5560302734375 1.13446044921875
9224231250.0 1.17864990234375 0.6551513671875
9255453125.0 1.4005126953125 -0.29669189453125
9286675000.0 0.8065185546875 -1.0870361328125
9317896875.0 0.027099609375 -1.24664306640625
9349118750.0 -0.65289306640625 -1.06964111328125
9380340625.0 -1.258056640625 -0.50970458984375
9411562500.0 -1.31109619140625 0.47601318359375
9442784375.0 -0.64801025390625 1.11572265625
9474006250.0 0.0887451171875 1.21112060546875
9505228125.0 0.7625732421875 0.980133056640625
9536450000.0 1.273681640625 0.31378173828125
9567671875.0 1.1441650390625 -0.58013916015625
9598893750.0 0.530029296875 -1.0684814453125
9630115625.0 -0.14227294921875 -1.15625
9661337500.0 -0.8179931640625 -0.90203857421875
9692559375.0 -1.238037109375 -0.191650390625
9723781250.0 -1.0439453125 0.60394287109375
9755003125.0 -0.486328125 1.050048828125
9786225000.0 0.19830322265625 1.15875244140625
9817446875.0 0.894287109375 0.82855224609375
9848668750.0 1.1973876953125 0.07867431640625
9879890625.0 0.968597412109375 -0.616790771484375
9911112500.0 0.452392578125 -1.05133056640625
9942334375.0 -0.26678466796875 -1.15826416015625
9973556250.0 -0.9403076171875 -0.73858642578125
10004778125.0 -1.1463623046875 -0.01751708984375
10036000000.0 -0.9442138671875 0.614898681640625
10067221875.0 -0.443115234375 1.09600830078125
10098443750.0 0.3699951171875 1.18206787109375
10129665625.0 1.00152587890625 0.6441650390625
10160887500.0 1.12164306640625 -0.05169677734375
10192109375.0 0.91796875 -0.66424560546875
10223331250.0 0.36199951171875 -1.15234375
10254553125.0 -0.48712158203125 -1.11376953125
10285775000.0 -0.985870361328125 -0.535614013671875
10316996875.0 -1.06781005859375 0.0777587890625
10348218750.0 -0.899993896484375 0.6688232421875
10379440625.0 -0.3228759765625 1.1751708984375
10410662500.0 0.52783203125 1.0853271484375
10441884375.0 0.99200439453125 0.521026611328125
10473106250.0 1.10809326171875 -0.08447265625
10504328125.0 0.9488525390625 -0.7569580078125
10535550000.0 0.2410888671875 -1.293701171875
10566771875.0 -0.65582275390625 -1.0767822265625
10597993750.0 -1.0804443359375 -0.4588623046875
10629215625.0 -1.17547607421875 0.20556640625
10660437500.0 -0.888580322265625 0.951934814453125
10691659375.0 -0.01104736328125 1.33526611328125
10722881250.0 0.78460693359375 0.95263671875
10754103125.0 1.12030029296875 0.32476806640625
10785325000.0 1.1390380859375 -0.3665771484375
10816546875.0 0.70050048828125 -1.04913330078125
10847768750.0 -0.14593505859375 -1.2298583984375
10878990625.0 -0.802764892578125 -0.84381103515625
10910212500.0 -1.12176513671875 -0.24603271484375
10941434375.0 -1.09722900390625 0.47698974609375
10972656250.0 -0.56842041015625 1.083984375
11003878125.0 0.2171630859375 1.17559814453125
11035100000.0 0.846893310546875 0.8218994140625
11066321875.0 1.22076416015625 0.17498779296875
11097543750.0 1.09844970703125 -0.6744384765625
11128765625.0 0.3863525390625 -1.19873046875
11159987500.0 -0.39630126953125 -1.13958740234375
11191209375.0 -0.998809814453125 -0.702362060546875
11222431250.0 -1.27215576171875 0.0916748046875
11253653125.0 -0.85931396484375 0.894073486328125
11284875000.0 -0.11431884765625 1.1270751953125
11316096875.0 0.510833740234375 0.955718994140625
11347318750.0 1.00323486328125 0.50274658203125
11378540625.0 1.11688232421875 -0.270263671875
11409762500.0 0.6348876953125 -0.86029052734375
11440984375.0 0.03546142578125 -0.979034423828125
11472206250.0 -0.481658935546875 -0.849822998046875
11503428125.0 -0.95159912109375 -0.4571533203125
11534650000.0 -1.0684814453125 0.28729248046875
11565871875.0 -0.6026611328125 0.85443115234375
11597093750.0 -0.01788330078125 0.992462158203125
11628315625.0 0.546478271484375 0.875213623046875
11659537500.0 1.0601806640625 0.3919677734375
11690759375.0 1.06488037109375 -0.43292236328125
11721981250.0 0.517913818359375 -0.9405517578125
11753203125.0 -0.10491943359375 -1.036865234375
11784425000.0 -0.72357177734375 -0.809661865234375
11815646875.0 -1.101318359375 -0.15093994140625
11846868750.0 -0.89202880859375 0.55108642578125
11878090625.0 -0.392059326171875 0.907470703125
11909312500.0 0.186920166015625 0.984375
11940534375.0 0.78082275390625 0.695526123046875
11971756250.0 1.02490234375 0.03948974609375
12002978125.0 0.806488037109375 -0.538116455078125
12034200000.0 0.3826904296875 -0.888427734375
12065421875.0 -0.21484375 -1.00970458984375
12096643750.0 -0.845916748046875 -0.666473388671875
12127865625.0 -1.03375244140625 0.01617431640625
12159087500.0 -0.8145751953125 0.5753173828125
12190309375.0 -0.37786865234375 0.9747314453125
12221531250.0 0.3365478515625 1.0875244140625
12252753125.0 0.979095458984375 0.582763671875
12283975000.0 1.054443359375 -0.127197265625
12315196875.0 0.80029296875 -0.67633056640625
12346418750.0 0.28118896484375 -1.09149169921875
12377640625.0 -0.537841796875 -1.06085205078125
12408862500.0 -1.03387451171875 -0.4205322265625
12440084375.0 -1.00811767578125 0.22467041015625
12471306250.0 -0.741729736328125 0.737701416015625
12502528125.0 -0.17938232421875 1.12103271484375
12533750000.0 0.62109375 0.993927001953125
12564971875.0 1.04144287109375 0.36419677734375
12596193750.0 1.029052734375 -0.2640380859375
12627415625.0 0.748046875 -0.82867431640625
12658637500.0 0.08026123046875 -1.20751953125
12689859375.0 -0.736572265625 -0.96649169921875
12721081250.0 -1.11663818359375 -0.3057861328125
12752303125.0 -1.09674072265625 0.37982177734375
12783525000.0 -0.68890380859375 1.0277099609375
12814746875.0 0.16351318359375 1.24951171875
12845968750.0 0.863555908203125 0.81195068359375
12877190625.0 1.11785888671875 0.172119140625
12908412500.0 1.05535888671875 -0.50079345703125
12939634375.0 0.5433349609375 -1.11749267578125
12970856250.0 -0.32135009765625 -1.1754150390625
13002078125.0 -0.893890380859375 -0.69354248046875
13033300000.0 -1.10711669921875 -0.0869140625
13064521875.0 -1.0091552734375 0.59381103515625
13095743750.0 -0.42132568359375 1.15380859375
13126965625.0 0.40997314453125 1.12091064453125
13158187500.0 0.946929931640625 0.631500244140625
13189409375.0 1.14874267578125 -0.0218505859375
13220631250.0 0.936920166015625 -0.748199462890625
13251853125.0 0.235107421875 -1.1722412109375
13283075000.0 -0.5076904296875 -1.01971435546875
13314296875.0 -0.98895263671875 -0.529876708984375
13345518750.0 -1.13409423828125 0.17584228515625
13376740625.0 -0.75335693359375 0.858062744140625
