!Created with skrf (http://scikit-rf.org).
# Hz S RI R 50.0 
!freq ReS11 ImS11
45000000.0 -0.07687759399414062 -0.09672927856445312
76221875.0 -0.1962432861328125 -0.047607421875
107443750.0 -0.254913330078125 0.1195068359375
138665625.0 -0.148223876953125 0.3282318115234375
169887500.0 0.1232147216796875 0.4173583984375
201109375.0 0.421478271484375 0.280975341796875
232331250.0 0.578521728515625 -0.057403564453125
263553125.0 0.489349365234375 -0.452178955078125
294775000.0 0.098907470703125 -0.73193359375
325996875.0 -0.41455078125 -0.6802978515625
357218750.0 -0.8052978515625 -0.29693603515625
388440625.0 -0.885009765625 0.29998779296875
419662500.0 -0.517120361328125 0.865509033203125
450884375.0 0.17254638671875 1.02777099609375
482106250.0 0.797515869140625 0.71246337890625
513328125.0 1.11834716796875 0.087646484375
544550000.0 1.00299072265625 -0.67864990234375
575771875.0 0.33673095703125 -1.23675537109375
606993750.0 -0.5531005859375 -1.176513671875
638215625.0 -1.16455078125 -0.5902099609375
669437500.0 -1.338623046875 0.23297119140625
700659375.0 -0.97039794921875 1.09503173828125
731881250.0 -0.00439453125 1.54150390625
763103125.0 1.0042724609375 1.155029296875
794325000.0 1.4671630859375 0.28179931640625
825546875.0 1.36627197265625 -0.650390625
856768750.0 0.79437255859375 -1.398681640625
887990625.0 -0.29119873046875 -1.646240234375
919212500.0 -1.2857666015625 -1.07769775390625
950434375.0 -1.646240234375 -0.0599365234375
981656250.0 -1.38104248046875 0.94390869140625
1012878125.0 -0.52960205078125 1.66900634765625
1044100000.0 0.6949462890625 1.66009521484375
1075321875.0 1.572021484375 0.81170654296875
1106543750.0 1.70269775390625 -0.311279296875
1137765625.0 1.18585205078125 -1.28179931640625
1168987500.0 0.13861083984375 -1.79437255859375
1200209375.0 -1.05950927734375 -1.48162841796875
1231431250.0 -1.724365234375 -0.45361328125
1262653125.0 -1.59246826171875 0.68304443359375
1293875000.0 -0.8515625 1.48944091796875
1325096875.0 0.227294921875 1.70501708984375
1356318750.0 1.23321533203125 1.2158203125
1387540625.0 1.7371826171875 0.1893310546875
1418762500.0 1.467529296875 -0.94927978515625
1449984375.0 0.52935791015625 -1.62310791015625
1481206250.0 -0.54840087890625 -1.553955078125
1512428125.0 -1.33984375 -0.9189453125
1543650000.0 -1.653564453125 0.06427001953125
1574871875.0 -1.272216796875 1.10638427734375
1606093750.0 -0.2733154296875 1.62921142578125
1637315625.0 0.74041748046875 1.39910888671875
1668537500.0 1.39337158203125 0.69586181640625
1699759375.0 1.571044921875 -0.27618408203125
1730981250.0 1.0634765625 -1.22772216796875
1762203125.0 0.04296875 -1.56805419921875
1793425000.0 -0.85406494140625 -1.22491455078125
1824646875.0 -1.3914794921875 -0.514892578125
1855868750.0 -1.47247314453125 0.431640625
1887090625.0 -0.8741455078125 1.28326416015625
1918312500.0 0.11651611328125 1.48468017578125
1949534375.0 0.91949462890625 1.08770751953125
1980756250.0 1.372802734375 0.37005615234375
2011978125.0 1.3577880859375 -0.52960205078125
2043200000.0 0.749267578125 -1.25933837890625
2074421875.0 -0.15618896484375 -1.431396484375
2105643750.0 -0.9583740234375 -1.0714111328125
2136865625.0 -1.44549560546875 -0.304931640625
2168087500.0 -1.35565185546875 0.669677734375
2199309375.0 -0.63873291015625 1.349365234375
2230531250.0 0.28106689453125 1.434326171875
2261753125.0 1.07080078125 1.01336669921875
2292975000.0 1.5123291015625 0.17047119140625
2324196875.0 1.30401611328125 -0.81744384765625
2355418750.0 0.52484130859375 -1.41802978515625
2386640625.0 -0.40325927734375 -1.4468994140625
2417862500.0 -1.1785888671875 -1.02276611328125
2449084375.0 -1.60211181640625 -0.084716796875
2480306250.0 -1.30938720703125 0.922607421875
2511528125.0 -0.49420166015625 1.5047607421875
2542750000.0 0.487060546875 1.534423828125
2573971875.0 1.368408203125 0.9666748046875
2605193750.0 1.71435546875 -0.111572265625
2636415625.0 1.25946044921875 -1.1500244140625
2667637500.0 0.3076171875 -1.66363525390625
2698859375.0 -0.76739501953125 -1.53216552734375
2730081250.0 -1.57049560546875 -0.7398681640625
2761303125.0 -1.6776123046875 0.38568115234375
2792525000.0 -1.09796142578125 1.30364990234375
2823746875.0 -0.10321044921875 1.72589111328125
2854968750.0 1.0091552734375 1.45343017578125
2886190625.0 1.68817138671875 0.4918212890625
2917412500.0 1.5972900390625 -0.61627197265625
2948634375.0 0.93804931640625 -1.43115234375
2979856250.0 -0.10614013671875 -1.77252197265625
3011078125.0 -1.2457275390625 -1.3409423828125
3042300000.0 -1.77081298828125 -0.23553466796875
3073521875.0 -1.5057373046875 0.83465576171875
3104743750.0 -0.76251220703125 1.56622314453125
3135965625.0 0.3599853515625 1.8052978515625
3167187500.0 1.49591064453125 1.1630859375
3198409375.0 1.8126220703125 -0.07470703125
3229631250.0 1.3466796875 -1.07818603515625
3260853125.0 0.48944091796875 -1.66497802734375
3292075000.0 -0.6524658203125 -1.69439697265625
3323296875.0 -1.6170654296875 -0.87896728515625
3354518750.0 -1.72772216796875 0.3275146484375
3385740625.0 -1.15472412109375 1.2296142578125
3416962500.0 -0.23223876953125 1.6768798828125
3448184375.0 0.8570556640625 1.51904296875
3479406250.0 1.6319580078125 0.6441650390625
3510628125.0 1.64129638671875 -0.492919921875
3541850000.0 0.99920654296875 -1.3524169921875
3573071875.0 -0.0059814453125 -1.677978515625
3604293750.0 -1.02471923828125 -1.33551025390625
3635515625.0 -1.6251220703125 -0.43792724609375
3666737500.0 -1.5587158203125 0.644287109375
3697959375.0 -0.82415771484375 1.47259521484375
3729181250.0 0.26702880859375 1.62762451171875
3760403125.0 1.149658203125 1.09686279296875
3791625000.0 1.5487060546875 0.21875
3822846875.0 1.39935302734375 -0.7584228515625
3854068750.0 0.61981201171875 -1.47747802734375
3885290625.0 -0.41986083984375 -1.47906494140625
3916512500.0 -1.13897705078125 -0.91015625
3947734375.0 -1.44512939453125 -0.12030029296875
3978956250.0 -1.29541015625 0.77679443359375
4010178125.0 -0.53143310546875 1.45098876953125
4041400000.0 0.4720458984375 1.41357421875
4072621875.0 1.1495361328125 0.8466796875
4103843750.0 1.44232177734375 0.06396484375
4135065625.0 1.2662353515625 -0.8441162109375
4166287500.0 0.45843505859375 -1.492919921875
4197509375.0 -0.55474853515625 -1.41241455078125
4228731250.0 -1.2442626953125 -0.8016357421875
4259953125.0 -1.50537109375 0.06927490234375
4291175000.0 -1.18695068359375 1.0078125
4322396875.0 -0.289306640625 1.52410888671875
4353618750.0 0.6717529296875 1.34796142578125
4384840625.0 1.3192138671875 0.69683837890625
4416062500.0 1.498291015625 -0.22607421875
4447284375.0 1.05413818359375 -1.1014404296875
4478506250.0 0.17230224609375 -1.4932861328125
4509728125.0 -0.73040771484375 -1.30560302734375
4540950000.0 -1.39141845703125 -0.63580322265625
4572171875.0 -1.5201416015625 0.3582763671875
4603393750.0 -0.9716796875 1.210693359375
4634615625.0 -0.06195068359375 1.53460693359375
4665837500.0 0.86749267578125 1.30255126953125
4697059375.0 1.53900146484375 0.5150146484375
4728281250.0 1.5269775390625 -0.5814208984375
4759503125.0 0.822509765625 -1.36395263671875
4790725000.0 -0.14385986328125 -1.56951904296875
4821946875.0 -1.08026123046875 -1.19256591796875
4853168750.0 -1.60955810546875 -0.2515869140625
4884390625.0 -1.3763427734375 0.7919921875
4915612500.0 -0.61346435546875 1.41015625
4946834375.0 0.32745361328125 1.507080078125
4978056250.0 1.20294189453125 1.01611328125
5009278125.0 1.5596923828125 0.04034423828125
5040500000.0 1.22735595703125 -0.87359619140625
5071721875.0 0.501220703125 -1.41241455078125
5102943750.0 -0.445068359375 -1.4947509765625
5134165625.0 -1.33416748046875 -0.90472412109375
5165387500.0 -1.5648193359375 0.14459228515625
5196609375.0 -1.13421630859375 1.0059814453125
5227831250.0 -0.35772705078125 1.50396728515625
5259053125.0 0.68658447265625 1.49017333984375
5290275000.0 1.51971435546875 0.66229248046875
5321496875.0 1.4906005859375 -0.430419921875
5352718750.0 0.9200439453125 -1.1510009765625
5383940625.0 0.09783935546875 -1.49737548828125
5415162500.0 -0.89862060546875 -1.28192138671875
5446384375.0 -1.4813232421875 -0.37103271484375
5477606250.0 -1.2974853515625 0.56494140625
5508828125.0 -0.7308349609375 1.14910888671875
5540050000.0 0.0528564453125 1.3966064453125
5571271875.0 0.93701171875 1.10784912109375
5602493750.0 1.40740966796875 0.25982666015625
5633715625.0 1.23101806640625 -0.611328125
5664937500.0 0.647216796875 -1.19989013671875
5696159375.0 -0.1959228515625 -1.3814697265625
5727381250.0 -1.01953125 -0.97760009765625
5758603125.0 -1.3892822265625 -0.1455078125
5789825000.0 -1.192626953125 0.71649169921875
5821046875.0 -0.506103515625 1.3046875
5852268750.0 0.410400390625 1.3111572265625
5883490625.0 1.06976318359375 0.7713623046875
5914712500.0 1.30059814453125 0.02044677734375
5945934375.0 1.09503173828125 -0.7738037109375
5977156250.0 0.3612060546875 -1.3099365234375
6008378125.0 -0.50830078125 -1.18115234375
6039600000.0 -1.019775390625 -0.6488037109375
6070821875.0 -1.22259521484375 -0.0045166015625
6102043750.0 -1.08221435546875 0.76019287109375
6133265625.0 -0.3426513671875 1.34149169921875
6164487500.0 0.56195068359375 1.18646240234375
6195709375.0 1.0693359375 0.62945556640625
6226931250.0 1.2779541015625 -0.04193115234375
6258153125.0 1.10321044921875 -0.86962890625
6289375000.0 0.2568359375 -1.44366455078125
6320596875.0 -0.68768310546875 -1.2047119140625
6351818750.0 -1.197265625 -0.5721435546875
6383040625.0 -1.35333251953125 0.20703125
6414262500.0 -0.9990234375 1.05523681640625
6445484375.0 -0.07879638671875 1.45489501953125
6476706250.0 0.79534912109375 1.14691162109375
6507928125.0 1.28973388671875 0.469482421875
6539150000.0 1.345703125 -0.3857421875
6570371875.0 0.840576171875 -1.1429443359375
6601593750.0 -0.016845703125 -1.40228271484375
6632815625.0 -0.83819580078125 -1.1348876953125
6664037500.0 -1.39971923828125 -0.41986083984375
6695259375.0 -1.3719482421875 0.56475830078125
6726481250.0 -0.70941162109375 1.25006103515625
6757703125.0 0.12969970703125 1.4053955078125
6788925000.0 0.95263671875 1.129150390625
6820146875.0 1.55853271484375 0.28778076171875
6851368750.0 1.32470703125 -0.81732177734375
6882590625.0 0.5059814453125 -1.33709716796875
6913812500.0 -0.2908935546875 -1.3543701171875
6945034375.0 -1.0673828125 -1.02081298828125
6976256250.0 -1.5904541015625 -0.0933837890625
7007478125.0 -1.2344970703125 0.93060302734375
7038700000.0 -0.40289306640625 1.34124755859375
7069921875.0 0.35662841796875 1.32037353515625
7101143750.0 1.11639404296875 0.967041015625
7132365625.0 1.59869384765625 0.013916015625
7163587500.0 1.1563720703125 -1.0184326171875
7194809375.0 0.3023681640625 -1.39544677734375
7226031250.0 -0.50823974609375 -1.3232421875
7257253125.0 -1.265625 -0.82330322265625
7288475000.0 -1.55633544921875 0.19677734375
7319696875.0 -1.02862548828125 1.1077880859375
7350918750.0 -0.1654052734375 1.44134521484375
7382140625.0 0.71417236328125 1.27508544921875
7413362500.0 1.37274169921875 0.57574462890625
7444584375.0 1.410400390625 -0.40692138671875
7475806250.0 0.8575439453125 -1.140380859375
7507028125.0 0.00750732421875 -1.4266357421875
7538250000.0 -0.88818359375 -1.12274169921875
7569471875.0 -1.33367919921875 -0.31182861328125
7600693750.0 -1.20074462890625 0.49658203125
7631915625.0 -0.71722412109375 1.08331298828125
7663137500.0 0.07794189453125 1.35589599609375
7694359375.0 0.93804931640625 0.980682373046875
7725581250.0 1.2418212890625 0.18011474609375
7756803125.0 1.08148193359375 -0.49786376953125
7788025000.0 0.6708984375 -1.0435791015625
7819246875.0 -0.11981201171875 -1.34552001953125
7850468750.0 -0.990020751953125 -0.916229248046875
7881690625.0 -1.23095703125 -0.10504150390625
7912912500.0 -1.0531005859375 0.55377197265625
7944134375.0 -0.60479736328125 1.11181640625
7975356250.0 0.270751953125 1.33349609375
8006578125.0 1.04278564453125 0.7796630859375
8037800000.0 1.19134521484375 0.017578125
8069021875.0 1.00628662109375 -0.61663818359375
8100243750.0 0.5009765625 -1.15960693359375
8131465625.0 -0.38623046875 -1.25189208984375
8162687500.0 -1.02978515625 -0.68511962890625
8193909375.0 -1.179931640625 0.00848388671875
8225131250.0 -1.0179443359375 0.6778564453125
8256353125.0 -0.42193603515625 1.24652099609375
8287575000.0 0.499755859375 1.22479248046875
8318796875.0 1.080322265625 0.63525390625
8350018750.0 1.242431640625 -0.073486328125
8381240625.0 1.0302734375 -0.8382568359375
8412462500.0 0.25567626953125 -1.37030029296875
8443684375.0 -0.66815185546875 -1.1690673828125
8474906250.0 -1.172607421875 -0.53289794921875
8506128125.0 -1.29620361328125 0.23516845703125
8537350000.0 -0.92333984375 1.04376220703125
8568571875.0 -0.0159912109375 1.3936767578125
8599793750.0 0.7998046875 1.05218505859375
8631015625.0 1.23834228515625 0.39892578125
8662237500.0 1.28448486328125 -0.4281005859375
8693459375.0 0.73675537109375 -1.1763916015625
8724681250.0 -0.1629638671875 -1.33056640625
8755903125.0 -0.8765869140625 -0.95654296875
8787125000.0 -1.30181884765625 -0.28265380859375
8818346875.0 -1.25006103515625 0.6146240234375
8849568750.0 -0.5565185546875 1.2576904296875
8880790625.0 0.2977294921875 1.28424072265625
8912012500.0 0.980682373046875 0.89202880859375
8943234375.0 1.39727783203125 0.13067626953125
8974456250.0 1.1658935546875 -0.83953857421875
9005678125.0 0.347900390625 -1.31268310546875
9036900000.0 -0.44403076171875 -1.2239990234375
9068121875.0 -1.099609375 -0.7852783203125
9099343750.0 -1.4385986328125 0.095458984375
9130565625.0 -0.97869873046875 1.0107421875
9161787500.0 -0.154541015625 1.28228759765625
9193009375.0 0.553466796875 1.13299560546875
9224231250.0 1.17767333984375 0.6552734375
9255453125.0 1.3985595703125 -0.29559326171875
9286675000.0 0.80682373046875 -1.0830078125
9317896875.0 0.0281982421875 -1.244140625
9349118750.0 -0.65216064453125 -1.06842041015625
9380340625.0 -1.25726318359375 -0.5093994140625
9411562500.0 -1.30950927734375 0.4749755859375
9442784375.0 -0.6478271484375 1.11590576171875
9474006250.0 0.08648681640625 1.208740234375
9505228125.0 0.763214111328125 0.97930908203125
9536450000.0 1.2724609375 0.31390380859375
9567671875.0 1.1431884765625 -0.5797119140625
9598893750.0 0.5291748046875 -1.067626953125
9630115625.0 -0.14276123046875 -1.15557861328125
9661337500.0 -0.817047119140625 -0.901947021484375
9692559375.0 -1.238525390625 -0.189697265625
9723781250.0 -1.04205322265625 0.60162353515625
9755003125.0 -0.486328125 1.04840087890625
9786225000.0 0.1982421875 1.15838623046875
9817446875.0 0.894073486328125 0.827392578125
9848668750.0 1.1988525390625 0.0762939453125
9879890625.0 0.967681884765625 -0.614959716796875
9911112500.0 0.45233154296875 -1.0504150390625
9942334375.0 -0.26702880859375 -1.15728759765625
9973556250.0 -0.942413330078125 -0.7371826171875
10004778125.0 -1.14520263671875 -0.02020263671875
10036000000.0 -0.94403076171875 0.615966796875
10067221875.0 -0.44244384765625 1.0950927734375
10098443750.0 0.36834716796875 1.17938232421875
10129665625.0 1.0010986328125 0.64239501953125
10160887500.0 1.11920166015625 -0.05120849609375
10192109375.0 0.916656494140625 -0.663604736328125
10223331250.0 0.36151123046875 -1.15087890625
10254553125.0 -0.4847412109375 -1.113037109375
10285775000.0 -0.983795166015625 -0.5357666015625
10316996875.0 -1.0657958984375 0.075927734375
10348218750.0 -0.899200439453125 0.669586181640625
10379440625.0 -0.322998046875 1.17474365234375
10410662500.0 0.52581787109375 1.0848388671875
10441884375.0 0.9913330078125 0.521484375
10473106250.0 1.1075439453125 -0.08355712890625
10504328125.0 0.9490966796875 -0.7568359375
10535550000.0 0.2384033203125 -1.2935791015625
10566771875.0 -0.6572265625 -1.076904296875
10597993750.0 -1.07965087890625 -0.45880126953125
10629215625.0 -1.1739501953125 0.20562744140625
10660437500.0 -0.8875732421875 0.950439453125
10691659375.0 -0.01123046875 1.3338623046875
10722881250.0 0.78369140625 0.952056884765625
10754103125.0 1.118408203125 0.32366943359375
10785325000.0 1.138916015625 -0.367919921875
10816546875.0 0.70074462890625 -1.0472412109375
10847768750.0 -0.14471435546875 -1.228515625
10878990625.0 -0.8018798828125 -0.84307861328125
10910212500.0 -1.1204833984375 -0.24578857421875
10941434375.0 -1.09649658203125 0.4755859375
10972656250.0 -0.5679931640625 1.08294677734375
11003878125.0 0.2166748046875 1.17431640625
11035100000.0 0.8477783203125 0.821044921875
11066321875.0 1.21917724609375 0.17462158203125
11097543750.0 1.09796142578125 -0.6771240234375
11128765625.0 0.38629150390625 -1.19757080078125
11159987500.0 -0.3958740234375 -1.1383056640625
11191209375.0 -0.99822998046875 -0.702239990234375
11222431250.0 -1.2706298828125 0.09259033203125
11253653125.0 -0.85894775390625 0.89202880859375
11284875000.0 -0.1138916015625 1.12646484375
11316096875.0 0.510650634765625 0.955841064453125
11347318750.0 1.00067138671875 0.5029296875
11378540625.0 1.1151123046875 -0.26739501953125
11409762500.0 0.634185791015625 -0.858856201171875
11440984375.0 0.03662109375 -0.979461669921875
11472206250.0 -0.479461669921875 -0.850189208984375
11503428125.0 -0.952850341796875 -0.4564208984375
11534650000.0 -1.0673828125 0.2862548828125
11565871875.0 -0.60247802734375 0.8529052734375
11597093750.0 -0.01995849609375 0.9901123046875
11628315625.0 0.543548583984375 0.874298095703125
11659537500.0 1.0589599609375 0.39227294921875
11690759375.0 1.06451416015625 -0.4329833984375
11721981250.0 0.51654052734375 -0.940826416015625
11753203125.0 -0.10455322265625 -1.03509521484375
11784425000.0 -0.724151611328125 -0.808074951171875
11815646875.0 -1.099853515625 -0.15087890625
11846868750.0 -0.8905029296875 0.550628662109375
11878090625.0 -0.390777587890625 0.908599853515625
11909312500.0 0.18609619140625 0.98358154296875
11940534375.0 0.779296875 0.6943359375
11971756250.0 1.0242919921875 0.03948974609375
12002978125.0 0.806243896484375 -0.536346435546875
12034200000.0 0.382049560546875 -0.887420654296875
12065421875.0 -0.214599609375 -1.00860595703125
12096643750.0 -0.8466796875 -0.665618896484375
12127865625.0 -1.0328369140625 0.01531982421875
12159087500.0 -0.815093994140625 0.57452392578125
12190309375.0 -0.3782958984375 0.97357177734375
12221531250.0 0.3377685546875 1.08648681640625
12252753125.0 0.9788818359375 0.58160400390625
12283975000.0 1.0535888671875 -0.12725830078125
12315196875.0 0.799713134765625 -0.6749267578125
12346418750.0 0.28106689453125 -1.0908203125
12377640625.0 -0.53704833984375 -1.05975341796875
12408862500.0 -1.03204345703125 -0.41925048828125
12440084375.0 -1.00732421875 0.2230224609375
12471306250.0 -0.742034912109375 0.736114501953125
12502528125.0 -0.179443359375 1.119873046875
12533750000.0 0.619171142578125 0.992919921875
12564971875.0 1.0394287109375 0.36431884765625
12596193750.0 1.0283203125 -0.26324462890625
12627415625.0 0.74774169921875 -0.828460693359375
12658637500.0 0.0789794921875 -1.20721435546875
12689859375.0 -0.73370361328125 -0.9658203125
12721081250.0 -1.1158447265625 -0.30609130859375
12752303125.0 -1.09686279296875 0.38055419921875
12783525000.0 -0.68743896484375 1.02593994140625
12814746875.0 0.16473388671875 1.25048828125
12845968750.0 0.86260986328125 0.811126708984375
12877190625.0 1.11669921875 0.17236328125
12908412500.0 1.05419921875 -0.49884033203125
12939634375.0 0.54345703125 -1.11444091796875
12970856250.0 -0.3206787109375 -1.17449951171875
13002078125.0 -0.89324951171875 -0.6925048828125
13033300000.0 -1.1055908203125 -0.08660888671875
13064521875.0 -1.0084228515625 0.59332275390625
13095743750.0 -0.41986083984375 1.15435791015625
13126965625.0 0.4083251953125 1.12042236328125
13158187500.0 0.94769287109375 0.632110595703125
13189409375.0 1.14617919921875 -0.0203857421875
13220631250.0 0.935699462890625 -0.7479248046875
13251853125.0 0.23388671875 -1.17218017578125
13283075000.0 -0.507080078125 -1.0194091796875
13314296875.0 -0.98663330078125 -0.52862548828125
13345518750.0 -1.1341552734375 0.1767578125
13376740625.0 -0.7515869140625 0.856170654296875
