!Created with skrf (http://scikit-rf.org).
# Hz S RI R 50.0 
!freq ReS11 ImS11
45000000.0 -0.07698822021484375 -0.09683609008789062
76221875.0 -0.19652557373046875 -0.04761505126953125
107443750.0 -0.25506591796875 0.120147705078125
138665625.0 -0.1482696533203125 0.329345703125
169887500.0 0.1237640380859375 0.417938232421875
201109375.0 0.422210693359375 0.2812042236328125
232331250.0 0.579315185546875 -0.0576171875
263553125.0 0.4899749755859375 -0.453216552734375
294775000.0 0.098541259765625 -0.7332763671875
325996875.0 -0.415985107421875 -0.68121337890625
357218750.0 -0.80712890625 -0.297210693359375
388440625.0 -0.88641357421875 0.30084228515625
419662500.0 -0.517608642578125 0.86688232421875
450884375.0 0.17333984375 1.02935791015625
482106250.0 0.7991943359375 0.713226318359375
513328125.0 1.12017822265625 0.0870361328125
544550000.0 1.0042724609375 -0.680419921875
575771875.0 0.33642578125 -1.23883056640625
606993750.0 -0.5543212890625 -1.17803955078125
638215625.0 -1.1666259765625 -0.59051513671875
669437500.0 -1.340576171875 0.234375
700659375.0 -0.97125244140625 1.0972900390625
731881250.0 -0.00347900390625 1.5439453125
763103125.0 1.00634765625 1.15618896484375
794325000.0 1.4696044921875 0.2813720703125
825546875.0 1.3677978515625 -0.65203857421875
856768750.0 0.79510498046875 -1.4014892578125
887990625.0 -0.292724609375 -1.64935302734375
919212500.0 -1.2889404296875 -1.07904052734375
950434375.0 -1.6494140625 -0.05853271484375
981656250.0 -1.38275146484375 0.94671630859375
1012878125.0 -0.5294189453125 1.6727294921875
1044100000.0 0.697509765625 1.66290283203125
1075321875.0 1.575927734375 0.81195068359375
1106543750.0 1.70556640625 -0.3134765625
1137765625.0 1.1868896484375 -1.28472900390625
1168987500.0 0.1378173828125 -1.7984619140625
1200209375.0 -1.062255859375 -1.48406982421875
1231431250.0 -1.72833251953125 -0.4532470703125
1262653125.0 -1.594970703125 0.6851806640625
1293875000.0 -0.85198974609375 1.49261474609375
1325096875.0 0.2288818359375 1.70794677734375
1356318750.0 1.236083984375 1.2171630859375
1387540625.0 1.74072265625 0.18829345703125
1418762500.0 1.46966552734375 -0.9525146484375
1449984375.0 0.529052734375 -1.62652587890625
1481206250.0 -0.5501708984375 -1.55621337890625
1512428125.0 -1.342529296875 -0.919921875
1543650000.0 -1.656005859375 0.06597900390625
1574871875.0 -1.27349853515625 1.109130859375
1606093750.0 -0.27264404296875 1.632080078125
1637315625.0 0.74273681640625 1.40093994140625
1668537500.0 1.3963623046875 0.69586181640625
1699759375.0 1.573486328125 -0.27783203125
1730981250.0 1.06396484375 -1.23004150390625
1762203125.0 0.04180908203125 -1.571044921875
1793425000.0 -0.8563232421875 -1.22650146484375
1824646875.0 -1.39404296875 -0.5147705078125
1855868750.0 -1.47442626953125 0.43328857421875
1887090625.0 -0.87469482421875 1.28594970703125
1918312500.0 0.1180419921875 1.48724365234375
1949534375.0 0.9217529296875 1.0887451171875
1980756250.0 1.37518310546875 0.36981201171875
2011978125.0 1.35968017578125 -0.5322265625
2043200000.0 0.75006103515625 -1.26171875
2074421875.0 -0.15716552734375 -1.43365478515625
2105643750.0 -0.96075439453125 -1.07220458984375
2136865625.0 -1.4473876953125 -0.30419921875
2168087500.0 -1.35723876953125 0.67205810546875
2199309375.0 -0.63873291015625 1.35186767578125
2230531250.0 0.28240966796875 1.43609619140625
2261753125.0 1.07330322265625 1.013671875
2292975000.0 1.51483154296875 0.1697998046875
2324196875.0 1.30535888671875 -0.8193359375
2355418750.0 0.52459716796875 -1.42034912109375
2386640625.0 -0.4051513671875 -1.44891357421875
2417862500.0 -1.1812744140625 -1.024658203125
2449084375.0 -1.6048583984375 -0.08367919921875
2480306250.0 -1.31158447265625 0.92596435546875
2511528125.0 -0.49346923828125 1.50848388671875
2542750000.0 0.48828125 1.53607177734375
2573971875.0 1.3704833984375 0.968017578125
2605193750.0 1.717529296875 -0.11285400390625
2636415625.0 1.26080322265625 -1.1513671875
2667637500.0 0.3057861328125 -1.66748046875
2698859375.0 -0.77130126953125 -1.53369140625
2730081250.0 -1.57354736328125 -0.73974609375
2761303125.0 -1.681640625 0.3880615234375
2792525000.0 -1.09942626953125 1.30780029296875
2823746875.0 -0.10101318359375 1.73065185546875
2854968750.0 1.0123291015625 1.4554443359375
2886190625.0 1.69134521484375 0.4913330078125
2917412500.0 1.599853515625 -0.6181640625
2948634375.0 0.93878173828125 -1.4342041015625
2979856250.0 -0.1085205078125 -1.77642822265625
3011078125.0 -1.24658203125 -1.34259033203125
3042300000.0 -1.77606201171875 -0.23388671875
3073521875.0 -1.50836181640625 0.83868408203125
3104743750.0 -0.76251220703125 1.5677490234375
3135965625.0 0.36279296875 1.80975341796875
3167187500.0 1.49969482421875 1.164306640625
3198409375.0 1.8162841796875 -0.07611083984375
3229631250.0 1.348388671875 -1.08251953125
3260853125.0 0.48919677734375 -1.66876220703125
3292075000.0 -0.655517578125 -1.6973876953125
3323296875.0 -1.6202392578125 -0.87945556640625
3354518750.0 -1.73114013671875 0.329833984375
3385740625.0 -1.155517578125 1.23272705078125
3416962500.0 -0.23077392578125 1.681396484375
3448184375.0 0.86151123046875 1.52154541015625
3479406250.0 1.63665771484375 0.64398193359375
3510628125.0 1.6436767578125 -0.4959716796875
3541850000.0 0.999267578125 -1.356201171875
3573071875.0 -0.00823974609375 -1.68341064453125
3604293750.0 -1.0279541015625 -1.336669921875
3635515625.0 -1.6280517578125 -0.437744140625
3666737500.0 -1.56134033203125 0.6468505859375
3697959375.0 -0.824462890625 1.475341796875
3729181250.0 0.26849365234375 1.6302490234375
3760403125.0 1.1524658203125 1.0977783203125
3791625000.0 1.55230712890625 0.217529296875
3822846875.0 1.401611328125 -0.76141357421875
3854068750.0 0.61993408203125 -1.4814453125
3885290625.0 -0.42169189453125 -1.48126220703125
3916512500.0 -1.141845703125 -0.91094970703125
3947734375.0 -1.447998046875 -0.119140625
3978956250.0 -1.29730224609375 0.77880859375
4010178125.0 -0.53076171875 1.45428466796875
4041400000.0 0.4739990234375 1.41571044921875
4072621875.0 1.15228271484375 0.84716796875
4103843750.0 1.44500732421875 0.062744140625
4135065625.0 1.26708984375 -0.84661865234375
4166287500.0 0.45709228515625 -1.49615478515625
4197509375.0 -0.5589599609375 -1.41510009765625
4228731250.0 -1.248291015625 -0.801513671875
4259953125.0 -1.50885009765625 0.07110595703125
4291175000.0 -1.1873779296875 1.01043701171875
4322396875.0 -0.28863525390625 1.526123046875
4353618750.0 0.67462158203125 1.3502197265625
4384840625.0 1.32305908203125 0.69683837890625
4416062500.0 1.501220703125 -0.22869873046875
4447284375.0 1.05523681640625 -1.10430908203125
4478506250.0 0.1715087890625 -1.49578857421875
4509728125.0 -0.7325439453125 -1.30682373046875
4540950000.0 -1.3944091796875 -0.63519287109375
4572171875.0 -1.5225830078125 0.36029052734375
4603393750.0 -0.97186279296875 1.21343994140625
4634615625.0 -0.06024169921875 1.53753662109375
4665837500.0 0.87030029296875 1.303466796875
4697059375.0 1.5411376953125 0.51446533203125
4728281250.0 1.52880859375 -0.58392333984375
4759503125.0 0.82275390625 -1.3675537109375
4790725000.0 -0.14654541015625 -1.572265625
4821946875.0 -1.083740234375 -1.193115234375
4853168750.0 -1.61279296875 -0.2506103515625
4884390625.0 -1.37762451171875 0.793701171875
4915612500.0 -0.6131591796875 1.41314697265625
4946834375.0 0.329345703125 1.5091552734375
4978056250.0 1.2069091796875 1.01654052734375
5009278125.0 1.56146240234375 0.0389404296875
5040500000.0 1.2286376953125 -0.8758544921875
5071721875.0 0.50048828125 -1.415283203125
5102943750.0 -0.44708251953125 -1.49603271484375
5134165625.0 -1.337890625 -0.90399169921875
5165387500.0 -1.5684814453125 0.14794921875
5196609375.0 -1.13568115234375 1.0103759765625
5227831250.0 -0.35675048828125 1.505615234375
5259053125.0 0.6884765625 1.4915771484375
5290275000.0 1.52191162109375 0.66162109375
5321496875.0 1.4920654296875 -0.431640625
5352718750.0 0.92071533203125 -1.1533203125
5383940625.0 0.09600830078125 -1.49993896484375
5415162500.0 -0.90093994140625 -1.28338623046875
5446384375.0 -1.4852294921875 -0.36962890625
5477606250.0 -1.299072265625 0.56689453125
5508828125.0 -0.73052978515625 1.151123046875
5540050000.0 0.05474853515625 1.3992919921875
5571271875.0 0.93902587890625 1.1087646484375
5602493750.0 1.40948486328125 0.25897216796875
5633715625.0 1.23193359375 -0.61370849609375
5664937500.0 0.64752197265625 -1.2012939453125
5696159375.0 -0.1982421875 -1.3836669921875
5727381250.0 -1.02203369140625 -0.97747802734375
5758603125.0 -1.390625 -0.14459228515625
5789825000.0 -1.1934814453125 0.7186279296875
5821046875.0 -0.50518798828125 1.30682373046875
5852268750.0 0.4124755859375 1.3131103515625
5883490625.0 1.0712890625 0.77166748046875
5914712500.0 1.30242919921875 0.01947021484375
5945934375.0 1.095947265625 -0.7767333984375
5977156250.0 0.3604736328125 -1.3126220703125
6008378125.0 -0.5096435546875 -1.18206787109375
6039600000.0 -1.0228271484375 -0.64813232421875
6070821875.0 -1.22454833984375 -0.0035400390625
6102043750.0 -1.08355712890625 0.7630615234375
6133265625.0 -0.3414306640625 1.3446044921875
6164487500.0 0.56451416015625 1.18719482421875
6195709375.0 1.0726318359375 0.62939453125
6226931250.0 1.28033447265625 -0.04388427734375
6258153125.0 1.10400390625 -0.87261962890625
6289375000.0 0.25469970703125 -1.447021484375
6320596875.0 -0.69097900390625 -1.205810546875
6351818750.0 -1.201171875 -0.5706787109375
6383040625.0 -1.35504150390625 0.2083740234375
6414262500.0 -0.9990234375 1.0579833984375
6445484375.0 -0.0767822265625 1.4578857421875
6476706250.0 0.7958984375 1.14752197265625
6507928125.0 1.29132080078125 0.4691162109375
6539150000.0 1.34710693359375 -0.3870849609375
6570371875.0 0.8406982421875 -1.14447021484375
6601593750.0 -0.0177001953125 -1.4049072265625
6632815625.0 -0.840087890625 -1.1356201171875
6664037500.0 -1.40191650390625 -0.41937255859375
6695259375.0 -1.3739013671875 0.5677490234375
6726481250.0 -0.70965576171875 1.252197265625
6757703125.0 0.13140869140625 1.40667724609375
6788925000.0 0.95721435546875 1.1300048828125
6820146875.0 1.56158447265625 0.28594970703125
6851368750.0 1.324951171875 -0.8206787109375
6882590625.0 0.5048828125 -1.339599609375
6913812500.0 -0.293701171875 -1.356201171875
6945034375.0 -1.07159423828125 -1.02099609375
6976256250.0 -1.59234619140625 -0.0919189453125
7007478125.0 -1.23602294921875 0.93560791015625
7038700000.0 -0.4019775390625 1.34149169921875
7069921875.0 0.35980224609375 1.32318115234375
7101143750.0 1.119873046875 0.96734619140625
7132365625.0 1.59967041015625 0.014404296875
7163587500.0 1.157470703125 -1.0201416015625
7194809375.0 0.30096435546875 -1.3988037109375
7226031250.0 -0.5125732421875 -1.32635498046875
7257253125.0 -1.26806640625 -0.82269287109375
7288475000.0 -1.56048583984375 0.20068359375
7319696875.0 -1.0299072265625 1.109619140625
7350918750.0 -0.16339111328125 1.4453125
7382140625.0 0.71466064453125 1.2767333984375
7413362500.0 1.37811279296875 0.5748291015625
7444584375.0 1.4117431640625 -0.4078369140625
7475806250.0 0.85809326171875 -1.142822265625
7507028125.0 0.00396728515625 -1.4295654296875
7538250000.0 -0.8887939453125 -1.1231689453125
7569471875.0 -1.336181640625 -0.31036376953125
7600693750.0 -1.203125 0.49896240234375
7631915625.0 -0.71820068359375 1.08544921875
7663137500.0 0.082275390625 1.3602294921875
7694359375.0 0.94091796875 0.981170654296875
7725581250.0 1.24432373046875 0.17926025390625
7756803125.0 1.08306884765625 -0.50048828125
7788025000.0 0.67047119140625 -1.04400634765625
7819246875.0 -0.120361328125 -1.34716796875
7850468750.0 -0.99310302734375 -0.9156494140625
7881690625.0 -1.2325439453125 -0.1041259765625
7912912500.0 -1.0550537109375 0.55718994140625
7944134375.0 -0.603759765625 1.1143798828125
7975356250.0 0.27313232421875 1.3359375
8006578125.0 1.0479736328125 0.7774658203125
8037800000.0 1.19384765625 0.01519775390625
8069021875.0 1.0064697265625 -0.61993408203125
8100243750.0 0.49822998046875 -1.1649169921875
8131465625.0 -0.38916015625 -1.25341796875
8162687500.0 -1.0328369140625 -0.685302734375
8193909375.0 -1.18194580078125 0.01043701171875
8225131250.0 -1.01849365234375 0.6785888671875
8256353125.0 -0.42022705078125 1.25079345703125
8287575000.0 0.5029296875 1.22723388671875
8318796875.0 1.08270263671875 0.63543701171875
8350018750.0 1.2445068359375 -0.07537841796875
8381240625.0 1.03118896484375 -0.8409423828125
8412462500.0 0.25341796875 -1.37335205078125
8443684375.0 -0.67132568359375 -1.1693115234375
8474906250.0 -1.1751708984375 -0.53082275390625
8506128125.0 -1.29736328125 0.2369384765625
8537350000.0 -0.92327880859375 1.04864501953125
8568571875.0 -0.0140380859375 1.39617919921875
8599793750.0 0.80462646484375 1.05328369140625
8631015625.0 1.2435302734375 0.3973388671875
8662237500.0 1.28656005859375 -0.431640625
8693459375.0 0.73504638671875 -1.180419921875
8724681250.0 -0.16156005859375 -1.3321533203125
8755903125.0 -0.883758544921875 -0.957733154296875
8787125000.0 -1.30413818359375 -0.28173828125
8818346875.0 -1.2520751953125 0.6181640625
8849568750.0 -0.55621337890625 1.2618408203125
8880790625.0 0.30035400390625 1.28631591796875
8912012500.0 0.984588623046875 0.891815185546875
8943234375.0 1.40179443359375 0.12628173828125
8974456250.0 1.16607666015625 -0.843505859375
9005678125.0 0.34722900390625 -1.31298828125
9036900000.0 -0.4461669921875 -1.22442626953125
9068121875.0 -1.10321044921875 -0.78448486328125
9099343750.0 -1.44024658203125 0.0989990234375
9130565625.0 -0.9794921875 1.01397705078125
9161787500.0 -0.15283203125 1.28472900390625
9193009375.0 0.55462646484375 1.13348388671875
9224231250.0 1.1798095703125 0.65460205078125
9255453125.0 1.40045166015625 -0.297119140625
9286675000.0 0.8070068359375 -1.0860595703125
9317896875.0 0.02593994140625 -1.246337890625
9349118750.0 -0.65570068359375 -1.07049560546875
9380340625.0 -1.2608642578125 -0.50823974609375
9411562500.0 -1.31243896484375 0.4788818359375
9442784375.0 -0.64703369140625 1.118408203125
9474006250.0 0.09088134765625 1.21295166015625
9505228125.0 0.766143798828125 0.980224609375
9536450000.0 1.2742919921875 0.31170654296875
9567671875.0 1.14300537109375 -0.5799560546875
9598893750.0 0.5284423828125 -1.07037353515625
9630115625.0 -0.14739990234375 -1.15985107421875
9661337500.0 -0.81842041015625 -0.901641845703125
9692559375.0 -1.23876953125 -0.189208984375
9723781250.0 -1.0426025390625 0.6043701171875
9755003125.0 -0.485595703125 1.0506591796875
9786225000.0 0.2008056640625 1.1607666015625
9817446875.0 0.8955078125 0.826934814453125
9848668750.0 1.19879150390625 0.07647705078125
9879890625.0 0.96832275390625 -0.61712646484375
9911112500.0 0.45220947265625 -1.0526123046875
9942334375.0 -0.26947021484375 -1.1591796875
9973556250.0 -0.94573974609375 -0.7376708984375
10004778125.0 -1.14544677734375 -0.01763916015625
10036000000.0 -0.944427490234375 0.617431640625
10067221875.0 -0.4395751953125 1.09893798828125
10098443750.0 0.37359619140625 1.1827392578125
10129665625.0 1.00445556640625 0.6416015625
10160887500.0 1.1202392578125 -0.0528564453125
10192109375.0 0.91705322265625 -0.66357421875
10223331250.0 0.36053466796875 -1.1527099609375
10254553125.0 -0.48779296875 -1.114013671875
10285775000.0 -0.987762451171875 -0.5347900390625
10316996875.0 -1.06805419921875 0.078369140625
10348218750.0 -0.89947509765625 0.672149658203125
10379440625.0 -0.32000732421875 1.17596435546875
10410662500.0 0.5302734375 1.08648681640625
10441884375.0 0.993072509765625 0.521240234375
10473106250.0 1.10943603515625 -0.0850830078125
10504328125.0 0.949432373046875 -0.757720947265625
10535550000.0 0.237548828125 -1.2967529296875
10566771875.0 -0.659423828125 -1.078125
10597993750.0 -1.0823974609375 -0.4578857421875
10629215625.0 -1.17486572265625 0.2073974609375
10660437500.0 -0.886383056640625 0.95343017578125
10691659375.0 -0.009033203125 1.3355712890625
10722881250.0 0.787322998046875 0.95111083984375
10754103125.0 1.11956787109375 0.32391357421875
10785325000.0 1.14007568359375 -0.36822509765625
10816546875.0 0.7001953125 -1.050537109375
10847768750.0 -0.1484375 -1.23046875
10878990625.0 -0.80242919921875 -0.8428955078125
10910212500.0 -1.12261962890625 -0.24468994140625
10941434375.0 -1.097900390625 0.47802734375
10972656250.0 -0.56719970703125 1.08709716796875
11003878125.0 0.217529296875 1.17376708984375
11035100000.0 0.851287841796875 0.82147216796875
11066321875.0 1.22100830078125 0.17376708984375
11097543750.0 1.0977783203125 -0.6767578125
11128765625.0 0.38427734375 -1.2015380859375
11159987500.0 -0.39849853515625 -1.139892578125
11191209375.0 -1.00146484375 -0.7020263671875
11222431250.0 -1.27349853515625 0.0977783203125
11253653125.0 -0.85772705078125 0.89520263671875
11284875000.0 -0.11248779296875 1.12750244140625
11316096875.0 0.511871337890625 0.956146240234375
11347318750.0 1.00286865234375 0.50152587890625
11378540625.0 1.11688232421875 -0.2706298828125
11409762500.0 0.634246826171875 -0.8594970703125
11440984375.0 0.035797119140625 -0.979034423828125
11472206250.0 -0.481109619140625 -0.84979248046875
11503428125.0 -0.953369140625 -0.455718994140625
11534650000.0 -1.06982421875 0.2901611328125
11565871875.0 -0.601837158203125 0.85595703125
11597093750.0 -0.017547607421875 0.991912841796875
11628315625.0 0.54486083984375 0.875091552734375
11659537500.0 1.06085205078125 0.39166259765625
11690759375.0 1.06561279296875 -0.43511962890625
11721981250.0 0.5155029296875 -0.942657470703125
11753203125.0 -0.1065673828125 -1.0374755859375
11784425000.0 -0.72705078125 -0.809326171875
11815646875.0 -1.10272216796875 -0.1483154296875
11846868750.0 -0.890594482421875 0.552886962890625
11878090625.0 -0.3902587890625 0.90948486328125
11909312500.0 0.18768310546875 0.984161376953125
11940534375.0 0.78070068359375 0.694091796875
11971756250.0 1.0244140625 0.0396728515625
12002978125.0 0.80596923828125 -0.538116455078125
12034200000.0 0.38116455078125 -0.88909912109375
12065421875.0 -0.216796875 -1.01092529296875
12096643750.0 -0.84893798828125 -0.6646728515625
12127865625.0 -1.0360107421875 0.01861572265625
12159087500.0 -0.81475830078125 0.575042724609375
12190309375.0 -0.376068115234375 0.976226806640625
12221531250.0 0.339111328125 1.0875244140625
12252753125.0 0.98150634765625 0.579925537109375
12283975000.0 1.0546875 -0.12969970703125
12315196875.0 0.80096435546875 -0.678253173828125
12346418750.0 0.27984619140625 -1.09246826171875
12377640625.0 -0.53936767578125 -1.0604248046875
12408862500.0 -1.035888671875 -0.41839599609375
12440084375.0 -1.0079345703125 0.22540283203125
12471306250.0 -0.7415771484375 0.7386474609375
12502528125.0 -0.17950439453125 1.12103271484375
12533750000.0 0.623077392578125 0.99420166015625
12564971875.0 1.04339599609375 0.36181640625
12596193750.0 1.031005859375 -0.26513671875
12627415625.0 0.747314453125 -0.830413818359375
12658637500.0 0.07879638671875 -1.2078857421875
12689859375.0 -0.735137939453125 -0.9649658203125
12721081250.0 -1.11773681640625 -0.30438232421875
12752303125.0 -1.097900390625 0.3851318359375
12783525000.0 -0.68560791015625 1.0311279296875
12814746875.0 0.1658935546875 1.25164794921875
12845968750.0 0.863800048828125 0.8094482421875
12877190625.0 1.11773681640625 0.16973876953125
12908412500.0 1.05615234375 -0.5042724609375
12939634375.0 0.54095458984375 -1.11962890625
12970856250.0 -0.32318115234375 -1.17529296875
13002078125.0 -0.8948974609375 -0.692138671875
13033300000.0 -1.10491943359375 -0.08587646484375
13064521875.0 -1.00946044921875 0.59527587890625
13095743750.0 -0.4188232421875 1.15753173828125
13126965625.0 0.40887451171875 1.11962890625
13158187500.0 0.94921875 0.6300048828125
13189409375.0 1.14971923828125 -0.0228271484375
13220631250.0 0.9354248046875 -0.750244140625
13251853125.0 0.23199462890625 -1.1746826171875
13283075000.0 -0.5093994140625 -1.02032470703125
13314296875.0 -0.9901123046875 -0.526885986328125
13345518750.0 -1.13494873046875 0.17913818359375
13376740625.0 -0.751129150390625 0.861236572265625
13407962500.0 -0.05792236328125 1.0670166015625
