!Created with skrf (http://scikit-rf.org).
# Hz S RI R 50.0 
!freq ReS11 ImS11
45000000.0 -0.07676315307617188 -0.09704971313476562
76221875.0 -0.19680023193359375 -0.047760009765625
107443750.0 -0.2556915283203125 0.119415283203125
138665625.0 -0.149017333984375 0.3288421630859375
169887500.0 0.1229705810546875 0.4184112548828125
201109375.0 0.4222412109375 0.2821807861328125
232331250.0 0.580108642578125 -0.0567626953125
263553125.0 0.4911651611328125 -0.4530792236328125
294775000.0 0.09991455078125 -0.73382568359375
325996875.0 -0.415374755859375 -0.68292236328125
357218750.0 -0.808013916015625 -0.298980712890625
388440625.0 -0.888092041015625 0.300140380859375
419662500.0 -0.51971435546875 0.8673095703125
450884375.0 0.17156982421875 1.03125
482106250.0 0.799041748046875 0.71539306640625
513328125.0 1.12158203125 0.08880615234375
544550000.0 1.00653076171875 -0.67962646484375
575771875.0 0.3389892578125 -1.23968505859375
606993750.0 -0.552978515625 -1.1802978515625
638215625.0 -1.1671142578125 -0.59332275390625
669437500.0 -1.34283447265625 0.23223876953125
700659375.0 -0.97418212890625 1.0966796875
731881250.0 -0.00628662109375 1.54583740234375
763103125.0 1.0057373046875 1.15960693359375
794325000.0 1.47137451171875 0.28460693359375
825546875.0 1.37091064453125 -0.65087890625
856768750.0 0.7979736328125 -1.40216064453125
887990625.0 -0.29132080078125 -1.6517333984375
919212500.0 -1.2896728515625 -1.08270263671875
950434375.0 -1.65228271484375 -0.06060791015625
981656250.0 -1.38671875 0.94708251953125
1012878125.0 -0.53289794921875 1.67498779296875
1044100000.0 0.6964111328125 1.66656494140625
1075321875.0 1.5770263671875 0.8157958984375
1106543750.0 1.708740234375 -0.31121826171875
1137765625.0 1.19110107421875 -1.28570556640625
1168987500.0 0.140869140625 -1.80096435546875
1200209375.0 -1.06231689453125 -1.48822021484375
1231431250.0 -1.73101806640625 -0.455810546875
1262653125.0 -1.5982666015625 0.68402099609375
1293875000.0 -0.8558349609375 1.4930419921875
1325096875.0 0.2264404296875 1.71087646484375
1356318750.0 1.2366943359375 1.220703125
1387540625.0 1.7431640625 0.19146728515625
1418762500.0 1.47320556640625 -0.95147705078125
1449984375.0 0.53240966796875 -1.62847900390625
1481206250.0 -0.5491943359375 -1.5595703125
1512428125.0 -1.34344482421875 -0.922607421875
1543650000.0 -1.65838623046875 0.0634765625
1574871875.0 -1.27667236328125 1.10980224609375
1606093750.0 -0.27520751953125 1.6339111328125
1637315625.0 0.74212646484375 1.403564453125
1668537500.0 1.39825439453125 0.69842529296875
1699759375.0 1.57623291015625 -0.27618408203125
1730981250.0 1.0675048828125 -1.23028564453125
1762203125.0 0.0438232421875 -1.57354736328125
1793425000.0 -0.85601806640625 -1.2293701171875
1824646875.0 -1.39581298828125 -0.517333984375
1855868750.0 -1.4771728515625 0.431396484375
1887090625.0 -0.878173828125 1.28680419921875
1918312500.0 0.11627197265625 1.48956298828125
1949534375.0 0.922119140625 1.09149169921875
1980756250.0 1.376953125 0.37237548828125
2011978125.0 1.3624267578125 -0.531005859375
2043200000.0 0.75274658203125 -1.26318359375
2074421875.0 -0.15594482421875 -1.4359130859375
2105643750.0 -0.96099853515625 -1.07513427734375
2136865625.0 -1.449462890625 -0.30657958984375
2168087500.0 -1.36041259765625 0.67132568359375
2199309375.0 -0.64141845703125 1.35321044921875
2230531250.0 0.28143310546875 1.43878173828125
2261753125.0 1.0736083984375 1.0166015625
2292975000.0 1.51715087890625 0.17144775390625
2324196875.0 1.3084716796875 -0.8197021484375
2355418750.0 0.527099609375 -1.42205810546875
2386640625.0 -0.404052734375 -1.45147705078125
2417862500.0 -1.18267822265625 -1.02618408203125
2449084375.0 -1.60699462890625 -0.0849609375
2480306250.0 -1.3143310546875 0.9263916015625
2511528125.0 -0.495849609375 1.510986328125
2542750000.0 0.48773193359375 1.53900146484375
2573971875.0 1.37255859375 0.97015380859375
2605193750.0 1.720458984375 -0.1116943359375
2636415625.0 1.264404296875 -1.1536865234375
2667637500.0 0.3079833984375 -1.66961669921875
2698859375.0 -0.77020263671875 -1.53778076171875
2730081250.0 -1.57574462890625 -0.742431640625
2761303125.0 -1.68426513671875 0.38726806640625
2792525000.0 -1.10260009765625 1.307861328125
2823746875.0 -0.10345458984375 1.73333740234375
2854968750.0 1.0146484375 1.458984375
2886190625.0 1.69439697265625 0.4942626953125
2917412500.0 1.6031494140625 -0.6185302734375
2948634375.0 0.94232177734375 -1.43634033203125
2979856250.0 -0.108154296875 -1.77984619140625
3011078125.0 -1.24951171875 -1.34576416015625
3042300000.0 -1.77813720703125 -0.23638916015625
3073521875.0 -1.51177978515625 0.83868408203125
3104743750.0 -0.765625 1.5711669921875
3135965625.0 0.36126708984375 1.812744140625
3167187500.0 1.499755859375 1.167236328125
3198409375.0 1.81878662109375 -0.07379150390625
3229631250.0 1.35260009765625 -1.083251953125
3260853125.0 0.49151611328125 -1.670654296875
3292075000.0 -0.65655517578125 -1.701904296875
3323296875.0 -1.6219482421875 -0.8819580078125
3354518750.0 -1.73431396484375 0.32806396484375
3385740625.0 -1.158935546875 1.2327880859375
3416962500.0 -0.23291015625 1.68414306640625
3448184375.0 0.86077880859375 1.52459716796875
3479406250.0 1.63958740234375 0.64569091796875
3510628125.0 1.646728515625 -0.495361328125
3541850000.0 1.002685546875 -1.3570556640625
3573071875.0 -0.00732421875 -1.68505859375
3604293750.0 -1.0283203125 -1.33966064453125
3635515625.0 -1.62957763671875 -0.440185546875
3666737500.0 -1.5645751953125 0.6461181640625
3697959375.0 -0.82720947265625 1.47955322265625
3729181250.0 0.26849365234375 1.633544921875
3760403125.0 1.15380859375 1.0997314453125
3791625000.0 1.5557861328125 0.21893310546875
3822846875.0 1.40435791015625 -0.760986328125
3854068750.0 0.6224365234375 -1.48431396484375
3885290625.0 -0.42181396484375 -1.48455810546875
3916512500.0 -1.14453125 -0.91326904296875
3947734375.0 -1.45025634765625 -0.1207275390625
3978956250.0 -1.3009033203125 0.7803955078125
4010178125.0 -0.532958984375 1.45709228515625
4041400000.0 0.47454833984375 1.417724609375
4072621875.0 1.153564453125 0.84912109375
4103843750.0 1.44696044921875 0.06341552734375
4135065625.0 1.26971435546875 -0.84814453125
4166287500.0 0.45782470703125 -1.49884033203125
4197509375.0 -0.55859375 -1.4168701171875
4228731250.0 -1.24969482421875 -0.80316162109375
4259953125.0 -1.51116943359375 0.0699462890625
4291175000.0 -1.19061279296875 1.01123046875
4322396875.0 -0.28955078125 1.529296875
4353618750.0 0.6727294921875 1.35198974609375
4384840625.0 1.32501220703125 0.6982421875
4416062500.0 1.5037841796875 -0.22772216796875
4447284375.0 1.05743408203125 -1.10650634765625
4478506250.0 0.171875 -1.4991455078125
4509728125.0 -0.73370361328125 -1.30999755859375
4540950000.0 -1.3978271484375 -0.63665771484375
4572171875.0 -1.52484130859375 0.36053466796875
4603393750.0 -0.97381591796875 1.215576171875
4634615625.0 -0.05999755859375 1.5396728515625
4665837500.0 0.8724365234375 1.3060302734375
4697059375.0 1.544189453125 0.51593017578125
4728281250.0 1.531005859375 -0.5845947265625
4759503125.0 0.82391357421875 -1.36944580078125
4790725000.0 -0.14508056640625 -1.57427978515625
4821946875.0 -1.08563232421875 -1.19561767578125
4853168750.0 -1.61627197265625 -0.2509765625
4884390625.0 -1.38055419921875 0.794921875
4915612500.0 -0.61407470703125 1.414794921875
4946834375.0 0.3297119140625 1.51251220703125
4978056250.0 1.20751953125 1.01922607421875
5009278125.0 1.56494140625 0.0391845703125
5040500000.0 1.2313232421875 -0.87847900390625
5071721875.0 0.502197265625 -1.4173583984375
5102943750.0 -0.44842529296875 -1.49932861328125
5134165625.0 -1.3388671875 -0.90618896484375
5165387500.0 -1.57147216796875 0.14813232421875
5196609375.0 -1.137451171875 1.0115966796875
5227831250.0 -0.35748291015625 1.50848388671875
5259053125.0 0.68975830078125 1.49444580078125
5290275000.0 1.52508544921875 0.662841796875
5321496875.0 1.4947509765625 -0.43341064453125
5352718750.0 0.921875 -1.15557861328125
5383940625.0 0.09686279296875 -1.5025634765625
5415162500.0 -0.90240478515625 -1.285888671875
5446384375.0 -1.48681640625 -0.37066650390625
5477606250.0 -1.3017578125 0.5679931640625
5508828125.0 -0.73260498046875 1.1536865234375
5540050000.0 0.05517578125 1.40234375
5571271875.0 0.9423828125 1.111083984375
5602493750.0 1.41229248046875 0.2587890625
5633715625.0 1.2347412109375 -0.61541748046875
5664937500.0 0.64886474609375 -1.2042236328125
5696159375.0 -0.199462890625 -1.38677978515625
5727381250.0 -1.02484130859375 -0.9796142578125
5758603125.0 -1.39508056640625 -0.14324951171875
5789825000.0 -1.1956787109375 0.7196044921875
5821046875.0 -0.5062255859375 1.3099365234375
5852268750.0 0.413330078125 1.31512451171875
5883490625.0 1.073486328125 0.77264404296875
5914712500.0 1.3057861328125 0.0185546875
5945934375.0 1.09820556640625 -0.77874755859375
5977156250.0 0.36102294921875 -1.31451416015625
6008378125.0 -0.5115966796875 -1.1839599609375
6039600000.0 -1.02398681640625 -0.64935302734375
6070821875.0 -1.22662353515625 -0.0037841796875
6102043750.0 -1.085205078125 0.76580810546875
6133265625.0 -0.341064453125 1.34881591796875
6164487500.0 0.566650390625 1.18951416015625
6195709375.0 1.0728759765625 0.62994384765625
6226931250.0 1.28253173828125 -0.04400634765625
6258153125.0 1.106201171875 -0.8751220703125
6289375000.0 0.25421142578125 -1.44879150390625
6320596875.0 -0.69232177734375 -1.2071533203125
6351818750.0 -1.2025146484375 -0.57159423828125
6383040625.0 -1.35638427734375 0.20819091796875
6414262500.0 -1.0008544921875 1.0601806640625
6445484375.0 -0.07666015625 1.45928955078125
6476706250.0 0.79705810546875 1.14825439453125
6507928125.0 1.29229736328125 0.469970703125
6539150000.0 1.349609375 -0.38824462890625
6570371875.0 0.84185791015625 -1.14605712890625
6601593750.0 -0.01849365234375 -1.40814208984375
6632815625.0 -0.84112548828125 -1.1370849609375
6664037500.0 -1.40496826171875 -0.41925048828125
6695259375.0 -1.3753662109375 0.56854248046875
6726481250.0 -0.70989990234375 1.254638671875
6757703125.0 0.13250732421875 1.40948486328125
6788925000.0 0.9573974609375 1.13153076171875
6820146875.0 1.56365966796875 0.28582763671875
6851368750.0 1.3270263671875 -0.822509765625
6882590625.0 0.5052490234375 -1.3414306640625
6913812500.0 -0.29510498046875 -1.35888671875
6945034375.0 -1.07269287109375 -1.0220947265625
6976256250.0 -1.59454345703125 -0.0909423828125
7007478125.0 -1.2376708984375 0.9351806640625
7038700000.0 -0.402099609375 1.3455810546875
7069921875.0 0.36138916015625 1.32684326171875
7101143750.0 1.12237548828125 0.96990966796875
7132365625.0 1.60150146484375 0.013427734375
7163587500.0 1.159912109375 -1.0244140625
7194809375.0 0.30230712890625 -1.400146484375
7226031250.0 -0.5147705078125 -1.3280029296875
7257253125.0 -1.27154541015625 -0.82427978515625
7288475000.0 -1.56048583984375 0.20001220703125
7319696875.0 -1.0303955078125 1.11187744140625
7350918750.0 -0.16265869140625 1.44903564453125
7382140625.0 0.72100830078125 1.27984619140625
7413362500.0 1.3814697265625 0.57440185546875
7444584375.0 1.413818359375 -0.41064453125
7475806250.0 0.85760498046875 -1.145263671875
7507028125.0 0.00347900390625 -1.43280029296875
7538250000.0 -0.8916015625 -1.1241455078125
7569471875.0 -1.337158203125 -0.31060791015625
7600693750.0 -1.2039794921875 0.49884033203125
7631915625.0 -0.71820068359375 1.086669921875
7663137500.0 0.0809326171875 1.36151123046875
7694359375.0 0.94342041015625 0.982269287109375
7725581250.0 1.24688720703125 0.1805419921875
7756803125.0 1.08514404296875 -0.5008544921875
7788025000.0 0.6715087890625 -1.0478515625
7819246875.0 -0.12408447265625 -1.3515625
7850468750.0 -0.99774169921875 -0.91558837890625
7881690625.0 -1.23388671875 -0.10333251953125
7912912500.0 -1.05621337890625 0.55804443359375
7944134375.0 -0.6046142578125 1.11669921875
7975356250.0 0.276611328125 1.33746337890625
8006578125.0 1.0516357421875 0.77813720703125
8037800000.0 1.19610595703125 0.0142822265625
8069021875.0 1.00799560546875 -0.62078857421875
8100243750.0 0.49822998046875 -1.16680908203125
8131465625.0 -0.3905029296875 -1.25653076171875
8162687500.0 -1.03570556640625 -0.685546875
8193909375.0 -1.1839599609375 0.01055908203125
8225131250.0 -1.01934814453125 0.68060302734375
8256353125.0 -0.42059326171875 1.25335693359375
8287575000.0 0.50421142578125 1.22796630859375
8318796875.0 1.08636474609375 0.63482666015625
8350018750.0 1.24908447265625 -0.07867431640625
8381240625.0 1.0325927734375 -0.843017578125
8412462500.0 0.25164794921875 -1.37677001953125
8443684375.0 -0.6749267578125 -1.17010498046875
8474906250.0 -1.178955078125 -0.5301513671875
8506128125.0 -1.299072265625 0.239013671875
8537350000.0 -0.92462158203125 1.04931640625
8568571875.0 -0.01324462890625 1.39666748046875
8599793750.0 0.8072509765625 1.05426025390625
8631015625.0 1.24395751953125 0.39837646484375
8662237500.0 1.28826904296875 -0.43243408203125
8693459375.0 0.73687744140625 -1.1807861328125
8724681250.0 -0.1636962890625 -1.3330078125
8755903125.0 -0.885009765625 -0.958709716796875
8787125000.0 -1.30938720703125 -0.2796630859375
8818346875.0 -1.25396728515625 0.61859130859375
8849568750.0 -0.55572509765625 1.2667236328125
8880790625.0 0.30224609375 1.28778076171875
8912012500.0 0.98486328125 0.893524169921875
8943234375.0 1.4049072265625 0.1246337890625
8974456250.0 1.1669921875 -0.84375
9005678125.0 0.34539794921875 -1.3172607421875
9036900000.0 -0.4481201171875 -1.22607421875
9068121875.0 -1.10540771484375 -0.78533935546875
9099343750.0 -1.44488525390625 0.10137939453125
9130565625.0 -0.97894287109375 1.01629638671875
9161787500.0 -0.152099609375 1.28558349609375
9193009375.0 0.55865478515625 1.13568115234375
9224231250.0 1.1817626953125 0.65509033203125
9255453125.0 1.4036865234375 -0.29931640625
9286675000.0 0.80712890625 -1.08935546875
9317896875.0 0.0244140625 -1.2489013671875
9349118750.0 -0.65606689453125 -1.07122802734375
9380340625.0 -1.26397705078125 -0.50823974609375
9411562500.0 -1.31439208984375 0.48028564453125
9442784375.0 -0.64642333984375 1.1220703125
9474006250.0 0.090576171875 1.21319580078125
9505228125.0 0.7684326171875 0.981597900390625
9536450000.0 1.27752685546875 0.30999755859375
9567671875.0 1.1446533203125 -0.58441162109375
9598893750.0 0.52764892578125 -1.0714111328125
9630115625.0 -0.14776611328125 -1.16094970703125
9661337500.0 -0.823883056640625 -0.9022216796875
9692559375.0 -1.24346923828125 -0.18603515625
9723781250.0 -1.04351806640625 0.6051025390625
9755003125.0 -0.485595703125 1.05206298828125
9786225000.0 0.20135498046875 1.1617431640625
9817446875.0 0.900177001953125 0.827667236328125
9848668750.0 1.20196533203125 0.07470703125
9879890625.0 0.968597412109375 -0.6204833984375
9911112500.0 0.45172119140625 -1.05401611328125
9942334375.0 -0.2724609375 -1.16259765625
9973556250.0 -0.94842529296875 -0.73663330078125
10004778125.0 -1.149658203125 -0.01409912109375
10036000000.0 -0.944793701171875 0.6202392578125
10067221875.0 -0.43975830078125 1.10174560546875
10098443750.0 0.375244140625 1.18359375
10129665625.0 1.00677490234375 0.6405029296875
10160887500.0 1.1214599609375 -0.0556640625
10192109375.0 0.917449951171875 -0.666656494140625
10223331250.0 0.35894775390625 -1.15545654296875
10254553125.0 -0.4892578125 -1.11407470703125
10285775000.0 -0.98724365234375 -0.534423828125
10316996875.0 -1.068603515625 0.07891845703125
10348218750.0 -0.900146484375 0.673431396484375
10379440625.0 -0.320556640625 1.17938232421875
10410662500.0 0.53167724609375 1.08721923828125
10441884375.0 0.995941162109375 0.520599365234375
10473106250.0 1.11212158203125 -0.08660888671875
10504328125.0 0.950439453125 -0.762664794921875
10535550000.0 0.23681640625 -1.2969970703125
10566771875.0 -0.662353515625 -1.0770263671875
10597993750.0 -1.08380126953125 -0.45684814453125
10629215625.0 -1.1776123046875 0.2086181640625
10660437500.0 -0.886688232421875 0.95782470703125
10691659375.0 -0.00445556640625 1.3370361328125
10722881250.0 0.789886474609375 0.951629638671875
10754103125.0 1.12139892578125 0.32183837890625
10785325000.0 1.14080810546875 -0.3707275390625
10816546875.0 0.69866943359375 -1.053955078125
10847768750.0 -0.14984130859375 -1.2325439453125
10878990625.0 -0.806549072265625 -0.843963623046875
10910212500.0 -1.1260986328125 -0.24285888671875
10941434375.0 -1.0985107421875 0.47998046875
10972656250.0 -0.5675048828125 1.08929443359375
11003878125.0 0.220458984375 1.17547607421875
11035100000.0 0.853912353515625 0.821685791015625
11066321875.0 1.22528076171875 0.1717529296875
11097543750.0 1.0997314453125 -0.6812744140625
11128765625.0 0.3828125 -1.203857421875
11159987500.0 -0.4002685546875 -1.14093017578125
11191209375.0 -1.00628662109375 -0.70159912109375
11222431250.0 -1.2747802734375 0.098876953125
11253653125.0 -0.857269287109375 0.899566650390625
11284875000.0 -0.1136474609375 1.127197265625
11316096875.0 0.514190673828125 0.95660400390625
11347318750.0 1.00689697265625 0.50091552734375
11378540625.0 1.11773681640625 -0.272705078125
11409762500.0 0.633697509765625 -0.862579345703125
11440984375.0 0.03448486328125 -0.980499267578125
11472206250.0 -0.48321533203125 -0.851837158203125
11503428125.0 -0.95733642578125 -0.45538330078125
11534650000.0 -1.07049560546875 0.29278564453125
11565871875.0 -0.600616455078125 0.85833740234375
11597093750.0 -0.01739501953125 0.992645263671875
11628315625.0 0.548583984375 0.876556396484375
11659537500.0 1.0648193359375 0.3905029296875
11690759375.0 1.0650634765625 -0.43743896484375
11721981250.0 0.51495361328125 -0.9437255859375
11753203125.0 -0.109375 -1.03887939453125
11784425000.0 -0.729400634765625 -0.80902099609375
11815646875.0 -1.10504150390625 -0.14642333984375
11846868750.0 -0.8905029296875 0.5555419921875
11878090625.0 -0.389404296875 0.912872314453125
11909312500.0 0.190582275390625 0.986297607421875
11940534375.0 0.784454345703125 0.69464111328125
11971756250.0 1.027587890625 0.03619384765625
12002978125.0 0.807098388671875 -0.54119873046875
12034200000.0 0.379302978515625 -0.893218994140625
12065421875.0 -0.219482421875 -1.01275634765625
12096643750.0 -0.8531494140625 -0.663909912109375
12127865625.0 -1.036376953125 0.020751953125
12159087500.0 -0.8150634765625 0.5784912109375
12190309375.0 -0.3758544921875 0.978759765625
12221531250.0 0.344482421875 1.09112548828125
12252753125.0 0.9844970703125 0.578460693359375
12283975000.0 1.05511474609375 -0.1312255859375
12315196875.0 0.801300048828125 -0.67974853515625
12346418750.0 0.27850341796875 -1.09588623046875
12377640625.0 -0.54376220703125 -1.06109619140625
12408862500.0 -1.03692626953125 -0.416015625
12440084375.0 -1.00823974609375 0.22674560546875
12471306250.0 -0.742431640625 0.7398681640625
12502528125.0 -0.1767578125 1.12451171875
12533750000.0 0.625732421875 0.9937744140625
12564971875.0 1.04290771484375 0.36273193359375
12596193750.0 1.03179931640625 -0.2686767578125
12627415625.0 0.74737548828125 -0.833221435546875
12658637500.0 0.0765380859375 -1.2109375
12689859375.0 -0.73834228515625 -0.967010498046875
12721081250.0 -1.119140625 -0.30377197265625
12752303125.0 -1.09942626953125 0.3876953125
12783525000.0 -0.68548583984375 1.0316162109375
12814746875.0 0.1702880859375 1.25457763671875
12845968750.0 0.86834716796875 0.810028076171875
12877190625.0 1.11962890625 0.1695556640625
12908412500.0 1.05706787109375 -0.50732421875
12939634375.0 0.53948974609375 -1.121826171875
12970856250.0 -0.3260498046875 -1.17669677734375
13002078125.0 -0.9019775390625 -0.691314697265625
13033300000.0 -1.10992431640625 -0.0830078125
13064521875.0 -1.01031494140625 0.59954833984375
13095743750.0 -0.416259765625 1.1610107421875
13126965625.0 0.41522216796875 1.12164306640625
13158187500.0 0.94927978515625 0.6304931640625
13189409375.0 1.15185546875 -0.02581787109375
13220631250.0 0.936492919921875 -0.75372314453125
13251853125.0 0.2310791015625 -1.17523193359375
13283075000.0 -0.51165771484375 -1.02093505859375
13314296875.0 -0.9925537109375 -0.527008056640625
13345518750.0 -1.13726806640625 0.18243408203125
