!Created with skrf (http://scikit-rf.org).
# Hz S RI R 50.0 
!freq ReS11 ImS11
45000000.0 -0.07715225219726562 -0.09670639038085938
76221875.0 -0.196441650390625 -0.04718780517578125
107443750.0 -0.2548675537109375 0.1201171875
138665625.0 -0.1476898193359375 0.3287353515625
169887500.0 0.124298095703125 0.41729736328125
201109375.0 0.422149658203125 0.280242919921875
232331250.0 0.5787353515625 -0.058380126953125
263553125.0 0.488922119140625 -0.4536285400390625
294775000.0 0.097259521484375 -0.7325439453125
325996875.0 -0.41644287109375 -0.679901123046875
357218750.0 -0.806732177734375 -0.2957763671875
388440625.0 -0.885223388671875 0.302032470703125
419662500.0 -0.515869140625 0.867340087890625
450884375.0 0.1746826171875 1.02838134765625
482106250.0 0.79931640625 0.71112060546875
513328125.0 1.119384765625 0.08544921875
544550000.0 1.0025634765625 -0.6810302734375
575771875.0 0.33453369140625 -1.2384033203125
606993750.0 -0.55535888671875 -1.1761474609375
638215625.0 -1.1663818359375 -0.588623046875
669437500.0 -1.33917236328125 0.2354736328125
700659375.0 -0.96923828125 1.09735107421875
731881250.0 -0.00146484375 1.542724609375
763103125.0 1.0068359375 1.15374755859375
794325000.0 1.46856689453125 0.27978515625
825546875.0 1.36602783203125 -0.65313720703125
856768750.0 0.792236328125 -1.40130615234375
887990625.0 -0.294921875 -1.64752197265625
919212500.0 -1.28948974609375 -1.07635498046875
950434375.0 -1.64825439453125 -0.05682373046875
981656250.0 -1.38037109375 0.94781494140625
1012878125.0 -0.5269775390625 1.6715087890625
1044100000.0 0.69854736328125 1.6597900390625
1075321875.0 1.57476806640625 0.809326171875
1106543750.0 1.7034912109375 -0.3160400390625
1137765625.0 1.18426513671875 -1.28533935546875
1168987500.0 0.13555908203125 -1.796142578125
1200209375.0 -1.06292724609375 -1.48138427734375
1231431250.0 -1.72723388671875 -0.45074462890625
1262653125.0 -1.592529296875 0.68658447265625
1293875000.0 -0.8492431640625 1.4920654296875
1325096875.0 0.23077392578125 1.7054443359375
1356318750.0 1.2357177734375 1.21429443359375
1387540625.0 1.73883056640625 0.18609619140625
1418762500.0 1.46759033203125 -0.953125
1449984375.0 0.52667236328125 -1.6256103515625
1481206250.0 -0.55169677734375 -1.55413818359375
1512428125.0 -1.3421630859375 -0.91729736328125
1543650000.0 -1.6544189453125 0.06768798828125
1574871875.0 -1.27105712890625 1.10980224609375
1606093750.0 -0.2705078125 1.63055419921875
1637315625.0 0.74371337890625 1.39849853515625
1668537500.0 1.39605712890625 0.69342041015625
1699759375.0 1.571533203125 -0.279541015625
1730981250.0 1.0616455078125 -1.2298583984375
1762203125.0 0.03985595703125 -1.56951904296875
1793425000.0 -0.85638427734375 -1.22430419921875
1824646875.0 -1.3927001953125 -0.51287841796875
1855868750.0 -1.4720458984375 0.43304443359375
1887090625.0 -0.87249755859375 1.2857666015625
1918312500.0 0.11883544921875 1.4854736328125
1949534375.0 0.922119140625 1.08709716796875
1980756250.0 1.374755859375 0.3681640625
2011978125.0 1.35784912109375 -0.5333251953125
2043200000.0 0.7476806640625 -1.26171875
2074421875.0 -0.15863037109375 -1.43194580078125
2105643750.0 -0.960693359375 -1.07025146484375
2136865625.0 -1.4466552734375 -0.30340576171875
2168087500.0 -1.3551025390625 0.67218017578125
2199309375.0 -0.63714599609375 1.3507080078125
2230531250.0 0.28363037109375 1.43450927734375
2261753125.0 1.072998046875 1.011962890625
2292975000.0 1.51348876953125 0.16827392578125
2324196875.0 1.303466796875 -0.819580078125
2355418750.0 0.52301025390625 -1.41949462890625
2386640625.0 -0.40576171875 -1.4471435546875
2417862500.0 -1.18157958984375 -1.02197265625
2449084375.0 -1.60321044921875 -0.08282470703125
2480306250.0 -1.3089599609375 0.92578125
2511528125.0 -0.4915771484375 1.50701904296875
2542750000.0 0.489013671875 1.5343017578125
2573971875.0 1.37139892578125 0.96551513671875
2605193750.0 1.71575927734375 -0.11456298828125
2636415625.0 1.2589111328125 -1.1527099609375
2667637500.0 0.3040771484375 -1.66571044921875
2698859375.0 -0.77093505859375 -1.53179931640625
2730081250.0 -1.572998046875 -0.73785400390625
2761303125.0 -1.67938232421875 0.39056396484375
2792525000.0 -1.09637451171875 1.3076171875
2823746875.0 -0.1007080078125 1.7271728515625
2854968750.0 1.01324462890625 1.4522705078125
2886190625.0 1.69097900390625 0.4888916015625
2917412500.0 1.597900390625 -0.619873046875
2948634375.0 0.93695068359375 -1.43267822265625
2979856250.0 -0.1099853515625 -1.7742919921875
3011078125.0 -1.24761962890625 -1.33941650390625
3042300000.0 -1.77349853515625 -0.232421875
3073521875.0 -1.50628662109375 0.83905029296875
3104743750.0 -0.7606201171875 1.56805419921875
3135965625.0 0.3634033203125 1.80621337890625
3167187500.0 1.49853515625 1.16119384765625
3198409375.0 1.81378173828125 -0.0771484375
3229631250.0 1.34564208984375 -1.081298828125
3260853125.0 0.486572265625 -1.6668701171875
3292075000.0 -0.65643310546875 -1.6953125
3323296875.0 -1.6182861328125 -0.87628173828125
3354518750.0 -1.72808837890625 0.33123779296875
3385740625.0 -1.1531982421875 1.2315673828125
3416962500.0 -0.2294921875 1.67901611328125
3448184375.0 0.8609619140625 1.518798828125
3479406250.0 1.635498046875 0.64141845703125
3510628125.0 1.641845703125 -0.4962158203125
3541850000.0 0.9974365234375 -1.354736328125
3573071875.0 -0.010009765625 -1.680908203125
3604293750.0 -1.0267333984375 -1.3345947265625
3635515625.0 -1.6268310546875 -0.43603515625
3666737500.0 -1.5592041015625 0.647216796875
3697959375.0 -0.8221435546875 1.4754638671875
3729181250.0 0.269775390625 1.62823486328125
3760403125.0 1.15301513671875 1.0955810546875
3791625000.0 1.55072021484375 0.21600341796875
3822846875.0 1.39898681640625 -0.76202392578125
3854068750.0 0.6180419921875 -1.47998046875
3885290625.0 -0.42230224609375 -1.47845458984375
3916512500.0 -1.1419677734375 -0.90875244140625
3947734375.0 -1.44598388671875 -0.11810302734375
3978956250.0 -1.29510498046875 0.7799072265625
4010178125.0 -0.529541015625 1.45208740234375
4041400000.0 0.474365234375 1.4139404296875
4072621875.0 1.15179443359375 0.84515380859375
4103843750.0 1.44256591796875 0.061279296875
4135065625.0 1.26568603515625 -0.84722900390625
4166287500.0 0.4560546875 -1.4949951171875
4197509375.0 -0.55780029296875 -1.412841796875
4228731250.0 -1.24652099609375 -0.80108642578125
4259953125.0 -1.50732421875 0.0723876953125
4291175000.0 -1.18609619140625 1.0106201171875
4322396875.0 -0.28753662109375 1.524658203125
4353618750.0 0.67376708984375 1.3477783203125
4384840625.0 1.3212890625 0.69488525390625
4416062500.0 1.4989013671875 -0.22894287109375
4447284375.0 1.05267333984375 -1.1036376953125
4478506250.0 0.17047119140625 -1.494384765625
4509728125.0 -0.733154296875 -1.3060302734375
4540950000.0 -1.39251708984375 -0.6337890625
4572171875.0 -1.5205078125 0.36041259765625
4603393750.0 -0.9703369140625 1.21185302734375
4634615625.0 -0.05963134765625 1.535400390625
4665837500.0 0.87103271484375 1.302001953125
4697059375.0 1.5411376953125 0.51324462890625
4728281250.0 1.52685546875 -0.58282470703125
4759503125.0 0.8206787109375 -1.36712646484375
4790725000.0 -0.14691162109375 -1.57086181640625
4821946875.0 -1.0833740234375 -1.19146728515625
4853168750.0 -1.61199951171875 -0.24908447265625
4884390625.0 -1.37603759765625 0.7930908203125
4915612500.0 -0.61138916015625 1.41143798828125
4946834375.0 0.329833984375 1.5074462890625
4978056250.0 1.2054443359375 1.014892578125
5009278125.0 1.56103515625 0.03717041015625
5040500000.0 1.2271728515625 -0.87689208984375
5071721875.0 0.4998779296875 -1.4140625
5102943750.0 -0.4476318359375 -1.49493408203125
5134165625.0 -1.33624267578125 -0.90325927734375
5165387500.0 -1.5662841796875 0.1468505859375
5196609375.0 -1.13458251953125 1.009765625
5227831250.0 -0.3560791015625 1.50518798828125
5259053125.0 0.6884765625 1.490478515625
5290275000.0 1.5203857421875 0.6611328125
5321496875.0 1.49072265625 -0.430908203125
5352718750.0 0.9188232421875 -1.15399169921875
5383940625.0 0.09490966796875 -1.49945068359375
5415162500.0 -0.900634765625 -1.28192138671875
5446384375.0 -1.48370361328125 -0.36834716796875
5477606250.0 -1.2972412109375 0.56658935546875
5508828125.0 -0.729736328125 1.15093994140625
5540050000.0 0.05487060546875 1.3974609375
5571271875.0 0.93902587890625 1.106689453125
5602493750.0 1.40765380859375 0.2586669921875
5633715625.0 1.23052978515625 -0.6124267578125
5664937500.0 0.646728515625 -1.2003173828125
5696159375.0 -0.19793701171875 -1.38232421875
5727381250.0 -1.02130126953125 -0.9775390625
5758603125.0 -1.390380859375 -0.14349365234375
5789825000.0 -1.1927490234375 0.7181396484375
5821046875.0 -0.50518798828125 1.30657958984375
5852268750.0 0.412353515625 1.3121337890625
5883490625.0 1.07122802734375 0.7706298828125
5914712500.0 1.3023681640625 0.01806640625
5945934375.0 1.0946044921875 -0.7755126953125
5977156250.0 0.360107421875 -1.31134033203125
6008378125.0 -0.50946044921875 -1.18060302734375
6039600000.0 -1.0211181640625 -0.64764404296875
6070821875.0 -1.22259521484375 -0.0035400390625
6102043750.0 -1.08203125 0.76287841796875
6133265625.0 -0.3409423828125 1.34259033203125
6164487500.0 0.56353759765625 1.1856689453125
6195709375.0 1.07080078125 0.62872314453125
6226931250.0 1.27923583984375 -0.044921875
6258153125.0 1.1029052734375 -0.8699951171875
6289375000.0 0.25482177734375 -1.44580078125
6320596875.0 -0.69024658203125 -1.205322265625
6351818750.0 -1.20013427734375 -0.57049560546875
6383040625.0 -1.35394287109375 0.2086181640625
6414262500.0 -0.99847412109375 1.05712890625
6445484375.0 -0.0775146484375 1.456298828125
6476706250.0 0.79681396484375 1.14764404296875
6507928125.0 1.2900390625 0.46917724609375
6539150000.0 1.3463134765625 -0.38812255859375
6570371875.0 0.84002685546875 -1.14422607421875
6601593750.0 -0.01910400390625 -1.4039306640625
6632815625.0 -0.83953857421875 -1.13446044921875
6664037500.0 -1.4010009765625 -0.4185791015625
6695259375.0 -1.37255859375 0.566650390625
6726481250.0 -0.70855712890625 1.2503662109375
6757703125.0 0.13201904296875 1.40570068359375
6788925000.0 0.95355224609375 1.12896728515625
6820146875.0 1.560302734375 0.286376953125
6851368750.0 1.32489013671875 -0.82049560546875
6882590625.0 0.50482177734375 -1.3387451171875
6913812500.0 -0.29364013671875 -1.355712890625
6945034375.0 -1.07147216796875 -1.02032470703125
6976256250.0 -1.59185791015625 -0.0921630859375
7007478125.0 -1.2349853515625 0.93304443359375
7038700000.0 -0.40093994140625 1.34283447265625
7069921875.0 0.36090087890625 1.3228759765625
7101143750.0 1.1182861328125 0.96710205078125
7132365625.0 1.5989990234375 0.0140380859375
7163587500.0 1.15594482421875 -1.02203369140625
7194809375.0 0.3011474609375 -1.39544677734375
7226031250.0 -0.51318359375 -1.32562255859375
7257253125.0 -1.2657470703125 -0.822998046875
7288475000.0 -1.55645751953125 0.19854736328125
7319696875.0 -1.02813720703125 1.10943603515625
7350918750.0 -0.162109375 1.44561767578125
7382140625.0 0.71539306640625 1.27447509765625
7413362500.0 1.37579345703125 0.57501220703125
7444584375.0 1.41009521484375 -0.4073486328125
7475806250.0 0.85693359375 -1.143310546875
7507028125.0 0.0045166015625 -1.42926025390625
7538250000.0 -0.8897705078125 -1.1229248046875
7569471875.0 -1.33599853515625 -0.310302734375
7600693750.0 -1.2015380859375 0.49853515625
7631915625.0 -0.71673583984375 1.08612060546875
7663137500.0 0.0809326171875 1.35784912109375
7694359375.0 0.94024658203125 0.9793701171875
7725581250.0 1.2445068359375 0.17828369140625
7756803125.0 1.0816650390625 -0.50091552734375
7788025000.0 0.66937255859375 -1.04400634765625
7819246875.0 -0.12066650390625 -1.34527587890625
7850468750.0 -0.991973876953125 -0.914825439453125
7881690625.0 -1.2301025390625 -0.10406494140625
7912912500.0 -1.05450439453125 0.5555419921875
7944134375.0 -0.6041259765625 1.11260986328125
7975356250.0 0.26922607421875 1.33319091796875
8006578125.0 1.04736328125 0.7783203125
8037800000.0 1.1923828125 0.015869140625
8069021875.0 1.00531005859375 -0.61724853515625
8100243750.0 0.4986572265625 -1.16021728515625
8131465625.0 -0.389404296875 -1.25299072265625
8162687500.0 -1.03240966796875 -0.68505859375
8193909375.0 -1.1817626953125 0.010498046875
8225131250.0 -1.01678466796875 0.677001953125
8256353125.0 -0.419921875 1.2479248046875
8287575000.0 0.50152587890625 1.2261962890625
8318796875.0 1.08148193359375 0.634765625
8350018750.0 1.24456787109375 -0.07684326171875
8381240625.0 1.03033447265625 -0.83837890625
8412462500.0 0.25421142578125 -1.3714599609375
8443684375.0 -0.67144775390625 -1.16949462890625
8474906250.0 -1.176513671875 -0.5308837890625
8506128125.0 -1.2965087890625 0.237548828125
8537350000.0 -0.923095703125 1.0460205078125
8568571875.0 -0.01568603515625 1.39410400390625
8599793750.0 0.80352783203125 1.05230712890625
8631015625.0 1.24249267578125 0.396484375
8662237500.0 1.28387451171875 -0.42864990234375
8693459375.0 0.73480224609375 -1.1798095703125
8724681250.0 -0.162353515625 -1.32989501953125
8755903125.0 -0.881439208984375 -0.95648193359375
8787125000.0 -1.30377197265625 -0.27984619140625
8818346875.0 -1.25067138671875 0.61517333984375
8849568750.0 -0.5545654296875 1.26116943359375
8880790625.0 0.29986572265625 1.283203125
8912012500.0 0.98138427734375 0.890625
8943234375.0 1.399169921875 0.12774658203125
8974456250.0 1.16595458984375 -0.84002685546875
9005678125.0 0.3480224609375 -1.31500244140625
9036900000.0 -0.44451904296875 -1.224365234375
9068121875.0 -1.102783203125 -0.78472900390625
9099343750.0 -1.44091796875 0.09844970703125
9130565625.0 -0.9791259765625 1.012451171875
9161787500.0 -0.15380859375 1.282470703125
9193009375.0 0.5565185546875 1.13372802734375
9224231250.0 1.17901611328125 0.6544189453125
9255453125.0 1.39947509765625 -0.29766845703125
9286675000.0 0.8060302734375 -1.0850830078125
9317896875.0 0.026611328125 -1.2457275390625
9349118750.0 -0.65423583984375 -1.0689697265625
9380340625.0 -1.25640869140625 -0.50927734375
9411562500.0 -1.310302734375 0.4776611328125
9442784375.0 -0.6468505859375 1.11529541015625
9474006250.0 0.0889892578125 1.21014404296875
9505228125.0 0.765106201171875 0.97991943359375
9536450000.0 1.27490234375 0.31182861328125
9567671875.0 1.14385986328125 -0.580078125
9598893750.0 0.52825927734375 -1.06866455078125
9630115625.0 -0.14434814453125 -1.15692138671875
9661337500.0 -0.818939208984375 -0.901458740234375
9692559375.0 -1.2396240234375 -0.18939208984375
9723781250.0 -1.04241943359375 0.60400390625
9755003125.0 -0.4852294921875 1.04998779296875
9786225000.0 0.20013427734375 1.15966796875
9817446875.0 0.894775390625 0.827301025390625
9848668750.0 1.19769287109375 0.07763671875
9879890625.0 0.966827392578125 -0.616912841796875
9911112500.0 0.4517822265625 -1.0509033203125
9942334375.0 -0.26910400390625 -1.15911865234375
9973556250.0 -0.94207763671875 -0.7379150390625
10004778125.0 -1.14788818359375 -0.015625
10036000000.0 -0.944183349609375 0.61724853515625
10067221875.0 -0.441162109375 1.09521484375
10098443750.0 0.3699951171875 1.18096923828125
10129665625.0 1.0023193359375 0.64349365234375
10160887500.0 1.12054443359375 -0.05364990234375
10192109375.0 0.916748046875 -0.6624755859375
10223331250.0 0.36053466796875 -1.15374755859375
10254553125.0 -0.48638916015625 -1.1131591796875
10285775000.0 -0.98480224609375 -0.534820556640625
10316996875.0 -1.0672607421875 0.07696533203125
10348218750.0 -0.899200439453125 0.6683349609375
10379440625.0 -0.32135009765625 1.17559814453125
10410662500.0 0.52874755859375 1.0850830078125
10441884375.0 0.9920654296875 0.52117919921875
10473106250.0 1.10906982421875 -0.0858154296875
10504328125.0 0.948883056640625 -0.75701904296875
10535550000.0 0.2388916015625 -1.29461669921875
10566771875.0 -0.65692138671875 -1.0770263671875
10597993750.0 -1.08001708984375 -0.4588623046875
10629215625.0 -1.173828125 0.2056884765625
10660437500.0 -0.88629150390625 0.95159912109375
10691659375.0 -0.00921630859375 1.3358154296875
10722881250.0 0.7847900390625 0.95166015625
10754103125.0 1.11993408203125 0.32366943359375
10785325000.0 1.1392822265625 -0.3677978515625
10816546875.0 0.7001953125 -1.0484619140625
10847768750.0 -0.14569091796875 -1.2288818359375
10878990625.0 -0.80316162109375 -0.843536376953125
10910212500.0 -1.12109375 -0.24554443359375
10941434375.0 -1.0966796875 0.47613525390625
10972656250.0 -0.56732177734375 1.0850830078125
11003878125.0 0.21783447265625 1.173583984375
11035100000.0 0.847747802734375 0.82073974609375
11066321875.0 1.22076416015625 0.17401123046875
11097543750.0 1.0986328125 -0.6766357421875
11128765625.0 0.38671875 -1.1982421875
11159987500.0 -0.393798828125 -1.13739013671875
11191209375.0 -0.999176025390625 -0.7017822265625
11222431250.0 -1.27252197265625 0.09393310546875
11253653125.0 -0.85882568359375 0.8939208984375
11284875000.0 -0.11328125 1.12677001953125
11316096875.0 0.510650634765625 0.955413818359375
11347318750.0 1.00262451171875 0.50128173828125
11378540625.0 1.115478515625 -0.2696533203125
11409762500.0 0.634246826171875 -0.859710693359375
11440984375.0 0.035858154296875 -0.977996826171875
11472206250.0 -0.48126220703125 -0.84930419921875
11503428125.0 -0.95294189453125 -0.455291748046875
11534650000.0 -1.06805419921875 0.288330078125
11565871875.0 -0.601776123046875 0.85467529296875
11597093750.0 -0.017303466796875 0.99139404296875
11628315625.0 0.544677734375 0.874847412109375
11659537500.0 1.05975341796875 0.3916015625
11690759375.0 1.0648193359375 -0.4332275390625
11721981250.0 0.5167236328125 -0.93798828125
11753203125.0 -0.10626220703125 -1.0357666015625
11784425000.0 -0.724212646484375 -0.807037353515625
11815646875.0 -1.102294921875 -0.15069580078125
11846868750.0 -0.890594482421875 0.55108642578125
11878090625.0 -0.39068603515625 0.909820556640625
11909312500.0 0.1878662109375 0.9840087890625
11940534375.0 0.782012939453125 0.694091796875
11971756250.0 1.02679443359375 0.0386962890625
12002978125.0 0.805877685546875 -0.53802490234375
12034200000.0 0.38165283203125 -0.889190673828125
12065421875.0 -0.215087890625 -1.010009765625
12096643750.0 -0.84796142578125 -0.6650390625
12127865625.0 -1.03350830078125 0.01715087890625
12159087500.0 -0.81439208984375 0.575592041015625
12190309375.0 -0.37774658203125 0.974395751953125
12221531250.0 0.34002685546875 1.0882568359375
12252753125.0 0.979949951171875 0.580963134765625
12283975000.0 1.05535888671875 -0.12908935546875
12315196875.0 0.7998046875 -0.6756591796875
12346418750.0 0.2806396484375 -1.09014892578125
12377640625.0 -0.53997802734375 -1.060546875
12408862500.0 -1.03436279296875 -0.4190673828125
12440084375.0 -1.009033203125 0.2269287109375
12471306250.0 -0.7413330078125 0.7376708984375
12502528125.0 -0.1795654296875 1.12066650390625
12533750000.0 0.619354248046875 0.9930419921875
12564971875.0 1.0423583984375 0.36260986328125
12596193750.0 1.02984619140625 -0.265869140625
12627415625.0 0.747314453125 -0.829742431640625
12658637500.0 0.07867431640625 -1.208740234375
12689859375.0 -0.7349853515625 -0.966033935546875
12721081250.0 -1.11676025390625 -0.30572509765625
12752303125.0 -1.0966796875 0.38250732421875
12783525000.0 -0.68646240234375 1.0283203125
12814746875.0 0.165283203125 1.2506103515625
12845968750.0 0.8629150390625 0.811004638671875
12877190625.0 1.11737060546875 0.17144775390625
12908412500.0 1.05572509765625 -0.50250244140625
12939634375.0 0.54339599609375 -1.11737060546875
12970856250.0 -0.32232666015625 -1.17510986328125
13002078125.0 -0.89691162109375 -0.6929931640625
13033300000.0 -1.10546875 -0.0860595703125
13064521875.0 -1.00860595703125 0.59588623046875
13095743750.0 -0.4178466796875 1.15594482421875
13126965625.0 0.40899658203125 1.1197509765625
13158187500.0 0.94769287109375 0.631256103515625
13189409375.0 1.146240234375 -0.0208740234375
13220631250.0 0.936187744140625 -0.74871826171875
13251853125.0 0.23297119140625 -1.17218017578125
13283075000.0 -0.50860595703125 -1.0194091796875
13314296875.0 -0.989013671875 -0.52838134765625
13345518750.0 -1.13433837890625 0.1766357421875
