!Created with skrf (http://scikit-rf.org).
# Hz S RI R 50.0 
!freq ReS11 ImS11
45000000.0 -0.07674026489257812 -0.09706878662109375
76221875.0 -0.1967926025390625 -0.0482177734375
107443750.0 -0.2562103271484375 0.119537353515625
138665625.0 -0.14935302734375 0.3290252685546875
169887500.0 0.1227264404296875 0.4187774658203125
201109375.0 0.4222412109375 0.28277587890625
232331250.0 0.580596923828125 -0.056304931640625
263553125.0 0.4920501708984375 -0.4530487060546875
294775000.0 0.10052490234375 -0.734588623046875
325996875.0 -0.415008544921875 -0.683990478515625
357218750.0 -0.80841064453125 -0.300262451171875
388440625.0 -0.88916015625 0.299652099609375
419662500.0 -0.52105712890625 0.867431640625
450884375.0 0.17083740234375 1.0323486328125
482106250.0 0.798919677734375 0.716705322265625
513328125.0 1.1224365234375 0.0902099609375
544550000.0 1.00799560546875 -0.6793212890625
575771875.0 0.34027099609375 -1.240234375
606993750.0 -0.552001953125 -1.1817626953125
638215625.0 -1.1673583984375 -0.59515380859375
669437500.0 -1.34368896484375 0.23095703125
700659375.0 -0.97589111328125 1.0963134765625
731881250.0 -0.00787353515625 1.54656982421875
763103125.0 1.005126953125 1.16156005859375
794325000.0 1.47186279296875 0.28631591796875
825546875.0 1.37255859375 -0.64996337890625
856768750.0 0.8001708984375 -1.40301513671875
887990625.0 -0.28985595703125 -1.65380859375
919212500.0 -1.28961181640625 -1.08544921875
950434375.0 -1.65399169921875 -0.06292724609375
981656250.0 -1.38885498046875 0.9461669921875
1012878125.0 -0.53521728515625 1.6759033203125
1044100000.0 0.6954345703125 1.6690673828125
1075321875.0 1.57867431640625 0.8179931640625
1106543750.0 1.71063232421875 -0.3096923828125
1137765625.0 1.19366455078125 -1.28515625
1168987500.0 0.14300537109375 -1.8026123046875
1200209375.0 -1.06158447265625 -1.4908447265625
1231431250.0 -1.73187255859375 -0.4591064453125
1262653125.0 -1.60028076171875 0.6827392578125
1293875000.0 -0.8577880859375 1.4937744140625
1325096875.0 0.2244873046875 1.7122802734375
1356318750.0 1.23529052734375 1.223388671875
1387540625.0 1.74468994140625 0.193115234375
1418762500.0 1.47552490234375 -0.94989013671875
1449984375.0 0.534912109375 -1.62933349609375
1481206250.0 -0.5479736328125 -1.56201171875
1512428125.0 -1.3438720703125 -0.92510986328125
1543650000.0 -1.6602783203125 0.06201171875
1574871875.0 -1.27899169921875 1.10943603515625
1606093750.0 -0.27740478515625 1.63525390625
1637315625.0 0.74114990234375 1.40570068359375
1668537500.0 1.39849853515625 0.70062255859375
1699759375.0 1.57781982421875 -0.2738037109375
1730981250.0 1.069580078125 -1.2301025390625
1762203125.0 0.04595947265625 -1.57421875
1793425000.0 -0.85516357421875 -1.23126220703125
1824646875.0 -1.39532470703125 -0.51953125
1855868750.0 -1.47845458984375 0.42974853515625
1887090625.0 -0.88037109375 1.28643798828125
1918312500.0 0.11407470703125 1.49066162109375
1949534375.0 0.9215087890625 1.09368896484375
1980756250.0 1.37738037109375 0.373779296875
2011978125.0 1.3642578125 -0.5296630859375
2043200000.0 0.7547607421875 -1.26275634765625
2074421875.0 -0.1544189453125 -1.43719482421875
2105643750.0 -0.960205078125 -1.0770263671875
2136865625.0 -1.45025634765625 -0.3087158203125
2168087500.0 -1.36151123046875 0.66949462890625
2199309375.0 -0.64324951171875 1.35308837890625
2230531250.0 0.2796630859375 1.43994140625
2261753125.0 1.0732421875 1.0184326171875
2292975000.0 1.51788330078125 0.17340087890625
2324196875.0 1.31024169921875 -0.81781005859375
2355418750.0 0.52923583984375 -1.42205810546875
2386640625.0 -0.4024658203125 -1.45269775390625
2417862500.0 -1.1822509765625 -1.02899169921875
2449084375.0 -1.6082763671875 -0.0872802734375
2480306250.0 -1.31634521484375 0.9256591796875
2511528125.0 -0.49798583984375 1.51165771484375
2542750000.0 0.486572265625 1.54193115234375
2573971875.0 1.372802734375 0.97369384765625
2605193750.0 1.72137451171875 -0.10888671875
2636415625.0 1.26678466796875 -1.15185546875
2667637500.0 0.3104248046875 -1.67120361328125
2698859375.0 -0.76824951171875 -1.5396728515625
2730081250.0 -1.57659912109375 -0.74554443359375
2761303125.0 -1.687255859375 0.3865966796875
2792525000.0 -1.10491943359375 1.30792236328125
2823746875.0 -0.10638427734375 1.73284912109375
2854968750.0 1.012939453125 1.46197509765625
2886190625.0 1.69573974609375 0.49627685546875
2917412500.0 1.6055908203125 -0.615966796875
2948634375.0 0.94525146484375 -1.4356689453125
2979856250.0 -0.10595703125 -1.781982421875
3011078125.0 -1.2493896484375 -1.3485107421875
3042300000.0 -1.779541015625 -0.2388916015625
3073521875.0 -1.514404296875 0.837158203125
3104743750.0 -0.768310546875 1.57061767578125
3135965625.0 0.3592529296875 1.8138427734375
3167187500.0 1.50103759765625 1.17071533203125
3198409375.0 1.82159423828125 -0.07269287109375
3229631250.0 1.35455322265625 -1.08038330078125
3260853125.0 0.49468994140625 -1.6712646484375
3292075000.0 -0.65277099609375 -1.70330810546875
3323296875.0 -1.62298583984375 -0.88507080078125
3354518750.0 -1.7364501953125 0.3267822265625
3385740625.0 -1.1610107421875 1.2335205078125
3416962500.0 -0.23504638671875 1.685791015625
3448184375.0 0.859619140625 1.5272216796875
3479406250.0 1.6392822265625 0.64862060546875
3510628125.0 1.64959716796875 -0.4940185546875
3541850000.0 1.0052490234375 -1.3563232421875
3573071875.0 -0.00482177734375 -1.6864013671875
3604293750.0 -1.02825927734375 -1.34222412109375
3635515625.0 -1.631591796875 -0.4420166015625
3666737500.0 -1.56658935546875 0.64532470703125
3697959375.0 -0.83026123046875 1.4779052734375
3729181250.0 0.26556396484375 1.634765625
3760403125.0 1.15264892578125 1.1026611328125
3791625000.0 1.5560302734375 0.2210693359375
3822846875.0 1.40728759765625 -0.759765625
3854068750.0 0.6251220703125 -1.48382568359375
3885290625.0 -0.4197998046875 -1.48590087890625
3916512500.0 -1.14422607421875 -0.91571044921875
3947734375.0 -1.45037841796875 -0.12322998046875
3978956250.0 -1.302734375 0.77984619140625
4010178125.0 -0.5347900390625 1.458251953125
4041400000.0 0.472900390625 1.419189453125
4072621875.0 1.15423583984375 0.850830078125
4103843750.0 1.44793701171875 0.06561279296875
4135065625.0 1.27215576171875 -0.84637451171875
4166287500.0 0.46087646484375 -1.4990234375
4197509375.0 -0.557373046875 -1.41925048828125
4228731250.0 -1.2498779296875 -0.80560302734375
4259953125.0 -1.5118408203125 0.068115234375
4291175000.0 -1.1923828125 1.010009765625
4322396875.0 -0.2926025390625 1.52947998046875
4353618750.0 0.6722412109375 1.3541259765625
4384840625.0 1.3240966796875 0.70123291015625
4416062500.0 1.50531005859375 -0.22564697265625
4447284375.0 1.059326171875 -1.1065673828125
4478506250.0 0.174560546875 -1.4986572265625
4509728125.0 -0.732666015625 -1.3118896484375
4540950000.0 -1.396240234375 -0.639404296875
4572171875.0 -1.52630615234375 0.3587646484375
4603393750.0 -0.97601318359375 1.21429443359375
4634615625.0 -0.062255859375 1.54083251953125
4665837500.0 0.8699951171875 1.30828857421875
4697059375.0 1.54351806640625 0.5185546875
4728281250.0 1.5335693359375 -0.582763671875
4759503125.0 0.82672119140625 -1.368408203125
4790725000.0 -0.14459228515625 -1.57672119140625
4821946875.0 -1.0849609375 -1.19805908203125
4853168750.0 -1.61676025390625 -0.254150390625
4884390625.0 -1.38275146484375 0.7930908203125
4915612500.0 -0.6168212890625 1.41424560546875
4946834375.0 0.32806396484375 1.51361083984375
4978056250.0 1.207275390625 1.021240234375
5009278125.0 1.56622314453125 0.04144287109375
5040500000.0 1.23333740234375 -0.87725830078125
5071721875.0 0.50469970703125 -1.41729736328125
5102943750.0 -0.44586181640625 -1.50079345703125
5134165625.0 -1.3394775390625 -0.9090576171875
5165387500.0 -1.5726318359375 0.1451416015625
5196609375.0 -1.1396484375 1.01068115234375
5227831250.0 -0.3599853515625 1.50885009765625
5259053125.0 0.68743896484375 1.49688720703125
5290275000.0 1.52520751953125 0.66558837890625
5321496875.0 1.49578857421875 -0.4296875
5352718750.0 0.924560546875 -1.15399169921875
5383940625.0 0.09869384765625 -1.5032958984375
5415162500.0 -0.9007568359375 -1.287841796875
5446384375.0 -1.4881591796875 -0.37261962890625
5477606250.0 -1.30322265625 0.56634521484375
5508828125.0 -0.734619140625 1.15289306640625
5540050000.0 0.05242919921875 1.40289306640625
5571271875.0 0.94000244140625 1.1126708984375
5602493750.0 1.411865234375 0.261962890625
5633715625.0 1.2354736328125 -0.6121826171875
5664937500.0 0.650390625 -1.20440673828125
5696159375.0 -0.19683837890625 -1.38787841796875
5727381250.0 -1.02288818359375 -0.98211669921875
5758603125.0 -1.394287109375 -0.1468505859375
5789825000.0 -1.197998046875 0.71807861328125
5821046875.0 -0.50885009765625 1.309814453125
5852268750.0 0.41192626953125 1.31634521484375
5883490625.0 1.07354736328125 0.7744140625
5914712500.0 1.3057861328125 0.02056884765625
5945934375.0 1.09991455078125 -0.7764892578125
5977156250.0 0.363525390625 -1.31536865234375
6008378125.0 -0.51031494140625 -1.185791015625
6039600000.0 -1.023193359375 -0.65167236328125
6070821875.0 -1.22711181640625 -0.00555419921875
6102043750.0 -1.086669921875 0.763427734375
6133265625.0 -0.34356689453125 1.34881591796875
6164487500.0 0.5633544921875 1.1905517578125
6195709375.0 1.0726318359375 0.6322021484375
6226931250.0 1.28314208984375 -0.0413818359375
6258153125.0 1.10791015625 -0.8724365234375
6289375000.0 0.256591796875 -1.45013427734375
6320596875.0 -0.6903076171875 -1.20867919921875
6351818750.0 -1.20233154296875 -0.57391357421875
6383040625.0 -1.35797119140625 0.2066650390625
6414262500.0 -1.00213623046875 1.05938720703125
6445484375.0 -0.080078125 1.45989990234375
6476706250.0 0.7965087890625 1.15081787109375
6507928125.0 1.29254150390625 0.47186279296875
6539150000.0 1.3511962890625 -0.3865966796875
6570371875.0 0.84417724609375 -1.14654541015625
6601593750.0 -0.01580810546875 -1.40826416015625
6632815625.0 -0.84136962890625 -1.13995361328125
6664037500.0 -1.40533447265625 -0.42156982421875
6695259375.0 -1.37750244140625 0.56689453125
6726481250.0 -0.71258544921875 1.25421142578125
6757703125.0 0.130126953125 1.410400390625
6788925000.0 0.95721435546875 1.134033203125
6820146875.0 1.56396484375 0.2889404296875
6851368750.0 1.32891845703125 -0.821533203125
6882590625.0 0.5076904296875 -1.34271240234375
6913812500.0 -0.29150390625 -1.359375
6945034375.0 -1.07208251953125 -1.02484130859375
6976256250.0 -1.5963134765625 -0.09423828125
7007478125.0 -1.240478515625 0.9342041015625
7038700000.0 -0.404296875 1.34747314453125
7069921875.0 0.35943603515625 1.32830810546875
7101143750.0 1.12158203125 0.97296142578125
7132365625.0 1.6029052734375 0.0166015625
7163587500.0 1.16217041015625 -1.0240478515625
7194809375.0 0.30419921875 -1.4019775390625
7226031250.0 -0.513671875 -1.33062744140625
7257253125.0 -1.27056884765625 -0.8280029296875
7288475000.0 -1.56298828125 0.1978759765625
7319696875.0 -1.03369140625 1.1124267578125
7350918750.0 -0.1661376953125 1.44622802734375
7382140625.0 0.71734619140625 1.28082275390625
7413362500.0 1.37939453125 0.5789794921875
7444584375.0 1.41571044921875 -0.40716552734375
7475806250.0 0.86102294921875 -1.14715576171875
7507028125.0 0.0062255859375 -1.43359375
7538250000.0 -0.89056396484375 -1.12762451171875
7569471875.0 -1.3404541015625 -0.311767578125
7600693750.0 -1.20556640625 0.4974365234375
7631915625.0 -0.72021484375 1.0889892578125
7663137500.0 0.07977294921875 1.36376953125
7694359375.0 0.9434814453125 0.983612060546875
7725581250.0 1.24688720703125 0.18182373046875
7756803125.0 1.08636474609375 -0.49810791015625
7788025000.0 0.673095703125 -1.047119140625
7819246875.0 -0.1202392578125 -1.35247802734375
7850468750.0 -0.9964599609375 -0.918914794921875
7881690625.0 -1.23577880859375 -0.1048583984375
7912912500.0 -1.057861328125 0.5552978515625
7944134375.0 -0.606689453125 1.11810302734375
7975356250.0 0.27435302734375 1.3394775390625
8006578125.0 1.0501708984375 0.78045654296875
8037800000.0 1.19512939453125 0.01776123046875
8069021875.0 1.00958251953125 -0.61767578125
8100243750.0 0.50152587890625 -1.165771484375
8131465625.0 -0.38751220703125 -1.25823974609375
8162687500.0 -1.032958984375 -0.68902587890625
8193909375.0 -1.18365478515625 0.0067138671875
8225131250.0 -1.021728515625 0.6798095703125
8256353125.0 -0.423095703125 1.25360107421875
8287575000.0 0.5032958984375 1.23040771484375
8318796875.0 1.08447265625 0.63824462890625
8350018750.0 1.25 -0.0762939453125
8381240625.0 1.03533935546875 -0.842041015625
8412462500.0 0.2547607421875 -1.378662109375
8443684375.0 -0.67169189453125 -1.1729736328125
8474906250.0 -1.1768798828125 -0.534423828125
8506128125.0 -1.3017578125 0.23822021484375
8537350000.0 -0.92681884765625 1.049072265625
8568571875.0 -0.0162353515625 1.3978271484375
8599793750.0 0.802734375 1.05499267578125
8631015625.0 1.244140625 0.3992919921875
8662237500.0 1.28961181640625 -0.42877197265625
8693459375.0 0.73980712890625 -1.17926025390625
8724681250.0 -0.15966796875 -1.33526611328125
8755903125.0 -0.881866455078125 -0.962158203125
8787125000.0 -1.30816650390625 -0.28326416015625
8818346875.0 -1.25494384765625 0.61578369140625
8849568750.0 -0.5574951171875 1.2650146484375
8880790625.0 0.29901123046875 1.28936767578125
8912012500.0 0.98504638671875 0.89697265625
8943234375.0 1.40423583984375 0.12921142578125
8974456250.0 1.16998291015625 -0.84356689453125
9005678125.0 0.3485107421875 -1.3162841796875
9036900000.0 -0.4464111328125 -1.22882080078125
9068121875.0 -1.1041259765625 -0.78729248046875
9099343750.0 -1.44586181640625 0.09954833984375
9130565625.0 -0.9814453125 1.01312255859375
9161787500.0 -0.15423583984375 1.286376953125
9193009375.0 0.55487060546875 1.1363525390625
9224231250.0 1.1845703125 0.656494140625
9255453125.0 1.40478515625 -0.29803466796875
9286675000.0 0.8099365234375 -1.0869140625
9317896875.0 0.0262451171875 -1.250732421875
9349118750.0 -0.6566162109375 -1.0745849609375
9380340625.0 -1.26251220703125 -0.51141357421875
9411562500.0 -1.31561279296875 0.47894287109375
9442784375.0 -0.64892578125 1.1197509765625
9474006250.0 0.0888671875 1.21484375
9505228125.0 0.7677001953125 0.98297119140625
9536450000.0 1.27783203125 0.31365966796875
9567671875.0 1.14715576171875 -0.5831298828125
9598893750.0 0.5302734375 -1.07159423828125
9630115625.0 -0.14501953125 -1.16168212890625
9661337500.0 -0.8216552734375 -0.90484619140625
9692559375.0 -1.2421875 -0.19091796875
9723781250.0 -1.04644775390625 0.6025390625
9755003125.0 -0.48773193359375 1.05340576171875
9786225000.0 0.19989013671875 1.16357421875
9817446875.0 0.897216796875 0.830078125
9848668750.0 1.20086669921875 0.07794189453125
9879890625.0 0.97186279296875 -0.62115478515625
9911112500.0 0.4532470703125 -1.0560302734375
9942334375.0 -0.2694091796875 -1.16339111328125
9973556250.0 -0.948822021484375 -0.7398681640625
10004778125.0 -1.15045166015625 -0.01666259765625
10036000000.0 -0.946197509765625 0.618133544921875
10067221875.0 -0.4425048828125 1.1005859375
10098443750.0 0.37109375 1.18402099609375
10129665625.0 1.00579833984375 0.6436767578125
10160887500.0 1.12225341796875 -0.05267333984375
10192109375.0 0.9195556640625 -0.66668701171875
10223331250.0 0.36102294921875 -1.1563720703125
10254553125.0 -0.488037109375 -1.11566162109375
10285775000.0 -0.986785888671875 -0.53607177734375
10316996875.0 -1.069091796875 0.076416015625
10348218750.0 -0.90234375 0.672607421875
10379440625.0 -0.3221435546875 1.17938232421875
10410662500.0 0.52764892578125 1.08740234375
10441884375.0 0.994720458984375 0.523712158203125
10473106250.0 1.111572265625 -0.08428955078125
10504328125.0 0.95220947265625 -0.7596435546875
10535550000.0 0.23956298828125 -1.29986572265625
10566771875.0 -0.65966796875 -1.08001708984375
10597993750.0 -1.08544921875 -0.459716796875
10629215625.0 -1.1785888671875 0.2056884765625
10660437500.0 -0.889556884765625 0.954925537109375
10691659375.0 -0.00726318359375 1.34033203125
10722881250.0 0.789306640625 0.954742431640625
10754103125.0 1.123291015625 0.32537841796875
10785325000.0 1.142822265625 -0.369384765625
10816546875.0 0.70220947265625 -1.0537109375
10847768750.0 -0.14678955078125 -1.232421875
10878990625.0 -0.805938720703125 -0.84503173828125
10910212500.0 -1.12457275390625 -0.2464599609375
10941434375.0 -1.10089111328125 0.477783203125
10972656250.0 -0.57049560546875 1.0882568359375
11003878125.0 0.21820068359375 1.17779541015625
11035100000.0 0.85260009765625 0.82427978515625
11066321875.0 1.224609375 0.17474365234375
11097543750.0 1.101806640625 -0.67852783203125
11128765625.0 0.3858642578125 -1.204345703125
11159987500.0 -0.39764404296875 -1.1422119140625
11191209375.0 -1.003662109375 -0.70458984375
11222431250.0 -1.2757568359375 0.094482421875
11253653125.0 -0.860504150390625 0.8980712890625
11284875000.0 -0.11334228515625 1.13104248046875
11316096875.0 0.513427734375 0.958526611328125
11347318750.0 1.00592041015625 0.50299072265625
11378540625.0 1.12054443359375 -0.2723388671875
11409762500.0 0.63580322265625 -0.8616943359375
11440984375.0 0.03515625 -0.9815673828125
11472206250.0 -0.481689453125 -0.853271484375
11503428125.0 -0.955902099609375 -0.458648681640625
11534650000.0 -1.07257080078125 0.29095458984375
11565871875.0 -0.60302734375 0.859222412109375
11597093750.0 -0.018035888671875 0.99505615234375
11628315625.0 0.545196533203125 0.877471923828125
11659537500.0 1.06494140625 0.392333984375
11690759375.0 1.06658935546875 -0.43572998046875
11721981250.0 0.51776123046875 -0.94378662109375
11753203125.0 -0.105712890625 -1.0386962890625
11784425000.0 -0.7296142578125 -0.810577392578125
11815646875.0 -1.1053466796875 -0.1500244140625
11846868750.0 -0.8931884765625 0.554107666015625
11878090625.0 -0.3909912109375 0.912322998046875
11909312500.0 0.188812255859375 0.988525390625
11940534375.0 0.783905029296875 0.696014404296875
11971756250.0 1.02801513671875 0.039306640625
12002978125.0 0.807952880859375 -0.53973388671875
12034200000.0 0.382476806640625 -0.8929443359375
12065421875.0 -0.216552734375 -1.01318359375
12096643750.0 -0.85186767578125 -0.6668701171875
12127865625.0 -1.03741455078125 0.01837158203125
12159087500.0 -0.817230224609375 0.579803466796875
12190309375.0 -0.378570556640625 0.97869873046875
12221531250.0 0.3414306640625 1.0911865234375
12252753125.0 0.984039306640625 0.581573486328125
12283975000.0 1.05816650390625 -0.1302490234375
12315196875.0 0.801910400390625 -0.678314208984375
12346418750.0 0.281494140625 -1.09417724609375
12377640625.0 -0.54107666015625 -1.06304931640625
12408862500.0 -1.035400390625 -0.41973876953125
12440084375.0 -1.01031494140625 0.22412109375
12471306250.0 -0.7440185546875 0.7401123046875
12502528125.0 -0.17852783203125 1.12548828125
12533750000.0 0.621551513671875 0.995849609375
12564971875.0 1.044921875 0.3641357421875
12596193750.0 1.032958984375 -0.26708984375
12627415625.0 0.750152587890625 -0.83172607421875
12658637500.0 0.07745361328125 -1.21173095703125
12689859375.0 -0.7398681640625 -0.968994140625
12721081250.0 -1.1185302734375 -0.3072509765625
12752303125.0 -1.1004638671875 0.384033203125
12783525000.0 -0.68798828125 1.03271484375
12814746875.0 0.16796875 1.25469970703125
12845968750.0 0.8658447265625 0.812591552734375
12877190625.0 1.11981201171875 0.17266845703125
12908412500.0 1.05908203125 -0.50506591796875
12939634375.0 0.54278564453125 -1.12005615234375
12970856250.0 -0.32305908203125 -1.17718505859375
13002078125.0 -0.89593505859375 -0.694183349609375
13033300000.0 -1.11016845703125 -0.08636474609375
13064521875.0 -1.01226806640625 0.59686279296875
13095743750.0 -0.42022705078125 1.1575927734375
13126965625.0 0.41302490234375 1.12249755859375
13158187500.0 0.948883056640625 0.63348388671875
13189409375.0 1.153076171875 -0.02325439453125
13220631250.0 0.938812255859375 -0.75238037109375
13251853125.0 0.23187255859375 -1.17718505859375
13283075000.0 -0.50994873046875 -1.02313232421875
13314296875.0 -0.991790771484375 -0.52978515625
13345518750.0 -1.13922119140625 0.18035888671875
13376740625.0 -0.75390625 0.862823486328125
