!Created with skrf (http://scikit-rf.org).
# Hz S RI R 50.0 
!freq ReS11 ImS11
45000000.0 -0.07693099975585938 -0.09670639038085938
76221875.0 -0.19623565673828125 -0.04759979248046875
107443750.0 -0.2547760009765625 0.11944580078125
138665625.0 -0.1482391357421875 0.328155517578125
169887500.0 0.12322998046875 0.4172210693359375
201109375.0 0.4214935302734375 0.280609130859375
232331250.0 0.578399658203125 -0.057281494140625
263553125.0 0.4892730712890625 -0.4522552490234375
294775000.0 0.0986328125 -0.73175048828125
325996875.0 -0.4146728515625 -0.679901123046875
357218750.0 -0.8052978515625 -0.296875
388440625.0 -0.884918212890625 0.29998779296875
419662500.0 -0.51715087890625 0.865386962890625
450884375.0 0.172607421875 1.02764892578125
482106250.0 0.797515869140625 0.712127685546875
513328125.0 1.1180419921875 0.08734130859375
544550000.0 1.00299072265625 -0.67901611328125
575771875.0 0.33636474609375 -1.23687744140625
606993750.0 -0.5531005859375 -1.1763916015625
638215625.0 -1.16448974609375 -0.590087890625
669437500.0 -1.3385009765625 0.23321533203125
700659375.0 -0.97027587890625 1.0948486328125
731881250.0 -0.0040283203125 1.54150390625
763103125.0 1.0042724609375 1.1546630859375
794325000.0 1.46697998046875 0.28173828125
825546875.0 1.36590576171875 -0.65045166015625
856768750.0 0.79400634765625 -1.3984375
887990625.0 -0.29156494140625 -1.64599609375
919212500.0 -1.28582763671875 -1.0775146484375
950434375.0 -1.6463623046875 -0.0594482421875
981656250.0 -1.380859375 0.9442138671875
1012878125.0 -0.52960205078125 1.66864013671875
1044100000.0 0.695556640625 1.659423828125
1075321875.0 1.571533203125 0.811279296875
1106543750.0 1.7025146484375 -0.311767578125
1137765625.0 1.185302734375 -1.2816162109375
1168987500.0 0.13861083984375 -1.7939453125
1200209375.0 -1.05938720703125 -1.4815673828125
1231431250.0 -1.72442626953125 -0.45343017578125
1262653125.0 -1.592041015625 0.6834716796875
1293875000.0 -0.85125732421875 1.48870849609375
1325096875.0 0.22772216796875 1.70428466796875
1356318750.0 1.23297119140625 1.21527099609375
1387540625.0 1.73699951171875 0.18939208984375
1418762500.0 1.46722412109375 -0.94964599609375
1449984375.0 0.52899169921875 -1.623046875
1481206250.0 -0.5484619140625 -1.5538330078125
1512428125.0 -1.339599609375 -0.91876220703125
1543650000.0 -1.653076171875 0.065185546875
1574871875.0 -1.2716064453125 1.106689453125
1606093750.0 -0.273193359375 1.628662109375
1637315625.0 0.74053955078125 1.398681640625
1668537500.0 1.39398193359375 0.6953125
1699759375.0 1.57061767578125 -0.27587890625
1730981250.0 1.0628662109375 -1.22747802734375
1762203125.0 0.0426025390625 -1.56829833984375
1793425000.0 -0.8541259765625 -1.22515869140625
1824646875.0 -1.390869140625 -0.51495361328125
1855868750.0 -1.471923828125 0.43121337890625
1887090625.0 -0.873779296875 1.282958984375
1918312500.0 0.11627197265625 1.48431396484375
1949534375.0 0.9195556640625 1.08770751953125
1980756250.0 1.37261962890625 0.36962890625
2011978125.0 1.3575439453125 -0.5306396484375
2043200000.0 0.7491455078125 -1.259033203125
2074421875.0 -0.15618896484375 -1.431396484375
2105643750.0 -0.958984375 -1.07122802734375
2136865625.0 -1.4453125 -0.3048095703125
2168087500.0 -1.355224609375 0.6695556640625
2199309375.0 -0.63848876953125 1.349365234375
2230531250.0 0.28118896484375 1.43377685546875
2261753125.0 1.07025146484375 1.0126953125
2292975000.0 1.5123291015625 0.170166015625
2324196875.0 1.3038330078125 -0.81732177734375
2355418750.0 0.52471923828125 -1.41802978515625
2386640625.0 -0.40301513671875 -1.446533203125
2417862500.0 -1.17767333984375 -1.022705078125
2449084375.0 -1.60125732421875 -0.08502197265625
2480306250.0 -1.30938720703125 0.9229736328125
2511528125.0 -0.4940185546875 1.50433349609375
2542750000.0 0.48675537109375 1.5335693359375
2573971875.0 1.3677978515625 0.9666748046875
2605193750.0 1.71368408203125 -0.1116943359375
2636415625.0 1.25909423828125 -1.149658203125
2667637500.0 0.30718994140625 -1.66290283203125
2698859375.0 -0.7679443359375 -1.53143310546875
2730081250.0 -1.57012939453125 -0.739990234375
2761303125.0 -1.67755126953125 0.38604736328125
2792525000.0 -1.09759521484375 1.304443359375
2823746875.0 -0.10272216796875 1.726318359375
2854968750.0 1.00946044921875 1.45306396484375
2886190625.0 1.6878662109375 0.4912109375
2917412500.0 1.59710693359375 -0.615478515625
2948634375.0 0.93853759765625 -1.430419921875
2979856250.0 -0.10577392578125 -1.77154541015625
3011078125.0 -1.2432861328125 -1.34002685546875
3042300000.0 -1.77105712890625 -0.23480224609375
3073521875.0 -1.5057373046875 0.83502197265625
3104743750.0 -0.76300048828125 1.565185546875
3135965625.0 0.360107421875 1.8050537109375
3167187500.0 1.49603271484375 1.16259765625
3198409375.0 1.81219482421875 -0.07440185546875
3229631250.0 1.34649658203125 -1.078369140625
3260853125.0 0.4893798828125 -1.66473388671875
3292075000.0 -0.65313720703125 -1.69537353515625
3323296875.0 -1.61505126953125 -0.878662109375
3354518750.0 -1.7266845703125 0.32794189453125
3385740625.0 -1.15423583984375 1.2294921875
3416962500.0 -0.23114013671875 1.67919921875
3448184375.0 0.85736083984375 1.51904296875
3479406250.0 1.632080078125 0.6435546875
3510628125.0 1.64117431640625 -0.49365234375
3541850000.0 0.99896240234375 -1.3519287109375
3573071875.0 -0.0064697265625 -1.67913818359375
3604293750.0 -1.02569580078125 -1.335205078125
3635515625.0 -1.623291015625 -0.43896484375
3666737500.0 -1.55810546875 0.6441650390625
3697959375.0 -0.823974609375 1.4722900390625
3729181250.0 0.2662353515625 1.62664794921875
3760403125.0 1.1502685546875 1.09619140625
3791625000.0 1.54852294921875 0.21856689453125
3822846875.0 1.39923095703125 -0.75909423828125
3854068750.0 0.6201171875 -1.4775390625
3885290625.0 -0.4189453125 -1.47821044921875
3916512500.0 -1.1397705078125 -0.9095458984375
3947734375.0 -1.444580078125 -0.12078857421875
3978956250.0 -1.294677734375 0.7755126953125
4010178125.0 -0.53076171875 1.451171875
4041400000.0 0.4715576171875 1.4124755859375
4072621875.0 1.148681640625 0.84674072265625
4103843750.0 1.44287109375 0.0634765625
4135065625.0 1.26593017578125 -0.8441162109375
4166287500.0 0.457763671875 -1.49237060546875
4197509375.0 -0.55584716796875 -1.41278076171875
4228731250.0 -1.24444580078125 -0.80224609375
4259953125.0 -1.50592041015625 0.06915283203125
4291175000.0 -1.18682861328125 1.00775146484375
4322396875.0 -0.2894287109375 1.52392578125
4353618750.0 0.67120361328125 1.34796142578125
4384840625.0 1.31982421875 0.6956787109375
4416062500.0 1.49884033203125 -0.22711181640625
4447284375.0 1.053466796875 -1.101318359375
4478506250.0 0.17340087890625 -1.4918212890625
4509728125.0 -0.7291259765625 -1.30462646484375
4540950000.0 -1.39093017578125 -0.635986328125
4572171875.0 -1.51983642578125 0.3580322265625
4603393750.0 -0.9716796875 1.20916748046875
4634615625.0 -0.0609130859375 1.53515625
4665837500.0 0.86810302734375 1.30206298828125
4697059375.0 1.53863525390625 0.514404296875
4728281250.0 1.5267333984375 -0.58050537109375
4759503125.0 0.8223876953125 -1.3642578125
4790725000.0 -0.144287109375 -1.5703125
4821946875.0 -1.07958984375 -1.19232177734375
4853168750.0 -1.60986328125 -0.25164794921875
4884390625.0 -1.37646484375 0.7908935546875
4915612500.0 -0.6134033203125 1.40899658203125
4946834375.0 0.3277587890625 1.50677490234375
4978056250.0 1.20208740234375 1.01605224609375
5009278125.0 1.5592041015625 0.03985595703125
5040500000.0 1.227783203125 -0.87396240234375
5071721875.0 0.50128173828125 -1.41217041015625
5102943750.0 -0.4453125 -1.49407958984375
5134165625.0 -1.33404541015625 -0.90509033203125
5165387500.0 -1.56512451171875 0.14495849609375
5196609375.0 -1.1346435546875 1.006591796875
5227831250.0 -0.3575439453125 1.5032958984375
5259053125.0 0.68719482421875 1.490234375
5290275000.0 1.51763916015625 0.66253662109375
5321496875.0 1.490478515625 -0.4296875
5352718750.0 0.92022705078125 -1.15118408203125
5383940625.0 0.09747314453125 -1.49713134765625
5415162500.0 -0.8994140625 -1.2821044921875
5446384375.0 -1.4818115234375 -0.370361328125
5477606250.0 -1.297607421875 0.56512451171875
5508828125.0 -0.73089599609375 1.148681640625
5540050000.0 0.0533447265625 1.397216796875
5571271875.0 0.9354248046875 1.1075439453125
5602493750.0 1.40606689453125 0.26025390625
5633715625.0 1.2303466796875 -0.6109619140625
5664937500.0 0.64776611328125 -1.19927978515625
5696159375.0 -0.19647216796875 -1.38201904296875
5727381250.0 -1.01922607421875 -0.97747802734375
5758603125.0 -1.38983154296875 -0.1455078125
5789825000.0 -1.1929931640625 0.716796875
5821046875.0 -0.50592041015625 1.30535888671875
5852268750.0 0.41021728515625 1.31103515625
5883490625.0 1.06903076171875 0.77130126953125
5914712500.0 1.3011474609375 0.01983642578125
5945934375.0 1.0946044921875 -0.7744140625
5977156250.0 0.36151123046875 -1.31024169921875
6008378125.0 -0.508544921875 -1.18109130859375
6039600000.0 -1.0196533203125 -0.64892578125
6070821875.0 -1.2222900390625 -0.004638671875
6102043750.0 -1.08160400390625 0.7606201171875
6133265625.0 -0.34246826171875 1.34210205078125
6164487500.0 0.56158447265625 1.18609619140625
6195709375.0 1.06927490234375 0.6298828125
6226931250.0 1.2781982421875 -0.0423583984375
6258153125.0 1.10333251953125 -0.869384765625
6289375000.0 0.255615234375 -1.4454345703125
6320596875.0 -0.6868896484375 -1.20428466796875
6351818750.0 -1.1983642578125 -0.57135009765625
6383040625.0 -1.3524169921875 0.2054443359375
6414262500.0 -0.99884033203125 1.0545654296875
6445484375.0 -0.0791015625 1.45404052734375
6476706250.0 0.793701171875 1.14642333984375
6507928125.0 1.2886962890625 0.46978759765625
6539150000.0 1.34564208984375 -0.384765625
6570371875.0 0.8406982421875 -1.14239501953125
6601593750.0 -0.01593017578125 -1.40264892578125
6632815625.0 -0.83819580078125 -1.13525390625
6664037500.0 -1.3985595703125 -0.42041015625
6695259375.0 -1.372802734375 0.564697265625
6726481250.0 -0.7098388671875 1.25
6757703125.0 0.129638671875 1.40472412109375
6788925000.0 0.95343017578125 1.1298828125
6820146875.0 1.55828857421875 0.28839111328125
6851368750.0 1.32440185546875 -0.81829833984375
6882590625.0 0.506103515625 -1.33624267578125
6913812500.0 -0.2901611328125 -1.3533935546875
6945034375.0 -1.06842041015625 -1.020263671875
6976256250.0 -1.5909423828125 -0.09381103515625
7007478125.0 -1.23394775390625 0.93109130859375
7038700000.0 -0.4022216796875 1.33941650390625
7069921875.0 0.35565185546875 1.3216552734375
7101143750.0 1.1158447265625 0.967529296875
7132365625.0 1.5960693359375 0.0164794921875
7163587500.0 1.15625 -1.0164794921875
7194809375.0 0.30224609375 -1.39453125
7226031250.0 -0.51080322265625 -1.3238525390625
7257253125.0 -1.2657470703125 -0.82305908203125
7288475000.0 -1.55670166015625 0.19635009765625
7319696875.0 -1.028076171875 1.10784912109375
7350918750.0 -0.16705322265625 1.43914794921875
7382140625.0 0.7139892578125 1.27459716796875
7413362500.0 1.371826171875 0.576416015625
7444584375.0 1.40863037109375 -0.40374755859375
7475806250.0 0.857666015625 -1.13873291015625
7507028125.0 0.00628662109375 -1.42767333984375
7538250000.0 -0.8857421875 -1.12200927734375
7569471875.0 -1.33453369140625 -0.310791015625
7600693750.0 -1.20123291015625 0.49609375
7631915625.0 -0.71820068359375 1.081787109375
7663137500.0 0.0780029296875 1.3572998046875
7694359375.0 0.936767578125 0.979766845703125
7725581250.0 1.24163818359375 0.180419921875
7756803125.0 1.0814208984375 -0.498779296875
7788025000.0 0.67022705078125 -1.04144287109375
7819246875.0 -0.119873046875 -1.3466796875
7850468750.0 -0.98992919921875 -0.916046142578125
7881690625.0 -1.229736328125 -0.105712890625
7912912500.0 -1.05340576171875 0.5521240234375
7944134375.0 -0.6051025390625 1.11163330078125
7975356250.0 0.2689208984375 1.3321533203125
8006578125.0 1.04534912109375 0.77813720703125
8037800000.0 1.19354248046875 0.0162353515625
8069021875.0 1.00537109375 -0.6160888671875
8100243750.0 0.50018310546875 -1.1595458984375
8131465625.0 -0.3857421875 -1.2528076171875
8162687500.0 -1.03094482421875 -0.68585205078125
8193909375.0 -1.17913818359375 0.0074462890625
8225131250.0 -1.016845703125 0.67755126953125
8256353125.0 -0.42156982421875 1.24664306640625
8287575000.0 0.49908447265625 1.22491455078125
8318796875.0 1.08209228515625 0.635009765625
8350018750.0 1.24298095703125 -0.0745849609375
8381240625.0 1.02996826171875 -0.83648681640625
8412462500.0 0.2548828125 -1.3709716796875
8443684375.0 -0.66748046875 -1.16851806640625
8474906250.0 -1.17437744140625 -0.53216552734375
8506128125.0 -1.29638671875 0.237060546875
8537350000.0 -0.923095703125 1.04376220703125
8568571875.0 -0.01654052734375 1.39337158203125
8599793750.0 0.8001708984375 1.0521240234375
8631015625.0 1.2413330078125 0.39776611328125
8662237500.0 1.28369140625 -0.4273681640625
8693459375.0 0.736083984375 -1.17498779296875
8724681250.0 -0.16156005859375 -1.3306884765625
8755903125.0 -0.880584716796875 -0.95733642578125
8787125000.0 -1.3028564453125 -0.28167724609375
8818346875.0 -1.2501220703125 0.6142578125
8849568750.0 -0.55572509765625 1.259033203125
8880790625.0 0.29638671875 1.28204345703125
8912012500.0 0.98077392578125 0.89251708984375
8943234375.0 1.3984375 0.12786865234375
8974456250.0 1.1663818359375 -0.83905029296875
9005678125.0 0.34954833984375 -1.31146240234375
9036900000.0 -0.4456787109375 -1.22491455078125
9068121875.0 -1.09869384765625 -0.78582763671875
9099343750.0 -1.43621826171875 0.09576416015625
9130565625.0 -0.97930908203125 1.01165771484375
9161787500.0 -0.154541015625 1.28143310546875
9193009375.0 0.55340576171875 1.1318359375
9224231250.0 1.17791748046875 0.654296875
9255453125.0 1.3978271484375 -0.295166015625
9286675000.0 0.80633544921875 -1.08502197265625
9317896875.0 0.02764892578125 -1.24560546875
9349118750.0 -0.650634765625 -1.068115234375
9380340625.0 -1.2581787109375 -0.50848388671875
9411562500.0 -1.30950927734375 0.47412109375
9442784375.0 -0.6478271484375 1.1162109375
9474006250.0 0.08758544921875 1.21044921875
9505228125.0 0.7637939453125 0.979766845703125
9536450000.0 1.27166748046875 0.3135986328125
9567671875.0 1.14276123046875 -0.57977294921875
9598893750.0 0.529541015625 -1.06695556640625
9630115625.0 -0.14202880859375 -1.15618896484375
9661337500.0 -0.817169189453125 -0.90185546875
9692559375.0 -1.23773193359375 -0.19097900390625
9723781250.0 -1.0428466796875 0.60089111328125
9755003125.0 -0.48651123046875 1.0479736328125
9786225000.0 0.19696044921875 1.15771484375
9817446875.0 0.89202880859375 0.827789306640625
9848668750.0 1.19677734375 0.07904052734375
9879890625.0 0.967742919921875 -0.616729736328125
9911112500.0 0.45263671875 -1.0498046875
9942334375.0 -0.26690673828125 -1.1580810546875
9973556250.0 -0.942047119140625 -0.737823486328125
10004778125.0 -1.14593505859375 -0.01739501953125
10036000000.0 -0.9439697265625 0.61505126953125
10067221875.0 -0.442138671875 1.093994140625
10098443750.0 0.36944580078125 1.1802978515625
10129665625.0 1.00238037109375 0.6429443359375
10160887500.0 1.11932373046875 -0.05145263671875
10192109375.0 0.91650390625 -0.6611328125
10223331250.0 0.3614501953125 -1.14923095703125
10254553125.0 -0.484619140625 -1.11322021484375
10285775000.0 -0.984405517578125 -0.53509521484375
10316996875.0 -1.06719970703125 0.0758056640625
10348218750.0 -0.8995361328125 0.67034912109375
10379440625.0 -0.32293701171875 1.1734619140625
10410662500.0 0.52593994140625 1.08453369140625
10441884375.0 0.992095947265625 0.52099609375
10473106250.0 1.1082763671875 -0.08355712890625
10504328125.0 0.948272705078125 -0.75567626953125
10535550000.0 0.2406005859375 -1.2933349609375
10566771875.0 -0.656982421875 -1.0767822265625
10597993750.0 -1.07904052734375 -0.45904541015625
10629215625.0 -1.17340087890625 0.20416259765625
10660437500.0 -0.888671875 0.94732666015625
10691659375.0 -0.0106201171875 1.33428955078125
10722881250.0 0.783416748046875 0.952423095703125
10754103125.0 1.11895751953125 0.32403564453125
10785325000.0 1.13824462890625 -0.3651123046875
10816546875.0 0.70086669921875 -1.046875
10847768750.0 -0.14471435546875 -1.2281494140625
10878990625.0 -0.8011474609375 -0.843505859375
10910212500.0 -1.12109375 -0.245361328125
10941434375.0 -1.0963134765625 0.47607421875
10972656250.0 -0.5682373046875 1.08251953125
11003878125.0 0.21575927734375 1.17327880859375
11035100000.0 0.84539794921875 0.82147216796875
11066321875.0 1.21826171875 0.17431640625
11097543750.0 1.0966796875 -0.67523193359375
11128765625.0 0.385498046875 -1.1990966796875
11159987500.0 -0.3955078125 -1.1383056640625
11191209375.0 -0.996826171875 -0.701873779296875
11222431250.0 -1.271240234375 0.09234619140625
11253653125.0 -0.858306884765625 0.892242431640625
11284875000.0 -0.11553955078125 1.1260986328125
11316096875.0 0.50933837890625 0.955230712890625
11347318750.0 1.00067138671875 0.50189208984375
11378540625.0 1.11590576171875 -0.2685546875
11409762500.0 0.63397216796875 -0.857025146484375
11440984375.0 0.036041259765625 -0.977294921875
11472206250.0 -0.4793701171875 -0.850341796875
11503428125.0 -0.952545166015625 -0.456024169921875
11534650000.0 -1.06719970703125 0.28619384765625
11565871875.0 -0.603179931640625 0.8504638671875
11597093750.0 -0.01885986328125 0.990997314453125
11628315625.0 0.542816162109375 0.875274658203125
11659537500.0 1.0589599609375 0.39227294921875
11690759375.0 1.064453125 -0.4324951171875
11721981250.0 0.51617431640625 -0.93975830078125
11753203125.0 -0.10693359375 -1.0360107421875
11784425000.0 -0.72406005859375 -0.80780029296875
11815646875.0 -1.09820556640625 -0.1514892578125
11846868750.0 -0.890716552734375 0.54937744140625
11878090625.0 -0.390899658203125 0.907989501953125
11909312500.0 0.187347412109375 0.983642578125
11940534375.0 0.778533935546875 0.693878173828125
11971756250.0 1.02398681640625 0.04046630859375
12002978125.0 0.805999755859375 -0.5360107421875
12034200000.0 0.3824462890625 -0.88775634765625
12065421875.0 -0.21478271484375 -1.009521484375
12096643750.0 -0.84808349609375 -0.664947509765625
12127865625.0 -1.03350830078125 0.016357421875
12159087500.0 -0.81475830078125 0.575469970703125
12190309375.0 -0.377899169921875 0.97357177734375
12221531250.0 0.3377685546875 1.08709716796875
12252753125.0 0.978668212890625 0.582275390625
12283975000.0 1.05426025390625 -0.12689208984375
12315196875.0 0.7999267578125 -0.675323486328125
12346418750.0 0.2813720703125 -1.0894775390625
12377640625.0 -0.53704833984375 -1.05999755859375
12408862500.0 -1.03424072265625 -0.4208984375
12440084375.0 -1.00732421875 0.2225341796875
12471306250.0 -0.7421875 0.73590087890625
12502528125.0 -0.17938232421875 1.11907958984375
12533750000.0 0.6181640625 0.9932861328125
12564971875.0 1.04052734375 0.36480712890625
12596193750.0 1.029052734375 -0.26495361328125
12627415625.0 0.747894287109375 -0.827117919921875
12658637500.0 0.08148193359375 -1.20599365234375
12689859375.0 -0.73345947265625 -0.9649658203125
12721081250.0 -1.114013671875 -0.30767822265625
12752303125.0 -1.09686279296875 0.38092041015625
12783525000.0 -0.68707275390625 1.02642822265625
12814746875.0 0.16607666015625 1.2509765625
12845968750.0 0.862823486328125 0.8109130859375
12877190625.0 1.11700439453125 0.17193603515625
12908412500.0 1.0546875 -0.5008544921875
12939634375.0 0.54388427734375 -1.11334228515625
12970856250.0 -0.3211669921875 -1.1759033203125
13002078125.0 -0.89300537109375 -0.69293212890625
13033300000.0 -1.10455322265625 -0.08740234375
13064521875.0 -1.0087890625 0.591552734375
13095743750.0 -0.4202880859375 1.15252685546875
13126965625.0 0.407470703125 1.11956787109375
13158187500.0 0.944580078125 0.63262939453125
13189409375.0 1.14691162109375 -0.01995849609375
13220631250.0 0.9364013671875 -0.746795654296875
13251853125.0 0.235107421875 -1.17022705078125
13283075000.0 -0.50531005859375 -1.01812744140625
13314296875.0 -0.9859619140625 -0.528961181640625
13345518750.0 -1.13397216796875 0.17584228515625
13376740625.0 -0.752197265625 0.856964111328125
13407962500.0 -0.05963134765625 1.0667724609375
