!Created with skrf (http://scikit-rf.org).
# Hz S RI R 50.0 
!freq ReS11 ImS11
45000000.0 -0.07706069946289062 -0.09674453735351562
76221875.0 -0.19644927978515625 -0.04742431640625
107443750.0 -0.2549591064453125 0.1198272705078125
138665625.0 -0.1478729248046875 0.328521728515625
169887500.0 0.1237030029296875 0.4172821044921875
201109375.0 0.421875 0.2806854248046875
232331250.0 0.57855224609375 -0.05780029296875
263553125.0 0.48919677734375 -0.4528656005859375
294775000.0 0.097991943359375 -0.732452392578125
325996875.0 -0.415618896484375 -0.680084228515625
357218750.0 -0.806121826171875 -0.296417236328125
388440625.0 -0.8851318359375 0.30084228515625
419662500.0 -0.516693115234375 0.866424560546875
450884375.0 0.1737060546875 1.0281982421875
482106250.0 0.798431396484375 0.711700439453125
513328125.0 1.1187744140625 0.08636474609375
544550000.0 1.00299072265625 -0.67999267578125
575771875.0 0.3355712890625 -1.23760986328125
606993750.0 -0.55413818359375 -1.17645263671875
638215625.0 -1.1654052734375 -0.58941650390625
669437500.0 -1.3388671875 0.234375
700659375.0 -0.969970703125 1.095947265625
731881250.0 -0.0029296875 1.5419921875
763103125.0 1.0057373046875 1.154541015625
794325000.0 1.4678955078125 0.28082275390625
825546875.0 1.36566162109375 -0.65130615234375
856768750.0 0.79302978515625 -1.40020751953125
887990625.0 -0.29327392578125 -1.646728515625
919212500.0 -1.28790283203125 -1.076904296875
950434375.0 -1.6473388671875 -0.05755615234375
981656250.0 -1.380615234375 0.945556640625
1012878125.0 -0.528076171875 1.67041015625
1044100000.0 0.69696044921875 1.6597900390625
1075321875.0 1.57330322265625 0.81060791015625
1106543750.0 1.702880859375 -0.31317138671875
1137765625.0 1.184814453125 -1.2833251953125
1168987500.0 0.13714599609375 -1.79510498046875
1200209375.0 -1.061767578125 -1.4818115234375
1231431250.0 -1.72601318359375 -0.45233154296875
1262653125.0 -1.5921630859375 0.6845703125
1293875000.0 -0.8505859375 1.4906005859375
1325096875.0 0.22869873046875 1.705078125
1356318750.0 1.23431396484375 1.2149658203125
1387540625.0 1.73834228515625 0.18817138671875
1418762500.0 1.46771240234375 -0.951416015625
1449984375.0 0.528564453125 -1.62408447265625
1481206250.0 -0.5498046875 -1.5540771484375
1512428125.0 -1.34051513671875 -0.9180908203125
1543650000.0 -1.65374755859375 0.0657958984375
1574871875.0 -1.271728515625 1.10797119140625
1606093750.0 -0.27166748046875 1.63006591796875
1637315625.0 0.74212646484375 1.398681640625
1668537500.0 1.3951416015625 0.6947021484375
1699759375.0 1.5711669921875 -0.27734375
1730981250.0 1.062255859375 -1.228271484375
1762203125.0 0.04150390625 -1.5687255859375
1793425000.0 -0.85540771484375 -1.22509765625
1824646875.0 -1.392333984375 -0.51422119140625
1855868750.0 -1.4722900390625 0.43212890625
1887090625.0 -0.87371826171875 1.28375244140625
1918312500.0 0.11767578125 1.48504638671875
1949534375.0 0.920654296875 1.08758544921875
1980756250.0 1.37371826171875 0.3692626953125
2011978125.0 1.35821533203125 -0.53155517578125
2043200000.0 0.748779296875 -1.26043701171875
2074421875.0 -0.157470703125 -1.4315185546875
2105643750.0 -0.959716796875 -1.07025146484375
2136865625.0 -1.44561767578125 -0.30426025390625
2168087500.0 -1.355224609375 0.67083740234375
2199309375.0 -0.63763427734375 1.34991455078125
2230531250.0 0.281982421875 1.43414306640625
2261753125.0 1.071533203125 1.0123291015625
2292975000.0 1.5128173828125 0.1697998046875
2324196875.0 1.30389404296875 -0.818359375
2355418750.0 0.5240478515625 -1.41888427734375
2386640625.0 -0.40423583984375 -1.44775390625
2417862500.0 -1.17999267578125 -1.02294921875
2449084375.0 -1.60321044921875 -0.08294677734375
2480306250.0 -1.30950927734375 0.9246826171875
2511528125.0 -0.4931640625 1.50506591796875
2542750000.0 0.48895263671875 1.533935546875
2573971875.0 1.36932373046875 0.9661865234375
2605193750.0 1.7147216796875 -0.1124267578125
2636415625.0 1.25897216796875 -1.1505126953125
2667637500.0 0.30596923828125 -1.66552734375
2698859375.0 -0.76983642578125 -1.53216552734375
2730081250.0 -1.5711669921875 -0.73919677734375
2761303125.0 -1.678466796875 0.3875732421875
2792525000.0 -1.09759521484375 1.30682373046875
2823746875.0 -0.10205078125 1.72637939453125
2854968750.0 1.01031494140625 1.45318603515625
2886190625.0 1.68902587890625 0.490478515625
2917412500.0 1.59716796875 -0.61578369140625
2948634375.0 0.93768310546875 -1.431640625
2979856250.0 -0.10809326171875 -1.7733154296875
3011078125.0 -1.2469482421875 -1.34002685546875
3042300000.0 -1.7724609375 -0.23388671875
3073521875.0 -1.50579833984375 0.83721923828125
3104743750.0 -0.76202392578125 1.56634521484375
3135965625.0 0.3626708984375 1.8065185546875
3167187500.0 1.4959716796875 1.162109375
3198409375.0 1.81365966796875 -0.07611083984375
3229631250.0 1.34674072265625 -1.0794677734375
3260853125.0 0.488525390625 -1.6654052734375
3292075000.0 -0.65509033203125 -1.69549560546875
3323296875.0 -1.61639404296875 -0.87786865234375
3354518750.0 -1.72711181640625 0.3282470703125
3385740625.0 -1.15350341796875 1.231689453125
3416962500.0 -0.2310791015625 1.67864990234375
3448184375.0 0.85906982421875 1.519287109375
3479406250.0 1.63385009765625 0.64306640625
3510628125.0 1.64154052734375 -0.4949951171875
3541850000.0 0.998291015625 -1.3525390625
3573071875.0 -0.0086669921875 -1.68048095703125
3604293750.0 -1.02642822265625 -1.335205078125
3635515625.0 -1.62493896484375 -0.43743896484375
3666737500.0 -1.55926513671875 0.6453857421875
3697959375.0 -0.82342529296875 1.4736328125
3729181250.0 0.267822265625 1.62744140625
3760403125.0 1.150390625 1.09619140625
3791625000.0 1.5499267578125 0.2178955078125
3822846875.0 1.39959716796875 -0.76031494140625
3854068750.0 0.61920166015625 -1.47882080078125
3885290625.0 -0.4208984375 -1.4788818359375
3916512500.0 -1.14013671875 -0.90960693359375
3947734375.0 -1.44622802734375 -0.11907958984375
3978956250.0 -1.2947998046875 0.7777099609375
4010178125.0 -0.5306396484375 1.45135498046875
4041400000.0 0.47149658203125 1.4124755859375
4072621875.0 1.15087890625 0.846435546875
4103843750.0 1.44207763671875 0.06414794921875
4135065625.0 1.2655029296875 -0.84417724609375
4166287500.0 0.45703125 -1.4932861328125
4197509375.0 -0.55743408203125 -1.41326904296875
4228731250.0 -1.24530029296875 -0.80206298828125
4259953125.0 -1.5072021484375 0.07061767578125
4291175000.0 -1.1865234375 1.00872802734375
4322396875.0 -0.2882080078125 1.524658203125
4353618750.0 0.672119140625 1.34771728515625
4384840625.0 1.3209228515625 0.69610595703125
4416062500.0 1.4991455078125 -0.22796630859375
4447284375.0 1.05340576171875 -1.1021728515625
4478506250.0 0.171875 -1.49334716796875
4509728125.0 -0.7315673828125 -1.30560302734375
4540950000.0 -1.391845703125 -0.63519287109375
4572171875.0 -1.5211181640625 0.3602294921875
4603393750.0 -0.9713134765625 1.21002197265625
4634615625.0 -0.0615234375 1.5343017578125
4665837500.0 0.868896484375 1.3031005859375
4697059375.0 1.53955078125 0.51434326171875
4728281250.0 1.5269775390625 -0.5811767578125
4759503125.0 0.8218994140625 -1.36541748046875
4790725000.0 -0.1451416015625 -1.57086181640625
4821946875.0 -1.08184814453125 -1.193115234375
4853168750.0 -1.610595703125 -0.25115966796875
4884390625.0 -1.3760986328125 0.79193115234375
4915612500.0 -0.61309814453125 1.41033935546875
4946834375.0 0.32806396484375 1.5076904296875
4978056250.0 1.20440673828125 1.015869140625
5009278125.0 1.55950927734375 0.03900146484375
5040500000.0 1.2271728515625 -0.87384033203125
5071721875.0 0.50079345703125 -1.41265869140625
5102943750.0 -0.44573974609375 -1.494384765625
5134165625.0 -1.3333740234375 -0.905029296875
5165387500.0 -1.5665283203125 0.1456298828125
5196609375.0 -1.135009765625 1.007080078125
5227831250.0 -0.3580322265625 1.50323486328125
5259053125.0 0.68597412109375 1.49053955078125
5290275000.0 1.51947021484375 0.66192626953125
5321496875.0 1.490478515625 -0.429931640625
5352718750.0 0.91961669921875 -1.1519775390625
5383940625.0 0.09613037109375 -1.49896240234375
5415162500.0 -0.89947509765625 -1.28216552734375
5446384375.0 -1.48236083984375 -0.37005615234375
5477606250.0 -1.29766845703125 0.5660400390625
5508828125.0 -0.73046875 1.14862060546875
5540050000.0 0.05328369140625 1.396484375
5571271875.0 0.935546875 1.1075439453125
5602493750.0 1.40679931640625 0.259765625
5633715625.0 1.23065185546875 -0.612060546875
5664937500.0 0.6475830078125 -1.19921875
5696159375.0 -0.19580078125 -1.38226318359375
5727381250.0 -1.020263671875 -0.9779052734375
5758603125.0 -1.38995361328125 -0.1453857421875
5789825000.0 -1.193115234375 0.716796875
5821046875.0 -0.50604248046875 1.3060302734375
5852268750.0 0.41021728515625 1.31146240234375
5883490625.0 1.06976318359375 0.7713623046875
5914712500.0 1.30157470703125 0.01934814453125
5945934375.0 1.09515380859375 -0.77545166015625
5977156250.0 0.36114501953125 -1.31048583984375
6008378125.0 -0.50885009765625 -1.18182373046875
6039600000.0 -1.02056884765625 -0.6484375
6070821875.0 -1.22247314453125 -0.00457763671875
6102043750.0 -1.0819091796875 0.7613525390625
6133265625.0 -0.34234619140625 1.3428955078125
6164487500.0 0.5621337890625 1.1861572265625
6195709375.0 1.07025146484375 0.62945556640625
6226931250.0 1.2772216796875 -0.0416259765625
6258153125.0 1.10333251953125 -0.8701171875
6289375000.0 0.25640869140625 -1.444580078125
6320596875.0 -0.68804931640625 -1.20513916015625
6351818750.0 -1.199462890625 -0.5718994140625
6383040625.0 -1.35284423828125 0.2060546875
6414262500.0 -0.9990234375 1.05535888671875
6445484375.0 -0.07855224609375 1.455322265625
6476706250.0 0.79473876953125 1.14715576171875
6507928125.0 1.28948974609375 0.46978759765625
6539150000.0 1.34625244140625 -0.3858642578125
6570371875.0 0.84051513671875 -1.1414794921875
6601593750.0 -0.01739501953125 -1.40374755859375
6632815625.0 -0.8392333984375 -1.13494873046875
6664037500.0 -1.39788818359375 -0.42095947265625
6695259375.0 -1.37261962890625 0.56488037109375
6726481250.0 -0.70977783203125 1.2503662109375
6757703125.0 0.13018798828125 1.40509033203125
6788925000.0 0.9542236328125 1.12982177734375
6820146875.0 1.55828857421875 0.28857421875
6851368750.0 1.3250732421875 -0.818115234375
6882590625.0 0.50616455078125 -1.3380126953125
6913812500.0 -0.29168701171875 -1.35540771484375
6945034375.0 -1.0684814453125 -1.02056884765625
6976256250.0 -1.59124755859375 -0.09356689453125
7007478125.0 -1.23486328125 0.9307861328125
7038700000.0 -0.40167236328125 1.34320068359375
7069921875.0 0.35760498046875 1.320556640625
7101143750.0 1.1171875 0.9678955078125
7132365625.0 1.5980224609375 0.01458740234375
7163587500.0 1.15679931640625 -1.02130126953125
7194809375.0 0.302734375 -1.39630126953125
7226031250.0 -0.50860595703125 -1.32427978515625
7257253125.0 -1.26361083984375 -0.82427978515625
7288475000.0 -1.55633544921875 0.19793701171875
7319696875.0 -1.0289306640625 1.109375
7350918750.0 -0.164306640625 1.443603515625
7382140625.0 0.71466064453125 1.2755126953125
7413362500.0 1.37530517578125 0.57568359375
7444584375.0 1.4111328125 -0.40631103515625
7475806250.0 0.857177734375 -1.14117431640625
7507028125.0 0.00628662109375 -1.4283447265625
7538250000.0 -0.88592529296875 -1.12213134765625
7569471875.0 -1.33319091796875 -0.3131103515625
7600693750.0 -1.20172119140625 0.497314453125
7631915625.0 -0.716552734375 1.08575439453125
7663137500.0 0.07952880859375 1.35711669921875
7694359375.0 0.938934326171875 0.979644775390625
7725581250.0 1.242919921875 0.18060302734375
7756803125.0 1.082275390625 -0.4990234375
7788025000.0 0.66925048828125 -1.04296875
7819246875.0 -0.1207275390625 -1.34674072265625
7850468750.0 -0.99249267578125 -0.91552734375
7881690625.0 -1.23040771484375 -0.10638427734375
7912912500.0 -1.0533447265625 0.55224609375
7944134375.0 -0.605224609375 1.11199951171875
7975356250.0 0.27105712890625 1.3343505859375
8006578125.0 1.0462646484375 0.778076171875
8037800000.0 1.19232177734375 0.01727294921875
8069021875.0 1.00592041015625 -0.61767578125
8100243750.0 0.4990234375 -1.162109375
8131465625.0 -0.38665771484375 -1.252685546875
8162687500.0 -1.03076171875 -0.68621826171875
8193909375.0 -1.1798095703125 0.0087890625
8225131250.0 -1.01751708984375 0.6776123046875
8256353125.0 -0.42230224609375 1.24542236328125
8287575000.0 0.49945068359375 1.2247314453125
8318796875.0 1.081787109375 0.63543701171875
8350018750.0 1.243408203125 -0.075439453125
8381240625.0 1.03057861328125 -0.83929443359375
8412462500.0 0.25531005859375 -1.370361328125
8443684375.0 -0.667724609375 -1.16796875
8474906250.0 -1.1741943359375 -0.53277587890625
8506128125.0 -1.29754638671875 0.2366943359375
8537350000.0 -0.92431640625 1.0460205078125
8568571875.0 -0.01593017578125 1.39306640625
8599793750.0 0.8021240234375 1.0528564453125
8631015625.0 1.240234375 0.3990478515625
8662237500.0 1.2843017578125 -0.42852783203125
8693459375.0 0.736083984375 -1.17755126953125
8724681250.0 -0.16290283203125 -1.33013916015625
8755903125.0 -0.878387451171875 -0.9566650390625
8787125000.0 -1.3013916015625 -0.28216552734375
8818346875.0 -1.2506103515625 0.6165771484375
8849568750.0 -0.55621337890625 1.2587890625
8880790625.0 0.29766845703125 1.28460693359375
8912012500.0 0.978729248046875 0.891387939453125
8943234375.0 1.39898681640625 0.12841796875
8974456250.0 1.166015625 -0.8375244140625
9005678125.0 0.3480224609375 -1.312744140625
9036900000.0 -0.4444580078125 -1.224609375
9068121875.0 -1.10137939453125 -0.78509521484375
9099343750.0 -1.44189453125 0.097900390625
9130565625.0 -0.980224609375 1.00958251953125
9161787500.0 -0.15570068359375 1.28076171875
9193009375.0 0.5552978515625 1.1341552734375
9224231250.0 1.17901611328125 0.65460205078125
9255453125.0 1.398681640625 -0.294189453125
9286675000.0 0.8072509765625 -1.0853271484375
9317896875.0 0.02691650390625 -1.24652099609375
9349118750.0 -0.65380859375 -1.0689697265625
9380340625.0 -1.25628662109375 -0.51019287109375
9411562500.0 -1.309326171875 0.4747314453125
9442784375.0 -0.6478271484375 1.11651611328125
9474006250.0 0.08843994140625 1.2110595703125
9505228125.0 0.7628173828125 0.9788818359375
9536450000.0 1.27166748046875 0.3140869140625
9567671875.0 1.14447021484375 -0.57879638671875
9598893750.0 0.5306396484375 -1.068115234375
9630115625.0 -0.14208984375 -1.156982421875
9661337500.0 -0.818603515625 -0.9031982421875
9692559375.0 -1.2384033203125 -0.1898193359375
9723781250.0 -1.04351806640625 0.60247802734375
9755003125.0 -0.4857177734375 1.0498046875
9786225000.0 0.19830322265625 1.15838623046875
9817446875.0 0.8931884765625 0.827911376953125
9848668750.0 1.19732666015625 0.0789794921875
9879890625.0 0.967620849609375 -0.615020751953125
9911112500.0 0.4525146484375 -1.05084228515625
9942334375.0 -0.26806640625 -1.15826416015625
9973556250.0 -0.94268798828125 -0.737640380859375
10004778125.0 -1.1455078125 -0.0177001953125
10036000000.0 -0.943817138671875 0.613433837890625
10067221875.0 -0.44256591796875 1.0960693359375
10098443750.0 0.36895751953125 1.180419921875
10129665625.0 1.00091552734375 0.643798828125
10160887500.0 1.11944580078125 -0.05169677734375
10192109375.0 0.91790771484375 -0.66265869140625
10223331250.0 0.3624267578125 -1.15069580078125
10254553125.0 -0.4844970703125 -1.11285400390625
10285775000.0 -0.983734130859375 -0.53570556640625
10316996875.0 -1.06707763671875 0.07659912109375
10348218750.0 -0.89923095703125 0.6676025390625
10379440625.0 -0.32269287109375 1.1746826171875
10410662500.0 0.5262451171875 1.08514404296875
10441884375.0 0.992431640625 0.521453857421875
10473106250.0 1.108642578125 -0.08453369140625
10504328125.0 0.948516845703125 -0.7576904296875
10535550000.0 0.2410888671875 -1.293212890625
10566771875.0 -0.65655517578125 -1.07745361328125
10597993750.0 -1.079345703125 -0.45941162109375
10629215625.0 -1.1748046875 0.2061767578125
10660437500.0 -0.887786865234375 0.948944091796875
10691659375.0 -0.00958251953125 1.3365478515625
10722881250.0 0.784393310546875 0.951690673828125
10754103125.0 1.1185302734375 0.3245849609375
10785325000.0 1.13861083984375 -0.36639404296875
10816546875.0 0.7012939453125 -1.0478515625
10847768750.0 -0.1451416015625 -1.23040771484375
10878990625.0 -0.801544189453125 -0.845306396484375
10910212500.0 -1.12200927734375 -0.24542236328125
10941434375.0 -1.09649658203125 0.47760009765625
10972656250.0 -0.56817626953125 1.0830078125
11003878125.0 0.2154541015625 1.17327880859375
11035100000.0 0.847259521484375 0.82244873046875
11066321875.0 1.22064208984375 0.1732177734375
11097543750.0 1.09716796875 -0.67559814453125
11128765625.0 0.3865966796875 -1.19744873046875
11159987500.0 -0.39520263671875 -1.1395263671875
11191209375.0 -0.998687744140625 -0.702362060546875
11222431250.0 -1.2713623046875 0.09228515625
11253653125.0 -0.85821533203125 0.89276123046875
11284875000.0 -0.114990234375 1.126708984375
11316096875.0 0.5113525390625 0.955596923828125
11347318750.0 1.002685546875 0.5028076171875
11378540625.0 1.1171875 -0.26983642578125
11409762500.0 0.634613037109375 -0.859649658203125
11440984375.0 0.0362548828125 -0.977508544921875
11472206250.0 -0.47998046875 -0.8502197265625
11503428125.0 -0.952850341796875 -0.45635986328125
11534650000.0 -1.06805419921875 0.28814697265625
11565871875.0 -0.602691650390625 0.85430908203125
11597093750.0 -0.01861572265625 0.99078369140625
11628315625.0 0.54345703125 0.874603271484375
11659537500.0 1.0592041015625 0.393310546875
11690759375.0 1.06488037109375 -0.433349609375
11721981250.0 0.516754150390625 -0.940032958984375
11753203125.0 -0.10601806640625 -1.0360107421875
11784425000.0 -0.724609375 -0.808868408203125
11815646875.0 -1.0999755859375 -0.151123046875
11846868750.0 -0.8917236328125 0.550628662109375
11878090625.0 -0.390228271484375 0.909210205078125
11909312500.0 0.18634033203125 0.9842529296875
11940534375.0 0.780242919921875 0.69525146484375
11971756250.0 1.024658203125 0.03997802734375
12002978125.0 0.805572509765625 -0.5355224609375
12034200000.0 0.3812255859375 -0.889801025390625
12065421875.0 -0.21551513671875 -1.00927734375
12096643750.0 -0.847808837890625 -0.6650390625
12127865625.0 -1.033447265625 0.015869140625
12159087500.0 -0.81494140625 0.5750732421875
12190309375.0 -0.37841796875 0.973663330078125
12221531250.0 0.3375244140625 1.08612060546875
12252753125.0 0.97930908203125 0.5819091796875
12283975000.0 1.05438232421875 -0.12738037109375
12315196875.0 0.80047607421875 -0.67669677734375
12346418750.0 0.28082275390625 -1.09075927734375
12377640625.0 -0.5377197265625 -1.060791015625
12408862500.0 -1.03485107421875 -0.4197998046875
12440084375.0 -1.00787353515625 0.22430419921875
12471306250.0 -0.741668701171875 0.735748291015625
12502528125.0 -0.17999267578125 1.11944580078125
12533750000.0 0.61834716796875 0.993408203125
12564971875.0 1.041015625 0.364990234375
12596193750.0 1.0294189453125 -0.26385498046875
12627415625.0 0.7474365234375 -0.82879638671875
12658637500.0 0.0809326171875 -1.20697021484375
12689859375.0 -0.734893798828125 -0.966522216796875
12721081250.0 -1.11761474609375 -0.3062744140625
12752303125.0 -1.097900390625 0.3818359375
12783525000.0 -0.6875 1.02825927734375
12814746875.0 0.1634521484375 1.24981689453125
12845968750.0 0.862640380859375 0.811004638671875
12877190625.0 1.1168212890625 0.17254638671875
12908412500.0 1.05609130859375 -0.50164794921875
12939634375.0 0.542236328125 -1.11639404296875
12970856250.0 -0.32098388671875 -1.17626953125
13002078125.0 -0.89447021484375 -0.693267822265625
13033300000.0 -1.1063232421875 -0.08642578125
13064521875.0 -1.008544921875 0.5933837890625
13095743750.0 -0.4205322265625 1.15350341796875
13126965625.0 0.407958984375 1.12017822265625
13158187500.0 0.945098876953125 0.63201904296875
13189409375.0 1.146484375 -0.0208740234375
13220631250.0 0.9361572265625 -0.74908447265625
13251853125.0 0.23443603515625 -1.17120361328125
13283075000.0 -0.50738525390625 -1.020263671875
13314296875.0 -0.9869384765625 -0.5294189453125
13345518750.0 -1.13458251953125 0.1754150390625
13376740625.0 -0.7525634765625 0.856201171875
13407962500.0 -0.0595703125 1.06640625
