!Created with skrf (http://scikit-rf.org).
# Hz S RI R 50.0 
!freq ReS11 ImS11
45000000.0 -0.07718276977539062 -0.09667587280273438
76221875.0 -0.19647979736328125 -0.04734039306640625
107443750.0 -0.2548370361328125 0.1197509765625
138665625.0 -0.14801025390625 0.3285980224609375
169887500.0 0.12384033203125 0.4175872802734375
201109375.0 0.422149658203125 0.280853271484375
232331250.0 0.5789794921875 -0.057861328125
263553125.0 0.48944091796875 -0.453277587890625
294775000.0 0.09814453125 -0.7327880859375
325996875.0 -0.4158935546875 -0.680511474609375
357218750.0 -0.806610107421875 -0.29669189453125
388440625.0 -0.885772705078125 0.300994873046875
419662500.0 -0.51708984375 0.86663818359375
450884375.0 0.17364501953125 1.02880859375
482106250.0 0.798919677734375 0.712249755859375
513328125.0 1.119384765625 0.0867919921875
544550000.0 1.00341796875 -0.67999267578125
575771875.0 0.3359375 -1.23828125
606993750.0 -0.5543212890625 -1.17694091796875
638215625.0 -1.1656494140625 -0.58984375
669437500.0 -1.3394775390625 0.23406982421875
700659375.0 -0.9703369140625 1.096435546875
731881250.0 -0.00335693359375 1.542724609375
763103125.0 1.00592041015625 1.1551513671875
794325000.0 1.46832275390625 0.28143310546875
825546875.0 1.36688232421875 -0.65155029296875
856768750.0 0.79376220703125 -1.4010009765625
887990625.0 -0.29315185546875 -1.64801025390625
919212500.0 -1.2884521484375 -1.07806396484375
950434375.0 -1.64825439453125 -0.05865478515625
981656250.0 -1.38232421875 0.94683837890625
1012878125.0 -0.52880859375 1.6717529296875
1044100000.0 0.69732666015625 1.66143798828125
1075321875.0 1.57476806640625 0.81109619140625
1106543750.0 1.70416259765625 -0.31396484375
1137765625.0 1.18609619140625 -1.28460693359375
1168987500.0 0.1373291015625 -1.79644775390625
1200209375.0 -1.06195068359375 -1.48284912109375
1231431250.0 -1.7265625 -0.45263671875
1262653125.0 -1.593505859375 0.685302734375
1293875000.0 -0.85089111328125 1.4910888671875
1325096875.0 0.22845458984375 1.7059326171875
1356318750.0 1.23492431640625 1.2156982421875
1387540625.0 1.739013671875 0.188232421875
1418762500.0 1.46856689453125 -0.9512939453125
1449984375.0 0.5286865234375 -1.62530517578125
1481206250.0 -0.5501708984375 -1.55511474609375
1512428125.0 -1.341796875 -0.91864013671875
1543650000.0 -1.65478515625 0.0660400390625
1574871875.0 -1.27252197265625 1.10894775390625
1606093750.0 -0.27178955078125 1.6312255859375
1637315625.0 0.74200439453125 1.399169921875
1668537500.0 1.39581298828125 0.69488525390625
1699759375.0 1.57220458984375 -0.2779541015625
1730981250.0 1.063232421875 -1.2294921875
1762203125.0 0.0416259765625 -1.56964111328125
1793425000.0 -0.85552978515625 -1.2252197265625
1824646875.0 -1.39300537109375 -0.51483154296875
1855868750.0 -1.4730224609375 0.43206787109375
1887090625.0 -0.874267578125 1.28485107421875
1918312500.0 0.11737060546875 1.48583984375
1949534375.0 0.92144775390625 1.08843994140625
1980756250.0 1.37481689453125 0.36962890625
2011978125.0 1.35882568359375 -0.53216552734375
2043200000.0 0.74908447265625 -1.26116943359375
2074421875.0 -0.1573486328125 -1.43194580078125
2105643750.0 -0.9599609375 -1.07171630859375
2136865625.0 -1.446533203125 -0.30438232421875
2168087500.0 -1.3560791015625 0.67108154296875
2199309375.0 -0.6383056640625 1.35089111328125
2230531250.0 0.2822265625 1.43524169921875
2261753125.0 1.0721435546875 1.01300048828125
2292975000.0 1.51361083984375 0.16973876953125
2324196875.0 1.30419921875 -0.81829833984375
2355418750.0 0.524658203125 -1.41937255859375
2386640625.0 -0.404296875 -1.44805908203125
2417862500.0 -1.18011474609375 -1.023193359375
2449084375.0 -1.60504150390625 -0.082763671875
2480306250.0 -1.310302734375 0.92498779296875
2511528125.0 -0.4931640625 1.5068359375
2542750000.0 0.48931884765625 1.5355224609375
2573971875.0 1.37109375 0.96685791015625
2605193750.0 1.71588134765625 -0.11260986328125
2636415625.0 1.260498046875 -1.1517333984375
2667637500.0 0.3057861328125 -1.66619873046875
2698859375.0 -0.7701416015625 -1.53289794921875
2730081250.0 -1.5733642578125 -0.73931884765625
2761303125.0 -1.6802978515625 0.388671875
2792525000.0 -1.0987548828125 1.30621337890625
2823746875.0 -0.1014404296875 1.72882080078125
2854968750.0 1.0118408203125 1.4541015625
2886190625.0 1.6905517578125 0.4906005859375
2917412500.0 1.598388671875 -0.617431640625
2948634375.0 0.9385986328125 -1.43170166015625
2979856250.0 -0.10870361328125 -1.775146484375
3011078125.0 -1.24560546875 -1.34051513671875
3042300000.0 -1.773681640625 -0.23388671875
3073521875.0 -1.5074462890625 0.8372802734375
3104743750.0 -0.76263427734375 1.56658935546875
3135965625.0 0.36138916015625 1.8077392578125
3167187500.0 1.497314453125 1.16326904296875
3198409375.0 1.8143310546875 -0.07568359375
3229631250.0 1.34716796875 -1.08074951171875
3260853125.0 0.48779296875 -1.66729736328125
3292075000.0 -0.65545654296875 -1.69622802734375
3323296875.0 -1.6175537109375 -0.8787841796875
3354518750.0 -1.72894287109375 0.32958984375
3385740625.0 -1.15435791015625 1.22955322265625
3416962500.0 -0.23101806640625 1.67999267578125
3448184375.0 0.8592529296875 1.51983642578125
3479406250.0 1.63458251953125 0.6435546875
3510628125.0 1.6424560546875 -0.494873046875
3541850000.0 0.99945068359375 -1.35333251953125
3573071875.0 -0.0079345703125 -1.6812744140625
3604293750.0 -1.02655029296875 -1.3359375
3635515625.0 -1.62554931640625 -0.438232421875
3666737500.0 -1.5604248046875 0.646240234375
3697959375.0 -0.82403564453125 1.47479248046875
3729181250.0 0.2685546875 1.62890625
3760403125.0 1.1514892578125 1.09716796875
3791625000.0 1.55078125 0.217529296875
3822846875.0 1.400146484375 -0.76116943359375
3854068750.0 0.61920166015625 -1.48089599609375
3885290625.0 -0.4197998046875 -1.47894287109375
3916512500.0 -1.14141845703125 -0.9097900390625
3947734375.0 -1.446533203125 -0.11895751953125
3978956250.0 -1.29608154296875 0.7784423828125
4010178125.0 -0.53057861328125 1.4527587890625
4041400000.0 0.47332763671875 1.41424560546875
4072621875.0 1.15155029296875 0.84686279296875
4103843750.0 1.44366455078125 0.06304931640625
4135065625.0 1.26708984375 -0.84539794921875
4166287500.0 0.457275390625 -1.49420166015625
4197509375.0 -0.5565185546875 -1.41387939453125
4228731250.0 -1.24688720703125 -0.8017578125
4259953125.0 -1.508544921875 0.07073974609375
4291175000.0 -1.18756103515625 1.00933837890625
4322396875.0 -0.2886962890625 1.52557373046875
4353618750.0 0.67205810546875 1.3482666015625
4384840625.0 1.32086181640625 0.69671630859375
4416062500.0 1.499755859375 -0.2276611328125
4447284375.0 1.05438232421875 -1.103271484375
4478506250.0 0.17242431640625 -1.49365234375
4509728125.0 -0.732666015625 -1.3067626953125
4540950000.0 -1.3905029296875 -0.63623046875
4572171875.0 -1.521728515625 0.35943603515625
4603393750.0 -0.97216796875 1.21026611328125
4634615625.0 -0.0604248046875 1.5364990234375
4665837500.0 0.86944580078125 1.30340576171875
4697059375.0 1.5396728515625 0.515380859375
4728281250.0 1.52703857421875 -0.5811767578125
4759503125.0 0.82244873046875 -1.3663330078125
4790725000.0 -0.14599609375 -1.572265625
4821946875.0 -1.08282470703125 -1.193115234375
4853168750.0 -1.6121826171875 -0.251220703125
4884390625.0 -1.3765869140625 0.79132080078125
4915612500.0 -0.61334228515625 1.41082763671875
4946834375.0 0.3291015625 1.50830078125
4978056250.0 1.2042236328125 1.01629638671875
5009278125.0 1.560546875 0.03936767578125
5040500000.0 1.22821044921875 -0.87530517578125
5071721875.0 0.50067138671875 -1.41357421875
5102943750.0 -0.4464111328125 -1.49591064453125
5134165625.0 -1.3345947265625 -0.90496826171875
5165387500.0 -1.56622314453125 0.1451416015625
5196609375.0 -1.13568115234375 1.0081787109375
5227831250.0 -0.35687255859375 1.506103515625
5259053125.0 0.68768310546875 1.49090576171875
5290275000.0 1.51947021484375 0.66326904296875
5321496875.0 1.49102783203125 -0.429931640625
5352718750.0 0.92083740234375 -1.15283203125
5383940625.0 0.09600830078125 -1.4998779296875
5415162500.0 -0.9002685546875 -1.2825927734375
5446384375.0 -1.48388671875 -0.369873046875
5477606250.0 -1.29833984375 0.56536865234375
5508828125.0 -0.73101806640625 1.15087890625
5540050000.0 0.05322265625 1.39794921875
5571271875.0 0.938232421875 1.10845947265625
5602493750.0 1.40728759765625 0.25982666015625
5633715625.0 1.231201171875 -0.61138916015625
5664937500.0 0.6480712890625 -1.2000732421875
5696159375.0 -0.197021484375 -1.383544921875
5727381250.0 -1.02130126953125 -0.9781494140625
5758603125.0 -1.3905029296875 -0.14569091796875
5789825000.0 -1.19354248046875 0.71771240234375
5821046875.0 -0.5064697265625 1.30609130859375
5852268750.0 0.4110107421875 1.31243896484375
5883490625.0 1.07000732421875 0.77191162109375
5914712500.0 1.30206298828125 0.0194091796875
5945934375.0 1.09600830078125 -0.7760009765625
5977156250.0 0.361328125 -1.31170654296875
6008378125.0 -0.50872802734375 -1.18121337890625
6039600000.0 -1.0208740234375 -0.6490478515625
6070821875.0 -1.22412109375 -0.00396728515625
6102043750.0 -1.08270263671875 0.762451171875
6133265625.0 -0.3421630859375 1.3433837890625
6164487500.0 0.56195068359375 1.186767578125
6195709375.0 1.06915283203125 0.62994384765625
6226931250.0 1.2799072265625 -0.0428466796875
6258153125.0 1.10394287109375 -0.8704833984375
6289375000.0 0.25701904296875 -1.44500732421875
6320596875.0 -0.68878173828125 -1.2056884765625
6351818750.0 -1.199462890625 -0.5723876953125
6383040625.0 -1.35406494140625 0.20648193359375
6414262500.0 -0.9998779296875 1.0570068359375
6445484375.0 -0.07794189453125 1.45745849609375
6476706250.0 0.79559326171875 1.14764404296875
6507928125.0 1.28997802734375 0.4697265625
6539150000.0 1.34600830078125 -0.3851318359375
6570371875.0 0.841064453125 -1.14361572265625
6601593750.0 -0.01800537109375 -1.4044189453125
6632815625.0 -0.83892822265625 -1.13531494140625
6664037500.0 -1.4002685546875 -0.41973876953125
6695259375.0 -1.3734130859375 0.56634521484375
6726481250.0 -0.71014404296875 1.250732421875
6757703125.0 0.12982177734375 1.405517578125
6788925000.0 0.9541015625 1.130126953125
6820146875.0 1.55926513671875 0.2884521484375
6851368750.0 1.32513427734375 -0.81719970703125
6882590625.0 0.50592041015625 -1.33905029296875
6913812500.0 -0.29156494140625 -1.3558349609375
6945034375.0 -1.06927490234375 -1.02154541015625
6976256250.0 -1.59326171875 -0.09246826171875
7007478125.0 -1.23638916015625 0.9332275390625
7038700000.0 -0.40234375 1.3408203125
7069921875.0 0.3612060546875 1.32513427734375
7101143750.0 1.11737060546875 0.9686279296875
7132365625.0 1.5963134765625 0.01629638671875
7163587500.0 1.1563720703125 -1.02020263671875
7194809375.0 0.3018798828125 -1.39739990234375
7226031250.0 -0.50872802734375 -1.324462890625
7257253125.0 -1.26666259765625 -0.82379150390625
7288475000.0 -1.5587158203125 0.19915771484375
7319696875.0 -1.0296630859375 1.1087646484375
7350918750.0 -0.16436767578125 1.44415283203125
7382140625.0 0.7144775390625 1.2752685546875
7413362500.0 1.3778076171875 0.57568359375
7444584375.0 1.41162109375 -0.40753173828125
7475806250.0 0.85784912109375 -1.14154052734375
7507028125.0 0.0048828125 -1.4306640625
7538250000.0 -0.8858642578125 -1.12274169921875
7569471875.0 -1.3350830078125 -0.31195068359375
7600693750.0 -1.20233154296875 0.49761962890625
7631915625.0 -0.71807861328125 1.0855712890625
7663137500.0 0.08056640625 1.35821533203125
7694359375.0 0.937957763671875 0.98028564453125
7725581250.0 1.24365234375 0.17950439453125
7756803125.0 1.0811767578125 -0.4984130859375
7788025000.0 0.66925048828125 -1.04400634765625
7819246875.0 -0.12005615234375 -1.34747314453125
7850468750.0 -0.993621826171875 -0.916168212890625
7881690625.0 -1.2318115234375 -0.10565185546875
7912912500.0 -1.05364990234375 0.5526123046875
7944134375.0 -0.6058349609375 1.11151123046875
7975356250.0 0.26983642578125 1.33428955078125
8006578125.0 1.04608154296875 0.77960205078125
8037800000.0 1.19256591796875 0.01702880859375
8069021875.0 1.00634765625 -0.6168212890625
8100243750.0 0.49969482421875 -1.16143798828125
8131465625.0 -0.38739013671875 -1.254150390625
8162687500.0 -1.03179931640625 -0.68646240234375
8193909375.0 -1.18048095703125 0.0089111328125
8225131250.0 -1.0172119140625 0.67645263671875
8256353125.0 -0.42083740234375 1.2496337890625
8287575000.0 0.499267578125 1.2264404296875
8318796875.0 1.08245849609375 0.63525390625
8350018750.0 1.24517822265625 -0.07684326171875
8381240625.0 1.0306396484375 -0.83978271484375
8412462500.0 0.2548828125 -1.3729248046875
8443684375.0 -0.66925048828125 -1.16949462890625
8474906250.0 -1.1771240234375 -0.5322265625
8506128125.0 -1.29736328125 0.23553466796875
8537350000.0 -0.9244384765625 1.04541015625
8568571875.0 -0.0179443359375 1.39239501953125
8599793750.0 0.7999267578125 1.052490234375
8631015625.0 1.23931884765625 0.39923095703125
8662237500.0 1.28546142578125 -0.42767333984375
8693459375.0 0.737060546875 -1.1748046875
8724681250.0 -0.1640625 -1.33203125
8755903125.0 -0.8800048828125 -0.95794677734375
8787125000.0 -1.3035888671875 -0.28289794921875
8818346875.0 -1.25048828125 0.61273193359375
8849568750.0 -0.556640625 1.2606201171875
8880790625.0 0.29779052734375 1.28515625
8912012500.0 0.979888916015625 0.89215087890625
8943234375.0 1.400146484375 0.12872314453125
8974456250.0 1.1663818359375 -0.83673095703125
9005678125.0 0.348876953125 -1.31298828125
9036900000.0 -0.44573974609375 -1.22564697265625
9068121875.0 -1.10211181640625 -0.78607177734375
9099343750.0 -1.44183349609375 0.09796142578125
9130565625.0 -0.97998046875 1.01251220703125
9161787500.0 -0.15484619140625 1.28314208984375
9193009375.0 0.556396484375 1.1346435546875
9224231250.0 1.1768798828125 0.65521240234375
9255453125.0 1.3990478515625 -0.29437255859375
9286675000.0 0.80596923828125 -1.08642578125
9317896875.0 0.0260009765625 -1.24615478515625
9349118750.0 -0.65301513671875 -1.06982421875
9380340625.0 -1.255859375 -0.509765625
9411562500.0 -1.311279296875 0.47625732421875
9442784375.0 -0.6488037109375 1.115966796875
9474006250.0 0.08837890625 1.21044921875
9505228125.0 0.762603759765625 0.97979736328125
9536450000.0 1.27142333984375 0.314697265625
9567671875.0 1.14410400390625 -0.57867431640625
9598893750.0 0.52947998046875 -1.0689697265625
9630115625.0 -0.1431884765625 -1.15850830078125
9661337500.0 -0.818267822265625 -0.90264892578125
9692559375.0 -1.23846435546875 -0.19110107421875
9723781250.0 -1.04376220703125 0.6031494140625
9755003125.0 -0.4864501953125 1.05096435546875
9786225000.0 0.19818115234375 1.1583251953125
9817446875.0 0.895721435546875 0.82794189453125
9848668750.0 1.1990966796875 0.0772705078125
9879890625.0 0.96820068359375 -0.615875244140625
9911112500.0 0.4525146484375 -1.05322265625
9942334375.0 -0.265625 -1.15771484375
9973556250.0 -0.942413330078125 -0.738433837890625
10004778125.0 -1.14642333984375 -0.01959228515625
10036000000.0 -0.944244384765625 0.61572265625
10067221875.0 -0.4429931640625 1.096435546875
10098443750.0 0.37017822265625 1.18182373046875
10129665625.0 1.00347900390625 0.643798828125
10160887500.0 1.11981201171875 -0.051025390625
10192109375.0 0.91754150390625 -0.663330078125
10223331250.0 0.36175537109375 -1.15277099609375
10254553125.0 -0.4866943359375 -1.11474609375
10285775000.0 -0.986358642578125 -0.53558349609375
10316996875.0 -1.0684814453125 0.07696533203125
10348218750.0 -0.900238037109375 0.6693115234375
10379440625.0 -0.3223876953125 1.17547607421875
10410662500.0 0.5262451171875 1.08526611328125
10441884375.0 0.991058349609375 0.522125244140625
10473106250.0 1.1092529296875 -0.0848388671875
10504328125.0 0.94903564453125 -0.756927490234375
10535550000.0 0.2412109375 -1.29449462890625
10566771875.0 -0.6580810546875 -1.07879638671875
10597993750.0 -1.08099365234375 -0.45843505859375
10629215625.0 -1.17462158203125 0.2042236328125
10660437500.0 -0.88763427734375 0.949615478515625
10691659375.0 -0.0108642578125 1.33538818359375
10722881250.0 0.78582763671875 0.952423095703125
10754103125.0 1.11944580078125 0.3250732421875
10785325000.0 1.13897705078125 -0.36602783203125
10816546875.0 0.70172119140625 -1.04736328125
10847768750.0 -0.14544677734375 -1.23065185546875
10878990625.0 -0.802886962890625 -0.843841552734375
10910212500.0 -1.1224365234375 -0.24554443359375
10941434375.0 -1.09686279296875 0.4755859375
10972656250.0 -0.5679931640625 1.0849609375
11003878125.0 0.21600341796875 1.1741943359375
11035100000.0 0.8475341796875 0.821807861328125
11066321875.0 1.21905517578125 0.175048828125
11097543750.0 1.09857177734375 -0.67608642578125
11128765625.0 0.3863525390625 -1.198486328125
11159987500.0 -0.39605712890625 -1.139404296875
11191209375.0 -0.999725341796875 -0.701812744140625
11222431250.0 -1.27301025390625 0.09271240234375
11253653125.0 -0.860595703125 0.895172119140625
11284875000.0 -0.1141357421875 1.1273193359375
11316096875.0 0.5108642578125 0.955291748046875
11347318750.0 1.00372314453125 0.502685546875
11378540625.0 1.11767578125 -0.2686767578125
11409762500.0 0.6353759765625 -0.860015869140625
11440984375.0 0.03594970703125 -0.978179931640625
11472206250.0 -0.481170654296875 -0.85040283203125
11503428125.0 -0.951385498046875 -0.456146240234375
11534650000.0 -1.06842041015625 0.28839111328125
11565871875.0 -0.6033935546875 0.854217529296875
11597093750.0 -0.01995849609375 0.989837646484375
11628315625.0 0.54412841796875 0.8758544921875
11659537500.0 1.0592041015625 0.391845703125
11690759375.0 1.06488037109375 -0.43267822265625
11721981250.0 0.51708984375 -0.9403076171875
11753203125.0 -0.10528564453125 -1.0362548828125
11784425000.0 -0.72308349609375 -0.808502197265625
11815646875.0 -1.10009765625 -0.15216064453125
11846868750.0 -0.892303466796875 0.5523681640625
11878090625.0 -0.391754150390625 0.908660888671875
11909312500.0 0.186248779296875 0.985504150390625
11940534375.0 0.780181884765625 0.695587158203125
11971756250.0 1.02496337890625 0.0394287109375
12002978125.0 0.80615234375 -0.53765869140625
12034200000.0 0.382080078125 -0.888916015625
12065421875.0 -0.215087890625 -1.00994873046875
12096643750.0 -0.84625244140625 -0.66552734375
12127865625.0 -1.03424072265625 0.016845703125
12159087500.0 -0.815521240234375 0.57391357421875
12190309375.0 -0.37762451171875 0.97625732421875
12221531250.0 0.33697509765625 1.0875244140625
12252753125.0 0.9798583984375 0.581787109375
12283975000.0 1.05517578125 -0.1280517578125
12315196875.0 0.800689697265625 -0.676483154296875
12346418750.0 0.28143310546875 -1.09149169921875
12377640625.0 -0.53851318359375 -1.061767578125
12408862500.0 -1.03411865234375 -0.4202880859375
12440084375.0 -1.00872802734375 0.224609375
12471306250.0 -0.741729736328125 0.73773193359375
12502528125.0 -0.17926025390625 1.119873046875
12533750000.0 0.61932373046875 0.993621826171875
12564971875.0 1.04058837890625 0.36517333984375
12596193750.0 1.02783203125 -0.2630615234375
12627415625.0 0.74810791015625 -0.8294677734375
12658637500.0 0.08001708984375 -1.20550537109375
12689859375.0 -0.73516845703125 -0.9669189453125
12721081250.0 -1.115966796875 -0.3067626953125
12752303125.0 -1.097412109375 0.3809814453125
12783525000.0 -0.6884765625 1.0281982421875
12814746875.0 0.16436767578125 1.25201416015625
12845968750.0 0.86346435546875 0.811798095703125
12877190625.0 1.11785888671875 0.17144775390625
12908412500.0 1.05645751953125 -0.5015869140625
12939634375.0 0.5433349609375 -1.1165771484375
12970856250.0 -0.31915283203125 -1.1756591796875
13002078125.0 -0.8956298828125 -0.695098876953125
13033300000.0 -1.1063232421875 -0.08636474609375
13064521875.0 -1.0098876953125 0.59393310546875
13095743750.0 -0.42047119140625 1.154052734375
13126965625.0 0.40863037109375 1.12152099609375
13158187500.0 0.946075439453125 0.63238525390625
13189409375.0 1.147705078125 -0.0208740234375
13220631250.0 0.936065673828125 -0.7464599609375
13251853125.0 0.2344970703125 -1.17108154296875
13283075000.0 -0.50750732421875 -1.0198974609375
13314296875.0 -0.987457275390625 -0.52984619140625
13345518750.0 -1.135498046875 0.17626953125
13376740625.0 -0.75360107421875 0.85833740234375
