!Created with skrf (http://scikit-rf.org).
# Hz S RI R 50.0 
!freq ReS11 ImS11
45000000.0 -0.07681655883789062 -0.09704208374023438
76221875.0 -0.196746826171875 -0.047821044921875
107443750.0 -0.2556610107421875 0.119598388671875
138665625.0 -0.148956298828125 0.328948974609375
169887500.0 0.1230621337890625 0.4185638427734375
201109375.0 0.42218017578125 0.282073974609375
232331250.0 0.580078125 -0.05682373046875
263553125.0 0.49090576171875 -0.453094482421875
294775000.0 0.099761962890625 -0.73382568359375
325996875.0 -0.415313720703125 -0.682952880859375
357218750.0 -0.807647705078125 -0.298980712890625
388440625.0 -0.888092041015625 0.3001708984375
419662500.0 -0.51983642578125 0.867279052734375
450884375.0 0.17144775390625 1.0313720703125
482106250.0 0.798919677734375 0.715484619140625
513328125.0 1.12164306640625 0.0889892578125
544550000.0 1.00640869140625 -0.67962646484375
575771875.0 0.3388671875 -1.23907470703125
606993750.0 -0.552490234375 -1.18035888671875
638215625.0 -1.1669921875 -0.59332275390625
669437500.0 -1.3426513671875 0.2320556640625
700659375.0 -0.97393798828125 1.0966796875
731881250.0 -0.00640869140625 1.54571533203125
763103125.0 1.00543212890625 1.15948486328125
794325000.0 1.4710693359375 0.28448486328125
825546875.0 1.37091064453125 -0.6507568359375
856768750.0 0.797607421875 -1.40228271484375
887990625.0 -0.29119873046875 -1.65191650390625
919212500.0 -1.28961181640625 -1.08282470703125
950434375.0 -1.6522216796875 -0.06121826171875
981656250.0 -1.38629150390625 0.94677734375
1012878125.0 -0.53265380859375 1.675048828125
1044100000.0 0.696533203125 1.666748046875
1075321875.0 1.57684326171875 0.81573486328125
1106543750.0 1.70892333984375 -0.31170654296875
1137765625.0 1.19091796875 -1.28521728515625
1168987500.0 0.14080810546875 -1.80108642578125
1200209375.0 -1.06243896484375 -1.48834228515625
1231431250.0 -1.73040771484375 -0.45654296875
1262653125.0 -1.5977783203125 0.6832275390625
1293875000.0 -0.8555908203125 1.49273681640625
1325096875.0 0.22613525390625 1.71051025390625
1356318750.0 1.23626708984375 1.22100830078125
1387540625.0 1.74346923828125 0.19146728515625
1418762500.0 1.4735107421875 -0.9505615234375
1449984375.0 0.532470703125 -1.6282958984375
1481206250.0 -0.54864501953125 -1.55950927734375
1512428125.0 -1.34381103515625 -0.9228515625
1543650000.0 -1.6585693359375 0.06365966796875
1574871875.0 -1.27679443359375 1.10955810546875
1606093750.0 -0.27532958984375 1.6337890625
1637315625.0 0.74176025390625 1.404052734375
1668537500.0 1.39739990234375 0.69830322265625
1699759375.0 1.576171875 -0.2757568359375
1730981250.0 1.067626953125 -1.23028564453125
1762203125.0 0.0438232421875 -1.573486328125
1793425000.0 -0.85626220703125 -1.2294921875
1824646875.0 -1.3951416015625 -0.51776123046875
1855868750.0 -1.47735595703125 0.43212890625
1887090625.0 -0.8778076171875 1.287109375
1918312500.0 0.116455078125 1.4898681640625
1949534375.0 0.9219970703125 1.0919189453125
1980756250.0 1.37701416015625 0.3720703125
2011978125.0 1.3623046875 -0.5308837890625
2043200000.0 0.7528076171875 -1.26275634765625
2074421875.0 -0.15576171875 -1.43597412109375
2105643750.0 -0.96112060546875 -1.07562255859375
2136865625.0 -1.44976806640625 -0.30670166015625
2168087500.0 -1.3602294921875 0.6710205078125
2199309375.0 -0.64129638671875 1.35369873046875
2230531250.0 0.28167724609375 1.439208984375
2261753125.0 1.0740966796875 1.01641845703125
2292975000.0 1.51708984375 0.17138671875
2324196875.0 1.30865478515625 -0.819580078125
2355418750.0 0.5269775390625 -1.42193603515625
2386640625.0 -0.404296875 -1.45172119140625
2417862500.0 -1.183349609375 -1.02691650390625
2449084375.0 -1.60699462890625 -0.085205078125
2480306250.0 -1.3140869140625 0.92578125
2511528125.0 -0.49603271484375 1.50994873046875
2542750000.0 0.48883056640625 1.5401611328125
2573971875.0 1.37420654296875 0.97076416015625
2605193750.0 1.72052001953125 -0.1119384765625
2636415625.0 1.26495361328125 -1.15484619140625
2667637500.0 0.30792236328125 -1.6693115234375
2698859375.0 -0.76885986328125 -1.5364990234375
2730081250.0 -1.577392578125 -0.742431640625
2761303125.0 -1.68511962890625 0.38824462890625
2792525000.0 -1.10235595703125 1.30975341796875
2823746875.0 -0.10345458984375 1.73333740234375
2854968750.0 1.01409912109375 1.45928955078125
2886190625.0 1.69482421875 0.493408203125
2917412500.0 1.6029052734375 -0.6182861328125
2948634375.0 0.941650390625 -1.43646240234375
2979856250.0 -0.10797119140625 -1.7796630859375
3011078125.0 -1.24871826171875 -1.34466552734375
3042300000.0 -1.77728271484375 -0.23638916015625
3073521875.0 -1.5118408203125 0.838623046875
3104743750.0 -0.76556396484375 1.5699462890625
3135965625.0 0.36224365234375 1.81298828125
3167187500.0 1.50091552734375 1.16748046875
3198409375.0 1.81915283203125 -0.0743408203125
3229631250.0 1.35205078125 -1.08203125
3260853125.0 0.49102783203125 -1.67138671875
3292075000.0 -0.65447998046875 -1.70166015625
3323296875.0 -1.62347412109375 -0.88153076171875
3354518750.0 -1.7335205078125 0.32879638671875
3385740625.0 -1.15911865234375 1.23321533203125
3416962500.0 -0.23187255859375 1.68572998046875
3448184375.0 0.86273193359375 1.52508544921875
3479406250.0 1.63946533203125 0.6456298828125
3510628125.0 1.6480712890625 -0.4962158203125
3541850000.0 1.00244140625 -1.35662841796875
3573071875.0 -0.00811767578125 -1.68603515625
3604293750.0 -1.0294189453125 -1.3397216796875
3635515625.0 -1.6298828125 -0.439453125
3666737500.0 -1.56500244140625 0.64794921875
3697959375.0 -0.82659912109375 1.47784423828125
3729181250.0 0.26849365234375 1.6334228515625
3760403125.0 1.15399169921875 1.1004638671875
3791625000.0 1.55450439453125 0.21929931640625
3822846875.0 1.4051513671875 -0.7620849609375
3854068750.0 0.62176513671875 -1.48406982421875
3885290625.0 -0.42144775390625 -1.48394775390625
3916512500.0 -1.143798828125 -0.91265869140625
3947734375.0 -1.4503173828125 -0.1202392578125
3978956250.0 -1.300537109375 0.78167724609375
4010178125.0 -0.5321044921875 1.45758056640625
4041400000.0 0.4747314453125 1.4171142578125
4072621875.0 1.1529541015625 0.84844970703125
4103843750.0 1.44720458984375 0.0628662109375
4135065625.0 1.26995849609375 -0.84844970703125
4166287500.0 0.45758056640625 -1.497802734375
4197509375.0 -0.55914306640625 -1.41644287109375
4228731250.0 -1.24859619140625 -0.80340576171875
4259953125.0 -1.51116943359375 0.0716552734375
4291175000.0 -1.190185546875 1.0111083984375
4322396875.0 -0.2894287109375 1.5286865234375
4353618750.0 0.67401123046875 1.35235595703125
4384840625.0 1.32421875 0.69842529296875
4416062500.0 1.50372314453125 -0.2286376953125
4447284375.0 1.05670166015625 -1.10595703125
4478506250.0 0.1724853515625 -1.49725341796875
4509728125.0 -0.73309326171875 -1.30908203125
4540950000.0 -1.39654541015625 -0.63671875
4572171875.0 -1.5247802734375 0.36187744140625
4603393750.0 -0.973388671875 1.21551513671875
4634615625.0 -0.06011962890625 1.5389404296875
4665837500.0 0.8729248046875 1.30560302734375
4697059375.0 1.54443359375 0.51483154296875
4728281250.0 1.53076171875 -0.58428955078125
4759503125.0 0.82342529296875 -1.3695068359375
4790725000.0 -0.145751953125 -1.57470703125
4821946875.0 -1.08636474609375 -1.19525146484375
4853168750.0 -1.61614990234375 -0.25054931640625
4884390625.0 -1.38031005859375 0.795166015625
4915612500.0 -0.61431884765625 1.4151611328125
4946834375.0 0.32965087890625 1.511474609375
4978056250.0 1.209228515625 1.01873779296875
5009278125.0 1.5650634765625 0.0384521484375
5040500000.0 1.23089599609375 -0.87823486328125
5071721875.0 0.50201416015625 -1.41802978515625
5102943750.0 -0.44866943359375 -1.4998779296875
5134165625.0 -1.3402099609375 -0.90631103515625
5165387500.0 -1.56988525390625 0.14752197265625
5196609375.0 -1.13720703125 1.01300048828125
5227831250.0 -0.35675048828125 1.50933837890625
5259053125.0 0.6898193359375 1.49395751953125
5290275000.0 1.52459716796875 0.662353515625
5321496875.0 1.49432373046875 -0.4324951171875
5352718750.0 0.92156982421875 -1.15484619140625
5383940625.0 0.09613037109375 -1.50286865234375
5415162500.0 -0.902099609375 -1.28533935546875
5446384375.0 -1.48779296875 -0.37017822265625
5477606250.0 -1.3016357421875 0.568115234375
5508828125.0 -0.7322998046875 1.15325927734375
5540050000.0 0.05499267578125 1.4019775390625
5571271875.0 0.942138671875 1.1109619140625
5602493750.0 1.41168212890625 0.2589111328125
5633715625.0 1.234130859375 -0.6153564453125
5664937500.0 0.6480712890625 -1.2049560546875
5696159375.0 -0.1998291015625 -1.38690185546875
5727381250.0 -1.02520751953125 -0.97833251953125
5758603125.0 -1.3936767578125 -0.14373779296875
5789825000.0 -1.19561767578125 0.7200927734375
5821046875.0 -0.50592041015625 1.30963134765625
5852268750.0 0.41387939453125 1.31439208984375
5883490625.0 1.0738525390625 0.77215576171875
5914712500.0 1.30419921875 0.0191650390625
5945934375.0 1.09765625 -0.77825927734375
5977156250.0 0.36053466796875 -1.3145751953125
6008378125.0 -0.51171875 -1.18365478515625
6039600000.0 -1.02301025390625 -0.64910888671875
6070821875.0 -1.22601318359375 -0.0032958984375
6102043750.0 -1.08502197265625 0.764404296875
6133265625.0 -0.3411865234375 1.34735107421875
6164487500.0 0.5662841796875 1.18878173828125
6195709375.0 1.07269287109375 0.62982177734375
6226931250.0 1.28192138671875 -0.0440673828125
6258153125.0 1.10589599609375 -0.8763427734375
6289375000.0 0.2530517578125 -1.45001220703125
6320596875.0 -0.6922607421875 -1.2061767578125
6351818750.0 -1.20343017578125 -0.570556640625
6383040625.0 -1.357177734375 0.20965576171875
6414262500.0 -0.99932861328125 1.0614013671875
6445484375.0 -0.0770263671875 1.458251953125
6476706250.0 0.79827880859375 1.148193359375
6507928125.0 1.2928466796875 0.46905517578125
6539150000.0 1.34912109375 -0.3887939453125
6570371875.0 0.84130859375 -1.14617919921875
6601593750.0 -0.0194091796875 -1.40789794921875
6632815625.0 -0.84344482421875 -1.1375732421875
6664037500.0 -1.405029296875 -0.4185791015625
6695259375.0 -1.375244140625 0.56939697265625
6726481250.0 -0.70965576171875 1.25408935546875
6757703125.0 0.1326904296875 1.40911865234375
6788925000.0 0.95989990234375 1.13165283203125
6820146875.0 1.563232421875 0.28533935546875
6851368750.0 1.32647705078125 -0.82366943359375
6882590625.0 0.50518798828125 -1.34136962890625
6913812500.0 -0.295166015625 -1.3585205078125
6945034375.0 -1.0736083984375 -1.02203369140625
6976256250.0 -1.595458984375 -0.09033203125
7007478125.0 -1.23797607421875 0.9368896484375
7038700000.0 -0.4017333984375 1.34613037109375
7069921875.0 0.359619140625 1.32537841796875
7101143750.0 1.122802734375 0.97015380859375
7132365625.0 1.6038818359375 0.0115966796875
7163587500.0 1.15869140625 -1.02337646484375
7194809375.0 0.30267333984375 -1.400390625
7226031250.0 -0.514892578125 -1.3280029296875
7257253125.0 -1.2718505859375 -0.82415771484375
7288475000.0 -1.559814453125 0.2012939453125
7319696875.0 -1.02960205078125 1.11358642578125
7350918750.0 -0.1622314453125 1.4476318359375
7382140625.0 0.71722412109375 1.2767333984375
7413362500.0 1.38128662109375 0.57427978515625
7444584375.0 1.4139404296875 -0.410888671875
7475806250.0 0.85845947265625 -1.1463623046875
7507028125.0 0.00360107421875 -1.43218994140625
7538250000.0 -0.8914794921875 -1.1246337890625
7569471875.0 -1.338623046875 -0.30938720703125
7600693750.0 -1.2041015625 0.50030517578125
7631915625.0 -0.71832275390625 1.087646484375
7663137500.0 0.08154296875 1.36187744140625
7694359375.0 0.943145751953125 0.982025146484375
7725581250.0 1.247802734375 0.179443359375
7756803125.0 1.0850830078125 -0.5028076171875
7788025000.0 0.670654296875 -1.04815673828125
7819246875.0 -0.12359619140625 -1.35028076171875
7850468750.0 -0.995941162109375 -0.91552734375
7881690625.0 -1.23333740234375 -0.10369873046875
7912912500.0 -1.0560302734375 0.55828857421875
7944134375.0 -0.604248046875 1.1173095703125
7975356250.0 0.27789306640625 1.3382568359375
8006578125.0 1.0494384765625 0.77734375
8037800000.0 1.19561767578125 0.0130615234375
8069021875.0 1.0079345703125 -0.6199951171875
8100243750.0 0.4971923828125 -1.16754150390625
8131465625.0 -0.3917236328125 -1.2564697265625
8162687500.0 -1.03411865234375 -0.6856689453125
8193909375.0 -1.1827392578125 0.0091552734375
8225131250.0 -1.01953125 0.68145751953125
8256353125.0 -0.4188232421875 1.2559814453125
8287575000.0 0.50445556640625 1.22833251953125
8318796875.0 1.0865478515625 0.63427734375
8350018750.0 1.2481689453125 -0.078369140625
8381240625.0 1.03338623046875 -0.84381103515625
8412462500.0 0.2513427734375 -1.37744140625
8443684375.0 -0.67376708984375 -1.16998291015625
8474906250.0 -1.17962646484375 -0.53021240234375
8506128125.0 -1.30120849609375 0.241943359375
8537350000.0 -0.9241943359375 1.0509033203125
8568571875.0 -0.01171875 1.39642333984375
8599793750.0 0.8046875 1.0526123046875
8631015625.0 1.2457275390625 0.396484375
8662237500.0 1.28839111328125 -0.43505859375
8693459375.0 0.735107421875 -1.18280029296875
8724681250.0 -0.16510009765625 -1.334228515625
8755903125.0 -0.88409423828125 -0.9586181640625
8787125000.0 -1.30810546875 -0.2801513671875
8818346875.0 -1.25439453125 0.6192626953125
8849568750.0 -0.5548095703125 1.26531982421875
8880790625.0 0.3016357421875 1.2879638671875
8912012500.0 0.9876708984375 0.893890380859375
8943234375.0 1.4052734375 0.124267578125
8974456250.0 1.1663818359375 -0.84600830078125
9005678125.0 0.34429931640625 -1.31744384765625
9036900000.0 -0.45001220703125 -1.22589111328125
9068121875.0 -1.10650634765625 -0.78411865234375
9099343750.0 -1.443115234375 0.10205078125
9130565625.0 -0.97833251953125 1.01629638671875
9161787500.0 -0.153076171875 1.2823486328125
9193009375.0 0.55792236328125 1.1351318359375
9224231250.0 1.18292236328125 0.65496826171875
9255453125.0 1.40203857421875 -0.30096435546875
9286675000.0 0.80633544921875 -1.0894775390625
9317896875.0 0.02386474609375 -1.25
9349118750.0 -0.6580810546875 -1.072021484375
9380340625.0 -1.262451171875 -0.50872802734375
9411562500.0 -1.31292724609375 0.48095703125
9442784375.0 -0.6463623046875 1.12030029296875
9474006250.0 0.092041015625 1.21441650390625
9505228125.0 0.769866943359375 0.980865478515625
9536450000.0 1.27850341796875 0.30908203125
9567671875.0 1.14422607421875 -0.585693359375
9598893750.0 0.526123046875 -1.07366943359375
9630115625.0 -0.14752197265625 -1.15972900390625
9661337500.0 -0.82305908203125 -0.90203857421875
9692559375.0 -1.24322509765625 -0.185302734375
9723781250.0 -1.04376220703125 0.6068115234375
9755003125.0 -0.48419189453125 1.05364990234375
9786225000.0 0.2008056640625 1.16229248046875
9817446875.0 0.900970458984375 0.826934814453125
9848668750.0 1.201171875 0.07421875
9879890625.0 0.9688720703125 -0.621795654296875
9911112500.0 0.451171875 -1.05462646484375
9942334375.0 -0.27093505859375 -1.16180419921875
9973556250.0 -0.948028564453125 -0.73699951171875
10004778125.0 -1.14971923828125 -0.0128173828125
10036000000.0 -0.9439697265625 0.620849609375
10067221875.0 -0.4390869140625 1.10150146484375
10098443750.0 0.3758544921875 1.18292236328125
10129665625.0 1.00677490234375 0.6397705078125
10160887500.0 1.12103271484375 -0.055908203125
10192109375.0 0.917083740234375 -0.667236328125
10223331250.0 0.3580322265625 -1.1552734375
10254553125.0 -0.48992919921875 -1.1146240234375
10285775000.0 -0.989654541015625 -0.53240966796875
10316996875.0 -1.06939697265625 0.0806884765625
10348218750.0 -0.9012451171875 0.674713134765625
10379440625.0 -0.31915283203125 1.18035888671875
10410662500.0 0.532470703125 1.085693359375
10441884375.0 0.994964599609375 0.519866943359375
10473106250.0 1.111328125 -0.08734130859375
10504328125.0 0.949462890625 -0.761566162109375
10535550000.0 0.233642578125 -1.2999267578125
10566771875.0 -0.66314697265625 -1.07696533203125
10597993750.0 -1.0848388671875 -0.4561767578125
10629215625.0 -1.17706298828125 0.2095947265625
10660437500.0 -0.88665771484375 0.9573974609375
10691659375.0 -0.0029296875 1.3392333984375
10722881250.0 0.78924560546875 0.951416015625
10754103125.0 1.12274169921875 0.32177734375
10785325000.0 1.14080810546875 -0.37225341796875
10816546875.0 0.69866943359375 -1.05523681640625
10847768750.0 -0.14892578125 -1.2303466796875
10878990625.0 -0.807861328125 -0.8427734375
10910212500.0 -1.12677001953125 -0.2421875
10941434375.0 -1.09912109375 0.48297119140625
10972656250.0 -0.56591796875 1.0897216796875
11003878125.0 0.22235107421875 1.17596435546875
11035100000.0 0.85223388671875 0.821197509765625
11066321875.0 1.22509765625 0.17108154296875
11097543750.0 1.099609375 -0.6826171875
11128765625.0 0.38189697265625 -1.20343017578125
11159987500.0 -0.39971923828125 -1.14019775390625
11191209375.0 -1.00433349609375 -0.7000732421875
11222431250.0 -1.27545166015625 0.099365234375
11253653125.0 -0.85626220703125 0.899017333984375
11284875000.0 -0.11199951171875 1.129638671875
11316096875.0 0.514739990234375 0.956390380859375
11347318750.0 1.00762939453125 0.50006103515625
11378540625.0 1.119384765625 -0.2744140625
11409762500.0 0.63323974609375 -0.86334228515625
11440984375.0 0.03240966796875 -0.98095703125
11472206250.0 -0.484710693359375 -0.85028076171875
11503428125.0 -0.95849609375 -0.45330810546875
11534650000.0 -1.070068359375 0.29461669921875
11565871875.0 -0.600433349609375 0.85870361328125
11597093750.0 -0.016326904296875 0.993316650390625
11628315625.0 0.548736572265625 0.875885009765625
11659537500.0 1.06536865234375 0.38812255859375
11690759375.0 1.06549072265625 -0.440673828125
11721981250.0 0.51409912109375 -0.945343017578125
11753203125.0 -0.1092529296875 -1.03887939453125
11784425000.0 -0.73095703125 -0.808563232421875
11815646875.0 -1.10406494140625 -0.146240234375
11846868750.0 -0.890625 0.55682373046875
11878090625.0 -0.388885498046875 0.912506103515625
11909312500.0 0.19171142578125 0.987579345703125
11940534375.0 0.784149169921875 0.693450927734375
11971756250.0 1.0286865234375 0.03564453125
12002978125.0 0.8057861328125 -0.54315185546875
12034200000.0 0.379180908203125 -0.8939208984375
12065421875.0 -0.22003173828125 -1.0126953125
12096643750.0 -0.852691650390625 -0.662689208984375
12127865625.0 -1.0355224609375 0.02093505859375
12159087500.0 -0.814849853515625 0.578338623046875
12190309375.0 -0.375885009765625 0.979705810546875
12221531250.0 0.34466552734375 1.0889892578125
12252753125.0 0.98406982421875 0.57763671875
12283975000.0 1.0556640625 -0.13177490234375
12315196875.0 0.800445556640625 -0.681304931640625
12346418750.0 0.2767333984375 -1.09619140625
12377640625.0 -0.54364013671875 -1.06036376953125
12408862500.0 -1.036376953125 -0.41571044921875
12440084375.0 -1.0096435546875 0.2296142578125
12471306250.0 -0.741455078125 0.743316650390625
12502528125.0 -0.174560546875 1.12445068359375
12533750000.0 0.62591552734375 0.992828369140625
12564971875.0 1.0440673828125 0.35986328125
12596193750.0 1.031005859375 -0.27001953125
12627415625.0 0.748260498046875 -0.8338623046875
12658637500.0 0.07421875 -1.21160888671875
12689859375.0 -0.74176025390625 -0.964630126953125
12721081250.0 -1.1199951171875 -0.30279541015625
12752303125.0 -1.09912109375 0.3875732421875
12783525000.0 -0.6842041015625 1.0350341796875
12814746875.0 0.17279052734375 1.25335693359375
12845968750.0 0.870208740234375 0.808807373046875
12877190625.0 1.12042236328125 0.16790771484375
12908412500.0 1.0557861328125 -0.50811767578125
12939634375.0 0.53875732421875 -1.12347412109375
12970856250.0 -0.3267822265625 -1.17547607421875
13002078125.0 -0.900665283203125 -0.6903076171875
13033300000.0 -1.11053466796875 -0.082275390625
13064521875.0 -1.009765625 0.59881591796875
13095743750.0 -0.41461181640625 1.16119384765625
13126965625.0 0.415771484375 1.12164306640625
13158187500.0 0.951385498046875 0.62939453125
13189409375.0 1.15130615234375 -0.02520751953125
13220631250.0 0.935516357421875 -0.756011962890625
13251853125.0 0.22833251953125 -1.17633056640625
13283075000.0 -0.51300048828125 -1.01947021484375
13314296875.0 -0.99298095703125 -0.52593994140625
13345518750.0 -1.13812255859375 0.183837890625
