!Created with skrf (http://scikit-rf.org).
# Hz S RI R 50.0 
!freq ReS11 ImS11
45000000.0 -0.07706069946289062 -0.09672164916992188
76221875.0 -0.1965179443359375 -0.047149658203125
107443750.0 -0.254852294921875 0.1197357177734375
138665625.0 -0.1478729248046875 0.3287506103515625
169887500.0 0.1238250732421875 0.4172821044921875
201109375.0 0.421875 0.2804412841796875
232331250.0 0.5787353515625 -0.057861328125
263553125.0 0.489288330078125 -0.4531097412109375
294775000.0 0.09796142578125 -0.732635498046875
325996875.0 -0.415771484375 -0.680328369140625
357218750.0 -0.806365966796875 -0.296630859375
388440625.0 -0.885284423828125 0.301177978515625
419662500.0 -0.516693115234375 0.866485595703125
450884375.0 0.1737060546875 1.02862548828125
482106250.0 0.798583984375 0.7119140625
513328125.0 1.119140625 0.08642578125
544550000.0 1.0030517578125 -0.68017578125
575771875.0 0.335693359375 -1.23809814453125
606993750.0 -0.5543212890625 -1.1766357421875
638215625.0 -1.16558837890625 -0.58966064453125
669437500.0 -1.33917236328125 0.2342529296875
700659375.0 -0.9700927734375 1.0965576171875
731881250.0 -0.00299072265625 1.54278564453125
763103125.0 1.00592041015625 1.15460205078125
794325000.0 1.46807861328125 0.2811279296875
825546875.0 1.3662109375 -0.6517333984375
856768750.0 0.79351806640625 -1.4007568359375
887990625.0 -0.29339599609375 -1.64727783203125
919212500.0 -1.2884521484375 -1.07720947265625
950434375.0 -1.64788818359375 -0.05755615234375
981656250.0 -1.3812255859375 0.9468994140625
1012878125.0 -0.5284423828125 1.67083740234375
1044100000.0 0.6971435546875 1.66058349609375
1075321875.0 1.5738525390625 0.8104248046875
1106543750.0 1.70306396484375 -0.31353759765625
1137765625.0 1.1851806640625 -1.2840576171875
1168987500.0 0.13671875 -1.79608154296875
1200209375.0 -1.061279296875 -1.481689453125
1231431250.0 -1.7265625 -0.4527587890625
1262653125.0 -1.5927734375 0.6846923828125
1293875000.0 -0.85028076171875 1.49090576171875
1325096875.0 0.22882080078125 1.704833984375
1356318750.0 1.23486328125 1.2149658203125
1387540625.0 1.73828125 0.18829345703125
1418762500.0 1.4678955078125 -0.9517822265625
1449984375.0 0.52801513671875 -1.62481689453125
1481206250.0 -0.550048828125 -1.55438232421875
1512428125.0 -1.34136962890625 -0.9180908203125
1543650000.0 -1.65411376953125 0.06591796875
1574871875.0 -1.27178955078125 1.1090087890625
1606093750.0 -0.271728515625 1.630126953125
1637315625.0 0.7423095703125 1.39892578125
1668537500.0 1.39508056640625 0.69464111328125
1699759375.0 1.57171630859375 -0.27783203125
1730981250.0 1.062744140625 -1.22857666015625
1762203125.0 0.04150390625 -1.569091796875
1793425000.0 -0.85516357421875 -1.22515869140625
1824646875.0 -1.392578125 -0.51409912109375
1855868750.0 -1.4725341796875 0.4326171875
1887090625.0 -0.87384033203125 1.2843017578125
1918312500.0 0.11761474609375 1.4853515625
1949534375.0 0.9208984375 1.0875244140625
1980756250.0 1.37408447265625 0.36956787109375
2011978125.0 1.35809326171875 -0.53173828125
2043200000.0 0.7486572265625 -1.26123046875
2074421875.0 -0.15728759765625 -1.431884765625
2105643750.0 -0.95953369140625 -1.0711669921875
2136865625.0 -1.44622802734375 -0.303955078125
2168087500.0 -1.35552978515625 0.67059326171875
2199309375.0 -0.63787841796875 1.3504638671875
2230531250.0 0.281982421875 1.4349365234375
2261753125.0 1.0718994140625 1.0123291015625
2292975000.0 1.51300048828125 0.16961669921875
2324196875.0 1.30401611328125 -0.81842041015625
2355418750.0 0.5244140625 -1.41912841796875
2386640625.0 -0.40435791015625 -1.4476318359375
2417862500.0 -1.17962646484375 -1.0233154296875
2449084375.0 -1.6026611328125 -0.08380126953125
2480306250.0 -1.30908203125 0.92388916015625
2511528125.0 -0.49285888671875 1.50640869140625
2542750000.0 0.48883056640625 1.5345458984375
2573971875.0 1.3697509765625 0.96728515625
2605193750.0 1.71490478515625 -0.112548828125
2636415625.0 1.259765625 -1.152099609375
2667637500.0 0.305908203125 -1.66583251953125
2698859375.0 -0.77020263671875 -1.53277587890625
2730081250.0 -1.57122802734375 -0.739501953125
2761303125.0 -1.679443359375 0.388916015625
2792525000.0 -1.09747314453125 1.30682373046875
2823746875.0 -0.1009521484375 1.72808837890625
2854968750.0 1.01055908203125 1.45294189453125
2886190625.0 1.6900634765625 0.49017333984375
2917412500.0 1.59747314453125 -0.61663818359375
2948634375.0 0.93829345703125 -1.431640625
2979856250.0 -0.10870361328125 -1.773193359375
3011078125.0 -1.24688720703125 -1.34033203125
3042300000.0 -1.773681640625 -0.2332763671875
3073521875.0 -1.50640869140625 0.83721923828125
3104743750.0 -0.7618408203125 1.566650390625
3135965625.0 0.36181640625 1.80657958984375
3167187500.0 1.49713134765625 1.1624755859375
3198409375.0 1.81292724609375 -0.07525634765625
3229631250.0 1.3477783203125 -1.08160400390625
3260853125.0 0.48858642578125 -1.66656494140625
3292075000.0 -0.65478515625 -1.6954345703125
3323296875.0 -1.61761474609375 -0.87799072265625
3354518750.0 -1.72802734375 0.3287353515625
3385740625.0 -1.1544189453125 1.2301025390625
3416962500.0 -0.2305908203125 1.67926025390625
3448184375.0 0.8609619140625 1.51959228515625
3479406250.0 1.634033203125 0.64300537109375
3510628125.0 1.64154052734375 -0.494384765625
3541850000.0 0.99859619140625 -1.3538818359375
3573071875.0 -0.0084228515625 -1.6807861328125
3604293750.0 -1.0269775390625 -1.33551025390625
3635515625.0 -1.625244140625 -0.43780517578125
3666737500.0 -1.560302734375 0.64617919921875
3697959375.0 -0.8238525390625 1.47265625
3729181250.0 0.2681884765625 1.62835693359375
3760403125.0 1.1514892578125 1.09619140625
3791625000.0 1.5501708984375 0.21728515625
3822846875.0 1.3990478515625 -0.7584228515625
3854068750.0 0.618896484375 -1.47955322265625
3885290625.0 -0.42156982421875 -1.47967529296875
3916512500.0 -1.14056396484375 -0.9095458984375
3947734375.0 -1.44451904296875 -0.1197509765625
3978956250.0 -1.2952880859375 0.77789306640625
4010178125.0 -0.53033447265625 1.45294189453125
4041400000.0 0.473388671875 1.413818359375
4072621875.0 1.1497802734375 0.8466796875
4103843750.0 1.44317626953125 0.0633544921875
4135065625.0 1.26617431640625 -0.84405517578125
4166287500.0 0.45770263671875 -1.49383544921875
4197509375.0 -0.55633544921875 -1.4132080078125
4228731250.0 -1.246826171875 -0.80157470703125
4259953125.0 -1.507080078125 0.0709228515625
4291175000.0 -1.1868896484375 1.00958251953125
4322396875.0 -0.2889404296875 1.5242919921875
4353618750.0 0.67205810546875 1.3477783203125
4384840625.0 1.321044921875 0.69586181640625
4416062500.0 1.4986572265625 -0.22760009765625
4447284375.0 1.053955078125 -1.10443115234375
4478506250.0 0.1722412109375 -1.49285888671875
4509728125.0 -0.7318115234375 -1.30596923828125
4540950000.0 -1.39190673828125 -0.6356201171875
4572171875.0 -1.5205078125 0.3594970703125
4603393750.0 -0.9713134765625 1.210693359375
4634615625.0 -0.06134033203125 1.53558349609375
4665837500.0 0.86907958984375 1.30328369140625
4697059375.0 1.53985595703125 0.51458740234375
4728281250.0 1.527099609375 -0.58135986328125
4759503125.0 0.82208251953125 -1.36602783203125
4790725000.0 -0.14569091796875 -1.571044921875
4821946875.0 -1.0823974609375 -1.192626953125
4853168750.0 -1.611328125 -0.2509765625
4884390625.0 -1.37701416015625 0.79302978515625
4915612500.0 -0.6124267578125 1.41168212890625
4946834375.0 0.328369140625 1.5079345703125
4978056250.0 1.2037353515625 1.0159912109375
5009278125.0 1.5596923828125 0.03887939453125
5040500000.0 1.2279052734375 -0.87469482421875
5071721875.0 0.50140380859375 -1.41253662109375
5102943750.0 -0.4461669921875 -1.49542236328125
5134165625.0 -1.3341064453125 -0.90447998046875
5165387500.0 -1.5657958984375 0.14532470703125
5196609375.0 -1.134765625 1.00762939453125
5227831250.0 -0.35693359375 1.5050048828125
5259053125.0 0.687255859375 1.49139404296875
5290275000.0 1.5198974609375 0.6627197265625
5321496875.0 1.4908447265625 -0.43023681640625
5352718750.0 0.91998291015625 -1.152587890625
5383940625.0 0.09674072265625 -1.498291015625
5415162500.0 -0.89910888671875 -1.28314208984375
5446384375.0 -1.48321533203125 -0.36956787109375
5477606250.0 -1.2977294921875 0.565673828125
5508828125.0 -0.73052978515625 1.1497802734375
5540050000.0 0.0537109375 1.39715576171875
5571271875.0 0.93804931640625 1.107666015625
5602493750.0 1.4056396484375 0.26043701171875
5633715625.0 1.23089599609375 -0.61224365234375
5664937500.0 0.6478271484375 -1.20025634765625
5696159375.0 -0.19647216796875 -1.382568359375
5727381250.0 -1.02008056640625 -0.97784423828125
5758603125.0 -1.3902587890625 -0.14508056640625
5789825000.0 -1.1932373046875 0.71734619140625
5821046875.0 -0.5059814453125 1.30633544921875
5852268750.0 0.41119384765625 1.312744140625
5883490625.0 1.07012939453125 0.7713623046875
5914712500.0 1.30145263671875 0.0194091796875
5945934375.0 1.095947265625 -0.77581787109375
5977156250.0 0.361083984375 -1.31121826171875
6008378125.0 -0.5086669921875 -1.1812744140625
6039600000.0 -1.02093505859375 -0.6485595703125
6070821875.0 -1.22283935546875 -0.00457763671875
6102043750.0 -1.08245849609375 0.761474609375
6133265625.0 -0.34197998046875 1.34326171875
6164487500.0 0.56158447265625 1.18597412109375
6195709375.0 1.06964111328125 0.62957763671875
6226931250.0 1.278076171875 -0.04150390625
6258153125.0 1.10357666015625 -0.8699951171875
6289375000.0 0.255615234375 -1.44635009765625
6320596875.0 -0.68927001953125 -1.2056884765625
6351818750.0 -1.198486328125 -0.57177734375
6383040625.0 -1.3533935546875 0.20648193359375
6414262500.0 -0.99945068359375 1.057373046875
6445484375.0 -0.0789794921875 1.45538330078125
6476706250.0 0.79449462890625 1.14691162109375
6507928125.0 1.2901611328125 0.46954345703125
6539150000.0 1.34686279296875 -0.38702392578125
6570371875.0 0.84051513671875 -1.14312744140625
6601593750.0 -0.01702880859375 -1.40350341796875
6632815625.0 -0.83941650390625 -1.1353759765625
6664037500.0 -1.40057373046875 -0.4193115234375
6695259375.0 -1.37261962890625 0.56512451171875
6726481250.0 -0.7099609375 1.249267578125
6757703125.0 0.1298828125 1.40509033203125
6788925000.0 0.95501708984375 1.130126953125
6820146875.0 1.55902099609375 0.28802490234375
6851368750.0 1.32476806640625 -0.81878662109375
6882590625.0 0.5062255859375 -1.338134765625
6913812500.0 -0.29205322265625 -1.35528564453125
6945034375.0 -1.06915283203125 -1.021240234375
6976256250.0 -1.59173583984375 -0.0933837890625
7007478125.0 -1.23443603515625 0.93304443359375
7038700000.0 -0.4029541015625 1.3414306640625
7069921875.0 0.356689453125 1.32232666015625
7101143750.0 1.117919921875 0.96759033203125
7132365625.0 1.598388671875 0.01422119140625
7163587500.0 1.15740966796875 -1.02081298828125
7194809375.0 0.3026123046875 -1.39654541015625
7226031250.0 -0.512451171875 -1.325439453125
7257253125.0 -1.2642822265625 -0.82586669921875
7288475000.0 -1.55682373046875 0.197998046875
7319696875.0 -1.0303955078125 1.109375
7350918750.0 -0.1640625 1.443603515625
7382140625.0 0.71575927734375 1.27667236328125
7413362500.0 1.373779296875 0.57635498046875
7444584375.0 1.4111328125 -0.40557861328125
7475806250.0 0.857177734375 -1.14312744140625
7507028125.0 0.00537109375 -1.42938232421875
7538250000.0 -0.8878173828125 -1.12359619140625
7569471875.0 -1.335205078125 -0.31103515625
7600693750.0 -1.20068359375 0.49664306640625
7631915625.0 -0.71710205078125 1.085205078125
7663137500.0 0.0797119140625 1.3558349609375
7694359375.0 0.93731689453125 0.979339599609375
7725581250.0 1.242919921875 0.18048095703125
7756803125.0 1.08184814453125 -0.4984130859375
7788025000.0 0.669921875 -1.0423583984375
7819246875.0 -0.1202392578125 -1.34619140625
7850468750.0 -0.99237060546875 -0.916015625
7881690625.0 -1.2301025390625 -0.10601806640625
7912912500.0 -1.05450439453125 0.55419921875
7944134375.0 -0.6043701171875 1.11376953125
7975356250.0 0.271484375 1.33465576171875
8006578125.0 1.04779052734375 0.77935791015625
8037800000.0 1.1932373046875 0.0157470703125
8069021875.0 1.005859375 -0.6162109375
8100243750.0 0.5001220703125 -1.16119384765625
8131465625.0 -0.3861083984375 -1.25341796875
8162687500.0 -1.0325927734375 -0.68511962890625
8193909375.0 -1.180419921875 0.0087890625
8225131250.0 -1.0174560546875 0.67767333984375
8256353125.0 -0.421875 1.247314453125
8287575000.0 0.49981689453125 1.22509765625
8318796875.0 1.08233642578125 0.63604736328125
8350018750.0 1.243408203125 -0.0738525390625
8381240625.0 1.0306396484375 -0.837646484375
8412462500.0 0.2545166015625 -1.37286376953125
8443684375.0 -0.670166015625 -1.17022705078125
8474906250.0 -1.173583984375 -0.53253173828125
8506128125.0 -1.29730224609375 0.2373046875
8537350000.0 -0.92413330078125 1.0430908203125
8568571875.0 -0.0162353515625 1.39410400390625
8599793750.0 0.7999267578125 1.0523681640625
8631015625.0 1.2418212890625 0.3973388671875
8662237500.0 1.28582763671875 -0.4287109375
8693459375.0 0.73565673828125 -1.1773681640625
8724681250.0 -0.162109375 -1.331298828125
8755903125.0 -0.87890625 -0.957305908203125
8787125000.0 -1.30169677734375 -0.2818603515625
8818346875.0 -1.25054931640625 0.61578369140625
8849568750.0 -0.55706787109375 1.25909423828125
8880790625.0 0.29803466796875 1.28509521484375
8912012500.0 0.981414794921875 0.89190673828125
8943234375.0 1.39910888671875 0.128662109375
8974456250.0 1.16571044921875 -0.83837890625
9005678125.0 0.34954833984375 -1.3116455078125
9036900000.0 -0.44512939453125 -1.22454833984375
9068121875.0 -1.10076904296875 -0.78643798828125
9099343750.0 -1.44122314453125 0.09686279296875
9130565625.0 -0.9798583984375 1.008056640625
9161787500.0 -0.15374755859375 1.28271484375
9193009375.0 0.55389404296875 1.133056640625
9224231250.0 1.177734375 0.6546630859375
9255453125.0 1.39825439453125 -0.29559326171875
9286675000.0 0.8065185546875 -1.0853271484375
9317896875.0 0.0260009765625 -1.24652099609375
9349118750.0 -0.6529541015625 -1.0682373046875
9380340625.0 -1.25762939453125 -0.50982666015625
9411562500.0 -1.309814453125 0.4754638671875
9442784375.0 -0.64752197265625 1.11541748046875
9474006250.0 0.0882568359375 1.21075439453125
9505228125.0 0.76544189453125 0.979400634765625
9536450000.0 1.27252197265625 0.31402587890625
9567671875.0 1.1441650390625 -0.57867431640625
9598893750.0 0.53070068359375 -1.06671142578125
9630115625.0 -0.14312744140625 -1.15704345703125
9661337500.0 -0.8182373046875 -0.902618408203125
9692559375.0 -1.23931884765625 -0.19097900390625
9723781250.0 -1.04266357421875 0.60302734375
9755003125.0 -0.4853515625 1.0494384765625
9786225000.0 0.19793701171875 1.15869140625
9817446875.0 0.894256591796875 0.826873779296875
9848668750.0 1.1966552734375 0.0784912109375
9879890625.0 0.96795654296875 -0.61566162109375
9911112500.0 0.45233154296875 -1.0509033203125
9942334375.0 -0.26690673828125 -1.1583251953125
9973556250.0 -0.942840576171875 -0.737823486328125
10004778125.0 -1.14520263671875 -0.018310546875
10036000000.0 -0.944305419921875 0.61578369140625
10067221875.0 -0.4415283203125 1.097412109375
10098443750.0 0.36798095703125 1.18115234375
10129665625.0 1.0023193359375 0.64300537109375
10160887500.0 1.1192626953125 -0.0509033203125
10192109375.0 0.917572021484375 -0.662322998046875
10223331250.0 0.36236572265625 -1.152099609375
10254553125.0 -0.48468017578125 -1.1136474609375
10285775000.0 -0.98321533203125 -0.53570556640625
10316996875.0 -1.0670166015625 0.07666015625
10348218750.0 -0.89971923828125 0.669708251953125
10379440625.0 -0.322509765625 1.175048828125
10410662500.0 0.5263671875 1.0850830078125
10441884375.0 0.990966796875 0.521636962890625
10473106250.0 1.10870361328125 -0.08416748046875
10504328125.0 0.94830322265625 -0.7552490234375
10535550000.0 0.2406005859375 -1.29364013671875
10566771875.0 -0.658447265625 -1.0760498046875
10597993750.0 -1.08001708984375 -0.4591064453125
10629215625.0 -1.17462158203125 0.20513916015625
10660437500.0 -0.888275146484375 0.949951171875
10691659375.0 -0.010009765625 1.33551025390625
10722881250.0 0.783782958984375 0.952789306640625
10754103125.0 1.1190185546875 0.32501220703125
10785325000.0 1.1383056640625 -0.367919921875
10816546875.0 0.70135498046875 -1.04827880859375
10847768750.0 -0.14593505859375 -1.22955322265625
10878990625.0 -0.802154541015625 -0.842926025390625
10910212500.0 -1.12335205078125 -0.2442626953125
10941434375.0 -1.0966796875 0.4764404296875
10972656250.0 -0.56787109375 1.085205078125
11003878125.0 0.21728515625 1.17352294921875
11035100000.0 0.845855712890625 0.821197509765625
11066321875.0 1.21893310546875 0.1756591796875
11097543750.0 1.0980224609375 -0.676025390625
11128765625.0 0.38671875 -1.197021484375
11159987500.0 -0.39501953125 -1.13818359375
11191209375.0 -0.998199462890625 -0.702850341796875
11222431250.0 -1.27386474609375 0.09368896484375
11253653125.0 -0.858673095703125 0.89373779296875
11284875000.0 -0.11627197265625 1.12615966796875
11316096875.0 0.51153564453125 0.9573974609375
11347318750.0 1.0015869140625 0.5030517578125
11378540625.0 1.1180419921875 -0.2696533203125
11409762500.0 0.63525390625 -0.8599853515625
11440984375.0 0.035736083984375 -0.978515625
11472206250.0 -0.480987548828125 -0.85015869140625
11503428125.0 -0.952392578125 -0.456207275390625
11534650000.0 -1.06781005859375 0.28680419921875
11565871875.0 -0.601806640625 0.854827880859375
11597093750.0 -0.01885986328125 0.99102783203125
11628315625.0 0.542877197265625 0.87493896484375
11659537500.0 1.0584716796875 0.39239501953125
11690759375.0 1.065673828125 -0.43328857421875
11721981250.0 0.517608642578125 -0.9405517578125
11753203125.0 -0.10516357421875 -1.03631591796875
11784425000.0 -0.72442626953125 -0.809783935546875
11815646875.0 -1.10028076171875 -0.151123046875
11846868750.0 -0.891448974609375 0.552490234375
11878090625.0 -0.39111328125 0.90838623046875
11909312500.0 0.18658447265625 0.983856201171875
11940534375.0 0.7796630859375 0.69610595703125
11971756250.0 1.02386474609375 0.04119873046875
12002978125.0 0.806060791015625 -0.5369873046875
12034200000.0 0.38226318359375 -0.88836669921875
12065421875.0 -0.21417236328125 -1.0086669921875
12096643750.0 -0.846893310546875 -0.665069580078125
12127865625.0 -1.0341796875 0.01666259765625
12159087500.0 -0.81451416015625 0.574066162109375
12190309375.0 -0.37738037109375 0.9744873046875
12221531250.0 0.33892822265625 1.08758544921875
12252753125.0 0.977783203125 0.583282470703125
12283975000.0 1.054443359375 -0.12799072265625
12315196875.0 0.799835205078125 -0.676239013671875
12346418750.0 0.2825927734375 -1.089599609375
12377640625.0 -0.537353515625 -1.05975341796875
12408862500.0 -1.033935546875 -0.42071533203125
12440084375.0 -1.0087890625 0.225341796875
12471306250.0 -0.74163818359375 0.736663818359375
12502528125.0 -0.1796875 1.11962890625
12533750000.0 0.618560791015625 0.994293212890625
12564971875.0 1.0411376953125 0.364501953125
12596193750.0 1.02935791015625 -0.264404296875
12627415625.0 0.74761962890625 -0.828277587890625
12658637500.0 0.07952880859375 -1.20672607421875
12689859375.0 -0.735687255859375 -0.966705322265625
12721081250.0 -1.116943359375 -0.30609130859375
12752303125.0 -1.096923828125 0.38031005859375
12783525000.0 -0.68743896484375 1.02532958984375
12814746875.0 0.1629638671875 1.2510986328125
12845968750.0 0.8621826171875 0.8115234375
12877190625.0 1.11767578125 0.1724853515625
12908412500.0 1.05517578125 -0.50042724609375
12939634375.0 0.54351806640625 -1.1156005859375
12970856250.0 -0.3197021484375 -1.17474365234375
13002078125.0 -0.894134521484375 -0.693267822265625
13033300000.0 -1.1055908203125 -0.08721923828125
13064521875.0 -1.00921630859375 0.59332275390625
13095743750.0 -0.4205322265625 1.15362548828125
13126965625.0 0.40985107421875 1.12066650390625
13158187500.0 0.94586181640625 0.631561279296875
13189409375.0 1.1480712890625 -0.0208740234375
13220631250.0 0.9364013671875 -0.7467041015625
13251853125.0 0.23468017578125 -1.17041015625
13283075000.0 -0.50762939453125 -1.01971435546875
13314296875.0 -0.98785400390625 -0.529144287109375
13345518750.0 -1.1348876953125 0.17559814453125
13376740625.0 -0.75299072265625 0.85772705078125
