!Created with skrf (http://scikit-rf.org).
# Hz S RI R 50.0 
!freq ReS11 ImS11
45000000.0 -0.07724761962890625 -0.09692001342773438
76221875.0 -0.19721221923828125 -0.0475616455078125
107443750.0 -0.2559814453125 0.1203460693359375
138665625.0 -0.1485137939453125 0.3300323486328125
169887500.0 0.123779296875 0.4189300537109375
201109375.0 0.4231414794921875 0.2819976806640625
232331250.0 0.580963134765625 -0.057525634765625
263553125.0 0.49139404296875 -0.4546661376953125
294775000.0 0.09857177734375 -0.735870361328125
325996875.0 -0.417327880859375 -0.683868408203125
357218750.0 -0.810211181640625 -0.2982177734375
388440625.0 -0.88946533203125 0.302001953125
419662500.0 -0.519287109375 0.869903564453125
450884375.0 0.173583984375 1.03271484375
482106250.0 0.80157470703125 0.71539306640625
513328125.0 1.12353515625 0.08734130859375
544550000.0 1.0072021484375 -0.68243408203125
575771875.0 0.3372802734375 -1.24224853515625
606993750.0 -0.555419921875 -1.18121337890625
638215625.0 -1.16937255859375 -0.5926513671875
669437500.0 -1.343994140625 0.23419189453125
700659375.0 -0.97442626953125 1.099365234375
731881250.0 -0.00439453125 1.5478515625
763103125.0 1.00848388671875 1.16015625
794325000.0 1.47344970703125 0.2833251953125
825546875.0 1.37213134765625 -0.653564453125
856768750.0 0.79730224609375 -1.40673828125
887990625.0 -0.29449462890625 -1.65478515625
919212500.0 -1.2935791015625 -1.083251953125
950434375.0 -1.65594482421875 -0.059326171875
981656250.0 -1.38848876953125 0.95013427734375
1012878125.0 -0.53167724609375 1.67926025390625
1044100000.0 0.70050048828125 1.669189453125
1075321875.0 1.58148193359375 0.8153076171875
1106543750.0 1.711669921875 -0.314453125
1137765625.0 1.19110107421875 -1.28948974609375
1168987500.0 0.13873291015625 -1.80438232421875
1200209375.0 -1.066650390625 -1.48992919921875
1231431250.0 -1.73486328125 -0.45526123046875
1262653125.0 -1.600341796875 0.68768310546875
1293875000.0 -0.8551025390625 1.49676513671875
1325096875.0 0.2286376953125 1.71258544921875
1356318750.0 1.23907470703125 1.22186279296875
1387540625.0 1.74603271484375 0.18939208984375
1418762500.0 1.47467041015625 -0.95501708984375
1449984375.0 0.5316162109375 -1.6318359375
1481206250.0 -0.55181884765625 -1.56195068359375
1512428125.0 -1.34735107421875 -0.92266845703125
1543650000.0 -1.6617431640625 0.06573486328125
1574871875.0 -1.27740478515625 1.11297607421875
1606093750.0 -0.2733154296875 1.636962890625
1637315625.0 0.7447509765625 1.405029296875
1668537500.0 1.40057373046875 0.69769287109375
1699759375.0 1.5780029296875 -0.278076171875
1730981250.0 1.0672607421875 -1.2330322265625
1762203125.0 0.04229736328125 -1.574951171875
1793425000.0 -0.8580322265625 -1.23016357421875
1824646875.0 -1.39752197265625 -0.51715087890625
1855868750.0 -1.47857666015625 0.43267822265625
1887090625.0 -0.87847900390625 1.2890625
1918312500.0 0.1170654296875 1.49212646484375
1949534375.0 0.92474365234375 1.09320068359375
1980756250.0 1.3797607421875 0.3714599609375
2011978125.0 1.36407470703125 -0.53375244140625
2043200000.0 0.7520751953125 -1.26556396484375
2074421875.0 -0.15765380859375 -1.4376220703125
2105643750.0 -0.96270751953125 -1.0750732421875
2136865625.0 -1.45159912109375 -0.305419921875
2168087500.0 -1.361083984375 0.67340087890625
2199309375.0 -0.64093017578125 1.3551025390625
2230531250.0 0.2823486328125 1.440185546875
2261753125.0 1.075927734375 1.0169677734375
2292975000.0 1.518310546875 0.17108154296875
2324196875.0 1.30926513671875 -0.82049560546875
2355418750.0 0.52716064453125 -1.4237060546875
2386640625.0 -0.4051513671875 -1.45343017578125
2417862500.0 -1.1861572265625 -1.02801513671875
2449084375.0 -1.61138916015625 -0.08343505859375
2480306250.0 -1.31585693359375 0.9300537109375
2511528125.0 -0.494873046875 1.5128173828125
2542750000.0 0.49102783203125 1.54119873046875
2573971875.0 1.37548828125 0.97149658203125
2605193750.0 1.7235107421875 -0.11328125
2636415625.0 1.26580810546875 -1.1568603515625
2667637500.0 0.3076171875 -1.673828125
2698859375.0 -0.7723388671875 -1.53875732421875
2730081250.0 -1.58062744140625 -0.7425537109375
2761303125.0 -1.6884765625 0.39093017578125
2792525000.0 -1.1033935546875 1.3135986328125
2823746875.0 -0.10198974609375 1.7364501953125
2854968750.0 1.01708984375 1.46051025390625
2886190625.0 1.69830322265625 0.4932861328125
2917412500.0 1.60595703125 -0.6201171875
2948634375.0 0.94281005859375 -1.439453125
2979856250.0 -0.11016845703125 -1.78460693359375
3011078125.0 -1.25433349609375 -1.347412109375
3042300000.0 -1.7822265625 -0.23419189453125
3073521875.0 -1.513916015625 0.84124755859375
3104743750.0 -0.7659912109375 1.574462890625
3135965625.0 0.364013671875 1.816162109375
3167187500.0 1.5052490234375 1.16864013671875
3198409375.0 1.82257080078125 -0.0765380859375
3229631250.0 1.35357666015625 -1.08599853515625
3260853125.0 0.49127197265625 -1.67401123046875
3292075000.0 -0.657958984375 -1.70428466796875
3323296875.0 -1.6251220703125 -0.88238525390625
3354518750.0 -1.73699951171875 0.33172607421875
3385740625.0 -1.1595458984375 1.23736572265625
3416962500.0 -0.2318115234375 1.686767578125
3448184375.0 0.8642578125 1.52703857421875
3479406250.0 1.6424560546875 0.64581298828125
3510628125.0 1.64923095703125 -0.4970703125
3541850000.0 1.00323486328125 -1.36151123046875
3573071875.0 -0.007568359375 -1.68780517578125
3604293750.0 -1.0321044921875 -1.3419189453125
3635515625.0 -1.6339111328125 -0.439697265625
3666737500.0 -1.56707763671875 0.64990234375
3697959375.0 -0.82745361328125 1.481689453125
3729181250.0 0.2694091796875 1.635986328125
3760403125.0 1.15631103515625 1.10150146484375
3791625000.0 1.55767822265625 0.21893310546875
3822846875.0 1.40618896484375 -0.76275634765625
3854068750.0 0.62200927734375 -1.48583984375
3885290625.0 -0.4232177734375 -1.486328125
3916512500.0 -1.1461181640625 -0.913818359375
3947734375.0 -1.452392578125 -0.11932373046875
3978956250.0 -1.30194091796875 0.7813720703125
4010178125.0 -0.5328369140625 1.4593505859375
4041400000.0 0.47576904296875 1.4195556640625
4072621875.0 1.155029296875 0.849853515625
4103843750.0 1.44921875 0.06280517578125
4135065625.0 1.27081298828125 -0.8485107421875
4166287500.0 0.45819091796875 -1.50079345703125
4197509375.0 -0.560546875 -1.4195556640625
4228731250.0 -1.2525634765625 -0.8048095703125
4259953125.0 -1.5135498046875 0.07110595703125
4291175000.0 -1.1917724609375 1.012939453125
4322396875.0 -0.289306640625 1.53173828125
4353618750.0 0.67474365234375 1.35394287109375
4384840625.0 1.32745361328125 0.698974609375
4416062500.0 1.50506591796875 -0.22894287109375
4447284375.0 1.0577392578125 -1.10845947265625
4478506250.0 0.17266845703125 -1.50006103515625
4509728125.0 -0.7354736328125 -1.31195068359375
4540950000.0 -1.3990478515625 -0.63702392578125
4572171875.0 -1.5274658203125 0.36181640625
4603393750.0 -0.974609375 1.21771240234375
4634615625.0 -0.06158447265625 1.541015625
4665837500.0 0.87298583984375 1.3077392578125
4697059375.0 1.5460205078125 0.516845703125
4728281250.0 1.5341796875 -0.58587646484375
4759503125.0 0.82470703125 -1.37139892578125
4790725000.0 -0.146728515625 -1.57794189453125
4821946875.0 -1.08782958984375 -1.1981201171875
4853168750.0 -1.61944580078125 -0.25091552734375
4884390625.0 -1.38189697265625 0.7960205078125
4915612500.0 -0.6141357421875 1.41778564453125
4946834375.0 0.3309326171875 1.513916015625
4978056250.0 1.2078857421875 1.0196533203125
5009278125.0 1.56683349609375 0.03863525390625
5040500000.0 1.23291015625 -0.8785400390625
5071721875.0 0.50311279296875 -1.418701171875
5102943750.0 -0.447998046875 -1.50067138671875
5134165625.0 -1.3402099609375 -0.9078369140625
5165387500.0 -1.5731201171875 0.14703369140625
5196609375.0 -1.13958740234375 1.01287841796875
5227831250.0 -0.35888671875 1.51043701171875
5259053125.0 0.6910400390625 1.4971923828125
5290275000.0 1.5279541015625 0.66436767578125
5321496875.0 1.49676513671875 -0.43280029296875
5352718750.0 0.9239501953125 -1.1568603515625
5383940625.0 0.0963134765625 -1.50518798828125
5415162500.0 -0.90582275390625 -1.28778076171875
5446384375.0 -1.48974609375 -0.37054443359375
5477606250.0 -1.30316162109375 0.569091796875
5508828125.0 -0.73321533203125 1.1541748046875
5540050000.0 0.0545654296875 1.40283203125
5571271875.0 0.94232177734375 1.1119384765625
5602493750.0 1.41339111328125 0.26025390625
5633715625.0 1.2354736328125 -0.61468505859375
5664937500.0 0.64996337890625 -1.20501708984375
5696159375.0 -0.1978759765625 -1.3876953125
5727381250.0 -1.02490234375 -0.981689453125
5758603125.0 -1.3958740234375 -0.1448974609375
5789825000.0 -1.1978759765625 0.71905517578125
5821046875.0 -0.50726318359375 1.31201171875
5852268750.0 0.41326904296875 1.31707763671875
5883490625.0 1.07366943359375 0.77447509765625
5914712500.0 1.30743408203125 0.018798828125
5945934375.0 1.09967041015625 -0.7786865234375
5977156250.0 0.36138916015625 -1.3160400390625
6008378125.0 -0.51129150390625 -1.1859130859375
6039600000.0 -1.02587890625 -0.6505126953125
6070821875.0 -1.22747802734375 -0.00421142578125
6102043750.0 -1.0858154296875 0.764404296875
6133265625.0 -0.34228515625 1.34893798828125
6164487500.0 0.56536865234375 1.19085693359375
6195709375.0 1.07342529296875 0.63165283203125
6226931250.0 1.28302001953125 -0.04248046875
6258153125.0 1.10797119140625 -0.87579345703125
6289375000.0 0.256103515625 -1.4510498046875
6320596875.0 -0.69158935546875 -1.2093505859375
6351818750.0 -1.203125 -0.57330322265625
6383040625.0 -1.35858154296875 0.20745849609375
6414262500.0 -1.00262451171875 1.0604248046875
6445484375.0 -0.07745361328125 1.46142578125
6476706250.0 0.79925537109375 1.1510009765625
6507928125.0 1.29388427734375 0.47100830078125
6539150000.0 1.35107421875 -0.38775634765625
6570371875.0 0.8433837890625 -1.1478271484375
6601593750.0 -0.0185546875 -1.4097900390625
6632815625.0 -0.84326171875 -1.1395263671875
6664037500.0 -1.40478515625 -0.4208984375
6695259375.0 -1.3785400390625 0.568603515625
6726481250.0 -0.7120361328125 1.25579833984375
6757703125.0 0.1317138671875 1.41143798828125
6788925000.0 0.957275390625 1.1341552734375
6820146875.0 1.5662841796875 0.28704833984375
6851368750.0 1.32965087890625 -0.822509765625
6882590625.0 0.5079345703125 -1.3427734375
6913812500.0 -0.29290771484375 -1.36004638671875
6945034375.0 -1.073486328125 -1.024169921875
6976256250.0 -1.5977783203125 -0.0926513671875
7007478125.0 -1.240966796875 0.93780517578125
7038700000.0 -0.402587890625 1.34820556640625
7069921875.0 0.35986328125 1.3275146484375
7101143750.0 1.12353515625 0.971923828125
7132365625.0 1.6055908203125 0.011962890625
7163587500.0 1.1607666015625 -1.0250244140625
7194809375.0 0.30072021484375 -1.40447998046875
7226031250.0 -0.51544189453125 -1.3310546875
7257253125.0 -1.27227783203125 -0.826904296875
7288475000.0 -1.56475830078125 0.2000732421875
7319696875.0 -1.03216552734375 1.114013671875
7350918750.0 -0.1636962890625 1.4490966796875
7382140625.0 0.71881103515625 1.28143310546875
7413362500.0 1.38323974609375 0.5772705078125
7444584375.0 1.41680908203125 -0.4093017578125
7475806250.0 0.8607177734375 -1.1484375
7507028125.0 0.00518798828125 -1.4344482421875
7538250000.0 -0.89288330078125 -1.1280517578125
7569471875.0 -1.34295654296875 -0.3106689453125
7600693750.0 -1.20648193359375 0.49920654296875
7631915625.0 -0.72064208984375 1.08868408203125
7663137500.0 0.0821533203125 1.363037109375
7694359375.0 0.94232177734375 0.9832763671875
7725581250.0 1.24853515625 0.18109130859375
7756803125.0 1.08612060546875 -0.5020751953125
7788025000.0 0.67352294921875 -1.047607421875
7819246875.0 -0.1212158203125 -1.35284423828125
7850468750.0 -0.998626708984375 -0.91815185546875
7881690625.0 -1.2373046875 -0.10406494140625
7912912500.0 -1.05902099609375 0.55780029296875
7944134375.0 -0.60638427734375 1.119384765625
7975356250.0 0.27392578125 1.34014892578125
8006578125.0 1.05059814453125 0.78082275390625
8037800000.0 1.19879150390625 0.01513671875
8069021875.0 1.009521484375 -0.61932373046875
8100243750.0 0.50177001953125 -1.165771484375
8131465625.0 -0.3878173828125 -1.25714111328125
8162687500.0 -1.03778076171875 -0.6878662109375
8193909375.0 -1.1871337890625 0.01153564453125
8225131250.0 -1.022216796875 0.6846923828125
8256353125.0 -0.42156982421875 1.25396728515625
8287575000.0 0.5050048828125 1.230224609375
8318796875.0 1.08758544921875 0.63702392578125
8350018750.0 1.24951171875 -0.076904296875
8381240625.0 1.0345458984375 -0.8414306640625
8412462500.0 0.25469970703125 -1.37823486328125
8443684375.0 -0.6732177734375 -1.17462158203125
8474906250.0 -1.1815185546875 -0.5333251953125
8506128125.0 -1.30181884765625 0.23870849609375
8537350000.0 -0.92669677734375 1.0518798828125
8568571875.0 -0.01287841796875 1.40069580078125
8599793750.0 0.806396484375 1.05682373046875
8631015625.0 1.2445068359375 0.39971923828125
8662237500.0 1.29058837890625 -0.4326171875
8693459375.0 0.7381591796875 -1.18206787109375
8724681250.0 -0.16455078125 -1.33746337890625
8755903125.0 -0.883331298828125 -0.960723876953125
8787125000.0 -1.30963134765625 -0.282470703125
8818346875.0 -1.25537109375 0.6173095703125
8849568750.0 -0.556884765625 1.26611328125
8880790625.0 0.2998046875 1.28863525390625
8912012500.0 0.984588623046875 0.8953857421875
8943234375.0 1.40618896484375 0.12701416015625
8974456250.0 1.17132568359375 -0.8443603515625
9005678125.0 0.3487548828125 -1.3184814453125
9036900000.0 -0.44879150390625 -1.22918701171875
9068121875.0 -1.10772705078125 -0.78839111328125
9099343750.0 -1.4464111328125 0.099853515625
9130565625.0 -0.981689453125 1.0159912109375
9161787500.0 -0.15362548828125 1.28802490234375
9193009375.0 0.5587158203125 1.13787841796875
9224231250.0 1.184814453125 0.6566162109375
9255453125.0 1.4046630859375 -0.2996826171875
9286675000.0 0.80914306640625 -1.091064453125
9317896875.0 0.02398681640625 -1.25189208984375
9349118750.0 -0.6572265625 -1.0736083984375
9380340625.0 -1.26226806640625 -0.510986328125
9411562500.0 -1.31549072265625 0.47833251953125
9442784375.0 -0.64996337890625 1.12158203125
9474006250.0 0.09014892578125 1.21649169921875
9505228125.0 0.76751708984375 0.982696533203125
9536450000.0 1.27972412109375 0.31329345703125
9567671875.0 1.1475830078125 -0.5833740234375
9598893750.0 0.5308837890625 -1.07305908203125
9630115625.0 -0.14605712890625 -1.16290283203125
9661337500.0 -0.821868896484375 -0.90557861328125
9692559375.0 -1.246337890625 -0.18890380859375
9723781250.0 -1.04656982421875 0.6058349609375
9755003125.0 -0.48663330078125 1.05523681640625
9786225000.0 0.200927734375 1.1634521484375
9817446875.0 0.899261474609375 0.83050537109375
9848668750.0 1.20391845703125 0.0760498046875
9879890625.0 0.970245361328125 -0.6185302734375
9911112500.0 0.45263671875 -1.056640625
9942334375.0 -0.26885986328125 -1.162353515625
9973556250.0 -0.948333740234375 -0.740264892578125
10004778125.0 -1.149658203125 -0.01702880859375
10036000000.0 -0.94720458984375 0.61920166015625
10067221875.0 -0.44281005859375 1.1005859375
10098443750.0 0.3729248046875 1.18548583984375
10129665625.0 1.0078125 0.6434326171875
10160887500.0 1.1239013671875 -0.0540771484375
10192109375.0 0.92010498046875 -0.66741943359375
10223331250.0 0.361083984375 -1.15777587890625
10254553125.0 -0.48876953125 -1.1170654296875
10285775000.0 -0.990142822265625 -0.53515625
10316996875.0 -1.0706787109375 0.07891845703125
10348218750.0 -0.902435302734375 0.672210693359375
10379440625.0 -0.32110595703125 1.18072509765625
10410662500.0 0.53228759765625 1.08941650390625
10441884375.0 0.996124267578125 0.5223388671875
10473106250.0 1.1123046875 -0.08544921875
10504328125.0 0.952423095703125 -0.761566162109375
10535550000.0 0.23919677734375 -1.299560546875
10566771875.0 -0.66156005859375 -1.07989501953125
10597993750.0 -1.08355712890625 -0.45977783203125
10629215625.0 -1.1815185546875 0.20965576171875
10660437500.0 -0.89056396484375 0.95782470703125
10691659375.0 -0.0068359375 1.34130859375
10722881250.0 0.788177490234375 0.95465087890625
10754103125.0 1.12420654296875 0.32440185546875
10785325000.0 1.14453125 -0.369873046875
10816546875.0 0.7021484375 -1.053955078125
10847768750.0 -0.14739990234375 -1.2330322265625
10878990625.0 -0.807342529296875 -0.8455810546875
10910212500.0 -1.12841796875 -0.24481201171875
10941434375.0 -1.1007080078125 0.4798583984375
10972656250.0 -0.5693359375 1.08856201171875
11003878125.0 0.21771240234375 1.17694091796875
11035100000.0 0.853485107421875 0.824127197265625
11066321875.0 1.22509765625 0.17413330078125
11097543750.0 1.1009521484375 -0.68023681640625
11128765625.0 0.3868408203125 -1.20367431640625
11159987500.0 -0.3963623046875 -1.142822265625
11191209375.0 -1.0045166015625 -0.7044677734375
11222431250.0 -1.27740478515625 0.0948486328125
11253653125.0 -0.861785888671875 0.898040771484375
11284875000.0 -0.11572265625 1.1300048828125
11316096875.0 0.5140380859375 0.959259033203125
11347318750.0 1.00665283203125 0.5032958984375
11378540625.0 1.12042236328125 -0.270751953125
11409762500.0 0.635955810546875 -0.863983154296875
11440984375.0 0.0347900390625 -0.98321533203125
11472206250.0 -0.484283447265625 -0.8533935546875
11503428125.0 -0.95751953125 -0.456695556640625
11534650000.0 -1.0726318359375 0.2906494140625
11565871875.0 -0.602996826171875 0.859039306640625
11597093750.0 -0.0177001953125 0.99517822265625
11628315625.0 0.547393798828125 0.877716064453125
11659537500.0 1.06414794921875 0.39263916015625
11690759375.0 1.06927490234375 -0.439453125
11721981250.0 0.519683837890625 -0.944366455078125
11753203125.0 -0.107421875 -1.04046630859375
11784425000.0 -0.729339599609375 -0.812408447265625
11815646875.0 -1.10498046875 -0.15008544921875
11846868750.0 -0.894317626953125 0.5528564453125
11878090625.0 -0.39129638671875 0.913177490234375
11909312500.0 0.1885986328125 0.988494873046875
11940534375.0 0.78533935546875 0.696868896484375
11971756250.0 1.0281982421875 0.03759765625
12002978125.0 0.809295654296875 -0.541748046875
12034200000.0 0.381317138671875 -0.89471435546875
12065421875.0 -0.217529296875 -1.01300048828125
12096643750.0 -0.85101318359375 -0.6669921875
12127865625.0 -1.037353515625 0.01763916015625
12159087500.0 -0.8170166015625 0.57684326171875
12190309375.0 -0.3778076171875 0.978179931640625
12221531250.0 0.3419189453125 1.09234619140625
12252753125.0 0.984466552734375 0.582794189453125
12283975000.0 1.05877685546875 -0.13055419921875
12315196875.0 0.802764892578125 -0.6795654296875
12346418750.0 0.28045654296875 -1.096435546875
12377640625.0 -0.5419921875 -1.06378173828125
12408862500.0 -1.03704833984375 -0.41943359375
12440084375.0 -1.01177978515625 0.22686767578125
12471306250.0 -0.743988037109375 0.74102783203125
12502528125.0 -0.179443359375 1.12469482421875
12533750000.0 0.623565673828125 0.996124267578125
12564971875.0 1.0469970703125 0.36285400390625
12596193750.0 1.03338623046875 -0.268310546875
12627415625.0 0.7493896484375 -0.833465576171875
12658637500.0 0.0780029296875 -1.2122802734375
12689859375.0 -0.7410888671875 -0.968719482421875
12721081250.0 -1.12176513671875 -0.30511474609375
12752303125.0 -1.10260009765625 0.3856201171875
12783525000.0 -0.68927001953125 1.03363037109375
12814746875.0 0.16827392578125 1.25653076171875
12845968750.0 0.86871337890625 0.813201904296875
12877190625.0 1.1209716796875 0.17193603515625
12908412500.0 1.0589599609375 -0.50506591796875
12939634375.0 0.54425048828125 -1.12420654296875
12970856250.0 -0.32379150390625 -1.17962646484375
13002078125.0 -0.89971923828125 -0.695037841796875
13033300000.0 -1.109130859375 -0.0860595703125
13064521875.0 -1.0130615234375 0.60009765625
13095743750.0 -0.42010498046875 1.16082763671875
13126965625.0 0.4107666015625 1.12371826171875
13158187500.0 0.951263427734375 0.63311767578125
13189409375.0 1.15228271484375 -0.02215576171875
13220631250.0 0.9383544921875 -0.751312255859375
13251853125.0 0.2340087890625 -1.1754150390625
13283075000.0 -0.51080322265625 -1.02252197265625
13314296875.0 -0.9915771484375 -0.530059814453125
13345518750.0 -1.13970947265625 0.1787109375
