!Created with skrf (http://scikit-rf.org).
# Hz S RI R 50.0 
!freq ReS11 ImS11
45000000.0 -0.076995849609375 -0.09686660766601562
76221875.0 -0.1962738037109375 -0.0474853515625
107443750.0 -0.2545928955078125 0.1194305419921875
138665625.0 -0.1482391357421875 0.328155517578125
169887500.0 0.12347412109375 0.4172210693359375
201109375.0 0.421539306640625 0.280487060546875
232331250.0 0.5784912109375 -0.05755615234375
263553125.0 0.4891510009765625 -0.452362060546875
294775000.0 0.0985107421875 -0.73193359375
325996875.0 -0.415130615234375 -0.679931640625
357218750.0 -0.80548095703125 -0.296905517578125
388440625.0 -0.88470458984375 0.3004150390625
419662500.0 -0.51666259765625 0.865234375
450884375.0 0.1729736328125 1.027587890625
482106250.0 0.797760009765625 0.7119140625
513328125.0 1.11810302734375 0.08721923828125
544550000.0 1.00250244140625 -0.67877197265625
575771875.0 0.3359375 -1.237060546875
606993750.0 -0.55322265625 -1.17633056640625
638215625.0 -1.16473388671875 -0.58966064453125
669437500.0 -1.338623046875 0.233642578125
700659375.0 -0.96990966796875 1.0948486328125
731881250.0 -0.00347900390625 1.5413818359375
763103125.0 1.004638671875 1.154541015625
794325000.0 1.4671630859375 0.28143310546875
825546875.0 1.365234375 -0.65087890625
856768750.0 0.79376220703125 -1.39874267578125
887990625.0 -0.29229736328125 -1.6461181640625
919212500.0 -1.28619384765625 -1.07708740234375
950434375.0 -1.64605712890625 -0.059326171875
981656250.0 -1.38031005859375 0.94451904296875
1012878125.0 -0.5291748046875 1.66888427734375
1044100000.0 0.69549560546875 1.6590576171875
1075321875.0 1.572265625 0.81097412109375
1106543750.0 1.70196533203125 -0.3123779296875
1137765625.0 1.1849365234375 -1.2823486328125
1168987500.0 0.13787841796875 -1.7945556640625
1200209375.0 -1.0596923828125 -1.4815673828125
1231431250.0 -1.724365234375 -0.453125
1262653125.0 -1.591796875 0.6832275390625
1293875000.0 -0.85089111328125 1.4893798828125
1325096875.0 0.22833251953125 1.70452880859375
1356318750.0 1.23321533203125 1.21466064453125
1387540625.0 1.7371826171875 0.1888427734375
1418762500.0 1.46685791015625 -0.9501953125
1449984375.0 0.52850341796875 -1.623291015625
1481206250.0 -0.5489501953125 -1.55364990234375
1512428125.0 -1.33990478515625 -0.9180908203125
1543650000.0 -1.6527099609375 0.0648193359375
1574871875.0 -1.271484375 1.10675048828125
1606093750.0 -0.27264404296875 1.628662109375
1637315625.0 0.74090576171875 1.39837646484375
1668537500.0 1.39373779296875 0.69488525390625
1699759375.0 1.57073974609375 -0.27679443359375
1730981250.0 1.06219482421875 -1.22760009765625
1762203125.0 0.0421142578125 -1.56829833984375
1793425000.0 -0.85394287109375 -1.224609375
1824646875.0 -1.39178466796875 -0.51416015625
1855868750.0 -1.47198486328125 0.431396484375
1887090625.0 -0.87384033203125 1.28314208984375
1918312500.0 0.11676025390625 1.4842529296875
1949534375.0 0.919677734375 1.08740234375
1980756250.0 1.3729248046875 0.36962890625
2011978125.0 1.3575439453125 -0.53070068359375
2043200000.0 0.748779296875 -1.25994873046875
2074421875.0 -0.15667724609375 -1.43060302734375
2105643750.0 -0.95843505859375 -1.07073974609375
2136865625.0 -1.4449462890625 -0.304443359375
2168087500.0 -1.3548583984375 0.6697998046875
2199309375.0 -0.63812255859375 1.34918212890625
2230531250.0 0.28125 1.433837890625
2261753125.0 1.07098388671875 1.01214599609375
2292975000.0 1.51214599609375 0.17010498046875
2324196875.0 1.303466796875 -0.8175048828125
2355418750.0 0.52447509765625 -1.41748046875
2386640625.0 -0.40338134765625 -1.4466552734375
2417862500.0 -1.17822265625 -1.02239990234375
2449084375.0 -1.60223388671875 -0.0841064453125
2480306250.0 -1.3089599609375 0.922607421875
2511528125.0 -0.49359130859375 1.5040283203125
2542750000.0 0.4881591796875 1.53375244140625
2573971875.0 1.36871337890625 0.96673583984375
2605193750.0 1.7137451171875 -0.11187744140625
2636415625.0 1.259521484375 -1.1497802734375
2667637500.0 0.30609130859375 -1.6641845703125
2698859375.0 -0.76849365234375 -1.531494140625
2730081250.0 -1.57171630859375 -0.73907470703125
2761303125.0 -1.67718505859375 0.38623046875
2792525000.0 -1.09710693359375 1.3040771484375
2823746875.0 -0.1026611328125 1.72552490234375
2854968750.0 1.00811767578125 1.45196533203125
2886190625.0 1.68804931640625 0.49090576171875
2917412500.0 1.59625244140625 -0.6151123046875
2948634375.0 0.93853759765625 -1.42987060546875
2979856250.0 -0.1068115234375 -1.77288818359375
3011078125.0 -1.24530029296875 -1.33953857421875
3042300000.0 -1.77130126953125 -0.2347412109375
3073521875.0 -1.5057373046875 0.8355712890625
3104743750.0 -0.7620849609375 1.56396484375
3135965625.0 0.36016845703125 1.80523681640625
3167187500.0 1.49530029296875 1.1624755859375
3198409375.0 1.8106689453125 -0.07373046875
3229631250.0 1.34600830078125 -1.07733154296875
3260853125.0 0.48858642578125 -1.664794921875
3292075000.0 -0.6534423828125 -1.6939697265625
3323296875.0 -1.61688232421875 -0.87786865234375
3354518750.0 -1.72674560546875 0.3272705078125
3385740625.0 -1.15399169921875 1.2288818359375
3416962500.0 -0.23187255859375 1.677001953125
3448184375.0 0.85858154296875 1.51873779296875
3479406250.0 1.63226318359375 0.64324951171875
3510628125.0 1.6407470703125 -0.4932861328125
3541850000.0 0.9989013671875 -1.35211181640625
3573071875.0 -0.00653076171875 -1.6778564453125
3604293750.0 -1.02581787109375 -1.33477783203125
3635515625.0 -1.62359619140625 -0.4376220703125
3666737500.0 -1.55816650390625 0.64276123046875
3697959375.0 -0.823974609375 1.47235107421875
3729181250.0 0.266357421875 1.62646484375
3760403125.0 1.14935302734375 1.0958251953125
3791625000.0 1.54888916015625 0.21826171875
3822846875.0 1.398681640625 -0.7591552734375
3854068750.0 0.619384765625 -1.47802734375
3885290625.0 -0.41937255859375 -1.4779052734375
3916512500.0 -1.1392822265625 -0.90966796875
3947734375.0 -1.4439697265625 -0.12017822265625
3978956250.0 -1.2947998046875 0.77691650390625
4010178125.0 -0.53082275390625 1.4505615234375
4041400000.0 0.4713134765625 1.4122314453125
4072621875.0 1.14947509765625 0.84613037109375
4103843750.0 1.4415283203125 0.063720703125
4135065625.0 1.265625 -0.8446044921875
4166287500.0 0.45709228515625 -1.49273681640625
4197509375.0 -0.5557861328125 -1.412353515625
4228731250.0 -1.245361328125 -0.80181884765625
4259953125.0 -1.50592041015625 0.0692138671875
4291175000.0 -1.1864013671875 1.0069580078125
4322396875.0 -0.28912353515625 1.5233154296875
4353618750.0 0.6712646484375 1.347900390625
4384840625.0 1.319091796875 0.69647216796875
4416062500.0 1.49853515625 -0.22747802734375
4447284375.0 1.0537109375 -1.10211181640625
4478506250.0 0.17156982421875 -1.493408203125
4509728125.0 -0.73095703125 -1.3055419921875
4540950000.0 -1.390625 -0.6351318359375
4572171875.0 -1.518798828125 0.35760498046875
4603393750.0 -0.97174072265625 1.20947265625
4634615625.0 -0.06201171875 1.53363037109375
4665837500.0 0.86773681640625 1.3018798828125
4697059375.0 1.53863525390625 0.51458740234375
4728281250.0 1.52642822265625 -0.5804443359375
4759503125.0 0.82208251953125 -1.364013671875
4790725000.0 -0.14544677734375 -1.5694580078125
4821946875.0 -1.0804443359375 -1.1920166015625
4853168750.0 -1.6104736328125 -0.25140380859375
4884390625.0 -1.3760986328125 0.791259765625
4915612500.0 -0.61273193359375 1.40960693359375
4946834375.0 0.32781982421875 1.50677490234375
4978056250.0 1.2022705078125 1.015869140625
5009278125.0 1.559326171875 0.0390625
5040500000.0 1.2276611328125 -0.87445068359375
5071721875.0 0.50103759765625 -1.41168212890625
5102943750.0 -0.444580078125 -1.49383544921875
5134165625.0 -1.3336181640625 -0.9044189453125
5165387500.0 -1.56536865234375 0.14501953125
5196609375.0 -1.13507080078125 1.0081787109375
5227831250.0 -0.35662841796875 1.50433349609375
5259053125.0 0.6859130859375 1.489013671875
5290275000.0 1.5189208984375 0.66265869140625
5321496875.0 1.49029541015625 -0.4306640625
5352718750.0 0.919677734375 -1.15045166015625
5383940625.0 0.096923828125 -1.497802734375
5415162500.0 -0.89886474609375 -1.2818603515625
5446384375.0 -1.48223876953125 -0.3699951171875
5477606250.0 -1.297119140625 0.56475830078125
5508828125.0 -0.73089599609375 1.14776611328125
5540050000.0 0.05291748046875 1.3955078125
5571271875.0 0.9371337890625 1.107421875
5602493750.0 1.40582275390625 0.25994873046875
5633715625.0 1.23089599609375 -0.61181640625
5664937500.0 0.647216796875 -1.1995849609375
5696159375.0 -0.19573974609375 -1.380615234375
5727381250.0 -1.01910400390625 -0.977294921875
5758603125.0 -1.3892822265625 -0.14471435546875
5789825000.0 -1.19281005859375 0.71673583984375
5821046875.0 -0.50579833984375 1.30560302734375
5852268750.0 0.41015625 1.31085205078125
5883490625.0 1.07000732421875 0.771240234375
5914712500.0 1.300537109375 0.020263671875
5945934375.0 1.0946044921875 -0.77386474609375
5977156250.0 0.36163330078125 -1.3096923828125
6008378125.0 -0.50836181640625 -1.180908203125
6039600000.0 -1.02020263671875 -0.64874267578125
6070821875.0 -1.22198486328125 -0.00518798828125
6102043750.0 -1.08184814453125 0.76019287109375
6133265625.0 -0.34210205078125 1.34259033203125
6164487500.0 0.5618896484375 1.18609619140625
6195709375.0 1.06866455078125 0.62982177734375
6226931250.0 1.277587890625 -0.042236328125
6258153125.0 1.10260009765625 -0.87054443359375
6289375000.0 0.25628662109375 -1.44403076171875
6320596875.0 -0.68670654296875 -1.20428466796875
6351818750.0 -1.19696044921875 -0.57220458984375
6383040625.0 -1.35247802734375 0.2060546875
6414262500.0 -0.9989013671875 1.0548095703125
6445484375.0 -0.0787353515625 1.4549560546875
6476706250.0 0.79345703125 1.146240234375
6507928125.0 1.288330078125 0.47015380859375
6539150000.0 1.3455810546875 -0.385498046875
6570371875.0 0.840576171875 -1.142333984375
6601593750.0 -0.0179443359375 -1.4034423828125
6632815625.0 -0.83880615234375 -1.13555908203125
6664037500.0 -1.3990478515625 -0.4202880859375
6695259375.0 -1.3724365234375 0.56610107421875
6726481250.0 -0.70947265625 1.24993896484375
6757703125.0 0.12969970703125 1.40460205078125
6788925000.0 0.95263671875 1.12939453125
6820146875.0 1.55731201171875 0.28857421875
6851368750.0 1.3245849609375 -0.81884765625
6882590625.0 0.5062255859375 -1.33612060546875
6913812500.0 -0.29193115234375 -1.35491943359375
6945034375.0 -1.068115234375 -1.0206298828125
6976256250.0 -1.5906982421875 -0.0933837890625
7007478125.0 -1.234130859375 0.93060302734375
7038700000.0 -0.40283203125 1.33843994140625
7069921875.0 0.35760498046875 1.3212890625
7101143750.0 1.11688232421875 0.967041015625
7132365625.0 1.59625244140625 0.01507568359375
7163587500.0 1.156494140625 -1.01934814453125
7194809375.0 0.301025390625 -1.3953857421875
7226031250.0 -0.510498046875 -1.323486328125
7257253125.0 -1.2650146484375 -0.82342529296875
7288475000.0 -1.55712890625 0.19866943359375
7319696875.0 -1.02947998046875 1.1080322265625
7350918750.0 -0.16552734375 1.44189453125
7382140625.0 0.7138671875 1.27435302734375
7413362500.0 1.3721923828125 0.57672119140625
7444584375.0 1.40936279296875 -0.4056396484375
7475806250.0 0.85748291015625 -1.14208984375
7507028125.0 0.0064697265625 -1.42755126953125
7538250000.0 -0.88641357421875 -1.12237548828125
7569471875.0 -1.3345947265625 -0.3106689453125
7600693750.0 -1.2003173828125 0.49627685546875
7631915625.0 -0.7166748046875 1.08514404296875
7663137500.0 0.0802001953125 1.35675048828125
7694359375.0 0.937713623046875 0.97943115234375
7725581250.0 1.2413330078125 0.18121337890625
7756803125.0 1.0806884765625 -0.49737548828125
7788025000.0 0.66986083984375 -1.0413818359375
7819246875.0 -0.11981201171875 -1.34576416015625
7850468750.0 -0.990447998046875 -0.9150390625
7881690625.0 -1.2305908203125 -0.10589599609375
7912912500.0 -1.05328369140625 0.5528564453125
7944134375.0 -0.60546875 1.1097412109375
7975356250.0 0.27081298828125 1.33441162109375
8006578125.0 1.04547119140625 0.77716064453125
8037800000.0 1.192626953125 0.01690673828125
8069021875.0 1.00628662109375 -0.61627197265625
8100243750.0 0.49859619140625 -1.16082763671875
8131465625.0 -0.38592529296875 -1.25360107421875
8162687500.0 -1.03076171875 -0.6864013671875
8193909375.0 -1.1793212890625 0.0081787109375
8225131250.0 -1.01611328125 0.67724609375
8256353125.0 -0.42132568359375 1.24664306640625
8287575000.0 0.49749755859375 1.22393798828125
8318796875.0 1.0811767578125 0.63458251953125
8350018750.0 1.24249267578125 -0.07403564453125
8381240625.0 1.030029296875 -0.83770751953125
8412462500.0 0.254150390625 -1.37091064453125
8443684375.0 -0.6688232421875 -1.1693115234375
8474906250.0 -1.17462158203125 -0.53216552734375
8506128125.0 -1.2982177734375 0.23681640625
8537350000.0 -0.923583984375 1.04180908203125
8568571875.0 -0.0167236328125 1.39312744140625
8599793750.0 0.802490234375 1.0523681640625
8631015625.0 1.2412109375 0.398193359375
8662237500.0 1.28399658203125 -0.42803955078125
8693459375.0 0.73565673828125 -1.17474365234375
8724681250.0 -0.16192626953125 -1.32965087890625
8755903125.0 -0.878021240234375 -0.957122802734375
8787125000.0 -1.30224609375 -0.281982421875
8818346875.0 -1.2501220703125 0.61383056640625
8849568750.0 -0.5570068359375 1.2572021484375
8880790625.0 0.29791259765625 1.28399658203125
8912012500.0 0.9788818359375 0.89154052734375
8943234375.0 1.39776611328125 0.12994384765625
8974456250.0 1.16583251953125 -0.83782958984375
9005678125.0 0.3494873046875 -1.311767578125
9036900000.0 -0.44378662109375 -1.2237548828125
9068121875.0 -1.10125732421875 -0.78497314453125
9099343750.0 -1.43853759765625 0.096435546875
9130565625.0 -0.97882080078125 1.0091552734375
9161787500.0 -0.15472412109375 1.2813720703125
9193009375.0 0.5528564453125 1.13299560546875
9224231250.0 1.17877197265625 0.6544189453125
9255453125.0 1.3984375 -0.29498291015625
9286675000.0 0.8067626953125 -1.083984375
9317896875.0 0.0269775390625 -1.24603271484375
9349118750.0 -0.65325927734375 -1.06903076171875
9380340625.0 -1.2552490234375 -0.5091552734375
9411562500.0 -1.3096923828125 0.4757080078125
9442784375.0 -0.64794921875 1.114990234375
9474006250.0 0.08721923828125 1.208740234375
9505228125.0 0.76275634765625 0.979339599609375
9536450000.0 1.27301025390625 0.31256103515625
9567671875.0 1.1431884765625 -0.57879638671875
9598893750.0 0.529296875 -1.0672607421875
9630115625.0 -0.14263916015625 -1.15673828125
9661337500.0 -0.81646728515625 -0.90252685546875
9692559375.0 -1.23834228515625 -0.18994140625
9723781250.0 -1.04241943359375 0.601806640625
9755003125.0 -0.48553466796875 1.0484619140625
9786225000.0 0.1978759765625 1.15869140625
9817446875.0 0.892303466796875 0.827484130859375
9848668750.0 1.19708251953125 0.07806396484375
9879890625.0 0.9683837890625 -0.616180419921875
9911112500.0 0.4517822265625 -1.05047607421875
9942334375.0 -0.2652587890625 -1.157470703125
9973556250.0 -0.93994140625 -0.739715576171875
10004778125.0 -1.1456298828125 -0.01727294921875
10036000000.0 -0.94403076171875 0.61395263671875
10067221875.0 -0.44207763671875 1.09478759765625
10098443750.0 0.36846923828125 1.18017578125
10129665625.0 1.00018310546875 0.64385986328125
10160887500.0 1.119140625 -0.05072021484375
10192109375.0 0.916473388671875 -0.660888671875
10223331250.0 0.361328125 -1.150146484375
10254553125.0 -0.48516845703125 -1.113037109375
10285775000.0 -0.98388671875 -0.53509521484375
10316996875.0 -1.06640625 0.0765380859375
10348218750.0 -0.899505615234375 0.669342041015625
10379440625.0 -0.32373046875 1.17230224609375
10410662500.0 0.5257568359375 1.08477783203125
10441884375.0 0.99029541015625 0.52166748046875
10473106250.0 1.107421875 -0.08319091796875
10504328125.0 0.94775390625 -0.7564697265625
10535550000.0 0.24041748046875 -1.29302978515625
10566771875.0 -0.6558837890625 -1.0767822265625
10597993750.0 -1.08062744140625 -0.45843505859375
10629215625.0 -1.17352294921875 0.2044677734375
10660437500.0 -0.887237548828125 0.950592041015625
10691659375.0 -0.0108642578125 1.3336181640625
10722881250.0 0.78472900390625 0.951629638671875
10754103125.0 1.11724853515625 0.32501220703125
10785325000.0 1.1376953125 -0.36688232421875
10816546875.0 0.7005615234375 -1.04730224609375
10847768750.0 -0.1436767578125 -1.22833251953125
10878990625.0 -0.800506591796875 -0.843414306640625
10910212500.0 -1.12115478515625 -0.2457275390625
10941434375.0 -1.0968017578125 0.4765625
10972656250.0 -0.568359375 1.0826416015625
11003878125.0 0.2169189453125 1.17401123046875
11035100000.0 0.848297119140625 0.8223876953125
11066321875.0 1.2191162109375 0.175048828125
11097543750.0 1.098876953125 -0.6754150390625
11128765625.0 0.38629150390625 -1.1976318359375
11159987500.0 -0.3953857421875 -1.13848876953125
11191209375.0 -0.9974365234375 -0.702362060546875
11222431250.0 -1.2720947265625 0.0926513671875
11253653125.0 -0.858428955078125 0.893280029296875
11284875000.0 -0.1163330078125 1.12518310546875
11316096875.0 0.510162353515625 0.954803466796875
11347318750.0 1.00274658203125 0.50262451171875
11378540625.0 1.11669921875 -0.2677001953125
11409762500.0 0.634857177734375 -0.857574462890625
11440984375.0 0.038299560546875 -0.976837158203125
11472206250.0 -0.479949951171875 -0.849884033203125
11503428125.0 -0.951568603515625 -0.45672607421875
11534650000.0 -1.06878662109375 0.2880859375
11565871875.0 -0.60205078125 0.85345458984375
11597093750.0 -0.01971435546875 0.98992919921875
11628315625.0 0.544708251953125 0.87506103515625
11659537500.0 1.05810546875 0.3935546875
11690759375.0 1.0638427734375 -0.432373046875
11721981250.0 0.5169677734375 -0.9384765625
11753203125.0 -0.1044921875 -1.03570556640625
11784425000.0 -0.724029541015625 -0.808563232421875
11815646875.0 -1.10137939453125 -0.150390625
11846868750.0 -0.890777587890625 0.550750732421875
11878090625.0 -0.391448974609375 0.906707763671875
11909312500.0 0.184661865234375 0.98297119140625
11940534375.0 0.77978515625 0.69427490234375
11971756250.0 1.02398681640625 0.039794921875
12002978125.0 0.806488037109375 -0.536376953125
12034200000.0 0.38165283203125 -0.887786865234375
12065421875.0 -0.21490478515625 -1.00933837890625
12096643750.0 -0.846221923828125 -0.66497802734375
12127865625.0 -1.033447265625 0.01611328125
12159087500.0 -0.8143310546875 0.574615478515625
12190309375.0 -0.377227783203125 0.973358154296875
12221531250.0 0.33917236328125 1.0872802734375
12252753125.0 0.98016357421875 0.5804443359375
12283975000.0 1.05303955078125 -0.1270751953125
12315196875.0 0.799224853515625 -0.67462158203125
12346418750.0 0.28045654296875 -1.09228515625
12377640625.0 -0.53619384765625 -1.05926513671875
12408862500.0 -1.0313720703125 -0.42022705078125
12440084375.0 -1.009033203125 0.22418212890625
12471306250.0 -0.74114990234375 0.73541259765625
12502528125.0 -0.17852783203125 1.11956787109375
12533750000.0 0.6177978515625 0.992889404296875
12564971875.0 1.03851318359375 0.3653564453125
12596193750.0 1.02783203125 -0.263671875
12627415625.0 0.748016357421875 -0.826202392578125
12658637500.0 0.08087158203125 -1.20440673828125
12689859375.0 -0.735382080078125 -0.96624755859375
12721081250.0 -1.115966796875 -0.306640625
12752303125.0 -1.09588623046875 0.38153076171875
12783525000.0 -0.68670654296875 1.02508544921875
12814746875.0 0.16357421875 1.24945068359375
12845968750.0 0.86334228515625 0.81170654296875
12877190625.0 1.1151123046875 0.17279052734375
12908412500.0 1.05535888671875 -0.501220703125
12939634375.0 0.5416259765625 -1.1158447265625
12970856250.0 -0.32025146484375 -1.173828125
13002078125.0 -0.89263916015625 -0.692535400390625
13033300000.0 -1.103515625 -0.0885009765625
13064521875.0 -1.00885009765625 0.593017578125
13095743750.0 -0.4193115234375 1.15435791015625
13126965625.0 0.4071044921875 1.118896484375
13158187500.0 0.945648193359375 0.632293701171875
13189409375.0 1.147705078125 -0.02197265625
13220631250.0 0.935638427734375 -0.7459716796875
13251853125.0 0.2342529296875 -1.1707763671875
13283075000.0 -0.50628662109375 -1.01910400390625
13314296875.0 -0.98443603515625 -0.529205322265625
13345518750.0 -1.134033203125 0.17669677734375
13376740625.0 -0.752349853515625 0.857208251953125
