!Created with skrf (http://scikit-rf.org).
# Hz S RI R 50.0 
!freq ReS11 ImS11
45000000.0 -0.0772247314453125 -0.09677505493164062
76221875.0 -0.19651031494140625 -0.0474090576171875
107443750.0 -0.2549896240234375 0.1199188232421875
138665625.0 -0.14794921875 0.3287200927734375
169887500.0 0.1240234375 0.4174346923828125
201109375.0 0.42230224609375 0.280548095703125
232331250.0 0.5791015625 -0.05816650390625
263553125.0 0.4893035888671875 -0.453643798828125
294775000.0 0.097869873046875 -0.7332763671875
325996875.0 -0.41650390625 -0.68035888671875
357218750.0 -0.8072509765625 -0.296478271484375
388440625.0 -0.886016845703125 0.30181884765625
419662500.0 -0.516571044921875 0.867584228515625
450884375.0 0.17425537109375 1.0291748046875
482106250.0 0.79949951171875 0.712158203125
513328125.0 1.12005615234375 0.0859375
544550000.0 1.00335693359375 -0.68109130859375
575771875.0 0.3350830078125 -1.23883056640625
606993750.0 -0.55517578125 -1.177001953125
638215625.0 -1.16656494140625 -0.5894775390625
669437500.0 -1.33984375 0.23480224609375
700659375.0 -0.97021484375 1.0972900390625
731881250.0 -0.0023193359375 1.54345703125
763103125.0 1.00677490234375 1.15496826171875
794325000.0 1.46929931640625 0.2803955078125
825546875.0 1.3670654296875 -0.65277099609375
856768750.0 0.79339599609375 -1.40179443359375
887990625.0 -0.2947998046875 -1.64837646484375
919212500.0 -1.28955078125 -1.07763671875
950434375.0 -1.64935302734375 -0.05706787109375
981656250.0 -1.38189697265625 0.94757080078125
1012878125.0 -0.5281982421875 1.67236328125
1044100000.0 0.698486328125 1.66143798828125
1075321875.0 1.5760498046875 0.81036376953125
1106543750.0 1.7041015625 -0.31451416015625
1137765625.0 1.18524169921875 -1.28546142578125
1168987500.0 0.13616943359375 -1.797607421875
1200209375.0 -1.06329345703125 -1.482666015625
1231431250.0 -1.7286376953125 -0.45159912109375
1262653125.0 -1.59356689453125 0.6868896484375
1293875000.0 -0.8504638671875 1.4925537109375
1325096875.0 0.22979736328125 1.70635986328125
1356318750.0 1.23590087890625 1.21539306640625
1387540625.0 1.74017333984375 0.18743896484375
1418762500.0 1.46832275390625 -0.95306396484375
1449984375.0 0.52789306640625 -1.62591552734375
1481206250.0 -0.55126953125 -1.5555419921875
1512428125.0 -1.343017578125 -0.9185791015625
1543650000.0 -1.6556396484375 0.0670166015625
1574871875.0 -1.27203369140625 1.1097412109375
1606093750.0 -0.271484375 1.63128662109375
1637315625.0 0.74359130859375 1.39984130859375
1668537500.0 1.3968505859375 0.69439697265625
1699759375.0 1.57257080078125 -0.27838134765625
1730981250.0 1.0625 -1.23052978515625
1762203125.0 0.04058837890625 -1.5701904296875
1793425000.0 -0.85662841796875 -1.225341796875
1824646875.0 -1.39373779296875 -0.51397705078125
1855868750.0 -1.4732666015625 0.43353271484375
1887090625.0 -0.87420654296875 1.28533935546875
1918312500.0 0.1180419921875 1.48675537109375
1949534375.0 0.92242431640625 1.08831787109375
1980756250.0 1.37542724609375 0.368896484375
2011978125.0 1.3587646484375 -0.5328369140625
2043200000.0 0.74871826171875 -1.2620849609375
2074421875.0 -0.15802001953125 -1.432861328125
2105643750.0 -0.9608154296875 -1.07159423828125
2136865625.0 -1.44677734375 -0.3038330078125
2168087500.0 -1.3560791015625 0.67156982421875
2199309375.0 -0.6378173828125 1.3514404296875
2230531250.0 0.2830810546875 1.43560791015625
2261753125.0 1.0731201171875 1.01275634765625
2292975000.0 1.514404296875 0.1688232421875
2324196875.0 1.3045654296875 -0.81939697265625
2355418750.0 0.52410888671875 -1.419921875
2386640625.0 -0.40533447265625 -1.44818115234375
2417862500.0 -1.18115234375 -1.02374267578125
2449084375.0 -1.60516357421875 -0.08251953125
2480306250.0 -1.31024169921875 0.92626953125
2511528125.0 -0.492431640625 1.50732421875
2542750000.0 0.48956298828125 1.5345458984375
2573971875.0 1.3717041015625 0.9664306640625
2605193750.0 1.71734619140625 -0.11395263671875
2636415625.0 1.2598876953125 -1.15283203125
2667637500.0 0.30584716796875 -1.66656494140625
2698859375.0 -0.77093505859375 -1.53302001953125
2730081250.0 -1.57440185546875 -0.738525390625
2761303125.0 -1.68084716796875 0.39019775390625
2792525000.0 -1.09820556640625 1.30780029296875
2823746875.0 -0.1004638671875 1.728759765625
2854968750.0 1.01324462890625 1.4542236328125
2886190625.0 1.6915283203125 0.48974609375
2917412500.0 1.59930419921875 -0.6199951171875
2948634375.0 0.93719482421875 -1.4337158203125
2979856250.0 -0.10992431640625 -1.7762451171875
3011078125.0 -1.2484130859375 -1.3406982421875
3042300000.0 -1.7752685546875 -0.23236083984375
3073521875.0 -1.5074462890625 0.83795166015625
3104743750.0 -0.7615966796875 1.568115234375
3135965625.0 0.3646240234375 1.80841064453125
3167187500.0 1.49688720703125 1.162841796875
3198409375.0 1.8148193359375 -0.0767822265625
3229631250.0 1.34716796875 -1.08160400390625
3260853125.0 0.48785400390625 -1.66900634765625
3292075000.0 -0.65594482421875 -1.696533203125
3323296875.0 -1.61968994140625 -0.8778076171875
3354518750.0 -1.72967529296875 0.3302001953125
3385740625.0 -1.15380859375 1.23284912109375
3416962500.0 -0.23016357421875 1.6802978515625
3448184375.0 0.86053466796875 1.52069091796875
3479406250.0 1.63665771484375 0.64263916015625
3510628125.0 1.64306640625 -0.4962158203125
3541850000.0 0.9993896484375 -1.35516357421875
3573071875.0 -0.00994873046875 -1.68212890625
3604293750.0 -1.0283203125 -1.33575439453125
3635515625.0 -1.62860107421875 -0.43646240234375
3666737500.0 -1.56005859375 0.64666748046875
3697959375.0 -0.82342529296875 1.47601318359375
3729181250.0 0.269775390625 1.6300048828125
3760403125.0 1.1531982421875 1.0966796875
3791625000.0 1.5523681640625 0.21649169921875
3822846875.0 1.4000244140625 -0.76202392578125
3854068750.0 0.61865234375 -1.4803466796875
3885290625.0 -0.42144775390625 -1.48004150390625
3916512500.0 -1.14178466796875 -0.9097900390625
3947734375.0 -1.446533203125 -0.119140625
3978956250.0 -1.2958984375 0.7784423828125
4010178125.0 -0.53076171875 1.45404052734375
4041400000.0 0.47369384765625 1.414306640625
4072621875.0 1.15118408203125 0.84625244140625
4103843750.0 1.44427490234375 0.06182861328125
4135065625.0 1.266357421875 -0.84576416015625
4166287500.0 0.45660400390625 -1.4954833984375
4197509375.0 -0.55780029296875 -1.4139404296875
4228731250.0 -1.24786376953125 -0.8016357421875
4259953125.0 -1.50860595703125 0.07159423828125
4291175000.0 -1.187255859375 1.0113525390625
4322396875.0 -0.28857421875 1.52593994140625
4353618750.0 0.67340087890625 1.34918212890625
4384840625.0 1.32244873046875 0.69573974609375
4416062500.0 1.5001220703125 -0.22845458984375
4447284375.0 1.0540771484375 -1.10235595703125
4478506250.0 0.17181396484375 -1.49395751953125
4509728125.0 -0.73199462890625 -1.3060302734375
4540950000.0 -1.3927001953125 -0.63519287109375
4572171875.0 -1.52154541015625 0.35955810546875
4603393750.0 -0.97149658203125 1.21173095703125
4634615625.0 -0.060791015625 1.53643798828125
4665837500.0 0.871337890625 1.30419921875
4697059375.0 1.5401611328125 0.514404296875
4728281250.0 1.5279541015625 -0.58209228515625
4759503125.0 0.82275390625 -1.36761474609375
4790725000.0 -0.14617919921875 -1.5723876953125
4821946875.0 -1.08453369140625 -1.1934814453125
4853168750.0 -1.6134033203125 -0.25018310546875
4884390625.0 -1.37774658203125 0.7943115234375
4915612500.0 -0.61260986328125 1.41192626953125
4946834375.0 0.32940673828125 1.508544921875
4978056250.0 1.205078125 1.016357421875
5009278125.0 1.5614013671875 0.0382080078125
5040500000.0 1.2281494140625 -0.8759765625
5071721875.0 0.500244140625 -1.41424560546875
5102943750.0 -0.44677734375 -1.49566650390625
5134165625.0 -1.33575439453125 -0.905029296875
5165387500.0 -1.5660400390625 0.14508056640625
5196609375.0 -1.13580322265625 1.00958251953125
5227831250.0 -0.35699462890625 1.50543212890625
5259053125.0 0.6881103515625 1.49139404296875
5290275000.0 1.521728515625 0.66180419921875
5321496875.0 1.4920654296875 -0.43121337890625
5352718750.0 0.92047119140625 -1.15386962890625
5383940625.0 0.09552001953125 -1.50018310546875
5415162500.0 -0.90032958984375 -1.28265380859375
5446384375.0 -1.4833984375 -0.36920166015625
5477606250.0 -1.298095703125 0.56683349609375
5508828125.0 -0.73077392578125 1.1507568359375
5540050000.0 0.0548095703125 1.3983154296875
5571271875.0 0.9383544921875 1.10784912109375
5602493750.0 1.40771484375 0.25909423828125
5633715625.0 1.23095703125 -0.6114501953125
5664937500.0 0.64794921875 -1.20135498046875
5696159375.0 -0.19598388671875 -1.3826904296875
5727381250.0 -1.02142333984375 -0.978271484375
5758603125.0 -1.39080810546875 -0.14483642578125
5789825000.0 -1.19390869140625 0.71826171875
5821046875.0 -0.5059814453125 1.3074951171875
5852268750.0 0.411865234375 1.31256103515625
5883490625.0 1.07098388671875 0.771728515625
5914712500.0 1.30340576171875 0.01812744140625
5945934375.0 1.09564208984375 -0.77618408203125
5977156250.0 0.36053466796875 -1.31280517578125
6008378125.0 -0.50994873046875 -1.18182373046875
6039600000.0 -1.02203369140625 -0.64892578125
6070821875.0 -1.22430419921875 -0.00396728515625
6102043750.0 -1.08282470703125 0.761962890625
6133265625.0 -0.3416748046875 1.343994140625
6164487500.0 0.56427001953125 1.1871337890625
6195709375.0 1.07025146484375 0.62994384765625
6226931250.0 1.27923583984375 -0.04254150390625
6258153125.0 1.10394287109375 -0.8714599609375
6289375000.0 0.25567626953125 -1.44573974609375
6320596875.0 -0.6898193359375 -1.2064208984375
6351818750.0 -1.20050048828125 -0.57171630859375
6383040625.0 -1.35418701171875 0.20672607421875
6414262500.0 -0.99969482421875 1.05731201171875
6445484375.0 -0.07757568359375 1.4573974609375
6476706250.0 0.79595947265625 1.14801025390625
6507928125.0 1.29058837890625 0.46954345703125
6539150000.0 1.34686279296875 -0.386962890625
6570371875.0 0.84063720703125 -1.1441650390625
6601593750.0 -0.0181884765625 -1.40521240234375
6632815625.0 -0.8394775390625 -1.13543701171875
6664037500.0 -1.40118408203125 -0.4195556640625
6695259375.0 -1.37298583984375 0.565673828125
6726481250.0 -0.7100830078125 1.25201416015625
6757703125.0 0.13079833984375 1.40673828125
6788925000.0 0.95489501953125 1.12994384765625
6820146875.0 1.55963134765625 0.287841796875
6851368750.0 1.32586669921875 -0.818359375
6882590625.0 0.50628662109375 -1.33843994140625
6913812500.0 -0.292724609375 -1.35614013671875
6945034375.0 -1.0699462890625 -1.02130126953125
6976256250.0 -1.5927734375 -0.09283447265625
7007478125.0 -1.236083984375 0.93463134765625
7038700000.0 -0.4007568359375 1.344970703125
7069921875.0 0.35986328125 1.3228759765625
7101143750.0 1.11773681640625 0.96746826171875
7132365625.0 1.59912109375 0.013671875
7163587500.0 1.1566162109375 -1.02166748046875
7194809375.0 0.3017578125 -1.397705078125
7226031250.0 -0.5128173828125 -1.32562255859375
7257253125.0 -1.26531982421875 -0.8253173828125
7288475000.0 -1.5589599609375 0.198974609375
7319696875.0 -1.02996826171875 1.11004638671875
7350918750.0 -0.1644287109375 1.44268798828125
7382140625.0 0.71636962890625 1.27679443359375
7413362500.0 1.37738037109375 0.57586669921875
7444584375.0 1.41204833984375 -0.40765380859375
7475806250.0 0.85833740234375 -1.14361572265625
7507028125.0 0.00543212890625 -1.4295654296875
7538250000.0 -0.887451171875 -1.1240234375
7569471875.0 -1.33770751953125 -0.310302734375
7600693750.0 -1.20123291015625 0.496826171875
7631915625.0 -0.71710205078125 1.08612060546875
7663137500.0 0.0819091796875 1.35882568359375
7694359375.0 0.94061279296875 0.98016357421875
7725581250.0 1.2427978515625 0.179931640625
7756803125.0 1.0821533203125 -0.49853515625
7788025000.0 0.66943359375 -1.04345703125
7819246875.0 -0.12109375 -1.34735107421875
7850468750.0 -0.993377685546875 -0.916534423828125
7881690625.0 -1.23162841796875 -0.104736328125
7912912500.0 -1.0537109375 0.5526123046875
7944134375.0 -0.60504150390625 1.11456298828125
7975356250.0 0.269775390625 1.333984375
8006578125.0 1.04766845703125 0.7801513671875
8037800000.0 1.19342041015625 0.0167236328125
8069021875.0 1.00689697265625 -0.61785888671875
8100243750.0 0.49932861328125 -1.16351318359375
8131465625.0 -0.38720703125 -1.253662109375
8162687500.0 -1.03271484375 -0.6859130859375
8193909375.0 -1.181396484375 0.0098876953125
8225131250.0 -1.0179443359375 0.67938232421875
8256353125.0 -0.4215087890625 1.24884033203125
8287575000.0 0.50042724609375 1.2254638671875
8318796875.0 1.08245849609375 0.63616943359375
8350018750.0 1.24560546875 -0.07647705078125
8381240625.0 1.03179931640625 -0.8399658203125
8412462500.0 0.25653076171875 -1.37286376953125
8443684375.0 -0.6700439453125 -1.17010498046875
8474906250.0 -1.17559814453125 -0.5318603515625
8506128125.0 -1.29718017578125 0.236572265625
8537350000.0 -0.9244384765625 1.04656982421875
8568571875.0 -0.01580810546875 1.3955078125
8599793750.0 0.80230712890625 1.052978515625
8631015625.0 1.2410888671875 0.39886474609375
8662237500.0 1.285888671875 -0.42987060546875
8693459375.0 0.736328125 -1.1771240234375
8724681250.0 -0.16302490234375 -1.3326416015625
8755903125.0 -0.880523681640625 -0.957763671875
8787125000.0 -1.30426025390625 -0.28155517578125
8818346875.0 -1.25146484375 0.61810302734375
8849568750.0 -0.55609130859375 1.2615966796875
8880790625.0 0.29876708984375 1.28472900390625
8912012500.0 0.982666015625 0.892242431640625
8943234375.0 1.3997802734375 0.1295166015625
8974456250.0 1.1680908203125 -0.8414306640625
9005678125.0 0.3486328125 -1.31414794921875
9036900000.0 -0.44415283203125 -1.2252197265625
9068121875.0 -1.10211181640625 -0.78521728515625
9099343750.0 -1.44207763671875 0.09698486328125
9130565625.0 -0.98089599609375 1.01214599609375
9161787500.0 -0.15509033203125 1.28265380859375
9193009375.0 0.5548095703125 1.134033203125
9224231250.0 1.1817626953125 0.65435791015625
9255453125.0 1.40057373046875 -0.29840087890625
9286675000.0 0.80645751953125 -1.08721923828125
9317896875.0 0.0269775390625 -1.24591064453125
9349118750.0 -0.65576171875 -1.07012939453125
9380340625.0 -1.25811767578125 -0.50982666015625
9411562500.0 -1.3126220703125 0.47821044921875
9442784375.0 -0.6488037109375 1.115478515625
9474006250.0 0.08843994140625 1.2108154296875
9505228125.0 0.764495849609375 0.97967529296875
9536450000.0 1.275390625 0.313720703125
9567671875.0 1.1444091796875 -0.5802001953125
9598893750.0 0.53021240234375 -1.06884765625
9630115625.0 -0.1455078125 -1.159912109375
9661337500.0 -0.819427490234375 -0.902740478515625
9692559375.0 -1.23895263671875 -0.19000244140625
9723781250.0 -1.04315185546875 0.600830078125
9755003125.0 -0.4854736328125 1.04998779296875
9786225000.0 0.19781494140625 1.1588134765625
9817446875.0 0.895172119140625 0.827239990234375
9848668750.0 1.19769287109375 0.07843017578125
9879890625.0 0.967498779296875 -0.614990234375
9911112500.0 0.4521484375 -1.05096435546875
9942334375.0 -0.267578125 -1.1593017578125
9973556250.0 -0.943328857421875 -0.738494873046875
10004778125.0 -1.1453857421875 -0.0177001953125
10036000000.0 -0.944610595703125 0.616485595703125
10067221875.0 -0.4425048828125 1.09619140625
10098443750.0 0.37005615234375 1.1817626953125
10129665625.0 1.00323486328125 0.6435546875
10160887500.0 1.12078857421875 -0.052001953125
10192109375.0 0.91778564453125 -0.662994384765625
10223331250.0 0.36102294921875 -1.15338134765625
10254553125.0 -0.48785400390625 -1.11529541015625
10285775000.0 -0.986480712890625 -0.534637451171875
10316996875.0 -1.067626953125 0.07708740234375
10348218750.0 -0.900665283203125 0.670074462890625
10379440625.0 -0.32147216796875 1.17669677734375
10410662500.0 0.5284423828125 1.08514404296875
10441884375.0 0.99346923828125 0.521026611328125
10473106250.0 1.10858154296875 -0.08331298828125
10504328125.0 0.94842529296875 -0.756256103515625
10535550000.0 0.24041748046875 -1.294677734375
10566771875.0 -0.65789794921875 -1.07794189453125
10597993750.0 -1.0823974609375 -0.45831298828125
10629215625.0 -1.17498779296875 0.20489501953125
10660437500.0 -0.88653564453125 0.953582763671875
10691659375.0 -0.00946044921875 1.33673095703125
10722881250.0 0.783721923828125 0.952880859375
10754103125.0 1.120361328125 0.32470703125
10785325000.0 1.14013671875 -0.3673095703125
10816546875.0 0.70074462890625 -1.048828125
10847768750.0 -0.1435546875 -1.2303466796875
10878990625.0 -0.803802490234375 -0.844268798828125
10910212500.0 -1.1239013671875 -0.24530029296875
10941434375.0 -1.0975341796875 0.47662353515625
10972656250.0 -0.5673828125 1.0877685546875
11003878125.0 0.21832275390625 1.17523193359375
11035100000.0 0.8486328125 0.821533203125
11066321875.0 1.22021484375 0.17596435546875
11097543750.0 1.09857177734375 -0.67608642578125
11128765625.0 0.38671875 -1.19976806640625
11159987500.0 -0.39581298828125 -1.13922119140625
11191209375.0 -0.999481201171875 -0.70416259765625
11222431250.0 -1.27264404296875 0.09332275390625
11253653125.0 -0.859375 0.89666748046875
11284875000.0 -0.1136474609375 1.1279296875
11316096875.0 0.513092041015625 0.95635986328125
11347318750.0 1.00244140625 0.5023193359375
11378540625.0 1.1177978515625 -0.2684326171875
11409762500.0 0.63507080078125 -0.86138916015625
11440984375.0 0.0355224609375 -0.9793701171875
11472206250.0 -0.480682373046875 -0.8502197265625
11503428125.0 -0.952728271484375 -0.45587158203125
11534650000.0 -1.070068359375 0.28997802734375
11565871875.0 -0.602447509765625 0.854461669921875
11597093750.0 -0.018951416015625 0.990997314453125
11628315625.0 0.54486083984375 0.8746337890625
11659537500.0 1.06048583984375 0.39239501953125
11690759375.0 1.06561279296875 -0.43499755859375
11721981250.0 0.517669677734375 -0.940338134765625
11753203125.0 -0.1065673828125 -1.03704833984375
11784425000.0 -0.72503662109375 -0.809478759765625
11815646875.0 -1.10052490234375 -0.15240478515625
11846868750.0 -0.891632080078125 0.552276611328125
11878090625.0 -0.3909912109375 0.909088134765625
11909312500.0 0.1878662109375 0.985565185546875
11940534375.0 0.77978515625 0.69500732421875
11971756250.0 1.02459716796875 0.0404052734375
12002978125.0 0.806610107421875 -0.538299560546875
12034200000.0 0.38079833984375 -0.89178466796875
12065421875.0 -0.21514892578125 -1.01251220703125
12096643750.0 -0.847259521484375 -0.66595458984375
12127865625.0 -1.03338623046875 0.01617431640625
12159087500.0 -0.8155517578125 0.577484130859375
12190309375.0 -0.376983642578125 0.975677490234375
12221531250.0 0.3389892578125 1.08831787109375
12252753125.0 0.979766845703125 0.581146240234375
12283975000.0 1.0552978515625 -0.12835693359375
12315196875.0 0.80010986328125 -0.6756591796875
12346418750.0 0.28125 -1.09210205078125
12377640625.0 -0.53948974609375 -1.06201171875
12408862500.0 -1.0347900390625 -0.4202880859375
12440084375.0 -1.00958251953125 0.2259521484375
12471306250.0 -0.741363525390625 0.738525390625
12502528125.0 -0.17901611328125 1.12115478515625
12533750000.0 0.620758056640625 0.994232177734375
12564971875.0 1.042236328125 0.36297607421875
12596193750.0 1.0302734375 -0.26568603515625
12627415625.0 0.747344970703125 -0.829620361328125
12658637500.0 0.0792236328125 -1.20703125
12689859375.0 -0.736083984375 -0.966400146484375
12721081250.0 -1.11773681640625 -0.30609130859375
12752303125.0 -1.09857177734375 0.38201904296875
12783525000.0 -0.6876220703125 1.02703857421875
12814746875.0 0.1650390625 1.2523193359375
12845968750.0 0.863861083984375 0.81134033203125
12877190625.0 1.11962890625 0.17095947265625
12908412500.0 1.05670166015625 -0.50213623046875
12939634375.0 0.54425048828125 -1.11712646484375
12970856250.0 -0.31964111328125 -1.17462158203125
13002078125.0 -0.895050048828125 -0.693389892578125
13033300000.0 -1.1075439453125 -0.0859375
13064521875.0 -1.00897216796875 0.59356689453125
13095743750.0 -0.42022705078125 1.15509033203125
13126965625.0 0.41015625 1.12158203125
13158187500.0 0.946319580078125 0.632415771484375
13189409375.0 1.148193359375 -0.0211181640625
13220631250.0 0.936248779296875 -0.7498779296875
13251853125.0 0.23284912109375 -1.173583984375
13283075000.0 -0.50799560546875 -1.01959228515625
13314296875.0 -0.98663330078125 -0.529510498046875
