!Created with skrf (http://scikit-rf.org).
# Hz S RI R 50.0 
!freq ReS11 ImS11
45000000.0 -0.07675552368164062 -0.09709548950195312
76221875.0 -0.1967620849609375 -0.04805755615234375
107443750.0 -0.255859375 0.1194000244140625
138665625.0 -0.14910888671875 0.3291168212890625
169887500.0 0.1228485107421875 0.418670654296875
201109375.0 0.422271728515625 0.2826385498046875
232331250.0 0.58038330078125 -0.056243896484375
263553125.0 0.4918060302734375 -0.4529571533203125
294775000.0 0.10040283203125 -0.73419189453125
325996875.0 -0.414947509765625 -0.683685302734375
357218750.0 -0.80810546875 -0.299835205078125
388440625.0 -0.889007568359375 0.2996826171875
419662500.0 -0.5208740234375 0.86749267578125
450884375.0 0.1708984375 1.03204345703125
482106250.0 0.799102783203125 0.716583251953125
513328125.0 1.12237548828125 0.08984375
544550000.0 1.00762939453125 -0.67962646484375
575771875.0 0.3402099609375 -1.23992919921875
606993750.0 -0.5521240234375 -1.18115234375
638215625.0 -1.1673583984375 -0.5946044921875
669437500.0 -1.34368896484375 0.2313232421875
700659375.0 -0.9754638671875 1.0963134765625
731881250.0 -0.0078125 1.5465087890625
763103125.0 1.00518798828125 1.1614990234375
794325000.0 1.47186279296875 0.28594970703125
825546875.0 1.372314453125 -0.650146484375
856768750.0 0.7999267578125 -1.40301513671875
887990625.0 -0.289794921875 -1.6533203125
919212500.0 -1.28973388671875 -1.08441162109375
950434375.0 -1.65380859375 -0.062744140625
981656250.0 -1.38885498046875 0.9461669921875
1012878125.0 -0.53497314453125 1.67584228515625
1044100000.0 0.69573974609375 1.6688232421875
1075321875.0 1.57830810546875 0.81768798828125
1106543750.0 1.710693359375 -0.31005859375
1137765625.0 1.19268798828125 -1.28582763671875
1168987500.0 0.14251708984375 -1.802001953125
1200209375.0 -1.0615234375 -1.49078369140625
1231431250.0 -1.73199462890625 -0.4580078125
1262653125.0 -1.59979248046875 0.68304443359375
1293875000.0 -0.8572998046875 1.4931640625
1325096875.0 0.2252197265625 1.7125244140625
1356318750.0 1.236083984375 1.22296142578125
1387540625.0 1.744140625 0.19329833984375
1418762500.0 1.4757080078125 -0.951171875
1449984375.0 0.53424072265625 -1.62908935546875
1481206250.0 -0.54791259765625 -1.56134033203125
1512428125.0 -1.3438720703125 -0.924560546875
1543650000.0 -1.66033935546875 0.06268310546875
1574871875.0 -1.27862548828125 1.1090087890625
1606093750.0 -0.27679443359375 1.63507080078125
1637315625.0 0.74127197265625 1.4056396484375
1668537500.0 1.39825439453125 0.7003173828125
1699759375.0 1.57763671875 -0.2742919921875
1730981250.0 1.06927490234375 -1.2303466796875
1762203125.0 0.04547119140625 -1.57391357421875
1793425000.0 -0.85577392578125 -1.23101806640625
1824646875.0 -1.39617919921875 -0.51898193359375
1855868750.0 -1.478515625 0.4302978515625
1887090625.0 -0.87982177734375 1.28704833984375
1918312500.0 0.115234375 1.490966796875
1949534375.0 0.92169189453125 1.0933837890625
1980756250.0 1.3782958984375 0.3734130859375
2011978125.0 1.3641357421875 -0.53045654296875
2043200000.0 0.7542724609375 -1.2630615234375
2074421875.0 -0.154296875 -1.436767578125
2105643750.0 -0.9609375 -1.0767822265625
2136865625.0 -1.4501953125 -0.30828857421875
2168087500.0 -1.3616943359375 0.6702880859375
2199309375.0 -0.64263916015625 1.3533935546875
2230531250.0 0.2802734375 1.44000244140625
2261753125.0 1.07391357421875 1.01837158203125
2292975000.0 1.51776123046875 0.1727294921875
2324196875.0 1.3099365234375 -0.8184814453125
2355418750.0 0.52880859375 -1.4222412109375
2386640625.0 -0.40289306640625 -1.45257568359375
2417862500.0 -1.1829833984375 -1.02789306640625
2449084375.0 -1.6090087890625 -0.08612060546875
2480306250.0 -1.316162109375 0.92657470703125
2511528125.0 -0.49713134765625 1.51153564453125
2542750000.0 0.487548828125 1.541015625
2573971875.0 1.37225341796875 0.9725341796875
2605193750.0 1.7222900390625 -0.1107177734375
2636415625.0 1.26641845703125 -1.15399169921875
2667637500.0 0.30926513671875 -1.67120361328125
2698859375.0 -0.76812744140625 -1.53924560546875
2730081250.0 -1.57733154296875 -0.7449951171875
2761303125.0 -1.68682861328125 0.38751220703125
2792525000.0 -1.10406494140625 1.3094482421875
2823746875.0 -0.105224609375 1.73388671875
2854968750.0 1.01483154296875 1.46136474609375
2886190625.0 1.69610595703125 0.49530029296875
2917412500.0 1.6055908203125 -0.61749267578125
2948634375.0 0.94390869140625 -1.43572998046875
2979856250.0 -0.10589599609375 -1.78155517578125
3011078125.0 -1.2489013671875 -1.3472900390625
3042300000.0 -1.779541015625 -0.23712158203125
3073521875.0 -1.5140380859375 0.83880615234375
3104743750.0 -0.7674560546875 1.57122802734375
3135965625.0 0.36077880859375 1.81475830078125
3167187500.0 1.50244140625 1.169189453125
3198409375.0 1.82080078125 -0.07275390625
3229631250.0 1.3541259765625 -1.08209228515625
3260853125.0 0.49322509765625 -1.672607421875
3292075000.0 -0.655517578125 -1.70416259765625
3323296875.0 -1.62298583984375 -0.88446044921875
3354518750.0 -1.7353515625 0.3270263671875
3385740625.0 -1.160400390625 1.23443603515625
3416962500.0 -0.2347412109375 1.68475341796875
3448184375.0 0.8604736328125 1.5263671875
3479406250.0 1.63922119140625 0.64788818359375
3510628125.0 1.6490478515625 -0.4945068359375
3541850000.0 1.00445556640625 -1.35675048828125
3573071875.0 -0.005615234375 -1.68609619140625
3604293750.0 -1.0302734375 -1.34149169921875
3635515625.0 -1.6307373046875 -0.4415283203125
3666737500.0 -1.56640625 0.64697265625
3697959375.0 -0.82855224609375 1.4791259765625
3729181250.0 0.26739501953125 1.634765625
3760403125.0 1.1549072265625 1.10186767578125
3791625000.0 1.55682373046875 0.22015380859375
3822846875.0 1.4063720703125 -0.76123046875
3854068750.0 0.62371826171875 -1.484130859375
3885290625.0 -0.4210205078125 -1.48553466796875
3916512500.0 -1.1444091796875 -0.91461181640625
3947734375.0 -1.45062255859375 -0.12255859375
3978956250.0 -1.30218505859375 0.78045654296875
4010178125.0 -0.5338134765625 1.4586181640625
4041400000.0 0.474609375 1.4193115234375
4072621875.0 1.15472412109375 0.8499755859375
4103843750.0 1.4476318359375 0.064697265625
4135065625.0 1.27130126953125 -0.84649658203125
4166287500.0 0.4591064453125 -1.5
4197509375.0 -0.55712890625 -1.41754150390625
4228731250.0 -1.24945068359375 -0.80511474609375
4259953125.0 -1.51220703125 0.069091796875
4291175000.0 -1.1917724609375 1.01202392578125
4322396875.0 -0.291015625 1.52978515625
4353618750.0 0.67315673828125 1.3529052734375
4384840625.0 1.3243408203125 0.6995849609375
4416062500.0 1.50439453125 -0.2265625
4447284375.0 1.0584716796875 -1.10650634765625
4478506250.0 0.1739501953125 -1.49884033203125
4509728125.0 -0.732666015625 -1.3104248046875
4540950000.0 -1.3978271484375 -0.63751220703125
4572171875.0 -1.52593994140625 0.3594970703125
4603393750.0 -0.97528076171875 1.2142333984375
4634615625.0 -0.06231689453125 1.5401611328125
4665837500.0 0.87237548828125 1.3082275390625
4697059375.0 1.54559326171875 0.51678466796875
4728281250.0 1.53277587890625 -0.5833740234375
4759503125.0 0.82501220703125 -1.3697509765625
4790725000.0 -0.14520263671875 -1.576416015625
4821946875.0 -1.0869140625 -1.19732666015625
4853168750.0 -1.61773681640625 -0.2520751953125
4884390625.0 -1.3818359375 0.7945556640625
4915612500.0 -0.6151123046875 1.41619873046875
4946834375.0 0.3292236328125 1.5140380859375
4978056250.0 1.2088623046875 1.02032470703125
5009278125.0 1.56512451171875 0.04058837890625
5040500000.0 1.23284912109375 -0.8773193359375
5071721875.0 0.50286865234375 -1.4185791015625
5102943750.0 -0.44805908203125 -1.50115966796875
5134165625.0 -1.34002685546875 -0.90777587890625
5165387500.0 -1.57135009765625 0.1463623046875
5196609375.0 -1.1390380859375 1.010498046875
5227831250.0 -0.3590087890625 1.50885009765625
5259053125.0 0.69024658203125 1.49664306640625
5290275000.0 1.5250244140625 0.66448974609375
5321496875.0 1.4957275390625 -0.431396484375
5352718750.0 0.9234619140625 -1.1552734375
5383940625.0 0.09759521484375 -1.50421142578125
5415162500.0 -0.90185546875 -1.28729248046875
5446384375.0 -1.48779296875 -0.37176513671875
5477606250.0 -1.30303955078125 0.5682373046875
5508828125.0 -0.7337646484375 1.1539306640625
5540050000.0 0.05340576171875 1.40228271484375
5571271875.0 0.94073486328125 1.11181640625
5602493750.0 1.41241455078125 0.26043701171875
5633715625.0 1.23583984375 -0.61456298828125
5664937500.0 0.64971923828125 -1.20477294921875
5696159375.0 -0.1971435546875 -1.3868408203125
5727381250.0 -1.02392578125 -0.98046875
5758603125.0 -1.39532470703125 -0.14495849609375
5789825000.0 -1.1971435546875 0.72003173828125
5821046875.0 -0.50732421875 1.310791015625
5852268750.0 0.4130859375 1.3160400390625
5883490625.0 1.07415771484375 0.7738037109375
5914712500.0 1.30548095703125 0.020263671875
5945934375.0 1.09942626953125 -0.776611328125
5977156250.0 0.36163330078125 -1.31634521484375
6008378125.0 -0.511474609375 -1.18536376953125
6039600000.0 -1.0245361328125 -0.65045166015625
6070821875.0 -1.22625732421875 -0.005126953125
6102043750.0 -1.0860595703125 0.7646484375
6133265625.0 -0.34185791015625 1.3486328125
6164487500.0 0.5653076171875 1.19012451171875
6195709375.0 1.07366943359375 0.63128662109375
6226931250.0 1.28271484375 -0.04254150390625
6258153125.0 1.10711669921875 -0.87432861328125
6289375000.0 0.25506591796875 -1.4505615234375
6320596875.0 -0.6907958984375 -1.20745849609375
6351818750.0 -1.20343017578125 -0.57220458984375
6383040625.0 -1.3575439453125 0.2080078125
6414262500.0 -1.00146484375 1.06048583984375
6445484375.0 -0.07818603515625 1.45916748046875
6476706250.0 0.7972412109375 1.1497802734375
6507928125.0 1.29315185546875 0.4710693359375
6539150000.0 1.35101318359375 -0.38775634765625
6570371875.0 0.842529296875 -1.1463623046875
6601593750.0 -0.016845703125 -1.40765380859375
6632815625.0 -0.84112548828125 -1.1387939453125
6664037500.0 -1.405029296875 -0.420654296875
6695259375.0 -1.37689208984375 0.568603515625
6726481250.0 -0.71124267578125 1.2540283203125
6757703125.0 0.13134765625 1.41021728515625
6788925000.0 0.95892333984375 1.13299560546875
6820146875.0 1.56427001953125 0.2869873046875
6851368750.0 1.3280029296875 -0.82318115234375
6882590625.0 0.506591796875 -1.34130859375
6913812500.0 -0.292724609375 -1.359375
6945034375.0 -1.0738525390625 -1.0234375
6976256250.0 -1.59613037109375 -0.09259033203125
7007478125.0 -1.2386474609375 0.935302734375
7038700000.0 -0.403076171875 1.3455810546875
7069921875.0 0.36175537109375 1.32769775390625
7101143750.0 1.123291015625 0.970703125
7132365625.0 1.603271484375 0.01397705078125
7163587500.0 1.15985107421875 -1.024658203125
7194809375.0 0.3028564453125 -1.4014892578125
7226031250.0 -0.51287841796875 -1.32916259765625
7257253125.0 -1.27117919921875 -0.8260498046875
7288475000.0 -1.5625 0.20086669921875
7319696875.0 -1.031982421875 1.11383056640625
7350918750.0 -0.16375732421875 1.449951171875
7382140625.0 0.71923828125 1.2794189453125
7413362500.0 1.38177490234375 0.576171875
7444584375.0 1.41302490234375 -0.40753173828125
7475806250.0 0.85992431640625 -1.144775390625
7507028125.0 0.00518798828125 -1.43341064453125
7538250000.0 -0.89068603515625 -1.12615966796875
7569471875.0 -1.3408203125 -0.3106689453125
7600693750.0 -1.204345703125 0.49853515625
7631915625.0 -0.7198486328125 1.0887451171875
7663137500.0 0.08184814453125 1.36370849609375
7694359375.0 0.942901611328125 0.982696533203125
7725581250.0 1.2476806640625 0.1806640625
7756803125.0 1.0863037109375 -0.50115966796875
7788025000.0 0.67169189453125 -1.04833984375
7819246875.0 -0.12213134765625 -1.351806640625
7850468750.0 -0.997650146484375 -0.9173583984375
7881690625.0 -1.2353515625 -0.10400390625
7912912500.0 -1.05706787109375 0.5562744140625
7944134375.0 -0.6046142578125 1.12054443359375
7975356250.0 0.2747802734375 1.33819580078125
8006578125.0 1.04925537109375 0.779052734375
8037800000.0 1.19512939453125 0.015869140625
8069021875.0 1.00860595703125 -0.61968994140625
8100243750.0 0.49993896484375 -1.16571044921875
8131465625.0 -0.39129638671875 -1.2569580078125
8162687500.0 -1.03350830078125 -0.6878662109375
8193909375.0 -1.18341064453125 0.0089111328125
8225131250.0 -1.0208740234375 0.6807861328125
8256353125.0 -0.4224853515625 1.25311279296875
8287575000.0 0.504150390625 1.22882080078125
8318796875.0 1.08660888671875 0.63677978515625
8350018750.0 1.24969482421875 -0.07806396484375
8381240625.0 1.03375244140625 -0.84368896484375
8412462500.0 0.25201416015625 -1.37945556640625
8443684375.0 -0.6741943359375 -1.17230224609375
8474906250.0 -1.17840576171875 -0.53173828125
8506128125.0 -1.30072021484375 0.23779296875
8537350000.0 -0.92559814453125 1.05078125
8568571875.0 -0.01397705078125 1.39801025390625
8599793750.0 0.804931640625 1.0546875
8631015625.0 1.2457275390625 0.39813232421875
8662237500.0 1.28851318359375 -0.4317626953125
8693459375.0 0.7366943359375 -1.18280029296875
8724681250.0 -0.16400146484375 -1.33575439453125
8755903125.0 -0.88519287109375 -0.9605712890625
8787125000.0 -1.309326171875 -0.28125
8818346875.0 -1.25482177734375 0.62042236328125
8849568750.0 -0.55633544921875 1.26788330078125
8880790625.0 0.30194091796875 1.28955078125
8912012500.0 0.98602294921875 0.89471435546875
8943234375.0 1.4036865234375 0.12847900390625
8974456250.0 1.1680908203125 -0.8446044921875
9005678125.0 0.3450927734375 -1.31707763671875
9036900000.0 -0.447265625 -1.22784423828125
9068121875.0 -1.1065673828125 -0.7860107421875
9099343750.0 -1.44476318359375 0.10211181640625
9130565625.0 -0.97918701171875 1.0155029296875
9161787500.0 -0.15240478515625 1.28509521484375
9193009375.0 0.55792236328125 1.13604736328125
9224231250.0 1.18310546875 0.65582275390625
9255453125.0 1.40435791015625 -0.29974365234375
9286675000.0 0.80804443359375 -1.08929443359375
9317896875.0 0.02685546875 -1.249755859375
9349118750.0 -0.65777587890625 -1.072998046875
9380340625.0 -1.263916015625 -0.5086669921875
9411562500.0 -1.31494140625 0.48138427734375
9442784375.0 -0.64813232421875 1.12115478515625
9474006250.0 0.09161376953125 1.216064453125
9505228125.0 0.770904541015625 0.982147216796875
9536450000.0 1.27874755859375 0.31121826171875
9567671875.0 1.14483642578125 -0.58355712890625
9598893750.0 0.52880859375 -1.072021484375
9630115625.0 -0.14569091796875 -1.16046142578125
9661337500.0 -0.824249267578125 -0.90338134765625
9692559375.0 -1.24188232421875 -0.1884765625
9723781250.0 -1.04425048828125 0.606201171875
9755003125.0 -0.48553466796875 1.05438232421875
9786225000.0 0.2001953125 1.16290283203125
9817446875.0 0.900970458984375 0.829376220703125
9848668750.0 1.2015380859375 0.0770263671875
9879890625.0 0.969696044921875 -0.618377685546875
9911112500.0 0.451904296875 -1.05682373046875
9942334375.0 -0.27069091796875 -1.1639404296875
9973556250.0 -0.9473876953125 -0.737335205078125
10004778125.0 -1.15008544921875 -0.01519775390625
10036000000.0 -0.945220947265625 0.619659423828125
10067221875.0 -0.44085693359375 1.1026611328125
10098443750.0 0.37384033203125 1.18438720703125
10129665625.0 1.00677490234375 0.64178466796875
10160887500.0 1.12255859375 -0.05523681640625
10192109375.0 0.919281005859375 -0.66656494140625
10223331250.0 0.35906982421875 -1.1572265625
10254553125.0 -0.490478515625 -1.11517333984375
10285775000.0 -0.98944091796875 -0.5338134765625
10316996875.0 -1.06805419921875 0.07720947265625
10348218750.0 -0.901824951171875 0.67254638671875
10379440625.0 -0.320068359375 1.1798095703125
10410662500.0 0.53082275390625 1.08770751953125
10441884375.0 0.996673583984375 0.521728515625
10473106250.0 1.111328125 -0.0848388671875
10504328125.0 0.95068359375 -0.760986328125
10535550000.0 0.23675537109375 -1.29962158203125
10566771875.0 -0.6630859375 -1.078369140625
10597993750.0 -1.084716796875 -0.457275390625
10629215625.0 -1.17901611328125 0.20733642578125
10660437500.0 -0.8875732421875 0.958221435546875
10691659375.0 -0.00604248046875 1.33856201171875
10722881250.0 0.789581298828125 0.952117919921875
10754103125.0 1.12353515625 0.32293701171875
10785325000.0 1.1427001953125 -0.370361328125
10816546875.0 0.700439453125 -1.0556640625
10847768750.0 -0.14837646484375 -1.23297119140625
10878990625.0 -0.80767822265625 -0.8436279296875
10910212500.0 -1.12677001953125 -0.24371337890625
10941434375.0 -1.10052490234375 0.47998046875
10972656250.0 -0.5679931640625 1.0908203125
11003878125.0 0.220458984375 1.17730712890625
11035100000.0 0.85302734375 0.8228759765625
11066321875.0 1.22625732421875 0.1717529296875
11097543750.0 1.1002197265625 -0.68109130859375
11128765625.0 0.38397216796875 -1.20306396484375
11159987500.0 -0.39971923828125 -1.14117431640625
11191209375.0 -1.00469970703125 -0.7027587890625
11222431250.0 -1.27716064453125 0.09735107421875
11253653125.0 -0.858734130859375 0.90020751953125
11284875000.0 -0.11083984375 1.1312255859375
11316096875.0 0.51251220703125 0.95758056640625
11347318750.0 1.0069580078125 0.50164794921875
11378540625.0 1.12005615234375 -0.27398681640625
11409762500.0 0.63427734375 -0.862518310546875
11440984375.0 0.035308837890625 -0.97998046875
11472206250.0 -0.485595703125 -0.852569580078125
11503428125.0 -0.957611083984375 -0.455352783203125
11534650000.0 -1.07147216796875 0.29290771484375
11565871875.0 -0.600921630859375 0.859375
11597093750.0 -0.016754150390625 0.994598388671875
11628315625.0 0.548980712890625 0.8779296875
11659537500.0 1.06475830078125 0.3907470703125
11690759375.0 1.06768798828125 -0.4393310546875
11721981250.0 0.515655517578125 -0.94439697265625
11753203125.0 -0.10845947265625 -1.03973388671875
11784425000.0 -0.730865478515625 -0.81036376953125
11815646875.0 -1.10430908203125 -0.14801025390625
11846868750.0 -0.892486572265625 0.5562744140625
11878090625.0 -0.390045166015625 0.911651611328125
11909312500.0 0.189849853515625 0.9873046875
11940534375.0 0.78533935546875 0.6953125
11971756250.0 1.02789306640625 0.03668212890625
12002978125.0 0.806976318359375 -0.541534423828125
12034200000.0 0.380615234375 -0.892974853515625
12065421875.0 -0.2183837890625 -1.01312255859375
12096643750.0 -0.853668212890625 -0.664093017578125
12127865625.0 -1.03509521484375 0.01922607421875
12159087500.0 -0.816070556640625 0.580413818359375
12190309375.0 -0.37652587890625 0.97802734375
12221531250.0 0.34503173828125 1.0906982421875
12252753125.0 0.984588623046875 0.580108642578125
12283975000.0 1.056396484375 -0.1312255859375
12315196875.0 0.800994873046875 -0.680572509765625
12346418750.0 0.27996826171875 -1.09649658203125
12377640625.0 -0.54327392578125 -1.0614013671875
12408862500.0 -1.0379638671875 -0.41790771484375
12440084375.0 -1.010009765625 0.2283935546875
12471306250.0 -0.7430419921875 0.742095947265625
12502528125.0 -0.1767578125 1.1251220703125
12533750000.0 0.625701904296875 0.9945068359375
12564971875.0 1.0465087890625 0.36175537109375
12596193750.0 1.03228759765625 -0.26800537109375
12627415625.0 0.7490234375 -0.834228515625
12658637500.0 0.0765380859375 -1.21148681640625
12689859375.0 -0.740509033203125 -0.96673583984375
12721081250.0 -1.1226806640625 -0.30169677734375
12752303125.0 -1.1007080078125 0.38775634765625
12783525000.0 -0.687255859375 1.0316162109375
12814746875.0 0.17034912109375 1.2547607421875
12845968750.0 0.868499755859375 0.810943603515625
12877190625.0 1.12115478515625 0.16888427734375
12908412500.0 1.0582275390625 -0.50628662109375
12939634375.0 0.53997802734375 -1.1224365234375
12970856250.0 -0.32452392578125 -1.17681884765625
13002078125.0 -0.89898681640625 -0.692291259765625
13033300000.0 -1.110107421875 -0.083740234375
13064521875.0 -1.01123046875 0.59893798828125
13095743750.0 -0.41650390625 1.16119384765625
13126965625.0 0.414306640625 1.1220703125
13158187500.0 0.951904296875 0.63055419921875
13189409375.0 1.1531982421875 -0.0257568359375
13220631250.0 0.937408447265625 -0.754425048828125
13251853125.0 0.22998046875 -1.17724609375
13283075000.0 -0.51141357421875 -1.02105712890625
13314296875.0 -0.99481201171875 -0.52728271484375
13345518750.0 -1.13922119140625 0.18328857421875
13376740625.0 -0.7515869140625 0.86297607421875
