!Created with skrf (http://scikit-rf.org).
# Hz S RI R 50.0 
!freq ReS11 ImS11
45000000.0 -0.07694244384765625 -0.09682464599609375
76221875.0 -0.1961822509765625 -0.0474700927734375
107443750.0 -0.254730224609375 0.119598388671875
138665625.0 -0.14801025390625 0.3283843994140625
169887500.0 0.1234130859375 0.4170989990234375
201109375.0 0.421478271484375 0.2806396484375
232331250.0 0.578460693359375 -0.05743408203125
263553125.0 0.489044189453125 -0.45220947265625
294775000.0 0.0982666015625 -0.731719970703125
325996875.0 -0.414794921875 -0.679962158203125
357218750.0 -0.805389404296875 -0.296600341796875
388440625.0 -0.884857177734375 0.30010986328125
419662500.0 -0.516693115234375 0.865234375
450884375.0 0.1728515625 1.02783203125
482106250.0 0.79754638671875 0.7117919921875
513328125.0 1.11834716796875 0.08734130859375
544550000.0 1.0028076171875 -0.6787109375
575771875.0 0.33624267578125 -1.23699951171875
606993750.0 -0.55322265625 -1.1761474609375
638215625.0 -1.16448974609375 -0.58990478515625
669437500.0 -1.33843994140625 0.23358154296875
700659375.0 -0.9698486328125 1.09490966796875
731881250.0 -0.00384521484375 1.54150390625
763103125.0 1.00469970703125 1.15460205078125
794325000.0 1.4671630859375 0.28155517578125
825546875.0 1.365478515625 -0.65045166015625
856768750.0 0.7938232421875 -1.39862060546875
887990625.0 -0.29156494140625 -1.64617919921875
919212500.0 -1.2861328125 -1.076904296875
950434375.0 -1.6458740234375 -0.05926513671875
981656250.0 -1.3807373046875 0.94439697265625
1012878125.0 -0.529052734375 1.66961669921875
1044100000.0 0.69573974609375 1.65960693359375
1075321875.0 1.5718994140625 0.81072998046875
1106543750.0 1.70220947265625 -0.31195068359375
1137765625.0 1.1851806640625 -1.281494140625
1168987500.0 0.1378173828125 -1.79449462890625
1200209375.0 -1.060302734375 -1.48138427734375
1231431250.0 -1.724853515625 -0.45269775390625
1262653125.0 -1.59185791015625 0.68280029296875
1293875000.0 -0.8505859375 1.489013671875
1325096875.0 0.227783203125 1.703857421875
1356318750.0 1.2333984375 1.2147216796875
1387540625.0 1.737060546875 0.1888427734375
1418762500.0 1.46685791015625 -0.94976806640625
1449984375.0 0.5283203125 -1.623291015625
1481206250.0 -0.54888916015625 -1.55352783203125
1512428125.0 -1.3397216796875 -0.91815185546875
1543650000.0 -1.65277099609375 0.065185546875
1574871875.0 -1.27154541015625 1.10687255859375
1606093750.0 -0.272705078125 1.62872314453125
1637315625.0 0.7408447265625 1.39837646484375
1668537500.0 1.39398193359375 0.6947021484375
1699759375.0 1.57086181640625 -0.27655029296875
1730981250.0 1.06268310546875 -1.2275390625
1762203125.0 0.04229736328125 -1.56805419921875
1793425000.0 -0.854736328125 -1.224365234375
1824646875.0 -1.39105224609375 -0.514404296875
1855868750.0 -1.47186279296875 0.43182373046875
1887090625.0 -0.8736572265625 1.2828369140625
1918312500.0 0.11676025390625 1.48406982421875
1949534375.0 0.91973876953125 1.08758544921875
1980756250.0 1.37255859375 0.3697509765625
2011978125.0 1.35736083984375 -0.530517578125
2043200000.0 0.7489013671875 -1.25927734375
2074421875.0 -0.1558837890625 -1.430419921875
2105643750.0 -0.958740234375 -1.07061767578125
2136865625.0 -1.445068359375 -0.30487060546875
2168087500.0 -1.35516357421875 0.6700439453125
2199309375.0 -0.6380615234375 1.34906005859375
2230531250.0 0.2811279296875 1.43341064453125
2261753125.0 1.07122802734375 1.01226806640625
2292975000.0 1.51190185546875 0.170166015625
2324196875.0 1.3037109375 -0.8175048828125
2355418750.0 0.52447509765625 -1.4173583984375
2386640625.0 -0.40350341796875 -1.44671630859375
2417862500.0 -1.17919921875 -1.0230712890625
2449084375.0 -1.6011962890625 -0.0843505859375
2480306250.0 -1.309326171875 0.9229736328125
2511528125.0 -0.49322509765625 1.50482177734375
2542750000.0 0.48785400390625 1.53326416015625
2573971875.0 1.36700439453125 0.9669189453125
2605193750.0 1.71453857421875 -0.1123046875
2636415625.0 1.25909423828125 -1.14923095703125
2667637500.0 0.305908203125 -1.66400146484375
2698859375.0 -0.76806640625 -1.5313720703125
2730081250.0 -1.56939697265625 -0.7388916015625
2761303125.0 -1.67779541015625 0.386962890625
2792525000.0 -1.09722900390625 1.3033447265625
2823746875.0 -0.1024169921875 1.72607421875
2854968750.0 1.00982666015625 1.452392578125
2886190625.0 1.68896484375 0.49072265625
2917412500.0 1.59674072265625 -0.61602783203125
2948634375.0 0.9378662109375 -1.42864990234375
2979856250.0 -0.1072998046875 -1.772705078125
3011078125.0 -1.2452392578125 -1.3397216796875
3042300000.0 -1.770263671875 -0.23541259765625
3073521875.0 -1.50543212890625 0.8355712890625
3104743750.0 -0.76165771484375 1.56500244140625
3135965625.0 0.3592529296875 1.8052978515625
3167187500.0 1.4937744140625 1.1624755859375
3198409375.0 1.81207275390625 -0.07470703125
3229631250.0 1.346435546875 -1.07830810546875
3260853125.0 0.4888916015625 -1.6644287109375
3292075000.0 -0.6524658203125 -1.69390869140625
3323296875.0 -1.615234375 -0.8780517578125
3354518750.0 -1.7264404296875 0.32830810546875
3385740625.0 -1.15338134765625 1.2294921875
3416962500.0 -0.23150634765625 1.677490234375
3448184375.0 0.85772705078125 1.51861572265625
3479406250.0 1.6319580078125 0.6434326171875
3510628125.0 1.64141845703125 -0.49395751953125
3541850000.0 0.9990234375 -1.35125732421875
3573071875.0 -0.007568359375 -1.6783447265625
3604293750.0 -1.02655029296875 -1.33526611328125
3635515625.0 -1.6243896484375 -0.43804931640625
3666737500.0 -1.5594482421875 0.64471435546875
3697959375.0 -0.82403564453125 1.47235107421875
3729181250.0 0.26727294921875 1.6279296875
3760403125.0 1.14935302734375 1.096435546875
3791625000.0 1.548583984375 0.21807861328125
3822846875.0 1.399169921875 -0.7587890625
3854068750.0 0.62005615234375 -1.4775390625
3885290625.0 -0.419189453125 -1.47784423828125
3916512500.0 -1.13909912109375 -0.9095458984375
3947734375.0 -1.44512939453125 -0.1197509765625
3978956250.0 -1.2950439453125 0.7772216796875
4010178125.0 -0.5303955078125 1.45135498046875
4041400000.0 0.47271728515625 1.41363525390625
4072621875.0 1.14874267578125 0.8465576171875
4103843750.0 1.441650390625 0.06390380859375
4135065625.0 1.26531982421875 -0.84307861328125
4166287500.0 0.4573974609375 -1.49212646484375
4197509375.0 -0.5550537109375 -1.4122314453125
4228731250.0 -1.24371337890625 -0.80181884765625
4259953125.0 -1.5062255859375 0.0699462890625
4291175000.0 -1.1864013671875 1.0078125
4322396875.0 -0.28924560546875 1.5235595703125
4353618750.0 0.67156982421875 1.347412109375
4384840625.0 1.31866455078125 0.6964111328125
4416062500.0 1.49822998046875 -0.22637939453125
4447284375.0 1.05389404296875 -1.10125732421875
4478506250.0 0.17254638671875 -1.49212646484375
4509728125.0 -0.7305908203125 -1.30523681640625
4540950000.0 -1.3912353515625 -0.6353759765625
4572171875.0 -1.5201416015625 0.35882568359375
4603393750.0 -0.9713134765625 1.21136474609375
4634615625.0 -0.06207275390625 1.53350830078125
4665837500.0 0.86773681640625 1.30230712890625
4697059375.0 1.5380859375 0.51495361328125
4728281250.0 1.52630615234375 -0.5806884765625
4759503125.0 0.82220458984375 -1.363525390625
4790725000.0 -0.1446533203125 -1.56939697265625
4821946875.0 -1.08026123046875 -1.1927490234375
4853168750.0 -1.61004638671875 -0.25177001953125
4884390625.0 -1.37628173828125 0.7908935546875
4915612500.0 -0.6129150390625 1.4091796875
4946834375.0 0.32794189453125 1.5072021484375
4978056250.0 1.202392578125 1.0159912109375
5009278125.0 1.55859375 0.04046630859375
5040500000.0 1.22705078125 -0.87335205078125
5071721875.0 0.50067138671875 -1.41229248046875
5102943750.0 -0.444580078125 -1.493896484375
5134165625.0 -1.33245849609375 -0.90472412109375
5165387500.0 -1.5650634765625 0.1448974609375
5196609375.0 -1.134765625 1.00830078125
5227831250.0 -0.35736083984375 1.5035400390625
5259053125.0 0.68536376953125 1.4896240234375
5290275000.0 1.51873779296875 0.66241455078125
5321496875.0 1.48974609375 -0.4290771484375
5352718750.0 0.919921875 -1.1512451171875
5383940625.0 0.09765625 -1.4964599609375
5415162500.0 -0.89886474609375 -1.28173828125
5446384375.0 -1.48150634765625 -0.3702392578125
5477606250.0 -1.29718017578125 0.56451416015625
5508828125.0 -0.7305908203125 1.14862060546875
5540050000.0 0.05328369140625 1.3961181640625
5571271875.0 0.93646240234375 1.10723876953125
5602493750.0 1.40625 0.260009765625
5633715625.0 1.23016357421875 -0.6109619140625
5664937500.0 0.6473388671875 -1.1986083984375
5696159375.0 -0.19580078125 -1.38165283203125
5727381250.0 -1.01959228515625 -0.97735595703125
5758603125.0 -1.3895263671875 -0.1456298828125
5789825000.0 -1.19219970703125 0.7156982421875
5821046875.0 -0.506103515625 1.3040771484375
5852268750.0 0.40960693359375 1.3111572265625
5883490625.0 1.06854248046875 0.77178955078125
5914712500.0 1.2999267578125 0.02069091796875
5945934375.0 1.09478759765625 -0.77471923828125
5977156250.0 0.36138916015625 -1.31005859375
6008378125.0 -0.5089111328125 -1.1810302734375
6039600000.0 -1.01953125 -0.6485595703125
6070821875.0 -1.22149658203125 -0.00494384765625
6102043750.0 -1.08203125 0.76116943359375
6133265625.0 -0.34259033203125 1.34136962890625
6164487500.0 0.5616455078125 1.18621826171875
6195709375.0 1.0679931640625 0.62945556640625
6226931250.0 1.27801513671875 -0.04241943359375
6258153125.0 1.1031494140625 -0.86883544921875
6289375000.0 0.25640869140625 -1.443359375
6320596875.0 -0.6866455078125 -1.20404052734375
6351818750.0 -1.1978759765625 -0.571533203125
6383040625.0 -1.351806640625 0.20452880859375
6414262500.0 -0.99920654296875 1.05517578125
6445484375.0 -0.07867431640625 1.45556640625
6476706250.0 0.7935791015625 1.14666748046875
6507928125.0 1.2882080078125 0.4700927734375
6539150000.0 1.345947265625 -0.38525390625
6570371875.0 0.840576171875 -1.141357421875
6601593750.0 -0.0167236328125 -1.403076171875
6632815625.0 -0.83807373046875 -1.13531494140625
6664037500.0 -1.3994140625 -0.41949462890625
6695259375.0 -1.3721923828125 0.5650634765625
6726481250.0 -0.70941162109375 1.248779296875
6757703125.0 0.13037109375 1.40509033203125
6788925000.0 0.9532470703125 1.1295166015625
6820146875.0 1.5584716796875 0.28826904296875
6851368750.0 1.32373046875 -0.817626953125
6882590625.0 0.50592041015625 -1.33648681640625
6913812500.0 -0.29168701171875 -1.354248046875
6945034375.0 -1.0682373046875 -1.02093505859375
6976256250.0 -1.58966064453125 -0.0943603515625
7007478125.0 -1.2342529296875 0.92962646484375
7038700000.0 -0.40264892578125 1.3399658203125
7069921875.0 0.35662841796875 1.32135009765625
7101143750.0 1.11529541015625 0.9661865234375
7132365625.0 1.5982666015625 0.01519775390625
7163587500.0 1.1558837890625 -1.01788330078125
7194809375.0 0.30267333984375 -1.39306640625
7226031250.0 -0.50921630859375 -1.32342529296875
7257253125.0 -1.26446533203125 -0.8231201171875
7288475000.0 -1.55682373046875 0.19622802734375
7319696875.0 -1.0281982421875 1.10675048828125
7350918750.0 -0.1644287109375 1.44085693359375
7382140625.0 0.71417236328125 1.27508544921875
7413362500.0 1.373046875 0.575439453125
7444584375.0 1.40948486328125 -0.40496826171875
7475806250.0 0.8583984375 -1.1409912109375
7507028125.0 0.0067138671875 -1.42724609375
7538250000.0 -0.8870849609375 -1.1219482421875
7569471875.0 -1.33447265625 -0.3115234375
7600693750.0 -1.20111083984375 0.4959716796875
7631915625.0 -0.7171630859375 1.0841064453125
7663137500.0 0.08001708984375 1.35693359375
7694359375.0 0.937347412109375 0.98040771484375
7725581250.0 1.2423095703125 0.1800537109375
7756803125.0 1.08038330078125 -0.4969482421875
7788025000.0 0.67010498046875 -1.0411376953125
7819246875.0 -0.11920166015625 -1.3443603515625
7850468750.0 -0.990447998046875 -0.9149169921875
7881690625.0 -1.2301025390625 -0.104736328125
7912912500.0 -1.0531005859375 0.5523681640625
7944134375.0 -0.60479736328125 1.111572265625
7975356250.0 0.27081298828125 1.33441162109375
8006578125.0 1.04345703125 0.778564453125
8037800000.0 1.19189453125 0.01580810546875
8069021875.0 1.0057373046875 -0.616455078125
8100243750.0 0.499267578125 -1.161376953125
8131465625.0 -0.38665771484375 -1.25286865234375
8162687500.0 -1.0296630859375 -0.685791015625
8193909375.0 -1.17901611328125 0.007568359375
8225131250.0 -1.0172119140625 0.67791748046875
8256353125.0 -0.421630859375 1.24603271484375
8287575000.0 0.5018310546875 1.22650146484375
8318796875.0 1.08209228515625 0.63525390625
8350018750.0 1.24359130859375 -0.074951171875
8381240625.0 1.030029296875 -0.8372802734375
8412462500.0 0.2548828125 -1.37164306640625
8443684375.0 -0.66888427734375 -1.16937255859375
8474906250.0 -1.173583984375 -0.5321044921875
8506128125.0 -1.2960205078125 0.23455810546875
8537350000.0 -0.92431640625 1.04364013671875
8568571875.0 -0.0172119140625 1.39080810546875
8599793750.0 0.799560546875 1.05316162109375
8631015625.0 1.23980712890625 0.3985595703125
8662237500.0 1.284912109375 -0.4267578125
8693459375.0 0.73614501953125 -1.17584228515625
8724681250.0 -0.16168212890625 -1.32940673828125
8755903125.0 -0.878753662109375 -0.956390380859375
8787125000.0 -1.301025390625 -0.281982421875
8818346875.0 -1.24920654296875 0.6138916015625
8849568750.0 -0.55609130859375 1.25909423828125
8880790625.0 0.2984619140625 1.2833251953125
8912012500.0 0.977935791015625 0.891265869140625
8943234375.0 1.396484375 0.12921142578125
8974456250.0 1.16607666015625 -0.83721923828125
9005678125.0 0.3492431640625 -1.31207275390625
9036900000.0 -0.44354248046875 -1.2227783203125
9068121875.0 -1.1024169921875 -0.78564453125
9099343750.0 -1.4384765625 0.095458984375
9130565625.0 -0.9786376953125 1.009765625
9161787500.0 -0.15509033203125 1.28070068359375
9193009375.0 0.55450439453125 1.13299560546875
9224231250.0 1.17889404296875 0.65435791015625
9255453125.0 1.3970947265625 -0.29437255859375
9286675000.0 0.80609130859375 -1.08392333984375
9317896875.0 0.02783203125 -1.24505615234375
9349118750.0 -0.65350341796875 -1.0693359375
9380340625.0 -1.25537109375 -0.50946044921875
9411562500.0 -1.31024169921875 0.47528076171875
9442784375.0 -0.64837646484375 1.11529541015625
9474006250.0 0.08758544921875 1.20892333984375
9505228125.0 0.76300048828125 0.979461669921875
9536450000.0 1.269775390625 0.31488037109375
9567671875.0 1.1431884765625 -0.5804443359375
9598893750.0 0.53009033203125 -1.06573486328125
9630115625.0 -0.1431884765625 -1.15753173828125
9661337500.0 -0.818572998046875 -0.901580810546875
9692559375.0 -1.2373046875 -0.1904296875
9723781250.0 -1.042724609375 0.601318359375
9755003125.0 -0.4857177734375 1.048583984375
9786225000.0 0.1971435546875 1.1571044921875
9817446875.0 0.89215087890625 0.8272705078125
9848668750.0 1.19635009765625 0.07891845703125
9879890625.0 0.968170166015625 -0.617401123046875
9911112500.0 0.4527587890625 -1.0501708984375
9942334375.0 -0.26666259765625 -1.15838623046875
9973556250.0 -0.939544677734375 -0.7388916015625
10004778125.0 -1.14453125 -0.01910400390625
10036000000.0 -0.94342041015625 0.615203857421875
10067221875.0 -0.44183349609375 1.09527587890625
10098443750.0 0.3662109375 1.1798095703125
10129665625.0 1.0018310546875 0.643798828125
10160887500.0 1.118408203125 -0.05120849609375
10192109375.0 0.916534423828125 -0.659423828125
10223331250.0 0.36187744140625 -1.15020751953125
10254553125.0 -0.4854736328125 -1.11273193359375
10285775000.0 -0.984100341796875 -0.536468505859375
10316996875.0 -1.0662841796875 0.0762939453125
10348218750.0 -0.899871826171875 0.66900634765625
10379440625.0 -0.32183837890625 1.17449951171875
10410662500.0 0.525634765625 1.0849609375
10441884375.0 0.990325927734375 0.522125244140625
10473106250.0 1.1075439453125 -0.08258056640625
10504328125.0 0.948974609375 -0.755218505859375
10535550000.0 0.239501953125 -1.293212890625
10566771875.0 -0.653564453125 -1.07635498046875
10597993750.0 -1.07830810546875 -0.459716796875
10629215625.0 -1.17431640625 0.20379638671875
10660437500.0 -0.88714599609375 0.948822021484375
10691659375.0 -0.01031494140625 1.33282470703125
10722881250.0 0.782196044921875 0.951080322265625
10754103125.0 1.118408203125 0.32562255859375
10785325000.0 1.13824462890625 -0.36541748046875
10816546875.0 0.7005615234375 -1.046630859375
10847768750.0 -0.1451416015625 -1.22821044921875
10878990625.0 -0.80224609375 -0.842987060546875
10910212500.0 -1.12103271484375 -0.24560546875
10941434375.0 -1.096435546875 0.47467041015625
10972656250.0 -0.56854248046875 1.08380126953125
11003878125.0 0.21490478515625 1.17242431640625
11035100000.0 0.847381591796875 0.8218994140625
11066321875.0 1.2183837890625 0.175537109375
11097543750.0 1.09747314453125 -0.67254638671875
11128765625.0 0.38653564453125 -1.19671630859375
11159987500.0 -0.392578125 -1.13787841796875
11191209375.0 -0.99920654296875 -0.7037353515625
11222431250.0 -1.271484375 0.09222412109375
11253653125.0 -0.859405517578125 0.893951416015625
11284875000.0 -0.1168212890625 1.12359619140625
11316096875.0 0.509796142578125 0.955352783203125
11347318750.0 1.00091552734375 0.502685546875
11378540625.0 1.11712646484375 -0.26776123046875
11409762500.0 0.63470458984375 -0.8582763671875
11440984375.0 0.036163330078125 -0.978515625
11472206250.0 -0.479248046875 -0.849700927734375
11503428125.0 -0.9521484375 -0.455841064453125
11534650000.0 -1.066650390625 0.286865234375
11565871875.0 -0.602294921875 0.853912353515625
11597093750.0 -0.01922607421875 0.990753173828125
11628315625.0 0.543731689453125 0.8748779296875
11659537500.0 1.05987548828125 0.3917236328125
11690759375.0 1.0640869140625 -0.43218994140625
11721981250.0 0.516815185546875 -0.938812255859375
11753203125.0 -0.10626220703125 -1.03656005859375
11784425000.0 -0.722686767578125 -0.807891845703125
11815646875.0 -1.09991455078125 -0.15093994140625
11846868750.0 -0.890380859375 0.549285888671875
11878090625.0 -0.39093017578125 0.907073974609375
11909312500.0 0.18560791015625 0.9844970703125
11940534375.0 0.77984619140625 0.694366455078125
11971756250.0 1.0240478515625 0.040283203125
12002978125.0 0.80609130859375 -0.537109375
12034200000.0 0.381988525390625 -0.889312744140625
12065421875.0 -0.21380615234375 -1.00946044921875
12096643750.0 -0.847412109375 -0.66497802734375
12127865625.0 -1.031494140625 0.0146484375
12159087500.0 -0.8143310546875 0.57427978515625
12190309375.0 -0.378143310546875 0.974151611328125
12221531250.0 0.337890625 1.08721923828125
12252753125.0 0.979644775390625 0.58221435546875
12283975000.0 1.0533447265625 -0.12603759765625
12315196875.0 0.79937744140625 -0.67730712890625
12346418750.0 0.2808837890625 -1.08941650390625
12377640625.0 -0.53466796875 -1.05987548828125
12408862500.0 -1.0316162109375 -0.42071533203125
12440084375.0 -1.00634765625 0.22198486328125
12471306250.0 -0.74163818359375 0.735992431640625
12502528125.0 -0.1805419921875 1.1177978515625
12533750000.0 0.6173095703125 0.99310302734375
12564971875.0 1.04010009765625 0.36541748046875
12596193750.0 1.02923583984375 -0.26318359375
12627415625.0 0.747406005859375 -0.828125
12658637500.0 0.08056640625 -1.20513916015625
12689859375.0 -0.73394775390625 -0.96630859375
12721081250.0 -1.11505126953125 -0.30670166015625
12752303125.0 -1.09686279296875 0.38250732421875
12783525000.0 -0.6868896484375 1.02862548828125
12814746875.0 0.16436767578125 1.25048828125
12845968750.0 0.862640380859375 0.81182861328125
12877190625.0 1.1162109375 0.17333984375
12908412500.0 1.0537109375 -0.50042724609375
12939634375.0 0.54351806640625 -1.1153564453125
12970856250.0 -0.32037353515625 -1.17388916015625
13002078125.0 -0.8936767578125 -0.693389892578125
13033300000.0 -1.10308837890625 -0.08929443359375
13064521875.0 -1.008056640625 0.59149169921875
13095743750.0 -0.419677734375 1.154052734375
13126965625.0 0.40557861328125 1.12005615234375
13158187500.0 0.94586181640625 0.632232666015625
13189409375.0 1.14739990234375 -0.02001953125
13220631250.0 0.93621826171875 -0.746795654296875
13251853125.0 0.23431396484375 -1.171142578125
13283075000.0 -0.50604248046875 -1.01959228515625
13314296875.0 -0.985504150390625 -0.5289306640625
13345518750.0 -1.13470458984375 0.17706298828125
