!Created with skrf (http://scikit-rf.org).
# Hz S RI R 50.0 
!freq ReS11 ImS11
45000000.0 -0.07740402221679688 -0.096954345703125
76221875.0 -0.1974945068359375 -0.04750823974609375
107443750.0 -0.2561187744140625 0.1206817626953125
138665625.0 -0.1482696533203125 0.3302764892578125
169887500.0 0.1243133544921875 0.419281005859375
201109375.0 0.423614501953125 0.2819671630859375
232331250.0 0.581329345703125 -0.057861328125
263553125.0 0.491455078125 -0.4555206298828125
294775000.0 0.09814453125 -0.736480712890625
325996875.0 -0.418304443359375 -0.68389892578125
357218750.0 -0.811126708984375 -0.298095703125
388440625.0 -0.890228271484375 0.303436279296875
419662500.0 -0.519134521484375 0.87158203125
450884375.0 0.17462158203125 1.03375244140625
482106250.0 0.80267333984375 0.715545654296875
513328125.0 1.1246337890625 0.086669921875
544550000.0 1.00750732421875 -0.6832275390625
575771875.0 0.3367919921875 -1.24322509765625
606993750.0 -0.5565185546875 -1.181640625
638215625.0 -1.170654296875 -0.5924072265625
669437500.0 -1.3448486328125 0.23492431640625
700659375.0 -0.974365234375 1.1009521484375
731881250.0 -0.00335693359375 1.5489501953125
763103125.0 1.00946044921875 1.1605224609375
794325000.0 1.47491455078125 0.28289794921875
825546875.0 1.37261962890625 -0.6546630859375
856768750.0 0.7972412109375 -1.4083251953125
887990625.0 -0.29608154296875 -1.6566162109375
919212500.0 -1.29620361328125 -1.0833740234375
950434375.0 -1.6573486328125 -0.05755615234375
981656250.0 -1.38897705078125 0.95257568359375
1012878125.0 -0.5308837890625 1.6812744140625
1044100000.0 0.70220947265625 1.670166015625
1075321875.0 1.58416748046875 0.81500244140625
1106543750.0 1.71319580078125 -0.3160400390625
1137765625.0 1.19158935546875 -1.2921142578125
1168987500.0 0.13775634765625 -1.80609130859375
1200209375.0 -1.06866455078125 -1.49072265625
1231431250.0 -1.7366943359375 -0.45416259765625
1262653125.0 -1.6011962890625 0.6900634765625
1293875000.0 -0.85455322265625 1.49920654296875
1325096875.0 0.229736328125 1.7144775390625
1356318750.0 1.24200439453125 1.22216796875
1387540625.0 1.748291015625 0.18914794921875
1418762500.0 1.47540283203125 -0.95684814453125
1449984375.0 0.5306396484375 -1.63397216796875
1481206250.0 -0.55316162109375 -1.56280517578125
1512428125.0 -1.34912109375 -0.923095703125
1543650000.0 -1.66302490234375 0.06707763671875
1574871875.0 -1.27777099609375 1.11480712890625
1606093750.0 -0.2725830078125 1.6385498046875
1637315625.0 0.74676513671875 1.406005859375
1668537500.0 1.40264892578125 0.6976318359375
1699759375.0 1.57904052734375 -0.27862548828125
1730981250.0 1.0673828125 -1.2353515625
1762203125.0 0.0416259765625 -1.576171875
1793425000.0 -0.8602294921875 -1.231201171875
1824646875.0 -1.39910888671875 -0.51629638671875
1855868750.0 -1.47967529296875 0.43463134765625
1887090625.0 -0.87811279296875 1.29107666015625
1918312500.0 0.118408203125 1.492919921875
1949534375.0 0.9259033203125 1.0931396484375
1980756250.0 1.3809814453125 0.37066650390625
2011978125.0 1.3651123046875 -0.53485107421875
2043200000.0 0.752197265625 -1.26702880859375
2074421875.0 -0.1585693359375 -1.4388427734375
2105643750.0 -0.9649658203125 -1.075927734375
2136865625.0 -1.4532470703125 -0.3045654296875
2168087500.0 -1.3616943359375 0.6744384765625
2199309375.0 -0.640625 1.35662841796875
2230531250.0 0.2838134765625 1.44134521484375
2261753125.0 1.0771484375 1.0167236328125
2292975000.0 1.52008056640625 0.1700439453125
2324196875.0 1.30999755859375 -0.822509765625
2355418750.0 0.5264892578125 -1.42547607421875
2386640625.0 -0.40631103515625 -1.4539794921875
2417862500.0 -1.18756103515625 -1.0277099609375
2449084375.0 -1.6126708984375 -0.081787109375
2480306250.0 -1.3162841796875 0.93194580078125
2511528125.0 -0.4940185546875 1.515380859375
2542750000.0 0.4925537109375 1.54254150390625
2573971875.0 1.37872314453125 0.9713134765625
2605193750.0 1.7254638671875 -0.114990234375
2636415625.0 1.26678466796875 -1.1600341796875
2667637500.0 0.30609130859375 -1.6746826171875
2698859375.0 -0.77532958984375 -1.54052734375
2730081250.0 -1.58154296875 -0.7423095703125
2761303125.0 -1.689453125 0.3922119140625
2792525000.0 -1.10321044921875 1.3162841796875
2823746875.0 -0.1007080078125 1.73828125
2854968750.0 1.01910400390625 1.4619140625
2886190625.0 1.700439453125 0.49212646484375
2917412500.0 1.607421875 -0.6229248046875
2948634375.0 0.942626953125 -1.44207763671875
2979856250.0 -0.11114501953125 -1.78515625
3011078125.0 -1.25531005859375 -1.34716796875
3042300000.0 -1.78436279296875 -0.23223876953125
3073521875.0 -1.51434326171875 0.8427734375
3104743750.0 -0.76483154296875 1.5782470703125
3135965625.0 0.36572265625 1.81793212890625
3167187500.0 1.50787353515625 1.16802978515625
3198409375.0 1.82452392578125 -0.07794189453125
3229631250.0 1.35394287109375 -1.0872802734375
3260853125.0 0.49005126953125 -1.6766357421875
3292075000.0 -0.66107177734375 -1.70556640625
3323296875.0 -1.62896728515625 -0.8812255859375
3354518750.0 -1.73779296875 0.33282470703125
3385740625.0 -1.1595458984375 1.23724365234375
3416962500.0 -0.23052978515625 1.68939208984375
3448184375.0 0.86541748046875 1.52783203125
3479406250.0 1.64398193359375 0.64599609375
3510628125.0 1.65118408203125 -0.49920654296875
3541850000.0 1.00323486328125 -1.3621826171875
3573071875.0 -0.009521484375 -1.68939208984375
3604293750.0 -1.03466796875 -1.34246826171875
3635515625.0 -1.6356201171875 -0.43902587890625
3666737500.0 -1.5679931640625 0.65069580078125
3697959375.0 -0.82696533203125 1.482666015625
3729181250.0 0.27142333984375 1.63812255859375
3760403125.0 1.158935546875 1.1014404296875
3791625000.0 1.55914306640625 0.21826171875
3822846875.0 1.40765380859375 -0.76556396484375
3854068750.0 0.6214599609375 -1.48858642578125
3885290625.0 -0.42486572265625 -1.48687744140625
3916512500.0 -1.14727783203125 -0.9136962890625
3947734375.0 -1.45404052734375 -0.11895751953125
3978956250.0 -1.30303955078125 0.7838134765625
4010178125.0 -0.53167724609375 1.46099853515625
4041400000.0 0.477294921875 1.4207763671875
4072621875.0 1.15863037109375 0.8494873046875
4103843750.0 1.4505615234375 0.06121826171875
4135065625.0 1.2713623046875 -0.85089111328125
4166287500.0 0.45751953125 -1.50384521484375
4197509375.0 -0.5616455078125 -1.41986083984375
4228731250.0 -1.25347900390625 -0.80413818359375
4259953125.0 -1.51458740234375 0.07208251953125
4291175000.0 -1.192138671875 1.01568603515625
4322396875.0 -0.2882080078125 1.5335693359375
4353618750.0 0.6776123046875 1.3543701171875
4384840625.0 1.32928466796875 0.69793701171875
4416062500.0 1.5068359375 -0.23089599609375
4447284375.0 1.05792236328125 -1.10980224609375
4478506250.0 0.171142578125 -1.50128173828125
4509728125.0 -0.7376708984375 -1.31182861328125
4540950000.0 -1.40045166015625 -0.63616943359375
4572171875.0 -1.528076171875 0.36328125
4603393750.0 -0.97418212890625 1.21917724609375
4634615625.0 -0.05926513671875 1.54339599609375
4665837500.0 0.8741455078125 1.30804443359375
4697059375.0 1.54815673828125 0.51568603515625
4728281250.0 1.5340576171875 -0.58673095703125
4759503125.0 0.82440185546875 -1.37310791015625
4790725000.0 -0.14862060546875 -1.5789794921875
4821946875.0 -1.09063720703125 -1.197998046875
4853168750.0 -1.620361328125 -0.2503662109375
4884390625.0 -1.382568359375 0.79705810546875
4915612500.0 -0.6141357421875 1.41900634765625
4946834375.0 0.33197021484375 1.51483154296875
4978056250.0 1.21063232421875 1.0201416015625
5009278125.0 1.5679931640625 0.037841796875
5040500000.0 1.23291015625 -0.88116455078125
5071721875.0 0.5018310546875 -1.42059326171875
5102943750.0 -0.44964599609375 -1.5020751953125
5134165625.0 -1.3424072265625 -0.9073486328125
5165387500.0 -1.574462890625 0.1492919921875
5196609375.0 -1.13916015625 1.0150146484375
5227831250.0 -0.35699462890625 1.51275634765625
5259053125.0 0.69256591796875 1.4976806640625
5290275000.0 1.52838134765625 0.66375732421875
5321496875.0 1.49871826171875 -0.43524169921875
5352718750.0 0.923583984375 -1.15802001953125
5383940625.0 0.0960693359375 -1.505126953125
5415162500.0 -0.90521240234375 -1.28729248046875
5446384375.0 -1.49017333984375 -0.36993408203125
5477606250.0 -1.303466796875 0.57037353515625
5508828125.0 -0.7325439453125 1.15655517578125
5540050000.0 0.05633544921875 1.405029296875
5571271875.0 0.94378662109375 1.1124267578125
5602493750.0 1.4151611328125 0.25872802734375
5633715625.0 1.23583984375 -0.61602783203125
5664937500.0 0.64923095703125 -1.2076416015625
5696159375.0 -0.199462890625 -1.38922119140625
5727381250.0 -1.0263671875 -0.98126220703125
5758603125.0 -1.397705078125 -0.14349365234375
5789825000.0 -1.1978759765625 0.7215576171875
5821046875.0 -0.50628662109375 1.313232421875
5852268750.0 0.4149169921875 1.3179931640625
5883490625.0 1.0770263671875 0.77398681640625
5914712500.0 1.30841064453125 0.01776123046875
5945934375.0 1.099853515625 -0.7802734375
5977156250.0 0.36114501953125 -1.3179931640625
6008378125.0 -0.5133056640625 -1.186279296875
6039600000.0 -1.02557373046875 -0.650390625
6070821875.0 -1.22979736328125 -0.0018310546875
6102043750.0 -1.0872802734375 0.768310546875
6133265625.0 -0.34100341796875 1.35076904296875
6164487500.0 0.56744384765625 1.19140625
6195709375.0 1.07537841796875 0.63140869140625
6226931250.0 1.284912109375 -0.04437255859375
6258153125.0 1.107666015625 -0.8768310546875
6289375000.0 0.25421142578125 -1.45294189453125
6320596875.0 -0.6943359375 -1.20977783203125
6351818750.0 -1.20587158203125 -0.57275390625
6383040625.0 -1.3599853515625 0.20965576171875
6414262500.0 -1.00250244140625 1.06402587890625
6445484375.0 -0.0753173828125 1.4642333984375
6476706250.0 0.80029296875 1.151123046875
6507928125.0 1.2957763671875 0.469482421875
6539150000.0 1.3524169921875 -0.389892578125
6570371875.0 0.84295654296875 -1.1505126953125
6601593750.0 -0.02032470703125 -1.41131591796875
6632815625.0 -0.84381103515625 -1.1397705078125
6664037500.0 -1.40753173828125 -0.4189453125
6695259375.0 -1.3779296875 0.57025146484375
6726481250.0 -0.71142578125 1.2576904296875
6757703125.0 0.1337890625 1.4129638671875
6788925000.0 0.95941162109375 1.13372802734375
6820146875.0 1.5677490234375 0.28643798828125
6851368750.0 1.33013916015625 -0.824462890625
6882590625.0 0.50701904296875 -1.34381103515625
6913812500.0 -0.2952880859375 -1.36151123046875
6945034375.0 -1.07611083984375 -1.0242919921875
6976256250.0 -1.59967041015625 -0.09051513671875
7007478125.0 -1.24029541015625 0.94024658203125
7038700000.0 -0.401123046875 1.35064697265625
7069921875.0 0.3642578125 1.330078125
7101143750.0 1.1275634765625 0.97149658203125
7132365625.0 1.6082763671875 0.01055908203125
7163587500.0 1.16021728515625 -1.02691650390625
7194809375.0 0.301513671875 -1.4034423828125
7226031250.0 -0.5169677734375 -1.33111572265625
7257253125.0 -1.2747802734375 -0.82562255859375
7288475000.0 -1.56640625 0.203125
7319696875.0 -1.03302001953125 1.11651611328125
7350918750.0 -0.16241455078125 1.45172119140625
7382140625.0 0.72052001953125 1.2813720703125
7413362500.0 1.384521484375 0.5767822265625
7444584375.0 1.4169921875 -0.4111328125
7475806250.0 0.8604736328125 -1.14959716796875
7507028125.0 0.00323486328125 -1.4359130859375
7538250000.0 -0.89483642578125 -1.12823486328125
7569471875.0 -1.34332275390625 -0.310302734375
7600693750.0 -1.20758056640625 0.50152587890625
7631915625.0 -0.72003173828125 1.0927734375
7663137500.0 0.08428955078125 1.36627197265625
7694359375.0 0.946563720703125 0.983795166015625
7725581250.0 1.24981689453125 0.1798095703125
7756803125.0 1.08807373046875 -0.5042724609375
7788025000.0 0.67132568359375 -1.04949951171875
7819246875.0 -0.12371826171875 -1.354248046875
7850468750.0 -0.998687744140625 -0.918487548828125
7881690625.0 -1.238525390625 -0.10308837890625
7912912500.0 -1.05853271484375 0.5587158203125
7944134375.0 -0.6065673828125 1.11944580078125
7975356250.0 0.2760009765625 1.34210205078125
8006578125.0 1.05511474609375 0.780517578125
8037800000.0 1.19866943359375 0.01373291015625
8069021875.0 1.0107421875 -0.62274169921875
8100243750.0 0.4996337890625 -1.16876220703125
8131465625.0 -0.3905029296875 -1.2578125
8162687500.0 -1.03753662109375 -0.68731689453125
8193909375.0 -1.18487548828125 0.0107421875
8225131250.0 -1.021484375 0.6826171875
8256353125.0 -0.4207763671875 1.25677490234375
8287575000.0 0.5076904296875 1.23162841796875
8318796875.0 1.0887451171875 0.63641357421875
8350018750.0 1.25030517578125 -0.07830810546875
8381240625.0 1.0347900390625 -0.84393310546875
8412462500.0 0.25213623046875 -1.380615234375
8443684375.0 -0.67401123046875 -1.17425537109375
8474906250.0 -1.18310546875 -0.53167724609375
8506128125.0 -1.30364990234375 0.24041748046875
8537350000.0 -0.9268798828125 1.05377197265625
8568571875.0 -0.0133056640625 1.4014892578125
8599793750.0 0.80810546875 1.05731201171875
8631015625.0 1.247802734375 0.39837646484375
8662237500.0 1.29132080078125 -0.43389892578125
8693459375.0 0.7374267578125 -1.18450927734375
8724681250.0 -0.165283203125 -1.3389892578125
8755903125.0 -0.886260986328125 -0.959991455078125
8787125000.0 -1.31036376953125 -0.28204345703125
8818346875.0 -1.25604248046875 0.6220703125
8849568750.0 -0.55560302734375 1.2696533203125
8880790625.0 0.30291748046875 1.2900390625
8912012500.0 0.986053466796875 0.896026611328125
8943234375.0 1.40625 0.12701416015625
8974456250.0 1.17071533203125 -0.84686279296875
9005678125.0 0.34637451171875 -1.31939697265625
9036900000.0 -0.45025634765625 -1.23046875
9068121875.0 -1.10833740234375 -0.7877197265625
9099343750.0 -1.44915771484375 0.10198974609375
9130565625.0 -0.98028564453125 1.01739501953125
9161787500.0 -0.15240478515625 1.28955078125
9193009375.0 0.5615234375 1.138427734375
9224231250.0 1.1875 0.65625
9255453125.0 1.4051513671875 -0.29913330078125
9286675000.0 0.807861328125 -1.0933837890625
9317896875.0 0.0233154296875 -1.25469970703125
9349118750.0 -0.65948486328125 -1.073974609375
9380340625.0 -1.2642822265625 -0.50921630859375
9411562500.0 -1.315673828125 0.4815673828125
9442784375.0 -0.64892578125 1.12261962890625
9474006250.0 0.09014892578125 1.216064453125
9505228125.0 0.77142333984375 0.983062744140625
9536450000.0 1.2828369140625 0.31109619140625
9567671875.0 1.1480712890625 -0.5853271484375
9598893750.0 0.529052734375 -1.0760498046875
9630115625.0 -0.1474609375 -1.1634521484375
9661337500.0 -0.822509765625 -0.90545654296875
9692559375.0 -1.24591064453125 -0.1873779296875
9723781250.0 -1.04742431640625 0.6083984375
9755003125.0 -0.4862060546875 1.05633544921875
9786225000.0 0.20086669921875 1.1649169921875
9817446875.0 0.90020751953125 0.829620361328125
9848668750.0 1.20343017578125 0.076171875
9879890625.0 0.97088623046875 -0.620452880859375
9911112500.0 0.451904296875 -1.0594482421875
9942334375.0 -0.27056884765625 -1.16375732421875
9973556250.0 -0.9495849609375 -0.738555908203125
10004778125.0 -1.15032958984375 -0.01593017578125
10036000000.0 -0.946685791015625 0.6207275390625
10067221875.0 -0.440673828125 1.10345458984375
10098443750.0 0.37591552734375 1.18682861328125
10129665625.0 1.01025390625 0.641357421875
10160887500.0 1.1251220703125 -0.054443359375
10192109375.0 0.92047119140625 -0.66986083984375
10223331250.0 0.35986328125 -1.1593017578125
10254553125.0 -0.49066162109375 -1.1173095703125
10285775000.0 -0.9906005859375 -0.5355224609375
10316996875.0 -1.072509765625 0.0794677734375
10348218750.0 -0.902099609375 0.675201416015625
10379440625.0 -0.320556640625 1.1820068359375
10410662500.0 0.53271484375 1.0887451171875
10441884375.0 0.998199462890625 0.520599365234375
10473106250.0 1.1136474609375 -0.08660888671875
10504328125.0 0.951446533203125 -0.76214599609375
10535550000.0 0.23760986328125 -1.3013916015625
10566771875.0 -0.66375732421875 -1.0804443359375
10597993750.0 -1.0867919921875 -0.45782470703125
10629215625.0 -1.1806640625 0.2108154296875
10660437500.0 -0.88916015625 0.959075927734375
10691659375.0 -0.0062255859375 1.3419189453125
10722881250.0 0.79193115234375 0.955108642578125
10754103125.0 1.12542724609375 0.32421875
10785325000.0 1.144287109375 -0.3726806640625
10816546875.0 0.700927734375 -1.0560302734375
10847768750.0 -0.14886474609375 -1.23406982421875
10878990625.0 -0.80804443359375 -0.845977783203125
10910212500.0 -1.1278076171875 -0.24432373046875
10941434375.0 -1.100830078125 0.4818115234375
10972656250.0 -0.5675048828125 1.091064453125
11003878125.0 0.220458984375 1.1785888671875
11035100000.0 0.854522705078125 0.822998046875
11066321875.0 1.22674560546875 0.17291259765625
11097543750.0 1.1029052734375 -0.6820068359375
11128765625.0 0.38507080078125 -1.2047119140625
11159987500.0 -0.401611328125 -1.14312744140625
11191209375.0 -1.00701904296875 -0.703857421875
11222431250.0 -1.27899169921875 0.09735107421875
11253653125.0 -0.860809326171875 0.903167724609375
11284875000.0 -0.11175537109375 1.1329345703125
11316096875.0 0.517486572265625 0.959716796875
11347318750.0 1.009765625 0.50201416015625
11378540625.0 1.1220703125 -0.2738037109375
11409762500.0 0.634918212890625 -0.864105224609375
11440984375.0 0.032806396484375 -0.983612060546875
11472206250.0 -0.484588623046875 -0.853424072265625
11503428125.0 -0.957305908203125 -0.456298828125
11534650000.0 -1.0721435546875 0.2926025390625
11565871875.0 -0.602203369140625 0.860260009765625
11597093750.0 -0.0166015625 0.99560546875
11628315625.0 0.54888916015625 0.878326416015625
11659537500.0 1.0653076171875 0.3917236328125
11690759375.0 1.06854248046875 -0.43682861328125
11721981250.0 0.5164794921875 -0.947265625
11753203125.0 -0.109130859375 -1.0411376953125
11784425000.0 -0.73028564453125 -0.810760498046875
11815646875.0 -1.1053466796875 -0.14984130859375
11846868750.0 -0.8929443359375 0.556060791015625
11878090625.0 -0.3907470703125 0.91461181640625
11909312500.0 0.19183349609375 0.99005126953125
11940534375.0 0.787445068359375 0.69635009765625
11971756250.0 1.02923583984375 0.03765869140625
12002978125.0 0.8082275390625 -0.5404052734375
12034200000.0 0.380706787109375 -0.8941650390625
12065421875.0 -0.21917724609375 -1.01434326171875
12096643750.0 -0.854644775390625 -0.66571044921875
12127865625.0 -1.03924560546875 0.0203857421875
12159087500.0 -0.816619873046875 0.58135986328125
12190309375.0 -0.3770751953125 0.98040771484375
12221531250.0 0.3428955078125 1.0924072265625
12252753125.0 0.986083984375 0.581573486328125
12283975000.0 1.05865478515625 -0.131591796875
12315196875.0 0.80267333984375 -0.681640625
12346418750.0 0.2799072265625 -1.0992431640625
12377640625.0 -0.544677734375 -1.06378173828125
12408862500.0 -1.04150390625 -0.41815185546875
12440084375.0 -1.01239013671875 0.22784423828125
12471306250.0 -0.742919921875 0.7427978515625
12502528125.0 -0.17724609375 1.12701416015625
12533750000.0 0.62567138671875 0.9962158203125
12564971875.0 1.04766845703125 0.36224365234375
12596193750.0 1.03314208984375 -0.26824951171875
12627415625.0 0.749481201171875 -0.833892822265625
12658637500.0 0.075927734375 -1.21392822265625
12689859375.0 -0.741912841796875 -0.968658447265625
12721081250.0 -1.12274169921875 -0.30511474609375
12752303125.0 -1.102294921875 0.38623046875
12783525000.0 -0.687744140625 1.0360107421875
12814746875.0 0.168212890625 1.25537109375
12845968750.0 0.870391845703125 0.811920166015625
12877190625.0 1.12408447265625 0.169677734375
12908412500.0 1.0582275390625 -0.5064697265625
12939634375.0 0.54119873046875 -1.12420654296875
12970856250.0 -0.32305908203125 -1.17840576171875
13002078125.0 -0.901275634765625 -0.694091796875
13033300000.0 -1.11077880859375 -0.08404541015625
13064521875.0 -1.01287841796875 0.6026611328125
13095743750.0 -0.41888427734375 1.15985107421875
13126965625.0 0.41339111328125 1.1236572265625
13158187500.0 0.95245361328125 0.633209228515625
13189409375.0 1.15380859375 -0.024658203125
13220631250.0 0.938385009765625 -0.75555419921875
13251853125.0 0.2315673828125 -1.1785888671875
13283075000.0 -0.5108642578125 -1.02239990234375
13314296875.0 -0.995208740234375 -0.5284423828125
13345518750.0 -1.13970947265625 0.1807861328125
