!Created with skrf (http://scikit-rf.org).
# Hz S RI R 50.0 
!freq ReS11 ImS11
45000000.0 -0.07707977294921875 -0.09669113159179688
76221875.0 -0.196319580078125 -0.0473480224609375
107443750.0 -0.254669189453125 0.11968994140625
138665625.0 -0.1479644775390625 0.328399658203125
169887500.0 0.1236419677734375 0.4169158935546875
201109375.0 0.421661376953125 0.280487060546875
232331250.0 0.578582763671875 -0.057891845703125
263553125.0 0.4892730712890625 -0.45263671875
294775000.0 0.098052978515625 -0.73193359375
325996875.0 -0.41546630859375 -0.679931640625
357218750.0 -0.80584716796875 -0.296356201171875
388440625.0 -0.884796142578125 0.30059814453125
419662500.0 -0.516571044921875 0.865875244140625
450884375.0 0.1734619140625 1.02777099609375
482106250.0 0.798065185546875 0.711700439453125
513328125.0 1.118408203125 0.0865478515625
544550000.0 1.00274658203125 -0.67974853515625
575771875.0 0.33544921875 -1.23736572265625
606993750.0 -0.55389404296875 -1.17626953125
638215625.0 -1.1651611328125 -0.58935546875
669437500.0 -1.33856201171875 0.23394775390625
700659375.0 -0.96966552734375 1.0958251953125
731881250.0 -0.00286865234375 1.5419921875
763103125.0 1.005126953125 1.15435791015625
794325000.0 1.46734619140625 0.28082275390625
825546875.0 1.3658447265625 -0.6513671875
856768750.0 0.7933349609375 -1.3995361328125
887990625.0 -0.29296875 -1.6463623046875
919212500.0 -1.28717041015625 -1.0767822265625
950434375.0 -1.64678955078125 -0.05810546875
981656250.0 -1.38043212890625 0.9456787109375
1012878125.0 -0.52862548828125 1.669677734375
1044100000.0 0.6971435546875 1.65948486328125
1075321875.0 1.57305908203125 0.8106689453125
1106543750.0 1.7022705078125 -0.3128662109375
1137765625.0 1.1845703125 -1.28326416015625
1168987500.0 0.13720703125 -1.7945556640625
1200209375.0 -1.06048583984375 -1.4813232421875
1231431250.0 -1.7254638671875 -0.4522705078125
1262653125.0 -1.59185791015625 0.68438720703125
1293875000.0 -0.85028076171875 1.49053955078125
1325096875.0 0.2288818359375 1.704345703125
1356318750.0 1.2340087890625 1.21435546875
1387540625.0 1.737548828125 0.18817138671875
1418762500.0 1.4671630859375 -0.9508056640625
1449984375.0 0.5279541015625 -1.6239013671875
1481206250.0 -0.5496826171875 -1.5535888671875
1512428125.0 -1.3399658203125 -0.91790771484375
1543650000.0 -1.65289306640625 0.06549072265625
1574871875.0 -1.2713623046875 1.107666015625
1606093750.0 -0.27203369140625 1.6295166015625
1637315625.0 0.74188232421875 1.398681640625
1668537500.0 1.39453125 0.6944580078125
1699759375.0 1.57086181640625 -0.2772216796875
1730981250.0 1.0618896484375 -1.22796630859375
1762203125.0 0.04150390625 -1.56829833984375
1793425000.0 -0.85577392578125 -1.22454833984375
1824646875.0 -1.391845703125 -0.51422119140625
1855868750.0 -1.4722900390625 0.432373046875
1887090625.0 -0.873291015625 1.28375244140625
1918312500.0 0.1173095703125 1.48455810546875
1949534375.0 0.9207763671875 1.08746337890625
1980756250.0 1.37322998046875 0.36932373046875
2011978125.0 1.35736083984375 -0.53131103515625
2043200000.0 0.7484130859375 -1.2601318359375
2074421875.0 -0.1571044921875 -1.4307861328125
2105643750.0 -0.95892333984375 -1.0709228515625
2136865625.0 -1.445556640625 -0.30401611328125
2168087500.0 -1.3548583984375 0.67059326171875
2199309375.0 -0.63787841796875 1.34912109375
2230531250.0 0.2822265625 1.43438720703125
2261753125.0 1.07147216796875 1.0120849609375
2292975000.0 1.5125732421875 0.169677734375
2324196875.0 1.30377197265625 -0.81781005859375
2355418750.0 0.524169921875 -1.4180908203125
2386640625.0 -0.40435791015625 -1.44720458984375
2417862500.0 -1.178466796875 -1.0220947265625
2449084375.0 -1.60150146484375 -0.0843505859375
2480306250.0 -1.3094482421875 0.92431640625
2511528125.0 -0.4927978515625 1.50592041015625
2542750000.0 0.489013671875 1.533447265625
2573971875.0 1.36810302734375 0.96636962890625
2605193750.0 1.7139892578125 -0.112548828125
2636415625.0 1.2591552734375 -1.15081787109375
2667637500.0 0.3056640625 -1.6640625
2698859375.0 -0.76824951171875 -1.53131103515625
2730081250.0 -1.57049560546875 -0.739501953125
2761303125.0 -1.677978515625 0.387451171875
2792525000.0 -1.09698486328125 1.30499267578125
2823746875.0 -0.10198974609375 1.7261962890625
2854968750.0 1.010986328125 1.452880859375
2886190625.0 1.68829345703125 0.49066162109375
2917412500.0 1.59661865234375 -0.6160888671875
2948634375.0 0.93731689453125 -1.43145751953125
2979856250.0 -0.1080322265625 -1.77288818359375
3011078125.0 -1.24481201171875 -1.339599609375
3042300000.0 -1.77056884765625 -0.2353515625
3073521875.0 -1.50592041015625 0.8363037109375
3104743750.0 -0.7620849609375 1.5640869140625
3135965625.0 0.361572265625 1.806640625
3167187500.0 1.49627685546875 1.161865234375
3198409375.0 1.8118896484375 -0.074951171875
3229631250.0 1.34619140625 -1.079833984375
3260853125.0 0.48748779296875 -1.666015625
3292075000.0 -0.6541748046875 -1.69403076171875
3323296875.0 -1.61669921875 -0.87750244140625
3354518750.0 -1.72625732421875 0.327392578125
3385740625.0 -1.15325927734375 1.2308349609375
3416962500.0 -0.23101806640625 1.67822265625
3448184375.0 0.85955810546875 1.51904296875
3479406250.0 1.63336181640625 0.64288330078125
3510628125.0 1.6407470703125 -0.4947509765625
3541850000.0 0.9981689453125 -1.3524169921875
3573071875.0 -0.0078125 -1.6788330078125
3604293750.0 -1.0255126953125 -1.33477783203125
3635515625.0 -1.624267578125 -0.43804931640625
3666737500.0 -1.55810546875 0.64459228515625
3697959375.0 -0.8232421875 1.4730224609375
3729181250.0 0.26788330078125 1.62786865234375
3760403125.0 1.15020751953125 1.09564208984375
3791625000.0 1.55010986328125 0.21710205078125
3822846875.0 1.39923095703125 -0.76025390625
3854068750.0 0.61907958984375 -1.47821044921875
3885290625.0 -0.42010498046875 -1.47821044921875
3916512500.0 -1.13995361328125 -0.9093017578125
3947734375.0 -1.4443359375 -0.1202392578125
3978956250.0 -1.29443359375 0.77734375
4010178125.0 -0.5313720703125 1.45062255859375
4041400000.0 0.472412109375 1.4132080078125
4072621875.0 1.15045166015625 0.84613037109375
4103843750.0 1.44158935546875 0.06298828125
4135065625.0 1.26568603515625 -0.84466552734375
4166287500.0 0.45721435546875 -1.4925537109375
4197509375.0 -0.55694580078125 -1.41265869140625
4228731250.0 -1.2457275390625 -0.80157470703125
4259953125.0 -1.506591796875 0.0699462890625
4291175000.0 -1.186279296875 1.00787353515625
4322396875.0 -0.28887939453125 1.5233154296875
4353618750.0 0.67193603515625 1.347412109375
4384840625.0 1.31927490234375 0.69598388671875
4416062500.0 1.49847412109375 -0.2276611328125
4447284375.0 1.05328369140625 -1.10162353515625
4478506250.0 0.17205810546875 -1.49261474609375
4509728125.0 -0.73101806640625 -1.30560302734375
4540950000.0 -1.39141845703125 -0.635009765625
4572171875.0 -1.51953125 0.35772705078125
4603393750.0 -0.97100830078125 1.21148681640625
4634615625.0 -0.06134033203125 1.53472900390625
4665837500.0 0.868896484375 1.30242919921875
4697059375.0 1.53875732421875 0.51446533203125
4728281250.0 1.52618408203125 -0.58074951171875
4759503125.0 0.82147216796875 -1.36639404296875
4790725000.0 -0.14532470703125 -1.57037353515625
4821946875.0 -1.0816650390625 -1.1922607421875
4853168750.0 -1.61004638671875 -0.2510986328125
4884390625.0 -1.37591552734375 0.7918701171875
4915612500.0 -0.612548828125 1.40985107421875
4946834375.0 0.32867431640625 1.5064697265625
4978056250.0 1.202392578125 1.01544189453125
5009278125.0 1.5594482421875 0.0390625
5040500000.0 1.227294921875 -0.87420654296875
5071721875.0 0.50054931640625 -1.41259765625
5102943750.0 -0.44549560546875 -1.494140625
5134165625.0 -1.33453369140625 -0.90399169921875
5165387500.0 -1.56524658203125 0.14544677734375
5196609375.0 -1.13482666015625 1.008056640625
5227831250.0 -0.3570556640625 1.50396728515625
5259053125.0 0.686279296875 1.48968505859375
5290275000.0 1.52069091796875 0.661865234375
5321496875.0 1.49017333984375 -0.42919921875
5352718750.0 0.91973876953125 -1.15167236328125
5383940625.0 0.095458984375 -1.49871826171875
5415162500.0 -0.89923095703125 -1.28228759765625
5446384375.0 -1.480712890625 -0.370361328125
5477606250.0 -1.29718017578125 0.56561279296875
5508828125.0 -0.72991943359375 1.14862060546875
5540050000.0 0.05426025390625 1.39691162109375
5571271875.0 0.9373779296875 1.10760498046875
5602493750.0 1.4072265625 0.259521484375
5633715625.0 1.23016357421875 -0.61138916015625
5664937500.0 0.6475830078125 -1.19915771484375
5696159375.0 -0.19696044921875 -1.3822021484375
5727381250.0 -1.0203857421875 -0.977294921875
5758603125.0 -1.38897705078125 -0.1451416015625
5789825000.0 -1.19268798828125 0.71697998046875
5821046875.0 -0.50604248046875 1.30645751953125
5852268750.0 0.4117431640625 1.31158447265625
5883490625.0 1.07012939453125 0.77093505859375
5914712500.0 1.30035400390625 0.019775390625
5945934375.0 1.09478759765625 -0.7745361328125
5977156250.0 0.3609619140625 -1.31011962890625
6008378125.0 -0.50836181640625 -1.18084716796875
6039600000.0 -1.02069091796875 -0.6483154296875
6070821875.0 -1.22235107421875 -0.0045166015625
6102043750.0 -1.08172607421875 0.76116943359375
6133265625.0 -0.3421630859375 1.34271240234375
6164487500.0 0.56207275390625 1.18572998046875
6195709375.0 1.0687255859375 0.629638671875
6226931250.0 1.278564453125 -0.04296875
6258153125.0 1.10308837890625 -0.869140625
6289375000.0 0.2564697265625 -1.4442138671875
6320596875.0 -0.6890869140625 -1.20477294921875
6351818750.0 -1.19921875 -0.5714111328125
6383040625.0 -1.35284423828125 0.20648193359375
6414262500.0 -0.99896240234375 1.056640625
6445484375.0 -0.07861328125 1.4549560546875
6476706250.0 0.79461669921875 1.1468505859375
6507928125.0 1.2899169921875 0.46923828125
6539150000.0 1.345458984375 -0.38531494140625
6570371875.0 0.84033203125 -1.14129638671875
6601593750.0 -0.0174560546875 -1.40362548828125
6632815625.0 -0.83929443359375 -1.1351318359375
6664037500.0 -1.39971923828125 -0.4195556640625
6695259375.0 -1.37237548828125 0.5648193359375
6726481250.0 -0.70953369140625 1.24981689453125
6757703125.0 0.1298828125 1.4051513671875
6788925000.0 0.95318603515625 1.12896728515625
6820146875.0 1.5577392578125 0.2877197265625
6851368750.0 1.324462890625 -0.81793212890625
6882590625.0 0.5054931640625 -1.33837890625
6913812500.0 -0.29254150390625 -1.3553466796875
6945034375.0 -1.06866455078125 -1.02069091796875
6976256250.0 -1.59039306640625 -0.093505859375
7007478125.0 -1.233642578125 0.9302978515625
7038700000.0 -0.40216064453125 1.34124755859375
7069921875.0 0.3603515625 1.32208251953125
7101143750.0 1.11798095703125 0.967529296875
7132365625.0 1.59698486328125 0.014892578125
7163587500.0 1.15692138671875 -1.0184326171875
7194809375.0 0.30303955078125 -1.39404296875
7226031250.0 -0.5120849609375 -1.32342529296875
7257253125.0 -1.26544189453125 -0.82342529296875
7288475000.0 -1.5565185546875 0.1976318359375
7319696875.0 -1.02899169921875 1.10614013671875
7350918750.0 -0.165283203125 1.44256591796875
7382140625.0 0.7152099609375 1.276123046875
7413362500.0 1.37371826171875 0.57659912109375
7444584375.0 1.40948486328125 -0.40557861328125
7475806250.0 0.858154296875 -1.14251708984375
7507028125.0 0.00518798828125 -1.42816162109375
7538250000.0 -0.88763427734375 -1.12255859375
7569471875.0 -1.33343505859375 -0.31072998046875
7600693750.0 -1.20159912109375 0.4962158203125
7631915625.0 -0.71710205078125 1.08477783203125
7663137500.0 0.07879638671875 1.3551025390625
7694359375.0 0.938446044921875 0.979217529296875
7725581250.0 1.2421875 0.1802978515625
7756803125.0 1.0811767578125 -0.49798583984375
7788025000.0 0.669189453125 -1.04449462890625
7819246875.0 -0.11981201171875 -1.34521484375
7850468750.0 -0.988616943359375 -0.915496826171875
7881690625.0 -1.229736328125 -0.1044921875
7912912500.0 -1.05291748046875 0.5523681640625
7944134375.0 -0.6053466796875 1.10986328125
7975356250.0 0.27099609375 1.33441162109375
8006578125.0 1.04449462890625 0.7781982421875
8037800000.0 1.191650390625 0.015869140625
8069021875.0 1.0050048828125 -0.616455078125
8100243750.0 0.49993896484375 -1.16033935546875
8131465625.0 -0.385498046875 -1.251953125
8162687500.0 -1.02880859375 -0.68621826171875
8193909375.0 -1.1785888671875 0.0078125
8225131250.0 -1.01715087890625 0.67718505859375
8256353125.0 -0.4207763671875 1.24676513671875
8287575000.0 0.5003662109375 1.22540283203125
8318796875.0 1.08074951171875 0.63525390625
8350018750.0 1.2430419921875 -0.07489013671875
8381240625.0 1.0302734375 -0.83734130859375
8412462500.0 0.25421142578125 -1.3717041015625
8443684375.0 -0.66973876953125 -1.16949462890625
8474906250.0 -1.17279052734375 -0.53204345703125
8506128125.0 -1.29583740234375 0.23577880859375
8537350000.0 -0.92425537109375 1.04443359375
8568571875.0 -0.0167236328125 1.3924560546875
8599793750.0 0.80072021484375 1.05352783203125
8631015625.0 1.2418212890625 0.3973388671875
8662237500.0 1.283935546875 -0.427734375
8693459375.0 0.7354736328125 -1.17523193359375
8724681250.0 -0.1614990234375 -1.32958984375
8755903125.0 -0.87701416015625 -0.955902099609375
8787125000.0 -1.301513671875 -0.28253173828125
8818346875.0 -1.24920654296875 0.614013671875
8849568750.0 -0.556396484375 1.2591552734375
8880790625.0 0.2974853515625 1.283447265625
8912012500.0 0.979278564453125 0.89202880859375
8943234375.0 1.39593505859375 0.1297607421875
8974456250.0 1.16632080078125 -0.83807373046875
9005678125.0 0.347900390625 -1.312255859375
9036900000.0 -0.443603515625 -1.2237548828125
9068121875.0 -1.10052490234375 -0.78521728515625
9099343750.0 -1.44049072265625 0.0970458984375
9130565625.0 -0.97918701171875 1.0111083984375
9161787500.0 -0.15472412109375 1.28216552734375
9193009375.0 0.55377197265625 1.13262939453125
9224231250.0 1.178466796875 0.65374755859375
9255453125.0 1.3980712890625 -0.29486083984375
9286675000.0 0.80633544921875 -1.0865478515625
9317896875.0 0.02764892578125 -1.24609375
9349118750.0 -0.65216064453125 -1.0694580078125
9380340625.0 -1.25531005859375 -0.50982666015625
9411562500.0 -1.31011962890625 0.4759521484375
9442784375.0 -0.64739990234375 1.1160888671875
9474006250.0 0.08746337890625 1.209716796875
9505228125.0 0.764007568359375 0.97900390625
9536450000.0 1.27130126953125 0.3140869140625
9567671875.0 1.14404296875 -0.57916259765625
9598893750.0 0.530029296875 -1.06658935546875
9630115625.0 -0.14312744140625 -1.15643310546875
9661337500.0 -0.816314697265625 -0.902008056640625
9692559375.0 -1.2374267578125 -0.1915283203125
9723781250.0 -1.0426025390625 0.60223388671875
9755003125.0 -0.48663330078125 1.04913330078125
9786225000.0 0.1978759765625 1.1583251953125
9817446875.0 0.893768310546875 0.827301025390625
9848668750.0 1.19683837890625 0.07830810546875
9879890625.0 0.967559814453125 -0.616180419921875
9911112500.0 0.45159912109375 -1.0498046875
9942334375.0 -0.2677001953125 -1.15850830078125
9973556250.0 -0.9417724609375 -0.73822021484375
10004778125.0 -1.14569091796875 -0.01824951171875
10036000000.0 -0.943878173828125 0.61407470703125
10067221875.0 -0.44207763671875 1.0946044921875
10098443750.0 0.368408203125 1.1802978515625
10129665625.0 1.0006103515625 0.6431884765625
10160887500.0 1.11871337890625 -0.05059814453125
10192109375.0 0.916748046875 -0.662628173828125
10223331250.0 0.361328125 -1.15130615234375
10254553125.0 -0.485107421875 -1.11212158203125
10285775000.0 -0.983978271484375 -0.535491943359375
10316996875.0 -1.06640625 0.07537841796875
10348218750.0 -0.899505615234375 0.669921875
10379440625.0 -0.322021484375 1.17449951171875
10410662500.0 0.52679443359375 1.08416748046875
10441884375.0 0.991729736328125 0.522216796875
10473106250.0 1.107666015625 -0.08392333984375
10504328125.0 0.94775390625 -0.75634765625
10535550000.0 0.240478515625 -1.29266357421875
10566771875.0 -0.65496826171875 -1.075927734375
10597993750.0 -1.07977294921875 -0.45947265625
10629215625.0 -1.1741943359375 0.20440673828125
10660437500.0 -0.88739013671875 0.95343017578125
10691659375.0 -0.011474609375 1.33367919921875
10722881250.0 0.78399658203125 0.9520263671875
10754103125.0 1.11883544921875 0.32415771484375
10785325000.0 1.1402587890625 -0.3671875
10816546875.0 0.70068359375 -1.046875
10847768750.0 -0.14544677734375 -1.22955322265625
10878990625.0 -0.8023681640625 -0.843536376953125
10910212500.0 -1.1214599609375 -0.245361328125
10941434375.0 -1.0966796875 0.4774169921875
10972656250.0 -0.5682373046875 1.08428955078125
11003878125.0 0.21746826171875 1.17437744140625
11035100000.0 0.845916748046875 0.821746826171875
11066321875.0 1.220703125 0.173828125
11097543750.0 1.0985107421875 -0.67529296875
11128765625.0 0.38580322265625 -1.1993408203125
11159987500.0 -0.3956298828125 -1.13873291015625
11191209375.0 -0.999420166015625 -0.702972412109375
11222431250.0 -1.2705078125 0.09222412109375
11253653125.0 -0.8585205078125 0.893829345703125
11284875000.0 -0.11456298828125 1.12646484375
11316096875.0 0.50897216796875 0.955474853515625
11347318750.0 1.0013427734375 0.50164794921875
11378540625.0 1.116455078125 -0.26788330078125
11409762500.0 0.634918212890625 -0.85870361328125
11440984375.0 0.036407470703125 -0.977325439453125
11472206250.0 -0.480743408203125 -0.849517822265625
11503428125.0 -0.951904296875 -0.455474853515625
11534650000.0 -1.0682373046875 0.28814697265625
11565871875.0 -0.60247802734375 0.85357666015625
11597093750.0 -0.0179443359375 0.991851806640625
11628315625.0 0.5439453125 0.874664306640625
11659537500.0 1.059326171875 0.39117431640625
11690759375.0 1.0634765625 -0.431884765625
11721981250.0 0.51678466796875 -0.94085693359375
11753203125.0 -0.1058349609375 -1.03521728515625
11784425000.0 -0.72418212890625 -0.808258056640625
11815646875.0 -1.10137939453125 -0.15185546875
11846868750.0 -0.89117431640625 0.552001953125
11878090625.0 -0.391632080078125 0.906890869140625
11909312500.0 0.187103271484375 0.98419189453125
11940534375.0 0.7786865234375 0.695068359375
11971756250.0 1.02435302734375 0.0401611328125
12002978125.0 0.80596923828125 -0.537261962890625
12034200000.0 0.382171630859375 -0.888336181640625
12065421875.0 -0.2142333984375 -1.00970458984375
12096643750.0 -0.847137451171875 -0.6646728515625
12127865625.0 -1.03240966796875 0.0166015625
12159087500.0 -0.814422607421875 0.575164794921875
12190309375.0 -0.378173828125 0.97247314453125
12221531250.0 0.337890625 1.08734130859375
12252753125.0 0.97802734375 0.58184814453125
12283975000.0 1.05340576171875 -0.1259765625
12315196875.0 0.799835205078125 -0.67510986328125
12346418750.0 0.2821044921875 -1.08837890625
12377640625.0 -0.53692626953125 -1.0595703125
12408862500.0 -1.0322265625 -0.42041015625
12440084375.0 -1.00823974609375 0.22442626953125
12471306250.0 -0.741180419921875 0.7366943359375
12502528125.0 -0.180419921875 1.11883544921875
12533750000.0 0.620574951171875 0.99249267578125
12564971875.0 1.04034423828125 0.364501953125
12596193750.0 1.0289306640625 -0.2647705078125
12627415625.0 0.747650146484375 -0.82794189453125
12658637500.0 0.081298828125 -1.206298828125
12689859375.0 -0.73590087890625 -0.96673583984375
12721081250.0 -1.11474609375 -0.3070068359375
12752303125.0 -1.0968017578125 0.3809814453125
12783525000.0 -0.68707275390625 1.02703857421875
12814746875.0 0.1639404296875 1.249755859375
12845968750.0 0.862884521484375 0.80963134765625
12877190625.0 1.115966796875 0.17242431640625
12908412500.0 1.05517578125 -0.50079345703125
12939634375.0 0.54278564453125 -1.115478515625
12970856250.0 -0.31988525390625 -1.17449951171875
13002078125.0 -0.8953857421875 -0.693695068359375
13033300000.0 -1.1058349609375 -0.0865478515625
13064521875.0 -1.00860595703125 0.59271240234375
13095743750.0 -0.42034912109375 1.1522216796875
13126965625.0 0.40814208984375 1.11981201171875
13158187500.0 0.94659423828125 0.631256103515625
13189409375.0 1.1470947265625 -0.02178955078125
13220631250.0 0.936187744140625 -0.74847412109375
13251853125.0 0.234130859375 -1.17034912109375
13283075000.0 -0.5048828125 -1.01983642578125
13314296875.0 -0.98583984375 -0.528533935546875
13345518750.0 -1.13427734375 0.1766357421875
13376740625.0 -0.75286865234375 0.857696533203125
