!Created with skrf (http://scikit-rf.org).
# Hz S RI R 50.0 
!freq ReS11 ImS11
45000000.0 -0.07721328735351562 -0.09679794311523438
76221875.0 -0.19657135009765625 -0.0473175048828125
107443750.0 -0.2549896240234375 0.1203460693359375
138665625.0 -0.1478729248046875 0.329132080078125
169887500.0 0.12408447265625 0.4173736572265625
201109375.0 0.4222412109375 0.2806549072265625
232331250.0 0.57904052734375 -0.057952880859375
263553125.0 0.489501953125 -0.4532470703125
294775000.0 0.097991943359375 -0.733062744140625
325996875.0 -0.4161376953125 -0.68023681640625
357218750.0 -0.8070068359375 -0.2965087890625
388440625.0 -0.88580322265625 0.301483154296875
419662500.0 -0.51666259765625 0.8673095703125
450884375.0 0.174072265625 1.029052734375
482106250.0 0.799224853515625 0.7120361328125
513328125.0 1.11981201171875 0.086181640625
544550000.0 1.00341796875 -0.68072509765625
575771875.0 0.33551025390625 -1.2388916015625
606993750.0 -0.5548095703125 -1.17718505859375
638215625.0 -1.16619873046875 -0.5894775390625
669437500.0 -1.3394775390625 0.2347412109375
700659375.0 -0.97039794921875 1.09716796875
731881250.0 -0.0028076171875 1.54296875
763103125.0 1.00628662109375 1.15533447265625
794325000.0 1.468994140625 0.2808837890625
825546875.0 1.3670654296875 -0.65240478515625
856768750.0 0.79351806640625 -1.40179443359375
887990625.0 -0.2940673828125 -1.6480712890625
919212500.0 -1.28912353515625 -1.07781982421875
950434375.0 -1.6484375 -0.05810546875
981656250.0 -1.382080078125 0.94744873046875
1012878125.0 -0.5283203125 1.67279052734375
1044100000.0 0.69818115234375 1.661376953125
1075321875.0 1.574951171875 0.81121826171875
1106543750.0 1.70458984375 -0.31475830078125
1137765625.0 1.18603515625 -1.28515625
1168987500.0 0.1363525390625 -1.79742431640625
1200209375.0 -1.0623779296875 -1.4825439453125
1231431250.0 -1.7276611328125 -0.45233154296875
1262653125.0 -1.59375 0.68597412109375
1293875000.0 -0.85076904296875 1.49176025390625
1325096875.0 0.2294921875 1.70654296875
1356318750.0 1.23553466796875 1.21563720703125
1387540625.0 1.739501953125 0.18768310546875
1418762500.0 1.4688720703125 -0.95245361328125
1449984375.0 0.52813720703125 -1.62615966796875
1481206250.0 -0.55084228515625 -1.55548095703125
1512428125.0 -1.34197998046875 -0.9185791015625
1543650000.0 -1.65509033203125 0.06640625
1574871875.0 -1.2723388671875 1.10955810546875
1606093750.0 -0.27166748046875 1.631103515625
1637315625.0 0.74267578125 1.39935302734375
1668537500.0 1.39593505859375 0.69476318359375
1699759375.0 1.572509765625 -0.27789306640625
1730981250.0 1.06317138671875 -1.22991943359375
1762203125.0 0.04132080078125 -1.569580078125
1793425000.0 -0.85626220703125 -1.22564697265625
1824646875.0 -1.39312744140625 -0.51434326171875
1855868750.0 -1.47344970703125 0.4329833984375
1887090625.0 -0.8743896484375 1.28570556640625
1918312500.0 0.117919921875 1.48675537109375
1949534375.0 0.9217529296875 1.0882568359375
1980756250.0 1.37530517578125 0.36920166015625
2011978125.0 1.35919189453125 -0.5328369140625
2043200000.0 0.74884033203125 -1.26129150390625
2074421875.0 -0.1578369140625 -1.43243408203125
2105643750.0 -0.9605712890625 -1.07147216796875
2136865625.0 -1.44708251953125 -0.30377197265625
2168087500.0 -1.35589599609375 0.67108154296875
2199309375.0 -0.63818359375 1.35101318359375
2230531250.0 0.28240966796875 1.4354248046875
2261753125.0 1.0728759765625 1.01318359375
2292975000.0 1.5140380859375 0.16961669921875
2324196875.0 1.30450439453125 -0.81884765625
2355418750.0 0.52447509765625 -1.4195556640625
2386640625.0 -0.40484619140625 -1.44805908203125
2417862500.0 -1.18096923828125 -1.02337646484375
2449084375.0 -1.60479736328125 -0.08251953125
2480306250.0 -1.31036376953125 0.9259033203125
2511528125.0 -0.49261474609375 1.5078125
2542750000.0 0.489990234375 1.53521728515625
2573971875.0 1.3717041015625 0.96728515625
2605193750.0 1.7169189453125 -0.1131591796875
2636415625.0 1.26043701171875 -1.15264892578125
2667637500.0 0.305419921875 -1.66693115234375
2698859375.0 -0.7703857421875 -1.532470703125
2730081250.0 -1.57275390625 -0.7393798828125
2761303125.0 -1.68023681640625 0.38885498046875
2792525000.0 -1.09808349609375 1.306640625
2823746875.0 -0.10125732421875 1.7286376953125
2854968750.0 1.01202392578125 1.4539794921875
2886190625.0 1.6910400390625 0.49090576171875
2917412500.0 1.59893798828125 -0.6180419921875
2948634375.0 0.9385986328125 -1.43359375
2979856250.0 -0.10919189453125 -1.7750244140625
3011078125.0 -1.2476806640625 -1.341796875
3042300000.0 -1.7734375 -0.23431396484375
3073521875.0 -1.5078125 0.83868408203125
3104743750.0 -0.7620849609375 1.56842041015625
3135965625.0 0.362060546875 1.80755615234375
3167187500.0 1.49920654296875 1.16265869140625
3198409375.0 1.814208984375 -0.0753173828125
3229631250.0 1.34759521484375 -1.08209228515625
3260853125.0 0.48785400390625 -1.66815185546875
3292075000.0 -0.656494140625 -1.6968994140625
3323296875.0 -1.61883544921875 -0.8782958984375
3354518750.0 -1.72967529296875 0.330322265625
3385740625.0 -1.15447998046875 1.23028564453125
3416962500.0 -0.23028564453125 1.68084716796875
3448184375.0 0.85968017578125 1.51971435546875
3479406250.0 1.63458251953125 0.6431884765625
3510628125.0 1.642333984375 -0.4949951171875
3541850000.0 0.999267578125 -1.35498046875
3573071875.0 -0.00872802734375 -1.68218994140625
3604293750.0 -1.02764892578125 -1.33624267578125
3635515625.0 -1.62750244140625 -0.43743896484375
3666737500.0 -1.560791015625 0.646728515625
3697959375.0 -0.82427978515625 1.4755859375
3729181250.0 0.26824951171875 1.629150390625
3760403125.0 1.15301513671875 1.09722900390625
3791625000.0 1.55120849609375 0.216796875
3822846875.0 1.4010009765625 -0.76239013671875
3854068750.0 0.61932373046875 -1.47967529296875
3885290625.0 -0.4217529296875 -1.479736328125
3916512500.0 -1.140625 -0.9100341796875
3947734375.0 -1.44610595703125 -0.11883544921875
3978956250.0 -1.2965087890625 0.779052734375
4010178125.0 -0.5308837890625 1.45281982421875
4041400000.0 0.474609375 1.41461181640625
4072621875.0 1.1519775390625 0.846923828125
4103843750.0 1.44403076171875 0.0628662109375
4135065625.0 1.26641845703125 -0.84576416015625
4166287500.0 0.4571533203125 -1.4954833984375
4197509375.0 -0.5565185546875 -1.413818359375
4228731250.0 -1.247314453125 -0.80126953125
4259953125.0 -1.50872802734375 0.0712890625
4291175000.0 -1.1873779296875 1.00958251953125
4322396875.0 -0.28912353515625 1.52520751953125
4353618750.0 0.67279052734375 1.34912109375
4384840625.0 1.322509765625 0.69586181640625
4416062500.0 1.50042724609375 -0.229248046875
4447284375.0 1.0535888671875 -1.1029052734375
4478506250.0 0.1717529296875 -1.4945068359375
4509728125.0 -0.7314453125 -1.30609130859375
4540950000.0 -1.39263916015625 -0.63543701171875
4572171875.0 -1.52142333984375 0.35955810546875
4603393750.0 -0.9716796875 1.2120361328125
4634615625.0 -0.061279296875 1.5355224609375
4665837500.0 0.87103271484375 1.3035888671875
4697059375.0 1.5411376953125 0.51483154296875
4728281250.0 1.52850341796875 -0.58319091796875
4759503125.0 0.82232666015625 -1.36724853515625
4790725000.0 -0.14617919921875 -1.57269287109375
4821946875.0 -1.08349609375 -1.193359375
4853168750.0 -1.61236572265625 -0.25079345703125
4884390625.0 -1.37701416015625 0.7939453125
4915612500.0 -0.61175537109375 1.4117431640625
4946834375.0 0.32891845703125 1.50860595703125
4978056250.0 1.203857421875 1.0164794921875
5009278125.0 1.5611572265625 0.0389404296875
5040500000.0 1.227783203125 -0.87481689453125
5071721875.0 0.50128173828125 -1.41375732421875
5102943750.0 -0.447021484375 -1.495849609375
5134165625.0 -1.335693359375 -0.9049072265625
5165387500.0 -1.56683349609375 0.1461181640625
5196609375.0 -1.13604736328125 1.0098876953125
5227831250.0 -0.35699462890625 1.50543212890625
5259053125.0 0.68817138671875 1.491943359375
5290275000.0 1.52203369140625 0.6627197265625
5321496875.0 1.49267578125 -0.43157958984375
5352718750.0 0.92010498046875 -1.15264892578125
5383940625.0 0.0966796875 -1.499267578125
5415162500.0 -0.90081787109375 -1.2830810546875
5446384375.0 -1.48345947265625 -0.36993408203125
5477606250.0 -1.2984619140625 0.56689453125
5508828125.0 -0.7308349609375 1.15142822265625
5540050000.0 0.05450439453125 1.3985595703125
5571271875.0 0.93743896484375 1.10809326171875
5602493750.0 1.4075927734375 0.25933837890625
5633715625.0 1.2310791015625 -0.6123046875
5664937500.0 0.64788818359375 -1.20159912109375
5696159375.0 -0.19677734375 -1.38287353515625
5727381250.0 -1.021484375 -0.9783935546875
5758603125.0 -1.3905029296875 -0.14483642578125
5789825000.0 -1.19366455078125 0.7174072265625
5821046875.0 -0.50579833984375 1.30743408203125
5852268750.0 0.4119873046875 1.31317138671875
5883490625.0 1.07122802734375 0.7716064453125
5914712500.0 1.30224609375 0.0196533203125
5945934375.0 1.095703125 -0.77642822265625
5977156250.0 0.36102294921875 -1.3118896484375
6008378125.0 -0.50946044921875 -1.18182373046875
6039600000.0 -1.02191162109375 -0.6483154296875
6070821875.0 -1.22308349609375 -0.00433349609375
6102043750.0 -1.08258056640625 0.76251220703125
6133265625.0 -0.34185791015625 1.3441162109375
6164487500.0 0.5638427734375 1.18743896484375
6195709375.0 1.06951904296875 0.62969970703125
6226931250.0 1.27960205078125 -0.04290771484375
6258153125.0 1.10357666015625 -0.87017822265625
6289375000.0 0.256103515625 -1.4461669921875
6320596875.0 -0.6890869140625 -1.205810546875
6351818750.0 -1.19952392578125 -0.57220458984375
6383040625.0 -1.35455322265625 0.20703125
6414262500.0 -0.9996337890625 1.0574951171875
6445484375.0 -0.07855224609375 1.45703125
6476706250.0 0.7962646484375 1.14764404296875
6507928125.0 1.2891845703125 0.47039794921875
6539150000.0 1.34686279296875 -0.38629150390625
6570371875.0 0.84063720703125 -1.142822265625
6601593750.0 -0.01788330078125 -1.404541015625
6632815625.0 -0.8399658203125 -1.135498046875
6664037500.0 -1.3994140625 -0.420166015625
6695259375.0 -1.37298583984375 0.5653076171875
6726481250.0 -0.710205078125 1.25091552734375
6757703125.0 0.1309814453125 1.4066162109375
6788925000.0 0.95465087890625 1.1302490234375
6820146875.0 1.5582275390625 0.28839111328125
6851368750.0 1.32623291015625 -0.81982421875
6882590625.0 0.506591796875 -1.33905029296875
6913812500.0 -0.2930908203125 -1.356689453125
6945034375.0 -1.06951904296875 -1.02130126953125
6976256250.0 -1.59246826171875 -0.0926513671875
7007478125.0 -1.2364501953125 0.93414306640625
7038700000.0 -0.40118408203125 1.34344482421875
7069921875.0 0.35955810546875 1.32208251953125
7101143750.0 1.1162109375 0.9686279296875
7132365625.0 1.59661865234375 0.01495361328125
7163587500.0 1.15740966796875 -1.02130126953125
7194809375.0 0.3016357421875 -1.39935302734375
7226031250.0 -0.5103759765625 -1.32452392578125
7257253125.0 -1.26690673828125 -0.8238525390625
7288475000.0 -1.55908203125 0.1993408203125
7319696875.0 -1.029052734375 1.109375
7350918750.0 -0.16351318359375 1.44390869140625
7382140625.0 0.715087890625 1.27606201171875
7413362500.0 1.376953125 0.5758056640625
7444584375.0 1.41119384765625 -0.40509033203125
7475806250.0 0.857421875 -1.14434814453125
7507028125.0 0.00494384765625 -1.4293212890625
7538250000.0 -0.88714599609375 -1.12384033203125
7569471875.0 -1.33709716796875 -0.31024169921875
7600693750.0 -1.201904296875 0.49627685546875
7631915625.0 -0.7169189453125 1.0872802734375
7663137500.0 0.080078125 1.357666015625
7694359375.0 0.93988037109375 0.97991943359375
7725581250.0 1.2437744140625 0.18109130859375
7756803125.0 1.08197021484375 -0.4986572265625
7788025000.0 0.6700439453125 -1.0426025390625
7819246875.0 -0.1202392578125 -1.34710693359375
7850468750.0 -0.99127197265625 -0.91571044921875
7881690625.0 -1.2314453125 -0.10546875
7912912500.0 -1.05487060546875 0.5545654296875
7944134375.0 -0.605224609375 1.1134033203125
7975356250.0 0.271728515625 1.33563232421875
8006578125.0 1.04736328125 0.7784423828125
8037800000.0 1.19439697265625 0.01617431640625
8069021875.0 1.007080078125 -0.61676025390625
8100243750.0 0.49896240234375 -1.16265869140625
8131465625.0 -0.38775634765625 -1.25469970703125
8162687500.0 -1.03228759765625 -0.68597412109375
8193909375.0 -1.181884765625 0.00927734375
8225131250.0 -1.01800537109375 0.6788330078125
8256353125.0 -0.4212646484375 1.24774169921875
8287575000.0 0.4996337890625 1.2259521484375
8318796875.0 1.083740234375 0.6346435546875
8350018750.0 1.24517822265625 -0.07781982421875
8381240625.0 1.031494140625 -0.83953857421875
8412462500.0 0.25518798828125 -1.37164306640625
8443684375.0 -0.671630859375 -1.1702880859375
8474906250.0 -1.177734375 -0.53216552734375
8506128125.0 -1.29730224609375 0.23602294921875
8537350000.0 -0.9248046875 1.04473876953125
8568571875.0 -0.0164794921875 1.394775390625
8599793750.0 0.80145263671875 1.05303955078125
8631015625.0 1.24371337890625 0.398681640625
8662237500.0 1.28631591796875 -0.4307861328125
8693459375.0 0.7359619140625 -1.1788330078125
8724681250.0 -0.162841796875 -1.33203125
8755903125.0 -0.8819580078125 -0.9571533203125
8787125000.0 -1.30535888671875 -0.28118896484375
8818346875.0 -1.2506103515625 0.61578369140625
8849568750.0 -0.55682373046875 1.261474609375
8880790625.0 0.29925537109375 1.28436279296875
8912012500.0 0.981201171875 0.89215087890625
8943234375.0 1.4002685546875 0.12908935546875
8974456250.0 1.167236328125 -0.8388671875
9005678125.0 0.34814453125 -1.31329345703125
9036900000.0 -0.44482421875 -1.22576904296875
9068121875.0 -1.1015625 -0.78546142578125
9099343750.0 -1.4405517578125 0.0966796875
9130565625.0 -0.97930908203125 1.0123291015625
9161787500.0 -0.15484619140625 1.282958984375
9193009375.0 0.5572509765625 1.1336669921875
9224231250.0 1.1793212890625 0.65521240234375
9255453125.0 1.39984130859375 -0.297607421875
9286675000.0 0.806884765625 -1.085205078125
9317896875.0 0.024658203125 -1.2481689453125
9349118750.0 -0.65362548828125 -1.06939697265625
9380340625.0 -1.25665283203125 -0.51068115234375
9411562500.0 -1.3111572265625 0.4747314453125
9442784375.0 -0.64813232421875 1.11572265625
9474006250.0 0.08953857421875 1.212158203125
9505228125.0 0.763824462890625 0.980072021484375
9536450000.0 1.27374267578125 0.31396484375
9567671875.0 1.14495849609375 -0.58056640625
9598893750.0 0.53033447265625 -1.06768798828125
9630115625.0 -0.1439208984375 -1.15869140625
9661337500.0 -0.81781005859375 -0.902801513671875
9692559375.0 -1.2381591796875 -0.190673828125
9723781250.0 -1.04461669921875 0.603515625
9755003125.0 -0.4852294921875 1.04937744140625
9786225000.0 0.19775390625 1.1591796875
9817446875.0 0.894866943359375 0.828277587890625
9848668750.0 1.19830322265625 0.07818603515625
9879890625.0 0.96807861328125 -0.617584228515625
9911112500.0 0.451416015625 -1.052734375
9942334375.0 -0.26849365234375 -1.15948486328125
9973556250.0 -0.94403076171875 -0.737457275390625
10004778125.0 -1.146240234375 -0.01776123046875
10036000000.0 -0.94403076171875 0.61578369140625
10067221875.0 -0.442138671875 1.09783935546875
10098443750.0 0.36944580078125 1.18170166015625
10129665625.0 1.00286865234375 0.6434326171875
10160887500.0 1.1202392578125 -0.051025390625
10192109375.0 0.918487548828125 -0.66339111328125
10223331250.0 0.36151123046875 -1.15374755859375
10254553125.0 -0.4864501953125 -1.11395263671875
10285775000.0 -0.984527587890625 -0.5357666015625
10316996875.0 -1.06756591796875 0.07696533203125
10348218750.0 -0.90008544921875 0.67047119140625
10379440625.0 -0.32122802734375 1.1763916015625
10410662500.0 0.52691650390625 1.08563232421875
10441884375.0 0.99212646484375 0.521942138671875
10473106250.0 1.10894775390625 -0.083984375
10504328125.0 0.948577880859375 -0.756103515625
10535550000.0 0.23919677734375 -1.29620361328125
10566771875.0 -0.657470703125 -1.077392578125
10597993750.0 -1.08154296875 -0.45867919921875
10629215625.0 -1.1749267578125 0.2061767578125
10660437500.0 -0.88787841796875 0.951507568359375
10691659375.0 -0.0091552734375 1.33709716796875
10722881250.0 0.785552978515625 0.95379638671875
10754103125.0 1.11956787109375 0.32440185546875
10785325000.0 1.13946533203125 -0.36749267578125
10816546875.0 0.70050048828125 -1.05059814453125
10847768750.0 -0.1453857421875 -1.2303466796875
10878990625.0 -0.8040771484375 -0.843597412109375
10910212500.0 -1.12347412109375 -0.2447509765625
10941434375.0 -1.09698486328125 0.47650146484375
10972656250.0 -0.567626953125 1.08563232421875
11003878125.0 0.217041015625 1.17462158203125
11035100000.0 0.849273681640625 0.822845458984375
11066321875.0 1.22021484375 0.1741943359375
11097543750.0 1.09832763671875 -0.676025390625
11128765625.0 0.385498046875 -1.19970703125
11159987500.0 -0.395751953125 -1.1395263671875
11191209375.0 -1.0010986328125 -0.70330810546875
11222431250.0 -1.2725830078125 0.0919189453125
11253653125.0 -0.859375 0.89593505859375
11284875000.0 -0.11407470703125 1.12774658203125
11316096875.0 0.51123046875 0.95623779296875
11347318750.0 1.00103759765625 0.50250244140625
11378540625.0 1.1165771484375 -0.2677001953125
11409762500.0 0.634857177734375 -0.860321044921875
11440984375.0 0.035797119140625 -0.98040771484375
11472206250.0 -0.482208251953125 -0.851593017578125
11503428125.0 -0.953033447265625 -0.4560546875
11534650000.0 -1.06829833984375 0.28765869140625
11565871875.0 -0.60235595703125 0.854034423828125
11597093750.0 -0.017822265625 0.991912841796875
11628315625.0 0.5443115234375 0.874664306640625
11659537500.0 1.05963134765625 0.39251708984375
11690759375.0 1.06536865234375 -0.4332275390625
11721981250.0 0.516754150390625 -0.941650390625
11753203125.0 -0.1051025390625 -1.03704833984375
11784425000.0 -0.724609375 -0.808685302734375
11815646875.0 -1.10198974609375 -0.15106201171875
11846868750.0 -0.892364501953125 0.551025390625
11878090625.0 -0.390655517578125 0.9095458984375
11909312500.0 0.1875 0.98541259765625
11940534375.0 0.78143310546875 0.695465087890625
11971756250.0 1.0262451171875 0.038818359375
12002978125.0 0.806854248046875 -0.53826904296875
12034200000.0 0.3812255859375 -0.889678955078125
12065421875.0 -0.21685791015625 -1.01116943359375
12096643750.0 -0.847564697265625 -0.665924072265625
12127865625.0 -1.0340576171875 0.0169677734375
12159087500.0 -0.814910888671875 0.575286865234375
12190309375.0 -0.37799072265625 0.9752197265625
12221531250.0 0.3394775390625 1.08856201171875
12252753125.0 0.980621337890625 0.58209228515625
12283975000.0 1.05462646484375 -0.1279296875
12315196875.0 0.80059814453125 -0.678863525390625
12346418750.0 0.281494140625 -1.0928955078125
12377640625.0 -0.5361328125 -1.061279296875
12408862500.0 -1.0350341796875 -0.42010498046875
12440084375.0 -1.009033203125 0.2254638671875
12471306250.0 -0.74261474609375 0.73736572265625
12502528125.0 -0.1790771484375 1.12103271484375
12533750000.0 0.619415283203125 0.99371337890625
12564971875.0 1.040771484375 0.36456298828125
12596193750.0 1.0301513671875 -0.26611328125
12627415625.0 0.748382568359375 -0.829345703125
12658637500.0 0.080810546875 -1.20654296875
12689859375.0 -0.7366943359375 -0.96661376953125
12721081250.0 -1.11712646484375 -0.30560302734375
12752303125.0 -1.09716796875 0.38043212890625
12783525000.0 -0.68682861328125 1.02972412109375
12814746875.0 0.1649169921875 1.251953125
12845968750.0 0.863739013671875 0.8116455078125
12877190625.0 1.11907958984375 0.1719970703125
12908412500.0 1.05621337890625 -0.5020751953125
12939634375.0 0.5426025390625 -1.1175537109375
12970856250.0 -0.32196044921875 -1.176025390625
13002078125.0 -0.89459228515625 -0.69366455078125
13033300000.0 -1.10577392578125 -0.08819580078125
13064521875.0 -1.009765625 0.59356689453125
13095743750.0 -0.41986083984375 1.154052734375
13126965625.0 0.40875244140625 1.12213134765625
13158187500.0 0.948028564453125 0.631561279296875
13189409375.0 1.14697265625 -0.019775390625
13220631250.0 0.93603515625 -0.747100830078125
13251853125.0 0.23419189453125 -1.171875
13283075000.0 -0.50653076171875 -1.0198974609375
13314296875.0 -0.9859619140625 -0.529266357421875
13345518750.0 -1.13531494140625 0.1771240234375
13376740625.0 -0.75311279296875 0.85723876953125
