!Created with skrf (http://scikit-rf.org).
# Hz S RI R 50.0 
!freq ReS11 ImS11
45000000.0 -0.077239990234375 -0.096710205078125
76221875.0 -0.19637298583984375 -0.04718780517578125
107443750.0 -0.254730224609375 0.120025634765625
138665625.0 -0.1477508544921875 0.3287353515625
169887500.0 0.124237060546875 0.4171295166015625
201109375.0 0.42218017578125 0.28021240234375
232331250.0 0.5787353515625 -0.058074951171875
263553125.0 0.4888763427734375 -0.453369140625
294775000.0 0.097564697265625 -0.7327880859375
325996875.0 -0.4163818359375 -0.67974853515625
357218750.0 -0.8067626953125 -0.295928955078125
388440625.0 -0.885162353515625 0.30194091796875
419662500.0 -0.516204833984375 0.8671875
450884375.0 0.174560546875 1.02838134765625
482106250.0 0.79931640625 0.711517333984375
513328125.0 1.11932373046875 0.085693359375
544550000.0 1.00274658203125 -0.68115234375
575771875.0 0.33465576171875 -1.2386474609375
606993750.0 -0.5552978515625 -1.17626953125
638215625.0 -1.16632080078125 -0.5887451171875
669437500.0 -1.339111328125 0.235107421875
700659375.0 -0.9696044921875 1.09722900390625
731881250.0 -0.00177001953125 1.54266357421875
763103125.0 1.00689697265625 1.15435791015625
794325000.0 1.46856689453125 0.27984619140625
825546875.0 1.36639404296875 -0.6527099609375
856768750.0 0.79266357421875 -1.401123046875
887990625.0 -0.29473876953125 -1.64715576171875
919212500.0 -1.28863525390625 -1.0765380859375
950434375.0 -1.64788818359375 -0.05712890625
981656250.0 -1.38079833984375 0.94696044921875
1012878125.0 -0.52734375 1.671630859375
1044100000.0 0.6986083984375 1.6600341796875
1075321875.0 1.5748291015625 0.80963134765625
1106543750.0 1.70318603515625 -0.31463623046875
1137765625.0 1.1849365234375 -1.28497314453125
1168987500.0 0.13604736328125 -1.79608154296875
1200209375.0 -1.063232421875 -1.4813232421875
1231431250.0 -1.727294921875 -0.4510498046875
1262653125.0 -1.59259033203125 0.68621826171875
1293875000.0 -0.84930419921875 1.49163818359375
1325096875.0 0.23046875 1.70526123046875
1356318750.0 1.23583984375 1.21429443359375
1387540625.0 1.7392578125 0.186767578125
1418762500.0 1.46710205078125 -0.95245361328125
1449984375.0 0.52716064453125 -1.62591552734375
1481206250.0 -0.5517578125 -1.55426025390625
1512428125.0 -1.34259033203125 -0.917724609375
1543650000.0 -1.65435791015625 0.067138671875
1574871875.0 -1.27117919921875 1.11029052734375
1606093750.0 -0.27056884765625 1.6302490234375
1637315625.0 0.7432861328125 1.39874267578125
1668537500.0 1.3958740234375 0.69366455078125
1699759375.0 1.571533203125 -0.2791748046875
1730981250.0 1.06170654296875 -1.22955322265625
1762203125.0 0.0400390625 -1.5693359375
1793425000.0 -0.8565673828125 -1.224365234375
1824646875.0 -1.3929443359375 -0.5133056640625
1855868750.0 -1.47265625 0.43353271484375
1887090625.0 -0.8729248046875 1.28472900390625
1918312500.0 0.1185302734375 1.48583984375
1949534375.0 0.922119140625 1.0875244140625
1980756250.0 1.375 0.36810302734375
2011978125.0 1.358154296875 -0.53302001953125
2043200000.0 0.74786376953125 -1.26171875
2074421875.0 -0.15850830078125 -1.43157958984375
2105643750.0 -0.96063232421875 -1.07061767578125
2136865625.0 -1.44708251953125 -0.3031005859375
2168087500.0 -1.35540771484375 0.6719970703125
2199309375.0 -0.636962890625 1.351318359375
2230531250.0 0.283447265625 1.43438720703125
2261753125.0 1.07305908203125 1.01165771484375
2292975000.0 1.513671875 0.1685791015625
2324196875.0 1.30352783203125 -0.8197021484375
2355418750.0 0.52337646484375 -1.41925048828125
2386640625.0 -0.405517578125 -1.44769287109375
2417862500.0 -1.1805419921875 -1.02288818359375
2449084375.0 -1.60394287109375 -0.0819091796875
2480306250.0 -1.30889892578125 0.92578125
2511528125.0 -0.49249267578125 1.5062255859375
2542750000.0 0.48944091796875 1.5333251953125
2573971875.0 1.37103271484375 0.96533203125
2605193750.0 1.7166748046875 -0.1153564453125
2636415625.0 1.25909423828125 -1.15289306640625
2667637500.0 0.30377197265625 -1.66668701171875
2698859375.0 -0.76947021484375 -1.53167724609375
2730081250.0 -1.5723876953125 -0.73785400390625
2761303125.0 -1.67901611328125 0.3896484375
2792525000.0 -1.09649658203125 1.30731201171875
2823746875.0 -0.10003662109375 1.7281494140625
2854968750.0 1.01226806640625 1.4532470703125
2886190625.0 1.6898193359375 0.4893798828125
2917412500.0 1.59771728515625 -0.61932373046875
2948634375.0 0.93780517578125 -1.4327392578125
2979856250.0 -0.11016845703125 -1.77484130859375
3011078125.0 -1.24822998046875 -1.3397216796875
3042300000.0 -1.77288818359375 -0.23284912109375
3073521875.0 -1.50579833984375 0.83807373046875
3104743750.0 -0.7611083984375 1.56890869140625
3135965625.0 0.36376953125 1.80694580078125
3167187500.0 1.49884033203125 1.16143798828125
3198409375.0 1.8134765625 -0.076416015625
3229631250.0 1.34600830078125 -1.0806884765625
3260853125.0 0.48663330078125 -1.66741943359375
3292075000.0 -0.65582275390625 -1.69537353515625
3323296875.0 -1.6187744140625 -0.876708984375
3354518750.0 -1.7279052734375 0.3299560546875
3385740625.0 -1.1534423828125 1.23101806640625
3416962500.0 -0.22930908203125 1.67974853515625
3448184375.0 0.8607177734375 1.519287109375
3479406250.0 1.6348876953125 0.64166259765625
3510628125.0 1.6422119140625 -0.49627685546875
3541850000.0 0.9984130859375 -1.35528564453125
3573071875.0 -0.00909423828125 -1.68017578125
3604293750.0 -1.0279541015625 -1.33551025390625
3635515625.0 -1.62640380859375 -0.43658447265625
3666737500.0 -1.55999755859375 0.6475830078125
3697959375.0 -0.8221435546875 1.4749755859375
3729181250.0 0.26995849609375 1.6287841796875
3760403125.0 1.15191650390625 1.0955810546875
3791625000.0 1.5517578125 0.21612548828125
3822846875.0 1.3990478515625 -0.76226806640625
3854068750.0 0.6181640625 -1.4801025390625
3885290625.0 -0.4228515625 -1.4796142578125
3916512500.0 -1.14166259765625 -0.90887451171875
3947734375.0 -1.446533203125 -0.1181640625
3978956250.0 -1.29498291015625 0.778564453125
4010178125.0 -0.52911376953125 1.45379638671875
4041400000.0 0.47369384765625 1.413330078125
4072621875.0 1.15069580078125 0.84576416015625
4103843750.0 1.44390869140625 0.0614013671875
4135065625.0 1.2655029296875 -0.84600830078125
4166287500.0 0.4566650390625 -1.49395751953125
4197509375.0 -0.55743408203125 -1.41290283203125
4228731250.0 -1.24713134765625 -0.8009033203125
4259953125.0 -1.50799560546875 0.07177734375
4291175000.0 -1.1861572265625 1.0096435546875
4322396875.0 -0.28729248046875 1.52557373046875
4353618750.0 0.67401123046875 1.3480224609375
4384840625.0 1.3218994140625 0.6951904296875
4416062500.0 1.49847412109375 -0.228271484375
4447284375.0 1.05364990234375 -1.10369873046875
4478506250.0 0.1708984375 -1.49395751953125
4509728125.0 -0.7327880859375 -1.30517578125
4540950000.0 -1.39288330078125 -0.63446044921875
4572171875.0 -1.5201416015625 0.3604736328125
4603393750.0 -0.97088623046875 1.2110595703125
4634615625.0 -0.06060791015625 1.5345458984375
4665837500.0 0.8707275390625 1.30267333984375
4697059375.0 1.54052734375 0.51336669921875
4728281250.0 1.52642822265625 -0.58209228515625
4759503125.0 0.82110595703125 -1.3668212890625
4790725000.0 -0.14697265625 -1.571044921875
4821946875.0 -1.08306884765625 -1.1922607421875
4853168750.0 -1.61175537109375 -0.24969482421875
4884390625.0 -1.37591552734375 0.79327392578125
4915612500.0 -0.61175537109375 1.410888671875
4946834375.0 0.3311767578125 1.50823974609375
4978056250.0 1.20513916015625 1.01513671875
5009278125.0 1.56005859375 0.03778076171875
5040500000.0 1.22772216796875 -0.8768310546875
5071721875.0 0.50048828125 -1.41357421875
5102943750.0 -0.44659423828125 -1.494384765625
5134165625.0 -1.33526611328125 -0.90399169921875
5165387500.0 -1.56671142578125 0.14678955078125
5196609375.0 -1.13458251953125 1.010009765625
5227831250.0 -0.35638427734375 1.5057373046875
5259053125.0 0.68792724609375 1.49078369140625
5290275000.0 1.520751953125 0.6612548828125
5321496875.0 1.49066162109375 -0.4317626953125
5352718750.0 0.91943359375 -1.15325927734375
5383940625.0 0.0947265625 -1.49957275390625
5415162500.0 -0.9010009765625 -1.2818603515625
5446384375.0 -1.48406982421875 -0.36865234375
5477606250.0 -1.297119140625 0.56597900390625
5508828125.0 -0.7296142578125 1.1505126953125
5540050000.0 0.05548095703125 1.39752197265625
5571271875.0 0.93780517578125 1.1075439453125
5602493750.0 1.40740966796875 0.25872802734375
5633715625.0 1.23065185546875 -0.6126708984375
5664937500.0 0.64703369140625 -1.19970703125
5696159375.0 -0.19781494140625 -1.3829345703125
5727381250.0 -1.02288818359375 -0.97735595703125
5758603125.0 -1.390869140625 -0.14404296875
5789825000.0 -1.19281005859375 0.71746826171875
5821046875.0 -0.50543212890625 1.305908203125
5852268750.0 0.4124755859375 1.31268310546875
5883490625.0 1.07177734375 0.7705078125
5914712500.0 1.3013916015625 0.01873779296875
5945934375.0 1.09503173828125 -0.77642822265625
5977156250.0 0.36053466796875 -1.31085205078125
6008378125.0 -0.51007080078125 -1.18109130859375
6039600000.0 -1.02227783203125 -0.647705078125
6070821875.0 -1.22186279296875 -0.00390625
6102043750.0 -1.08184814453125 0.76177978515625
6133265625.0 -0.34124755859375 1.3431396484375
6164487500.0 0.56304931640625 1.18646240234375
6195709375.0 1.06964111328125 0.62908935546875
6226931250.0 1.27923583984375 -0.04376220703125
6258153125.0 1.103271484375 -0.87225341796875
6289375000.0 0.25482177734375 -1.44598388671875
6320596875.0 -0.6890869140625 -1.20538330078125
6351818750.0 -1.20111083984375 -0.57080078125
6383040625.0 -1.35418701171875 0.20794677734375
6414262500.0 -0.99951171875 1.0574951171875
6445484375.0 -0.07806396484375 1.4556884765625
6476706250.0 0.79632568359375 1.14739990234375
6507928125.0 1.2904052734375 0.46844482421875
6539150000.0 1.346435546875 -0.38720703125
6570371875.0 0.83978271484375 -1.144287109375
6601593750.0 -0.01776123046875 -1.4039306640625
6632815625.0 -0.840576171875 -1.1351318359375
6664037500.0 -1.40057373046875 -0.4189453125
6695259375.0 -1.3726806640625 0.56719970703125
6726481250.0 -0.70892333984375 1.25006103515625
6757703125.0 0.13128662109375 1.406005859375
6788925000.0 0.95501708984375 1.129150390625
6820146875.0 1.5596923828125 0.28692626953125
6851368750.0 1.32513427734375 -0.820068359375
6882590625.0 0.50531005859375 -1.33740234375
6913812500.0 -0.29296875 -1.3553466796875
6945034375.0 -1.0706787109375 -1.02081298828125
6976256250.0 -1.59185791015625 -0.0924072265625
7007478125.0 -1.2342529296875 0.9337158203125
7038700000.0 -0.40106201171875 1.34283447265625
7069921875.0 0.35986328125 1.3221435546875
7101143750.0 1.11907958984375 0.967041015625
7132365625.0 1.60015869140625 0.0120849609375
7163587500.0 1.1566162109375 -1.02294921875
7194809375.0 0.30010986328125 -1.39556884765625
7226031250.0 -0.51312255859375 -1.32427978515625
7257253125.0 -1.263916015625 -0.82403564453125
7288475000.0 -1.5574951171875 0.20025634765625
7319696875.0 -1.02862548828125 1.108642578125
7350918750.0 -0.16363525390625 1.4439697265625
7382140625.0 0.7178955078125 1.275390625
7413362500.0 1.37567138671875 0.57550048828125
7444584375.0 1.41082763671875 -0.40643310546875
7475806250.0 0.856201171875 -1.142822265625
7507028125.0 0.00439453125 -1.4300537109375
7538250000.0 -0.88726806640625 -1.12359619140625
7569471875.0 -1.33563232421875 -0.30914306640625
7600693750.0 -1.2017822265625 0.497802734375
7631915625.0 -0.717041015625 1.0845947265625
7663137500.0 0.081298828125 1.35699462890625
7694359375.0 0.94036865234375 0.9788818359375
7725581250.0 1.2418212890625 0.1806640625
7756803125.0 1.0816650390625 -0.50018310546875
7788025000.0 0.66998291015625 -1.044189453125
7819246875.0 -0.1209716796875 -1.3453369140625
7850468750.0 -0.993560791015625 -0.91412353515625
7881690625.0 -1.23016357421875 -0.10406494140625
7912912500.0 -1.053466796875 0.553955078125
7944134375.0 -0.6044921875 1.113525390625
7975356250.0 0.2730712890625 1.33544921875
8006578125.0 1.0467529296875 0.77801513671875
8037800000.0 1.19244384765625 0.0152587890625
8069021875.0 1.00579833984375 -0.618408203125
8100243750.0 0.49859619140625 -1.16070556640625
8131465625.0 -0.38720703125 -1.25323486328125
8162687500.0 -1.03082275390625 -0.6851806640625
8193909375.0 -1.18280029296875 0.01116943359375
8225131250.0 -1.0169677734375 0.67742919921875
8256353125.0 -0.42132568359375 1.24810791015625
8287575000.0 0.50079345703125 1.2254638671875
8318796875.0 1.08203125 0.63409423828125
8350018750.0 1.244384765625 -0.07574462890625
8381240625.0 1.02984619140625 -0.83795166015625
8412462500.0 0.25396728515625 -1.37408447265625
8443684375.0 -0.67059326171875 -1.1693115234375
8474906250.0 -1.17340087890625 -0.53155517578125
8506128125.0 -1.297607421875 0.23724365234375
8537350000.0 -0.9241943359375 1.0455322265625
8568571875.0 -0.0152587890625 1.3944091796875
8599793750.0 0.80157470703125 1.05255126953125
8631015625.0 1.2431640625 0.396240234375
8662237500.0 1.284912109375 -0.42877197265625
8693459375.0 0.73504638671875 -1.1776123046875
8724681250.0 -0.16339111328125 -1.33160400390625
8755903125.0 -0.881561279296875 -0.956817626953125
8787125000.0 -1.30303955078125 -0.28131103515625
8818346875.0 -1.250732421875 0.61602783203125
8849568750.0 -0.55474853515625 1.26226806640625
8880790625.0 0.29931640625 1.28466796875
8912012500.0 0.982269287109375 0.8914794921875
8943234375.0 1.3994140625 0.12762451171875
8974456250.0 1.1666259765625 -0.837890625
9005678125.0 0.34771728515625 -1.3133544921875
9036900000.0 -0.44482421875 -1.2244873046875
9068121875.0 -1.1021728515625 -0.78509521484375
9099343750.0 -1.440673828125 0.09771728515625
9130565625.0 -0.97894287109375 1.01080322265625
9161787500.0 -0.1544189453125 1.28125
9193009375.0 0.55401611328125 1.1326904296875
9224231250.0 1.1798095703125 0.65399169921875
9255453125.0 1.3995361328125 -0.2978515625
9286675000.0 0.805419921875 -1.0882568359375
9317896875.0 0.02557373046875 -1.2462158203125
9349118750.0 -0.65386962890625 -1.06903076171875
9380340625.0 -1.25726318359375 -0.508544921875
9411562500.0 -1.310791015625 0.47802734375
9442784375.0 -0.6468505859375 1.1156005859375
9474006250.0 0.08819580078125 1.21002197265625
9505228125.0 0.764312744140625 0.978973388671875
9536450000.0 1.272705078125 0.31317138671875
9567671875.0 1.14404296875 -0.58111572265625
9598893750.0 0.53009033203125 -1.0687255859375
9630115625.0 -0.1439208984375 -1.1575927734375
9661337500.0 -0.818389892578125 -0.902069091796875
9692559375.0 -1.2396240234375 -0.18890380859375
9723781250.0 -1.04315185546875 0.6033935546875
9755003125.0 -0.4857177734375 1.05169677734375
9786225000.0 0.2000732421875 1.1595458984375
9817446875.0 0.893951416015625 0.82647705078125
9848668750.0 1.1978759765625 0.078369140625
9879890625.0 0.968841552734375 -0.617584228515625
9911112500.0 0.452392578125 -1.05120849609375
9942334375.0 -0.26922607421875 -1.15869140625
9973556250.0 -0.9462890625 -0.737640380859375
10004778125.0 -1.14434814453125 -0.018310546875
10036000000.0 -0.943634033203125 0.616973876953125
10067221875.0 -0.4415283203125 1.09661865234375
10098443750.0 0.36968994140625 1.1805419921875
10129665625.0 1.00360107421875 0.64227294921875
10160887500.0 1.11968994140625 -0.052001953125
10192109375.0 0.91790771484375 -0.6644287109375
10223331250.0 0.36004638671875 -1.1533203125
10254553125.0 -0.48626708984375 -1.1141357421875
10285775000.0 -0.98406982421875 -0.53564453125
10316996875.0 -1.06591796875 0.0762939453125
10348218750.0 -0.899017333984375 0.67144775390625
10379440625.0 -0.32110595703125 1.1766357421875
10410662500.0 0.52862548828125 1.0843505859375
10441884375.0 0.990631103515625 0.521270751953125
10473106250.0 1.10784912109375 -0.08404541015625
10504328125.0 0.949798583984375 -0.7567138671875
10535550000.0 0.239501953125 -1.294189453125
10566771875.0 -0.65753173828125 -1.0767822265625
10597993750.0 -1.081787109375 -0.45831298828125
10629215625.0 -1.17535400390625 0.20574951171875
10660437500.0 -0.8870849609375 0.95025634765625
10691659375.0 -0.0101318359375 1.3350830078125
10722881250.0 0.785736083984375 0.9517822265625
10754103125.0 1.119384765625 0.3236083984375
10785325000.0 1.13946533203125 -0.36785888671875
10816546875.0 0.700439453125 -1.04840087890625
10847768750.0 -0.14581298828125 -1.22894287109375
10878990625.0 -0.804901123046875 -0.843414306640625
10910212500.0 -1.12347412109375 -0.2447509765625
10941434375.0 -1.09613037109375 0.477783203125
10972656250.0 -0.56744384765625 1.085693359375
11003878125.0 0.21710205078125 1.17291259765625
11035100000.0 0.849273681640625 0.821624755859375
11066321875.0 1.2210693359375 0.17242431640625
11097543750.0 1.09747314453125 -0.67694091796875
11128765625.0 0.38482666015625 -1.200439453125
11159987500.0 -0.39569091796875 -1.138427734375
11191209375.0 -1.00146484375 -0.70281982421875
11222431250.0 -1.273681640625 0.09417724609375
11253653125.0 -0.8590087890625 0.89556884765625
11284875000.0 -0.11419677734375 1.12640380859375
11316096875.0 0.511474609375 0.955535888671875
11347318750.0 1.002197265625 0.5013427734375
11378540625.0 1.11639404296875 -0.26824951171875
11409762500.0 0.63409423828125 -0.859619140625
11440984375.0 0.03448486328125 -0.97955322265625
11472206250.0 -0.48236083984375 -0.850616455078125
11503428125.0 -0.95269775390625 -0.455718994140625
11534650000.0 -1.06903076171875 0.2884521484375
11565871875.0 -0.6021728515625 0.855072021484375
11597093750.0 -0.017974853515625 0.991180419921875
11628315625.0 0.54644775390625 0.875030517578125
11659537500.0 1.06036376953125 0.39105224609375
11690759375.0 1.06475830078125 -0.4337158203125
11721981250.0 0.516357421875 -0.93994140625
11753203125.0 -0.10626220703125 -1.03662109375
11784425000.0 -0.726043701171875 -0.8079833984375
11815646875.0 -1.100341796875 -0.15045166015625
11846868750.0 -0.891387939453125 0.552581787109375
11878090625.0 -0.390350341796875 0.91021728515625
11909312500.0 0.186492919921875 0.983642578125
11940534375.0 0.780181884765625 0.6944580078125
11971756250.0 1.025146484375 0.03826904296875
12002978125.0 0.80596923828125 -0.53680419921875
12034200000.0 0.381103515625 -0.890289306640625
12065421875.0 -0.216064453125 -1.00897216796875
12096643750.0 -0.847991943359375 -0.66455078125
12127865625.0 -1.03448486328125 0.017333984375
12159087500.0 -0.8140869140625 0.57489013671875
12190309375.0 -0.378021240234375 0.97442626953125
12221531250.0 0.33953857421875 1.08758544921875
12252753125.0 0.98126220703125 0.580963134765625
12283975000.0 1.05352783203125 -0.127197265625
12315196875.0 0.8001708984375 -0.67681884765625
12346418750.0 0.28125 -1.09088134765625
12377640625.0 -0.5382080078125 -1.0601806640625
12408862500.0 -1.034423828125 -0.41998291015625
12440084375.0 -1.0078125 0.2244873046875
12471306250.0 -0.742462158203125 0.73748779296875
12502528125.0 -0.18023681640625 1.119384765625
12533750000.0 0.618988037109375 0.99169921875
12564971875.0 1.04010009765625 0.36419677734375
12596193750.0 1.0294189453125 -0.265625
12627415625.0 0.747467041015625 -0.829315185546875
12658637500.0 0.07928466796875 -1.2064208984375
12689859375.0 -0.735382080078125 -0.965728759765625
12721081250.0 -1.11663818359375 -0.30511474609375
12752303125.0 -1.0980224609375 0.383056640625
12783525000.0 -0.686767578125 1.02783203125
12814746875.0 0.1649169921875 1.2518310546875
12845968750.0 0.861358642578125 0.81134033203125
12877190625.0 1.11767578125 0.17108154296875
12908412500.0 1.05633544921875 -0.502685546875
12939634375.0 0.54254150390625 -1.11676025390625
12970856250.0 -0.3206787109375 -1.17413330078125
13002078125.0 -0.894378662109375 -0.69329833984375
13033300000.0 -1.10528564453125 -0.086669921875
13064521875.0 -1.00762939453125 0.59521484375
13095743750.0 -0.42071533203125 1.15338134765625
13126965625.0 0.41070556640625 1.12078857421875
13158187500.0 0.949188232421875 0.6318359375
13189409375.0 1.1485595703125 -0.0223388671875
13220631250.0 0.935546875 -0.747344970703125
13251853125.0 0.23333740234375 -1.17303466796875
13283075000.0 -0.5086669921875 -1.02008056640625
13314296875.0 -0.986419677734375 -0.529998779296875
13345518750.0 -1.134765625 0.177978515625
