!Created with skrf (http://scikit-rf.org).
# Hz S RI R 50.0 
!freq ReS11 ImS11
45000000.0 -0.07698822021484375 -0.09696197509765625
76221875.0 -0.196990966796875 -0.0475006103515625
107443750.0 -0.255706787109375 0.120208740234375
138665625.0 -0.1485137939453125 0.3296966552734375
169887500.0 0.1239013671875 0.418701171875
201109375.0 0.4232025146484375 0.2820587158203125
232331250.0 0.580596923828125 -0.05804443359375
263553125.0 0.490692138671875 -0.45440673828125
294775000.0 0.098419189453125 -0.734954833984375
325996875.0 -0.41717529296875 -0.682769775390625
357218750.0 -0.8095703125 -0.297821044921875
388440625.0 -0.8885498046875 0.302154541015625
419662500.0 -0.51837158203125 0.869354248046875
450884375.0 0.17376708984375 1.03228759765625
482106250.0 0.80126953125 0.714935302734375
513328125.0 1.12286376953125 0.08685302734375
544550000.0 1.00592041015625 -0.6822509765625
575771875.0 0.3370361328125 -1.24139404296875
606993750.0 -0.5555419921875 -1.180419921875
638215625.0 -1.16943359375 -0.59173583984375
669437500.0 -1.34368896484375 0.235107421875
700659375.0 -0.9730224609375 1.099609375
731881250.0 -0.00323486328125 1.5477294921875
763103125.0 1.00872802734375 1.158935546875
794325000.0 1.47344970703125 0.28192138671875
825546875.0 1.37091064453125 -0.65423583984375
856768750.0 0.79583740234375 -1.40576171875
887990625.0 -0.2945556640625 -1.6533203125
919212500.0 -1.29345703125 -1.08154296875
950434375.0 -1.65435791015625 -0.0579833984375
981656250.0 -1.38641357421875 0.950439453125
1012878125.0 -0.5296630859375 1.6776123046875
1044100000.0 0.70074462890625 1.66741943359375
1075321875.0 1.5816650390625 0.81353759765625
1106543750.0 1.71051025390625 -0.31549072265625
1137765625.0 1.19000244140625 -1.2891845703125
1168987500.0 0.1375732421875 -1.80352783203125
1200209375.0 -1.06683349609375 -1.48822021484375
1231431250.0 -1.73388671875 -0.45306396484375
1262653125.0 -1.59869384765625 0.68853759765625
1293875000.0 -0.85382080078125 1.49688720703125
1325096875.0 0.22991943359375 1.71282958984375
1356318750.0 1.24017333984375 1.22015380859375
1387540625.0 1.74603271484375 0.18780517578125
1418762500.0 1.4727783203125 -0.9559326171875
1449984375.0 0.5296630859375 -1.63128662109375
1481206250.0 -0.5526123046875 -1.5604248046875
1512428125.0 -1.3472900390625 -0.92120361328125
1543650000.0 -1.66046142578125 0.06719970703125
1574871875.0 -1.27593994140625 1.11285400390625
1606093750.0 -0.272705078125 1.63629150390625
1637315625.0 0.74591064453125 1.4041748046875
1668537500.0 1.4012451171875 0.69647216796875
1699759375.0 1.5780029296875 -0.279052734375
1730981250.0 1.06646728515625 -1.23419189453125
1762203125.0 0.04083251953125 -1.57574462890625
1793425000.0 -0.8594970703125 -1.22930908203125
1824646875.0 -1.398193359375 -0.5152587890625
1855868750.0 -1.47821044921875 0.4354248046875
1887090625.0 -0.87615966796875 1.290771484375
1918312500.0 0.11962890625 1.4913330078125
1949534375.0 0.92547607421875 1.09100341796875
1980756250.0 1.3790283203125 0.36962890625
2011978125.0 1.3629150390625 -0.5340576171875
2043200000.0 0.75152587890625 -1.265625
2074421875.0 -0.15863037109375 -1.43731689453125
2105643750.0 -0.96466064453125 -1.07470703125
2136865625.0 -1.45233154296875 -0.3040771484375
2168087500.0 -1.3603515625 0.67474365234375
2199309375.0 -0.6395263671875 1.35577392578125
2230531250.0 0.28497314453125 1.44036865234375
2261753125.0 1.07745361328125 1.01544189453125
2292975000.0 1.51910400390625 0.16864013671875
2324196875.0 1.3082275390625 -0.82293701171875
2355418750.0 0.5247802734375 -1.42486572265625
2386640625.0 -0.40789794921875 -1.452392578125
2417862500.0 -1.186767578125 -1.025146484375
2449084375.0 -1.6085205078125 -0.08184814453125
2480306250.0 -1.31378173828125 0.92974853515625
2511528125.0 -0.493896484375 1.51318359375
2542750000.0 0.49273681640625 1.54034423828125
2573971875.0 1.37701416015625 0.9691162109375
2605193750.0 1.72265625 -0.11578369140625
2636415625.0 1.26336669921875 -1.15789794921875
2667637500.0 0.305419921875 -1.67169189453125
2698859375.0 -0.77459716796875 -1.5380859375
2730081250.0 -1.5794677734375 -0.74102783203125
2761303125.0 -1.6861572265625 0.3914794921875
2792525000.0 -1.1011962890625 1.31414794921875
2823746875.0 -0.10003662109375 1.73614501953125
2854968750.0 1.0181884765625 1.45892333984375
2886190625.0 1.69793701171875 0.49041748046875
2917412500.0 1.6041259765625 -0.6234130859375
2948634375.0 0.9398193359375 -1.43994140625
2979856250.0 -0.1121826171875 -1.78173828125
3011078125.0 -1.2547607421875 -1.34466552734375
3042300000.0 -1.78173828125 -0.231689453125
3073521875.0 -1.511962890625 0.84326171875
3104743750.0 -0.7628173828125 1.5760498046875
3135965625.0 0.3665771484375 1.81414794921875
3167187500.0 1.505859375 1.165283203125
3198409375.0 1.82073974609375 -0.07818603515625
3229631250.0 1.35113525390625 -1.086181640625
3260853125.0 0.48760986328125 -1.67535400390625
3292075000.0 -0.6597900390625 -1.70263671875
3323296875.0 -1.62701416015625 -0.87933349609375
3354518750.0 -1.73614501953125 0.3338623046875
3385740625.0 -1.15771484375 1.23822021484375
3416962500.0 -0.22943115234375 1.68701171875
3448184375.0 0.865966796875 1.5247802734375
3479406250.0 1.64239501953125 0.6431884765625
3510628125.0 1.64794921875 -0.49945068359375
3541850000.0 1.00067138671875 -1.36126708984375
3573071875.0 -0.01025390625 -1.6864013671875
3604293750.0 -1.03363037109375 -1.33966064453125
3635515625.0 -1.6337890625 -0.43634033203125
3666737500.0 -1.565673828125 0.6519775390625
3697959375.0 -0.8245849609375 1.48236083984375
3729181250.0 0.27191162109375 1.63525390625
3760403125.0 1.15679931640625 1.09967041015625
3791625000.0 1.55657958984375 0.217041015625
3822846875.0 1.40533447265625 -0.7652587890625
3854068750.0 0.619873046875 -1.48779296875
3885290625.0 -0.42547607421875 -1.485595703125
3916512500.0 -1.14788818359375 -0.911865234375
3947734375.0 -1.453125 -0.117431640625
3978956250.0 -1.30010986328125 0.78399658203125
4010178125.0 -0.52874755859375 1.4619140625
4041400000.0 0.4793701171875 1.4190673828125
4072621875.0 1.15771484375 0.8470458984375
4103843750.0 1.44793701171875 0.06103515625
4135065625.0 1.26947021484375 -0.85089111328125
4166287500.0 0.455322265625 -1.50067138671875
4197509375.0 -0.5623779296875 -1.4166259765625
4228731250.0 -1.25396728515625 -0.80157470703125
4259953125.0 -1.51324462890625 0.07452392578125
4291175000.0 -1.1895751953125 1.01495361328125
4322396875.0 -0.28692626953125 1.5313720703125
4353618750.0 0.67822265625 1.35272216796875
4384840625.0 1.32684326171875 0.69659423828125
4416062500.0 1.505126953125 -0.23126220703125
4447284375.0 1.055908203125 -1.1103515625
4478506250.0 0.1695556640625 -1.50067138671875
4509728125.0 -0.738525390625 -1.30999755859375
4540950000.0 -1.39959716796875 -0.63458251953125
4572171875.0 -1.5263671875 0.36578369140625
4603393750.0 -0.97149658203125 1.21881103515625
4634615625.0 -0.05718994140625 1.5418701171875
4665837500.0 0.87689208984375 1.30584716796875
4697059375.0 1.54779052734375 0.512451171875
4728281250.0 1.5311279296875 -0.58831787109375
4759503125.0 0.821044921875 -1.37274169921875
4790725000.0 -0.1502685546875 -1.57623291015625
4821946875.0 -1.08917236328125 -1.1943359375
4853168750.0 -1.61846923828125 -0.24810791015625
4884390625.0 -1.38031005859375 0.79962158203125
4915612500.0 -0.6124267578125 1.418212890625
4946834375.0 0.3333740234375 1.51287841796875
4978056250.0 1.21002197265625 1.017578125
5009278125.0 1.5673828125 0.03582763671875
5040500000.0 1.230712890625 -0.88104248046875
5071721875.0 0.49908447265625 -1.4207763671875
5102943750.0 -0.45166015625 -1.50054931640625
5134165625.0 -1.34228515625 -0.90380859375
5165387500.0 -1.5726318359375 0.15264892578125
5196609375.0 -1.1361083984375 1.01617431640625
5227831250.0 -0.353759765625 1.51220703125
5259053125.0 0.6954345703125 1.4949951171875
5290275000.0 1.5274658203125 0.65972900390625
5321496875.0 1.4949951171875 -0.43646240234375
5352718750.0 0.92041015625 -1.1583251953125
5383940625.0 0.09375 -1.5042724609375
5415162500.0 -0.9066162109375 -1.28515625
5446384375.0 -1.49017333984375 -0.3671875
5477606250.0 -1.30169677734375 0.57122802734375
5508828125.0 -0.73046875 1.156982421875
5540050000.0 0.05780029296875 1.40350341796875
5571271875.0 0.94525146484375 1.1103515625
5602493750.0 1.41436767578125 0.25628662109375
5633715625.0 1.23455810546875 -0.6185302734375
5664937500.0 0.64630126953125 -1.2081298828125
5696159375.0 -0.201904296875 -1.38751220703125
5727381250.0 -1.02874755859375 -0.97796630859375
5758603125.0 -1.39593505859375 -0.14068603515625
5789825000.0 -1.19512939453125 0.72369384765625
5821046875.0 -0.502685546875 1.31353759765625
5852268750.0 0.41668701171875 1.3153076171875
5883490625.0 1.076171875 0.77093505859375
5914712500.0 1.3055419921875 0.01654052734375
5945934375.0 1.09783935546875 -0.78167724609375
5977156250.0 0.3582763671875 -1.31756591796875
6008378125.0 -0.51422119140625 -1.1837158203125
6039600000.0 -1.02630615234375 -0.64794921875
6070821875.0 -1.2283935546875 -0.00054931640625
6102043750.0 -1.085205078125 0.768798828125
6133265625.0 -0.337890625 1.35125732421875
6164487500.0 0.56976318359375 1.18927001953125
6195709375.0 1.0760498046875 0.6285400390625
6226931250.0 1.28369140625 -0.04681396484375
6258153125.0 1.1048583984375 -0.878662109375
6289375000.0 0.25 -1.45196533203125
6320596875.0 -0.6966552734375 -1.20587158203125
6351818750.0 -1.205322265625 -0.56878662109375
6383040625.0 -1.3577880859375 0.21282958984375
6414262500.0 -0.99822998046875 1.0643310546875
6445484375.0 -0.0726318359375 1.46099853515625
6476706250.0 0.80224609375 1.1483154296875
6507928125.0 1.29522705078125 0.46649169921875
6539150000.0 1.35064697265625 -0.392578125
6570371875.0 0.8402099609375 -1.148681640625
6601593750.0 -0.021240234375 -1.4080810546875
6632815625.0 -0.8460693359375 -1.1370849609375
6664037500.0 -1.40753173828125 -0.41656494140625
6695259375.0 -1.376220703125 0.57421875
6726481250.0 -0.70745849609375 1.25750732421875
6757703125.0 0.1363525390625 1.410888671875
6788925000.0 0.961669921875 1.1302490234375
6820146875.0 1.56732177734375 0.281494140625
6851368750.0 1.32550048828125 -0.82708740234375
6882590625.0 0.50225830078125 -1.34375
6913812500.0 -0.29827880859375 -1.35906982421875
6945034375.0 -1.07659912109375 -1.0205078125
6976256250.0 -1.59747314453125 -0.08758544921875
7007478125.0 -1.23651123046875 0.93927001953125
7038700000.0 -0.39935302734375 1.3472900390625
7069921875.0 0.3641357421875 1.326904296875
7101143750.0 1.12591552734375 0.9681396484375
7132365625.0 1.60479736328125 0.0087890625
7163587500.0 1.15936279296875 -1.0257568359375
7194809375.0 0.29791259765625 -1.40545654296875
7226031250.0 -0.5186767578125 -1.32904052734375
7257253125.0 -1.27459716796875 -0.82208251953125
7288475000.0 -1.562255859375 0.2047119140625
7319696875.0 -1.0291748046875 1.11822509765625
7350918750.0 -0.1580810546875 1.45123291015625
7382140625.0 0.72406005859375 1.2786865234375
7413362500.0 1.38580322265625 0.57177734375
7444584375.0 1.41412353515625 -0.4144287109375
7475806250.0 0.85626220703125 -1.151611328125
7507028125.0 0.0003662109375 -1.43414306640625
7538250000.0 -0.89501953125 -1.1226806640625
7569471875.0 -1.341064453125 -0.30682373046875
7600693750.0 -1.20379638671875 0.50323486328125
7631915625.0 -0.7171630859375 1.09161376953125
7663137500.0 0.08526611328125 1.36334228515625
7694359375.0 0.946929931640625 0.982086181640625
7725581250.0 1.24737548828125 0.177734375
7756803125.0 1.08551025390625 -0.50457763671875
7788025000.0 0.66839599609375 -1.05108642578125
7819246875.0 -0.12579345703125 -1.353759765625
7850468750.0 -1.00177001953125 -0.91510009765625
7881690625.0 -1.2374267578125 -0.09979248046875
7912912500.0 -1.05609130859375 0.55963134765625
7944134375.0 -0.6019287109375 1.1212158203125
7975356250.0 0.27972412109375 1.3394775390625
8006578125.0 1.0535888671875 0.7757568359375
8037800000.0 1.196533203125 0.01263427734375
8069021875.0 1.007080078125 -0.62213134765625
8100243750.0 0.49639892578125 -1.16717529296875
8131465625.0 -0.39202880859375 -1.2550048828125
8162687500.0 -1.037109375 -0.68463134765625
8193909375.0 -1.1859130859375 0.013427734375
8225131250.0 -1.01947021484375 0.68597412109375
8256353125.0 -0.4171142578125 1.2567138671875
8287575000.0 0.5081787109375 1.2283935546875
8318796875.0 1.089599609375 0.6328125
8350018750.0 1.250732421875 -0.0819091796875
8381240625.0 1.0323486328125 -0.84869384765625
8412462500.0 0.24853515625 -1.3812255859375
8443684375.0 -0.67718505859375 -1.17022705078125
8474906250.0 -1.18121337890625 -0.52825927734375
8506128125.0 -1.30157470703125 0.2432861328125
8537350000.0 -0.92242431640625 1.05322265625
8568571875.0 -0.009521484375 1.39788818359375
8599793750.0 0.80877685546875 1.0528564453125
8631015625.0 1.24749755859375 0.39422607421875
8662237500.0 1.28765869140625 -0.433837890625
8693459375.0 0.73443603515625 -1.1845703125
8724681250.0 -0.16839599609375 -1.3359375
8755903125.0 -0.887664794921875 -0.95819091796875
8787125000.0 -1.3095703125 -0.27923583984375
8818346875.0 -1.25396728515625 0.62506103515625
8849568750.0 -0.55377197265625 1.267578125
8880790625.0 0.3055419921875 1.28900146484375
8912012500.0 0.989715576171875 0.89227294921875
8943234375.0 1.4068603515625 0.12115478515625
8974456250.0 1.166015625 -0.84942626953125
9005678125.0 0.3411865234375 -1.31951904296875
9036900000.0 -0.45367431640625 -1.226318359375
9068121875.0 -1.11041259765625 -0.78277587890625
9099343750.0 -1.44549560546875 0.1063232421875
9130565625.0 -0.975830078125 1.019287109375
9161787500.0 -0.14959716796875 1.28668212890625
9193009375.0 0.5606689453125 1.13494873046875
9224231250.0 1.18585205078125 0.65338134765625
9255453125.0 1.40289306640625 -0.30267333984375
9286675000.0 0.80511474609375 -1.091064453125
9317896875.0 0.021240234375 -1.251708984375
9349118750.0 -0.6595458984375 -1.07177734375
9380340625.0 -1.26641845703125 -0.50579833984375
9411562500.0 -1.31549072265625 0.48724365234375
9442784375.0 -0.6456298828125 1.1231689453125
9474006250.0 0.09588623046875 1.2164306640625
9505228125.0 0.77349853515625 0.979156494140625
9536450000.0 1.2823486328125 0.3052978515625
9567671875.0 1.14373779296875 -0.588134765625
9598893750.0 0.52532958984375 -1.07586669921875
9630115625.0 -0.14971923828125 -1.16107177734375
9661337500.0 -0.828094482421875 -0.901153564453125
9692559375.0 -1.2432861328125 -0.182373046875
9723781250.0 -1.04302978515625 0.61090087890625
9755003125.0 -0.48138427734375 1.0579833984375
9786225000.0 0.20562744140625 1.16326904296875
9817446875.0 0.900360107421875 0.826629638671875
9848668750.0 1.20318603515625 0.07177734375
9879890625.0 0.96826171875 -0.6226806640625
9911112500.0 0.44903564453125 -1.0584716796875
9942334375.0 -0.27557373046875 -1.1634521484375
9973556250.0 -0.9520263671875 -0.735260009765625
10004778125.0 -1.15118408203125 -0.01068115234375
10036000000.0 -0.944610595703125 0.624237060546875
10067221875.0 -0.4365234375 1.10418701171875
10098443750.0 0.38037109375 1.183837890625
10129665625.0 1.00958251953125 0.638916015625
10160887500.0 1.1224365234375 -0.0582275390625
10192109375.0 0.9166259765625 -0.669769287109375
10223331250.0 0.35516357421875 -1.1595458984375
10254553125.0 -0.49468994140625 -1.113525390625
10285775000.0 -0.99029541015625 -0.531341552734375
10316996875.0 -1.068603515625 0.08123779296875
10348218750.0 -0.900146484375 0.678314208984375
10379440625.0 -0.316650390625 1.18182373046875
10410662500.0 0.53240966796875 1.08612060546875
10441884375.0 0.997467041015625 0.518890380859375
10473106250.0 1.11419677734375 -0.0904541015625
10504328125.0 0.949554443359375 -0.76519775390625
10535550000.0 0.23211669921875 -1.302490234375
10566771875.0 -0.66595458984375 -1.07586669921875
10597993750.0 -1.0875244140625 -0.4539794921875
10629215625.0 -1.17791748046875 0.21246337890625
10660437500.0 -0.885955810546875 0.961334228515625
10691659375.0 -0.0013427734375 1.33905029296875
10722881250.0 0.792022705078125 0.9498291015625
10754103125.0 1.123046875 0.321044921875
10785325000.0 1.14251708984375 -0.3741455078125
10816546875.0 0.6986083984375 -1.05609130859375
10847768750.0 -0.15228271484375 -1.2325439453125
10878990625.0 -0.810150146484375 -0.84234619140625
10910212500.0 -1.1275634765625 -0.24151611328125
10941434375.0 -1.0989990234375 0.4844970703125
10972656250.0 -0.56439208984375 1.09368896484375
11003878125.0 0.223388671875 1.17669677734375
11035100000.0 0.856353759765625 0.820587158203125
11066321875.0 1.2265625 0.16802978515625
11097543750.0 1.09912109375 -0.68511962890625
11128765625.0 0.38006591796875 -1.207275390625
11159987500.0 -0.40484619140625 -1.140625
11191209375.0 -1.00897216796875 -0.699951171875
11222431250.0 -1.27545166015625 0.1002197265625
11253653125.0 -0.8551025390625 0.90252685546875
11284875000.0 -0.108642578125 1.1307373046875
11316096875.0 0.517852783203125 0.958038330078125
11347318750.0 1.00909423828125 0.49871826171875
11378540625.0 1.11871337890625 -0.27679443359375
11409762500.0 0.63165283203125 -0.86517333984375
11440984375.0 0.0313720703125 -0.98126220703125
11472206250.0 -0.4859619140625 -0.8505859375
11503428125.0 -0.961273193359375 -0.452392578125
11534650000.0 -1.07073974609375 0.29620361328125
11565871875.0 -0.59979248046875 0.8602294921875
11597093750.0 -0.014190673828125 0.99493408203125
11628315625.0 0.552459716796875 0.87664794921875
11659537500.0 1.0675048828125 0.38787841796875
11690759375.0 1.06671142578125 -0.44415283203125
11721981250.0 0.51324462890625 -0.946197509765625
11753203125.0 -0.11187744140625 -1.03961181640625
11784425000.0 -0.733367919921875 -0.807403564453125
11815646875.0 -1.1070556640625 -0.1439208984375
11846868750.0 -0.89068603515625 0.558349609375
11878090625.0 -0.386993408203125 0.915313720703125
11909312500.0 0.1927490234375 0.9871826171875
11940534375.0 0.786285400390625 0.693603515625
11971756250.0 1.029052734375 0.03350830078125
12002978125.0 0.806121826171875 -0.54541015625
12034200000.0 0.37762451171875 -0.895233154296875
12065421875.0 -0.22344970703125 -1.0137939453125
12096643750.0 -0.854766845703125 -0.661773681640625
12127865625.0 -1.036376953125 0.02349853515625
12159087500.0 -0.814666748046875 0.583251953125
12190309375.0 -0.372161865234375 0.982513427734375
12221531250.0 0.349365234375 1.09100341796875
12252753125.0 0.98590087890625 0.576141357421875
12283975000.0 1.056396484375 -0.13519287109375
12315196875.0 0.79876708984375 -0.6817626953125
12346418750.0 0.274658203125 -1.09857177734375
12377640625.0 -0.547119140625 -1.06085205078125
12408862500.0 -1.03826904296875 -0.4150390625
12440084375.0 -1.00921630859375 0.2314453125
12471306250.0 -0.7412109375 0.743804931640625
12502528125.0 -0.17431640625 1.1260986328125
12533750000.0 0.6278076171875 0.99249267578125
12564971875.0 1.04791259765625 0.35870361328125
12596193750.0 1.03192138671875 -0.2716064453125
12627415625.0 0.74627685546875 -0.836822509765625
12658637500.0 0.07232666015625 -1.21331787109375
12689859375.0 -0.746612548828125 -0.96563720703125
12721081250.0 -1.1236572265625 -0.2989501953125
12752303125.0 -1.10003662109375 0.38983154296875
12783525000.0 -0.6827392578125 1.0379638671875
12814746875.0 0.1744384765625 1.25341796875
12845968750.0 0.87017822265625 0.807861328125
12877190625.0 1.12164306640625 0.1654052734375
12908412500.0 1.0567626953125 -0.51080322265625
12939634375.0 0.5360107421875 -1.12652587890625
12970856250.0 -0.3289794921875 -1.17578125
13002078125.0 -0.900177001953125 -0.689544677734375
13033300000.0 -1.1107177734375 -0.08038330078125
13064521875.0 -1.0093994140625 0.6025390625
13095743750.0 -0.41314697265625 1.16094970703125
13126965625.0 0.4163818359375 1.12103271484375
13158187500.0 0.95367431640625 0.62835693359375
13189409375.0 1.1534423828125 -0.029296875
13220631250.0 0.93603515625 -0.758209228515625
13251853125.0 0.2274169921875 -1.177978515625
13283075000.0 -0.5169677734375 -1.01971435546875
13314296875.0 -0.997222900390625 -0.524749755859375
13345518750.0 -1.13897705078125 0.18634033203125
