!Created with skrf (http://scikit-rf.org).
# Hz S RI R 50.0 
!freq ReS11 ImS11
45000000.0 -0.07666397094726562 -0.09704971313476562
76221875.0 -0.19672393798828125 -0.048004150390625
107443750.0 -0.255889892578125 0.1194000244140625
138665625.0 -0.14935302734375 0.3289794921875
169887500.0 0.1227569580078125 0.41876220703125
201109375.0 0.42218017578125 0.282684326171875
232331250.0 0.58038330078125 -0.056182861328125
263553125.0 0.4915924072265625 -0.452728271484375
294775000.0 0.100311279296875 -0.73388671875
325996875.0 -0.41485595703125 -0.683502197265625
357218750.0 -0.807952880859375 -0.29974365234375
388440625.0 -0.888763427734375 0.29949951171875
419662500.0 -0.520538330078125 0.867645263671875
450884375.0 0.1708984375 1.03167724609375
482106250.0 0.798736572265625 0.71624755859375
513328125.0 1.12200927734375 0.08984375
544550000.0 1.00732421875 -0.67919921875
575771875.0 0.33984375 -1.2398681640625
606993750.0 -0.55206298828125 -1.1810302734375
638215625.0 -1.1669921875 -0.59442138671875
669437500.0 -1.34326171875 0.23126220703125
700659375.0 -0.97540283203125 1.096435546875
731881250.0 -0.007568359375 1.54608154296875
763103125.0 1.0048828125 1.1607666015625
794325000.0 1.47149658203125 0.2857666015625
825546875.0 1.37152099609375 -0.6500244140625
856768750.0 0.798828125 -1.40277099609375
887990625.0 -0.28973388671875 -1.6527099609375
919212500.0 -1.28936767578125 -1.083984375
950434375.0 -1.6529541015625 -0.0626220703125
981656250.0 -1.38775634765625 0.94598388671875
1012878125.0 -0.5345458984375 1.67547607421875
1044100000.0 0.69586181640625 1.66796875
1075321875.0 1.57794189453125 0.81756591796875
1106543750.0 1.70965576171875 -0.30987548828125
1137765625.0 1.19244384765625 -1.28460693359375
1168987500.0 0.142578125 -1.801513671875
1200209375.0 -1.0616455078125 -1.4901123046875
1231431250.0 -1.73114013671875 -0.45770263671875
1262653125.0 -1.59912109375 0.68292236328125
1293875000.0 -0.85693359375 1.49285888671875
1325096875.0 0.22479248046875 1.71185302734375
1356318750.0 1.2354736328125 1.22247314453125
1387540625.0 1.74371337890625 0.19317626953125
1418762500.0 1.47467041015625 -0.95062255859375
1449984375.0 0.5341796875 -1.62823486328125
1481206250.0 -0.5477294921875 -1.5606689453125
1512428125.0 -1.3433837890625 -0.9241943359375
1543650000.0 -1.65911865234375 0.062255859375
1574871875.0 -1.2781982421875 1.10821533203125
1606093750.0 -0.2764892578125 1.6346435546875
1637315625.0 0.74072265625 1.405029296875
1668537500.0 1.39794921875 0.70013427734375
1699759375.0 1.576904296875 -0.27459716796875
1730981250.0 1.0687255859375 -1.22943115234375
1762203125.0 0.04541015625 -1.57391357421875
1793425000.0 -0.85498046875 -1.23046875
1824646875.0 -1.395751953125 -0.51849365234375
1855868750.0 -1.47802734375 0.43023681640625
1887090625.0 -0.87945556640625 1.286376953125
1918312500.0 0.11431884765625 1.48992919921875
1949534375.0 0.92138671875 1.09295654296875
1980756250.0 1.3770751953125 0.37353515625
2011978125.0 1.36334228515625 -0.52996826171875
2043200000.0 0.75408935546875 -1.26275634765625
2074421875.0 -0.1544189453125 -1.43670654296875
2105643750.0 -0.96063232421875 -1.076171875
2136865625.0 -1.44952392578125 -0.30780029296875
2168087500.0 -1.3612060546875 0.66973876953125
2199309375.0 -0.64276123046875 1.35284423828125
2230531250.0 0.27996826171875 1.4395751953125
2261753125.0 1.07318115234375 1.017822265625
2292975000.0 1.51666259765625 0.17303466796875
2324196875.0 1.3096923828125 -0.81817626953125
2355418750.0 0.52880859375 -1.42181396484375
2386640625.0 -0.40289306640625 -1.45233154296875
2417862500.0 -1.181396484375 -1.0283203125
2449084375.0 -1.6075439453125 -0.08697509765625
2480306250.0 -1.31573486328125 0.92523193359375
2511528125.0 -0.4970703125 1.51019287109375
2542750000.0 0.487060546875 1.5399169921875
2573971875.0 1.372802734375 0.97210693359375
2605193750.0 1.72149658203125 -0.1104736328125
2636415625.0 1.26605224609375 -1.15264892578125
2667637500.0 0.31011962890625 -1.669189453125
2698859375.0 -0.76934814453125 -1.53912353515625
2730081250.0 -1.57568359375 -0.7451171875
2761303125.0 -1.68524169921875 0.3861083984375
2792525000.0 -1.1043701171875 1.3092041015625
2823746875.0 -0.10516357421875 1.73382568359375
2854968750.0 1.01226806640625 1.46063232421875
2886190625.0 1.69580078125 0.49481201171875
2917412500.0 1.60491943359375 -0.61651611328125
2948634375.0 0.9434814453125 -1.43499755859375
2979856250.0 -0.105712890625 -1.77996826171875
3011078125.0 -1.24896240234375 -1.3468017578125
3042300000.0 -1.77899169921875 -0.23760986328125
3073521875.0 -1.5133056640625 0.838623046875
3104743750.0 -0.766845703125 1.5716552734375
3135965625.0 0.3607177734375 1.81396484375
3167187500.0 1.50006103515625 1.1695556640625
3198409375.0 1.820068359375 -0.0723876953125
3229631250.0 1.3538818359375 -1.08184814453125
3260853125.0 0.4930419921875 -1.6715087890625
3292075000.0 -0.654296875 -1.702392578125
3323296875.0 -1.6219482421875 -0.8839111328125
3354518750.0 -1.7349853515625 0.32720947265625
3385740625.0 -1.159912109375 1.23345947265625
3416962500.0 -0.23480224609375 1.68450927734375
3448184375.0 0.85980224609375 1.5257568359375
3479406250.0 1.63946533203125 0.6474609375
3510628125.0 1.648681640625 -0.49420166015625
3541850000.0 1.00433349609375 -1.3564453125
3573071875.0 -0.00518798828125 -1.68603515625
3604293750.0 -1.0272216796875 -1.34088134765625
3635515625.0 -1.63018798828125 -0.44146728515625
3666737500.0 -1.56585693359375 0.6455078125
3697959375.0 -0.828857421875 1.47802734375
3729181250.0 0.266357421875 1.63397216796875
3760403125.0 1.1534423828125 1.10272216796875
3791625000.0 1.5540771484375 0.22235107421875
3822846875.0 1.40625 -0.7606201171875
3854068750.0 0.62384033203125 -1.4835205078125
3885290625.0 -0.4200439453125 -1.4847412109375
3916512500.0 -1.142333984375 -0.9140625
3947734375.0 -1.4508056640625 -0.1220703125
3978956250.0 -1.30133056640625 0.77880859375
4010178125.0 -0.53424072265625 1.4571533203125
4041400000.0 0.47344970703125 1.41876220703125
4072621875.0 1.1534423828125 0.84967041015625
4103843750.0 1.44671630859375 0.065185546875
4135065625.0 1.27099609375 -0.84661865234375
4166287500.0 0.459716796875 -1.49810791015625
4197509375.0 -0.55841064453125 -1.41802978515625
4228731250.0 -1.24774169921875 -0.80517578125
4259953125.0 -1.51220703125 0.0697021484375
4291175000.0 -1.1917724609375 1.01116943359375
4322396875.0 -0.29156494140625 1.52874755859375
4353618750.0 0.67254638671875 1.3531494140625
4384840625.0 1.323486328125 0.7005615234375
4416062500.0 1.5045166015625 -0.22705078125
4447284375.0 1.0584716796875 -1.1048583984375
4478506250.0 0.1744384765625 -1.4979248046875
4509728125.0 -0.73272705078125 -1.310791015625
4540950000.0 -1.39593505859375 -0.63824462890625
4572171875.0 -1.52569580078125 0.359375
4603393750.0 -0.97503662109375 1.21417236328125
4634615625.0 -0.06231689453125 1.53955078125
4665837500.0 0.87115478515625 1.30755615234375
4697059375.0 1.54302978515625 0.51806640625
4728281250.0 1.5321044921875 -0.5816650390625
4759503125.0 0.82550048828125 -1.37017822265625
4790725000.0 -0.14453125 -1.575439453125
4821946875.0 -1.0843505859375 -1.1971435546875
4853168750.0 -1.61676025390625 -0.2532958984375
4884390625.0 -1.38116455078125 0.79290771484375
4915612500.0 -0.61578369140625 1.414794921875
4946834375.0 0.32861328125 1.5135498046875
4978056250.0 1.2064208984375 1.02081298828125
5009278125.0 1.5653076171875 0.04046630859375
5040500000.0 1.232666015625 -0.87640380859375
5071721875.0 0.50439453125 -1.41748046875
5102943750.0 -0.44622802734375 -1.5003662109375
5134165625.0 -1.3387451171875 -0.907958984375
5165387500.0 -1.5712890625 0.146240234375
5196609375.0 -1.1385498046875 1.01068115234375
5227831250.0 -0.35882568359375 1.50897216796875
5259053125.0 0.6883544921875 1.4952392578125
5290275000.0 1.524658203125 0.6650390625
5321496875.0 1.4952392578125 -0.4312744140625
5352718750.0 0.92364501953125 -1.15472412109375
5383940625.0 0.09832763671875 -1.50262451171875
5415162500.0 -0.90191650390625 -1.2874755859375
5446384375.0 -1.48724365234375 -0.37188720703125
5477606250.0 -1.30242919921875 0.56646728515625
5508828125.0 -0.73358154296875 1.15228271484375
5540050000.0 0.05328369140625 1.40185546875
5571271875.0 0.94171142578125 1.1121826171875
5602493750.0 1.41156005859375 0.26116943359375
5633715625.0 1.23553466796875 -0.61431884765625
5664937500.0 0.6497802734375 -1.2039794921875
5696159375.0 -0.19647216796875 -1.38604736328125
5727381250.0 -1.02447509765625 -0.98052978515625
5758603125.0 -1.39453125 -0.14556884765625
5789825000.0 -1.19683837890625 0.7188720703125
5821046875.0 -0.507080078125 1.3106689453125
5852268750.0 0.41241455078125 1.31585693359375
5883490625.0 1.07171630859375 0.77410888671875
5914712500.0 1.3050537109375 0.02032470703125
5945934375.0 1.09893798828125 -0.77642822265625
5977156250.0 0.361328125 -1.3160400390625
6008378125.0 -0.50933837890625 -1.1845703125
6039600000.0 -1.0235595703125 -0.650634765625
6070821875.0 -1.22674560546875 -0.00469970703125
6102043750.0 -1.0858154296875 0.7628173828125
6133265625.0 -0.3427734375 1.34716796875
6164487500.0 0.5650634765625 1.18988037109375
6195709375.0 1.0731201171875 0.631591796875
6226931250.0 1.28240966796875 -0.0419921875
6258153125.0 1.10711669921875 -0.8734130859375
6289375000.0 0.25579833984375 -1.45013427734375
6320596875.0 -0.6903076171875 -1.20751953125
6351818750.0 -1.2017822265625 -0.572998046875
6383040625.0 -1.35650634765625 0.20721435546875
6414262500.0 -1.0015869140625 1.0592041015625
6445484375.0 -0.078369140625 1.45977783203125
6476706250.0 0.7967529296875 1.15008544921875
6507928125.0 1.29180908203125 0.4713134765625
6539150000.0 1.350341796875 -0.38690185546875
6570371875.0 0.843017578125 -1.14569091796875
6601593750.0 -0.01678466796875 -1.40777587890625
6632815625.0 -0.8408203125 -1.138916015625
6664037500.0 -1.40478515625 -0.4208984375
6695259375.0 -1.37713623046875 0.5682373046875
6726481250.0 -0.7117919921875 1.25537109375
6757703125.0 0.1314697265625 1.41015625
6788925000.0 0.9581298828125 1.13330078125
6820146875.0 1.5633544921875 0.28802490234375
6851368750.0 1.3282470703125 -0.822509765625
6882590625.0 0.50762939453125 -1.341064453125
6913812500.0 -0.29229736328125 -1.35894775390625
6945034375.0 -1.07269287109375 -1.0235595703125
6976256250.0 -1.59490966796875 -0.09368896484375
7007478125.0 -1.23919677734375 0.935302734375
7038700000.0 -0.403076171875 1.34619140625
7069921875.0 0.35955810546875 1.327392578125
7101143750.0 1.12164306640625 0.97216796875
7132365625.0 1.603759765625 0.01422119140625
7163587500.0 1.159912109375 -1.024169921875
7194809375.0 0.303466796875 -1.39959716796875
7226031250.0 -0.51434326171875 -1.3299560546875
7257253125.0 -1.270263671875 -0.82659912109375
7288475000.0 -1.56268310546875 0.20098876953125
7319696875.0 -1.03289794921875 1.113525390625
7350918750.0 -0.16546630859375 1.447998046875
7382140625.0 0.71746826171875 1.28021240234375
7413362500.0 1.38250732421875 0.57635498046875
7444584375.0 1.4151611328125 -0.40869140625
7475806250.0 0.8592529296875 -1.14593505859375
7507028125.0 0.00653076171875 -1.43243408203125
7538250000.0 -0.89019775390625 -1.12615966796875
7569471875.0 -1.3372802734375 -0.31292724609375
7600693750.0 -1.20550537109375 0.49835205078125
7631915625.0 -0.7197265625 1.08868408203125
7663137500.0 0.0810546875 1.3616943359375
7694359375.0 0.94256591796875 0.9840087890625
7725581250.0 1.24603271484375 0.1820068359375
7756803125.0 1.0860595703125 -0.4989013671875
7788025000.0 0.67218017578125 -1.04632568359375
7819246875.0 -0.12176513671875 -1.35223388671875
7850468750.0 -0.996124267578125 -0.91888427734375
7881690625.0 -1.2352294921875 -0.10369873046875
7912912500.0 -1.05706787109375 0.557373046875
7944134375.0 -0.60626220703125 1.11572265625
7975356250.0 0.27215576171875 1.3375244140625
8006578125.0 1.04852294921875 0.77960205078125
8037800000.0 1.19622802734375 0.014892578125
8069021875.0 1.0089111328125 -0.61932373046875
8100243750.0 0.50042724609375 -1.16583251953125
8131465625.0 -0.3885498046875 -1.2562255859375
8162687500.0 -1.03424072265625 -0.68798828125
8193909375.0 -1.183349609375 0.00775146484375
8225131250.0 -1.0208740234375 0.6817626953125
8256353125.0 -0.42315673828125 1.2529296875
8287575000.0 0.5029296875 1.2298583984375
8318796875.0 1.08514404296875 0.63641357421875
8350018750.0 1.24853515625 -0.0750732421875
8381240625.0 1.03399658203125 -0.84197998046875
8412462500.0 0.2525634765625 -1.3782958984375
8443684375.0 -0.67230224609375 -1.17291259765625
8474906250.0 -1.178466796875 -0.53216552734375
8506128125.0 -1.30096435546875 0.238525390625
8537350000.0 -0.92578125 1.047607421875
8568571875.0 -0.0146484375 1.3974609375
8599793750.0 0.80511474609375 1.05487060546875
8631015625.0 1.24365234375 0.3994140625
8662237500.0 1.28851318359375 -0.4288330078125
8693459375.0 0.73883056640625 -1.17889404296875
8724681250.0 -0.16241455078125 -1.33465576171875
8755903125.0 -0.8818359375 -0.96075439453125
8787125000.0 -1.310302734375 -0.2816162109375
8818346875.0 -1.2540283203125 0.61785888671875
8849568750.0 -0.55816650390625 1.26385498046875
8880790625.0 0.30035400390625 1.28936767578125
8912012500.0 0.9852294921875 0.89459228515625
8943234375.0 1.4039306640625 0.12890625
8974456250.0 1.16888427734375 -0.84429931640625
9005678125.0 0.3477783203125 -1.3165283203125
9036900000.0 -0.44891357421875 -1.22796630859375
9068121875.0 -1.1068115234375 -0.7864990234375
9099343750.0 -1.4444580078125 0.10028076171875
9130565625.0 -0.9796142578125 1.01605224609375
9161787500.0 -0.153564453125 1.28558349609375
9193009375.0 0.5562744140625 1.13616943359375
9224231250.0 1.1839599609375 0.6568603515625
9255453125.0 1.40277099609375 -0.29718017578125
9286675000.0 0.80859375 -1.0894775390625
9317896875.0 0.02789306640625 -1.2501220703125
9349118750.0 -0.65740966796875 -1.07354736328125
9380340625.0 -1.262451171875 -0.51031494140625
9411562500.0 -1.31427001953125 0.48101806640625
9442784375.0 -0.649169921875 1.1219482421875
9474006250.0 0.09130859375 1.2164306640625
9505228125.0 0.769256591796875 0.983062744140625
9536450000.0 1.28021240234375 0.31103515625
9567671875.0 1.14501953125 -0.58331298828125
9598893750.0 0.5301513671875 -1.07159423828125
9630115625.0 -0.14520263671875 -1.16070556640625
9661337500.0 -0.82135009765625 -0.903533935546875
9692559375.0 -1.24224853515625 -0.18914794921875
9723781250.0 -1.04437255859375 0.60540771484375
9755003125.0 -0.486572265625 1.05267333984375
9786225000.0 0.19866943359375 1.16107177734375
9817446875.0 0.89886474609375 0.829010009765625
9848668750.0 1.201416015625 0.076171875
9879890625.0 0.970703125 -0.61907958984375
9911112500.0 0.45367431640625 -1.054443359375
9942334375.0 -0.269287109375 -1.16241455078125
9973556250.0 -0.947967529296875 -0.73828125
10004778125.0 -1.14984130859375 -0.01568603515625
10036000000.0 -0.9466552734375 0.620361328125
10067221875.0 -0.4415283203125 1.0992431640625
10098443750.0 0.3734130859375 1.1846923828125
10129665625.0 1.00555419921875 0.64300537109375
10160887500.0 1.12335205078125 -0.055419921875
10192109375.0 0.91888427734375 -0.66668701171875
10223331250.0 0.36029052734375 -1.15625
10254553125.0 -0.49017333984375 -1.11541748046875
10285775000.0 -0.98779296875 -0.5352783203125
10316996875.0 -1.06982421875 0.07891845703125
10348218750.0 -0.902130126953125 0.67303466796875
10379440625.0 -0.3214111328125 1.17791748046875
10410662500.0 0.53045654296875 1.08831787109375
10441884375.0 0.994720458984375 0.52215576171875
10473106250.0 1.11346435546875 -0.0860595703125
10504328125.0 0.9512939453125 -0.7579345703125
10535550000.0 0.23858642578125 -1.299072265625
10566771875.0 -0.6597900390625 -1.078857421875
10597993750.0 -1.0831298828125 -0.4586181640625
10629215625.0 -1.17938232421875 0.2078857421875
10660437500.0 -0.888641357421875 0.954833984375
10691659375.0 -0.00726318359375 1.33892822265625
10722881250.0 0.788330078125 0.95294189453125
10754103125.0 1.12152099609375 0.324462890625
10785325000.0 1.14215087890625 -0.37005615234375
10816546875.0 0.7010498046875 -1.05303955078125
10847768750.0 -0.146484375 -1.2313232421875
10878990625.0 -0.806854248046875 -0.845062255859375
10910212500.0 -1.12591552734375 -0.24517822265625
10941434375.0 -1.09942626953125 0.4801025390625
10972656250.0 -0.5682373046875 1.08929443359375
11003878125.0 0.217529296875 1.177001953125
11035100000.0 0.851715087890625 0.82415771484375
11066321875.0 1.225341796875 0.17230224609375
11097543750.0 1.10089111328125 -0.681640625
11128765625.0 0.384765625 -1.20196533203125
11159987500.0 -0.39776611328125 -1.1419677734375
11191209375.0 -1.0030517578125 -0.70208740234375
11222431250.0 -1.27618408203125 0.096435546875
11253653125.0 -0.8587646484375 0.89752197265625
11284875000.0 -0.11346435546875 1.12890625
11316096875.0 0.514434814453125 0.9588623046875
11347318750.0 1.00677490234375 0.5015869140625
11378540625.0 1.11956787109375 -0.27239990234375
11409762500.0 0.63470458984375 -0.86248779296875
11440984375.0 0.03448486328125 -0.981231689453125
11472206250.0 -0.48382568359375 -0.85198974609375
11503428125.0 -0.955474853515625 -0.45587158203125
11534650000.0 -1.07208251953125 0.2911376953125
11565871875.0 -0.602813720703125 0.856292724609375
11597093750.0 -0.017242431640625 0.994171142578125
11628315625.0 0.547332763671875 0.8785400390625
11659537500.0 1.0631103515625 0.39202880859375
11690759375.0 1.067138671875 -0.43768310546875
11721981250.0 0.51641845703125 -0.94281005859375
11753203125.0 -0.10833740234375 -1.0399169921875
11784425000.0 -0.728363037109375 -0.810638427734375
11815646875.0 -1.1046142578125 -0.14837646484375
11846868750.0 -0.8919677734375 0.554931640625
11878090625.0 -0.39080810546875 0.912109375
11909312500.0 0.187652587890625 0.98687744140625
11940534375.0 0.78466796875 0.695281982421875
11971756250.0 1.0269775390625 0.03851318359375
12002978125.0 0.80767822265625 -0.541015625
12034200000.0 0.381317138671875 -0.892303466796875
12065421875.0 -0.21710205078125 -1.012451171875
12096643750.0 -0.851776123046875 -0.6649169921875
12127865625.0 -1.0360107421875 0.01739501953125
12159087500.0 -0.816497802734375 0.5771484375
12190309375.0 -0.377105712890625 0.978729248046875
12221531250.0 0.343017578125 1.08990478515625
12252753125.0 0.9844970703125 0.5799560546875
12283975000.0 1.0567626953125 -0.13031005859375
12315196875.0 0.80181884765625 -0.679656982421875
12346418750.0 0.28070068359375 -1.09393310546875
12377640625.0 -0.54046630859375 -1.06195068359375
12408862500.0 -1.03656005859375 -0.4180908203125
12440084375.0 -1.01055908203125 0.22686767578125
12471306250.0 -0.742950439453125 0.74078369140625
12502528125.0 -0.17822265625 1.1239013671875
12533750000.0 0.622467041015625 0.994537353515625
12564971875.0 1.0445556640625 0.36285400390625
12596193750.0 1.03265380859375 -0.2681884765625
12627415625.0 0.748077392578125 -0.83294677734375
12658637500.0 0.07708740234375 -1.210693359375
12689859375.0 -0.740386962890625 -0.967620849609375
12721081250.0 -1.12188720703125 -0.3052978515625
12752303125.0 -1.099853515625 0.38519287109375
12783525000.0 -0.6871337890625 1.03302001953125
12814746875.0 0.16888427734375 1.25384521484375
12845968750.0 0.86614990234375 0.811492919921875
12877190625.0 1.119384765625 0.17022705078125
12908412500.0 1.05877685546875 -0.5069580078125
12939634375.0 0.54217529296875 -1.12054443359375
12970856250.0 -0.32354736328125 -1.17535400390625
13002078125.0 -0.899017333984375 -0.692962646484375
13033300000.0 -1.1092529296875 -0.0845947265625
13064521875.0 -1.01123046875 0.59881591796875
13095743750.0 -0.4185791015625 1.15887451171875
13126965625.0 0.41204833984375 1.12103271484375
13158187500.0 0.9520263671875 0.632293701171875
13189409375.0 1.1519775390625 -0.02264404296875
13220631250.0 0.9368896484375 -0.7523193359375
13251853125.0 0.23260498046875 -1.17431640625
13283075000.0 -0.510498046875 -1.02056884765625
13314296875.0 -0.99053955078125 -0.5283203125
13345518750.0 -1.13873291015625 0.181884765625
13376740625.0 -0.75244140625 0.86297607421875
