!Created with skrf (http://scikit-rf.org).
# Hz S RI R 50.0 
!freq ReS11 ImS11
45000000.0 -0.07712936401367188 -0.09667205810546875
76221875.0 -0.19634246826171875 -0.04747772216796875
107443750.0 -0.254791259765625 0.119659423828125
138665625.0 -0.14776611328125 0.328521728515625
169887500.0 0.1236724853515625 0.417327880859375
201109375.0 0.4219207763671875 0.2805633544921875
232331250.0 0.578643798828125 -0.057586669921875
263553125.0 0.4890289306640625 -0.4527130126953125
294775000.0 0.09808349609375 -0.732147216796875
325996875.0 -0.415496826171875 -0.6800537109375
357218750.0 -0.806121826171875 -0.296295166015625
388440625.0 -0.884918212890625 0.30084228515625
419662500.0 -0.516693115234375 0.86676025390625
450884375.0 0.1734619140625 1.02801513671875
482106250.0 0.79833984375 0.711578369140625
513328125.0 1.11883544921875 0.086669921875
544550000.0 1.00286865234375 -0.6800537109375
575771875.0 0.3355712890625 -1.2376708984375
606993750.0 -0.5540771484375 -1.17633056640625
638215625.0 -1.16522216796875 -0.58941650390625
669437500.0 -1.33880615234375 0.23406982421875
700659375.0 -0.9697265625 1.09588623046875
731881250.0 -0.00299072265625 1.5421142578125
763103125.0 1.00555419921875 1.15460205078125
794325000.0 1.4676513671875 0.28094482421875
825546875.0 1.36614990234375 -0.6514892578125
856768750.0 0.79327392578125 -1.39935302734375
887990625.0 -0.29296875 -1.64691162109375
919212500.0 -1.2872314453125 -1.076904296875
950434375.0 -1.6473388671875 -0.05792236328125
981656250.0 -1.38067626953125 0.9454345703125
1012878125.0 -0.52825927734375 1.670654296875
1044100000.0 0.697021484375 1.66021728515625
1075321875.0 1.57305908203125 0.8104248046875
1106543750.0 1.70294189453125 -0.3134765625
1137765625.0 1.18487548828125 -1.28338623046875
1168987500.0 0.13726806640625 -1.79571533203125
1200209375.0 -1.06109619140625 -1.48175048828125
1231431250.0 -1.72589111328125 -0.45196533203125
1262653125.0 -1.59271240234375 0.68463134765625
1293875000.0 -0.8504638671875 1.49078369140625
1325096875.0 0.228759765625 1.7047119140625
1356318750.0 1.2340087890625 1.21466064453125
1387540625.0 1.73797607421875 0.18841552734375
1418762500.0 1.46728515625 -0.95074462890625
1449984375.0 0.5281982421875 -1.62408447265625
1481206250.0 -0.5499267578125 -1.5538330078125
1512428125.0 -1.3409423828125 -0.91815185546875
1543650000.0 -1.65380859375 0.0657958984375
1574871875.0 -1.27191162109375 1.108642578125
1606093750.0 -0.27203369140625 1.62982177734375
1637315625.0 0.74188232421875 1.3983154296875
1668537500.0 1.39495849609375 0.6947021484375
1699759375.0 1.57110595703125 -0.27740478515625
1730981250.0 1.06219482421875 -1.22808837890625
1762203125.0 0.041259765625 -1.56878662109375
1793425000.0 -0.85552978515625 -1.22467041015625
1824646875.0 -1.39215087890625 -0.51422119140625
1855868750.0 -1.47222900390625 0.43212890625
1887090625.0 -0.87371826171875 1.2838134765625
1918312500.0 0.11737060546875 1.485107421875
1949534375.0 0.92083740234375 1.08758544921875
1980756250.0 1.3734130859375 0.36962890625
2011978125.0 1.35784912109375 -0.53173828125
2043200000.0 0.7486572265625 -1.260498046875
2074421875.0 -0.156982421875 -1.43145751953125
2105643750.0 -0.95953369140625 -1.071044921875
2136865625.0 -1.4453125 -0.30438232421875
2168087500.0 -1.35528564453125 0.67047119140625
2199309375.0 -0.637939453125 1.3497314453125
2230531250.0 0.2821044921875 1.4342041015625
2261753125.0 1.071533203125 1.012451171875
2292975000.0 1.512939453125 0.16949462890625
2324196875.0 1.303466796875 -0.8179931640625
2355418750.0 0.52386474609375 -1.4185791015625
2386640625.0 -0.4044189453125 -1.44732666015625
2417862500.0 -1.17877197265625 -1.02301025390625
2449084375.0 -1.60296630859375 -0.08349609375
2480306250.0 -1.30926513671875 0.92462158203125
2511528125.0 -0.4930419921875 1.50640869140625
2542750000.0 0.48748779296875 1.5335693359375
2573971875.0 1.36981201171875 0.966552734375
2605193750.0 1.71453857421875 -0.11236572265625
2636415625.0 1.25885009765625 -1.15081787109375
2667637500.0 0.3048095703125 -1.6654052734375
2698859375.0 -0.7694091796875 -1.53228759765625
2730081250.0 -1.571044921875 -0.739501953125
2761303125.0 -1.6790771484375 0.38848876953125
2792525000.0 -1.09735107421875 1.3056640625
2823746875.0 -0.10223388671875 1.7269287109375
2854968750.0 1.011962890625 1.45318603515625
2886190625.0 1.68829345703125 0.49102783203125
2917412500.0 1.59686279296875 -0.6168212890625
2948634375.0 0.9376220703125 -1.4315185546875
2979856250.0 -0.108154296875 -1.773193359375
3011078125.0 -1.24462890625 -1.3397216796875
3042300000.0 -1.7725830078125 -0.2335205078125
3073521875.0 -1.50653076171875 0.83782958984375
3104743750.0 -0.7613525390625 1.565673828125
3135965625.0 0.36090087890625 1.80615234375
3167187500.0 1.49749755859375 1.16217041015625
3198409375.0 1.81396484375 -0.076904296875
3229631250.0 1.34674072265625 -1.0797119140625
3260853125.0 0.488037109375 -1.66522216796875
3292075000.0 -0.65484619140625 -1.6951904296875
3323296875.0 -1.6182861328125 -0.87744140625
3354518750.0 -1.7266845703125 0.32769775390625
3385740625.0 -1.15362548828125 1.22998046875
3416962500.0 -0.23126220703125 1.6781005859375
3448184375.0 0.85882568359375 1.51898193359375
3479406250.0 1.6328125 0.64312744140625
3510628125.0 1.64111328125 -0.494140625
3541850000.0 0.9989013671875 -1.35321044921875
3573071875.0 -0.00811767578125 -1.6800537109375
3604293750.0 -1.025634765625 -1.33526611328125
3635515625.0 -1.62469482421875 -0.43756103515625
3666737500.0 -1.5592041015625 0.64544677734375
3697959375.0 -0.82421875 1.47418212890625
3729181250.0 0.2684326171875 1.62799072265625
3760403125.0 1.1502685546875 1.0960693359375
3791625000.0 1.5496826171875 0.2174072265625
3822846875.0 1.39935302734375 -0.75946044921875
3854068750.0 0.619140625 -1.47796630859375
3885290625.0 -0.42041015625 -1.47857666015625
3916512500.0 -1.1396484375 -0.90966796875
3947734375.0 -1.44573974609375 -0.11883544921875
3978956250.0 -1.29541015625 0.778076171875
4010178125.0 -0.53076171875 1.45233154296875
4041400000.0 0.47265625 1.41314697265625
4072621875.0 1.15020751953125 0.84649658203125
4103843750.0 1.442626953125 0.0625
4135065625.0 1.26580810546875 -0.84539794921875
4166287500.0 0.456787109375 -1.49371337890625
4197509375.0 -0.556640625 -1.41290283203125
4228731250.0 -1.24627685546875 -0.80126953125
4259953125.0 -1.50634765625 0.0697021484375
4291175000.0 -1.18658447265625 1.009033203125
4322396875.0 -0.28826904296875 1.52484130859375
4353618750.0 0.672607421875 1.34796142578125
4384840625.0 1.32012939453125 0.69622802734375
4416062500.0 1.49896240234375 -0.22747802734375
4447284375.0 1.053466796875 -1.1031494140625
4478506250.0 0.17230224609375 -1.49273681640625
4509728125.0 -0.73046875 -1.30517578125
4540950000.0 -1.39190673828125 -0.6348876953125
4572171875.0 -1.5196533203125 0.358642578125
4603393750.0 -0.97119140625 1.21099853515625
4634615625.0 -0.06158447265625 1.5347900390625
4665837500.0 0.87109375 1.3033447265625
4697059375.0 1.53985595703125 0.51385498046875
4728281250.0 1.52740478515625 -0.5814208984375
4759503125.0 0.82196044921875 -1.36474609375
4790725000.0 -0.14544677734375 -1.570068359375
4821946875.0 -1.08154296875 -1.192626953125
4853168750.0 -1.61004638671875 -0.2513427734375
4884390625.0 -1.37603759765625 0.79150390625
4915612500.0 -0.61187744140625 1.4111328125
4946834375.0 0.3287353515625 1.5076904296875
4978056250.0 1.2034912109375 1.015625
5009278125.0 1.558837890625 0.03985595703125
5040500000.0 1.22747802734375 -0.87451171875
5071721875.0 0.5010986328125 -1.41229248046875
5102943750.0 -0.44598388671875 -1.4949951171875
5134165625.0 -1.334716796875 -0.90478515625
5165387500.0 -1.56634521484375 0.14599609375
5196609375.0 -1.13482666015625 1.00799560546875
5227831250.0 -0.35760498046875 1.5037841796875
5259053125.0 0.68804931640625 1.49053955078125
5290275000.0 1.5196533203125 0.66217041015625
5321496875.0 1.4903564453125 -0.4298095703125
5352718750.0 0.92047119140625 -1.1527099609375
5383940625.0 0.09625244140625 -1.49884033203125
5415162500.0 -0.8992919921875 -1.28253173828125
5446384375.0 -1.482666015625 -0.369873046875
5477606250.0 -1.29736328125 0.56500244140625
5508828125.0 -0.73065185546875 1.14910888671875
5540050000.0 0.0535888671875 1.396728515625
5571271875.0 0.9375 1.1070556640625
5602493750.0 1.40570068359375 0.26043701171875
5633715625.0 1.23138427734375 -0.61279296875
5664937500.0 0.64697265625 -1.2000732421875
5696159375.0 -0.1964111328125 -1.3819580078125
5727381250.0 -1.020263671875 -0.97772216796875
5758603125.0 -1.3900146484375 -0.14471435546875
5789825000.0 -1.19244384765625 0.7166748046875
5821046875.0 -0.50634765625 1.30419921875
5852268750.0 0.41094970703125 1.31201171875
5883490625.0 1.0701904296875 0.7713623046875
5914712500.0 1.30145263671875 0.01983642578125
5945934375.0 1.0955810546875 -0.77593994140625
5977156250.0 0.3612060546875 -1.31072998046875
6008378125.0 -0.50909423828125 -1.18121337890625
6039600000.0 -1.01934814453125 -0.64862060546875
6070821875.0 -1.2230224609375 -0.00421142578125
6102043750.0 -1.08135986328125 0.76123046875
6133265625.0 -0.34149169921875 1.34295654296875
6164487500.0 0.56182861328125 1.18634033203125
6195709375.0 1.06939697265625 0.6295166015625
6226931250.0 1.27850341796875 -0.04278564453125
6258153125.0 1.10302734375 -0.86883544921875
6289375000.0 0.256103515625 -1.445068359375
6320596875.0 -0.68798828125 -1.20489501953125
6351818750.0 -1.19842529296875 -0.57177734375
6383040625.0 -1.35333251953125 0.206298828125
6414262500.0 -0.99932861328125 1.055419921875
6445484375.0 -0.0784912109375 1.45635986328125
6476706250.0 0.79547119140625 1.14739990234375
6507928125.0 1.2891845703125 0.46966552734375
6539150000.0 1.34661865234375 -0.38604736328125
6570371875.0 0.84014892578125 -1.14373779296875
6601593750.0 -0.01739501953125 -1.40386962890625
6632815625.0 -0.8388671875 -1.13482666015625
6664037500.0 -1.39935302734375 -0.4200439453125
6695259375.0 -1.3726806640625 0.56475830078125
6726481250.0 -0.70941162109375 1.25
6757703125.0 0.13043212890625 1.4051513671875
6788925000.0 0.95391845703125 1.1295166015625
6820146875.0 1.55963134765625 0.28729248046875
6851368750.0 1.32421875 -0.8179931640625
6882590625.0 0.5059814453125 -1.3367919921875
6913812500.0 -0.29193115234375 -1.35540771484375
6945034375.0 -1.06854248046875 -1.0208740234375
6976256250.0 -1.5909423828125 -0.09423828125
7007478125.0 -1.23492431640625 0.93145751953125
7038700000.0 -0.40203857421875 1.342041015625
7069921875.0 0.35736083984375 1.32147216796875
7101143750.0 1.1175537109375 0.9681396484375
7132365625.0 1.59771728515625 0.0146484375
7163587500.0 1.15631103515625 -1.019775390625
7194809375.0 0.302734375 -1.39434814453125
7226031250.0 -0.5126953125 -1.32421875
7257253125.0 -1.265380859375 -0.82354736328125
7288475000.0 -1.55633544921875 0.19549560546875
7319696875.0 -1.02923583984375 1.1102294921875
7350918750.0 -0.164306640625 1.44354248046875
7382140625.0 0.71514892578125 1.275146484375
7413362500.0 1.3746337890625 0.5770263671875
7444584375.0 1.4112548828125 -0.40716552734375
7475806250.0 0.85693359375 -1.1397705078125
7507028125.0 0.00439453125 -1.429443359375
7538250000.0 -0.8846435546875 -1.1234130859375
7569471875.0 -1.334228515625 -0.31109619140625
7600693750.0 -1.2010498046875 0.497802734375
7631915625.0 -0.71710205078125 1.08428955078125
7663137500.0 0.08038330078125 1.357666015625
7694359375.0 0.937286376953125 0.979278564453125
7725581250.0 1.24261474609375 0.18023681640625
7756803125.0 1.0821533203125 -0.49993896484375
7788025000.0 0.66949462890625 -1.0419921875
7819246875.0 -0.1201171875 -1.34515380859375
7850468750.0 -0.990631103515625 -0.915283203125
7881690625.0 -1.2293701171875 -0.1063232421875
7912912500.0 -1.05340576171875 0.55218505859375
7944134375.0 -0.60400390625 1.11279296875
7975356250.0 0.26898193359375 1.33343505859375
8006578125.0 1.0447998046875 0.7789306640625
8037800000.0 1.19171142578125 0.017578125
8069021875.0 1.00543212890625 -0.6160888671875
8100243750.0 0.49920654296875 -1.16015625
8131465625.0 -0.385986328125 -1.2530517578125
8162687500.0 -1.03271484375 -0.68585205078125
8193909375.0 -1.17901611328125 0.0081787109375
8225131250.0 -1.0172119140625 0.67669677734375
8256353125.0 -0.42291259765625 1.24713134765625
8287575000.0 0.50018310546875 1.2254638671875
8318796875.0 1.082275390625 0.63470458984375
8350018750.0 1.2451171875 -0.0767822265625
8381240625.0 1.0311279296875 -0.8385009765625
8412462500.0 0.2545166015625 -1.371337890625
8443684375.0 -0.66937255859375 -1.17059326171875
8474906250.0 -1.174560546875 -0.53228759765625
8506128125.0 -1.2979736328125 0.236328125
8537350000.0 -0.92364501953125 1.04608154296875
8568571875.0 -0.0167236328125 1.3935546875
8599793750.0 0.79937744140625 1.0533447265625
8631015625.0 1.2406005859375 0.398681640625
8662237500.0 1.28436279296875 -0.42840576171875
8693459375.0 0.7362060546875 -1.1746826171875
8724681250.0 -0.1634521484375 -1.330322265625
8755903125.0 -0.879730224609375 -0.956451416015625
8787125000.0 -1.3038330078125 -0.28192138671875
8818346875.0 -1.25 0.6143798828125
8849568750.0 -0.556396484375 1.25958251953125
8880790625.0 0.299072265625 1.28448486328125
8912012500.0 0.9798583984375 0.89208984375
8943234375.0 1.39801025390625 0.12969970703125
8974456250.0 1.16534423828125 -0.836181640625
9005678125.0 0.3494873046875 -1.312255859375
9036900000.0 -0.4434814453125 -1.22430419921875
9068121875.0 -1.10162353515625 -0.785400390625
9099343750.0 -1.43963623046875 0.09783935546875
9130565625.0 -0.97918701171875 1.00860595703125
9161787500.0 -0.154541015625 1.2818603515625
9193009375.0 0.55413818359375 1.1336669921875
9224231250.0 1.17864990234375 0.65447998046875
9255453125.0 1.39801025390625 -0.29547119140625
9286675000.0 0.80596923828125 -1.08404541015625
9317896875.0 0.026123046875 -1.2467041015625
9349118750.0 -0.6522216796875 -1.0687255859375
9380340625.0 -1.2562255859375 -0.50946044921875
9411562500.0 -1.30914306640625 0.474853515625
9442784375.0 -0.648193359375 1.11456298828125
9474006250.0 0.08929443359375 1.21136474609375
9505228125.0 0.76373291015625 0.980560302734375
9536450000.0 1.271240234375 0.31378173828125
9567671875.0 1.14373779296875 -0.5791015625
9598893750.0 0.529296875 -1.06884765625
9630115625.0 -0.1435546875 -1.157470703125
9661337500.0 -0.816436767578125 -0.902313232421875
9692559375.0 -1.2379150390625 -0.1904296875
9723781250.0 -1.043701171875 0.6021728515625
9755003125.0 -0.4862060546875 1.04815673828125
9786225000.0 0.19708251953125 1.1588134765625
9817446875.0 0.89447021484375 0.827545166015625
9848668750.0 1.1971435546875 0.0787353515625
9879890625.0 0.96807861328125 -0.61578369140625
9911112500.0 0.4512939453125 -1.05267333984375
9942334375.0 -0.2664794921875 -1.15838623046875
9973556250.0 -0.94232177734375 -0.7379150390625
10004778125.0 -1.14593505859375 -0.01800537109375
10036000000.0 -0.943389892578125 0.615203857421875
10067221875.0 -0.44293212890625 1.09429931640625
10098443750.0 0.3685302734375 1.18048095703125
10129665625.0 1.00286865234375 0.64300537109375
10160887500.0 1.11993408203125 -0.0513916015625
10192109375.0 0.917266845703125 -0.663665771484375
10223331250.0 0.36102294921875 -1.15252685546875
10254553125.0 -0.4866943359375 -1.1131591796875
10285775000.0 -0.985931396484375 -0.5352783203125
10316996875.0 -1.0662841796875 0.076904296875
10348218750.0 -0.8992919921875 0.668548583984375
10379440625.0 -0.32220458984375 1.17364501953125
10410662500.0 0.52703857421875 1.0859375
10441884375.0 0.9925537109375 0.520599365234375
10473106250.0 1.10791015625 -0.0843505859375
10504328125.0 0.947662353515625 -0.7548828125
10535550000.0 0.23992919921875 -1.294921875
10566771875.0 -0.65643310546875 -1.07733154296875
10597993750.0 -1.07904052734375 -0.45965576171875
10629215625.0 -1.17376708984375 0.203857421875
10660437500.0 -0.88800048828125 0.9493408203125
10691659375.0 -0.009521484375 1.33489990234375
10722881250.0 0.785614013671875 0.95318603515625
10754103125.0 1.11883544921875 0.324462890625
10785325000.0 1.13916015625 -0.36761474609375
10816546875.0 0.7010498046875 -1.04779052734375
10847768750.0 -0.1434326171875 -1.22723388671875
10878990625.0 -0.80145263671875 -0.8431396484375
10910212500.0 -1.121826171875 -0.24554443359375
10941434375.0 -1.09722900390625 0.4774169921875
10972656250.0 -0.5675048828125 1.08416748046875
11003878125.0 0.21636962890625 1.1729736328125
11035100000.0 0.845550537109375 0.82110595703125
11066321875.0 1.21905517578125 0.17529296875
11097543750.0 1.09716796875 -0.67431640625
11128765625.0 0.38751220703125 -1.1954345703125
11159987500.0 -0.3941650390625 -1.13800048828125
11191209375.0 -0.995880126953125 -0.70257568359375
11222431250.0 -1.27239990234375 0.09344482421875
11253653125.0 -0.85919189453125 0.8939208984375
11284875000.0 -0.11370849609375 1.126220703125
11316096875.0 0.511688232421875 0.956695556640625
11347318750.0 1.001220703125 0.50250244140625
11378540625.0 1.11590576171875 -0.26739501953125
11409762500.0 0.6343994140625 -0.859375
11440984375.0 0.0361328125 -0.9783935546875
11472206250.0 -0.4820556640625 -0.849822998046875
11503428125.0 -0.95196533203125 -0.4560546875
11534650000.0 -1.068359375 0.287109375
11565871875.0 -0.6021728515625 0.854248046875
11597093750.0 -0.019256591796875 0.990692138671875
11628315625.0 0.543914794921875 0.87530517578125
11659537500.0 1.058837890625 0.3927001953125
11690759375.0 1.0645751953125 -0.43316650390625
11721981250.0 0.5177001953125 -0.939239501953125
11753203125.0 -0.10491943359375 -1.03582763671875
11784425000.0 -0.72369384765625 -0.80828857421875
11815646875.0 -1.10064697265625 -0.1513671875
11846868750.0 -0.891265869140625 0.550933837890625
11878090625.0 -0.39105224609375 0.907928466796875
11909312500.0 0.186767578125 0.9833984375
11940534375.0 0.779876708984375 0.69476318359375
11971756250.0 1.02447509765625 0.041015625
12002978125.0 0.80670166015625 -0.535614013671875
12034200000.0 0.381378173828125 -0.8896484375
12065421875.0 -0.21405029296875 -1.00927734375
12096643750.0 -0.84619140625 -0.66558837890625
12127865625.0 -1.03314208984375 0.01568603515625
12159087500.0 -0.814697265625 0.5743408203125
12190309375.0 -0.377960205078125 0.97491455078125
12221531250.0 0.33868408203125 1.08795166015625
12252753125.0 0.979339599609375 0.58203125
12283975000.0 1.05438232421875 -0.12811279296875
12315196875.0 0.80010986328125 -0.677154541015625
12346418750.0 0.2816162109375 -1.0914306640625
12377640625.0 -0.53656005859375 -1.0595703125
12408862500.0 -1.03314208984375 -0.4202880859375
12440084375.0 -1.00933837890625 0.2247314453125
12471306250.0 -0.741241455078125 0.736297607421875
12502528125.0 -0.1802978515625 1.11944580078125
12533750000.0 0.61865234375 0.993896484375
12564971875.0 1.04052734375 0.36346435546875
12596193750.0 1.03021240234375 -0.26458740234375
12627415625.0 0.747650146484375 -0.82843017578125
12658637500.0 0.0802001953125 -1.20709228515625
12689859375.0 -0.733551025390625 -0.966278076171875
12721081250.0 -1.11676025390625 -0.3062744140625
12752303125.0 -1.096923828125 0.380126953125
12783525000.0 -0.68743896484375 1.02679443359375
12814746875.0 0.1640625 1.25006103515625
12845968750.0 0.8634033203125 0.811279296875
12877190625.0 1.11651611328125 0.1727294921875
12908412500.0 1.05560302734375 -0.50030517578125
12939634375.0 0.54351806640625 -1.115478515625
12970856250.0 -0.31951904296875 -1.1748046875
13002078125.0 -0.894073486328125 -0.694091796875
13033300000.0 -1.10516357421875 -0.0869140625
13064521875.0 -1.00958251953125 0.5931396484375
13095743750.0 -0.42022705078125 1.15301513671875
13126965625.0 0.40838623046875 1.12030029296875
13158187500.0 0.944854736328125 0.632293701171875
13189409375.0 1.14697265625 -0.021484375
13220631250.0 0.935760498046875 -0.74658203125
13251853125.0 0.23541259765625 -1.17138671875
13283075000.0 -0.50628662109375 -1.01953125
13314296875.0 -0.987579345703125 -0.52984619140625
13345518750.0 -1.13580322265625 0.1756591796875
13376740625.0 -0.753021240234375 0.855926513671875
13407962500.0 -0.061279296875 1.0654296875
