!Created with skrf (http://scikit-rf.org).
# Hz S RI R 50.0 
!freq ReS11 ImS11
45000000.0 -0.077117919921875 -0.0966796875
76221875.0 -0.1963043212890625 -0.047576904296875
107443750.0 -0.2547607421875 0.1195831298828125
138665625.0 -0.14794921875 0.3282470703125
169887500.0 0.12347412109375 0.41717529296875
201109375.0 0.42156982421875 0.28057861328125
232331250.0 0.578460693359375 -0.05755615234375
263553125.0 0.4890594482421875 -0.4525604248046875
294775000.0 0.098388671875 -0.73193359375
325996875.0 -0.4150390625 -0.680023193359375
357218750.0 -0.8055419921875 -0.296783447265625
388440625.0 -0.8848876953125 0.3001708984375
419662500.0 -0.51666259765625 0.865325927734375
450884375.0 0.17303466796875 1.02789306640625
482106250.0 0.79779052734375 0.71173095703125
513328125.0 1.1182861328125 0.08721923828125
544550000.0 1.00286865234375 -0.679443359375
575771875.0 0.33612060546875 -1.23681640625
606993750.0 -0.5535888671875 -1.17620849609375
638215625.0 -1.1646728515625 -0.5897216796875
669437500.0 -1.33868408203125 0.2337646484375
700659375.0 -0.97015380859375 1.0953369140625
731881250.0 -0.003662109375 1.54180908203125
763103125.0 1.0047607421875 1.154296875
794325000.0 1.467041015625 0.28125
825546875.0 1.3658447265625 -0.6505126953125
856768750.0 0.79345703125 -1.39898681640625
887990625.0 -0.29205322265625 -1.64605712890625
919212500.0 -1.286376953125 -1.0772705078125
950434375.0 -1.646240234375 -0.05859375
981656250.0 -1.38055419921875 0.94390869140625
1012878125.0 -0.5291748046875 1.66943359375
1044100000.0 0.696044921875 1.65966796875
1075321875.0 1.572265625 0.81097412109375
1106543750.0 1.70220947265625 -0.3126220703125
1137765625.0 1.1849365234375 -1.2822265625
1168987500.0 0.13787841796875 -1.794189453125
1200209375.0 -1.05975341796875 -1.4813232421875
1231431250.0 -1.7242431640625 -0.45306396484375
1262653125.0 -1.592041015625 0.68359375
1293875000.0 -0.8509521484375 1.48931884765625
1325096875.0 0.227783203125 1.703857421875
1356318750.0 1.23309326171875 1.21484375
1387540625.0 1.7374267578125 0.18878173828125
1418762500.0 1.467041015625 -0.95037841796875
1449984375.0 0.52874755859375 -1.62322998046875
1481206250.0 -0.54937744140625 -1.55377197265625
1512428125.0 -1.33990478515625 -0.91864013671875
1543650000.0 -1.653076171875 0.0648193359375
1574871875.0 -1.27166748046875 1.10723876953125
1606093750.0 -0.27227783203125 1.6292724609375
1637315625.0 0.74114990234375 1.3983154296875
1668537500.0 1.39410400390625 0.69488525390625
1699759375.0 1.570556640625 -0.27667236328125
1730981250.0 1.0623779296875 -1.2274169921875
1762203125.0 0.04241943359375 -1.56793212890625
1793425000.0 -0.8544921875 -1.22479248046875
1824646875.0 -1.3917236328125 -0.5142822265625
1855868750.0 -1.4718017578125 0.43157958984375
1887090625.0 -0.8739013671875 1.2828369140625
1918312500.0 0.1168212890625 1.4847412109375
1949534375.0 0.920166015625 1.08746337890625
1980756250.0 1.3729248046875 0.3695068359375
2011978125.0 1.35760498046875 -0.53076171875
2043200000.0 0.74896240234375 -1.2593994140625
2074421875.0 -0.15631103515625 -1.4307861328125
2105643750.0 -0.9586181640625 -1.07061767578125
2136865625.0 -1.44537353515625 -0.30487060546875
2168087500.0 -1.355224609375 0.66973876953125
2199309375.0 -0.637939453125 1.34930419921875
2230531250.0 0.28094482421875 1.4337158203125
2261753125.0 1.07073974609375 1.01251220703125
2292975000.0 1.511962890625 0.17022705078125
2324196875.0 1.3035888671875 -0.81756591796875
2355418750.0 0.52459716796875 -1.417724609375
2386640625.0 -0.40399169921875 -1.44671630859375
2417862500.0 -1.17755126953125 -1.02276611328125
2449084375.0 -1.6011962890625 -0.08514404296875
2480306250.0 -1.30902099609375 0.923095703125
2511528125.0 -0.49346923828125 1.5050048828125
2542750000.0 0.486572265625 1.53271484375
2573971875.0 1.36865234375 0.96685791015625
2605193750.0 1.7135009765625 -0.11181640625
2636415625.0 1.25933837890625 -1.150634765625
2667637500.0 0.30682373046875 -1.66351318359375
2698859375.0 -0.76678466796875 -1.5306396484375
2730081250.0 -1.57049560546875 -0.73931884765625
2761303125.0 -1.6778564453125 0.38623046875
2792525000.0 -1.0977783203125 1.30364990234375
2823746875.0 -0.103759765625 1.72509765625
2854968750.0 1.0101318359375 1.4530029296875
2886190625.0 1.68829345703125 0.490966796875
2917412500.0 1.5970458984375 -0.61737060546875
2948634375.0 0.93804931640625 -1.43060302734375
2979856250.0 -0.10650634765625 -1.772705078125
3011078125.0 -1.2445068359375 -1.34033203125
3042300000.0 -1.77117919921875 -0.23516845703125
3073521875.0 -1.5062255859375 0.836669921875
3104743750.0 -0.76190185546875 1.5657958984375
3135965625.0 0.36151123046875 1.8056640625
3167187500.0 1.49566650390625 1.16241455078125
3198409375.0 1.8126220703125 -0.07470703125
3229631250.0 1.3468017578125 -1.07855224609375
3260853125.0 0.48876953125 -1.6641845703125
3292075000.0 -0.65472412109375 -1.6947021484375
3323296875.0 -1.615966796875 -0.87786865234375
3354518750.0 -1.7275390625 0.32855224609375
3385740625.0 -1.1536865234375 1.22869873046875
3416962500.0 -0.2313232421875 1.67828369140625
3448184375.0 0.8583984375 1.5185546875
3479406250.0 1.633056640625 0.64361572265625
3510628125.0 1.64044189453125 -0.492431640625
3541850000.0 0.998779296875 -1.35302734375
3573071875.0 -0.00762939453125 -1.67974853515625
3604293750.0 -1.02593994140625 -1.33544921875
3635515625.0 -1.6248779296875 -0.4376220703125
3666737500.0 -1.55889892578125 0.64422607421875
3697959375.0 -0.82391357421875 1.47210693359375
3729181250.0 0.2674560546875 1.62823486328125
3760403125.0 1.14923095703125 1.09625244140625
3791625000.0 1.549072265625 0.218505859375
3822846875.0 1.39898681640625 -0.75897216796875
3854068750.0 0.6197509765625 -1.477783203125
3885290625.0 -0.4193115234375 -1.4775390625
3916512500.0 -1.13824462890625 -0.9100341796875
3947734375.0 -1.44451904296875 -0.1204833984375
3978956250.0 -1.294677734375 0.7762451171875
4010178125.0 -0.53143310546875 1.45123291015625
4041400000.0 0.472412109375 1.41326904296875
4072621875.0 1.14984130859375 0.8465576171875
4103843750.0 1.44207763671875 0.06414794921875
4135065625.0 1.26507568359375 -0.84393310546875
4166287500.0 0.45751953125 -1.4921875
4197509375.0 -0.55450439453125 -1.41229248046875
4228731250.0 -1.2452392578125 -0.8018798828125
4259953125.0 -1.50592041015625 0.0694580078125
4291175000.0 -1.1864013671875 1.00775146484375
4322396875.0 -0.2901611328125 1.52301025390625
4353618750.0 0.67181396484375 1.3480224609375
4384840625.0 1.3189697265625 0.69683837890625
4416062500.0 1.49835205078125 -0.22686767578125
4447284375.0 1.0537109375 -1.10089111328125
4478506250.0 0.17254638671875 -1.49237060546875
4509728125.0 -0.7310791015625 -1.3055419921875
4540950000.0 -1.390869140625 -0.63568115234375
4572171875.0 -1.51983642578125 0.358642578125
4603393750.0 -0.97186279296875 1.208984375
4634615625.0 -0.0616455078125 1.53497314453125
4665837500.0 0.86810302734375 1.30322265625
4697059375.0 1.5380859375 0.5155029296875
4728281250.0 1.52655029296875 -0.58087158203125
4759503125.0 0.8226318359375 -1.36444091796875
4790725000.0 -0.14532470703125 -1.57073974609375
4821946875.0 -1.082275390625 -1.192138671875
4853168750.0 -1.61041259765625 -0.2513427734375
4884390625.0 -1.37548828125 0.78948974609375
4915612500.0 -0.613037109375 1.4105224609375
4946834375.0 0.32733154296875 1.50732421875
4978056250.0 1.202392578125 1.01611328125
5009278125.0 1.55950927734375 0.03961181640625
5040500000.0 1.22711181640625 -0.87310791015625
5071721875.0 0.50177001953125 -1.41241455078125
5102943750.0 -0.44549560546875 -1.49493408203125
5134165625.0 -1.3323974609375 -0.90435791015625
5165387500.0 -1.56524658203125 0.14495849609375
5196609375.0 -1.1348876953125 1.00701904296875
5227831250.0 -0.35736083984375 1.5047607421875
5259053125.0 0.6864013671875 1.489990234375
5290275000.0 1.51788330078125 0.66302490234375
5321496875.0 1.489013671875 -0.42791748046875
5352718750.0 0.91998291015625 -1.15167236328125
5383940625.0 0.09674072265625 -1.49847412109375
5415162500.0 -0.8992919921875 -1.28179931640625
5446384375.0 -1.482177734375 -0.36993408203125
5477606250.0 -1.29827880859375 0.56634521484375
5508828125.0 -0.73077392578125 1.14910888671875
5540050000.0 0.05352783203125 1.39691162109375
5571271875.0 0.937255859375 1.1072998046875
5602493750.0 1.4066162109375 0.260498046875
5633715625.0 1.23114013671875 -0.612060546875
5664937500.0 0.6475830078125 -1.19921875
5696159375.0 -0.1962890625 -1.38238525390625
5727381250.0 -1.02020263671875 -0.9775390625
5758603125.0 -1.38958740234375 -0.14569091796875
5789825000.0 -1.19305419921875 0.71630859375
5821046875.0 -0.50640869140625 1.30462646484375
5852268750.0 0.4105224609375 1.3114013671875
5883490625.0 1.0687255859375 0.771484375
5914712500.0 1.30059814453125 0.0203857421875
5945934375.0 1.09503173828125 -0.77398681640625
5977156250.0 0.36151123046875 -1.30938720703125
6008378125.0 -0.5078125 -1.1807861328125
6039600000.0 -1.019287109375 -0.649169921875
6070821875.0 -1.22247314453125 -0.00445556640625
6102043750.0 -1.0823974609375 0.76116943359375
6133265625.0 -0.3424072265625 1.342041015625
6164487500.0 0.5614013671875 1.18597412109375
6195709375.0 1.06756591796875 0.62945556640625
6226931250.0 1.27801513671875 -0.042724609375
6258153125.0 1.10321044921875 -0.86859130859375
6289375000.0 0.2564697265625 -1.4439697265625
6320596875.0 -0.68817138671875 -1.20513916015625
6351818750.0 -1.19842529296875 -0.57177734375
6383040625.0 -1.35296630859375 0.20587158203125
6414262500.0 -0.99908447265625 1.05523681640625
6445484375.0 -0.078857421875 1.4554443359375
6476706250.0 0.79345703125 1.14654541015625
6507928125.0 1.28839111328125 0.47039794921875
6539150000.0 1.34564208984375 -0.38531494140625
6570371875.0 0.8406982421875 -1.1416015625
6601593750.0 -0.01708984375 -1.40301513671875
6632815625.0 -0.83905029296875 -1.13525390625
6664037500.0 -1.400146484375 -0.419921875
6695259375.0 -1.37164306640625 0.56475830078125
6726481250.0 -0.7100830078125 1.24896240234375
6757703125.0 0.13055419921875 1.40606689453125
6788925000.0 0.95233154296875 1.129638671875
6820146875.0 1.55767822265625 0.28851318359375
6851368750.0 1.32501220703125 -0.81787109375
6882590625.0 0.50653076171875 -1.33636474609375
6913812500.0 -0.29119873046875 -1.3546142578125
6945034375.0 -1.068359375 -1.021240234375
6976256250.0 -1.591064453125 -0.09405517578125
7007478125.0 -1.2344970703125 0.93109130859375
7038700000.0 -0.4007568359375 1.3409423828125
7069921875.0 0.35699462890625 1.3212890625
7101143750.0 1.1156005859375 0.9681396484375
7132365625.0 1.59600830078125 0.01544189453125
7163587500.0 1.15643310546875 -1.01708984375
7194809375.0 0.3038330078125 -1.39495849609375
7226031250.0 -0.509033203125 -1.3240966796875
7257253125.0 -1.2626953125 -0.8231201171875
7288475000.0 -1.5552978515625 0.19586181640625
7319696875.0 -1.02923583984375 1.10601806640625
7350918750.0 -0.163818359375 1.44378662109375
7382140625.0 0.7147216796875 1.27398681640625
7413362500.0 1.3756103515625 0.5762939453125
7444584375.0 1.41021728515625 -0.40478515625
7475806250.0 0.85736083984375 -1.14141845703125
7507028125.0 0.007080078125 -1.427001953125
7538250000.0 -0.884033203125 -1.12213134765625
7569471875.0 -1.33135986328125 -0.31256103515625
7600693750.0 -1.20111083984375 0.4952392578125
7631915625.0 -0.71783447265625 1.0831298828125
7663137500.0 0.07916259765625 1.357177734375
7694359375.0 0.93829345703125 0.979736328125
7725581250.0 1.2418212890625 0.18011474609375
7756803125.0 1.08062744140625 -0.4969482421875
7788025000.0 0.669677734375 -1.04107666015625
7819246875.0 -0.120361328125 -1.3460693359375
7850468750.0 -0.99078369140625 -0.91571044921875
7881690625.0 -1.22918701171875 -0.10565185546875
7912912500.0 -1.05303955078125 0.55352783203125
7944134375.0 -0.6048583984375 1.11236572265625
7975356250.0 0.26959228515625 1.333251953125
8006578125.0 1.04559326171875 0.779052734375
8037800000.0 1.191162109375 0.01739501953125
8069021875.0 1.00579833984375 -0.6168212890625
8100243750.0 0.5009765625 -1.158935546875
8131465625.0 -0.38482666015625 -1.2528076171875
8162687500.0 -1.03179931640625 -0.68621826171875
8193909375.0 -1.1781005859375 0.0068359375
8225131250.0 -1.01666259765625 0.678955078125
8256353125.0 -0.42279052734375 1.2469482421875
8287575000.0 0.49835205078125 1.22491455078125
8318796875.0 1.08056640625 0.6351318359375
8350018750.0 1.24365234375 -0.0750732421875
8381240625.0 1.031005859375 -0.83660888671875
8412462500.0 0.2548828125 -1.37078857421875
8443684375.0 -0.6668701171875 -1.1690673828125
8474906250.0 -1.1712646484375 -0.53271484375
8506128125.0 -1.29742431640625 0.236328125
8537350000.0 -0.92462158203125 1.04351806640625
8568571875.0 -0.0181884765625 1.39105224609375
8599793750.0 0.79937744140625 1.05224609375
8631015625.0 1.23944091796875 0.3992919921875
8662237500.0 1.2840576171875 -0.4261474609375
8693459375.0 0.73565673828125 -1.17681884765625
8724681250.0 -0.1634521484375 -1.33209228515625
8755903125.0 -0.87774658203125 -0.957183837890625
8787125000.0 -1.30078125 -0.2828369140625
8818346875.0 -1.25091552734375 0.6131591796875
8849568750.0 -0.55572509765625 1.260986328125
8880790625.0 0.29742431640625 1.28289794921875
8912012500.0 0.978912353515625 0.891571044921875
8943234375.0 1.39776611328125 0.129150390625
8974456250.0 1.1658935546875 -0.83917236328125
9005678125.0 0.34881591796875 -1.3116455078125
9036900000.0 -0.4437255859375 -1.22442626953125
9068121875.0 -1.10101318359375 -0.7855224609375
9099343750.0 -1.4376220703125 0.0950927734375
9130565625.0 -0.98065185546875 1.00946044921875
9161787500.0 -0.15478515625 1.28167724609375
9193009375.0 0.55303955078125 1.13226318359375
9224231250.0 1.17919921875 0.6551513671875
9255453125.0 1.398193359375 -0.2952880859375
9286675000.0 0.80584716796875 -1.08343505859375
9317896875.0 0.0283203125 -1.24456787109375
9349118750.0 -0.6541748046875 -1.0694580078125
9380340625.0 -1.2557373046875 -0.510498046875
9411562500.0 -1.3115234375 0.47601318359375
9442784375.0 -0.64837646484375 1.11529541015625
9474006250.0 0.0882568359375 1.20965576171875
9505228125.0 0.762786865234375 0.980621337890625
9536450000.0 1.2723388671875 0.31463623046875
9567671875.0 1.14471435546875 -0.5789794921875
9598893750.0 0.53082275390625 -1.06561279296875
9630115625.0 -0.1417236328125 -1.156005859375
9661337500.0 -0.816650390625 -0.901824951171875
9692559375.0 -1.23834228515625 -0.1904296875
9723781250.0 -1.04254150390625 0.60009765625
9755003125.0 -0.48663330078125 1.048828125
9786225000.0 0.197265625 1.15777587890625
9817446875.0 0.89447021484375 0.82763671875
9848668750.0 1.19586181640625 0.0802001953125
9879890625.0 0.967559814453125 -0.615631103515625
9911112500.0 0.45269775390625 -1.0494384765625
9942334375.0 -0.26708984375 -1.15899658203125
9973556250.0 -0.94183349609375 -0.73876953125
10004778125.0 -1.144775390625 -0.01873779296875
10036000000.0 -0.944000244140625 0.613922119140625
10067221875.0 -0.4425048828125 1.09588623046875
10098443750.0 0.36798095703125 1.1805419921875
10129665625.0 1.00030517578125 0.64276123046875
10160887500.0 1.1197509765625 -0.05145263671875
10192109375.0 0.917205810546875 -0.662139892578125
10223331250.0 0.3626708984375 -1.14971923828125
10254553125.0 -0.4832763671875 -1.1119384765625
10285775000.0 -0.984405517578125 -0.535491943359375
10316996875.0 -1.0673828125 0.0771484375
10348218750.0 -0.899993896484375 0.668426513671875
10379440625.0 -0.3221435546875 1.1741943359375
10410662500.0 0.52716064453125 1.08624267578125
10441884375.0 0.9901123046875 0.52191162109375
10473106250.0 1.1077880859375 -0.0836181640625
10504328125.0 0.94854736328125 -0.7552490234375
10535550000.0 0.2406005859375 -1.29425048828125
10566771875.0 -0.65576171875 -1.07672119140625
10597993750.0 -1.07977294921875 -0.459228515625
10629215625.0 -1.17413330078125 0.2042236328125
10660437500.0 -0.887451171875 0.95196533203125
10691659375.0 -0.0115966796875 1.33453369140625
10722881250.0 0.781524658203125 0.951507568359375
10754103125.0 1.11962890625 0.32373046875
10785325000.0 1.13922119140625 -0.36639404296875
10816546875.0 0.70166015625 -1.046142578125
10847768750.0 -0.14306640625 -1.2286376953125
10878990625.0 -0.80126953125 -0.84381103515625
10910212500.0 -1.1234130859375 -0.2452392578125
10941434375.0 -1.0977783203125 0.47637939453125
10972656250.0 -0.56842041015625 1.08514404296875
11003878125.0 0.2158203125 1.172607421875
11035100000.0 0.847503662109375 0.822479248046875
11066321875.0 1.2215576171875 0.17413330078125
11097543750.0 1.09906005859375 -0.67449951171875
11128765625.0 0.38714599609375 -1.19708251953125
11159987500.0 -0.39422607421875 -1.13836669921875
11191209375.0 -1.0 -0.701690673828125
11222431250.0 -1.27020263671875 0.09149169921875
11253653125.0 -0.8590087890625 0.892364501953125
11284875000.0 -0.11553955078125 1.12689208984375
11316096875.0 0.51043701171875 0.955718994140625
11347318750.0 1.00250244140625 0.501953125
11378540625.0 1.11566162109375 -0.2679443359375
11409762500.0 0.634857177734375 -0.8582763671875
11440984375.0 0.03656005859375 -0.976776123046875
11472206250.0 -0.479278564453125 -0.849273681640625
11503428125.0 -0.95135498046875 -0.456298828125
11534650000.0 -1.06903076171875 0.28668212890625
11565871875.0 -0.60205078125 0.853240966796875
11597093750.0 -0.0196533203125 0.99041748046875
11628315625.0 0.54339599609375 0.874420166015625
11659537500.0 1.05877685546875 0.392822265625
11690759375.0 1.06378173828125 -0.431640625
11721981250.0 0.517425537109375 -0.939971923828125
11753203125.0 -0.10552978515625 -1.036376953125
11784425000.0 -0.723907470703125 -0.808563232421875
11815646875.0 -1.09967041015625 -0.15240478515625
11846868750.0 -0.890533447265625 0.55029296875
11878090625.0 -0.3914794921875 0.9071044921875
11909312500.0 0.18621826171875 0.983367919921875
11940534375.0 0.779571533203125 0.695068359375
11971756250.0 1.02459716796875 0.0396728515625
12002978125.0 0.806488037109375 -0.536590576171875
12034200000.0 0.38214111328125 -0.887969970703125
12065421875.0 -0.213134765625 -1.00909423828125
12096643750.0 -0.84637451171875 -0.665924072265625
12127865625.0 -1.03289794921875 0.01593017578125
12159087500.0 -0.815643310546875 0.5740966796875
12190309375.0 -0.378204345703125 0.975189208984375
12221531250.0 0.33984375 1.0875244140625
12252753125.0 0.9788818359375 0.581787109375
12283975000.0 1.05487060546875 -0.12713623046875
12315196875.0 0.79974365234375 -0.6751708984375
12346418750.0 0.2825927734375 -1.08978271484375
12377640625.0 -0.53717041015625 -1.0604248046875
12408862500.0 -1.0341796875 -0.4197998046875
12440084375.0 -1.0079345703125 0.22198486328125
12471306250.0 -0.74078369140625 0.735626220703125
12502528125.0 -0.1802978515625 1.11895751953125
12533750000.0 0.618316650390625 0.9931640625
12564971875.0 1.0421142578125 0.36444091796875
12596193750.0 1.02777099609375 -0.263916015625
12627415625.0 0.74774169921875 -0.82861328125
12658637500.0 0.0802001953125 -1.2071533203125
12689859375.0 -0.733551025390625 -0.96588134765625
12721081250.0 -1.1171875 -0.30645751953125
12752303125.0 -1.0958251953125 0.37994384765625
12783525000.0 -0.68695068359375 1.02593994140625
12814746875.0 0.16326904296875 1.25079345703125
12845968750.0 0.86346435546875 0.810699462890625
12877190625.0 1.11724853515625 0.1727294921875
12908412500.0 1.0555419921875 -0.4990234375
12939634375.0 0.54376220703125 -1.11578369140625
12970856250.0 -0.3199462890625 -1.1751708984375
13002078125.0 -0.8927001953125 -0.694305419921875
13033300000.0 -1.10467529296875 -0.08770751953125
13064521875.0 -1.00885009765625 0.59228515625
13095743750.0 -0.4210205078125 1.15301513671875
13126965625.0 0.40875244140625 1.12115478515625
13158187500.0 0.945526123046875 0.632080078125
13189409375.0 1.14630126953125 -0.01995849609375
13220631250.0 0.935943603515625 -0.747589111328125
13251853125.0 0.234619140625 -1.1712646484375
13283075000.0 -0.50689697265625 -1.01995849609375
13314296875.0 -0.98565673828125 -0.5299072265625
13345518750.0 -1.1337890625 0.17584228515625
13376740625.0 -0.752716064453125 0.857696533203125
