!Created with skrf (http://scikit-rf.org).
# Hz S RI R 50.0 
!freq ReS11 ImS11
45000000.0 -0.07717132568359375 -0.09677505493164062
76221875.0 -0.19634246826171875 -0.04737091064453125
107443750.0 -0.254730224609375 0.1197509765625
138665625.0 -0.14801025390625 0.3284912109375
169887500.0 0.1238555908203125 0.4172821044921875
201109375.0 0.4217987060546875 0.280548095703125
232331250.0 0.57861328125 -0.0577392578125
263553125.0 0.4891357421875 -0.4529266357421875
294775000.0 0.098114013671875 -0.73187255859375
325996875.0 -0.41571044921875 -0.68011474609375
357218750.0 -0.806182861328125 -0.296295166015625
388440625.0 -0.885101318359375 0.30096435546875
419662500.0 -0.5166015625 0.865997314453125
450884375.0 0.1734619140625 1.02813720703125
482106250.0 0.79840087890625 0.711822509765625
513328125.0 1.11895751953125 0.08660888671875
544550000.0 1.00311279296875 -0.679931640625
575771875.0 0.3359375 -1.23779296875
606993750.0 -0.5537109375 -1.17626953125
638215625.0 -1.16546630859375 -0.58953857421875
669437500.0 -1.3388671875 0.234130859375
700659375.0 -0.96990966796875 1.0960693359375
731881250.0 -0.0029296875 1.54180908203125
763103125.0 1.00567626953125 1.15460205078125
794325000.0 1.467529296875 0.2808837890625
825546875.0 1.36602783203125 -0.6513671875
856768750.0 0.7933349609375 -1.39990234375
887990625.0 -0.29296875 -1.64666748046875
919212500.0 -1.287353515625 -1.07733154296875
950434375.0 -1.64703369140625 -0.05841064453125
981656250.0 -1.3807373046875 0.94525146484375
1012878125.0 -0.5286865234375 1.6702880859375
1044100000.0 0.69732666015625 1.659912109375
1075321875.0 1.5738525390625 0.81024169921875
1106543750.0 1.70269775390625 -0.313232421875
1137765625.0 1.18463134765625 -1.2830810546875
1168987500.0 0.1373291015625 -1.7950439453125
1200209375.0 -1.061279296875 -1.4818115234375
1231431250.0 -1.72589111328125 -0.4521484375
1262653125.0 -1.59222412109375 0.6846923828125
1293875000.0 -0.8504638671875 1.4906005859375
1325096875.0 0.2288818359375 1.70513916015625
1356318750.0 1.23431396484375 1.21466064453125
1387540625.0 1.73809814453125 0.18817138671875
1418762500.0 1.46759033203125 -0.951171875
1449984375.0 0.528076171875 -1.62420654296875
1481206250.0 -0.5501708984375 -1.55426025390625
1512428125.0 -1.34100341796875 -0.91790771484375
1543650000.0 -1.65399169921875 0.06585693359375
1574871875.0 -1.27154541015625 1.10797119140625
1606093750.0 -0.2720947265625 1.629638671875
1637315625.0 0.74212646484375 1.3988037109375
1668537500.0 1.39501953125 0.69451904296875
1699759375.0 1.57122802734375 -0.2774658203125
1730981250.0 1.06207275390625 -1.228271484375
1762203125.0 0.04180908203125 -1.5687255859375
1793425000.0 -0.8551025390625 -1.22454833984375
1824646875.0 -1.39190673828125 -0.51416015625
1855868750.0 -1.47247314453125 0.43267822265625
1887090625.0 -0.87353515625 1.2841796875
1918312500.0 0.11773681640625 1.4854736328125
1949534375.0 0.92083740234375 1.087646484375
1980756250.0 1.3739013671875 0.36920166015625
2011978125.0 1.35797119140625 -0.5316162109375
2043200000.0 0.74871826171875 -1.2603759765625
2074421875.0 -0.15716552734375 -1.431640625
2105643750.0 -0.9593505859375 -1.0711669921875
2136865625.0 -1.44580078125 -0.30413818359375
2168087500.0 -1.35504150390625 0.67034912109375
2199309375.0 -0.6378173828125 1.35028076171875
2230531250.0 0.2822265625 1.43450927734375
2261753125.0 1.07177734375 1.01263427734375
2292975000.0 1.51202392578125 0.16998291015625
2324196875.0 1.303955078125 -0.818359375
2355418750.0 0.5244140625 -1.41815185546875
2386640625.0 -0.40423583984375 -1.447509765625
2417862500.0 -1.17974853515625 -1.02301025390625
2449084375.0 -1.6021728515625 -0.08404541015625
2480306250.0 -1.30975341796875 0.924072265625
2511528125.0 -0.4931640625 1.505126953125
2542750000.0 0.48883056640625 1.534423828125
2573971875.0 1.3685302734375 0.96661376953125
2605193750.0 1.71429443359375 -0.11212158203125
2636415625.0 1.25970458984375 -1.1512451171875
2667637500.0 0.30548095703125 -1.66510009765625
2698859375.0 -0.76959228515625 -1.531982421875
2730081250.0 -1.5716552734375 -0.7393798828125
2761303125.0 -1.67840576171875 0.3876953125
2792525000.0 -1.09747314453125 1.3055419921875
2823746875.0 -0.10162353515625 1.72760009765625
2854968750.0 1.00946044921875 1.4525146484375
2886190625.0 1.689453125 0.49029541015625
2917412500.0 1.59698486328125 -0.6168212890625
2948634375.0 0.93768310546875 -1.4320068359375
2979856250.0 -0.10760498046875 -1.77276611328125
3011078125.0 -1.2445068359375 -1.340576171875
3042300000.0 -1.7713623046875 -0.23455810546875
3073521875.0 -1.50616455078125 0.837158203125
3104743750.0 -0.7615966796875 1.5670166015625
3135965625.0 0.36248779296875 1.807373046875
3167187500.0 1.49700927734375 1.16204833984375
3198409375.0 1.81219482421875 -0.07464599609375
3229631250.0 1.34649658203125 -1.08099365234375
3260853125.0 0.48797607421875 -1.6656494140625
3292075000.0 -0.653564453125 -1.69476318359375
3323296875.0 -1.6177978515625 -0.8780517578125
3354518750.0 -1.7276611328125 0.329345703125
3385740625.0 -1.15338134765625 1.2310791015625
3416962500.0 -0.23089599609375 1.67877197265625
3448184375.0 0.85870361328125 1.51910400390625
3479406250.0 1.634033203125 0.642578125
3510628125.0 1.64239501953125 -0.49517822265625
3541850000.0 0.9986572265625 -1.353515625
3573071875.0 -0.00750732421875 -1.67919921875
3604293750.0 -1.02703857421875 -1.33544921875
3635515625.0 -1.62506103515625 -0.437744140625
3666737500.0 -1.55926513671875 0.64520263671875
3697959375.0 -0.82342529296875 1.47308349609375
3729181250.0 0.267822265625 1.6278076171875
3760403125.0 1.15118408203125 1.09661865234375
3791625000.0 1.5498046875 0.21826171875
3822846875.0 1.39996337890625 -0.7606201171875
3854068750.0 0.619140625 -1.47894287109375
3885290625.0 -0.42071533203125 -1.479248046875
3916512500.0 -1.139892578125 -0.9095458984375
3947734375.0 -1.4447021484375 -0.11968994140625
3978956250.0 -1.2952880859375 0.77740478515625
4010178125.0 -0.53033447265625 1.45281982421875
4041400000.0 0.47271728515625 1.41290283203125
4072621875.0 1.15020751953125 0.84637451171875
4103843750.0 1.44305419921875 0.0628662109375
4135065625.0 1.26611328125 -0.84503173828125
4166287500.0 0.4573974609375 -1.49395751953125
4197509375.0 -0.5572509765625 -1.4134521484375
4228731250.0 -1.24603271484375 -0.80194091796875
4259953125.0 -1.5074462890625 0.07135009765625
4291175000.0 -1.18682861328125 1.009765625
4322396875.0 -0.28900146484375 1.52435302734375
4353618750.0 0.6707763671875 1.34735107421875
4384840625.0 1.3209228515625 0.69622802734375
4416062500.0 1.4986572265625 -0.22784423828125
4447284375.0 1.0535888671875 -1.10272216796875
4478506250.0 0.17205810546875 -1.49383544921875
4509728125.0 -0.732177734375 -1.30621337890625
4540950000.0 -1.38983154296875 -0.6356201171875
4572171875.0 -1.52093505859375 0.35980224609375
4603393750.0 -0.97100830078125 1.2100830078125
4634615625.0 -0.06201171875 1.53399658203125
4665837500.0 0.86895751953125 1.30291748046875
4697059375.0 1.539306640625 0.5145263671875
4728281250.0 1.52679443359375 -0.58056640625
4759503125.0 0.8221435546875 -1.36444091796875
4790725000.0 -0.14605712890625 -1.5709228515625
4821946875.0 -1.081787109375 -1.1925048828125
4853168750.0 -1.6121826171875 -0.2501220703125
4884390625.0 -1.37603759765625 0.7919921875
4915612500.0 -0.61273193359375 1.41046142578125
4946834375.0 0.32867431640625 1.50726318359375
4978056250.0 1.20330810546875 1.0159912109375
5009278125.0 1.5595703125 0.04010009765625
5040500000.0 1.22723388671875 -0.8729248046875
5071721875.0 0.50091552734375 -1.41259765625
5102943750.0 -0.44580078125 -1.4951171875
5134165625.0 -1.332763671875 -0.90472412109375
5165387500.0 -1.5657958984375 0.145263671875
5196609375.0 -1.13446044921875 1.00775146484375
5227831250.0 -0.35748291015625 1.5035400390625
5259053125.0 0.68719482421875 1.490478515625
5290275000.0 1.51885986328125 0.66278076171875
5321496875.0 1.4912109375 -0.43060302734375
5352718750.0 0.91973876953125 -1.1510009765625
5383940625.0 0.09637451171875 -1.49932861328125
5415162500.0 -0.8992919921875 -1.281982421875
5446384375.0 -1.48236083984375 -0.36956787109375
5477606250.0 -1.297607421875 0.5653076171875
5508828125.0 -0.730224609375 1.1502685546875
5540050000.0 0.05303955078125 1.396484375
5571271875.0 0.9368896484375 1.10760498046875
5602493750.0 1.40606689453125 0.26007080078125
5633715625.0 1.22998046875 -0.6107177734375
5664937500.0 0.648193359375 -1.19915771484375
5696159375.0 -0.19622802734375 -1.382080078125
5727381250.0 -1.01934814453125 -0.9775390625
5758603125.0 -1.3897705078125 -0.14508056640625
5789825000.0 -1.1927490234375 0.7169189453125
5821046875.0 -0.50616455078125 1.30596923828125
5852268750.0 0.41082763671875 1.3116455078125
5883490625.0 1.069091796875 0.77117919921875
5914712500.0 1.30126953125 0.01983642578125
5945934375.0 1.09527587890625 -0.774169921875
5977156250.0 0.3614501953125 -1.30999755859375
6008378125.0 -0.508544921875 -1.181396484375
6039600000.0 -1.020263671875 -0.64862060546875
6070821875.0 -1.22320556640625 -0.0042724609375
6102043750.0 -1.0821533203125 0.76171875
6133265625.0 -0.342041015625 1.34307861328125
6164487500.0 0.5625 1.18621826171875
6195709375.0 1.06866455078125 0.6297607421875
6226931250.0 1.2781982421875 -0.04241943359375
6258153125.0 1.10296630859375 -0.8695068359375
6289375000.0 0.2567138671875 -1.444091796875
6320596875.0 -0.6895751953125 -1.20562744140625
6351818750.0 -1.19921875 -0.57177734375
6383040625.0 -1.3526611328125 0.20550537109375
6414262500.0 -0.9989013671875 1.0556640625
6445484375.0 -0.07891845703125 1.45538330078125
6476706250.0 0.79498291015625 1.14691162109375
6507928125.0 1.28936767578125 0.4698486328125
6539150000.0 1.34619140625 -0.38555908203125
6570371875.0 0.840576171875 -1.14276123046875
6601593750.0 -0.0172119140625 -1.40301513671875
6632815625.0 -0.8388671875 -1.13531494140625
6664037500.0 -1.400390625 -0.41961669921875
6695259375.0 -1.37335205078125 0.5654296875
6726481250.0 -0.70989990234375 1.25048828125
6757703125.0 0.12957763671875 1.4046630859375
6788925000.0 0.9530029296875 1.12994384765625
6820146875.0 1.55841064453125 0.2880859375
6851368750.0 1.32476806640625 -0.81781005859375
6882590625.0 0.50616455078125 -1.33770751953125
6913812500.0 -0.291748046875 -1.3551025390625
6945034375.0 -1.068115234375 -1.0211181640625
6976256250.0 -1.590576171875 -0.09381103515625
7007478125.0 -1.2362060546875 0.931640625
7038700000.0 -0.40118408203125 1.34130859375
7069921875.0 0.3553466796875 1.32000732421875
7101143750.0 1.1160888671875 0.9681396484375
7132365625.0 1.598388671875 0.01483154296875
7163587500.0 1.1566162109375 -1.01904296875
7194809375.0 0.3017578125 -1.39593505859375
7226031250.0 -0.51080322265625 -1.3233642578125
7257253125.0 -1.26678466796875 -0.82403564453125
7288475000.0 -1.5567626953125 0.1976318359375
7319696875.0 -1.02947998046875 1.1082763671875
7350918750.0 -0.16485595703125 1.44329833984375
7382140625.0 0.71429443359375 1.27496337890625
7413362500.0 1.37469482421875 0.5765380859375
7444584375.0 1.4107666015625 -0.40594482421875
7475806250.0 0.8572998046875 -1.142822265625
7507028125.0 0.00518798828125 -1.42877197265625
7538250000.0 -0.88470458984375 -1.1217041015625
7569471875.0 -1.33551025390625 -0.31195068359375
7600693750.0 -1.20135498046875 0.49627685546875
7631915625.0 -0.71759033203125 1.08447265625
7663137500.0 0.07916259765625 1.35662841796875
7694359375.0 0.937896728515625 0.980133056640625
7725581250.0 1.24169921875 0.1805419921875
7756803125.0 1.08203125 -0.49774169921875
7788025000.0 0.67059326171875 -1.040283203125
7819246875.0 -0.1212158203125 -1.34576416015625
7850468750.0 -0.9921875 -0.91595458984375
7881690625.0 -1.22930908203125 -0.106201171875
7912912500.0 -1.05328369140625 0.55145263671875
7944134375.0 -0.606201171875 1.1107177734375
7975356250.0 0.27142333984375 1.33514404296875
8006578125.0 1.04742431640625 0.77850341796875
8037800000.0 1.19317626953125 0.0159912109375
8069021875.0 1.00592041015625 -0.61627197265625
8100243750.0 0.49951171875 -1.16192626953125
8131465625.0 -0.38665771484375 -1.25433349609375
8162687500.0 -1.03131103515625 -0.6864013671875
8193909375.0 -1.178955078125 0.00640869140625
8225131250.0 -1.01702880859375 0.67889404296875
8256353125.0 -0.42095947265625 1.24774169921875
8287575000.0 0.49993896484375 1.22491455078125
8318796875.0 1.080810546875 0.63690185546875
8350018750.0 1.244384765625 -0.07513427734375
8381240625.0 1.03033447265625 -0.83831787109375
8412462500.0 0.25372314453125 -1.3734130859375
8443684375.0 -0.6690673828125 -1.16973876953125
8474906250.0 -1.17474365234375 -0.53192138671875
8506128125.0 -1.29547119140625 0.23577880859375
8537350000.0 -0.924072265625 1.0443115234375
8568571875.0 -0.01593017578125 1.39288330078125
8599793750.0 0.8011474609375 1.05316162109375
8631015625.0 1.24139404296875 0.39825439453125
8662237500.0 1.2850341796875 -0.42822265625
8693459375.0 0.7364501953125 -1.17559814453125
8724681250.0 -0.16156005859375 -1.32965087890625
8755903125.0 -0.87945556640625 -0.957305908203125
8787125000.0 -1.3035888671875 -0.28253173828125
8818346875.0 -1.249267578125 0.614013671875
8849568750.0 -0.5572509765625 1.25811767578125
8880790625.0 0.2989501953125 1.283935546875
8912012500.0 0.978729248046875 0.891876220703125
8943234375.0 1.39794921875 0.12908935546875
8974456250.0 1.16656494140625 -0.8387451171875
9005678125.0 0.3485107421875 -1.3133544921875
9036900000.0 -0.44439697265625 -1.2255859375
9068121875.0 -1.10137939453125 -0.78485107421875
9099343750.0 -1.43951416015625 0.09637451171875
9130565625.0 -0.98016357421875 1.01007080078125
9161787500.0 -0.15460205078125 1.281494140625
9193009375.0 0.55474853515625 1.13287353515625
9224231250.0 1.1795654296875 0.6551513671875
9255453125.0 1.39910888671875 -0.29522705078125
9286675000.0 0.80712890625 -1.082763671875
9317896875.0 0.02801513671875 -1.2447509765625
9349118750.0 -0.6534423828125 -1.0697021484375
9380340625.0 -1.25579833984375 -0.509765625
9411562500.0 -1.31072998046875 0.47515869140625
9442784375.0 -0.64813232421875 1.1142578125
9474006250.0 0.089111328125 1.2110595703125
9505228125.0 0.763641357421875 0.979888916015625
9536450000.0 1.2716064453125 0.31439208984375
9567671875.0 1.1429443359375 -0.57928466796875
9598893750.0 0.52923583984375 -1.06951904296875
9630115625.0 -0.14263916015625 -1.15789794921875
9661337500.0 -0.816314697265625 -0.902801513671875
9692559375.0 -1.23876953125 -0.18963623046875
9723781250.0 -1.04315185546875 0.6025390625
9755003125.0 -0.486328125 1.0498046875
9786225000.0 0.19732666015625 1.1585693359375
9817446875.0 0.894134521484375 0.827301025390625
9848668750.0 1.19732666015625 0.0775146484375
9879890625.0 0.967254638671875 -0.616973876953125
9911112500.0 0.45245361328125 -1.04962158203125
9942334375.0 -0.26715087890625 -1.15814208984375
9973556250.0 -0.94415283203125 -0.73876953125
10004778125.0 -1.14501953125 -0.0186767578125
10036000000.0 -0.943878173828125 0.614471435546875
10067221875.0 -0.44207763671875 1.09454345703125
10098443750.0 0.36865234375 1.1807861328125
10129665625.0 1.00262451171875 0.643310546875
10160887500.0 1.12078857421875 -0.0517578125
10192109375.0 0.9176025390625 -0.662811279296875
10223331250.0 0.361328125 -1.15203857421875
10254553125.0 -0.4859619140625 -1.1141357421875
10285775000.0 -0.98541259765625 -0.535369873046875
10316996875.0 -1.0667724609375 0.07611083984375
10348218750.0 -0.89923095703125 0.67010498046875
10379440625.0 -0.3212890625 1.1746826171875
10410662500.0 0.52557373046875 1.083251953125
10441884375.0 0.990875244140625 0.522491455078125
10473106250.0 1.10797119140625 -0.083740234375
10504328125.0 0.948822021484375 -0.757415771484375
10535550000.0 0.240478515625 -1.293212890625
10566771875.0 -0.6566162109375 -1.0767822265625
10597993750.0 -1.08050537109375 -0.458984375
10629215625.0 -1.1739501953125 0.203369140625
10660437500.0 -0.887359619140625 0.947540283203125
10691659375.0 -0.01055908203125 1.33404541015625
10722881250.0 0.7841796875 0.95233154296875
10754103125.0 1.1192626953125 0.32489013671875
10785325000.0 1.138427734375 -0.3665771484375
10816546875.0 0.7010498046875 -1.04791259765625
10847768750.0 -0.14227294921875 -1.22821044921875
10878990625.0 -0.803619384765625 -0.843414306640625
10910212500.0 -1.1221923828125 -0.24517822265625
10941434375.0 -1.09637451171875 0.4769287109375
10972656250.0 -0.56768798828125 1.08544921875
11003878125.0 0.21832275390625 1.17449951171875
11035100000.0 0.847320556640625 0.821563720703125
11066321875.0 1.221435546875 0.17376708984375
11097543750.0 1.098388671875 -0.67523193359375
11128765625.0 0.38690185546875 -1.19537353515625
11159987500.0 -0.39605712890625 -1.140380859375
11191209375.0 -0.99639892578125 -0.70330810546875
11222431250.0 -1.271484375 0.093017578125
11253653125.0 -0.858734130859375 0.892669677734375
11284875000.0 -0.11517333984375 1.126708984375
11316096875.0 0.509307861328125 0.9560546875
11347318750.0 0.998992919921875 0.50299072265625
11378540625.0 1.1151123046875 -0.26751708984375
11409762500.0 0.634521484375 -0.85833740234375
11440984375.0 0.0357666015625 -0.978240966796875
11472206250.0 -0.48150634765625 -0.851043701171875
11503428125.0 -0.95172119140625 -0.456329345703125
11534650000.0 -1.068603515625 0.2884521484375
11565871875.0 -0.602783203125 0.8525390625
11597093750.0 -0.019775390625 0.989654541015625
11628315625.0 0.542205810546875 0.874755859375
11659537500.0 1.06024169921875 0.39288330078125
11690759375.0 1.064697265625 -0.43218994140625
11721981250.0 0.516998291015625 -0.939910888671875
11753203125.0 -0.10498046875 -1.03594970703125
11784425000.0 -0.723663330078125 -0.8084716796875
11815646875.0 -1.0999755859375 -0.1513671875
11846868750.0 -0.89129638671875 0.551513671875
11878090625.0 -0.3909912109375 0.908538818359375
11909312500.0 0.18646240234375 0.983978271484375
11940534375.0 0.77850341796875 0.6953125
11971756250.0 1.02484130859375 0.04022216796875
12002978125.0 0.80596923828125 -0.5379638671875
12034200000.0 0.38177490234375 -0.889190673828125
12065421875.0 -0.21392822265625 -1.00872802734375
12096643750.0 -0.848297119140625 -0.665252685546875
12127865625.0 -1.03338623046875 0.0155029296875
12159087500.0 -0.814483642578125 0.575653076171875
12190309375.0 -0.376953125 0.975006103515625
12221531250.0 0.33770751953125 1.0872802734375
12252753125.0 0.979705810546875 0.5821533203125
12283975000.0 1.05426025390625 -0.12738037109375
12315196875.0 0.799713134765625 -0.6748046875
12346418750.0 0.28192138671875 -1.0897216796875
12377640625.0 -0.53814697265625 -1.061767578125
12408862500.0 -1.0333251953125 -0.419921875
12440084375.0 -1.00823974609375 0.224365234375
12471306250.0 -0.74163818359375 0.73583984375
12502528125.0 -0.17974853515625 1.1197509765625
12533750000.0 0.61895751953125 0.99395751953125
12564971875.0 1.03997802734375 0.364013671875
12596193750.0 1.0284423828125 -0.2630615234375
12627415625.0 0.747894287109375 -0.828033447265625
12658637500.0 0.0797119140625 -1.20733642578125
12689859375.0 -0.735595703125 -0.966827392578125
12721081250.0 -1.11474609375 -0.306884765625
12752303125.0 -1.09710693359375 0.38153076171875
12783525000.0 -0.68804931640625 1.02825927734375
12814746875.0 0.1651611328125 1.2509765625
12845968750.0 0.861724853515625 0.8116455078125
12877190625.0 1.11627197265625 0.172607421875
12908412500.0 1.05517578125 -0.5
12939634375.0 0.54302978515625 -1.11572265625
12970856250.0 -0.320068359375 -1.1751708984375
13002078125.0 -0.894287109375 -0.693115234375
13033300000.0 -1.10540771484375 -0.08721923828125
13064521875.0 -1.0086669921875 0.59356689453125
13095743750.0 -0.42095947265625 1.154541015625
13126965625.0 0.4071044921875 1.11932373046875
13158187500.0 0.9466552734375 0.6326904296875
13189409375.0 1.1484375 -0.02178955078125
13220631250.0 0.935577392578125 -0.748291015625
13251853125.0 0.2352294921875 -1.17071533203125
13283075000.0 -0.50567626953125 -1.01898193359375
13314296875.0 -0.9874267578125 -0.529327392578125
13345518750.0 -1.134765625 0.17633056640625
13376740625.0 -0.7529296875 0.856597900390625
