!Created with skrf (http://scikit-rf.org).
# Hz S RI R 50.0 
!freq ReS11 ImS11
45000000.0 -0.0772247314453125 -0.09669113159179688
76221875.0 -0.19657135009765625 -0.04727935791015625
107443750.0 -0.2550811767578125 0.1202545166015625
138665625.0 -0.14788818359375 0.328857421875
169887500.0 0.1240692138671875 0.4174346923828125
201109375.0 0.422210693359375 0.280548095703125
232331250.0 0.579193115234375 -0.05810546875
263553125.0 0.4893798828125 -0.453704833984375
294775000.0 0.097686767578125 -0.73291015625
325996875.0 -0.4163818359375 -0.680694580078125
357218750.0 -0.807159423828125 -0.296295166015625
388440625.0 -0.88592529296875 0.30169677734375
419662500.0 -0.51654052734375 0.86724853515625
450884375.0 0.17437744140625 1.0291748046875
482106250.0 0.799652099609375 0.7119140625
513328125.0 1.11968994140625 0.08599853515625
544550000.0 1.00341796875 -0.68121337890625
575771875.0 0.33538818359375 -1.2391357421875
606993750.0 -0.55499267578125 -1.1771240234375
638215625.0 -1.16668701171875 -0.58935546875
669437500.0 -1.33978271484375 0.23480224609375
700659375.0 -0.97015380859375 1.097412109375
731881250.0 -0.00238037109375 1.54327392578125
763103125.0 1.00677490234375 1.15496826171875
794325000.0 1.46917724609375 0.2806396484375
825546875.0 1.3668212890625 -0.6527099609375
856768750.0 0.793212890625 -1.401611328125
887990625.0 -0.2947998046875 -1.648681640625
919212500.0 -1.2899169921875 -1.07757568359375
950434375.0 -1.6490478515625 -0.05718994140625
981656250.0 -1.38189697265625 0.9478759765625
1012878125.0 -0.52777099609375 1.6729736328125
1044100000.0 0.6988525390625 1.66156005859375
1075321875.0 1.575927734375 0.81048583984375
1106543750.0 1.704833984375 -0.3150634765625
1137765625.0 1.185791015625 -1.2857666015625
1168987500.0 0.13641357421875 -1.797607421875
1200209375.0 -1.06353759765625 -1.48272705078125
1231431250.0 -1.728515625 -0.45184326171875
1262653125.0 -1.5938720703125 0.68634033203125
1293875000.0 -0.85040283203125 1.4921875
1325096875.0 0.22998046875 1.7061767578125
1356318750.0 1.23583984375 1.2154541015625
1387540625.0 1.73992919921875 0.1871337890625
1418762500.0 1.46856689453125 -0.953369140625
1449984375.0 0.5277099609375 -1.626220703125
1481206250.0 -0.551513671875 -1.5555419921875
1512428125.0 -1.34283447265625 -0.918212890625
1543650000.0 -1.65545654296875 0.06695556640625
1574871875.0 -1.27239990234375 1.11016845703125
1606093750.0 -0.27117919921875 1.6317138671875
1637315625.0 0.74371337890625 1.39971923828125
1668537500.0 1.3966064453125 0.69415283203125
1699759375.0 1.57244873046875 -0.2789306640625
1730981250.0 1.06256103515625 -1.22998046875
1762203125.0 0.0406494140625 -1.56988525390625
1793425000.0 -0.8563232421875 -1.22528076171875
1824646875.0 -1.3936767578125 -0.51373291015625
1855868750.0 -1.47332763671875 0.433349609375
1887090625.0 -0.87384033203125 1.28594970703125
1918312500.0 0.1181640625 1.486328125
1949534375.0 0.922607421875 1.0885009765625
1980756250.0 1.3756103515625 0.36859130859375
2011978125.0 1.3590087890625 -0.532958984375
2043200000.0 0.74859619140625 -1.26190185546875
2074421875.0 -0.15814208984375 -1.43267822265625
2105643750.0 -0.9608154296875 -1.07135009765625
2136865625.0 -1.44732666015625 -0.3037109375
2168087500.0 -1.3558349609375 0.67181396484375
2199309375.0 -0.63739013671875 1.3514404296875
2230531250.0 0.2833251953125 1.43536376953125
2261753125.0 1.072998046875 1.01251220703125
2292975000.0 1.514404296875 0.1688232421875
2324196875.0 1.30462646484375 -0.81988525390625
2355418750.0 0.52386474609375 -1.41986083984375
2386640625.0 -0.4052734375 -1.44805908203125
2417862500.0 -1.18157958984375 -1.02337646484375
2449084375.0 -1.60443115234375 -0.08282470703125
2480306250.0 -1.30999755859375 0.92608642578125
2511528125.0 -0.49285888671875 1.5076904296875
2542750000.0 0.48968505859375 1.53485107421875
2573971875.0 1.37176513671875 0.966796875
2605193750.0 1.7159423828125 -0.11309814453125
2636415625.0 1.26025390625 -1.1527099609375
2667637500.0 0.3048095703125 -1.6671142578125
2698859375.0 -0.77069091796875 -1.5330810546875
2730081250.0 -1.57403564453125 -0.73876953125
2761303125.0 -1.68060302734375 0.39019775390625
2792525000.0 -1.0977783203125 1.3072509765625
2823746875.0 -0.10003662109375 1.72930908203125
2854968750.0 1.01318359375 1.45428466796875
2886190625.0 1.6917724609375 0.4903564453125
2917412500.0 1.598876953125 -0.6181640625
2948634375.0 0.938232421875 -1.43292236328125
2979856250.0 -0.10992431640625 -1.77587890625
3011078125.0 -1.248046875 -1.34100341796875
3042300000.0 -1.77557373046875 -0.232421875
3073521875.0 -1.5072021484375 0.83837890625
3104743750.0 -0.76190185546875 1.568115234375
3135965625.0 0.3634033203125 1.80816650390625
3167187500.0 1.49908447265625 1.16229248046875
3198409375.0 1.815185546875 -0.07696533203125
3229631250.0 1.34735107421875 -1.082763671875
3260853125.0 0.48779296875 -1.668701171875
3292075000.0 -0.6566162109375 -1.69677734375
3323296875.0 -1.62030029296875 -0.87750244140625
3354518750.0 -1.728515625 0.32958984375
3385740625.0 -1.1544189453125 1.2322998046875
3416962500.0 -0.23016357421875 1.68072509765625
3448184375.0 0.8602294921875 1.52032470703125
3479406250.0 1.6356201171875 0.64324951171875
3510628125.0 1.643310546875 -0.49615478515625
3541850000.0 0.999267578125 -1.35504150390625
3573071875.0 -0.00799560546875 -1.68121337890625
3604293750.0 -1.0289306640625 -1.3360595703125
3635515625.0 -1.62786865234375 -0.4371337890625
3666737500.0 -1.56103515625 0.647216796875
3697959375.0 -0.82330322265625 1.47552490234375
3729181250.0 0.26910400390625 1.62933349609375
3760403125.0 1.1527099609375 1.096923828125
3791625000.0 1.5523681640625 0.216552734375
3822846875.0 1.40032958984375 -0.76153564453125
3854068750.0 0.61883544921875 -1.48114013671875
3885290625.0 -0.42132568359375 -1.479248046875
3916512500.0 -1.14288330078125 -0.90985107421875
3947734375.0 -1.44744873046875 -0.117919921875
3978956250.0 -1.29638671875 0.778564453125
4010178125.0 -0.5299072265625 1.4542236328125
4041400000.0 0.47369384765625 1.413818359375
4072621875.0 1.152099609375 0.8460693359375
4103843750.0 1.4434814453125 0.06268310546875
4135065625.0 1.26666259765625 -0.846435546875
4166287500.0 0.45684814453125 -1.4957275390625
4197509375.0 -0.55914306640625 -1.41448974609375
4228731250.0 -1.2481689453125 -0.801513671875
4259953125.0 -1.50946044921875 0.0723876953125
4291175000.0 -1.18707275390625 1.01068115234375
4322396875.0 -0.288330078125 1.5255126953125
4353618750.0 0.672607421875 1.348876953125
4384840625.0 1.32305908203125 0.6956787109375
4416062500.0 1.49969482421875 -0.22808837890625
4447284375.0 1.05364990234375 -1.1036376953125
4478506250.0 0.1712646484375 -1.4945068359375
4509728125.0 -0.73236083984375 -1.30718994140625
4540950000.0 -1.392822265625 -0.6351318359375
4572171875.0 -1.52142333984375 0.36041259765625
4603393750.0 -0.9718017578125 1.21270751953125
4634615625.0 -0.06085205078125 1.53656005859375
4665837500.0 0.870361328125 1.30364990234375
4697059375.0 1.5406494140625 0.514892578125
4728281250.0 1.5286865234375 -0.5831298828125
4759503125.0 0.82220458984375 -1.366943359375
4790725000.0 -0.1461181640625 -1.57122802734375
4821946875.0 -1.0850830078125 -1.1932373046875
4853168750.0 -1.61407470703125 -0.249755859375
4884390625.0 -1.37725830078125 0.79412841796875
4915612500.0 -0.6124267578125 1.41217041015625
4946834375.0 0.3287353515625 1.50823974609375
4978056250.0 1.20556640625 1.0157470703125
5009278125.0 1.56182861328125 0.03839111328125
5040500000.0 1.228271484375 -0.87603759765625
5071721875.0 0.5008544921875 -1.41424560546875
5102943750.0 -0.44775390625 -1.4959716796875
5134165625.0 -1.3345947265625 -0.90484619140625
5165387500.0 -1.56829833984375 0.1478271484375
5196609375.0 -1.13555908203125 1.0087890625
5227831250.0 -0.357177734375 1.50482177734375
5259053125.0 0.6881103515625 1.491455078125
5290275000.0 1.5223388671875 0.661865234375
5321496875.0 1.4918212890625 -0.43145751953125
5352718750.0 0.92022705078125 -1.15399169921875
5383940625.0 0.09515380859375 -1.50103759765625
5415162500.0 -0.9002685546875 -1.28271484375
5446384375.0 -1.48309326171875 -0.3697509765625
5477606250.0 -1.29779052734375 0.56597900390625
5508828125.0 -0.73052978515625 1.15069580078125
5540050000.0 0.054443359375 1.39776611328125
5571271875.0 0.93853759765625 1.1085205078125
5602493750.0 1.40753173828125 0.25946044921875
5633715625.0 1.23114013671875 -0.612548828125
5664937500.0 0.6475830078125 -1.20074462890625
5696159375.0 -0.19659423828125 -1.38232421875
5727381250.0 -1.02203369140625 -0.978271484375
5758603125.0 -1.3916015625 -0.14447021484375
5789825000.0 -1.19366455078125 0.7171630859375
5821046875.0 -0.50616455078125 1.30718994140625
5852268750.0 0.41180419921875 1.31280517578125
5883490625.0 1.0712890625 0.7718505859375
5914712500.0 1.30303955078125 0.01861572265625
5945934375.0 1.095703125 -0.7764892578125
5977156250.0 0.36065673828125 -1.31170654296875
6008378125.0 -0.50909423828125 -1.18194580078125
6039600000.0 -1.0213623046875 -0.6484375
6070821875.0 -1.223388671875 -0.00445556640625
6102043750.0 -1.08270263671875 0.762939453125
6133265625.0 -0.3406982421875 1.344482421875
6164487500.0 0.56353759765625 1.18701171875
6195709375.0 1.07110595703125 0.6300048828125
6226931250.0 1.27935791015625 -0.04278564453125
6258153125.0 1.10430908203125 -0.8726806640625
6289375000.0 0.256103515625 -1.4461669921875
6320596875.0 -0.6895751953125 -1.2061767578125
6351818750.0 -1.19976806640625 -0.5721435546875
6383040625.0 -1.354248046875 0.2066650390625
6414262500.0 -0.99981689453125 1.056884765625
6445484375.0 -0.077392578125 1.45758056640625
6476706250.0 0.795654296875 1.1475830078125
6507928125.0 1.2906494140625 0.46978759765625
6539150000.0 1.34783935546875 -0.388427734375
6570371875.0 0.8402099609375 -1.14385986328125
6601593750.0 -0.01824951171875 -1.4044189453125
6632815625.0 -0.84014892578125 -1.13543701171875
6664037500.0 -1.4005126953125 -0.41949462890625
6695259375.0 -1.3736572265625 0.56719970703125
6726481250.0 -0.70953369140625 1.251953125
6757703125.0 0.13134765625 1.40740966796875
6788925000.0 0.95489501953125 1.130126953125
6820146875.0 1.55877685546875 0.28814697265625
6851368750.0 1.32598876953125 -0.8192138671875
6882590625.0 0.50653076171875 -1.33966064453125
6913812500.0 -0.2928466796875 -1.35662841796875
6945034375.0 -1.07049560546875 -1.02117919921875
6976256250.0 -1.59320068359375 -0.09161376953125
7007478125.0 -1.23516845703125 0.9317626953125
7038700000.0 -0.40093994140625 1.34271240234375
7069921875.0 0.36004638671875 1.3233642578125
7101143750.0 1.1177978515625 0.96734619140625
7132365625.0 1.60028076171875 0.0133056640625
7163587500.0 1.1572265625 -1.0201416015625
7194809375.0 0.302490234375 -1.396240234375
7226031250.0 -0.5101318359375 -1.3251953125
7257253125.0 -1.266357421875 -0.82330322265625
7288475000.0 -1.5587158203125 0.1981201171875
7319696875.0 -1.02935791015625 1.11053466796875
7350918750.0 -0.16339111328125 1.4444580078125
7382140625.0 0.7166748046875 1.27679443359375
7413362500.0 1.37579345703125 0.576904296875
7444584375.0 1.412353515625 -0.40863037109375
7475806250.0 0.85711669921875 -1.14251708984375
7507028125.0 0.00445556640625 -1.429931640625
7538250000.0 -0.88623046875 -1.12396240234375
7569471875.0 -1.33563232421875 -0.31109619140625
7600693750.0 -1.2017822265625 0.49652099609375
7631915625.0 -0.71759033203125 1.0850830078125
7663137500.0 0.08251953125 1.3582763671875
7694359375.0 0.939453125 0.981048583984375
7725581250.0 1.242919921875 0.18023681640625
7756803125.0 1.08282470703125 -0.50018310546875
7788025000.0 0.66986083984375 -1.04571533203125
7819246875.0 -0.12017822265625 -1.34722900390625
7850468750.0 -0.992095947265625 -0.915374755859375
7881690625.0 -1.2305908203125 -0.10516357421875
7912912500.0 -1.05450439453125 0.5537109375
7944134375.0 -0.60589599609375 1.113037109375
7975356250.0 0.271240234375 1.3355712890625
8006578125.0 1.046875 0.77899169921875
8037800000.0 1.19464111328125 0.01544189453125
8069021875.0 1.00701904296875 -0.6182861328125
8100243750.0 0.5003662109375 -1.16058349609375
8131465625.0 -0.390380859375 -1.2557373046875
8162687500.0 -1.032958984375 -0.68548583984375
8193909375.0 -1.1812744140625 0.00970458984375
8225131250.0 -1.01763916015625 0.67828369140625
8256353125.0 -0.42132568359375 1.24835205078125
8287575000.0 0.50042724609375 1.22528076171875
8318796875.0 1.08282470703125 0.63519287109375
8350018750.0 1.2454833984375 -0.07586669921875
8381240625.0 1.0313720703125 -0.83929443359375
8412462500.0 0.2532958984375 -1.3751220703125
8443684375.0 -0.66937255859375 -1.170654296875
8474906250.0 -1.17327880859375 -0.53265380859375
8506128125.0 -1.29876708984375 0.238037109375
8537350000.0 -0.92376708984375 1.04681396484375
8568571875.0 -0.01739501953125 1.39349365234375
8599793750.0 0.802978515625 1.0540771484375
8631015625.0 1.241455078125 0.39764404296875
8662237500.0 1.286376953125 -0.4300537109375
8693459375.0 0.73541259765625 -1.1781005859375
8724681250.0 -0.16290283203125 -1.33184814453125
8755903125.0 -0.87982177734375 -0.9573974609375
8787125000.0 -1.3046875 -0.2803955078125
8818346875.0 -1.250732421875 0.6158447265625
8849568750.0 -0.5557861328125 1.261474609375
8880790625.0 0.30029296875 1.2855224609375
8912012500.0 0.980255126953125 0.892425537109375
8943234375.0 1.400634765625 0.12799072265625
8974456250.0 1.16741943359375 -0.8394775390625
9005678125.0 0.34869384765625 -1.31268310546875
9036900000.0 -0.44464111328125 -1.2247314453125
9068121875.0 -1.10125732421875 -0.7861328125
9099343750.0 -1.44287109375 0.09893798828125
9130565625.0 -0.979248046875 1.01275634765625
9161787500.0 -0.15380859375 1.28277587890625
9193009375.0 0.5550537109375 1.1336669921875
9224231250.0 1.18096923828125 0.6546630859375
9255453125.0 1.39923095703125 -0.29595947265625
9286675000.0 0.8060302734375 -1.08612060546875
9317896875.0 0.02630615234375 -1.24603271484375
9349118750.0 -0.6541748046875 -1.06884765625
9380340625.0 -1.2559814453125 -0.5103759765625
9411562500.0 -1.31072998046875 0.4757080078125
9442784375.0 -0.6480712890625 1.11700439453125
9474006250.0 0.08856201171875 1.21234130859375
9505228125.0 0.7646484375 0.979766845703125
9536450000.0 1.273193359375 0.3128662109375
9567671875.0 1.14447021484375 -0.58056640625
9598893750.0 0.5299072265625 -1.06878662109375
9630115625.0 -0.1446533203125 -1.15802001953125
9661337500.0 -0.820281982421875 -0.90240478515625
9692559375.0 -1.2398681640625 -0.18994140625
9723781250.0 -1.0450439453125 0.60369873046875
9755003125.0 -0.4853515625 1.05157470703125
9786225000.0 0.19927978515625 1.1600341796875
9817446875.0 0.894073486328125 0.828216552734375
9848668750.0 1.198974609375 0.07806396484375
9879890625.0 0.96893310546875 -0.617767333984375
9911112500.0 0.45086669921875 -1.05316162109375
9942334375.0 -0.27032470703125 -1.16021728515625
9973556250.0 -0.942230224609375 -0.7379150390625
10004778125.0 -1.147216796875 -0.0172119140625
10036000000.0 -0.944427490234375 0.616363525390625
10067221875.0 -0.4429931640625 1.09625244140625
10098443750.0 0.368896484375 1.18157958984375
10129665625.0 1.004150390625 0.64385986328125
10160887500.0 1.12200927734375 -0.05126953125
10192109375.0 0.91748046875 -0.6622314453125
10223331250.0 0.36138916015625 -1.1522216796875
10254553125.0 -0.48809814453125 -1.11517333984375
10285775000.0 -0.986724853515625 -0.535125732421875
10316996875.0 -1.0672607421875 0.07684326171875
10348218750.0 -0.9005126953125 0.671539306640625
10379440625.0 -0.3218994140625 1.17523193359375
10410662500.0 0.52947998046875 1.0863037109375
10441884375.0 0.99346923828125 0.522308349609375
10473106250.0 1.109619140625 -0.08489990234375
10504328125.0 0.94842529296875 -0.757476806640625
10535550000.0 0.24090576171875 -1.2939453125
10566771875.0 -0.6575927734375 -1.0780029296875
10597993750.0 -1.08038330078125 -0.45867919921875
10629215625.0 -1.1754150390625 0.20556640625
10660437500.0 -0.88787841796875 0.952545166015625
10691659375.0 -0.01043701171875 1.33563232421875
10722881250.0 0.7847900390625 0.953216552734375
10754103125.0 1.12054443359375 0.3250732421875
10785325000.0 1.13922119140625 -0.36712646484375
10816546875.0 0.7000732421875 -1.049560546875
10847768750.0 -0.144287109375 -1.229248046875
10878990625.0 -0.803009033203125 -0.844085693359375
10910212500.0 -1.124267578125 -0.2454833984375
10941434375.0 -1.09698486328125 0.476806640625
10972656250.0 -0.56781005859375 1.086669921875
11003878125.0 0.21588134765625 1.1732177734375
11035100000.0 0.8480224609375 0.82135009765625
11066321875.0 1.2205810546875 0.17413330078125
11097543750.0 1.0987548828125 -0.6773681640625
11128765625.0 0.3853759765625 -1.200439453125
11159987500.0 -0.39727783203125 -1.1396484375
11191209375.0 -1.00048828125 -0.7022705078125
11222431250.0 -1.271728515625 0.0924072265625
11253653125.0 -0.85870361328125 0.89361572265625
11284875000.0 -0.11505126953125 1.12811279296875
11316096875.0 0.511566162109375 0.956390380859375
11347318750.0 1.004638671875 0.50213623046875
11378540625.0 1.1163330078125 -0.2679443359375
11409762500.0 0.63409423828125 -0.86102294921875
11440984375.0 0.035675048828125 -0.978912353515625
11472206250.0 -0.480926513671875 -0.850555419921875
11503428125.0 -0.95343017578125 -0.4554443359375
11534650000.0 -1.06890869140625 0.28814697265625
11565871875.0 -0.602569580078125 0.85528564453125
11597093750.0 -0.0185546875 0.99090576171875
11628315625.0 0.54559326171875 0.875518798828125
11659537500.0 1.06103515625 0.39117431640625
11690759375.0 1.06500244140625 -0.434326171875
11721981250.0 0.51678466796875 -0.93963623046875
11753203125.0 -0.105712890625 -1.0372314453125
11784425000.0 -0.724365234375 -0.808868408203125
11815646875.0 -1.10211181640625 -0.15142822265625
11846868750.0 -0.89178466796875 0.55303955078125
11878090625.0 -0.39044189453125 0.90966796875
11909312500.0 0.18768310546875 0.984710693359375
11940534375.0 0.780426025390625 0.695343017578125
11971756250.0 1.0252685546875 0.0394287109375
12002978125.0 0.807647705078125 -0.53753662109375
12034200000.0 0.382476806640625 -0.88787841796875
12065421875.0 -0.21575927734375 -1.0103759765625
12096643750.0 -0.84722900390625 -0.665985107421875
12127865625.0 -1.03497314453125 0.01739501953125
12159087500.0 -0.81500244140625 0.575714111328125
12190309375.0 -0.37750244140625 0.975555419921875
12221531250.0 0.33868408203125 1.08819580078125
12252753125.0 0.980865478515625 0.582763671875
12283975000.0 1.05364990234375 -0.12744140625
12315196875.0 0.801544189453125 -0.6766357421875
12346418750.0 0.28265380859375 -1.09173583984375
12377640625.0 -0.54022216796875 -1.061279296875
12408862500.0 -1.0340576171875 -0.4205322265625
12440084375.0 -1.00909423828125 0.22467041015625
12471306250.0 -0.74163818359375 0.737640380859375
12502528125.0 -0.1787109375 1.12103271484375
12533750000.0 0.620025634765625 0.9927978515625
12564971875.0 1.04144287109375 0.365234375
12596193750.0 1.02960205078125 -0.26470947265625
12627415625.0 0.748291015625 -0.830718994140625
12658637500.0 0.079833984375 -1.20654296875
12689859375.0 -0.73651123046875 -0.96759033203125
12721081250.0 -1.1175537109375 -0.3062744140625
12752303125.0 -1.09783935546875 0.38043212890625
12783525000.0 -0.68829345703125 1.027099609375
12814746875.0 0.166748046875 1.25274658203125
12845968750.0 0.863037109375 0.811370849609375
12877190625.0 1.1182861328125 0.17095947265625
12908412500.0 1.0556640625 -0.50189208984375
12939634375.0 0.5438232421875 -1.1160888671875
12970856250.0 -0.32208251953125 -1.17584228515625
13002078125.0 -0.89501953125 -0.6929931640625
13033300000.0 -1.10760498046875 -0.08575439453125
13064521875.0 -1.00885009765625 0.59271240234375
13095743750.0 -0.42083740234375 1.15472412109375
13126965625.0 0.4095458984375 1.12109375
13158187500.0 0.946868896484375 0.631988525390625
13189409375.0 1.1495361328125 -0.0238037109375
13220631250.0 0.93634033203125 -0.747406005859375
13251853125.0 0.23455810546875 -1.17327880859375
13283075000.0 -0.50823974609375 -1.02008056640625
13314296875.0 -0.987884521484375 -0.529296875
