!Created with skrf (http://scikit-rf.org).
# Hz S RI R 50.0 
!freq ReS11 ImS11
45000000.0 -0.07711410522460938 -0.09682083129882812
76221875.0 -0.196441650390625 -0.0471038818359375
107443750.0 -0.2548675537109375 0.1197662353515625
138665625.0 -0.14794921875 0.32855224609375
169887500.0 0.1237945556640625 0.417266845703125
201109375.0 0.4218597412109375 0.2805938720703125
232331250.0 0.578765869140625 -0.05767822265625
263553125.0 0.4890594482421875 -0.4530792236328125
294775000.0 0.0980224609375 -0.732147216796875
325996875.0 -0.415679931640625 -0.680206298828125
357218750.0 -0.80615234375 -0.29656982421875
388440625.0 -0.885284423828125 0.301055908203125
419662500.0 -0.516693115234375 0.86688232421875
450884375.0 0.17352294921875 1.02838134765625
482106250.0 0.798675537109375 0.7117919921875
513328125.0 1.11920166015625 0.08636474609375
544550000.0 1.0029296875 -0.68023681640625
575771875.0 0.335693359375 -1.23822021484375
606993750.0 -0.55426025390625 -1.1766357421875
638215625.0 -1.1656494140625 -0.58935546875
669437500.0 -1.3389892578125 0.23443603515625
700659375.0 -0.97027587890625 1.0960693359375
731881250.0 -0.00299072265625 1.54248046875
763103125.0 1.005615234375 1.15472412109375
794325000.0 1.468017578125 0.2808837890625
825546875.0 1.3663330078125 -0.6514892578125
856768750.0 0.79351806640625 -1.4010009765625
887990625.0 -0.2933349609375 -1.64715576171875
919212500.0 -1.28759765625 -1.077392578125
950434375.0 -1.64752197265625 -0.05859375
981656250.0 -1.38116455078125 0.94561767578125
1012878125.0 -0.52862548828125 1.67083740234375
1044100000.0 0.697021484375 1.6602783203125
1075321875.0 1.57342529296875 0.8109130859375
1106543750.0 1.7032470703125 -0.31353759765625
1137765625.0 1.18511962890625 -1.28375244140625
1168987500.0 0.1373291015625 -1.79510498046875
1200209375.0 -1.0616455078125 -1.4818115234375
1231431250.0 -1.72625732421875 -0.4522705078125
1262653125.0 -1.592529296875 0.68487548828125
1293875000.0 -0.850341796875 1.49053955078125
1325096875.0 0.2286376953125 1.70526123046875
1356318750.0 1.23443603515625 1.2152099609375
1387540625.0 1.73883056640625 0.1878662109375
1418762500.0 1.4678955078125 -0.95111083984375
1449984375.0 0.5283203125 -1.6253662109375
1481206250.0 -0.550537109375 -1.5545654296875
1512428125.0 -1.34112548828125 -0.9180908203125
1543650000.0 -1.65435791015625 0.066162109375
1574871875.0 -1.27154541015625 1.10845947265625
1606093750.0 -0.2716064453125 1.630126953125
1637315625.0 0.7423095703125 1.39886474609375
1668537500.0 1.3948974609375 0.6947021484375
1699759375.0 1.57171630859375 -0.27777099609375
1730981250.0 1.0623779296875 -1.22894287109375
1762203125.0 0.04144287109375 -1.569091796875
1793425000.0 -0.85528564453125 -1.2249755859375
1824646875.0 -1.39239501953125 -0.5146484375
1855868750.0 -1.4725341796875 0.43231201171875
1887090625.0 -0.873779296875 1.28485107421875
1918312500.0 0.11737060546875 1.485595703125
1949534375.0 0.92095947265625 1.088134765625
1980756250.0 1.373779296875 0.3692626953125
2011978125.0 1.3580322265625 -0.5316162109375
2043200000.0 0.748779296875 -1.2608642578125
2074421875.0 -0.1572265625 -1.431884765625
2105643750.0 -0.95953369140625 -1.071044921875
2136865625.0 -1.44598388671875 -0.303955078125
2168087500.0 -1.35540771484375 0.67095947265625
2199309375.0 -0.63787841796875 1.3502197265625
2230531250.0 0.281982421875 1.43463134765625
2261753125.0 1.0718994140625 1.0128173828125
2292975000.0 1.51318359375 0.16998291015625
2324196875.0 1.3038330078125 -0.818603515625
2355418750.0 0.52435302734375 -1.4188232421875
2386640625.0 -0.40423583984375 -1.447509765625
2417862500.0 -1.179443359375 -1.02294921875
2449084375.0 -1.60357666015625 -0.08349609375
2480306250.0 -1.30963134765625 0.924072265625
2511528125.0 -0.49285888671875 1.50640869140625
2542750000.0 0.488525390625 1.53387451171875
2573971875.0 1.3704833984375 0.96661376953125
2605193750.0 1.7158203125 -0.1138916015625
2636415625.0 1.26007080078125 -1.15216064453125
2667637500.0 0.30548095703125 -1.6654052734375
2698859375.0 -0.76947021484375 -1.53253173828125
2730081250.0 -1.57086181640625 -0.73968505859375
2761303125.0 -1.67828369140625 0.3873291015625
2792525000.0 -1.0980224609375 1.30584716796875
2823746875.0 -0.1014404296875 1.7269287109375
2854968750.0 1.01190185546875 1.45343017578125
2886190625.0 1.690185546875 0.49041748046875
2917412500.0 1.5977783203125 -0.6175537109375
2948634375.0 0.93798828125 -1.43145751953125
2979856250.0 -0.10791015625 -1.773193359375
3011078125.0 -1.24603271484375 -1.34033203125
3042300000.0 -1.77313232421875 -0.2340087890625
3073521875.0 -1.50726318359375 0.838134765625
3104743750.0 -0.761962890625 1.56549072265625
3135965625.0 0.3619384765625 1.80718994140625
3167187500.0 1.4976806640625 1.16204833984375
3198409375.0 1.81170654296875 -0.07373046875
3229631250.0 1.3465576171875 -1.08026123046875
3260853125.0 0.48828125 -1.66650390625
3292075000.0 -0.65545654296875 -1.69573974609375
3323296875.0 -1.6173095703125 -0.87774658203125
3354518750.0 -1.7281494140625 0.3292236328125
3385740625.0 -1.15374755859375 1.2298583984375
3416962500.0 -0.23046875 1.67950439453125
3448184375.0 0.85906982421875 1.5194091796875
3479406250.0 1.63385009765625 0.6434326171875
3510628125.0 1.64251708984375 -0.49578857421875
3541850000.0 0.99859619140625 -1.354736328125
3573071875.0 -0.008056640625 -1.68035888671875
3604293750.0 -1.02716064453125 -1.33575439453125
3635515625.0 -1.62677001953125 -0.43646240234375
3666737500.0 -1.55963134765625 0.64556884765625
3697959375.0 -0.82415771484375 1.474365234375
3729181250.0 0.26806640625 1.6282958984375
3760403125.0 1.14996337890625 1.09625244140625
3791625000.0 1.55023193359375 0.2171630859375
3822846875.0 1.39959716796875 -0.76007080078125
3854068750.0 0.61871337890625 -1.48052978515625
3885290625.0 -0.42041015625 -1.47918701171875
3916512500.0 -1.14093017578125 -0.90948486328125
3947734375.0 -1.44549560546875 -0.11932373046875
3978956250.0 -1.295654296875 0.77783203125
4010178125.0 -0.53070068359375 1.4527587890625
4041400000.0 0.4730224609375 1.41339111328125
4072621875.0 1.14996337890625 0.8472900390625
4103843750.0 1.44305419921875 0.0626220703125
4135065625.0 1.26617431640625 -0.84454345703125
4166287500.0 0.45733642578125 -1.49371337890625
4197509375.0 -0.55780029296875 -1.4132080078125
4228731250.0 -1.24664306640625 -0.8016357421875
4259953125.0 -1.50689697265625 0.07025146484375
4291175000.0 -1.1864013671875 1.00860595703125
4322396875.0 -0.28887939453125 1.52398681640625
4353618750.0 0.67193603515625 1.34783935546875
4384840625.0 1.320068359375 0.6959228515625
4416062500.0 1.49822998046875 -0.2271728515625
4447284375.0 1.05340576171875 -1.103271484375
4478506250.0 0.1722412109375 -1.49334716796875
4509728125.0 -0.7314453125 -1.30548095703125
4540950000.0 -1.39251708984375 -0.6351318359375
4572171875.0 -1.520263671875 0.359375
4603393750.0 -0.971435546875 1.2117919921875
4634615625.0 -0.06170654296875 1.53515625
4665837500.0 0.870849609375 1.30303955078125
4697059375.0 1.53912353515625 0.51593017578125
4728281250.0 1.52734375 -0.58123779296875
4759503125.0 0.82177734375 -1.36578369140625
4790725000.0 -0.1451416015625 -1.5712890625
4821946875.0 -1.081298828125 -1.19256591796875
4853168750.0 -1.6121826171875 -0.2506103515625
4884390625.0 -1.376708984375 0.7921142578125
4915612500.0 -0.61248779296875 1.411376953125
4946834375.0 0.32769775390625 1.5067138671875
4978056250.0 1.20330810546875 1.015869140625
5009278125.0 1.5595703125 0.03985595703125
5040500000.0 1.22772216796875 -0.87445068359375
5071721875.0 0.5006103515625 -1.4134521484375
5102943750.0 -0.4459228515625 -1.49462890625
5134165625.0 -1.33380126953125 -0.9051513671875
5165387500.0 -1.56658935546875 0.14569091796875
5196609375.0 -1.13525390625 1.0079345703125
5227831250.0 -0.35711669921875 1.504638671875
5259053125.0 0.68701171875 1.49053955078125
5290275000.0 1.51959228515625 0.6627197265625
5321496875.0 1.4910888671875 -0.43017578125
5352718750.0 0.92041015625 -1.15142822265625
5383940625.0 0.09637451171875 -1.49853515625
5415162500.0 -0.8997802734375 -1.282470703125
5446384375.0 -1.4827880859375 -0.37005615234375
5477606250.0 -1.29779052734375 0.56591796875
5508828125.0 -0.7303466796875 1.14990234375
5540050000.0 0.0531005859375 1.39630126953125
5571271875.0 0.93695068359375 1.1077880859375
5602493750.0 1.406494140625 0.25970458984375
5633715625.0 1.23114013671875 -0.61187744140625
5664937500.0 0.64752197265625 -1.20123291015625
5696159375.0 -0.1968994140625 -1.38262939453125
5727381250.0 -1.0201416015625 -0.9779052734375
5758603125.0 -1.3902587890625 -0.14483642578125
5789825000.0 -1.1929931640625 0.71661376953125
5821046875.0 -0.5067138671875 1.30548095703125
5852268750.0 0.41107177734375 1.311767578125
5883490625.0 1.07122802734375 0.7713623046875
5914712500.0 1.30133056640625 0.0196533203125
5945934375.0 1.09521484375 -0.77484130859375
5977156250.0 0.36126708984375 -1.30987548828125
6008378125.0 -0.50897216796875 -1.18157958984375
6039600000.0 -1.02081298828125 -0.64898681640625
6070821875.0 -1.22283935546875 -0.004150390625
6102043750.0 -1.08251953125 0.76177978515625
6133265625.0 -0.3419189453125 1.34320068359375
6164487500.0 0.56243896484375 1.186767578125
6195709375.0 1.06982421875 0.62969970703125
6226931250.0 1.2789306640625 -0.04315185546875
6258153125.0 1.10345458984375 -0.87054443359375
6289375000.0 0.25628662109375 -1.4451904296875
6320596875.0 -0.6890869140625 -1.20562744140625
6351818750.0 -1.1990966796875 -0.57208251953125
6383040625.0 -1.3533935546875 0.20623779296875
6414262500.0 -0.9996337890625 1.05535888671875
6445484375.0 -0.07843017578125 1.45635986328125
6476706250.0 0.79461669921875 1.147216796875
6507928125.0 1.2891845703125 0.4700927734375
6539150000.0 1.34625244140625 -0.385009765625
6570371875.0 0.8408203125 -1.143310546875
6601593750.0 -0.01715087890625 -1.40325927734375
6632815625.0 -0.83795166015625 -1.1351318359375
6664037500.0 -1.400146484375 -0.42022705078125
6695259375.0 -1.3724365234375 0.56365966796875
6726481250.0 -0.70947265625 1.25006103515625
6757703125.0 0.13055419921875 1.405517578125
6788925000.0 0.95458984375 1.12957763671875
6820146875.0 1.55908203125 0.2874755859375
6851368750.0 1.32537841796875 -0.818115234375
6882590625.0 0.50653076171875 -1.33770751953125
6913812500.0 -0.292724609375 -1.3560791015625
6945034375.0 -1.06915283203125 -1.020751953125
6976256250.0 -1.5914306640625 -0.09381103515625
7007478125.0 -1.2357177734375 0.93292236328125
7038700000.0 -0.4022216796875 1.341064453125
7069921875.0 0.35845947265625 1.32147216796875
7101143750.0 1.1163330078125 0.96746826171875
7132365625.0 1.59844970703125 0.01409912109375
7163587500.0 1.15582275390625 -1.0194091796875
7194809375.0 0.30126953125 -1.3974609375
7226031250.0 -0.51171875 -1.32464599609375
7257253125.0 -1.26507568359375 -0.82318115234375
7288475000.0 -1.55682373046875 0.19775390625
7319696875.0 -1.0286865234375 1.108642578125
7350918750.0 -0.164306640625 1.44049072265625
7382140625.0 0.715087890625 1.275390625
7413362500.0 1.37603759765625 0.5762939453125
7444584375.0 1.41162109375 -0.4068603515625
7475806250.0 0.85784912109375 -1.1419677734375
7507028125.0 0.005859375 -1.428466796875
7538250000.0 -0.88751220703125 -1.12347412109375
7569471875.0 -1.33563232421875 -0.310546875
7600693750.0 -1.20159912109375 0.49853515625
7631915625.0 -0.7181396484375 1.08380126953125
7663137500.0 0.0809326171875 1.35821533203125
7694359375.0 0.938812255859375 0.980072021484375
7725581250.0 1.241455078125 0.18194580078125
7756803125.0 1.08245849609375 -0.498779296875
7788025000.0 0.67034912109375 -1.04290771484375
7819246875.0 -0.11920166015625 -1.345703125
7850468750.0 -0.993499755859375 -0.9154052734375
7881690625.0 -1.23052978515625 -0.10504150390625
7912912500.0 -1.05364990234375 0.552490234375
7944134375.0 -0.60577392578125 1.11175537109375
7975356250.0 0.26971435546875 1.33465576171875
8006578125.0 1.0472412109375 0.7784423828125
8037800000.0 1.1927490234375 0.0164794921875
8069021875.0 1.0064697265625 -0.616455078125
8100243750.0 0.5009765625 -1.159423828125
8131465625.0 -0.3857421875 -1.25274658203125
8162687500.0 -1.03240966796875 -0.68548583984375
8193909375.0 -1.18048095703125 0.00970458984375
8225131250.0 -1.0172119140625 0.67767333984375
8256353125.0 -0.42242431640625 1.24835205078125
8287575000.0 0.49993896484375 1.22540283203125
8318796875.0 1.0806884765625 0.63531494140625
8350018750.0 1.244873046875 -0.07623291015625
8381240625.0 1.03033447265625 -0.83831787109375
8412462500.0 0.25555419921875 -1.372314453125
8443684375.0 -0.66778564453125 -1.16961669921875
8474906250.0 -1.17315673828125 -0.53253173828125
8506128125.0 -1.29742431640625 0.23687744140625
8537350000.0 -0.9246826171875 1.04559326171875
8568571875.0 -0.01544189453125 1.39471435546875
8599793750.0 0.79937744140625 1.05255126953125
8631015625.0 1.24102783203125 0.39935302734375
8662237500.0 1.28460693359375 -0.4283447265625
8693459375.0 0.736083984375 -1.177001953125
8724681250.0 -0.1624755859375 -1.33099365234375
8755903125.0 -0.8792724609375 -0.957672119140625
8787125000.0 -1.3033447265625 -0.28125
8818346875.0 -1.249755859375 0.61419677734375
8849568750.0 -0.55670166015625 1.25787353515625
8880790625.0 0.29693603515625 1.2833251953125
8912012500.0 0.981292724609375 0.89117431640625
8943234375.0 1.3973388671875 0.12896728515625
8974456250.0 1.16705322265625 -0.83868408203125
9005678125.0 0.34930419921875 -1.31170654296875
9036900000.0 -0.444091796875 -1.22491455078125
9068121875.0 -1.10009765625 -0.78570556640625
9099343750.0 -1.4415283203125 0.09918212890625
9130565625.0 -0.97906494140625 1.012451171875
9161787500.0 -0.15411376953125 1.28228759765625
9193009375.0 0.5543212890625 1.1331787109375
9224231250.0 1.17779541015625 0.65411376953125
9255453125.0 1.3985595703125 -0.29595947265625
9286675000.0 0.8067626953125 -1.082763671875
9317896875.0 0.02618408203125 -1.24658203125
9349118750.0 -0.65447998046875 -1.07000732421875
9380340625.0 -1.25677490234375 -0.51068115234375
9411562500.0 -1.31048583984375 0.47344970703125
9442784375.0 -0.64935302734375 1.114013671875
9474006250.0 0.08837890625 1.21002197265625
9505228125.0 0.762969970703125 0.980499267578125
9536450000.0 1.27386474609375 0.3123779296875
9567671875.0 1.144775390625 -0.5797119140625
9598893750.0 0.5302734375 -1.06689453125
9630115625.0 -0.14306640625 -1.15704345703125
9661337500.0 -0.818756103515625 -0.902069091796875
9692559375.0 -1.2403564453125 -0.18914794921875
9723781250.0 -1.0443115234375 0.60491943359375
9755003125.0 -0.48541259765625 1.04998779296875
9786225000.0 0.1986083984375 1.159912109375
9817446875.0 0.894317626953125 0.8275146484375
9848668750.0 1.19696044921875 0.0792236328125
9879890625.0 0.967864990234375 -0.615570068359375
9911112500.0 0.45294189453125 -1.04962158203125
9942334375.0 -0.2655029296875 -1.1583251953125
9973556250.0 -0.942657470703125 -0.738189697265625
10004778125.0 -1.146240234375 -0.01800537109375
10036000000.0 -0.94439697265625 0.61639404296875
10067221875.0 -0.442138671875 1.0950927734375
10098443750.0 0.36907958984375 1.18157958984375
10129665625.0 1.000732421875 0.64337158203125
10160887500.0 1.1197509765625 -0.0513916015625
10192109375.0 0.917724609375 -0.663055419921875
10223331250.0 0.361328125 -1.152587890625
10254553125.0 -0.4844970703125 -1.11334228515625
10285775000.0 -0.985382080078125 -0.534393310546875
10316996875.0 -1.0670166015625 0.0755615234375
10348218750.0 -0.89996337890625 0.671661376953125
10379440625.0 -0.32135009765625 1.17584228515625
10410662500.0 0.5264892578125 1.08563232421875
10441884375.0 0.991424560546875 0.521881103515625
10473106250.0 1.10833740234375 -0.08355712890625
10504328125.0 0.9495849609375 -0.75677490234375
10535550000.0 0.23876953125 -1.294921875
10566771875.0 -0.65570068359375 -1.076904296875
10597993750.0 -1.08038330078125 -0.45904541015625
10629215625.0 -1.17529296875 0.20538330078125
10660437500.0 -0.887542724609375 0.95013427734375
10691659375.0 -0.0103759765625 1.3358154296875
10722881250.0 0.783172607421875 0.952392578125
10754103125.0 1.11846923828125 0.32501220703125
10785325000.0 1.13885498046875 -0.3673095703125
10816546875.0 0.70172119140625 -1.0484619140625
10847768750.0 -0.145263671875 -1.22796630859375
10878990625.0 -0.8037109375 -0.84454345703125
10910212500.0 -1.123046875 -0.2454833984375
10941434375.0 -1.0966796875 0.476806640625
10972656250.0 -0.5679931640625 1.08575439453125
11003878125.0 0.21710205078125 1.17376708984375
11035100000.0 0.84893798828125 0.82171630859375
11066321875.0 1.22021484375 0.174072265625
11097543750.0 1.0985107421875 -0.6756591796875
11128765625.0 0.38726806640625 -1.19610595703125
11159987500.0 -0.395751953125 -1.1390380859375
11191209375.0 -0.999298095703125 -0.70245361328125
11222431250.0 -1.2720947265625 0.0926513671875
11253653125.0 -0.8594970703125 0.893707275390625
11284875000.0 -0.11517333984375 1.125244140625
11316096875.0 0.511627197265625 0.955413818359375
11347318750.0 1.00372314453125 0.502197265625
11378540625.0 1.11676025390625 -0.26837158203125
11409762500.0 0.635223388671875 -0.858245849609375
11440984375.0 0.036956787109375 -0.977020263671875
11472206250.0 -0.480621337890625 -0.849822998046875
11503428125.0 -0.950653076171875 -0.456878662109375
11534650000.0 -1.0682373046875 0.2884521484375
11565871875.0 -0.602020263671875 0.85455322265625
11597093750.0 -0.0201416015625 0.99005126953125
11628315625.0 0.54339599609375 0.8748779296875
11659537500.0 1.059814453125 0.392333984375
11690759375.0 1.0655517578125 -0.43414306640625
11721981250.0 0.517303466796875 -0.940338134765625
11753203125.0 -0.1055908203125 -1.03662109375
11784425000.0 -0.724090576171875 -0.80902099609375
11815646875.0 -1.0999755859375 -0.15142822265625
11846868750.0 -0.891357421875 0.55230712890625
11878090625.0 -0.3912353515625 0.90869140625
11909312500.0 0.1859130859375 0.983306884765625
11940534375.0 0.7791748046875 0.695343017578125
11971756250.0 1.02545166015625 0.0399169921875
12002978125.0 0.80596923828125 -0.537567138671875
12034200000.0 0.382659912109375 -0.888336181640625
12065421875.0 -0.2144775390625 -1.00946044921875
12096643750.0 -0.847869873046875 -0.665985107421875
12127865625.0 -1.032958984375 0.01580810546875
12159087500.0 -0.814697265625 0.57415771484375
12190309375.0 -0.377685546875 0.975128173828125
12221531250.0 0.33880615234375 1.08795166015625
12252753125.0 0.97943115234375 0.5816650390625
12283975000.0 1.0538330078125 -0.12750244140625
12315196875.0 0.800079345703125 -0.675750732421875
12346418750.0 0.28155517578125 -1.09112548828125
12377640625.0 -0.53607177734375 -1.06072998046875
12408862500.0 -1.03375244140625 -0.42022705078125
12440084375.0 -1.0089111328125 0.22564697265625
12471306250.0 -0.741912841796875 0.73577880859375
12502528125.0 -0.18109130859375 1.117919921875
12533750000.0 0.6202392578125 0.9931640625
12564971875.0 1.03997802734375 0.36431884765625
12596193750.0 1.0281982421875 -0.26263427734375
12627415625.0 0.747528076171875 -0.828155517578125
12658637500.0 0.0797119140625 -1.20751953125
12689859375.0 -0.734375 -0.965423583984375
12721081250.0 -1.1165771484375 -0.306396484375
12752303125.0 -1.0966796875 0.38079833984375
12783525000.0 -0.68743896484375 1.02740478515625
12814746875.0 0.163818359375 1.25091552734375
12845968750.0 0.86126708984375 0.8109130859375
12877190625.0 1.11578369140625 0.173095703125
12908412500.0 1.05523681640625 -0.501708984375
12939634375.0 0.5443115234375 -1.1171875
12970856250.0 -0.3206787109375 -1.17559814453125
13002078125.0 -0.895294189453125 -0.6937255859375
13033300000.0 -1.10601806640625 -0.0863037109375
13064521875.0 -1.009033203125 0.59356689453125
13095743750.0 -0.4210205078125 1.15435791015625
13126965625.0 0.40728759765625 1.1197509765625
13158187500.0 0.948486328125 0.631378173828125
13189409375.0 1.14727783203125 -0.02142333984375
13220631250.0 0.936248779296875 -0.746856689453125
13251853125.0 0.23529052734375 -1.17041015625
13283075000.0 -0.50640869140625 -1.0191650390625
13314296875.0 -0.986236572265625 -0.528839111328125
