!Created with skrf (http://scikit-rf.org).
# Hz S RI R 50.0 
!freq ReS11 ImS11
45000000.0 -0.0770111083984375 -0.0968475341796875
76221875.0 -0.1963653564453125 -0.0475311279296875
107443750.0 -0.254669189453125 0.119720458984375
138665625.0 -0.1480712890625 0.328277587890625
169887500.0 0.123687744140625 0.417236328125
201109375.0 0.4216766357421875 0.280609130859375
232331250.0 0.57861328125 -0.057861328125
263553125.0 0.489013671875 -0.4524078369140625
294775000.0 0.0980224609375 -0.732086181640625
325996875.0 -0.415435791015625 -0.67999267578125
357218750.0 -0.80572509765625 -0.29656982421875
388440625.0 -0.88507080078125 0.3006591796875
419662500.0 -0.5166015625 0.8658447265625
450884375.0 0.1734619140625 1.028076171875
482106250.0 0.798065185546875 0.711761474609375
513328125.0 1.11834716796875 0.0867919921875
544550000.0 1.00274658203125 -0.67974853515625
575771875.0 0.33575439453125 -1.2371826171875
606993750.0 -0.5538330078125 -1.17608642578125
638215625.0 -1.1650390625 -0.58953857421875
669437500.0 -1.33880615234375 0.23382568359375
700659375.0 -0.9697265625 1.09539794921875
731881250.0 -0.00311279296875 1.5418701171875
763103125.0 1.00518798828125 1.15435791015625
794325000.0 1.46728515625 0.2808837890625
825546875.0 1.36566162109375 -0.6510009765625
856768750.0 0.79339599609375 -1.39984130859375
887990625.0 -0.293212890625 -1.646728515625
919212500.0 -1.287109375 -1.0770263671875
950434375.0 -1.64666748046875 -0.05865478515625
981656250.0 -1.380615234375 0.9449462890625
1012878125.0 -0.52862548828125 1.66961669921875
1044100000.0 0.6966552734375 1.65960693359375
1075321875.0 1.572021484375 0.810791015625
1106543750.0 1.7021484375 -0.313232421875
1137765625.0 1.18499755859375 -1.28271484375
1168987500.0 0.13739013671875 -1.79486083984375
1200209375.0 -1.06097412109375 -1.48150634765625
1231431250.0 -1.7252197265625 -0.4521484375
1262653125.0 -1.591796875 0.68389892578125
1293875000.0 -0.85028076171875 1.489990234375
1325096875.0 0.22802734375 1.70428466796875
1356318750.0 1.2335205078125 1.21435546875
1387540625.0 1.73748779296875 0.18792724609375
1418762500.0 1.46697998046875 -0.95025634765625
1449984375.0 0.52825927734375 -1.623779296875
1481206250.0 -0.5496826171875 -1.55364990234375
1512428125.0 -1.34100341796875 -0.9180908203125
1543650000.0 -1.65325927734375 0.065673828125
1574871875.0 -1.27142333984375 1.10833740234375
1606093750.0 -0.271728515625 1.6295166015625
1637315625.0 0.74176025390625 1.3984375
1668537500.0 1.39453125 0.694580078125
1699759375.0 1.571044921875 -0.277587890625
1730981250.0 1.062255859375 -1.22784423828125
1762203125.0 0.04150390625 -1.56866455078125
1793425000.0 -0.8548583984375 -1.2247314453125
1824646875.0 -1.3916015625 -0.51416015625
1855868750.0 -1.47198486328125 0.43194580078125
1887090625.0 -0.87359619140625 1.283447265625
1918312500.0 0.11737060546875 1.48468017578125
1949534375.0 0.92022705078125 1.08740234375
1980756250.0 1.373046875 0.36907958984375
2011978125.0 1.357421875 -0.5311279296875
2043200000.0 0.74859619140625 -1.26031494140625
2074421875.0 -0.156982421875 -1.4315185546875
2105643750.0 -0.95916748046875 -1.07061767578125
2136865625.0 -1.44525146484375 -0.30450439453125
2168087500.0 -1.35491943359375 0.67034912109375
2199309375.0 -0.63800048828125 1.34942626953125
2230531250.0 0.2818603515625 1.43426513671875
2261753125.0 1.0711669921875 1.01214599609375
2292975000.0 1.5120849609375 0.1700439453125
2324196875.0 1.30352783203125 -0.81781005859375
2355418750.0 0.52374267578125 -1.418212890625
2386640625.0 -0.4041748046875 -1.4466552734375
2417862500.0 -1.17864990234375 -1.02227783203125
2449084375.0 -1.60223388671875 -0.08349609375
2480306250.0 -1.30889892578125 0.92388916015625
2511528125.0 -0.493408203125 1.50537109375
2542750000.0 0.487548828125 1.533447265625
2573971875.0 1.36785888671875 0.9659423828125
2605193750.0 1.71331787109375 -0.1119384765625
2636415625.0 1.2587890625 -1.15045166015625
2667637500.0 0.3062744140625 -1.66412353515625
2698859375.0 -0.7685546875 -1.531494140625
2730081250.0 -1.57086181640625 -0.73876953125
2761303125.0 -1.6783447265625 0.3883056640625
2792525000.0 -1.09722900390625 1.30670166015625
2823746875.0 -0.101806640625 1.727294921875
2854968750.0 1.01123046875 1.45245361328125
2886190625.0 1.68951416015625 0.49090576171875
2917412500.0 1.5968017578125 -0.616943359375
2948634375.0 0.9378662109375 -1.43048095703125
2979856250.0 -0.10711669921875 -1.77313232421875
3011078125.0 -1.24566650390625 -1.34051513671875
3042300000.0 -1.7713623046875 -0.234375
3073521875.0 -1.506103515625 0.83648681640625
3104743750.0 -0.7618408203125 1.56427001953125
3135965625.0 0.361572265625 1.8062744140625
3167187500.0 1.49639892578125 1.1619873046875
3198409375.0 1.8121337890625 -0.07501220703125
3229631250.0 1.345458984375 -1.0784912109375
3260853125.0 0.48760986328125 -1.66571044921875
3292075000.0 -0.653564453125 -1.6949462890625
3323296875.0 -1.61651611328125 -0.87786865234375
3354518750.0 -1.727294921875 0.32806396484375
3385740625.0 -1.15386962890625 1.22943115234375
3416962500.0 -0.2308349609375 1.6787109375
3448184375.0 0.857666015625 1.518310546875
3479406250.0 1.63275146484375 0.642822265625
3510628125.0 1.64141845703125 -0.49456787109375
3541850000.0 0.99871826171875 -1.3529052734375
3573071875.0 -0.008544921875 -1.680419921875
3604293750.0 -1.025390625 -1.335205078125
3635515625.0 -1.62432861328125 -0.43853759765625
3666737500.0 -1.55889892578125 0.6453857421875
3697959375.0 -0.82293701171875 1.47283935546875
3729181250.0 0.26788330078125 1.627685546875
3760403125.0 1.15130615234375 1.09576416015625
3791625000.0 1.5491943359375 0.21783447265625
3822846875.0 1.39910888671875 -0.759765625
3854068750.0 0.61932373046875 -1.47857666015625
3885290625.0 -0.42034912109375 -1.4783935546875
3916512500.0 -1.13958740234375 -0.9100341796875
3947734375.0 -1.44476318359375 -0.1201171875
3978956250.0 -1.294677734375 0.77618408203125
4010178125.0 -0.53045654296875 1.45135498046875
4041400000.0 0.47119140625 1.4119873046875
4072621875.0 1.15008544921875 0.84637451171875
4103843750.0 1.44146728515625 0.063720703125
4135065625.0 1.26519775390625 -0.8428955078125
4166287500.0 0.45733642578125 -1.49249267578125
4197509375.0 -0.55487060546875 -1.41217041015625
4228731250.0 -1.24664306640625 -0.80157470703125
4259953125.0 -1.50634765625 0.0697021484375
4291175000.0 -1.18658447265625 1.00885009765625
4322396875.0 -0.28857421875 1.52435302734375
4353618750.0 0.6722412109375 1.3475341796875
4384840625.0 1.3204345703125 0.69586181640625
4416062500.0 1.49871826171875 -0.22735595703125
4447284375.0 1.05364990234375 -1.102294921875
4478506250.0 0.1724853515625 -1.49310302734375
4509728125.0 -0.73101806640625 -1.30535888671875
4540950000.0 -1.39068603515625 -0.63494873046875
4572171875.0 -1.51971435546875 0.359130859375
4603393750.0 -0.97161865234375 1.210205078125
4634615625.0 -0.06097412109375 1.53448486328125
4665837500.0 0.8682861328125 1.30230712890625
4697059375.0 1.5399169921875 0.514404296875
4728281250.0 1.5267333984375 -0.58148193359375
4759503125.0 0.82244873046875 -1.36505126953125
4790725000.0 -0.14569091796875 -1.57061767578125
4821946875.0 -1.081298828125 -1.19287109375
4853168750.0 -1.6109619140625 -0.25079345703125
4884390625.0 -1.375732421875 0.79144287109375
4915612500.0 -0.6126708984375 1.409423828125
4946834375.0 0.32867431640625 1.5076904296875
4978056250.0 1.20367431640625 1.01593017578125
5009278125.0 1.55877685546875 0.0404052734375
5040500000.0 1.22723388671875 -0.87451171875
5071721875.0 0.5013427734375 -1.41241455078125
5102943750.0 -0.4456787109375 -1.49420166015625
5134165625.0 -1.33441162109375 -0.90374755859375
5165387500.0 -1.56488037109375 0.14447021484375
5196609375.0 -1.13433837890625 1.0067138671875
5227831250.0 -0.35748291015625 1.50384521484375
5259053125.0 0.687255859375 1.49102783203125
5290275000.0 1.51812744140625 0.66241455078125
5321496875.0 1.4908447265625 -0.429443359375
5352718750.0 0.91998291015625 -1.1519775390625
5383940625.0 0.09759521484375 -1.497802734375
5415162500.0 -0.897705078125 -1.281982421875
5446384375.0 -1.48193359375 -0.36993408203125
5477606250.0 -1.29705810546875 0.565185546875
5508828125.0 -0.73028564453125 1.149169921875
5540050000.0 0.0531005859375 1.3961181640625
5571271875.0 0.93719482421875 1.1072998046875
5602493750.0 1.40679931640625 0.26019287109375
5633715625.0 1.23004150390625 -0.61163330078125
5664937500.0 0.64788818359375 -1.19879150390625
5696159375.0 -0.19549560546875 -1.38189697265625
5727381250.0 -1.0198974609375 -0.9774169921875
5758603125.0 -1.38958740234375 -0.1451416015625
5789825000.0 -1.1927490234375 0.7169189453125
5821046875.0 -0.505859375 1.30462646484375
5852268750.0 0.4107666015625 1.311279296875
5883490625.0 1.06884765625 0.7711181640625
5914712500.0 1.30096435546875 0.01971435546875
5945934375.0 1.0947265625 -0.7738037109375
5977156250.0 0.36065673828125 -1.31134033203125
6008378125.0 -0.5081787109375 -1.1806640625
6039600000.0 -1.01971435546875 -0.64849853515625
6070821875.0 -1.22235107421875 -0.00482177734375
6102043750.0 -1.081787109375 0.76055908203125
6133265625.0 -0.3419189453125 1.34271240234375
6164487500.0 0.56201171875 1.18597412109375
6195709375.0 1.068359375 0.62957763671875
6226931250.0 1.2781982421875 -0.04278564453125
6258153125.0 1.10321044921875 -0.86956787109375
6289375000.0 0.25726318359375 -1.4434814453125
6320596875.0 -0.689208984375 -1.205078125
6351818750.0 -1.19818115234375 -0.572021484375
6383040625.0 -1.35302734375 0.2060546875
6414262500.0 -0.99896240234375 1.05462646484375
6445484375.0 -0.07855224609375 1.45550537109375
6476706250.0 0.79217529296875 1.1461181640625
6507928125.0 1.28826904296875 0.47021484375
6539150000.0 1.34552001953125 -0.38555908203125
6570371875.0 0.8404541015625 -1.141845703125
6601593750.0 -0.01702880859375 -1.40283203125
6632815625.0 -0.83905029296875 -1.13519287109375
6664037500.0 -1.39996337890625 -0.4197998046875
6695259375.0 -1.37274169921875 0.5648193359375
6726481250.0 -0.71026611328125 1.2498779296875
6757703125.0 0.1300048828125 1.405517578125
6788925000.0 0.951904296875 1.1297607421875
6820146875.0 1.55853271484375 0.28802490234375
6851368750.0 1.32501220703125 -0.8170166015625
6882590625.0 0.50567626953125 -1.33831787109375
6913812500.0 -0.291748046875 -1.35455322265625
6945034375.0 -1.0679931640625 -1.02020263671875
6976256250.0 -1.59002685546875 -0.09429931640625
7007478125.0 -1.23431396484375 0.9307861328125
7038700000.0 -0.40240478515625 1.3409423828125
7069921875.0 0.3570556640625 1.322265625
7101143750.0 1.1177978515625 0.9677734375
7132365625.0 1.59564208984375 0.01544189453125
7163587500.0 1.15594482421875 -1.01910400390625
7194809375.0 0.3021240234375 -1.39593505859375
7226031250.0 -0.51165771484375 -1.32440185546875
7257253125.0 -1.26470947265625 -0.8231201171875
7288475000.0 -1.55731201171875 0.19830322265625
7319696875.0 -1.02960205078125 1.10797119140625
7350918750.0 -0.16375732421875 1.44244384765625
7382140625.0 0.71356201171875 1.27484130859375
7413362500.0 1.37518310546875 0.57635498046875
7444584375.0 1.4107666015625 -0.40631103515625
7475806250.0 0.8572998046875 -1.14154052734375
7507028125.0 0.0052490234375 -1.42816162109375
7538250000.0 -0.8863525390625 -1.12286376953125
7569471875.0 -1.3345947265625 -0.31103515625
7600693750.0 -1.200927734375 0.49554443359375
7631915625.0 -0.71759033203125 1.0833740234375
7663137500.0 0.0794677734375 1.35589599609375
7694359375.0 0.9398193359375 0.980194091796875
7725581250.0 1.23980712890625 0.18182373046875
7756803125.0 1.080810546875 -0.4971923828125
7788025000.0 0.6695556640625 -1.041748046875
7819246875.0 -0.12066650390625 -1.34613037109375
7850468750.0 -0.991302490234375 -0.915802001953125
7881690625.0 -1.22869873046875 -0.105712890625
7912912500.0 -1.05267333984375 0.552001953125
7944134375.0 -0.60540771484375 1.112060546875
7975356250.0 0.27032470703125 1.33319091796875
8006578125.0 1.04541015625 0.7781982421875
8037800000.0 1.19122314453125 0.01806640625
8069021875.0 1.005859375 -0.61895751953125
8100243750.0 0.50006103515625 -1.15924072265625
8131465625.0 -0.3880615234375 -1.254150390625
8162687500.0 -1.03131103515625 -0.685546875
8193909375.0 -1.17852783203125 0.00830078125
8225131250.0 -1.01654052734375 0.67657470703125
8256353125.0 -0.421142578125 1.2474365234375
8287575000.0 0.50054931640625 1.2257080078125
8318796875.0 1.07940673828125 0.6356201171875
8350018750.0 1.24456787109375 -0.07659912109375
8381240625.0 1.0311279296875 -0.83917236328125
8412462500.0 0.25439453125 -1.37200927734375
8443684375.0 -0.66632080078125 -1.168212890625
8474906250.0 -1.17279052734375 -0.5323486328125
8506128125.0 -1.29730224609375 0.237060546875
8537350000.0 -0.9237060546875 1.0447998046875
8568571875.0 -0.016357421875 1.39312744140625
8599793750.0 0.80255126953125 1.05267333984375
8631015625.0 1.240234375 0.3985595703125
8662237500.0 1.28424072265625 -0.42755126953125
8693459375.0 0.73516845703125 -1.17523193359375
8724681250.0 -0.16259765625 -1.3309326171875
8755903125.0 -0.878631591796875 -0.9564208984375
8787125000.0 -1.3021240234375 -0.28302001953125
8818346875.0 -1.2493896484375 0.61383056640625
8849568750.0 -0.55609130859375 1.25982666015625
8880790625.0 0.2967529296875 1.2840576171875
8912012500.0 0.9791259765625 0.892578125
8943234375.0 1.39764404296875 0.1290283203125
8974456250.0 1.166015625 -0.837158203125
9005678125.0 0.34918212890625 -1.311279296875
9036900000.0 -0.44586181640625 -1.22454833984375
9068121875.0 -1.10040283203125 -0.7855224609375
9099343750.0 -1.439697265625 0.0972900390625
9130565625.0 -0.97900390625 1.00946044921875
9161787500.0 -0.1553955078125 1.28131103515625
9193009375.0 0.5545654296875 1.13250732421875
9224231250.0 1.17596435546875 0.65484619140625
9255453125.0 1.39788818359375 -0.29559326171875
9286675000.0 0.806884765625 -1.0843505859375
9317896875.0 0.02593994140625 -1.24554443359375
9349118750.0 -0.65350341796875 -1.06927490234375
9380340625.0 -1.254638671875 -0.51025390625
9411562500.0 -1.3099365234375 0.4749755859375
9442784375.0 -0.6480712890625 1.11505126953125
9474006250.0 0.0870361328125 1.20843505859375
9505228125.0 0.76324462890625 0.979644775390625
9536450000.0 1.271484375 0.31536865234375
9567671875.0 1.1434326171875 -0.57928466796875
9598893750.0 0.52984619140625 -1.0662841796875
9630115625.0 -0.14227294921875 -1.15740966796875
9661337500.0 -0.8165283203125 -0.901947021484375
9692559375.0 -1.23699951171875 -0.191650390625
9723781250.0 -1.04315185546875 0.60150146484375
9755003125.0 -0.48553466796875 1.049072265625
9786225000.0 0.19757080078125 1.15924072265625
9817446875.0 0.893890380859375 0.82757568359375
9848668750.0 1.19708251953125 0.0777587890625
9879890625.0 0.966796875 -0.616424560546875
9911112500.0 0.4525146484375 -1.05029296875
9942334375.0 -0.2674560546875 -1.15777587890625
9973556250.0 -0.9417724609375 -0.738250732421875
10004778125.0 -1.145263671875 -0.0179443359375
10036000000.0 -0.94342041015625 0.614776611328125
10067221875.0 -0.4427490234375 1.094970703125
10098443750.0 0.369140625 1.1806640625
10129665625.0 1.00177001953125 0.6431884765625
10160887500.0 1.1199951171875 -0.05181884765625
10192109375.0 0.91693115234375 -0.660858154296875
10223331250.0 0.36212158203125 -1.151611328125
10254553125.0 -0.485107421875 -1.1131591796875
10285775000.0 -0.98333740234375 -0.53558349609375
10316996875.0 -1.066162109375 0.076171875
10348218750.0 -0.899627685546875 0.66937255859375
10379440625.0 -0.322021484375 1.1748046875
10410662500.0 0.5257568359375 1.0850830078125
10441884375.0 0.99212646484375 0.520904541015625
10473106250.0 1.107421875 -0.08331298828125
10504328125.0 0.948944091796875 -0.757171630859375
10535550000.0 0.2412109375 -1.2930908203125
10566771875.0 -0.6556396484375 -1.07659912109375
10597993750.0 -1.0789794921875 -0.46044921875
10629215625.0 -1.17529296875 0.2061767578125
10660437500.0 -0.886688232421875 0.949554443359375
10691659375.0 -0.01214599609375 1.33349609375
10722881250.0 0.781890869140625 0.95184326171875
10754103125.0 1.11846923828125 0.32489013671875
10785325000.0 1.137939453125 -0.36651611328125
10816546875.0 0.701171875 -1.0458984375
10847768750.0 -0.14361572265625 -1.2275390625
10878990625.0 -0.80194091796875 -0.843719482421875
10910212500.0 -1.1214599609375 -0.24566650390625
10941434375.0 -1.0968017578125 0.4766845703125
10972656250.0 -0.56768798828125 1.0830078125
11003878125.0 0.2169189453125 1.17303466796875
11035100000.0 0.8477783203125 0.82196044921875
11066321875.0 1.21881103515625 0.17425537109375
11097543750.0 1.09759521484375 -0.67437744140625
11128765625.0 0.38665771484375 -1.19793701171875
11159987500.0 -0.3936767578125 -1.13848876953125
11191209375.0 -0.99810791015625 -0.70281982421875
11222431250.0 -1.27105712890625 0.0919189453125
11253653125.0 -0.858184814453125 0.893096923828125
11284875000.0 -0.11505126953125 1.12591552734375
11316096875.0 0.510986328125 0.957000732421875
11347318750.0 1.00067138671875 0.502197265625
11378540625.0 1.116455078125 -0.2679443359375
11409762500.0 0.635467529296875 -0.857757568359375
11440984375.0 0.03564453125 -0.977447509765625
11472206250.0 -0.48004150390625 -0.849700927734375
11503428125.0 -0.95086669921875 -0.456817626953125
11534650000.0 -1.0673828125 0.2862548828125
11565871875.0 -0.602935791015625 0.853302001953125
11597093750.0 -0.019012451171875 0.99127197265625
11628315625.0 0.544525146484375 0.874725341796875
11659537500.0 1.05853271484375 0.392578125
11690759375.0 1.06378173828125 -0.43194580078125
11721981250.0 0.51708984375 -0.939117431640625
11753203125.0 -0.10400390625 -1.0345458984375
11784425000.0 -0.724761962890625 -0.80853271484375
11815646875.0 -1.10003662109375 -0.15142822265625
11846868750.0 -0.890411376953125 0.5496826171875
11878090625.0 -0.3909912109375 0.907958984375
11909312500.0 0.185882568359375 0.98358154296875
11940534375.0 0.778656005859375 0.6947021484375
11971756250.0 1.02398681640625 0.041015625
12002978125.0 0.805511474609375 -0.53717041015625
12034200000.0 0.382049560546875 -0.88726806640625
12065421875.0 -0.21466064453125 -1.0093994140625
12096643750.0 -0.84808349609375 -0.66558837890625
12127865625.0 -1.03302001953125 0.01617431640625
12159087500.0 -0.814453125 0.57452392578125
12190309375.0 -0.3782958984375 0.974334716796875
12221531250.0 0.3375244140625 1.08746337890625
12252753125.0 0.980072021484375 0.58172607421875
12283975000.0 1.053955078125 -0.1270751953125
12315196875.0 0.80023193359375 -0.67449951171875
12346418750.0 0.28192138671875 -1.0897216796875
12377640625.0 -0.5360107421875 -1.06005859375
12408862500.0 -1.03271484375 -0.42047119140625
12440084375.0 -1.00750732421875 0.22412109375
12471306250.0 -0.742034912109375 0.737030029296875
12502528125.0 -0.18096923828125 1.1192626953125
12533750000.0 0.61785888671875 0.99322509765625
12564971875.0 1.0390625 0.36517333984375
12596193750.0 1.02923583984375 -0.26507568359375
12627415625.0 0.7486572265625 -0.824859619140625
12658637500.0 0.0809326171875 -1.205810546875
12689859375.0 -0.736907958984375 -0.966278076171875
12721081250.0 -1.1162109375 -0.30584716796875
12752303125.0 -1.09747314453125 0.38177490234375
12783525000.0 -0.68841552734375 1.0247802734375
12814746875.0 0.162109375 1.24859619140625
12845968750.0 0.8604736328125 0.810546875
12877190625.0 1.1158447265625 0.1732177734375
12908412500.0 1.054443359375 -0.498779296875
12939634375.0 0.54278564453125 -1.1148681640625
12970856250.0 -0.31903076171875 -1.174072265625
13002078125.0 -0.894622802734375 -0.693328857421875
13033300000.0 -1.1036376953125 -0.087890625
13064521875.0 -1.00811767578125 0.5902099609375
13095743750.0 -0.421142578125 1.1539306640625
13126965625.0 0.40814208984375 1.12054443359375
13158187500.0 0.9443359375 0.632080078125
13189409375.0 1.1475830078125 -0.02008056640625
13220631250.0 0.935821533203125 -0.747161865234375
13251853125.0 0.23406982421875 -1.16998291015625
13283075000.0 -0.505859375 -1.01910400390625
13314296875.0 -0.9876708984375 -0.528961181640625
13345518750.0 -1.1341552734375 0.17437744140625
13376740625.0 -0.7529296875 0.857269287109375
