!Created with skrf (http://scikit-rf.org).
# Hz S RI R 50.0 
!freq ReS11 ImS11
45000000.0 -0.07680130004882812 -0.09692764282226562
76221875.0 -0.1962738037109375 -0.0478057861328125
107443750.0 -0.2549591064453125 0.1193084716796875
138665625.0 -0.148468017578125 0.32830810546875
169887500.0 0.122894287109375 0.4175872802734375
201109375.0 0.4213409423828125 0.281341552734375
232331250.0 0.578704833984375 -0.0570068359375
263553125.0 0.489715576171875 -0.4518890380859375
294775000.0 0.099273681640625 -0.73211669921875
325996875.0 -0.41436767578125 -0.680816650390625
357218750.0 -0.805419921875 -0.2978515625
388440625.0 -0.885589599609375 0.299530029296875
419662500.0 -0.5179443359375 0.865386962890625
450884375.0 0.1717529296875 1.0283203125
482106250.0 0.79718017578125 0.713104248046875
513328125.0 1.1185302734375 0.0882568359375
544550000.0 1.00384521484375 -0.6783447265625
575771875.0 0.3377685546875 -1.23736572265625
606993750.0 -0.55224609375 -1.17742919921875
638215625.0 -1.1646728515625 -0.59136962890625
669437500.0 -1.33935546875 0.2320556640625
700659375.0 -0.97149658203125 1.0946044921875
731881250.0 -0.005126953125 1.542236328125
763103125.0 1.00396728515625 1.156005859375
794325000.0 1.4674072265625 0.2828369140625
825546875.0 1.36676025390625 -0.649658203125
856768750.0 0.7955322265625 -1.3985595703125
887990625.0 -0.2901611328125 -1.64727783203125
919212500.0 -1.285888671875 -1.0792236328125
950434375.0 -1.6470947265625 -0.0609130859375
981656250.0 -1.38201904296875 0.94384765625
1012878125.0 -0.53118896484375 1.66973876953125
1044100000.0 0.6944580078125 1.66143798828125
1075321875.0 1.572265625 0.81298828125
1106543750.0 1.7034912109375 -0.31085205078125
1137765625.0 1.18707275390625 -1.28155517578125
1168987500.0 0.1402587890625 -1.7945556640625
1200209375.0 -1.05914306640625 -1.4832763671875
1231431250.0 -1.72509765625 -0.454833984375
1262653125.0 -1.59295654296875 0.681396484375
1293875000.0 -0.85296630859375 1.4892578125
1325096875.0 0.22637939453125 1.705810546875
1356318750.0 1.2325439453125 1.21661376953125
1387540625.0 1.73748779296875 0.19061279296875
1418762500.0 1.4691162109375 -0.94879150390625
1449984375.0 0.5301513671875 -1.6240234375
1481206250.0 -0.5474853515625 -1.5548095703125
1512428125.0 -1.33941650390625 -0.9200439453125
1543650000.0 -1.6541748046875 0.06378173828125
1574871875.0 -1.2734375 1.10662841796875
1606093750.0 -0.2742919921875 1.62939453125
1637315625.0 0.73992919921875 1.40020751953125
1668537500.0 1.3939208984375 0.69659423828125
1699759375.0 1.57232666015625 -0.275146484375
1730981250.0 1.064453125 -1.227294921875
1762203125.0 0.04376220703125 -1.5687255859375
1793425000.0 -0.85382080078125 -1.226318359375
1824646875.0 -1.391357421875 -0.51611328125
1855868750.0 -1.4730224609375 0.43096923828125
1887090625.0 -0.87530517578125 1.28302001953125
1918312500.0 0.11572265625 1.4852294921875
1949534375.0 0.91961669921875 1.088623046875
1980756250.0 1.373291015625 0.37127685546875
2011978125.0 1.35888671875 -0.52972412109375
2043200000.0 0.75079345703125 -1.259765625
2074421875.0 -0.15521240234375 -1.4322509765625
2105643750.0 -0.9583740234375 -1.07244873046875
2136865625.0 -1.44586181640625 -0.30560302734375
2168087500.0 -1.356201171875 0.6690673828125
2199309375.0 -0.6396484375 1.3494873046875
2230531250.0 0.2801513671875 1.434814453125
2261753125.0 1.07110595703125 1.01409912109375
2292975000.0 1.51251220703125 0.17181396484375
2324196875.0 1.30487060546875 -0.8170166015625
2355418750.0 0.525634765625 -1.41839599609375
2386640625.0 -0.40289306640625 -1.447998046875
2417862500.0 -1.17803955078125 -1.024169921875
2449084375.0 -1.60198974609375 -0.08648681640625
2480306250.0 -1.310791015625 0.9232177734375
2511528125.0 -0.49493408203125 1.505615234375
2542750000.0 0.4866943359375 1.5347900390625
2573971875.0 1.36810302734375 0.96856689453125
2605193750.0 1.7144775390625 -0.1102294921875
2636415625.0 1.26104736328125 -1.1492919921875
2667637500.0 0.30682373046875 -1.6658935546875
2698859375.0 -0.76666259765625 -1.532958984375
2730081250.0 -1.5706787109375 -0.74127197265625
2761303125.0 -1.67889404296875 0.3848876953125
2792525000.0 -1.09893798828125 1.30401611328125
2823746875.0 -0.10400390625 1.72662353515625
2854968750.0 1.00958251953125 1.454833984375
2886190625.0 1.68798828125 0.49261474609375
2917412500.0 1.59771728515625 -0.61566162109375
2948634375.0 0.93988037109375 -1.42999267578125
2979856250.0 -0.10546875 -1.77313232421875
3011078125.0 -1.24407958984375 -1.34185791015625
3042300000.0 -1.77166748046875 -0.23626708984375
3073521875.0 -1.50726318359375 0.83489990234375
3104743750.0 -0.763671875 1.56451416015625
3135965625.0 0.3597412109375 1.80694580078125
3167187500.0 1.4954833984375 1.1641845703125
3198409375.0 1.81292724609375 -0.0726318359375
3229631250.0 1.34814453125 -1.07891845703125
3260853125.0 0.4898681640625 -1.665771484375
3292075000.0 -0.65350341796875 -1.69677734375
3323296875.0 -1.6173095703125 -0.880126953125
3354518750.0 -1.7279052734375 0.32586669921875
3385740625.0 -1.15557861328125 1.22906494140625
3416962500.0 -0.23309326171875 1.67816162109375
3448184375.0 0.85693359375 1.5205078125
3479406250.0 1.6326904296875 0.6451416015625
3510628125.0 1.6416015625 -0.4923095703125
3541850000.0 0.99920654296875 -1.35247802734375
3573071875.0 -0.00592041015625 -1.679931640625
3604293750.0 -1.024658203125 -1.33599853515625
3635515625.0 -1.62554931640625 -0.43951416015625
3666737500.0 -1.56011962890625 0.64324951171875
3697959375.0 -0.8253173828125 1.4722900390625
3729181250.0 0.26654052734375 1.6282958984375
3760403125.0 1.1510009765625 1.097412109375
3791625000.0 1.5496826171875 0.21929931640625
3822846875.0 1.40020751953125 -0.7578125
3854068750.0 0.621337890625 -1.478271484375
3885290625.0 -0.41973876953125 -1.4798583984375
3916512500.0 -1.1397705078125 -0.91082763671875
3947734375.0 -1.4454345703125 -0.1217041015625
3978956250.0 -1.29681396484375 0.77734375
4010178125.0 -0.5322265625 1.45147705078125
4041400000.0 0.470947265625 1.4134521484375
4072621875.0 1.14923095703125 0.84747314453125
4103843750.0 1.4423828125 0.064697265625
4135065625.0 1.26690673828125 -0.8441162109375
4166287500.0 0.45831298828125 -1.49407958984375
4197509375.0 -0.5550537109375 -1.41400146484375
4228731250.0 -1.2452392578125 -0.8031005859375
4259953125.0 -1.5068359375 0.06884765625
4291175000.0 -1.18798828125 1.00836181640625
4322396875.0 -0.2908935546875 1.52362060546875
4353618750.0 0.67169189453125 1.34918212890625
4384840625.0 1.3187255859375 0.697509765625
4416062500.0 1.49969482421875 -0.22613525390625
4447284375.0 1.05487060546875 -1.10150146484375
4478506250.0 0.17327880859375 -1.49359130859375
4509728125.0 -0.7308349609375 -1.30657958984375
4540950000.0 -1.39154052734375 -0.6361083984375
4572171875.0 -1.51995849609375 0.3572998046875
4603393750.0 -0.972412109375 1.21075439453125
4634615625.0 -0.0633544921875 1.53466796875
4665837500.0 0.86834716796875 1.30322265625
4697059375.0 1.53826904296875 0.51617431640625
4728281250.0 1.5274658203125 -0.5799560546875
4759503125.0 0.8231201171875 -1.36517333984375
4790725000.0 -0.14434814453125 -1.57098388671875
4821946875.0 -1.080810546875 -1.19354248046875
4853168750.0 -1.611328125 -0.25244140625
4884390625.0 -1.37701416015625 0.7904052734375
4915612500.0 -0.6146240234375 1.4091796875
4946834375.0 0.32696533203125 1.50799560546875
4978056250.0 1.2025146484375 1.01727294921875
5009278125.0 1.5601806640625 0.04083251953125
5040500000.0 1.22845458984375 -0.873779296875
5071721875.0 0.50201416015625 -1.41265869140625
5102943750.0 -0.44488525390625 -1.49542236328125
5134165625.0 -1.3331298828125 -0.9056396484375
5165387500.0 -1.5667724609375 0.14495849609375
5196609375.0 -1.1353759765625 1.007568359375
5227831250.0 -0.358154296875 1.50469970703125
5259053125.0 0.686279296875 1.49163818359375
5290275000.0 1.519775390625 0.662841796875
5321496875.0 1.49072265625 -0.42901611328125
5352718750.0 0.92083740234375 -1.1505126953125
5383940625.0 0.098388671875 -1.49847412109375
5415162500.0 -0.8980712890625 -1.28277587890625
5446384375.0 -1.48211669921875 -0.37152099609375
5477606250.0 -1.2987060546875 0.5648193359375
5508828125.0 -0.73175048828125 1.1497802734375
5540050000.0 0.052978515625 1.397216796875
5571271875.0 0.9376220703125 1.1083984375
5602493750.0 1.40643310546875 0.26104736328125
5633715625.0 1.2315673828125 -0.6116943359375
5664937500.0 0.6484375 -1.2001953125
5696159375.0 -0.1961669921875 -1.38299560546875
5727381250.0 -1.02044677734375 -0.9781494140625
5758603125.0 -1.38922119140625 -0.14642333984375
5789825000.0 -1.193115234375 0.71649169921875
5821046875.0 -0.5067138671875 1.3055419921875
5852268750.0 0.40960693359375 1.3115234375
5883490625.0 1.06964111328125 0.77191162109375
5914712500.0 1.30120849609375 0.0203857421875
5945934375.0 1.09564208984375 -0.7735595703125
5977156250.0 0.3623046875 -1.30987548828125
6008378125.0 -0.50921630859375 -1.1820068359375
6039600000.0 -1.0208740234375 -0.64898681640625
6070821875.0 -1.22320556640625 -0.00531005859375
6102043750.0 -1.08258056640625 0.76025390625
6133265625.0 -0.34259033203125 1.34368896484375
6164487500.0 0.56219482421875 1.18682861328125
6195709375.0 1.06964111328125 0.63055419921875
6226931250.0 1.27825927734375 -0.04132080078125
6258153125.0 1.10382080078125 -0.870361328125
6289375000.0 0.2567138671875 -1.44378662109375
6320596875.0 -0.6878662109375 -1.2054443359375
6351818750.0 -1.1986083984375 -0.57171630859375
6383040625.0 -1.3529052734375 0.205322265625
6414262500.0 -0.99945068359375 1.0562744140625
6445484375.0 -0.07855224609375 1.45556640625
6476706250.0 0.79388427734375 1.14727783203125
6507928125.0 1.2880859375 0.4708251953125
6539150000.0 1.34710693359375 -0.38623046875
6570371875.0 0.84136962890625 -1.141845703125
6601593750.0 -0.0169677734375 -1.40447998046875
6632815625.0 -0.8382568359375 -1.1361083984375
6664037500.0 -1.40081787109375 -0.4202880859375
6695259375.0 -1.37255859375 0.56475830078125
6726481250.0 -0.71014404296875 1.24957275390625
6757703125.0 0.130859375 1.40667724609375
6788925000.0 0.95361328125 1.13006591796875
6820146875.0 1.55865478515625 0.2882080078125
6851368750.0 1.32489013671875 -0.818603515625
6882590625.0 0.50628662109375 -1.3377685546875
6913812500.0 -0.2913818359375 -1.35546875
6945034375.0 -1.0682373046875 -1.021240234375
6976256250.0 -1.5902099609375 -0.09454345703125
7007478125.0 -1.2352294921875 0.9296875
7038700000.0 -0.40277099609375 1.34130859375
7069921875.0 0.3565673828125 1.3226318359375
7101143750.0 1.11578369140625 0.968994140625
7132365625.0 1.59686279296875 0.01611328125
7163587500.0 1.15667724609375 -1.01904296875
7194809375.0 0.3035888671875 -1.39447021484375
7226031250.0 -0.5093994140625 -1.325439453125
7257253125.0 -1.26422119140625 -0.8243408203125
7288475000.0 -1.5560302734375 0.19598388671875
7319696875.0 -1.0299072265625 1.10552978515625
7350918750.0 -0.16326904296875 1.44366455078125
7382140625.0 0.71502685546875 1.27545166015625
7413362500.0 1.37451171875 0.57659912109375
7444584375.0 1.41015625 -0.40509033203125
7475806250.0 0.85784912109375 -1.13861083984375
7507028125.0 0.0069580078125 -1.42724609375
7538250000.0 -0.88616943359375 -1.12249755859375
7569471875.0 -1.33489990234375 -0.31146240234375
7600693750.0 -1.20159912109375 0.49542236328125
7631915625.0 -0.71820068359375 1.08416748046875
7663137500.0 0.08001708984375 1.35760498046875
7694359375.0 0.938140869140625 0.98095703125
7725581250.0 1.2415771484375 0.1817626953125
7756803125.0 1.0823974609375 -0.4981689453125
7788025000.0 0.6702880859375 -1.0428466796875
7819246875.0 -0.11932373046875 -1.3460693359375
7850468750.0 -0.992401123046875 -0.916290283203125
7881690625.0 -1.22998046875 -0.10711669921875
7912912500.0 -1.0543212890625 0.552490234375
7944134375.0 -0.60601806640625 1.111083984375
7975356250.0 0.2694091796875 1.33282470703125
8006578125.0 1.04522705078125 0.77850341796875
8037800000.0 1.19354248046875 0.0159912109375
8069021875.0 1.00653076171875 -0.61541748046875
8100243750.0 0.5006103515625 -1.1585693359375
8131465625.0 -0.38763427734375 -1.25506591796875
8162687500.0 -1.03076171875 -0.6865234375
8193909375.0 -1.17974853515625 0.0074462890625
8225131250.0 -1.01788330078125 0.67529296875
8256353125.0 -0.421875 1.24774169921875
8287575000.0 0.49951171875 1.22528076171875
8318796875.0 1.0836181640625 0.6356201171875
8350018750.0 1.24407958984375 -0.0751953125
8381240625.0 1.031494140625 -0.8392333984375
8412462500.0 0.2547607421875 -1.3719482421875
8443684375.0 -0.668701171875 -1.169189453125
8474906250.0 -1.17291259765625 -0.53216552734375
8506128125.0 -1.2967529296875 0.23553466796875
8537350000.0 -0.9248046875 1.0439453125
8568571875.0 -0.01763916015625 1.39227294921875
8599793750.0 0.79901123046875 1.05364990234375
8631015625.0 1.239990234375 0.39837646484375
8662237500.0 1.285888671875 -0.4285888671875
8693459375.0 0.73675537109375 -1.1759033203125
8724681250.0 -0.16192626953125 -1.33056640625
8755903125.0 -0.8768310546875 -0.95928955078125
8787125000.0 -1.3016357421875 -0.28369140625
8818346875.0 -1.250732421875 0.6148681640625
8849568750.0 -0.557373046875 1.2603759765625
8880790625.0 0.29736328125 1.284423828125
8912012500.0 0.98016357421875 0.89239501953125
8943234375.0 1.3983154296875 0.12933349609375
8974456250.0 1.16717529296875 -0.83843994140625
9005678125.0 0.347412109375 -1.31182861328125
9036900000.0 -0.44696044921875 -1.22515869140625
9068121875.0 -1.10040283203125 -0.78546142578125
9099343750.0 -1.43927001953125 0.096435546875
9130565625.0 -0.9796142578125 1.0108642578125
9161787500.0 -0.1544189453125 1.2816162109375
9193009375.0 0.55462646484375 1.13311767578125
9224231250.0 1.17840576171875 0.6551513671875
9255453125.0 1.39862060546875 -0.29425048828125
9286675000.0 0.80877685546875 -1.0828857421875
9317896875.0 0.02679443359375 -1.24639892578125
9349118750.0 -0.6517333984375 -1.06982421875
9380340625.0 -1.255859375 -0.51116943359375
9411562500.0 -1.310302734375 0.4747314453125
9442784375.0 -0.6483154296875 1.11761474609375
9474006250.0 0.08795166015625 1.2108154296875
9505228125.0 0.76544189453125 0.980377197265625
9536450000.0 1.27264404296875 0.314208984375
9567671875.0 1.142822265625 -0.5787353515625
9598893750.0 0.5296630859375 -1.0670166015625
9630115625.0 -0.14324951171875 -1.1572265625
9661337500.0 -0.81781005859375 -0.902008056640625
9692559375.0 -1.2386474609375 -0.190673828125
9723781250.0 -1.0435791015625 0.60272216796875
9755003125.0 -0.48583984375 1.0504150390625
9786225000.0 0.197021484375 1.1590576171875
9817446875.0 0.893463134765625 0.827484130859375
9848668750.0 1.197509765625 0.07855224609375
9879890625.0 0.96820068359375 -0.6148681640625
9911112500.0 0.4530029296875 -1.0511474609375
9942334375.0 -0.26715087890625 -1.1585693359375
9973556250.0 -0.941986083984375 -0.73809814453125
10004778125.0 -1.14581298828125 -0.01678466796875
10036000000.0 -0.944122314453125 0.616119384765625
10067221875.0 -0.44134521484375 1.0968017578125
10098443750.0 0.37005615234375 1.1815185546875
10129665625.0 1.002197265625 0.643798828125
10160887500.0 1.1171875 -0.04949951171875
10192109375.0 0.91796875 -0.6627197265625
10223331250.0 0.36102294921875 -1.15234375
10254553125.0 -0.484619140625 -1.11297607421875
10285775000.0 -0.984405517578125 -0.5360107421875
10316996875.0 -1.06536865234375 0.07525634765625
10348218750.0 -0.9000244140625 0.66912841796875
10379440625.0 -0.32269287109375 1.1744384765625
10410662500.0 0.5267333984375 1.08544921875
10441884375.0 0.9918212890625 0.5216064453125
10473106250.0 1.10845947265625 -0.0828857421875
10504328125.0 0.948974609375 -0.756072998046875
10535550000.0 0.23980712890625 -1.294189453125
10566771875.0 -0.65716552734375 -1.07611083984375
10597993750.0 -1.080322265625 -0.458740234375
10629215625.0 -1.17510986328125 0.203125
10660437500.0 -0.887176513671875 0.9503173828125
10691659375.0 -0.00897216796875 1.33551025390625
10722881250.0 0.78485107421875 0.951324462890625
10754103125.0 1.1175537109375 0.32476806640625
10785325000.0 1.138671875 -0.3677978515625
10816546875.0 0.7008056640625 -1.04754638671875
10847768750.0 -0.14276123046875 -1.22735595703125
10878990625.0 -0.80206298828125 -0.84375
10910212500.0 -1.12164306640625 -0.24566650390625
10941434375.0 -1.09765625 0.47686767578125
10972656250.0 -0.56756591796875 1.0841064453125
11003878125.0 0.21728515625 1.1734619140625
11035100000.0 0.848052978515625 0.8216552734375
11066321875.0 1.22119140625 0.17315673828125
11097543750.0 1.097412109375 -0.674072265625
11128765625.0 0.38616943359375 -1.19818115234375
11159987500.0 -0.39544677734375 -1.1395263671875
11191209375.0 -0.998565673828125 -0.70361328125
11222431250.0 -1.27252197265625 0.09381103515625
11253653125.0 -0.8587646484375 0.893280029296875
11284875000.0 -0.11505126953125 1.1241455078125
11316096875.0 0.511260986328125 0.9569091796875
11347318750.0 1.0018310546875 0.50250244140625
11378540625.0 1.1156005859375 -0.26751708984375
11409762500.0 0.63470458984375 -0.858612060546875
11440984375.0 0.036407470703125 -0.97760009765625
11472206250.0 -0.480621337890625 -0.85028076171875
11503428125.0 -0.95318603515625 -0.4559326171875
11534650000.0 -1.068603515625 0.28704833984375
11565871875.0 -0.602294921875 0.852508544921875
11597093750.0 -0.018829345703125 0.99139404296875
11628315625.0 0.54248046875 0.87591552734375
11659537500.0 1.0604248046875 0.39300537109375
11690759375.0 1.06463623046875 -0.43341064453125
11721981250.0 0.516021728515625 -0.94158935546875
11753203125.0 -0.1064453125 -1.03643798828125
11784425000.0 -0.72418212890625 -0.809417724609375
11815646875.0 -1.099609375 -0.152587890625
11846868750.0 -0.89056396484375 0.55126953125
11878090625.0 -0.39080810546875 0.909576416015625
11909312500.0 0.1856689453125 0.984100341796875
11940534375.0 0.780364990234375 0.694976806640625
11971756250.0 1.0234375 0.04083251953125
12002978125.0 0.8060302734375 -0.537628173828125
12034200000.0 0.381927490234375 -0.888092041015625
12065421875.0 -0.21502685546875 -1.0098876953125
12096643750.0 -0.847503662109375 -0.66571044921875
12127865625.0 -1.03302001953125 0.01690673828125
12159087500.0 -0.814697265625 0.575439453125
12190309375.0 -0.377777099609375 0.974334716796875
12221531250.0 0.33905029296875 1.08819580078125
12252753125.0 0.980133056640625 0.580963134765625
12283975000.0 1.0535888671875 -0.12750244140625
12315196875.0 0.800048828125 -0.67535400390625
12346418750.0 0.28173828125 -1.0906982421875
12377640625.0 -0.5377197265625 -1.05908203125
12408862500.0 -1.033203125 -0.41949462890625
12440084375.0 -1.0078125 0.22314453125
12471306250.0 -0.7420654296875 0.736236572265625
12502528125.0 -0.180908203125 1.11865234375
12533750000.0 0.61798095703125 0.993438720703125
12564971875.0 1.04071044921875 0.36370849609375
12596193750.0 1.0294189453125 -0.26422119140625
12627415625.0 0.747955322265625 -0.830108642578125
12658637500.0 0.080078125 -1.20611572265625
12689859375.0 -0.73468017578125 -0.966339111328125
12721081250.0 -1.1170654296875 -0.30621337890625
12752303125.0 -1.09820556640625 0.3818359375
12783525000.0 -0.68707275390625 1.0289306640625
12814746875.0 0.16400146484375 1.25177001953125
12845968750.0 0.864044189453125 0.810577392578125
12877190625.0 1.11517333984375 0.17254638671875
12908412500.0 1.05584716796875 -0.5023193359375
12939634375.0 0.54205322265625 -1.11456298828125
12970856250.0 -0.319580078125 -1.1746826171875
13002078125.0 -0.894256591796875 -0.6939697265625
13033300000.0 -1.1044921875 -0.08734130859375
13064521875.0 -1.00946044921875 0.59417724609375
13095743750.0 -0.41986083984375 1.15386962890625
13126965625.0 0.40771484375 1.12005615234375
13158187500.0 0.946197509765625 0.6312255859375
13189409375.0 1.1495361328125 -0.02166748046875
13220631250.0 0.935791015625 -0.7476806640625
13251853125.0 0.234375 -1.17132568359375
13283075000.0 -0.50677490234375 -1.01934814453125
13314296875.0 -0.985870361328125 -0.529022216796875
13345518750.0 -1.13372802734375 0.17620849609375
13376740625.0 -0.7518310546875 0.856719970703125
