!Created with skrf (http://scikit-rf.org).
# Hz S RI R 50.0 
!freq ReS11 ImS11
45000000.0 -0.07666397094726562 -0.097259521484375
76221875.0 -0.19687652587890625 -0.0481719970703125
107443750.0 -0.2560577392578125 0.11956787109375
138665625.0 -0.1494293212890625 0.3289794921875
169887500.0 0.122711181640625 0.4190216064453125
201109375.0 0.422119140625 0.28289794921875
232331250.0 0.58056640625 -0.056243896484375
263553125.0 0.491851806640625 -0.452423095703125
294775000.0 0.100616455078125 -0.73406982421875
325996875.0 -0.414825439453125 -0.683868408203125
357218750.0 -0.8082275390625 -0.30035400390625
388440625.0 -0.889251708984375 0.299285888671875
419662500.0 -0.5211181640625 0.8673095703125
450884375.0 0.1707763671875 1.03240966796875
482106250.0 0.79876708984375 0.7169189453125
513328125.0 1.12237548828125 0.09027099609375
544550000.0 1.00799560546875 -0.67889404296875
575771875.0 0.34051513671875 -1.23956298828125
606993750.0 -0.5518798828125 -1.1817626953125
638215625.0 -1.1669921875 -0.5950927734375
669437500.0 -1.34381103515625 0.23095703125
700659375.0 -0.9759521484375 1.09613037109375
731881250.0 -0.00799560546875 1.5465087890625
763103125.0 1.00482177734375 1.1614990234375
794325000.0 1.471923828125 0.28656005859375
825546875.0 1.37261962890625 -0.6494140625
856768750.0 0.8001708984375 -1.402587890625
887990625.0 -0.28955078125 -1.65350341796875
919212500.0 -1.28912353515625 -1.08551025390625
950434375.0 -1.65380859375 -0.0631103515625
981656250.0 -1.38934326171875 0.94561767578125
1012878125.0 -0.53533935546875 1.6756591796875
1044100000.0 0.69488525390625 1.668701171875
1075321875.0 1.577880859375 0.818359375
1106543750.0 1.7113037109375 -0.309814453125
1137765625.0 1.1937255859375 -1.28497314453125
1168987500.0 0.14324951171875 -1.80242919921875
1200209375.0 -1.06158447265625 -1.49102783203125
1231431250.0 -1.7318115234375 -0.45867919921875
1262653125.0 -1.60028076171875 0.6829833984375
1293875000.0 -0.85760498046875 1.4932861328125
1325096875.0 0.2239990234375 1.71197509765625
1356318750.0 1.2357177734375 1.22332763671875
1387540625.0 1.7437744140625 0.19439697265625
1418762500.0 1.475830078125 -0.950439453125
1449984375.0 0.534912109375 -1.62872314453125
1481206250.0 -0.54718017578125 -1.56158447265625
1512428125.0 -1.34375 -0.9251708984375
1543650000.0 -1.6605224609375 0.0621337890625
1574871875.0 -1.2794189453125 1.109375
1606093750.0 -0.27777099609375 1.634521484375
1637315625.0 0.74114990234375 1.4058837890625
1668537500.0 1.398193359375 0.70068359375
1699759375.0 1.57806396484375 -0.274169921875
1730981250.0 1.06976318359375 -1.22955322265625
1762203125.0 0.046142578125 -1.57403564453125
1793425000.0 -0.85504150390625 -1.23150634765625
1824646875.0 -1.3958740234375 -0.51953125
1855868750.0 -1.47906494140625 0.43017578125
1887090625.0 -0.8804931640625 1.286376953125
1918312500.0 0.11431884765625 1.490966796875
1949534375.0 0.92144775390625 1.09405517578125
1980756250.0 1.37725830078125 0.37445068359375
2011978125.0 1.36395263671875 -0.5294189453125
2043200000.0 0.75482177734375 -1.26300048828125
2074421875.0 -0.15386962890625 -1.4368896484375
2105643750.0 -0.9599609375 -1.0772705078125
2136865625.0 -1.45013427734375 -0.30865478515625
2168087500.0 -1.36187744140625 0.6695556640625
2199309375.0 -0.643310546875 1.35308837890625
2230531250.0 0.27972412109375 1.44024658203125
2261753125.0 1.07373046875 1.01861572265625
2292975000.0 1.51776123046875 0.17376708984375
2324196875.0 1.3101806640625 -0.81719970703125
2355418750.0 0.52947998046875 -1.4217529296875
2386640625.0 -0.40228271484375 -1.45257568359375
2417862500.0 -1.1827392578125 -1.029052734375
2449084375.0 -1.60931396484375 -0.08673095703125
2480306250.0 -1.316162109375 0.9244384765625
2511528125.0 -0.498291015625 1.51123046875
2542750000.0 0.4857177734375 1.5408935546875
2573971875.0 1.37274169921875 0.97332763671875
2605193750.0 1.72235107421875 -0.10906982421875
2636415625.0 1.2672119140625 -1.1527099609375
2667637500.0 0.3111572265625 -1.67059326171875
2698859375.0 -0.7689208984375 -1.54058837890625
2730081250.0 -1.57696533203125 -0.74554443359375
2761303125.0 -1.6866455078125 0.386474609375
2792525000.0 -1.1048583984375 1.30914306640625
2823746875.0 -0.10589599609375 1.734619140625
2854968750.0 1.013427734375 1.4627685546875
2886190625.0 1.69580078125 0.496337890625
2917412500.0 1.60565185546875 -0.61614990234375
2948634375.0 0.945068359375 -1.43548583984375
2979856250.0 -0.10577392578125 -1.78265380859375
3011078125.0 -1.24932861328125 -1.34857177734375
3042300000.0 -1.77960205078125 -0.2388916015625
3073521875.0 -1.51409912109375 0.83746337890625
3104743750.0 -0.7691650390625 1.57110595703125
3135965625.0 0.35992431640625 1.81488037109375
3167187500.0 1.5010986328125 1.170166015625
3198409375.0 1.820556640625 -0.0721435546875
3229631250.0 1.354736328125 -1.08197021484375
3260853125.0 0.49346923828125 -1.6734619140625
3292075000.0 -0.6533203125 -1.7032470703125
3323296875.0 -1.6224365234375 -0.88568115234375
3354518750.0 -1.7366943359375 0.32733154296875
3385740625.0 -1.16131591796875 1.2335205078125
3416962500.0 -0.23565673828125 1.68475341796875
3448184375.0 0.85943603515625 1.52740478515625
3479406250.0 1.63970947265625 0.648681640625
3510628125.0 1.6490478515625 -0.49334716796875
3541850000.0 1.0048828125 -1.357421875
3573071875.0 -0.00433349609375 -1.686279296875
3604293750.0 -1.02789306640625 -1.3421630859375
3635515625.0 -1.6317138671875 -0.4417724609375
3666737500.0 -1.56689453125 0.6448974609375
3697959375.0 -0.82952880859375 1.4781494140625
3729181250.0 0.26605224609375 1.6353759765625
3760403125.0 1.1527099609375 1.10308837890625
3791625000.0 1.55682373046875 0.22137451171875
3822846875.0 1.40704345703125 -0.759521484375
3854068750.0 0.6246337890625 -1.48455810546875
3885290625.0 -0.41937255859375 -1.48529052734375
3916512500.0 -1.1439208984375 -0.91510009765625
3947734375.0 -1.4515380859375 -0.1224365234375
3978956250.0 -1.30255126953125 0.7791748046875
4010178125.0 -0.53472900390625 1.45855712890625
4041400000.0 0.4730224609375 1.41949462890625
4072621875.0 1.15283203125 0.85125732421875
4103843750.0 1.447998046875 0.06549072265625
4135065625.0 1.27203369140625 -0.84625244140625
4166287500.0 0.46044921875 -1.49932861328125
4197509375.0 -0.55682373046875 -1.4185791015625
4228731250.0 -1.249267578125 -0.80609130859375
4259953125.0 -1.512451171875 0.068115234375
4291175000.0 -1.19268798828125 1.0113525390625
4322396875.0 -0.29217529296875 1.53009033203125
4353618750.0 0.671630859375 1.35394287109375
4384840625.0 1.32470703125 0.70159912109375
4416062500.0 1.5052490234375 -0.2264404296875
4447284375.0 1.059814453125 -1.10516357421875
4478506250.0 0.1737060546875 -1.49932861328125
4509728125.0 -0.7337646484375 -1.31207275390625
4540950000.0 -1.39776611328125 -0.6390380859375
4572171875.0 -1.52606201171875 0.35870361328125
4603393750.0 -0.97576904296875 1.2132568359375
4634615625.0 -0.064208984375 1.5390625
4665837500.0 0.87078857421875 1.308837890625
4697059375.0 1.54498291015625 0.51837158203125
4728281250.0 1.53326416015625 -0.58233642578125
4759503125.0 0.82623291015625 -1.36956787109375
4790725000.0 -0.1429443359375 -1.57537841796875
4821946875.0 -1.0843505859375 -1.1982421875
4853168750.0 -1.61749267578125 -0.25262451171875
4884390625.0 -1.38189697265625 0.7918701171875
4915612500.0 -0.6162109375 1.4156494140625
4946834375.0 0.328125 1.513671875
4978056250.0 1.20697021484375 1.021728515625
5009278125.0 1.56610107421875 0.041259765625
5040500000.0 1.23358154296875 -0.876708984375
5071721875.0 0.504638671875 -1.416259765625
5102943750.0 -0.446044921875 -1.50140380859375
5134165625.0 -1.33880615234375 -0.90924072265625
5165387500.0 -1.57232666015625 0.1451416015625
5196609375.0 -1.1396484375 1.00970458984375
5227831250.0 -0.360107421875 1.50909423828125
5259053125.0 0.68890380859375 1.4971923828125
5290275000.0 1.5245361328125 0.66607666015625
5321496875.0 1.4962158203125 -0.43048095703125
5352718750.0 0.92401123046875 -1.15447998046875
5383940625.0 0.09857177734375 -1.50384521484375
5415162500.0 -0.90130615234375 -1.2879638671875
5446384375.0 -1.4876708984375 -0.37298583984375
5477606250.0 -1.30267333984375 0.5657958984375
5508828125.0 -0.73486328125 1.153076171875
5540050000.0 0.0521240234375 1.40228271484375
5571271875.0 0.94000244140625 1.11279296875
5602493750.0 1.41217041015625 0.261962890625
5633715625.0 1.23590087890625 -0.61297607421875
5664937500.0 0.65093994140625 -1.20367431640625
5696159375.0 -0.19580078125 -1.3868408203125
5727381250.0 -1.0235595703125 -0.98150634765625
5758603125.0 -1.395263671875 -0.146240234375
5789825000.0 -1.19805908203125 0.71942138671875
5821046875.0 -0.50830078125 1.3096923828125
5852268750.0 0.41180419921875 1.31640625
5883490625.0 1.0728759765625 0.7745361328125
5914712500.0 1.304931640625 0.02154541015625
5945934375.0 1.09979248046875 -0.77618408203125
5977156250.0 0.3631591796875 -1.3150634765625
6008378125.0 -0.5103759765625 -1.18536376953125
6039600000.0 -1.02337646484375 -0.6513671875
6070821875.0 -1.22705078125 -0.00579833984375
6102043750.0 -1.08721923828125 0.7640380859375
6133265625.0 -0.34393310546875 1.34747314453125
6164487500.0 0.56329345703125 1.19049072265625
6195709375.0 1.07257080078125 0.63232421875
6226931250.0 1.28253173828125 -0.0411376953125
6258153125.0 1.10870361328125 -0.87310791015625
6289375000.0 0.2569580078125 -1.4495849609375
6320596875.0 -0.6905517578125 -1.20880126953125
6351818750.0 -1.20281982421875 -0.5733642578125
6383040625.0 -1.35772705078125 0.2069091796875
6414262500.0 -1.00262451171875 1.05889892578125
6445484375.0 -0.078857421875 1.45941162109375
6476706250.0 0.79656982421875 1.1505126953125
6507928125.0 1.2930908203125 0.471923828125
6539150000.0 1.35089111328125 -0.38543701171875
6570371875.0 0.84417724609375 -1.14556884765625
6601593750.0 -0.01654052734375 -1.40802001953125
6632815625.0 -0.84014892578125 -1.13983154296875
6664037500.0 -1.40582275390625 -0.42193603515625
6695259375.0 -1.3779296875 0.5670166015625
6726481250.0 -0.71246337890625 1.25372314453125
6757703125.0 0.1297607421875 1.40966796875
6788925000.0 0.95660400390625 1.13372802734375
6820146875.0 1.5645751953125 0.28857421875
6851368750.0 1.32965087890625 -0.8211669921875
6882590625.0 0.5079345703125 -1.34149169921875
6913812500.0 -0.29254150390625 -1.35986328125
6945034375.0 -1.07244873046875 -1.02508544921875
6976256250.0 -1.5958251953125 -0.09490966796875
7007478125.0 -1.23944091796875 0.9354248046875
7038700000.0 -0.40350341796875 1.34698486328125
7069921875.0 0.3570556640625 1.327392578125
7101143750.0 1.1214599609375 0.970947265625
7132365625.0 1.60540771484375 0.01434326171875
7163587500.0 1.16156005859375 -1.02142333984375
7194809375.0 0.3037109375 -1.4007568359375
7226031250.0 -0.51141357421875 -1.32916259765625
7257253125.0 -1.27197265625 -0.82708740234375
7288475000.0 -1.56396484375 0.19976806640625
7319696875.0 -1.03314208984375 1.1126708984375
7350918750.0 -0.165771484375 1.4478759765625
7382140625.0 0.71722412109375 1.2806396484375
7413362500.0 1.38092041015625 0.5782470703125
7444584375.0 1.41650390625 -0.4078369140625
7475806250.0 0.86083984375 -1.1455078125
7507028125.0 0.00750732421875 -1.43194580078125
7538250000.0 -0.889892578125 -1.12799072265625
7569471875.0 -1.339599609375 -0.3123779296875
7600693750.0 -1.205810546875 0.4964599609375
7631915625.0 -0.7205810546875 1.086181640625
7663137500.0 0.08087158203125 1.36328125
7694359375.0 0.9429931640625 0.98553466796875
7725581250.0 1.24749755859375 0.18218994140625
7756803125.0 1.08697509765625 -0.50115966796875
7788025000.0 0.67376708984375 -1.04718017578125
7819246875.0 -0.12005615234375 -1.352783203125
7850468750.0 -0.995819091796875 -0.919342041015625
7881690625.0 -1.23553466796875 -0.10552978515625
7912912500.0 -1.05877685546875 0.55657958984375
7944134375.0 -0.60772705078125 1.115234375
7975356250.0 0.27239990234375 1.3392333984375
8006578125.0 1.049072265625 0.780517578125
8037800000.0 1.19635009765625 0.01702880859375
8069021875.0 1.01019287109375 -0.6197509765625
8100243750.0 0.50213623046875 -1.16400146484375
8131465625.0 -0.38909912109375 -1.2579345703125
8162687500.0 -1.033203125 -0.68865966796875
8193909375.0 -1.1837158203125 0.00750732421875
8225131250.0 -1.021728515625 0.68011474609375
8256353125.0 -0.42352294921875 1.252197265625
8287575000.0 0.50311279296875 1.23089599609375
8318796875.0 1.08575439453125 0.63800048828125
8350018750.0 1.2498779296875 -0.07489013671875
8381240625.0 1.03521728515625 -0.84185791015625
8412462500.0 0.25408935546875 -1.3775634765625
8443684375.0 -0.67156982421875 -1.17266845703125
8474906250.0 -1.1783447265625 -0.53375244140625
8506128125.0 -1.3018798828125 0.2386474609375
8537350000.0 -0.927001953125 1.04986572265625
8568571875.0 -0.01641845703125 1.39691162109375
8599793750.0 0.80303955078125 1.05670166015625
8631015625.0 1.2442626953125 0.400390625
8662237500.0 1.2901611328125 -0.42889404296875
8693459375.0 0.73870849609375 -1.18182373046875
8724681250.0 -0.1629638671875 -1.33685302734375
8755903125.0 -0.8829345703125 -0.96148681640625
8787125000.0 -1.3060302734375 -0.28558349609375
8818346875.0 -1.255615234375 0.6168212890625
8849568750.0 -0.55859375 1.2646484375
8880790625.0 0.299072265625 1.2899169921875
8912012500.0 0.983612060546875 0.896087646484375
8943234375.0 1.4049072265625 0.12786865234375
8974456250.0 1.1700439453125 -0.84405517578125
9005678125.0 0.349365234375 -1.3157958984375
9036900000.0 -0.44683837890625 -1.22833251953125
9068121875.0 -1.10516357421875 -0.7874755859375
9099343750.0 -1.4453125 0.09954833984375
9130565625.0 -0.98095703125 1.015869140625
9161787500.0 -0.15667724609375 1.28546142578125
9193009375.0 0.55792236328125 1.13690185546875
9224231250.0 1.18359375 0.6571044921875
9255453125.0 1.40447998046875 -0.29693603515625
9286675000.0 0.8099365234375 -1.08807373046875
9317896875.0 0.02783203125 -1.24945068359375
9349118750.0 -0.65673828125 -1.073974609375
9380340625.0 -1.26385498046875 -0.5120849609375
9411562500.0 -1.31634521484375 0.4788818359375
9442784375.0 -0.6485595703125 1.1204833984375
9474006250.0 0.0892333984375 1.2154541015625
9505228125.0 0.7674560546875 0.982330322265625
9536450000.0 1.27972412109375 0.31231689453125
9567671875.0 1.1474609375 -0.58294677734375
9598893750.0 0.53082275390625 -1.07208251953125
9630115625.0 -0.14556884765625 -1.16162109375
9661337500.0 -0.82025146484375 -0.904541015625
9692559375.0 -1.2427978515625 -0.189453125
9723781250.0 -1.0452880859375 0.60540771484375
9755003125.0 -0.48779296875 1.053466796875
9786225000.0 0.19970703125 1.16375732421875
9817446875.0 0.898223876953125 0.830657958984375
9848668750.0 1.201416015625 0.07855224609375
9879890625.0 0.9708251953125 -0.61749267578125
9911112500.0 0.45306396484375 -1.05621337890625
9942334375.0 -0.2698974609375 -1.163818359375
9973556250.0 -0.94769287109375 -0.739227294921875
10004778125.0 -1.1500244140625 -0.01702880859375
10036000000.0 -0.94635009765625 0.617431640625
10067221875.0 -0.443603515625 1.099853515625
10098443750.0 0.373046875 1.18450927734375
10129665625.0 1.00640869140625 0.6434326171875
10160887500.0 1.12335205078125 -0.05389404296875
10192109375.0 0.91900634765625 -0.66510009765625
10223331250.0 0.362060546875 -1.15460205078125
10254553125.0 -0.48858642578125 -1.11663818359375
10285775000.0 -0.98809814453125 -0.535980224609375
10316996875.0 -1.07037353515625 0.0771484375
10348218750.0 -0.901947021484375 0.671112060546875
10379440625.0 -0.322998046875 1.1788330078125
10410662500.0 0.53143310546875 1.08917236328125
10441884375.0 0.9949951171875 0.52288818359375
10473106250.0 1.11322021484375 -0.08526611328125
10504328125.0 0.95294189453125 -0.760223388671875
10535550000.0 0.23834228515625 -1.29901123046875
10566771875.0 -0.659912109375 -1.07855224609375
10597993750.0 -1.08502197265625 -0.45867919921875
10629215625.0 -1.1781005859375 0.20599365234375
10660437500.0 -0.8905029296875 0.956817626953125
10691659375.0 -0.0076904296875 1.339599609375
10722881250.0 0.788330078125 0.954071044921875
10754103125.0 1.12255859375 0.3258056640625
10785325000.0 1.1427001953125 -0.36871337890625
10816546875.0 0.70208740234375 -1.05499267578125
10847768750.0 -0.1466064453125 -1.232177734375
10878990625.0 -0.804229736328125 -0.845428466796875
10910212500.0 -1.1258544921875 -0.24566650390625
10941434375.0 -1.10137939453125 0.47906494140625
10972656250.0 -0.56915283203125 1.08843994140625
11003878125.0 0.2176513671875 1.17645263671875
11035100000.0 0.851226806640625 0.824859619140625
11066321875.0 1.22515869140625 0.17431640625
11097543750.0 1.10125732421875 -0.6766357421875
11128765625.0 0.3857421875 -1.202880859375
11159987500.0 -0.39654541015625 -1.14111328125
11191209375.0 -1.004150390625 -0.70391845703125
11222431250.0 -1.27734375 0.09619140625
11253653125.0 -0.85955810546875 0.89752197265625
11284875000.0 -0.11383056640625 1.12945556640625
11316096875.0 0.51397705078125 0.959014892578125
11347318750.0 1.0059814453125 0.5035400390625
11378540625.0 1.11859130859375 -0.27130126953125
11409762500.0 0.635833740234375 -0.86090087890625
11440984375.0 0.03558349609375 -0.981231689453125
11472206250.0 -0.48272705078125 -0.85321044921875
11503428125.0 -0.95660400390625 -0.45709228515625
11534650000.0 -1.07281494140625 0.29254150390625
11565871875.0 -0.602935791015625 0.8570556640625
11597093750.0 -0.0185546875 0.994964599609375
11628315625.0 0.54571533203125 0.87811279296875
11659537500.0 1.06512451171875 0.3919677734375
11690759375.0 1.06695556640625 -0.4361572265625
11721981250.0 0.518341064453125 -0.942840576171875
11753203125.0 -0.10662841796875 -1.03875732421875
11784425000.0 -0.7266845703125 -0.8114013671875
11815646875.0 -1.103271484375 -0.15081787109375
11846868750.0 -0.893157958984375 0.553924560546875
11878090625.0 -0.39117431640625 0.911376953125
11909312500.0 0.18890380859375 0.987884521484375
11940534375.0 0.785125732421875 0.6962890625
11971756250.0 1.028564453125 0.03741455078125
12002978125.0 0.808868408203125 -0.541351318359375
12034200000.0 0.38232421875 -0.89239501953125
12065421875.0 -0.21630859375 -1.01239013671875
12096643750.0 -0.851776123046875 -0.665771484375
12127865625.0 -1.03668212890625 0.0185546875
12159087500.0 -0.816619873046875 0.5777587890625
12190309375.0 -0.378265380859375 0.978118896484375
12221531250.0 0.3424072265625 1.09136962890625
12252753125.0 0.984344482421875 0.581207275390625
12283975000.0 1.05706787109375 -0.12890625
12315196875.0 0.80194091796875 -0.681182861328125
12346418750.0 0.281494140625 -1.0947265625
12377640625.0 -0.5418701171875 -1.06378173828125
12408862500.0 -1.037109375 -0.41839599609375
12440084375.0 -1.0111083984375 0.2252197265625
12471306250.0 -0.743743896484375 0.739501953125
12502528125.0 -0.179931640625 1.12384033203125
12533750000.0 0.62298583984375 0.995697021484375
12564971875.0 1.04376220703125 0.364501953125
12596193750.0 1.03204345703125 -0.26531982421875
12627415625.0 0.750457763671875 -0.832244873046875
12658637500.0 0.07818603515625 -1.21142578125
12689859375.0 -0.740814208984375 -0.96844482421875
12721081250.0 -1.12152099609375 -0.3043212890625
12752303125.0 -1.10107421875 0.3857421875
12783525000.0 -0.68743896484375 1.0338134765625
12814746875.0 0.16693115234375 1.2540283203125
12845968750.0 0.866363525390625 0.81170654296875
12877190625.0 1.12109375 0.17095947265625
12908412500.0 1.05841064453125 -0.5045166015625
12939634375.0 0.54217529296875 -1.121337890625
12970856250.0 -0.322021484375 -1.17608642578125
13002078125.0 -0.8973388671875 -0.694427490234375
13033300000.0 -1.110107421875 -0.0853271484375
13064521875.0 -1.010986328125 0.59649658203125
13095743750.0 -0.41851806640625 1.161376953125
13126965625.0 0.41131591796875 1.12249755859375
13158187500.0 0.95001220703125 0.632843017578125
13189409375.0 1.1522216796875 -0.0220947265625
13220631250.0 0.937896728515625 -0.751861572265625
13251853125.0 0.23284912109375 -1.1754150390625
13283075000.0 -0.5106201171875 -1.0223388671875
13314296875.0 -0.991485595703125 -0.529083251953125
13345518750.0 -1.1383056640625 0.1795654296875
