!Created with skrf (http://scikit-rf.org).
# Hz S RI R 50.0 
!freq ReS11 ImS11
45000000.0 -0.07660293579101562 -0.09725570678710938
76221875.0 -0.1969146728515625 -0.04819488525390625
107443750.0 -0.25616455078125 0.1194000244140625
138665625.0 -0.14935302734375 0.329254150390625
169887500.0 0.1225738525390625 0.4190521240234375
201109375.0 0.422149658203125 0.28314208984375
232331250.0 0.580902099609375 -0.0556640625
263553125.0 0.49249267578125 -0.4528961181640625
294775000.0 0.10101318359375 -0.734527587890625
325996875.0 -0.414764404296875 -0.684356689453125
357218750.0 -0.808624267578125 -0.30072021484375
388440625.0 -0.889862060546875 0.29937744140625
419662500.0 -0.52178955078125 0.867706298828125
450884375.0 0.17041015625 1.032958984375
482106250.0 0.798858642578125 0.717681884765625
513328125.0 1.12286376953125 0.09075927734375
544550000.0 1.0086669921875 -0.67877197265625
575771875.0 0.34100341796875 -1.2406005859375
606993750.0 -0.55126953125 -1.18243408203125
638215625.0 -1.16748046875 -0.59588623046875
669437500.0 -1.34429931640625 0.230224609375
700659375.0 -0.9766845703125 1.09637451171875
731881250.0 -0.00897216796875 1.547119140625
763103125.0 1.00457763671875 1.16265869140625
794325000.0 1.4725341796875 0.2872314453125
825546875.0 1.37371826171875 -0.6494140625
856768750.0 0.801025390625 -1.40283203125
887990625.0 -0.28875732421875 -1.654296875
919212500.0 -1.28948974609375 -1.08660888671875
950434375.0 -1.65509033203125 -0.0638427734375
981656250.0 -1.39056396484375 0.94580078125
1012878125.0 -0.53631591796875 1.67694091796875
1044100000.0 0.6953125 1.6702880859375
1075321875.0 1.57867431640625 0.8197021484375
1106543750.0 1.71234130859375 -0.30926513671875
1137765625.0 1.1949462890625 -1.28546142578125
1168987500.0 0.144287109375 -1.8031005859375
1200209375.0 -1.0616455078125 -1.492431640625
1231431250.0 -1.7327880859375 -0.45941162109375
1262653125.0 -1.6014404296875 0.68292236328125
1293875000.0 -0.85919189453125 1.49371337890625
1325096875.0 0.22308349609375 1.71319580078125
1356318750.0 1.23565673828125 1.2249755859375
1387540625.0 1.74554443359375 0.1947021484375
1418762500.0 1.4771728515625 -0.9503173828125
1449984375.0 0.53607177734375 -1.629638671875
1481206250.0 -0.54705810546875 -1.5628662109375
1512428125.0 -1.34375 -0.92596435546875
1543650000.0 -1.6612548828125 0.0611572265625
1574871875.0 -1.280517578125 1.10882568359375
1606093750.0 -0.27825927734375 1.6357421875
1637315625.0 0.74078369140625 1.4068603515625
1668537500.0 1.398681640625 0.70135498046875
1699759375.0 1.57879638671875 -0.27374267578125
1730981250.0 1.07073974609375 -1.22991943359375
1762203125.0 0.046875 -1.57489013671875
1793425000.0 -0.85504150390625 -1.232421875
1824646875.0 -1.39605712890625 -0.52056884765625
1855868750.0 -1.47979736328125 0.42913818359375
1887090625.0 -0.8814697265625 1.286865234375
1918312500.0 0.1136474609375 1.491943359375
1949534375.0 0.92144775390625 1.0950927734375
1980756250.0 1.37860107421875 0.37469482421875
2011978125.0 1.3653564453125 -0.52960205078125
2043200000.0 0.75579833984375 -1.262939453125
2074421875.0 -0.15374755859375 -1.43817138671875
2105643750.0 -0.96044921875 -1.07806396484375
2136865625.0 -1.45098876953125 -0.30902099609375
2168087500.0 -1.36248779296875 0.66937255859375
2199309375.0 -0.64434814453125 1.35382080078125
2230531250.0 0.2794189453125 1.44110107421875
2261753125.0 1.07354736328125 1.019287109375
2292975000.0 1.5181884765625 0.1744384765625
2324196875.0 1.3114013671875 -0.81732177734375
2355418750.0 0.53033447265625 -1.42218017578125
2386640625.0 -0.40185546875 -1.4539794921875
2417862500.0 -1.1829833984375 -1.0303955078125
2449084375.0 -1.60986328125 -0.08746337890625
2480306250.0 -1.31781005859375 0.92578125
2511528125.0 -0.498779296875 1.51123046875
2542750000.0 0.48699951171875 1.543212890625
2573971875.0 1.3753662109375 0.9742431640625
2605193750.0 1.72332763671875 -0.10845947265625
2636415625.0 1.26812744140625 -1.15240478515625
2667637500.0 0.31146240234375 -1.67193603515625
2698859375.0 -0.77001953125 -1.54193115234375
2730081250.0 -1.5777587890625 -0.74664306640625
2761303125.0 -1.688232421875 0.38555908203125
2792525000.0 -1.10601806640625 1.3084716796875
2823746875.0 -0.10601806640625 1.73583984375
2854968750.0 1.0137939453125 1.46319580078125
2886190625.0 1.69659423828125 0.49713134765625
2917412500.0 1.6070556640625 -0.615966796875
2948634375.0 0.94622802734375 -1.4373779296875
2979856250.0 -0.105224609375 -1.7823486328125
3011078125.0 -1.24871826171875 -1.349365234375
3042300000.0 -1.78192138671875 -0.23797607421875
3073521875.0 -1.51519775390625 0.83770751953125
3104743750.0 -0.7689208984375 1.57196044921875
3135965625.0 0.35845947265625 1.81549072265625
3167187500.0 1.50225830078125 1.17138671875
3198409375.0 1.822021484375 -0.071533203125
3229631250.0 1.356201171875 -1.08197021484375
3260853125.0 0.49493408203125 -1.6728515625
3292075000.0 -0.65289306640625 -1.70501708984375
3323296875.0 -1.62445068359375 -0.88580322265625
3354518750.0 -1.73699951171875 0.32623291015625
3385740625.0 -1.16192626953125 1.23321533203125
3416962500.0 -0.2362060546875 1.68634033203125
3448184375.0 0.86016845703125 1.52874755859375
3479406250.0 1.64166259765625 0.64892578125
3510628125.0 1.65032958984375 -0.49365234375
3541850000.0 1.00604248046875 -1.35833740234375
3573071875.0 -0.00494384765625 -1.68731689453125
3604293750.0 -1.02880859375 -1.34368896484375
3635515625.0 -1.63165283203125 -0.44287109375
3666737500.0 -1.568359375 0.64605712890625
3697959375.0 -0.82989501953125 1.4793701171875
3729181250.0 0.266845703125 1.63641357421875
3760403125.0 1.1549072265625 1.10333251953125
3791625000.0 1.5562744140625 0.22271728515625
3822846875.0 1.40802001953125 -0.7596435546875
3854068750.0 0.62548828125 -1.48529052734375
3885290625.0 -0.41973876953125 -1.4864501953125
3916512500.0 -1.14404296875 -0.91607666015625
3947734375.0 -1.45263671875 -0.1221923828125
3978956250.0 -1.30316162109375 0.77960205078125
4010178125.0 -0.5350341796875 1.45892333984375
4041400000.0 0.4737548828125 1.42047119140625
4072621875.0 1.15399169921875 0.8514404296875
4103843750.0 1.44903564453125 0.0657958984375
4135065625.0 1.273193359375 -0.84735107421875
4166287500.0 0.4613037109375 -1.50042724609375
4197509375.0 -0.557373046875 -1.4195556640625
4228731250.0 -1.25048828125 -0.80670166015625
4259953125.0 -1.51190185546875 0.06671142578125
4291175000.0 -1.19354248046875 1.010986328125
4322396875.0 -0.29290771484375 1.530517578125
4353618750.0 0.67315673828125 1.35491943359375
4384840625.0 1.32489013671875 0.7017822265625
4416062500.0 1.50567626953125 -0.2257080078125
4447284375.0 1.059814453125 -1.1063232421875
4478506250.0 0.17547607421875 -1.49932861328125
4509728125.0 -0.73406982421875 -1.3131103515625
4540950000.0 -1.3975830078125 -0.63922119140625
4572171875.0 -1.52728271484375 0.35919189453125
4603393750.0 -0.97686767578125 1.215087890625
4634615625.0 -0.06341552734375 1.5408935546875
4665837500.0 0.87042236328125 1.3094482421875
4697059375.0 1.5457763671875 0.51806640625
4728281250.0 1.53411865234375 -0.5821533203125
4759503125.0 0.82733154296875 -1.36968994140625
4790725000.0 -0.1441650390625 -1.577392578125
4821946875.0 -1.08599853515625 -1.19879150390625
4853168750.0 -1.61712646484375 -0.254638671875
4884390625.0 -1.383544921875 0.79364013671875
4915612500.0 -0.6168212890625 1.41510009765625
4946834375.0 0.3282470703125 1.51416015625
4978056250.0 1.2086181640625 1.02215576171875
5009278125.0 1.5665283203125 0.0416259765625
5040500000.0 1.2340087890625 -0.87677001953125
5071721875.0 0.5052490234375 -1.41796875
5102943750.0 -0.4466552734375 -1.5020751953125
5134165625.0 -1.33905029296875 -0.9091796875
5165387500.0 -1.5731201171875 0.1458740234375
5196609375.0 -1.1407470703125 1.01202392578125
5227831250.0 -0.360107421875 1.5113525390625
5259053125.0 0.6895751953125 1.49737548828125
5290275000.0 1.52655029296875 0.6656494140625
5321496875.0 1.4967041015625 -0.43035888671875
5352718750.0 0.92462158203125 -1.15533447265625
5383940625.0 0.09881591796875 -1.50439453125
5415162500.0 -0.90130615234375 -1.28857421875
5446384375.0 -1.48834228515625 -0.3734130859375
5477606250.0 -1.30377197265625 0.56634521484375
5508828125.0 -0.735107421875 1.15313720703125
5540050000.0 0.05242919921875 1.40350341796875
5571271875.0 0.940185546875 1.11322021484375
5602493750.0 1.41326904296875 0.26177978515625
5633715625.0 1.2373046875 -0.614013671875
5664937500.0 0.65106201171875 -1.205078125
5696159375.0 -0.19677734375 -1.38818359375
5727381250.0 -1.02447509765625 -0.9820556640625
5758603125.0 -1.39520263671875 -0.147216796875
5789825000.0 -1.19830322265625 0.71905517578125
5821046875.0 -0.50872802734375 1.31024169921875
5852268750.0 0.4119873046875 1.317626953125
5883490625.0 1.07403564453125 0.77471923828125
5914712500.0 1.30670166015625 0.02099609375
5945934375.0 1.10015869140625 -0.77703857421875
5977156250.0 0.36285400390625 -1.31610107421875
6008378125.0 -0.50982666015625 -1.185546875
6039600000.0 -1.0242919921875 -0.651611328125
6070821875.0 -1.2281494140625 -0.00494384765625
6102043750.0 -1.08734130859375 0.7640380859375
6133265625.0 -0.34344482421875 1.348876953125
6164487500.0 0.56488037109375 1.1912841796875
6195709375.0 1.07366943359375 0.63232421875
6226931250.0 1.284423828125 -0.04229736328125
6258153125.0 1.109130859375 -0.873779296875
6289375000.0 0.2569580078125 -1.45062255859375
6320596875.0 -0.69146728515625 -1.2091064453125
6351818750.0 -1.2034912109375 -0.57379150390625
6383040625.0 -1.3592529296875 0.2071533203125
6414262500.0 -1.0030517578125 1.0604248046875
6445484375.0 -0.07818603515625 1.46173095703125
6476706250.0 0.7974853515625 1.15130615234375
6507928125.0 1.29345703125 0.47186279296875
6539150000.0 1.3509521484375 -0.3861083984375
6570371875.0 0.84454345703125 -1.14569091796875
6601593750.0 -0.01593017578125 -1.40863037109375
6632815625.0 -0.841064453125 -1.140380859375
6664037500.0 -1.4063720703125 -0.42138671875
6695259375.0 -1.37823486328125 0.56829833984375
6726481250.0 -0.712646484375 1.25408935546875
6757703125.0 0.13037109375 1.4112548828125
6788925000.0 0.95697021484375 1.1343994140625
6820146875.0 1.56524658203125 0.28851318359375
6851368750.0 1.32958984375 -0.8211669921875
6882590625.0 0.50823974609375 -1.3416748046875
6913812500.0 -0.29241943359375 -1.36016845703125
6945034375.0 -1.0732421875 -1.02508544921875
6976256250.0 -1.59735107421875 -0.0931396484375
7007478125.0 -1.24090576171875 0.93463134765625
7038700000.0 -0.4058837890625 1.34564208984375
7069921875.0 0.36004638671875 1.328857421875
7101143750.0 1.12261962890625 0.97320556640625
7132365625.0 1.60504150390625 0.01611328125
7163587500.0 1.16143798828125 -1.02447509765625
7194809375.0 0.30389404296875 -1.402587890625
7226031250.0 -0.5130615234375 -1.3316650390625
7257253125.0 -1.275146484375 -0.8277587890625
7288475000.0 -1.5635986328125 0.19927978515625
7319696875.0 -1.0335693359375 1.11395263671875
7350918750.0 -0.1663818359375 1.45001220703125
7382140625.0 0.71881103515625 1.28125
7413362500.0 1.38177490234375 0.57904052734375
7444584375.0 1.41583251953125 -0.4078369140625
7475806250.0 0.86181640625 -1.145751953125
7507028125.0 0.00384521484375 -1.43707275390625
7538250000.0 -0.89056396484375 -1.12738037109375
7569471875.0 -1.341552734375 -0.31109619140625
7600693750.0 -1.20635986328125 0.49932861328125
7631915625.0 -0.72119140625 1.08819580078125
7663137500.0 0.080078125 1.36395263671875
7694359375.0 0.945556640625 0.985504150390625
7725581250.0 1.24847412109375 0.181884765625
7756803125.0 1.08770751953125 -0.5006103515625
7788025000.0 0.673095703125 -1.04827880859375
7819246875.0 -0.12139892578125 -1.3524169921875
7850468750.0 -0.99676513671875 -0.91949462890625
7881690625.0 -1.2362060546875 -0.1055908203125
7912912500.0 -1.058837890625 0.55615234375
7944134375.0 -0.6065673828125 1.11956787109375
7975356250.0 0.2735595703125 1.340087890625
8006578125.0 1.04949951171875 0.7802734375
8037800000.0 1.19537353515625 0.01812744140625
8069021875.0 1.01068115234375 -0.61920166015625
8100243750.0 0.50201416015625 -1.1668701171875
8131465625.0 -0.38946533203125 -1.25872802734375
8162687500.0 -1.03533935546875 -0.6881103515625
8193909375.0 -1.18389892578125 0.0078125
8225131250.0 -1.0225830078125 0.68194580078125
8256353125.0 -0.4228515625 1.2523193359375
8287575000.0 0.50335693359375 1.23077392578125
8318796875.0 1.08612060546875 0.63775634765625
8350018750.0 1.2491455078125 -0.0758056640625
8381240625.0 1.0350341796875 -0.84368896484375
8412462500.0 0.255126953125 -1.376953125
8443684375.0 -0.67291259765625 -1.17364501953125
8474906250.0 -1.17919921875 -0.53375244140625
8506128125.0 -1.3023681640625 0.2366943359375
8537350000.0 -0.92730712890625 1.0499267578125
8568571875.0 -0.0142822265625 1.3997802734375
8599793750.0 0.805908203125 1.0567626953125
8631015625.0 1.24725341796875 0.39874267578125
8662237500.0 1.28936767578125 -0.43096923828125
8693459375.0 0.73876953125 -1.1824951171875
8724681250.0 -0.16357421875 -1.3358154296875
8755903125.0 -0.882476806640625 -0.96087646484375
8787125000.0 -1.30853271484375 -0.2830810546875
8818346875.0 -1.2564697265625 0.61871337890625
8849568750.0 -0.55609130859375 1.26739501953125
8880790625.0 0.30035400390625 1.28912353515625
8912012500.0 0.987213134765625 0.895965576171875
8943234375.0 1.40594482421875 0.12969970703125
8974456250.0 1.1705322265625 -0.845703125
9005678125.0 0.3487548828125 -1.31768798828125
9036900000.0 -0.4482421875 -1.22882080078125
9068121875.0 -1.1072998046875 -0.78826904296875
9099343750.0 -1.44598388671875 0.09918212890625
9130565625.0 -0.98199462890625 1.014892578125
9161787500.0 -0.15350341796875 1.28729248046875
9193009375.0 0.556396484375 1.137451171875
9224231250.0 1.18487548828125 0.65716552734375
9255453125.0 1.40509033203125 -0.298583984375
9286675000.0 0.80963134765625 -1.08837890625
9317896875.0 0.0263671875 -1.2509765625
9349118750.0 -0.65814208984375 -1.07421875
9380340625.0 -1.2637939453125 -0.510986328125
9411562500.0 -1.31732177734375 0.480712890625
9442784375.0 -0.6495361328125 1.12188720703125
9474006250.0 0.09100341796875 1.21624755859375
9505228125.0 0.769012451171875 0.983642578125
9536450000.0 1.2806396484375 0.312255859375
9567671875.0 1.1473388671875 -0.58343505859375
9598893750.0 0.53155517578125 -1.072021484375
9630115625.0 -0.14593505859375 -1.1622314453125
9661337500.0 -0.8228759765625 -0.904510498046875
9692559375.0 -1.24371337890625 -0.1890869140625
9723781250.0 -1.0457763671875 0.60748291015625
9755003125.0 -0.4876708984375 1.0528564453125
9786225000.0 0.199462890625 1.16290283203125
9817446875.0 0.90069580078125 0.82989501953125
9848668750.0 1.20196533203125 0.0775146484375
9879890625.0 0.9713134765625 -0.620452880859375
9911112500.0 0.4534912109375 -1.05517578125
9942334375.0 -0.2705078125 -1.16436767578125
9973556250.0 -0.948272705078125 -0.739898681640625
10004778125.0 -1.1507568359375 -0.0162353515625
10036000000.0 -0.946807861328125 0.619232177734375
10067221875.0 -0.44268798828125 1.10211181640625
10098443750.0 0.37445068359375 1.18450927734375
10129665625.0 1.007568359375 0.6429443359375
10160887500.0 1.12371826171875 -0.05389404296875
10192109375.0 0.919830322265625 -0.666107177734375
10223331250.0 0.3602294921875 -1.15582275390625
10254553125.0 -0.489501953125 -1.1162109375
10285775000.0 -0.9903564453125 -0.53472900390625
10316996875.0 -1.07159423828125 0.0789794921875
10348218750.0 -0.902862548828125 0.672576904296875
10379440625.0 -0.323486328125 1.17938232421875
10410662500.0 0.53057861328125 1.08843994140625
10441884375.0 0.99566650390625 0.523101806640625
10473106250.0 1.1129150390625 -0.08489990234375
10504328125.0 0.952545166015625 -0.762176513671875
10535550000.0 0.23883056640625 -1.30029296875
10566771875.0 -0.6622314453125 -1.07891845703125
10597993750.0 -1.0858154296875 -0.4588623046875
10629215625.0 -1.17926025390625 0.2066650390625
10660437500.0 -0.88983154296875 0.956634521484375
10691659375.0 -0.007080078125 1.3406982421875
10722881250.0 0.787322998046875 0.954193115234375
10754103125.0 1.1253662109375 0.32440185546875
10785325000.0 1.14404296875 -0.37030029296875
10816546875.0 0.7020263671875 -1.0540771484375
10847768750.0 -0.14874267578125 -1.23358154296875
10878990625.0 -0.806365966796875 -0.844879150390625
10910212500.0 -1.1265869140625 -0.2452392578125
10941434375.0 -1.10101318359375 0.47943115234375
10972656250.0 -0.568359375 1.0899658203125
11003878125.0 0.21942138671875 1.1773681640625
11035100000.0 0.851715087890625 0.82452392578125
11066321875.0 1.22613525390625 0.174560546875
11097543750.0 1.1016845703125 -0.67987060546875
11128765625.0 0.38580322265625 -1.204345703125
11159987500.0 -0.3978271484375 -1.14276123046875
11191209375.0 -1.00604248046875 -0.704345703125
11222431250.0 -1.27685546875 0.09576416015625
11253653125.0 -0.86065673828125 0.898529052734375
11284875000.0 -0.1142578125 1.13116455078125
11316096875.0 0.51422119140625 0.95880126953125
11347318750.0 1.0081787109375 0.502197265625
11378540625.0 1.120849609375 -0.2720947265625
11409762500.0 0.635284423828125 -0.86334228515625
11440984375.0 0.03338623046875 -0.982757568359375
11472206250.0 -0.483154296875 -0.853546142578125
11503428125.0 -0.957550048828125 -0.45745849609375
11534650000.0 -1.072265625 0.29095458984375
11565871875.0 -0.6025390625 0.85906982421875
11597093750.0 -0.016357421875 0.996124267578125
11628315625.0 0.546295166015625 0.8780517578125
11659537500.0 1.0654296875 0.3914794921875
11690759375.0 1.06756591796875 -0.43585205078125
11721981250.0 0.517181396484375 -0.944976806640625
11753203125.0 -0.108154296875 -1.04119873046875
11784425000.0 -0.728240966796875 -0.8109130859375
11815646875.0 -1.10638427734375 -0.1490478515625
11846868750.0 -0.892608642578125 0.55548095703125
11878090625.0 -0.39111328125 0.913299560546875
11909312500.0 0.188873291015625 0.988037109375
11940534375.0 0.783905029296875 0.6971435546875
11971756250.0 1.02825927734375 0.037353515625
12002978125.0 0.807830810546875 -0.540924072265625
12034200000.0 0.381744384765625 -0.892181396484375
12065421875.0 -0.21954345703125 -1.013671875
12096643750.0 -0.851776123046875 -0.66522216796875
12127865625.0 -1.03619384765625 0.01837158203125
12159087500.0 -0.81658935546875 0.577239990234375
12190309375.0 -0.377105712890625 0.980987548828125
12221531250.0 0.34246826171875 1.09222412109375
12252753125.0 0.986236572265625 0.5810546875
12283975000.0 1.05767822265625 -0.1304931640625
12315196875.0 0.802886962890625 -0.679443359375
12346418750.0 0.28045654296875 -1.09588623046875
12377640625.0 -0.54376220703125 -1.06329345703125
12408862500.0 -1.03826904296875 -0.418701171875
12440084375.0 -1.01055908203125 0.2257080078125
12471306250.0 -0.7430419921875 0.741455078125
12502528125.0 -0.17852783203125 1.12567138671875
12533750000.0 0.6253662109375 0.995941162109375
12564971875.0 1.04669189453125 0.3623046875
12596193750.0 1.03350830078125 -0.26641845703125
12627415625.0 0.749755859375 -0.833465576171875
12658637500.0 0.0780029296875 -1.21246337890625
12689859375.0 -0.73834228515625 -0.9677734375
12721081250.0 -1.1204833984375 -0.30517578125
12752303125.0 -1.10198974609375 0.38671875
12783525000.0 -0.6873779296875 1.03375244140625
12814746875.0 0.1680908203125 1.25482177734375
12845968750.0 0.86676025390625 0.812713623046875
12877190625.0 1.1239013671875 0.16973876953125
12908412500.0 1.05963134765625 -0.50555419921875
12939634375.0 0.54302978515625 -1.12432861328125
12970856250.0 -0.32635498046875 -1.17840576171875
13002078125.0 -0.89910888671875 -0.693084716796875
13033300000.0 -1.11090087890625 -0.08441162109375
13064521875.0 -1.01165771484375 0.59796142578125
13095743750.0 -0.41778564453125 1.163330078125
13126965625.0 0.41363525390625 1.122802734375
13158187500.0 0.949798583984375 0.632476806640625
13189409375.0 1.15386962890625 -0.02471923828125
13220631250.0 0.93865966796875 -0.755584716796875
13251853125.0 0.23095703125 -1.17877197265625
13283075000.0 -0.511962890625 -1.02264404296875
13314296875.0 -0.99407958984375 -0.528656005859375
