!Created with skrf (http://scikit-rf.org).
# Hz S RI R 50.0 
!freq ReS11 ImS11
45000000.0 -0.07691192626953125 -0.09705352783203125
76221875.0 -0.196258544921875 -0.04764556884765625
107443750.0 -0.254730224609375 0.1195220947265625
138665625.0 -0.1482086181640625 0.3282318115234375
169887500.0 0.1233367919921875 0.4171905517578125
201109375.0 0.42138671875 0.2809295654296875
232331250.0 0.578521728515625 -0.057342529296875
263553125.0 0.48944091796875 -0.452056884765625
294775000.0 0.09869384765625 -0.73175048828125
325996875.0 -0.414764404296875 -0.680145263671875
357218750.0 -0.8052978515625 -0.297332763671875
388440625.0 -0.884918212890625 0.300079345703125
419662500.0 -0.51715087890625 0.865020751953125
450884375.0 0.1724853515625 1.0277099609375
482106250.0 0.797332763671875 0.712188720703125
513328125.0 1.11822509765625 0.08770751953125
544550000.0 1.0030517578125 -0.67852783203125
575771875.0 0.33673095703125 -1.23675537109375
606993750.0 -0.55279541015625 -1.176513671875
638215625.0 -1.16461181640625 -0.5902099609375
669437500.0 -1.33856201171875 0.23321533203125
700659375.0 -0.97027587890625 1.0948486328125
731881250.0 -0.00433349609375 1.54132080078125
763103125.0 1.00433349609375 1.15496826171875
794325000.0 1.46685791015625 0.28192138671875
825546875.0 1.3660888671875 -0.6502685546875
856768750.0 0.79437255859375 -1.39874267578125
887990625.0 -0.2908935546875 -1.64617919921875
919212500.0 -1.28558349609375 -1.0777587890625
950434375.0 -1.64642333984375 -0.05950927734375
981656250.0 -1.38079833984375 0.94378662109375
1012878125.0 -0.52984619140625 1.6689453125
1044100000.0 0.69525146484375 1.6597900390625
1075321875.0 1.57122802734375 0.8118896484375
1106543750.0 1.7021484375 -0.31134033203125
1137765625.0 1.185546875 -1.28155517578125
1168987500.0 0.13885498046875 -1.79437255859375
1200209375.0 -1.05908203125 -1.4818115234375
1231431250.0 -1.72491455078125 -0.4534912109375
1262653125.0 -1.59222412109375 0.68267822265625
1293875000.0 -0.851318359375 1.48883056640625
1325096875.0 0.22735595703125 1.7047119140625
1356318750.0 1.23291015625 1.21551513671875
1387540625.0 1.73736572265625 0.1890869140625
1418762500.0 1.46728515625 -0.94927978515625
1449984375.0 0.5291748046875 -1.62322998046875
1481206250.0 -0.54852294921875 -1.553955078125
1512428125.0 -1.33935546875 -0.91900634765625
1543650000.0 -1.6533203125 0.0648193359375
1574871875.0 -1.27191162109375 1.10601806640625
1606093750.0 -0.2733154296875 1.62884521484375
1637315625.0 0.739990234375 1.39886474609375
1668537500.0 1.3939208984375 0.69512939453125
1699759375.0 1.57122802734375 -0.27630615234375
1730981250.0 1.063232421875 -1.22723388671875
1762203125.0 0.0430908203125 -1.56817626953125
1793425000.0 -0.8541259765625 -1.22509765625
1824646875.0 -1.3914794921875 -0.51446533203125
1855868750.0 -1.47198486328125 0.43109130859375
1887090625.0 -0.8740234375 1.283447265625
1918312500.0 0.11669921875 1.48455810546875
1949534375.0 0.91949462890625 1.0877685546875
1980756250.0 1.37286376953125 0.37042236328125
2011978125.0 1.357421875 -0.5301513671875
2043200000.0 0.749755859375 -1.25933837890625
2074421875.0 -0.1556396484375 -1.43115234375
2105643750.0 -0.95806884765625 -1.07122802734375
2136865625.0 -1.44512939453125 -0.30523681640625
2168087500.0 -1.35546875 0.66961669921875
2199309375.0 -0.638671875 1.34918212890625
2230531250.0 0.2808837890625 1.43402099609375
2261753125.0 1.0709228515625 1.0130615234375
2292975000.0 1.51214599609375 0.17034912109375
2324196875.0 1.30389404296875 -0.817138671875
2355418750.0 0.52496337890625 -1.41778564453125
2386640625.0 -0.4031982421875 -1.44677734375
2417862500.0 -1.1781005859375 -1.022705078125
2449084375.0 -1.60101318359375 -0.0850830078125
2480306250.0 -1.309326171875 0.9234619140625
2511528125.0 -0.49365234375 1.50469970703125
2542750000.0 0.48785400390625 1.53466796875
2573971875.0 1.3681640625 0.96685791015625
2605193750.0 1.7152099609375 -0.11224365234375
2636415625.0 1.2593994140625 -1.14923095703125
2667637500.0 0.3067626953125 -1.66412353515625
2698859375.0 -0.76678466796875 -1.5316162109375
2730081250.0 -1.5689697265625 -0.73980712890625
2761303125.0 -1.67791748046875 0.3863525390625
2792525000.0 -1.09857177734375 1.30340576171875
2823746875.0 -0.10296630859375 1.72564697265625
2854968750.0 1.010009765625 1.45306396484375
2886190625.0 1.68841552734375 0.4915771484375
2917412500.0 1.59735107421875 -0.61566162109375
2948634375.0 0.93841552734375 -1.429931640625
2979856250.0 -0.10577392578125 -1.771728515625
3011078125.0 -1.24395751953125 -1.34039306640625
3042300000.0 -1.77117919921875 -0.2354736328125
3073521875.0 -1.5062255859375 0.83660888671875
3104743750.0 -0.7623291015625 1.564208984375
3135965625.0 0.3603515625 1.80548095703125
3167187500.0 1.4951171875 1.16278076171875
3198409375.0 1.8114013671875 -0.07330322265625
3229631250.0 1.3466796875 -1.0787353515625
3260853125.0 0.48956298828125 -1.66546630859375
3292075000.0 -0.6524658203125 -1.69482421875
3323296875.0 -1.61505126953125 -0.87872314453125
3354518750.0 -1.72662353515625 0.326171875
3385740625.0 -1.15435791015625 1.228515625
3416962500.0 -0.23199462890625 1.67791748046875
3448184375.0 0.85772705078125 1.51885986328125
3479406250.0 1.6318359375 0.64404296875
3510628125.0 1.64141845703125 -0.49371337890625
3541850000.0 0.99945068359375 -1.350830078125
3573071875.0 -0.00701904296875 -1.68017578125
3604293750.0 -1.02435302734375 -1.3350830078125
3635515625.0 -1.6240234375 -0.43853759765625
3666737500.0 -1.5595703125 0.64453125
3697959375.0 -0.82440185546875 1.472412109375
3729181250.0 0.26715087890625 1.62744140625
3760403125.0 1.14935302734375 1.09637451171875
3791625000.0 1.5491943359375 0.21807861328125
3822846875.0 1.39959716796875 -0.75872802734375
3854068750.0 0.6202392578125 -1.477783203125
3885290625.0 -0.4193115234375 -1.4786376953125
3916512500.0 -1.13934326171875 -0.909912109375
3947734375.0 -1.44500732421875 -0.1202392578125
3978956250.0 -1.29473876953125 0.7763671875
4010178125.0 -0.531005859375 1.45037841796875
4041400000.0 0.47100830078125 1.41302490234375
4072621875.0 1.1485595703125 0.84771728515625
4103843750.0 1.44158935546875 0.06414794921875
4135065625.0 1.265869140625 -0.8427734375
4166287500.0 0.4573974609375 -1.493408203125
4197509375.0 -0.55584716796875 -1.41259765625
4228731250.0 -1.244873046875 -0.802001953125
4259953125.0 -1.50616455078125 0.06903076171875
4291175000.0 -1.18646240234375 1.00750732421875
4322396875.0 -0.2899169921875 1.5234375
4353618750.0 0.67010498046875 1.347900390625
4384840625.0 1.31878662109375 0.69659423828125
4416062500.0 1.49810791015625 -0.22601318359375
4447284375.0 1.053955078125 -1.10113525390625
4478506250.0 0.1729736328125 -1.49212646484375
4509728125.0 -0.73004150390625 -1.30560302734375
4540950000.0 -1.390869140625 -0.6356201171875
4572171875.0 -1.51953125 0.3577880859375
4603393750.0 -0.9716796875 1.20928955078125
4634615625.0 -0.06243896484375 1.53375244140625
4665837500.0 0.86761474609375 1.302734375
4697059375.0 1.53863525390625 0.51483154296875
4728281250.0 1.52679443359375 -0.58056640625
4759503125.0 0.82275390625 -1.36334228515625
4790725000.0 -0.143310546875 -1.56939697265625
4821946875.0 -1.08050537109375 -1.19244384765625
4853168750.0 -1.61029052734375 -0.251708984375
4884390625.0 -1.37628173828125 0.79193115234375
4915612500.0 -0.61376953125 1.4091796875
4946834375.0 0.32672119140625 1.50653076171875
4978056250.0 1.2025146484375 1.0164794921875
5009278125.0 1.559814453125 0.0396728515625
5040500000.0 1.22723388671875 -0.87384033203125
5071721875.0 0.50152587890625 -1.41180419921875
5102943750.0 -0.44610595703125 -1.4949951171875
5134165625.0 -1.33319091796875 -0.9046630859375
5165387500.0 -1.56494140625 0.14453125
5196609375.0 -1.13482666015625 1.00714111328125
5227831250.0 -0.35760498046875 1.50360107421875
5259053125.0 0.68634033203125 1.48968505859375
5290275000.0 1.51788330078125 0.66253662109375
5321496875.0 1.49005126953125 -0.4295654296875
5352718750.0 0.92047119140625 -1.1512451171875
5383940625.0 0.09613037109375 -1.49920654296875
5415162500.0 -0.8970947265625 -1.28240966796875
5446384375.0 -1.4820556640625 -0.37060546875
5477606250.0 -1.2972412109375 0.564208984375
5508828125.0 -0.730712890625 1.1490478515625
5540050000.0 0.052734375 1.39642333984375
5571271875.0 0.937255859375 1.10760498046875
5602493750.0 1.4063720703125 0.25994873046875
5633715625.0 1.2305908203125 -0.611083984375
5664937500.0 0.64764404296875 -1.19891357421875
5696159375.0 -0.1962890625 -1.38177490234375
5727381250.0 -1.019775390625 -0.9775390625
5758603125.0 -1.3887939453125 -0.1458740234375
5789825000.0 -1.19219970703125 0.7154541015625
5821046875.0 -0.50689697265625 1.30419921875
5852268750.0 0.41046142578125 1.3111572265625
5883490625.0 1.068603515625 0.77142333984375
5914712500.0 1.30078125 0.0203857421875
5945934375.0 1.094970703125 -0.7738037109375
5977156250.0 0.3616943359375 -1.3106689453125
6008378125.0 -0.5089111328125 -1.18121337890625
6039600000.0 -1.0196533203125 -0.64862060546875
6070821875.0 -1.22265625 -0.00457763671875
6102043750.0 -1.08251953125 0.76043701171875
6133265625.0 -0.3427734375 1.34197998046875
6164487500.0 0.5615234375 1.18603515625
6195709375.0 1.0679931640625 0.630126953125
6226931250.0 1.27783203125 -0.04248046875
6258153125.0 1.10333251953125 -0.86981201171875
6289375000.0 0.25628662109375 -1.44451904296875
6320596875.0 -0.68719482421875 -1.20452880859375
6351818750.0 -1.19781494140625 -0.57171630859375
6383040625.0 -1.35260009765625 0.20623779296875
6414262500.0 -0.99871826171875 1.05438232421875
6445484375.0 -0.0787353515625 1.4552001953125
6476706250.0 0.79364013671875 1.1473388671875
6507928125.0 1.2877197265625 0.47021484375
6539150000.0 1.34613037109375 -0.3853759765625
6570371875.0 0.84075927734375 -1.1419677734375
6601593750.0 -0.0169677734375 -1.40350341796875
6632815625.0 -0.837646484375 -1.13482666015625
6664037500.0 -1.39935302734375 -0.4205322265625
6695259375.0 -1.3721923828125 0.56390380859375
6726481250.0 -0.70977783203125 1.25006103515625
6757703125.0 0.12921142578125 1.4046630859375
6788925000.0 0.95281982421875 1.1298828125
6820146875.0 1.557373046875 0.2882080078125
6851368750.0 1.32427978515625 -0.81683349609375
6882590625.0 0.50634765625 -1.33551025390625
6913812500.0 -0.290771484375 -1.35418701171875
6945034375.0 -1.06756591796875 -1.0206298828125
6976256250.0 -1.58978271484375 -0.093994140625
7007478125.0 -1.236328125 0.9315185546875
7038700000.0 -0.4033203125 1.3387451171875
7069921875.0 0.35546875 1.319580078125
7101143750.0 1.11724853515625 0.9676513671875
7132365625.0 1.59716796875 0.01531982421875
7163587500.0 1.15594482421875 -1.01751708984375
7194809375.0 0.30364990234375 -1.39337158203125
7226031250.0 -0.5107421875 -1.3240966796875
7257253125.0 -1.26531982421875 -0.82366943359375
7288475000.0 -1.55572509765625 0.1971435546875
7319696875.0 -1.02862548828125 1.10760498046875
7350918750.0 -0.16485595703125 1.441162109375
7382140625.0 0.71392822265625 1.27435302734375
7413362500.0 1.37518310546875 0.57513427734375
7444584375.0 1.4110107421875 -0.40631103515625
7475806250.0 0.85723876953125 -1.1402587890625
7507028125.0 0.00653076171875 -1.427490234375
7538250000.0 -0.88616943359375 -1.122802734375
7569471875.0 -1.33343505859375 -0.31097412109375
7600693750.0 -1.201171875 0.4957275390625
7631915625.0 -0.7178955078125 1.08135986328125
7663137500.0 0.08001708984375 1.35626220703125
7694359375.0 0.938995361328125 0.980926513671875
7725581250.0 1.2420654296875 0.18023681640625
7756803125.0 1.080810546875 -0.4969482421875
7788025000.0 0.67034912109375 -1.04107666015625
7819246875.0 -0.1202392578125 -1.34588623046875
7850468750.0 -0.991302490234375 -0.915069580078125
7881690625.0 -1.22955322265625 -0.10723876953125
7912912500.0 -1.05291748046875 0.55340576171875
7944134375.0 -0.60528564453125 1.11016845703125
7975356250.0 0.26983642578125 1.33282470703125
8006578125.0 1.0443115234375 0.77789306640625
8037800000.0 1.1929931640625 0.01666259765625
8069021875.0 1.0054931640625 -0.61785888671875
8100243750.0 0.49969482421875 -1.159912109375
8131465625.0 -0.38458251953125 -1.2510986328125
8162687500.0 -1.02996826171875 -0.68548583984375
8193909375.0 -1.17816162109375 0.0076904296875
8225131250.0 -1.0169677734375 0.6761474609375
8256353125.0 -0.421630859375 1.24713134765625
8287575000.0 0.49871826171875 1.224853515625
8318796875.0 1.08172607421875 0.63494873046875
8350018750.0 1.24359130859375 -0.076171875
8381240625.0 1.03076171875 -0.8387451171875
8412462500.0 0.25372314453125 -1.3726806640625
8443684375.0 -0.6651611328125 -1.16876220703125
8474906250.0 -1.17535400390625 -0.531005859375
8506128125.0 -1.29736328125 0.2381591796875
8537350000.0 -0.92327880859375 1.04144287109375
8568571875.0 -0.0164794921875 1.39385986328125
8599793750.0 0.80035400390625 1.05291748046875
8631015625.0 1.2384033203125 0.3984375
8662237500.0 1.28582763671875 -0.428955078125
8693459375.0 0.73602294921875 -1.1759033203125
8724681250.0 -0.16192626953125 -1.33074951171875
8755903125.0 -0.877197265625 -0.957672119140625
8787125000.0 -1.3006591796875 -0.283203125
8818346875.0 -1.25018310546875 0.614013671875
8849568750.0 -0.5572509765625 1.25823974609375
8880790625.0 0.2952880859375 1.28363037109375
8912012500.0 0.97943115234375 0.892303466796875
8943234375.0 1.3961181640625 0.1300048828125
8974456250.0 1.1656494140625 -0.83905029296875
9005678125.0 0.3485107421875 -1.31146240234375
9036900000.0 -0.44354248046875 -1.22357177734375
9068121875.0 -1.10003662109375 -0.78515625
9099343750.0 -1.43975830078125 0.09686279296875
9130565625.0 -0.9791259765625 1.00970458984375
9161787500.0 -0.1549072265625 1.28143310546875
9193009375.0 0.5531005859375 1.13238525390625
9224231250.0 1.17913818359375 0.65496826171875
9255453125.0 1.39739990234375 -0.29443359375
9286675000.0 0.80792236328125 -1.08270263671875
9317896875.0 0.02801513671875 -1.2462158203125
9349118750.0 -0.652587890625 -1.06884765625
9380340625.0 -1.25579833984375 -0.510009765625
9411562500.0 -1.3096923828125 0.47406005859375
9442784375.0 -0.6475830078125 1.11541748046875
9474006250.0 0.08740234375 1.20989990234375
9505228125.0 0.762176513671875 0.979248046875
9536450000.0 1.27313232421875 0.3123779296875
9567671875.0 1.14276123046875 -0.578125
9598893750.0 0.52862548828125 -1.069580078125
9630115625.0 -0.14215087890625 -1.15625
9661337500.0 -0.81622314453125 -0.90185546875
9692559375.0 -1.2364501953125 -0.19085693359375
9723781250.0 -1.04345703125 0.60382080078125
9755003125.0 -0.48577880859375 1.04888916015625
9786225000.0 0.1962890625 1.15716552734375
9817446875.0 0.8946533203125 0.827606201171875
9848668750.0 1.19598388671875 0.0794677734375
9879890625.0 0.967742919921875 -0.613525390625
9911112500.0 0.4521484375 -1.0513916015625
9942334375.0 -0.267822265625 -1.1585693359375
9973556250.0 -0.941925048828125 -0.738677978515625
10004778125.0 -1.1451416015625 -0.01873779296875
10036000000.0 -0.94403076171875 0.615692138671875
10067221875.0 -0.44183349609375 1.0943603515625
10098443750.0 0.36737060546875 1.18017578125
10129665625.0 1.00164794921875 0.6414794921875
10160887500.0 1.11810302734375 -0.0504150390625
10192109375.0 0.916168212890625 -0.6632080078125
10223331250.0 0.36053466796875 -1.1513671875
10254553125.0 -0.48516845703125 -1.11297607421875
10285775000.0 -0.983673095703125 -0.53558349609375
10316996875.0 -1.06689453125 0.07501220703125
10348218750.0 -0.8990478515625 0.66851806640625
10379440625.0 -0.322021484375 1.173828125
10410662500.0 0.5240478515625 1.08416748046875
10441884375.0 0.989501953125 0.521881103515625
10473106250.0 1.1080322265625 -0.0828857421875
10504328125.0 0.94873046875 -0.7554931640625
10535550000.0 0.24029541015625 -1.2923583984375
10566771875.0 -0.65728759765625 -1.0771484375
10597993750.0 -1.077392578125 -0.45953369140625
10629215625.0 -1.173095703125 0.20458984375
10660437500.0 -0.888214111328125 0.950653076171875
10691659375.0 -0.00958251953125 1.33416748046875
10722881250.0 0.78192138671875 0.951080322265625
10754103125.0 1.1182861328125 0.32452392578125
10785325000.0 1.13812255859375 -0.36651611328125
10816546875.0 0.70050048828125 -1.04754638671875
10847768750.0 -0.1434326171875 -1.22802734375
10878990625.0 -0.802459716796875 -0.84368896484375
10910212500.0 -1.1212158203125 -0.24566650390625
10941434375.0 -1.09600830078125 0.47528076171875
10972656250.0 -0.56884765625 1.08306884765625
11003878125.0 0.21551513671875 1.17193603515625
11035100000.0 0.8475341796875 0.822052001953125
11066321875.0 1.21966552734375 0.174560546875
11097543750.0 1.096435546875 -0.674072265625
11128765625.0 0.3880615234375 -1.19659423828125
11159987500.0 -0.39495849609375 -1.13818359375
11191209375.0 -0.99896240234375 -0.70245361328125
11222431250.0 -1.271484375 0.0933837890625
11253653125.0 -0.857696533203125 0.8917236328125
11284875000.0 -0.11419677734375 1.1253662109375
11316096875.0 0.5098876953125 0.95550537109375
11347318750.0 1.00115966796875 0.50128173828125
11378540625.0 1.11505126953125 -0.2674560546875
11409762500.0 0.634521484375 -0.859466552734375
11440984375.0 0.03558349609375 -0.977691650390625
11472206250.0 -0.481109619140625 -0.850067138671875
11503428125.0 -0.952239990234375 -0.45587158203125
11534650000.0 -1.06756591796875 0.28778076171875
11565871875.0 -0.60235595703125 0.852996826171875
11597093750.0 -0.0185546875 0.9910888671875
11628315625.0 0.543701171875 0.8758544921875
11659537500.0 1.05877685546875 0.3934326171875
11690759375.0 1.06439208984375 -0.4329833984375
11721981250.0 0.517791748046875 -0.93719482421875
11753203125.0 -0.1058349609375 -1.03564453125
11784425000.0 -0.72271728515625 -0.808349609375
11815646875.0 -1.0994873046875 -0.15130615234375
11846868750.0 -0.89031982421875 0.55010986328125
11878090625.0 -0.391082763671875 0.90850830078125
11909312500.0 0.186279296875 0.983642578125
11940534375.0 0.777374267578125 0.6947021484375
11971756250.0 1.023681640625 0.0399169921875
12002978125.0 0.8055419921875 -0.536041259765625
12034200000.0 0.38232421875 -0.8878173828125
12065421875.0 -0.21453857421875 -1.0096435546875
12096643750.0 -0.844696044921875 -0.66552734375
12127865625.0 -1.03204345703125 0.015869140625
12159087500.0 -0.814697265625 0.575042724609375
12190309375.0 -0.378204345703125 0.9727783203125
12221531250.0 0.337646484375 1.08746337890625
12252753125.0 0.97943115234375 0.5814208984375
12283975000.0 1.05364990234375 -0.128173828125
12315196875.0 0.79998779296875 -0.674163818359375
12346418750.0 0.281005859375 -1.09100341796875
12377640625.0 -0.53759765625 -1.0606689453125
12408862500.0 -1.03155517578125 -0.419921875
12440084375.0 -1.00762939453125 0.2247314453125
12471306250.0 -0.741973876953125 0.73687744140625
12502528125.0 -0.1793212890625 1.11962890625
12533750000.0 0.6173095703125 0.992889404296875
12564971875.0 1.0391845703125 0.36474609375
12596193750.0 1.029541015625 -0.2646484375
12627415625.0 0.74688720703125 -0.828277587890625
12658637500.0 0.080322265625 -1.2059326171875
12689859375.0 -0.73529052734375 -0.966522216796875
12721081250.0 -1.1173095703125 -0.30657958984375
12752303125.0 -1.09674072265625 0.3824462890625
12783525000.0 -0.6868896484375 1.02508544921875
12814746875.0 0.16448974609375 1.2506103515625
12845968750.0 0.860595703125 0.8116455078125
12877190625.0 1.1165771484375 0.1722412109375
12908412500.0 1.05462646484375 -0.4991455078125
12939634375.0 0.54248046875 -1.1162109375
12970856250.0 -0.31939697265625 -1.173095703125
13002078125.0 -0.89373779296875 -0.69342041015625
13033300000.0 -1.104736328125 -0.08636474609375
13064521875.0 -1.00927734375 0.594482421875
13095743750.0 -0.42041015625 1.15283203125
13126965625.0 0.40899658203125 1.1197509765625
13158187500.0 0.945465087890625 0.6322021484375
13189409375.0 1.14788818359375 -0.020751953125
13220631250.0 0.93572998046875 -0.747772216796875
13251853125.0 0.23431396484375 -1.1702880859375
13283075000.0 -0.50726318359375 -1.01947021484375
13314296875.0 -0.985809326171875 -0.528350830078125
13345518750.0 -1.1331787109375 0.17498779296875
13376740625.0 -0.752716064453125 0.858917236328125
