!Created with skrf (http://scikit-rf.org).
# Hz S RI R 50.0 
!freq ReS11 ImS11
45000000.0 -0.07682418823242188 -0.09699249267578125
76221875.0 -0.19671630859375 -0.0479888916015625
107443750.0 -0.25579833984375 0.119415283203125
138665625.0 -0.1490478515625 0.3291015625
169887500.0 0.1228485107421875 0.418670654296875
201109375.0 0.422027587890625 0.2826690673828125
232331250.0 0.580291748046875 -0.0562744140625
263553125.0 0.4915924072265625 -0.4528350830078125
294775000.0 0.100311279296875 -0.734039306640625
325996875.0 -0.4150390625 -0.683197021484375
357218750.0 -0.807861328125 -0.299713134765625
388440625.0 -0.888671875 0.29949951171875
419662500.0 -0.520538330078125 0.8675537109375
450884375.0 0.171142578125 1.03173828125
482106250.0 0.79876708984375 0.716156005859375
513328125.0 1.1220703125 0.089599609375
544550000.0 1.00714111328125 -0.67938232421875
575771875.0 0.3397216796875 -1.23974609375
606993750.0 -0.55218505859375 -1.18109130859375
638215625.0 -1.167236328125 -0.59429931640625
669437500.0 -1.34295654296875 0.2313232421875
700659375.0 -0.97479248046875 1.0963134765625
731881250.0 -0.00738525390625 1.54595947265625
763103125.0 1.005126953125 1.16070556640625
794325000.0 1.47161865234375 0.285400390625
825546875.0 1.3714599609375 -0.6502685546875
856768750.0 0.79913330078125 -1.40277099609375
887990625.0 -0.2899169921875 -1.65252685546875
919212500.0 -1.2889404296875 -1.0841064453125
950434375.0 -1.65264892578125 -0.06280517578125
981656250.0 -1.38775634765625 0.94586181640625
1012878125.0 -0.53369140625 1.6746826171875
1044100000.0 0.695556640625 1.66778564453125
1075321875.0 1.5770263671875 0.8175048828125
1106543750.0 1.70965576171875 -0.310302734375
1137765625.0 1.19219970703125 -1.2845458984375
1168987500.0 0.14263916015625 -1.8016357421875
1200209375.0 -1.06158447265625 -1.4896240234375
1231431250.0 -1.73077392578125 -0.45806884765625
1262653125.0 -1.59881591796875 0.6832275390625
1293875000.0 -0.85699462890625 1.49310302734375
1325096875.0 0.2244873046875 1.71136474609375
1356318750.0 1.2353515625 1.22216796875
1387540625.0 1.74359130859375 0.19281005859375
1418762500.0 1.4744873046875 -0.9508056640625
1449984375.0 0.53369140625 -1.6285400390625
1481206250.0 -0.5477294921875 -1.56048583984375
1512428125.0 -1.3433837890625 -0.9241943359375
1543650000.0 -1.65911865234375 0.062744140625
1574871875.0 -1.278076171875 1.10919189453125
1606093750.0 -0.27655029296875 1.63433837890625
1637315625.0 0.74114990234375 1.40484619140625
1668537500.0 1.39776611328125 0.70013427734375
1699759375.0 1.57659912109375 -0.27490234375
1730981250.0 1.0687255859375 -1.2294921875
1762203125.0 0.045166015625 -1.57342529296875
1793425000.0 -0.8553466796875 -1.23065185546875
1824646875.0 -1.39569091796875 -0.51885986328125
1855868750.0 -1.4781494140625 0.4310302734375
1887090625.0 -0.8790283203125 1.28656005859375
1918312500.0 0.11505126953125 1.49041748046875
1949534375.0 0.92156982421875 1.0927734375
1980756250.0 1.37725830078125 0.37310791015625
2011978125.0 1.36334228515625 -0.53009033203125
2043200000.0 0.75372314453125 -1.26251220703125
2074421875.0 -0.15484619140625 -1.43634033203125
2105643750.0 -0.960693359375 -1.07623291015625
2136865625.0 -1.449951171875 -0.30755615234375
2168087500.0 -1.36102294921875 0.67059326171875
2199309375.0 -0.6424560546875 1.35308837890625
2230531250.0 0.2802734375 1.43914794921875
2261753125.0 1.07318115234375 1.017578125
2292975000.0 1.5167236328125 0.17303466796875
2324196875.0 1.30926513671875 -0.818603515625
2355418750.0 0.52838134765625 -1.42144775390625
2386640625.0 -0.4029541015625 -1.45208740234375
2417862500.0 -1.1826171875 -1.02813720703125
2449084375.0 -1.60723876953125 -0.0869140625
2480306250.0 -1.31524658203125 0.925048828125
2511528125.0 -0.49737548828125 1.5096435546875
2542750000.0 0.48779296875 1.54156494140625
2573971875.0 1.3720703125 0.9720458984375
2605193750.0 1.720458984375 -0.1092529296875
2636415625.0 1.26556396484375 -1.15325927734375
2667637500.0 0.31036376953125 -1.66900634765625
2698859375.0 -0.7686767578125 -1.53875732421875
2730081250.0 -1.57598876953125 -0.74407958984375
2761303125.0 -1.6851806640625 0.38616943359375
2792525000.0 -1.10406494140625 1.308837890625
2823746875.0 -0.10498046875 1.7335205078125
2854968750.0 1.01239013671875 1.46038818359375
2886190625.0 1.69488525390625 0.49517822265625
2917412500.0 1.6046142578125 -0.61669921875
2948634375.0 0.943359375 -1.4351806640625
2979856250.0 -0.10565185546875 -1.78009033203125
3011078125.0 -1.24920654296875 -1.34649658203125
3042300000.0 -1.778076171875 -0.23785400390625
3073521875.0 -1.51275634765625 0.8372802734375
3104743750.0 -0.76678466796875 1.57220458984375
3135965625.0 0.36065673828125 1.8128662109375
3167187500.0 1.50128173828125 1.1690673828125
3198409375.0 1.819091796875 -0.0723876953125
3229631250.0 1.35308837890625 -1.08233642578125
3260853125.0 0.4935302734375 -1.67083740234375
3292075000.0 -0.654541015625 -1.7030029296875
3323296875.0 -1.6217041015625 -0.8834228515625
3354518750.0 -1.73480224609375 0.3270263671875
3385740625.0 -1.16015625 1.2332763671875
3416962500.0 -0.2340087890625 1.6854248046875
3448184375.0 0.86151123046875 1.52618408203125
3479406250.0 1.63824462890625 0.6474609375
3510628125.0 1.647705078125 -0.49298095703125
3541850000.0 1.00372314453125 -1.35595703125
3573071875.0 -0.00567626953125 -1.68572998046875
3604293750.0 -1.02734375 -1.34112548828125
3635515625.0 -1.6297607421875 -0.44183349609375
3666737500.0 -1.56451416015625 0.64434814453125
3697959375.0 -0.827880859375 1.478759765625
3729181250.0 0.2662353515625 1.63360595703125
3760403125.0 1.15283203125 1.10125732421875
3791625000.0 1.5552978515625 0.22027587890625
3822846875.0 1.40557861328125 -0.7601318359375
3854068750.0 0.6241455078125 -1.4827880859375
3885290625.0 -0.4205322265625 -1.48468017578125
3916512500.0 -1.1434326171875 -0.91400146484375
3947734375.0 -1.449951171875 -0.1221923828125
3978956250.0 -1.30169677734375 0.78009033203125
4010178125.0 -0.53363037109375 1.45758056640625
4041400000.0 0.47369384765625 1.41845703125
4072621875.0 1.15374755859375 0.84930419921875
4103843750.0 1.44622802734375 0.0653076171875
4135065625.0 1.2708740234375 -0.84674072265625
4166287500.0 0.4599609375 -1.4976806640625
4197509375.0 -0.55767822265625 -1.4180908203125
4228731250.0 -1.2489013671875 -0.804931640625
4259953125.0 -1.5113525390625 0.06903076171875
4291175000.0 -1.1910400390625 1.0108642578125
4322396875.0 -0.2911376953125 1.52960205078125
4353618750.0 0.6734619140625 1.35345458984375
4384840625.0 1.32269287109375 0.70037841796875
4416062500.0 1.5042724609375 -0.2266845703125
4447284375.0 1.0582275390625 -1.10552978515625
4478506250.0 0.1737060546875 -1.4984130859375
4509728125.0 -0.732177734375 -1.31036376953125
4540950000.0 -1.3955078125 -0.63824462890625
4572171875.0 -1.52484130859375 0.35888671875
4603393750.0 -0.97479248046875 1.21478271484375
4634615625.0 -0.06256103515625 1.53912353515625
4665837500.0 0.8724365234375 1.30743408203125
4697059375.0 1.54327392578125 0.5172119140625
4728281250.0 1.53265380859375 -0.58306884765625
4759503125.0 0.825439453125 -1.36907958984375
4790725000.0 -0.14447021484375 -1.575439453125
4821946875.0 -1.083984375 -1.1971435546875
4853168750.0 -1.61590576171875 -0.25286865234375
4884390625.0 -1.38134765625 0.794921875
4915612500.0 -0.61529541015625 1.416015625
4946834375.0 0.3270263671875 1.511962890625
4978056250.0 1.2076416015625 1.0205078125
5009278125.0 1.564453125 0.04095458984375
5040500000.0 1.2322998046875 -0.87774658203125
5071721875.0 0.5032958984375 -1.41748046875
5102943750.0 -0.44622802734375 -1.50006103515625
5134165625.0 -1.33880615234375 -0.90777587890625
5165387500.0 -1.57080078125 0.14556884765625
5196609375.0 -1.13897705078125 1.01220703125
5227831250.0 -0.35882568359375 1.50933837890625
5259053125.0 0.6895751953125 1.49530029296875
5290275000.0 1.52496337890625 0.6644287109375
5321496875.0 1.49554443359375 -0.43115234375
5352718750.0 0.92333984375 -1.154296875
5383940625.0 0.09832763671875 -1.50250244140625
5415162500.0 -0.90185546875 -1.286865234375
5446384375.0 -1.48663330078125 -0.37249755859375
5477606250.0 -1.3011474609375 0.565673828125
5508828125.0 -0.73309326171875 1.1533203125
5540050000.0 0.0537109375 1.40301513671875
5571271875.0 0.94097900390625 1.11151123046875
5602493750.0 1.4122314453125 0.26080322265625
5633715625.0 1.23541259765625 -0.61328125
5664937500.0 0.65020751953125 -1.2034912109375
5696159375.0 -0.1978759765625 -1.38720703125
5727381250.0 -1.02490234375 -0.98016357421875
5758603125.0 -1.394287109375 -0.1455078125
5789825000.0 -1.1966552734375 0.71893310546875
5821046875.0 -0.5068359375 1.30999755859375
5852268750.0 0.412353515625 1.31494140625
5883490625.0 1.0721435546875 0.77349853515625
5914712500.0 1.30517578125 0.0205078125
5945934375.0 1.09912109375 -0.7769775390625
5977156250.0 0.36181640625 -1.31475830078125
6008378125.0 -0.51019287109375 -1.18438720703125
6039600000.0 -1.0238037109375 -0.65069580078125
6070821875.0 -1.22650146484375 -0.00482177734375
6102043750.0 -1.0863037109375 0.765380859375
6133265625.0 -0.34246826171875 1.3475341796875
6164487500.0 0.564208984375 1.18927001953125
6195709375.0 1.07275390625 0.63134765625
6226931250.0 1.28216552734375 -0.0423583984375
6258153125.0 1.1068115234375 -0.87384033203125
6289375000.0 0.25604248046875 -1.44873046875
6320596875.0 -0.69134521484375 -1.2073974609375
6351818750.0 -1.20220947265625 -0.572509765625
6383040625.0 -1.35650634765625 0.20758056640625
6414262500.0 -1.001220703125 1.0595703125
6445484375.0 -0.078125 1.4598388671875
6476706250.0 0.7960205078125 1.1494140625
6507928125.0 1.29248046875 0.47113037109375
6539150000.0 1.35015869140625 -0.38702392578125
6570371875.0 0.8428955078125 -1.14617919921875
6601593750.0 -0.01715087890625 -1.40789794921875
6632815625.0 -0.8419189453125 -1.13922119140625
6664037500.0 -1.4051513671875 -0.42022705078125
6695259375.0 -1.37646484375 0.56768798828125
6726481250.0 -0.7115478515625 1.25421142578125
6757703125.0 0.13104248046875 1.4095458984375
6788925000.0 0.9581298828125 1.1329345703125
6820146875.0 1.563720703125 0.28753662109375
6851368750.0 1.32757568359375 -0.822265625
6882590625.0 0.50653076171875 -1.341552734375
6913812500.0 -0.29278564453125 -1.35809326171875
6945034375.0 -1.07281494140625 -1.023681640625
6976256250.0 -1.5963134765625 -0.0927734375
7007478125.0 -1.23846435546875 0.9351806640625
7038700000.0 -0.402587890625 1.3453369140625
7069921875.0 0.35833740234375 1.32586669921875
7101143750.0 1.1229248046875 0.9713134765625
7132365625.0 1.60369873046875 0.01397705078125
7163587500.0 1.160400390625 -1.0224609375
7194809375.0 0.30157470703125 -1.40338134765625
7226031250.0 -0.5118408203125 -1.3287353515625
7257253125.0 -1.27197265625 -0.82562255859375
7288475000.0 -1.56219482421875 0.19915771484375
7319696875.0 -1.0323486328125 1.1129150390625
7350918750.0 -0.16497802734375 1.44683837890625
7382140625.0 0.71490478515625 1.28033447265625
7413362500.0 1.3792724609375 0.57745361328125
7444584375.0 1.4146728515625 -0.40814208984375
7475806250.0 0.85931396484375 -1.14532470703125
7507028125.0 0.00628662109375 -1.43243408203125
7538250000.0 -0.89007568359375 -1.12591552734375
7569471875.0 -1.33746337890625 -0.3123779296875
7600693750.0 -1.20428466796875 0.4976806640625
7631915625.0 -0.7196044921875 1.089111328125
7663137500.0 0.08221435546875 1.36285400390625
7694359375.0 0.94183349609375 0.983123779296875
7725581250.0 1.246337890625 0.18084716796875
7756803125.0 1.08551025390625 -0.50048828125
7788025000.0 0.671630859375 -1.04730224609375
7819246875.0 -0.12261962890625 -1.35186767578125
7850468750.0 -0.997467041015625 -0.91754150390625
7881690625.0 -1.23480224609375 -0.10467529296875
7912912500.0 -1.05621337890625 0.555419921875
7944134375.0 -0.60601806640625 1.1148681640625
7975356250.0 0.27520751953125 1.3385009765625
8006578125.0 1.0494384765625 0.7791748046875
8037800000.0 1.195556640625 0.0164794921875
8069021875.0 1.00885009765625 -0.61981201171875
8100243750.0 0.49932861328125 -1.1663818359375
8131465625.0 -0.39013671875 -1.2572021484375
8162687500.0 -1.03509521484375 -0.68701171875
8193909375.0 -1.18365478515625 0.00885009765625
8225131250.0 -1.0205078125 0.6790771484375
8256353125.0 -0.42242431640625 1.25213623046875
8287575000.0 0.50537109375 1.22979736328125
8318796875.0 1.0860595703125 0.6370849609375
8350018750.0 1.24822998046875 -0.07550048828125
8381240625.0 1.03302001953125 -0.8436279296875
8412462500.0 0.2523193359375 -1.37823486328125
8443684375.0 -0.67401123046875 -1.17303466796875
8474906250.0 -1.17816162109375 -0.53216552734375
8506128125.0 -1.30096435546875 0.23773193359375
8537350000.0 -0.9256591796875 1.04937744140625
8568571875.0 -0.01580810546875 1.39678955078125
8599793750.0 0.80670166015625 1.05596923828125
8631015625.0 1.24261474609375 0.39910888671875
8662237500.0 1.28961181640625 -0.430908203125
8693459375.0 0.73809814453125 -1.1796875
8724681250.0 -0.16259765625 -1.3341064453125
8755903125.0 -0.88397216796875 -0.960693359375
8787125000.0 -1.30682373046875 -0.283203125
8818346875.0 -1.25567626953125 0.61944580078125
8849568750.0 -0.556884765625 1.265625
8880790625.0 0.30029296875 1.289306640625
8912012500.0 0.98583984375 0.89434814453125
8943234375.0 1.40435791015625 0.12664794921875
8974456250.0 1.1693115234375 -0.84613037109375
9005678125.0 0.34698486328125 -1.31707763671875
9036900000.0 -0.4476318359375 -1.22674560546875
9068121875.0 -1.106201171875 -0.7872314453125
9099343750.0 -1.4442138671875 0.0982666015625
9130565625.0 -0.9791259765625 1.01336669921875
9161787500.0 -0.1531982421875 1.28509521484375
9193009375.0 0.5565185546875 1.135986328125
9224231250.0 1.18157958984375 0.65679931640625
9255453125.0 1.403076171875 -0.29693603515625
9286675000.0 0.8084716796875 -1.08782958984375
9317896875.0 0.02496337890625 -1.25030517578125
9349118750.0 -0.6575927734375 -1.0733642578125
9380340625.0 -1.26214599609375 -0.50909423828125
9411562500.0 -1.31475830078125 0.4808349609375
9442784375.0 -0.64874267578125 1.121337890625
9474006250.0 0.0906982421875 1.21533203125
9505228125.0 0.76873779296875 0.98223876953125
9536450000.0 1.278076171875 0.3111572265625
9567671875.0 1.1458740234375 -0.58502197265625
9598893750.0 0.52911376953125 -1.0718994140625
9630115625.0 -0.1461181640625 -1.159912109375
9661337500.0 -0.820892333984375 -0.9022216796875
9692559375.0 -1.24090576171875 -0.188720703125
9723781250.0 -1.0445556640625 0.6051025390625
9755003125.0 -0.48602294921875 1.05364990234375
9786225000.0 0.20025634765625 1.162109375
9817446875.0 0.899200439453125 0.828277587890625
9848668750.0 1.201171875 0.0762939453125
9879890625.0 0.970245361328125 -0.61871337890625
9911112500.0 0.45306396484375 -1.0543212890625
9942334375.0 -0.26910400390625 -1.16217041015625
9973556250.0 -0.947784423828125 -0.73809814453125
10004778125.0 -1.150390625 -0.01544189453125
10036000000.0 -0.945709228515625 0.61993408203125
10067221875.0 -0.44134521484375 1.1004638671875
10098443750.0 0.373291015625 1.18304443359375
10129665625.0 1.0068359375 0.6414794921875
10160887500.0 1.12200927734375 -0.0543212890625
10192109375.0 0.91802978515625 -0.665008544921875
10223331250.0 0.3602294921875 -1.156005859375
10254553125.0 -0.4886474609375 -1.11517333984375
10285775000.0 -0.987396240234375 -0.53369140625
10316996875.0 -1.06903076171875 0.0777587890625
10348218750.0 -0.901397705078125 0.674072265625
10379440625.0 -0.32171630859375 1.1795654296875
10410662500.0 0.53057861328125 1.08782958984375
10441884375.0 0.995086669921875 0.521697998046875
10473106250.0 1.1112060546875 -0.08526611328125
10504328125.0 0.95062255859375 -0.762237548828125
10535550000.0 0.23724365234375 -1.29833984375
10566771875.0 -0.66070556640625 -1.0771484375
10597993750.0 -1.08465576171875 -0.45806884765625
10629215625.0 -1.17755126953125 0.2080078125
10660437500.0 -0.8880615234375 0.95721435546875
10691659375.0 -0.00653076171875 1.3388671875
10722881250.0 0.7860107421875 0.95233154296875
10754103125.0 1.121826171875 0.3238525390625
10785325000.0 1.14202880859375 -0.3701171875
10816546875.0 0.70135498046875 -1.05181884765625
10847768750.0 -0.14923095703125 -1.23162841796875
10878990625.0 -0.806549072265625 -0.843597412109375
10910212500.0 -1.12554931640625 -0.24395751953125
10941434375.0 -1.099853515625 0.47979736328125
10972656250.0 -0.56793212890625 1.08953857421875
11003878125.0 0.21923828125 1.17559814453125
11035100000.0 0.85198974609375 0.82232666015625
11066321875.0 1.22314453125 0.17333984375
11097543750.0 1.10015869140625 -0.681884765625
11128765625.0 0.38427734375 -1.20220947265625
11159987500.0 -0.39837646484375 -1.14154052734375
11191209375.0 -1.00311279296875 -0.70257568359375
11222431250.0 -1.2752685546875 0.09698486328125
11253653125.0 -0.8592529296875 0.897674560546875
11284875000.0 -0.112060546875 1.13043212890625
11316096875.0 0.513824462890625 0.959136962890625
11347318750.0 1.0069580078125 0.50213623046875
11378540625.0 1.11907958984375 -0.271484375
11409762500.0 0.6343994140625 -0.8621826171875
11440984375.0 0.0350341796875 -0.98126220703125
11472206250.0 -0.48486328125 -0.851898193359375
11503428125.0 -0.956268310546875 -0.456146240234375
11534650000.0 -1.07049560546875 0.29180908203125
11565871875.0 -0.602752685546875 0.856964111328125
11597093750.0 -0.0172119140625 0.99346923828125
11628315625.0 0.548187255859375 0.877227783203125
11659537500.0 1.063720703125 0.39105224609375
11690759375.0 1.066650390625 -0.4378662109375
11721981250.0 0.51654052734375 -0.943572998046875
11753203125.0 -0.1070556640625 -1.03900146484375
11784425000.0 -0.729400634765625 -0.8094482421875
11815646875.0 -1.1043701171875 -0.14862060546875
11846868750.0 -0.891693115234375 0.553619384765625
11878090625.0 -0.389923095703125 0.912078857421875
11909312500.0 0.188690185546875 0.98699951171875
11940534375.0 0.78509521484375 0.695556640625
11971756250.0 1.026611328125 0.03802490234375
12002978125.0 0.80718994140625 -0.53863525390625
12034200000.0 0.3809814453125 -0.892333984375
12065421875.0 -0.2188720703125 -1.01318359375
12096643750.0 -0.850830078125 -0.664154052734375
12127865625.0 -1.035888671875 0.019287109375
12159087500.0 -0.81549072265625 0.57806396484375
12190309375.0 -0.375946044921875 0.978973388671875
12221531250.0 0.3421630859375 1.08953857421875
12252753125.0 0.984710693359375 0.580902099609375
12283975000.0 1.055419921875 -0.12969970703125
12315196875.0 0.80078125 -0.6800537109375
12346418750.0 0.2789306640625 -1.095458984375
12377640625.0 -0.54180908203125 -1.062255859375
12408862500.0 -1.0360107421875 -0.41729736328125
12440084375.0 -1.0108642578125 0.2275390625
12471306250.0 -0.742279052734375 0.7398681640625
12502528125.0 -0.1781005859375 1.1243896484375
12533750000.0 0.6240234375 0.994598388671875
12564971875.0 1.0438232421875 0.362548828125
12596193750.0 1.03125 -0.26580810546875
12627415625.0 0.748870849609375 -0.83245849609375
12658637500.0 0.0771484375 -1.2110595703125
12689859375.0 -0.74066162109375 -0.966827392578125
12721081250.0 -1.120849609375 -0.30340576171875
12752303125.0 -1.1002197265625 0.38671875
12783525000.0 -0.68646240234375 1.033203125
12814746875.0 0.16998291015625 1.2542724609375
12845968750.0 0.867919921875 0.810638427734375
12877190625.0 1.12139892578125 0.1690673828125
12908412500.0 1.05718994140625 -0.5057373046875
12939634375.0 0.54119873046875 -1.120849609375
12970856250.0 -0.3260498046875 -1.1763916015625
13002078125.0 -0.899749755859375 -0.6923828125
13033300000.0 -1.10992431640625 -0.084228515625
13064521875.0 -1.01165771484375 0.59881591796875
13095743750.0 -0.41766357421875 1.159912109375
13126965625.0 0.41265869140625 1.1220703125
13158187500.0 0.950531005859375 0.631439208984375
13189409375.0 1.15155029296875 -0.02301025390625
13220631250.0 0.936920166015625 -0.75341796875
13251853125.0 0.23150634765625 -1.1761474609375
13283075000.0 -0.51153564453125 -1.0203857421875
13314296875.0 -0.99237060546875 -0.527069091796875
13345518750.0 -1.13714599609375 0.1796875
13376740625.0 -0.752044677734375 0.863494873046875
