!Created with skrf (http://scikit-rf.org).
# Hz S RI R 50.0 
!freq ReS11 ImS11
45000000.0 -0.07685470581054688 -0.09688949584960938
76221875.0 -0.19622039794921875 -0.0474853515625
107443750.0 -0.2547607421875 0.1194915771484375
138665625.0 -0.1481170654296875 0.328125
169887500.0 0.1234130859375 0.41705322265625
201109375.0 0.421478271484375 0.28057861328125
232331250.0 0.578399658203125 -0.0576171875
263553125.0 0.4891204833984375 -0.4523162841796875
294775000.0 0.0986328125 -0.73162841796875
325996875.0 -0.414886474609375 -0.6795654296875
357218750.0 -0.8052978515625 -0.296844482421875
388440625.0 -0.884857177734375 0.3001708984375
419662500.0 -0.516845703125 0.865264892578125
450884375.0 0.1727294921875 1.0277099609375
482106250.0 0.797637939453125 0.71197509765625
513328125.0 1.1180419921875 0.087158203125
544550000.0 1.0028076171875 -0.6788330078125
575771875.0 0.33624267578125 -1.237060546875
606993750.0 -0.55328369140625 -1.17620849609375
638215625.0 -1.16461181640625 -0.58984375
669437500.0 -1.33843994140625 0.23321533203125
700659375.0 -0.97003173828125 1.09515380859375
731881250.0 -0.00360107421875 1.54144287109375
763103125.0 1.00433349609375 1.15447998046875
794325000.0 1.46697998046875 0.28192138671875
825546875.0 1.3658447265625 -0.6505126953125
856768750.0 0.79388427734375 -1.39849853515625
887990625.0 -0.29132080078125 -1.64593505859375
919212500.0 -1.28582763671875 -1.07733154296875
950434375.0 -1.6463623046875 -0.05926513671875
981656250.0 -1.3804931640625 0.943603515625
1012878125.0 -0.52923583984375 1.668701171875
1044100000.0 0.69525146484375 1.65911865234375
1075321875.0 1.57196044921875 0.8109130859375
1106543750.0 1.7022705078125 -0.311767578125
1137765625.0 1.18511962890625 -1.281982421875
1168987500.0 0.13848876953125 -1.7938232421875
1200209375.0 -1.05975341796875 -1.48114013671875
1231431250.0 -1.72442626953125 -0.45330810546875
1262653125.0 -1.59210205078125 0.68310546875
1293875000.0 -0.85089111328125 1.4893798828125
1325096875.0 0.2274169921875 1.70361328125
1356318750.0 1.23291015625 1.21466064453125
1387540625.0 1.737548828125 0.1885986328125
1418762500.0 1.4669189453125 -0.9503173828125
1449984375.0 0.5284423828125 -1.6234130859375
1481206250.0 -0.54864501953125 -1.55322265625
1512428125.0 -1.33966064453125 -0.91851806640625
1543650000.0 -1.65301513671875 0.06475830078125
1574871875.0 -1.27166748046875 1.10626220703125
1606093750.0 -0.27264404296875 1.6285400390625
1637315625.0 0.74078369140625 1.3984375
1668537500.0 1.39404296875 0.69476318359375
1699759375.0 1.5709228515625 -0.27685546875
1730981250.0 1.06298828125 -1.22674560546875
1762203125.0 0.04248046875 -1.56793212890625
1793425000.0 -0.8541259765625 -1.2249755859375
1824646875.0 -1.3914794921875 -0.51422119140625
1855868750.0 -1.47161865234375 0.431396484375
1887090625.0 -0.8736572265625 1.28302001953125
1918312500.0 0.1170654296875 1.48431396484375
1949534375.0 0.91973876953125 1.0872802734375
1980756250.0 1.372802734375 0.36962890625
2011978125.0 1.3577880859375 -0.531005859375
2043200000.0 0.7491455078125 -1.25946044921875
2074421875.0 -0.1563720703125 -1.43121337890625
2105643750.0 -0.958740234375 -1.07073974609375
2136865625.0 -1.44525146484375 -0.3045654296875
2168087500.0 -1.35528564453125 0.669921875
2199309375.0 -0.6383056640625 1.34918212890625
2230531250.0 0.28118896484375 1.43408203125
2261753125.0 1.070556640625 1.012451171875
2292975000.0 1.5123291015625 0.1700439453125
2324196875.0 1.30364990234375 -0.8173828125
2355418750.0 0.524658203125 -1.417724609375
2386640625.0 -0.4039306640625 -1.44720458984375
2417862500.0 -1.17840576171875 -1.022705078125
2449084375.0 -1.601806640625 -0.0845947265625
2480306250.0 -1.30963134765625 0.9241943359375
2511528125.0 -0.49346923828125 1.50482177734375
2542750000.0 0.4876708984375 1.5340576171875
2573971875.0 1.36822509765625 0.96673583984375
2605193750.0 1.713134765625 -0.11102294921875
2636415625.0 1.259033203125 -1.148681640625
2667637500.0 0.30657958984375 -1.66351318359375
2698859375.0 -0.768798828125 -1.531982421875
2730081250.0 -1.57012939453125 -0.73956298828125
2761303125.0 -1.67877197265625 0.388427734375
2792525000.0 -1.09796142578125 1.3050537109375
2823746875.0 -0.10357666015625 1.72564697265625
2854968750.0 1.0101318359375 1.4525146484375
2886190625.0 1.687744140625 0.4915771484375
2917412500.0 1.59619140625 -0.61541748046875
2948634375.0 0.938232421875 -1.4290771484375
2979856250.0 -0.1065673828125 -1.77191162109375
3011078125.0 -1.245361328125 -1.34063720703125
3042300000.0 -1.77154541015625 -0.2347412109375
3073521875.0 -1.50592041015625 0.835205078125
3104743750.0 -0.76171875 1.56536865234375
3135965625.0 0.360595703125 1.80572509765625
3167187500.0 1.49456787109375 1.1617431640625
3198409375.0 1.81231689453125 -0.074951171875
3229631250.0 1.346435546875 -1.07818603515625
3260853125.0 0.488525390625 -1.66644287109375
3292075000.0 -0.65216064453125 -1.69378662109375
3323296875.0 -1.61614990234375 -0.87799072265625
3354518750.0 -1.726806640625 0.32708740234375
3385740625.0 -1.154052734375 1.22991943359375
3416962500.0 -0.231201171875 1.67901611328125
3448184375.0 0.85791015625 1.51873779296875
3479406250.0 1.6326904296875 0.6429443359375
3510628125.0 1.64068603515625 -0.493408203125
3541850000.0 0.998779296875 -1.35174560546875
3573071875.0 -0.00762939453125 -1.67901611328125
3604293750.0 -1.025390625 -1.33489990234375
3635515625.0 -1.623779296875 -0.43817138671875
3666737500.0 -1.55853271484375 0.644775390625
3697959375.0 -0.82415771484375 1.47271728515625
3729181250.0 0.2677001953125 1.62823486328125
3760403125.0 1.1505126953125 1.0960693359375
3791625000.0 1.548828125 0.2183837890625
3822846875.0 1.3990478515625 -0.75811767578125
3854068750.0 0.619140625 -1.47808837890625
3885290625.0 -0.4190673828125 -1.47772216796875
3916512500.0 -1.13995361328125 -0.9097900390625
3947734375.0 -1.44482421875 -0.1195068359375
3978956250.0 -1.29449462890625 0.77630615234375
4010178125.0 -0.53106689453125 1.4512939453125
4041400000.0 0.47174072265625 1.41265869140625
4072621875.0 1.14947509765625 0.84674072265625
4103843750.0 1.44256591796875 0.0631103515625
4135065625.0 1.26605224609375 -0.84344482421875
4166287500.0 0.457275390625 -1.49365234375
4197509375.0 -0.554443359375 -1.4119873046875
4228731250.0 -1.2445068359375 -0.80169677734375
4259953125.0 -1.50689697265625 0.0709228515625
4291175000.0 -1.1864013671875 1.0081787109375
4322396875.0 -0.28955078125 1.52294921875
4353618750.0 0.6705322265625 1.347412109375
4384840625.0 1.3182373046875 0.69720458984375
4416062500.0 1.4979248046875 -0.22662353515625
4447284375.0 1.05340576171875 -1.1011962890625
4478506250.0 0.1727294921875 -1.492431640625
4509728125.0 -0.73028564453125 -1.30523681640625
4540950000.0 -1.39013671875 -0.63592529296875
4572171875.0 -1.5203857421875 0.3590087890625
4603393750.0 -0.9715576171875 1.21002197265625
4634615625.0 -0.0618896484375 1.53369140625
4665837500.0 0.86834716796875 1.30194091796875
4697059375.0 1.5380859375 0.5150146484375
4728281250.0 1.52642822265625 -0.5799560546875
4759503125.0 0.822021484375 -1.36566162109375
4790725000.0 -0.1453857421875 -1.5701904296875
4821946875.0 -1.08245849609375 -1.19256591796875
4853168750.0 -1.61004638671875 -0.251220703125
4884390625.0 -1.37615966796875 0.79205322265625
4915612500.0 -0.61248779296875 1.4110107421875
4946834375.0 0.32757568359375 1.5072021484375
4978056250.0 1.20355224609375 1.015625
5009278125.0 1.55889892578125 0.04052734375
5040500000.0 1.22760009765625 -0.8734130859375
5071721875.0 0.5013427734375 -1.41204833984375
5102943750.0 -0.44586181640625 -1.4951171875
5134165625.0 -1.33251953125 -0.904296875
5165387500.0 -1.56634521484375 0.14593505859375
5196609375.0 -1.13427734375 1.00714111328125
5227831250.0 -0.35675048828125 1.50482177734375
5259053125.0 0.6854248046875 1.48931884765625
5290275000.0 1.51953125 0.6622314453125
5321496875.0 1.489501953125 -0.42901611328125
5352718750.0 0.91961669921875 -1.15167236328125
5383940625.0 0.09722900390625 -1.49737548828125
5415162500.0 -0.89794921875 -1.2822265625
5446384375.0 -1.48101806640625 -0.37054443359375
5477606250.0 -1.29718017578125 0.56524658203125
5508828125.0 -0.73040771484375 1.1495361328125
5540050000.0 0.05340576171875 1.3961181640625
5571271875.0 0.9364013671875 1.10748291015625
5602493750.0 1.406005859375 0.259765625
5633715625.0 1.230712890625 -0.61187744140625
5664937500.0 0.64678955078125 -1.20050048828125
5696159375.0 -0.19635009765625 -1.38128662109375
5727381250.0 -1.0196533203125 -0.97747802734375
5758603125.0 -1.38934326171875 -0.14459228515625
5789825000.0 -1.1925048828125 0.71649169921875
5821046875.0 -0.50640869140625 1.30413818359375
5852268750.0 0.41058349609375 1.31121826171875
5883490625.0 1.06866455078125 0.77117919921875
5914712500.0 1.30133056640625 0.019775390625
5945934375.0 1.09478759765625 -0.7734375
5977156250.0 0.361083984375 -1.309326171875
6008378125.0 -0.50775146484375 -1.180419921875
6039600000.0 -1.01947021484375 -0.6483154296875
6070821875.0 -1.22259521484375 -0.00445556640625
6102043750.0 -1.08197021484375 0.761474609375
6133265625.0 -0.3428955078125 1.34173583984375
6164487500.0 0.561767578125 1.1856689453125
6195709375.0 1.06939697265625 0.62890625
6226931250.0 1.27783203125 -0.04180908203125
6258153125.0 1.1024169921875 -0.869140625
6289375000.0 0.255615234375 -1.44476318359375
6320596875.0 -0.6884765625 -1.20501708984375
6351818750.0 -1.19873046875 -0.571533203125
6383040625.0 -1.35235595703125 0.2056884765625
6414262500.0 -0.9991455078125 1.0552978515625
6445484375.0 -0.0784912109375 1.45526123046875
6476706250.0 0.79364013671875 1.146484375
6507928125.0 1.288818359375 0.46954345703125
6539150000.0 1.3447265625 -0.38446044921875
6570371875.0 0.84039306640625 -1.1412353515625
6601593750.0 -0.01617431640625 -1.4027099609375
6632815625.0 -0.8377685546875 -1.13519287109375
6664037500.0 -1.3994140625 -0.41998291015625
6695259375.0 -1.3720703125 0.5650634765625
6726481250.0 -0.70977783203125 1.2496337890625
6757703125.0 0.1302490234375 1.40478515625
6788925000.0 0.95428466796875 1.1295166015625
6820146875.0 1.55841064453125 0.287841796875
6851368750.0 1.32427978515625 -0.8182373046875
6882590625.0 0.50653076171875 -1.33624267578125
6913812500.0 -0.291259765625 -1.35418701171875
6945034375.0 -1.0670166015625 -1.0203857421875
6976256250.0 -1.5899658203125 -0.09405517578125
7007478125.0 -1.23486328125 0.92974853515625
7038700000.0 -0.4027099609375 1.33843994140625
7069921875.0 0.35687255859375 1.32061767578125
7101143750.0 1.11663818359375 0.96697998046875
7132365625.0 1.59619140625 0.014892578125
7163587500.0 1.15704345703125 -1.02020263671875
7194809375.0 0.30255126953125 -1.395263671875
7226031250.0 -0.50958251953125 -1.32257080078125
7257253125.0 -1.26446533203125 -0.82318115234375
7288475000.0 -1.55523681640625 0.19744873046875
7319696875.0 -1.02960205078125 1.10711669921875
7350918750.0 -0.16363525390625 1.44317626953125
7382140625.0 0.71295166015625 1.27508544921875
7413362500.0 1.37420654296875 0.5758056640625
7444584375.0 1.40972900390625 -0.4044189453125
7475806250.0 0.85638427734375 -1.14312744140625
7507028125.0 0.00469970703125 -1.4283447265625
7538250000.0 -0.884521484375 -1.12310791015625
7569471875.0 -1.33319091796875 -0.31195068359375
7600693750.0 -1.20037841796875 0.4947509765625
7631915625.0 -0.71795654296875 1.0836181640625
7663137500.0 0.08038330078125 1.35693359375
7694359375.0 0.937744140625 0.980072021484375
7725581250.0 1.24151611328125 0.18048095703125
7756803125.0 1.08123779296875 -0.49755859375
7788025000.0 0.66961669921875 -1.04180908203125
7819246875.0 -0.11932373046875 -1.345458984375
7850468750.0 -0.991851806640625 -0.915924072265625
7881690625.0 -1.23138427734375 -0.10467529296875
7912912500.0 -1.053466796875 0.55267333984375
7944134375.0 -0.60498046875 1.11273193359375
7975356250.0 0.26953125 1.33221435546875
8006578125.0 1.04498291015625 0.7783203125
8037800000.0 1.1907958984375 0.01788330078125
8069021875.0 1.00537109375 -0.615966796875
8100243750.0 0.49993896484375 -1.16064453125
8131465625.0 -0.385986328125 -1.25390625
8162687500.0 -1.031005859375 -0.68560791015625
8193909375.0 -1.17974853515625 0.0087890625
8225131250.0 -1.01776123046875 0.68017578125
8256353125.0 -0.42120361328125 1.2476806640625
8287575000.0 0.49847412109375 1.22412109375
8318796875.0 1.0797119140625 0.63494873046875
8350018750.0 1.24298095703125 -0.0750732421875
8381240625.0 1.0296630859375 -0.837890625
8412462500.0 0.25518798828125 -1.37066650390625
8443684375.0 -0.667236328125 -1.1685791015625
8474906250.0 -1.1737060546875 -0.53179931640625
8506128125.0 -1.29638671875 0.23577880859375
8537350000.0 -0.9234619140625 1.045166015625
8568571875.0 -0.01519775390625 1.3935546875
8599793750.0 0.80072021484375 1.052001953125
8631015625.0 1.24029541015625 0.39794921875
8662237500.0 1.284423828125 -0.42706298828125
8693459375.0 0.73516845703125 -1.17669677734375
8724681250.0 -0.162353515625 -1.33074951171875
8755903125.0 -0.877166748046875 -0.957122802734375
8787125000.0 -1.30126953125 -0.28302001953125
8818346875.0 -1.24908447265625 0.61376953125
8849568750.0 -0.5560302734375 1.25885009765625
8880790625.0 0.29827880859375 1.28466796875
8912012500.0 0.978851318359375 0.891693115234375
8943234375.0 1.3985595703125 0.12860107421875
8974456250.0 1.16497802734375 -0.83770751953125
9005678125.0 0.34967041015625 -1.31024169921875
9036900000.0 -0.44512939453125 -1.223876953125
9068121875.0 -1.09881591796875 -0.78497314453125
9099343750.0 -1.43896484375 0.0966796875
9130565625.0 -0.97967529296875 1.0106201171875
9161787500.0 -0.1553955078125 1.28057861328125
9193009375.0 0.55548095703125 1.13287353515625
9224231250.0 1.17724609375 0.6553955078125
9255453125.0 1.3995361328125 -0.29534912109375
9286675000.0 0.806640625 -1.08319091796875
9317896875.0 0.02685546875 -1.2447509765625
9349118750.0 -0.65301513671875 -1.06829833984375
9380340625.0 -1.255615234375 -0.5091552734375
9411562500.0 -1.31072998046875 0.4755859375
9442784375.0 -0.64697265625 1.1156005859375
9474006250.0 0.08782958984375 1.20965576171875
9505228125.0 0.763580322265625 0.980255126953125
9536450000.0 1.27154541015625 0.3143310546875
9567671875.0 1.14251708984375 -0.5777587890625
9598893750.0 0.5294189453125 -1.06646728515625
9630115625.0 -0.1427001953125 -1.15576171875
9661337500.0 -0.817230224609375 -0.90155029296875
9692559375.0 -1.23773193359375 -0.18988037109375
9723781250.0 -1.0421142578125 0.60113525390625
9755003125.0 -0.48541259765625 1.04864501953125
9786225000.0 0.19940185546875 1.15802001953125
9817446875.0 0.895172119140625 0.82708740234375
9848668750.0 1.19671630859375 0.07818603515625
9879890625.0 0.967987060546875 -0.615753173828125
9911112500.0 0.45233154296875 -1.049560546875
9942334375.0 -0.2672119140625 -1.158203125
9973556250.0 -0.940826416015625 -0.73748779296875
10004778125.0 -1.1458740234375 -0.01812744140625
10036000000.0 -0.943695068359375 0.61358642578125
10067221875.0 -0.4425048828125 1.0946044921875
10098443750.0 0.36846923828125 1.1793212890625
10129665625.0 1.0018310546875 0.641845703125
10160887500.0 1.11883544921875 -0.05120849609375
10192109375.0 0.917205810546875 -0.66253662109375
10223331250.0 0.36151123046875 -1.15234375
10254553125.0 -0.485595703125 -1.11224365234375
10285775000.0 -0.98583984375 -0.5350341796875
10316996875.0 -1.0662841796875 0.074951171875
10348218750.0 -0.8992919921875 0.6690673828125
10379440625.0 -0.323486328125 1.17388916015625
10410662500.0 0.5267333984375 1.08544921875
10441884375.0 0.9913330078125 0.5206298828125
10473106250.0 1.1092529296875 -0.0853271484375
10504328125.0 0.948760986328125 -0.7564697265625
10535550000.0 0.24151611328125 -1.29248046875
10566771875.0 -0.6558837890625 -1.076416015625
10597993750.0 -1.08074951171875 -0.45892333984375
10629215625.0 -1.17413330078125 0.2054443359375
10660437500.0 -0.888092041015625 0.9515380859375
10691659375.0 -0.0096435546875 1.33404541015625
10722881250.0 0.782958984375 0.951934814453125
10754103125.0 1.117431640625 0.3245849609375
10785325000.0 1.13818359375 -0.366455078125
10816546875.0 0.70086669921875 -1.04766845703125
10847768750.0 -0.14385986328125 -1.228515625
10878990625.0 -0.8037109375 -0.8433837890625
10910212500.0 -1.1199951171875 -0.24755859375
10941434375.0 -1.09600830078125 0.4744873046875
10972656250.0 -0.56768798828125 1.08416748046875
11003878125.0 0.2152099609375 1.1729736328125
11035100000.0 0.84759521484375 0.82135009765625
11066321875.0 1.219970703125 0.173583984375
11097543750.0 1.09686279296875 -0.67584228515625
11128765625.0 0.3848876953125 -1.19842529296875
11159987500.0 -0.39544677734375 -1.13861083984375
11191209375.0 -0.998382568359375 -0.7030029296875
11222431250.0 -1.2698974609375 0.09228515625
11253653125.0 -0.859130859375 0.892303466796875
11284875000.0 -0.1143798828125 1.1263427734375
11316096875.0 0.510650634765625 0.955841064453125
11347318750.0 1.001220703125 0.50152587890625
11378540625.0 1.11456298828125 -0.26629638671875
11409762500.0 0.63507080078125 -0.858673095703125
11440984375.0 0.036163330078125 -0.9769287109375
11472206250.0 -0.4798583984375 -0.849609375
11503428125.0 -0.95074462890625 -0.4561767578125
11534650000.0 -1.06805419921875 0.2867431640625
11565871875.0 -0.60211181640625 0.853302001953125
11597093750.0 -0.0189208984375 0.991119384765625
11628315625.0 0.54150390625 0.874176025390625
11659537500.0 1.06036376953125 0.391357421875
11690759375.0 1.064453125 -0.43353271484375
11721981250.0 0.51690673828125 -0.939849853515625
11753203125.0 -0.1053466796875 -1.0350341796875
11784425000.0 -0.72357177734375 -0.80755615234375
11815646875.0 -1.0989990234375 -0.15240478515625
11846868750.0 -0.890594482421875 0.550018310546875
11878090625.0 -0.391326904296875 0.907135009765625
11909312500.0 0.18585205078125 0.9832763671875
11940534375.0 0.779022216796875 0.69482421875
11971756250.0 1.0240478515625 0.04022216796875
12002978125.0 0.8055419921875 -0.536895751953125
12034200000.0 0.3828125 -0.88726806640625
12065421875.0 -0.2147216796875 -1.0093994140625
12096643750.0 -0.847503662109375 -0.66522216796875
12127865625.0 -1.0328369140625 0.01568603515625
12159087500.0 -0.81536865234375 0.574920654296875
12190309375.0 -0.37786865234375 0.97406005859375
12221531250.0 0.33660888671875 1.0870361328125
12252753125.0 0.9793701171875 0.580780029296875
12283975000.0 1.05328369140625 -0.1265869140625
12315196875.0 0.79974365234375 -0.675567626953125
12346418750.0 0.28082275390625 -1.08892822265625
12377640625.0 -0.53546142578125 -1.06085205078125
12408862500.0 -1.03448486328125 -0.4190673828125
12440084375.0 -1.00689697265625 0.223388671875
12471306250.0 -0.741546630859375 0.736541748046875
12502528125.0 -0.1802978515625 1.11822509765625
12533750000.0 0.61944580078125 0.9940185546875
12564971875.0 1.04150390625 0.363525390625
12596193750.0 1.02752685546875 -0.262451171875
12627415625.0 0.74713134765625 -0.825439453125
12658637500.0 0.07916259765625 -1.206787109375
12689859375.0 -0.735565185546875 -0.96563720703125
12721081250.0 -1.11578369140625 -0.30682373046875
12752303125.0 -1.095458984375 0.38116455078125
12783525000.0 -0.68731689453125 1.025146484375
12814746875.0 0.16357421875 1.24908447265625
12845968750.0 0.862030029296875 0.80987548828125
12877190625.0 1.117431640625 0.1708984375
12908412500.0 1.054443359375 -0.50079345703125
12939634375.0 0.54364013671875 -1.11602783203125
12970856250.0 -0.31719970703125 -1.17547607421875
13002078125.0 -0.892669677734375 -0.69415283203125
13033300000.0 -1.10333251953125 -0.08770751953125
13064521875.0 -1.0079345703125 0.5908203125
13095743750.0 -0.4208984375 1.15380859375
13126965625.0 0.408203125 1.11871337890625
13158187500.0 0.946136474609375 0.631317138671875
13189409375.0 1.14654541015625 -0.01898193359375
13220631250.0 0.935546875 -0.746978759765625
13251853125.0 0.2333984375 -1.17071533203125
13283075000.0 -0.504150390625 -1.01751708984375
13314296875.0 -0.98797607421875 -0.5291748046875
13345518750.0 -1.13372802734375 0.1767578125
13376740625.0 -0.75225830078125 0.85430908203125
