!Created with skrf (http://scikit-rf.org).
# Hz S RI R 50.0 
!freq ReS11 ImS11
45000000.0 -0.07681655883789062 -0.09704971313476562
76221875.0 -0.19669342041015625 -0.04785919189453125
107443750.0 -0.2556610107421875 0.1194915771484375
138665625.0 -0.149017333984375 0.3291015625
169887500.0 0.1230010986328125 0.41864013671875
201109375.0 0.4221343994140625 0.2824249267578125
232331250.0 0.580230712890625 -0.05633544921875
263553125.0 0.4913177490234375 -0.452789306640625
294775000.0 0.10015869140625 -0.733795166015625
325996875.0 -0.415008544921875 -0.68328857421875
357218750.0 -0.80767822265625 -0.29962158203125
388440625.0 -0.888458251953125 0.299713134765625
419662500.0 -0.520233154296875 0.8675537109375
450884375.0 0.171142578125 1.03179931640625
482106250.0 0.79876708984375 0.71612548828125
513328125.0 1.12164306640625 0.089599609375
544550000.0 1.0069580078125 -0.67938232421875
575771875.0 0.339599609375 -1.2396240234375
606993750.0 -0.55218505859375 -1.18084716796875
638215625.0 -1.1671142578125 -0.5941162109375
669437500.0 -1.3428955078125 0.23175048828125
700659375.0 -0.97454833984375 1.0963134765625
731881250.0 -0.007080078125 1.545654296875
763103125.0 1.00537109375 1.16046142578125
794325000.0 1.47119140625 0.28533935546875
825546875.0 1.37127685546875 -0.65032958984375
856768750.0 0.7984619140625 -1.40240478515625
887990625.0 -0.29022216796875 -1.65203857421875
919212500.0 -1.2891845703125 -1.08355712890625
950434375.0 -1.65252685546875 -0.0616455078125
981656250.0 -1.38751220703125 0.9461669921875
1012878125.0 -0.53387451171875 1.674560546875
1044100000.0 0.69561767578125 1.6676025390625
1075321875.0 1.57672119140625 0.8170166015625
1106543750.0 1.70928955078125 -0.3106689453125
1137765625.0 1.19183349609375 -1.2852783203125
1168987500.0 0.142333984375 -1.80133056640625
1200209375.0 -1.0615234375 -1.4891357421875
1231431250.0 -1.730712890625 -0.45745849609375
1262653125.0 -1.59869384765625 0.6837158203125
1293875000.0 -0.8565673828125 1.4931640625
1325096875.0 0.22515869140625 1.7110595703125
1356318750.0 1.235595703125 1.22174072265625
1387540625.0 1.74322509765625 0.1927490234375
1418762500.0 1.47406005859375 -0.95062255859375
1449984375.0 0.53369140625 -1.628173828125
1481206250.0 -0.548095703125 -1.5601806640625
1512428125.0 -1.34295654296875 -0.923828125
1543650000.0 -1.6588134765625 0.06317138671875
1574871875.0 -1.27777099609375 1.10931396484375
1606093750.0 -0.2762451171875 1.63421630859375
1637315625.0 0.740966796875 1.404296875
1668537500.0 1.39776611328125 0.699462890625
1699759375.0 1.5767822265625 -0.2750244140625
1730981250.0 1.06805419921875 -1.22979736328125
1762203125.0 0.0450439453125 -1.573486328125
1793425000.0 -0.85601806640625 -1.23028564453125
1824646875.0 -1.3958740234375 -0.51806640625
1855868750.0 -1.477783203125 0.43084716796875
1887090625.0 -0.87890625 1.2869873046875
1918312500.0 0.11529541015625 1.4901123046875
1949534375.0 0.92193603515625 1.09228515625
1980756250.0 1.37646484375 0.37298583984375
2011978125.0 1.36334228515625 -0.530517578125
2043200000.0 0.75360107421875 -1.26275634765625
2074421875.0 -0.15509033203125 -1.436279296875
2105643750.0 -0.96075439453125 -1.07574462890625
2136865625.0 -1.44940185546875 -0.307861328125
2168087500.0 -1.3604736328125 0.67041015625
2199309375.0 -0.6422119140625 1.35308837890625
2230531250.0 0.28033447265625 1.43939208984375
2261753125.0 1.0731201171875 1.01739501953125
2292975000.0 1.51666259765625 0.17279052734375
2324196875.0 1.30902099609375 -0.81842041015625
2355418750.0 0.52789306640625 -1.422119140625
2386640625.0 -0.4034423828125 -1.451904296875
2417862500.0 -1.18255615234375 -1.02789306640625
2449084375.0 -1.60723876953125 -0.08636474609375
2480306250.0 -1.31536865234375 0.92645263671875
2511528125.0 -0.49713134765625 1.50994873046875
2542750000.0 0.4884033203125 1.54052734375
2573971875.0 1.37347412109375 0.97125244140625
2605193750.0 1.7203369140625 -0.1103515625
2636415625.0 1.2655029296875 -1.15240478515625
2667637500.0 0.3084716796875 -1.6708984375
2698859375.0 -0.76904296875 -1.538818359375
2730081250.0 -1.57489013671875 -0.74444580078125
2761303125.0 -1.684326171875 0.3856201171875
2792525000.0 -1.10333251953125 1.31024169921875
2823746875.0 -0.10430908203125 1.7330322265625
2854968750.0 1.01251220703125 1.4599609375
2886190625.0 1.6944580078125 0.4947509765625
2917412500.0 1.60443115234375 -0.61834716796875
2948634375.0 0.9432373046875 -1.43499755859375
2979856250.0 -0.10626220703125 -1.7799072265625
3011078125.0 -1.24853515625 -1.34649658203125
3042300000.0 -1.7784423828125 -0.23675537109375
3073521875.0 -1.51275634765625 0.83892822265625
3104743750.0 -0.76641845703125 1.5704345703125
3135965625.0 0.3602294921875 1.81268310546875
3167187500.0 1.5008544921875 1.16839599609375
3198409375.0 1.819580078125 -0.07366943359375
3229631250.0 1.35321044921875 -1.0828857421875
3260853125.0 0.49267578125 -1.670166015625
3292075000.0 -0.65447998046875 -1.7021484375
3323296875.0 -1.6221923828125 -0.8831787109375
3354518750.0 -1.734375 0.3272705078125
3385740625.0 -1.159912109375 1.23297119140625
3416962500.0 -0.2340087890625 1.68426513671875
3448184375.0 0.86041259765625 1.52545166015625
3479406250.0 1.638427734375 0.6470947265625
3510628125.0 1.64813232421875 -0.49420166015625
3541850000.0 1.00341796875 -1.35601806640625
3573071875.0 -0.005615234375 -1.6851806640625
3604293750.0 -1.02862548828125 -1.34075927734375
3635515625.0 -1.63043212890625 -0.44049072265625
3666737500.0 -1.5650634765625 0.6456298828125
3697959375.0 -0.8277587890625 1.477783203125
3729181250.0 0.2672119140625 1.63409423828125
3760403125.0 1.15240478515625 1.10150146484375
3791625000.0 1.55487060546875 0.2205810546875
3822846875.0 1.4056396484375 -0.76092529296875
3854068750.0 0.62353515625 -1.48370361328125
3885290625.0 -0.419921875 -1.48419189453125
3916512500.0 -1.142822265625 -0.91412353515625
3947734375.0 -1.44970703125 -0.12164306640625
3978956250.0 -1.30126953125 0.78076171875
4010178125.0 -0.5330810546875 1.45751953125
4041400000.0 0.4742431640625 1.41845703125
4072621875.0 1.1539306640625 0.849853515625
4103843750.0 1.44732666015625 0.06378173828125
4135065625.0 1.27008056640625 -0.84552001953125
4166287500.0 0.459228515625 -1.49798583984375
4197509375.0 -0.55755615234375 -1.41754150390625
4228731250.0 -1.2496337890625 -0.8040771484375
4259953125.0 -1.511474609375 0.06988525390625
4291175000.0 -1.19073486328125 1.01116943359375
4322396875.0 -0.29144287109375 1.52783203125
4353618750.0 0.67315673828125 1.3531494140625
4384840625.0 1.324951171875 0.6993408203125
4416062500.0 1.50347900390625 -0.22705078125
4447284375.0 1.0579833984375 -1.1053466796875
4478506250.0 0.17333984375 -1.49871826171875
4509728125.0 -0.7337646484375 -1.3104248046875
4540950000.0 -1.39697265625 -0.63763427734375
4572171875.0 -1.5250244140625 0.36065673828125
4603393750.0 -0.97412109375 1.2147216796875
4634615625.0 -0.06201171875 1.53924560546875
4665837500.0 0.8709716796875 1.30670166015625
4697059375.0 1.54461669921875 0.516357421875
4728281250.0 1.53167724609375 -0.583251953125
4759503125.0 0.82476806640625 -1.36962890625
4790725000.0 -0.1444091796875 -1.57464599609375
4821946875.0 -1.08319091796875 -1.1964111328125
4853168750.0 -1.61553955078125 -0.25238037109375
4884390625.0 -1.38104248046875 0.79345703125
4915612500.0 -0.615234375 1.4146728515625
4946834375.0 0.32916259765625 1.5128173828125
4978056250.0 1.2076416015625 1.01953125
5009278125.0 1.56488037109375 0.04046630859375
5040500000.0 1.2318115234375 -0.87701416015625
5071721875.0 0.50323486328125 -1.417724609375
5102943750.0 -0.44720458984375 -1.49981689453125
5134165625.0 -1.3392333984375 -0.9075927734375
5165387500.0 -1.57061767578125 0.1463623046875
5196609375.0 -1.13818359375 1.0115966796875
5227831250.0 -0.358642578125 1.50921630859375
5259053125.0 0.6898193359375 1.49493408203125
5290275000.0 1.52490234375 0.66387939453125
5321496875.0 1.4949951171875 -0.43255615234375
5352718750.0 0.92279052734375 -1.1546630859375
5383940625.0 0.0975341796875 -1.50274658203125
5415162500.0 -0.9012451171875 -1.286865234375
5446384375.0 -1.48712158203125 -0.3717041015625
5477606250.0 -1.30181884765625 0.5675048828125
5508828125.0 -0.73291015625 1.1536865234375
5540050000.0 0.0538330078125 1.40234375
5571271875.0 0.94097900390625 1.111328125
5602493750.0 1.41107177734375 0.26068115234375
5633715625.0 1.23468017578125 -0.61383056640625
5664937500.0 0.64923095703125 -1.20404052734375
5696159375.0 -0.19720458984375 -1.386474609375
5727381250.0 -1.02490234375 -0.97955322265625
5758603125.0 -1.3941650390625 -0.1451416015625
5789825000.0 -1.19635009765625 0.71978759765625
5821046875.0 -0.50628662109375 1.31060791015625
5852268750.0 0.41192626953125 1.3145751953125
5883490625.0 1.0728759765625 0.773193359375
5914712500.0 1.3045654296875 0.02032470703125
5945934375.0 1.09820556640625 -0.7777099609375
5977156250.0 0.36163330078125 -1.31494140625
6008378125.0 -0.5106201171875 -1.1839599609375
6039600000.0 -1.02392578125 -0.65008544921875
6070821875.0 -1.22662353515625 -0.0042724609375
6102043750.0 -1.08544921875 0.7650146484375
6133265625.0 -0.34130859375 1.34808349609375
6164487500.0 0.565185546875 1.1895751953125
6195709375.0 1.07257080078125 0.630859375
6226931250.0 1.28271484375 -0.043701171875
6258153125.0 1.10687255859375 -0.87457275390625
6289375000.0 0.25555419921875 -1.448974609375
6320596875.0 -0.69171142578125 -1.20751953125
6351818750.0 -1.2025146484375 -0.5721435546875
6383040625.0 -1.3565673828125 0.20745849609375
6414262500.0 -1.0010986328125 1.06048583984375
6445484375.0 -0.07733154296875 1.459716796875
6476706250.0 0.79718017578125 1.14935302734375
6507928125.0 1.29315185546875 0.4697265625
6539150000.0 1.34979248046875 -0.3873291015625
6570371875.0 0.84228515625 -1.146484375
6601593750.0 -0.01806640625 -1.4078369140625
6632815625.0 -0.8414306640625 -1.13824462890625
6664037500.0 -1.4049072265625 -0.4197998046875
6695259375.0 -1.375732421875 0.56854248046875
6726481250.0 -0.71112060546875 1.25390625
6757703125.0 0.13214111328125 1.410400390625
6788925000.0 0.95855712890625 1.13330078125
6820146875.0 1.5633544921875 0.28729248046875
6851368750.0 1.32720947265625 -0.82305908203125
6882590625.0 0.50628662109375 -1.34124755859375
6913812500.0 -0.2939453125 -1.358642578125
6945034375.0 -1.07305908203125 -1.02301025390625
6976256250.0 -1.5958251953125 -0.0921630859375
7007478125.0 -1.238037109375 0.934814453125
7038700000.0 -0.40277099609375 1.34576416015625
7069921875.0 0.359375 1.3270263671875
7101143750.0 1.12249755859375 0.970947265625
7132365625.0 1.605224609375 0.0118408203125
7163587500.0 1.159912109375 -1.02239990234375
7194809375.0 0.30224609375 -1.40142822265625
7226031250.0 -0.51373291015625 -1.32843017578125
7257253125.0 -1.27227783203125 -0.82464599609375
7288475000.0 -1.56182861328125 0.2010498046875
7319696875.0 -1.0306396484375 1.11260986328125
7350918750.0 -0.1650390625 1.4471435546875
7382140625.0 0.7188720703125 1.2794189453125
7413362500.0 1.3817138671875 0.57611083984375
7444584375.0 1.41455078125 -0.40838623046875
7475806250.0 0.85888671875 -1.14752197265625
7507028125.0 0.00537109375 -1.43316650390625
7538250000.0 -0.8900146484375 -1.12481689453125
7569471875.0 -1.33905029296875 -0.3115234375
7600693750.0 -1.2041015625 0.4981689453125
7631915625.0 -0.7193603515625 1.08746337890625
7663137500.0 0.08135986328125 1.3621826171875
7694359375.0 0.942657470703125 0.984039306640625
7725581250.0 1.248046875 0.1806640625
7756803125.0 1.085693359375 -0.5015869140625
7788025000.0 0.6722412109375 -1.04571533203125
7819246875.0 -0.123046875 -1.3511962890625
7850468750.0 -0.99542236328125 -0.918304443359375
7881690625.0 -1.23388671875 -0.104248046875
7912912500.0 -1.05657958984375 0.5582275390625
7944134375.0 -0.60504150390625 1.11822509765625
7975356250.0 0.27520751953125 1.3387451171875
8006578125.0 1.04931640625 0.77886962890625
8037800000.0 1.19598388671875 0.01605224609375
8069021875.0 1.00830078125 -0.61846923828125
8100243750.0 0.4991455078125 -1.16571044921875
8131465625.0 -0.39019775390625 -1.25537109375
8162687500.0 -1.03314208984375 -0.6871337890625
8193909375.0 -1.18408203125 0.009521484375
8225131250.0 -1.0206298828125 0.68328857421875
8256353125.0 -0.4208984375 1.25372314453125
8287575000.0 0.50274658203125 1.22918701171875
8318796875.0 1.08319091796875 0.636474609375
8350018750.0 1.248291015625 -0.075927734375
8381240625.0 1.0338134765625 -0.84320068359375
8412462500.0 0.25396728515625 -1.3775634765625
8443684375.0 -0.673583984375 -1.17236328125
8474906250.0 -1.1785888671875 -0.53204345703125
8506128125.0 -1.30084228515625 0.2381591796875
8537350000.0 -0.9249267578125 1.049560546875
8568571875.0 -0.0137939453125 1.3980712890625
8599793750.0 0.80511474609375 1.05517578125
8631015625.0 1.24346923828125 0.39886474609375
8662237500.0 1.2877197265625 -0.430908203125
8693459375.0 0.73699951171875 -1.1820068359375
8724681250.0 -0.162353515625 -1.3345947265625
8755903125.0 -0.88165283203125 -0.95928955078125
8787125000.0 -1.30731201171875 -0.28240966796875
8818346875.0 -1.254638671875 0.61907958984375
8849568750.0 -0.556396484375 1.2652587890625
8880790625.0 0.30059814453125 1.28875732421875
8912012500.0 0.9847412109375 0.894683837890625
8943234375.0 1.40423583984375 0.1263427734375
8974456250.0 1.1668701171875 -0.84210205078125
9005678125.0 0.34698486328125 -1.31610107421875
9036900000.0 -0.44708251953125 -1.22735595703125
9068121875.0 -1.10369873046875 -0.78607177734375
9099343750.0 -1.4443359375 0.10235595703125
9130565625.0 -0.98052978515625 1.0159912109375
9161787500.0 -0.15301513671875 1.28662109375
9193009375.0 0.55828857421875 1.13580322265625
9224231250.0 1.18341064453125 0.65716552734375
9255453125.0 1.40484619140625 -0.2999267578125
9286675000.0 0.8074951171875 -1.08837890625
9317896875.0 0.02569580078125 -1.2493896484375
9349118750.0 -0.65802001953125 -1.0723876953125
9380340625.0 -1.26263427734375 -0.5093994140625
9411562500.0 -1.31341552734375 0.47967529296875
9442784375.0 -0.647216796875 1.12017822265625
9474006250.0 0.08880615234375 1.2127685546875
9505228125.0 0.768341064453125 0.982391357421875
9536450000.0 1.2772216796875 0.31243896484375
9567671875.0 1.145263671875 -0.58367919921875
9598893750.0 0.52850341796875 -1.07177734375
9630115625.0 -0.1458740234375 -1.15997314453125
9661337500.0 -0.823760986328125 -0.902587890625
9692559375.0 -1.242431640625 -0.1868896484375
9723781250.0 -1.04473876953125 0.6065673828125
9755003125.0 -0.4859619140625 1.0521240234375
9786225000.0 0.20172119140625 1.16314697265625
9817446875.0 0.89959716796875 0.828369140625
9848668750.0 1.19964599609375 0.07684326171875
9879890625.0 0.969451904296875 -0.61859130859375
9911112500.0 0.45220947265625 -1.0548095703125
9942334375.0 -0.2708740234375 -1.163818359375
9973556250.0 -0.94635009765625 -0.73779296875
10004778125.0 -1.1505126953125 -0.01385498046875
10036000000.0 -0.946319580078125 0.61993408203125
10067221875.0 -0.44061279296875 1.101318359375
10098443750.0 0.37353515625 1.18359375
10129665625.0 1.007080078125 0.6422119140625
10160887500.0 1.12139892578125 -0.05517578125
10192109375.0 0.918121337890625 -0.66650390625
10223331250.0 0.35919189453125 -1.15850830078125
10254553125.0 -0.4901123046875 -1.11492919921875
10285775000.0 -0.98699951171875 -0.534332275390625
10316996875.0 -1.06817626953125 0.07763671875
10348218750.0 -0.901153564453125 0.673248291015625
10379440625.0 -0.32000732421875 1.1790771484375
10410662500.0 0.5301513671875 1.08673095703125
10441884375.0 0.9964599609375 0.5211181640625
10473106250.0 1.111328125 -0.08544921875
10504328125.0 0.950653076171875 -0.760772705078125
10535550000.0 0.23626708984375 -1.29998779296875
10566771875.0 -0.659423828125 -1.07733154296875
10597993750.0 -1.08270263671875 -0.45806884765625
10629215625.0 -1.17822265625 0.20916748046875
10660437500.0 -0.88726806640625 0.957244873046875
10691659375.0 -0.0072021484375 1.339111328125
10722881250.0 0.789031982421875 0.951934814453125
10754103125.0 1.12213134765625 0.32318115234375
10785325000.0 1.1424560546875 -0.36785888671875
10816546875.0 0.6993408203125 -1.0550537109375
10847768750.0 -0.147705078125 -1.230712890625
10878990625.0 -0.8067626953125 -0.84344482421875
10910212500.0 -1.12554931640625 -0.24407958984375
10941434375.0 -1.09942626953125 0.47906494140625
10972656250.0 -0.56817626953125 1.08953857421875
11003878125.0 0.220458984375 1.1773681640625
11035100000.0 0.85089111328125 0.822906494140625
11066321875.0 1.22515869140625 0.17169189453125
11097543750.0 1.10003662109375 -0.680419921875
11128765625.0 0.3836669921875 -1.20428466796875
11159987500.0 -0.39959716796875 -1.14093017578125
11191209375.0 -1.00445556640625 -0.701416015625
11222431250.0 -1.27587890625 0.09771728515625
11253653125.0 -0.858062744140625 0.89825439453125
11284875000.0 -0.11248779296875 1.1292724609375
11316096875.0 0.514434814453125 0.95770263671875
11347318750.0 1.00653076171875 0.50189208984375
11378540625.0 1.11834716796875 -0.27239990234375
11409762500.0 0.63458251953125 -0.860992431640625
11440984375.0 0.0340576171875 -0.98114013671875
11472206250.0 -0.483978271484375 -0.851898193359375
11503428125.0 -0.957244873046875 -0.455413818359375
11534650000.0 -1.0714111328125 0.29388427734375
11565871875.0 -0.601654052734375 0.8592529296875
11597093750.0 -0.017181396484375 0.99383544921875
11628315625.0 0.548370361328125 0.877105712890625
11659537500.0 1.06475830078125 0.390380859375
11690759375.0 1.0660400390625 -0.4365234375
11721981250.0 0.5159912109375 -0.943145751953125
11753203125.0 -0.10870361328125 -1.03912353515625
11784425000.0 -0.729888916015625 -0.8095703125
11815646875.0 -1.1033935546875 -0.1484375
11846868750.0 -0.891143798828125 0.55511474609375
11878090625.0 -0.389617919921875 0.912078857421875
11909312500.0 0.1888427734375 0.98687744140625
11940534375.0 0.783538818359375 0.6951904296875
11971756250.0 1.027587890625 0.03863525390625
12002978125.0 0.80712890625 -0.5411376953125
12034200000.0 0.380889892578125 -0.8935546875
12065421875.0 -0.21917724609375 -1.013427734375
12096643750.0 -0.854095458984375 -0.663299560546875
12127865625.0 -1.03582763671875 0.0191650390625
12159087500.0 -0.8162841796875 0.579620361328125
12190309375.0 -0.375946044921875 0.9781494140625
12221531250.0 0.34375 1.09033203125
12252753125.0 0.98529052734375 0.5791015625
12283975000.0 1.05694580078125 -0.1319580078125
12315196875.0 0.8006591796875 -0.680419921875
12346418750.0 0.27850341796875 -1.096923828125
12377640625.0 -0.5443115234375 -1.06121826171875
12408862500.0 -1.03753662109375 -0.41668701171875
12440084375.0 -1.00946044921875 0.2275390625
12471306250.0 -0.742095947265625 0.740936279296875
12502528125.0 -0.1771240234375 1.12457275390625
12533750000.0 0.62506103515625 0.993560791015625
12564971875.0 1.044189453125 0.36236572265625
12596193750.0 1.0321044921875 -0.267822265625
12627415625.0 0.7486572265625 -0.8343505859375
12658637500.0 0.07696533203125 -1.2110595703125
12689859375.0 -0.740447998046875 -0.96649169921875
12721081250.0 -1.121826171875 -0.30328369140625
12752303125.0 -1.100341796875 0.387451171875
12783525000.0 -0.6861572265625 1.03369140625
12814746875.0 0.1697998046875 1.25341796875
12845968750.0 0.869110107421875 0.810028076171875
12877190625.0 1.12115478515625 0.16888427734375
12908412500.0 1.057373046875 -0.5074462890625
12939634375.0 0.54010009765625 -1.12152099609375
12970856250.0 -0.325927734375 -1.17584228515625
13002078125.0 -0.8985595703125 -0.693450927734375
13033300000.0 -1.11016845703125 -0.08343505859375
13064521875.0 -1.011962890625 0.60028076171875
13095743750.0 -0.41656494140625 1.15985107421875
13126965625.0 0.4129638671875 1.1224365234375
13158187500.0 0.95086669921875 0.63067626953125
13189409375.0 1.1505126953125 -0.025146484375
13220631250.0 0.93701171875 -0.753387451171875
13251853125.0 0.23138427734375 -1.1749267578125
13283075000.0 -0.51104736328125 -1.0205078125
13314296875.0 -0.991790771484375 -0.527923583984375
13345518750.0 -1.1385498046875 0.1815185546875
13376740625.0 -0.751861572265625 0.861114501953125
