!Created with skrf (http://scikit-rf.org).
# Hz S RI R 50.0 
!freq ReS11 ImS11
45000000.0 -0.07733535766601562 -0.09659957885742188
76221875.0 -0.19739532470703125 -0.0474853515625
107443750.0 -0.256072998046875 0.1207275390625
138665625.0 -0.1484375 0.33026123046875
169887500.0 0.1244354248046875 0.4191741943359375
201109375.0 0.4237060546875 0.2819976806640625
232331250.0 0.581329345703125 -0.05792236328125
263553125.0 0.4914398193359375 -0.45556640625
294775000.0 0.098114013671875 -0.736572265625
325996875.0 -0.4183349609375 -0.683929443359375
357218750.0 -0.81109619140625 -0.2978515625
388440625.0 -0.89013671875 0.3035888671875
419662500.0 -0.51885986328125 0.87139892578125
450884375.0 0.1746826171875 1.033447265625
482106250.0 0.802642822265625 0.715545654296875
513328125.0 1.12445068359375 0.08685302734375
544550000.0 1.0074462890625 -0.6837158203125
575771875.0 0.33660888671875 -1.24322509765625
606993750.0 -0.55670166015625 -1.18157958984375
638215625.0 -1.17083740234375 -0.59222412109375
669437500.0 -1.344970703125 0.235595703125
700659375.0 -0.97430419921875 1.10101318359375
731881250.0 -0.00323486328125 1.5489501953125
763103125.0 1.010009765625 1.160400390625
794325000.0 1.47454833984375 0.2823486328125
825546875.0 1.37225341796875 -0.65472412109375
856768750.0 0.79669189453125 -1.4088134765625
887990625.0 -0.29638671875 -1.65625
919212500.0 -1.296142578125 -1.0830078125
950434375.0 -1.65765380859375 -0.0574951171875
981656250.0 -1.38848876953125 0.9525146484375
1012878125.0 -0.53057861328125 1.6815185546875
1044100000.0 0.7025146484375 1.66998291015625
1075321875.0 1.584228515625 0.814453125
1106543750.0 1.713134765625 -0.31671142578125
1137765625.0 1.1912841796875 -1.29180908203125
1168987500.0 0.13714599609375 -1.80621337890625
1200209375.0 -1.06854248046875 -1.4906005859375
1231431250.0 -1.73626708984375 -0.45391845703125
1262653125.0 -1.6009521484375 0.68988037109375
1293875000.0 -0.8546142578125 1.499267578125
1325096875.0 0.23040771484375 1.71441650390625
1356318750.0 1.24139404296875 1.2218017578125
1387540625.0 1.7481689453125 0.1885986328125
1418762500.0 1.4754638671875 -0.9571533203125
1449984375.0 0.530517578125 -1.63372802734375
1481206250.0 -0.553466796875 -1.5626220703125
1512428125.0 -1.3485107421875 -0.92291259765625
1543650000.0 -1.66278076171875 0.06756591796875
1574871875.0 -1.2772216796875 1.114990234375
1606093750.0 -0.272216796875 1.63885498046875
1637315625.0 0.74652099609375 1.405517578125
1668537500.0 1.40234375 0.69744873046875
1699759375.0 1.57891845703125 -0.27996826171875
1730981250.0 1.0673828125 -1.2347412109375
1762203125.0 0.040771484375 -1.57696533203125
1793425000.0 -0.86053466796875 -1.2305908203125
1824646875.0 -1.39898681640625 -0.51617431640625
1855868750.0 -1.47943115234375 0.4345703125
1887090625.0 -0.87786865234375 1.29107666015625
1918312500.0 0.11859130859375 1.4927978515625
1949534375.0 0.9263916015625 1.09295654296875
1980756250.0 1.38079833984375 0.3707275390625
2011978125.0 1.364501953125 -0.53485107421875
2043200000.0 0.75189208984375 -1.2672119140625
2074421875.0 -0.15899658203125 -1.43890380859375
2105643750.0 -0.96484375 -1.075927734375
2136865625.0 -1.45306396484375 -0.3048095703125
2168087500.0 -1.36151123046875 0.67486572265625
2199309375.0 -0.64019775390625 1.35699462890625
2230531250.0 0.28436279296875 1.44140625
2261753125.0 1.07733154296875 1.01702880859375
2292975000.0 1.52020263671875 0.169677734375
2324196875.0 1.30963134765625 -0.82232666015625
2355418750.0 0.526123046875 -1.425537109375
2386640625.0 -0.4068603515625 -1.4539794921875
2417862500.0 -1.18731689453125 -1.02801513671875
2449084375.0 -1.6126708984375 -0.08184814453125
2480306250.0 -1.31634521484375 0.93170166015625
2511528125.0 -0.49359130859375 1.5159912109375
2542750000.0 0.4932861328125 1.54266357421875
2573971875.0 1.37908935546875 0.970947265625
2605193750.0 1.725341796875 -0.115234375
2636415625.0 1.26568603515625 -1.16021728515625
2667637500.0 0.30572509765625 -1.6751708984375
2698859375.0 -0.775634765625 -1.5413818359375
2730081250.0 -1.58221435546875 -0.74267578125
2761303125.0 -1.689208984375 0.3929443359375
2792525000.0 -1.1029052734375 1.31634521484375
2823746875.0 -0.10003662109375 1.7376708984375
2854968750.0 1.01947021484375 1.461181640625
2886190625.0 1.70159912109375 0.49127197265625
2917412500.0 1.6070556640625 -0.622314453125
2948634375.0 0.9417724609375 -1.4420166015625
2979856250.0 -0.1112060546875 -1.78411865234375
3011078125.0 -1.2559814453125 -1.3470458984375
3042300000.0 -1.7841796875 -0.23291015625
3073521875.0 -1.51458740234375 0.843994140625
3104743750.0 -0.764404296875 1.57684326171875
3135965625.0 0.366455078125 1.81707763671875
3167187500.0 1.50714111328125 1.16741943359375
3198409375.0 1.82366943359375 -0.0775146484375
3229631250.0 1.3538818359375 -1.08807373046875
3260853125.0 0.48980712890625 -1.6766357421875
3292075000.0 -0.66070556640625 -1.70550537109375
3323296875.0 -1.62969970703125 -0.88092041015625
3354518750.0 -1.7374267578125 0.33209228515625
3385740625.0 -1.15997314453125 1.23876953125
3416962500.0 -0.23101806640625 1.68829345703125
3448184375.0 0.867919921875 1.527587890625
3479406250.0 1.6444091796875 0.64501953125
3510628125.0 1.65087890625 -0.49957275390625
3541850000.0 1.00311279296875 -1.36346435546875
3573071875.0 -0.0106201171875 -1.6905517578125
3604293750.0 -1.03485107421875 -1.34185791015625
3635515625.0 -1.63580322265625 -0.43792724609375
3666737500.0 -1.56768798828125 0.6510009765625
3697959375.0 -0.826416015625 1.48529052734375
3729181250.0 0.2720947265625 1.6378173828125
3760403125.0 1.15863037109375 1.10162353515625
3791625000.0 1.55859375 0.21820068359375
3822846875.0 1.4068603515625 -0.76611328125
3854068750.0 0.62103271484375 -1.48876953125
3885290625.0 -0.4251708984375 -1.48724365234375
3916512500.0 -1.14849853515625 -0.9132080078125
3947734375.0 -1.453857421875 -0.11871337890625
3978956250.0 -1.30230712890625 0.78399658203125
4010178125.0 -0.53118896484375 1.46246337890625
4041400000.0 0.47784423828125 1.42059326171875
4072621875.0 1.15802001953125 0.8492431640625
4103843750.0 1.45037841796875 0.06201171875
4135065625.0 1.27203369140625 -0.85028076171875
4166287500.0 0.4576416015625 -1.5032958984375
4197509375.0 -0.562744140625 -1.42047119140625
4228731250.0 -1.25335693359375 -0.8037109375
4259953125.0 -1.51507568359375 0.072998046875
4291175000.0 -1.1912841796875 1.014892578125
4322396875.0 -0.28814697265625 1.53271484375
4353618750.0 0.67913818359375 1.35498046875
4384840625.0 1.32867431640625 0.69805908203125
4416062500.0 1.50628662109375 -0.23016357421875
4447284375.0 1.0572509765625 -1.10980224609375
4478506250.0 0.17108154296875 -1.5013427734375
4509728125.0 -0.73748779296875 -1.31182861328125
4540950000.0 -1.39996337890625 -0.6361083984375
4572171875.0 -1.52813720703125 0.36456298828125
4603393750.0 -0.97430419921875 1.21826171875
4634615625.0 -0.0596923828125 1.54327392578125
4665837500.0 0.8756103515625 1.3084716796875
4697059375.0 1.54852294921875 0.51513671875
4728281250.0 1.5345458984375 -0.58709716796875
4759503125.0 0.824462890625 -1.37347412109375
4790725000.0 -0.14898681640625 -1.57928466796875
4821946875.0 -1.09014892578125 -1.1976318359375
4853168750.0 -1.6207275390625 -0.2490234375
4884390625.0 -1.3822021484375 0.7996826171875
4915612500.0 -0.61346435546875 1.4189453125
4946834375.0 0.331787109375 1.5146484375
4978056250.0 1.2120361328125 1.01947021484375
5009278125.0 1.5682373046875 0.03680419921875
5040500000.0 1.23272705078125 -0.88031005859375
5071721875.0 0.5015869140625 -1.42059326171875
5102943750.0 -0.449951171875 -1.50128173828125
5134165625.0 -1.3426513671875 -0.9066162109375
5165387500.0 -1.5732421875 0.147705078125
5196609375.0 -1.13922119140625 1.01483154296875
5227831250.0 -0.35650634765625 1.51300048828125
5259053125.0 0.694091796875 1.49761962890625
5290275000.0 1.529541015625 0.66259765625
5321496875.0 1.49810791015625 -0.43487548828125
5352718750.0 0.9227294921875 -1.1595458984375
5383940625.0 0.09454345703125 -1.50653076171875
5415162500.0 -0.90692138671875 -1.28778076171875
5446384375.0 -1.48980712890625 -0.3697509765625
5477606250.0 -1.3033447265625 0.5704345703125
5508828125.0 -0.73236083984375 1.156005859375
5540050000.0 0.05596923828125 1.40460205078125
5571271875.0 0.944091796875 1.11181640625
5602493750.0 1.4140625 0.25897216796875
5633715625.0 1.23614501953125 -0.61676025390625
5664937500.0 0.64898681640625 -1.20635986328125
5696159375.0 -0.2000732421875 -1.38897705078125
5727381250.0 -1.0274658203125 -0.98077392578125
5758603125.0 -1.39715576171875 -0.14324951171875
5789825000.0 -1.197509765625 0.7222900390625
5821046875.0 -0.50640869140625 1.3134765625
5852268750.0 0.4149169921875 1.31768798828125
5883490625.0 1.07635498046875 0.77398681640625
5914712500.0 1.308349609375 0.01751708984375
5945934375.0 1.09967041015625 -0.78057861328125
5977156250.0 0.3604736328125 -1.31842041015625
6008378125.0 -0.51275634765625 -1.18585205078125
6039600000.0 -1.026611328125 -0.64984130859375
6070821875.0 -1.22918701171875 -0.00238037109375
6102043750.0 -1.08599853515625 0.76727294921875
6133265625.0 -0.34027099609375 1.35125732421875
6164487500.0 0.56756591796875 1.19122314453125
6195709375.0 1.0751953125 0.6309814453125
6226931250.0 1.284912109375 -0.0450439453125
6258153125.0 1.107421875 -0.8759765625
6289375000.0 0.2542724609375 -1.45318603515625
6320596875.0 -0.694580078125 -1.2093505859375
6351818750.0 -1.20465087890625 -0.5723876953125
6383040625.0 -1.359619140625 0.20977783203125
6414262500.0 -1.0023193359375 1.06378173828125
6445484375.0 -0.07647705078125 1.4625244140625
6476706250.0 0.8016357421875 1.150634765625
6507928125.0 1.29669189453125 0.4696044921875
6539150000.0 1.35162353515625 -0.39013671875
6570371875.0 0.84283447265625 -1.149169921875
6601593750.0 -0.020263671875 -1.41009521484375
6632815625.0 -0.8450927734375 -1.13897705078125
6664037500.0 -1.40753173828125 -0.41900634765625
6695259375.0 -1.3779296875 0.56982421875
6726481250.0 -0.71136474609375 1.25750732421875
6757703125.0 0.13360595703125 1.41265869140625
6788925000.0 0.9593505859375 1.13360595703125
6820146875.0 1.566650390625 0.28668212890625
6851368750.0 1.330078125 -0.8253173828125
6882590625.0 0.50592041015625 -1.3443603515625
6913812500.0 -0.29571533203125 -1.361328125
6945034375.0 -1.07647705078125 -1.02423095703125
6976256250.0 -1.599609375 -0.0902099609375
7007478125.0 -1.2401123046875 0.942138671875
7038700000.0 -0.4002685546875 1.34979248046875
7069921875.0 0.3631591796875 1.32965087890625
7101143750.0 1.12518310546875 0.97027587890625
7132365625.0 1.60845947265625 0.00958251953125
7163587500.0 1.159912109375 -1.02703857421875
7194809375.0 0.29998779296875 -1.40478515625
7226031250.0 -0.5169677734375 -1.3306884765625
7257253125.0 -1.27423095703125 -0.82537841796875
7288475000.0 -1.5645751953125 0.20220947265625
7319696875.0 -1.0322265625 1.11846923828125
7350918750.0 -0.16278076171875 1.45166015625
7382140625.0 0.72088623046875 1.28179931640625
7413362500.0 1.3839111328125 0.57574462890625
7444584375.0 1.419189453125 -0.41314697265625
7475806250.0 0.85919189453125 -1.151611328125
7507028125.0 0.00262451171875 -1.43756103515625
7538250000.0 -0.8953857421875 -1.12738037109375
7569471875.0 -1.3416748046875 -0.30950927734375
7600693750.0 -1.20770263671875 0.50238037109375
7631915625.0 -0.71954345703125 1.0924072265625
7663137500.0 0.0823974609375 1.3653564453125
7694359375.0 0.94720458984375 0.9827880859375
7725581250.0 1.25018310546875 0.17889404296875
7756803125.0 1.0880126953125 -0.504150390625
7788025000.0 0.67108154296875 -1.04888916015625
7819246875.0 -0.12384033203125 -1.35546875
7850468750.0 -0.999237060546875 -0.917816162109375
7881690625.0 -1.23760986328125 -0.10302734375
7912912500.0 -1.05987548828125 0.55987548828125
7944134375.0 -0.6060791015625 1.12060546875
7975356250.0 0.276123046875 1.3411865234375
8006578125.0 1.0537109375 0.7801513671875
8037800000.0 1.199951171875 0.0128173828125
8069021875.0 1.01031494140625 -0.62310791015625
8100243750.0 0.4991455078125 -1.16912841796875
8131465625.0 -0.3922119140625 -1.25885009765625
8162687500.0 -1.039794921875 -0.68731689453125
8193909375.0 -1.1865234375 0.0120849609375
8225131250.0 -1.02130126953125 0.6846923828125
8256353125.0 -0.42108154296875 1.25616455078125
8287575000.0 0.50555419921875 1.23028564453125
8318796875.0 1.08935546875 0.63616943359375
8350018750.0 1.25054931640625 -0.07830810546875
8381240625.0 1.0338134765625 -0.84417724609375
8412462500.0 0.252197265625 -1.380126953125
8443684375.0 -0.67535400390625 -1.173583984375
8474906250.0 -1.18212890625 -0.53228759765625
8506128125.0 -1.303466796875 0.24151611328125
8537350000.0 -0.92657470703125 1.052490234375
8568571875.0 -0.01214599609375 1.40167236328125
8599793750.0 0.80902099609375 1.056640625
8631015625.0 1.247314453125 0.39739990234375
8662237500.0 1.29095458984375 -0.4329833984375
8693459375.0 0.73748779296875 -1.18475341796875
8724681250.0 -0.16607666015625 -1.337158203125
8755903125.0 -0.8870849609375 -0.9608154296875
8787125000.0 -1.31170654296875 -0.28082275390625
8818346875.0 -1.255126953125 0.6201171875
8849568750.0 -0.5560302734375 1.2667236328125
8880790625.0 0.3043212890625 1.2901611328125
8912012500.0 0.9892578125 0.89447021484375
8943234375.0 1.40765380859375 0.12689208984375
8974456250.0 1.170166015625 -0.84625244140625
9005678125.0 0.3460693359375 -1.3212890625
9036900000.0 -0.4498291015625 -1.22894287109375
9068121875.0 -1.10858154296875 -0.78643798828125
9099343750.0 -1.447998046875 0.1009521484375
9130565625.0 -0.98089599609375 1.0205078125
9161787500.0 -0.1517333984375 1.28924560546875
9193009375.0 0.55889892578125 1.13818359375
9224231250.0 1.18536376953125 0.65576171875
9255453125.0 1.40509033203125 -0.30023193359375
9286675000.0 0.8076171875 -1.09393310546875
9317896875.0 0.02490234375 -1.25140380859375
9349118750.0 -0.660888671875 -1.0740966796875
9380340625.0 -1.26593017578125 -0.50946044921875
9411562500.0 -1.3165283203125 0.482177734375
9442784375.0 -0.6473388671875 1.12371826171875
9474006250.0 0.09228515625 1.21722412109375
9505228125.0 0.77142333984375 0.984039306640625
9536450000.0 1.28143310546875 0.3114013671875
9567671875.0 1.14825439453125 -0.5860595703125
9598893750.0 0.529541015625 -1.074951171875
9630115625.0 -0.14788818359375 -1.1634521484375
9661337500.0 -0.824127197265625 -0.904876708984375
9692559375.0 -1.244384765625 -0.18670654296875
9723781250.0 -1.0465087890625 0.61004638671875
9755003125.0 -0.48663330078125 1.0557861328125
9786225000.0 0.20245361328125 1.1650390625
9817446875.0 0.900909423828125 0.829345703125
9848668750.0 1.2047119140625 0.073974609375
9879890625.0 0.97137451171875 -0.62188720703125
9911112500.0 0.45123291015625 -1.0582275390625
9942334375.0 -0.2725830078125 -1.16375732421875
9973556250.0 -0.95025634765625 -0.73980712890625
10004778125.0 -1.15240478515625 -0.0126953125
10036000000.0 -0.947357177734375 0.621612548828125
10067221875.0 -0.44012451171875 1.10382080078125
10098443750.0 0.3759765625 1.1866455078125
10129665625.0 1.00994873046875 0.64276123046875
10160887500.0 1.1256103515625 -0.05682373046875
10192109375.0 0.9197998046875 -0.66876220703125
10223331250.0 0.359130859375 -1.15899658203125
10254553125.0 -0.49139404296875 -1.11688232421875
10285775000.0 -0.991668701171875 -0.53436279296875
10316996875.0 -1.07177734375 0.080078125
10348218750.0 -0.90228271484375 0.674835205078125
10379440625.0 -0.32147216796875 1.18121337890625
10410662500.0 0.53375244140625 1.0897216796875
10441884375.0 0.99810791015625 0.520904541015625
10473106250.0 1.1131591796875 -0.0860595703125
10504328125.0 0.951995849609375 -0.763427734375
10535550000.0 0.23712158203125 -1.30206298828125
10566771875.0 -0.66326904296875 -1.08001708984375
10597993750.0 -1.08758544921875 -0.45697021484375
10629215625.0 -1.18084716796875 0.209716796875
10660437500.0 -0.889404296875 0.95709228515625
10691659375.0 -0.00628662109375 1.3404541015625
10722881250.0 0.791351318359375 0.954681396484375
10754103125.0 1.12542724609375 0.3228759765625
10785325000.0 1.143310546875 -0.37042236328125
10816546875.0 0.70172119140625 -1.0572509765625
10847768750.0 -0.1507568359375 -1.2347412109375
10878990625.0 -0.80889892578125 -0.844268798828125
10910212500.0 -1.12872314453125 -0.24310302734375
10941434375.0 -1.10125732421875 0.48291015625
10972656250.0 -0.5673828125 1.0928955078125
11003878125.0 0.221435546875 1.178466796875
11035100000.0 0.853057861328125 0.823272705078125
11066321875.0 1.2279052734375 0.1715087890625
11097543750.0 1.10211181640625 -0.68402099609375
11128765625.0 0.383544921875 -1.2060546875
11159987500.0 -0.40069580078125 -1.142822265625
11191209375.0 -1.0064697265625 -0.7032470703125
11222431250.0 -1.27801513671875 0.0977783203125
11253653125.0 -0.859954833984375 0.902984619140625
11284875000.0 -0.111572265625 1.1322021484375
11316096875.0 0.517425537109375 0.95977783203125
11347318750.0 1.0103759765625 0.50115966796875
11378540625.0 1.1212158203125 -0.27374267578125
11409762500.0 0.634674072265625 -0.865936279296875
11440984375.0 0.03216552734375 -0.98358154296875
11472206250.0 -0.485809326171875 -0.853302001953125
11503428125.0 -0.95989990234375 -0.455078125
11534650000.0 -1.072509765625 0.2940673828125
11565871875.0 -0.601654052734375 0.86065673828125
11597093750.0 -0.016815185546875 0.99481201171875
11628315625.0 0.5479736328125 0.878265380859375
11659537500.0 1.06585693359375 0.390380859375
11690759375.0 1.06768798828125 -0.43817138671875
11721981250.0 0.517181396484375 -0.945404052734375
11753203125.0 -0.11029052734375 -1.0419921875
11784425000.0 -0.730194091796875 -0.811431884765625
11815646875.0 -1.10614013671875 -0.14886474609375
11846868750.0 -0.894500732421875 0.55792236328125
11878090625.0 -0.390228271484375 0.914337158203125
11909312500.0 0.19183349609375 0.9896240234375
11940534375.0 0.788177490234375 0.69586181640625
11971756250.0 1.029296875 0.035888671875
12002978125.0 0.8082275390625 -0.5426025390625
12034200000.0 0.380462646484375 -0.895233154296875
12065421875.0 -0.22039794921875 -1.01397705078125
12096643750.0 -0.85504150390625 -0.66473388671875
12127865625.0 -1.03900146484375 0.02081298828125
12159087500.0 -0.817047119140625 0.58001708984375
12190309375.0 -0.376434326171875 0.980621337890625
12221531250.0 0.3433837890625 1.09149169921875
12252753125.0 0.987518310546875 0.580718994140625
12283975000.0 1.05889892578125 -0.132568359375
12315196875.0 0.802337646484375 -0.68243408203125
12346418750.0 0.279541015625 -1.09722900390625
12377640625.0 -0.5443115234375 -1.063232421875
12408862500.0 -1.04022216796875 -0.4190673828125
12440084375.0 -1.01275634765625 0.22894287109375
12471306250.0 -0.7437744140625 0.74468994140625
12502528125.0 -0.1761474609375 1.1265869140625
12533750000.0 0.6256103515625 0.995269775390625
12564971875.0 1.0479736328125 0.36126708984375
12596193750.0 1.033447265625 -0.26849365234375
12627415625.0 0.749542236328125 -0.83416748046875
12658637500.0 0.0748291015625 -1.2147216796875
12689859375.0 -0.7442626953125 -0.970703125
12721081250.0 -1.123779296875 -0.30462646484375
12752303125.0 -1.10150146484375 0.387451171875
12783525000.0 -0.68829345703125 1.035400390625
12814746875.0 0.1708984375 1.25628662109375
12845968750.0 0.871063232421875 0.81256103515625
12877190625.0 1.12078857421875 0.17034912109375
12908412500.0 1.05908203125 -0.50799560546875
12939634375.0 0.541015625 -1.12615966796875
12970856250.0 -0.325439453125 -1.17938232421875
13002078125.0 -0.90057373046875 -0.693878173828125
13033300000.0 -1.1126708984375 -0.082763671875
13064521875.0 -1.012939453125 0.60003662109375
13095743750.0 -0.4176025390625 1.162353515625
13126965625.0 0.41265869140625 1.12353515625
13158187500.0 0.954254150390625 0.63128662109375
13189409375.0 1.15380859375 -0.02508544921875
13220631250.0 0.937591552734375 -0.755126953125
13251853125.0 0.2315673828125 -1.1781005859375
13283075000.0 -0.51385498046875 -1.0233154296875
13314296875.0 -0.994049072265625 -0.5289306640625
13345518750.0 -1.14007568359375 0.18218994140625
