!Created with skrf (http://scikit-rf.org).
# Hz S RI R 50.0 
!freq ReS11 ImS11
45000000.0 -0.07706832885742188 -0.09660720825195312
76221875.0 -0.19637298583984375 -0.04750823974609375
107443750.0 -0.254852294921875 0.1198272705078125
138665625.0 -0.14788818359375 0.3284149169921875
169887500.0 0.123687744140625 0.4173736572265625
201109375.0 0.4216461181640625 0.280487060546875
232331250.0 0.578643798828125 -0.0576171875
263553125.0 0.4892578125 -0.4525909423828125
294775000.0 0.098297119140625 -0.73223876953125
325996875.0 -0.415496826171875 -0.680206298828125
357218750.0 -0.805908203125 -0.296234130859375
388440625.0 -0.885040283203125 0.30072021484375
419662500.0 -0.516845703125 0.86602783203125
450884375.0 0.17333984375 1.028076171875
482106250.0 0.798126220703125 0.711822509765625
513328125.0 1.11865234375 0.0865478515625
544550000.0 1.0029296875 -0.6795654296875
575771875.0 0.33575439453125 -1.23724365234375
606993750.0 -0.5538330078125 -1.17633056640625
638215625.0 -1.165283203125 -0.58966064453125
669437500.0 -1.338623046875 0.2340087890625
700659375.0 -0.969970703125 1.0958251953125
731881250.0 -0.0030517578125 1.5416259765625
763103125.0 1.005126953125 1.15472412109375
794325000.0 1.4676513671875 0.28106689453125
825546875.0 1.365966796875 -0.65118408203125
856768750.0 0.7933349609375 -1.3992919921875
887990625.0 -0.292724609375 -1.6463623046875
919212500.0 -1.28729248046875 -1.0767822265625
950434375.0 -1.6475830078125 -0.05816650390625
981656250.0 -1.38092041015625 0.94537353515625
1012878125.0 -0.52880859375 1.67083740234375
1044100000.0 0.69635009765625 1.65997314453125
1075321875.0 1.57305908203125 0.8104248046875
1106543750.0 1.70257568359375 -0.3126220703125
1137765625.0 1.18505859375 -1.2825927734375
1168987500.0 0.13714599609375 -1.79534912109375
1200209375.0 -1.0606689453125 -1.481201171875
1231431250.0 -1.7254638671875 -0.45233154296875
1262653125.0 -1.591796875 0.6842041015625
1293875000.0 -0.850341796875 1.48992919921875
1325096875.0 0.228271484375 1.70452880859375
1356318750.0 1.2332763671875 1.21484375
1387540625.0 1.73760986328125 0.18853759765625
1418762500.0 1.46734619140625 -0.95098876953125
1449984375.0 0.5281982421875 -1.6241455078125
1481206250.0 -0.54974365234375 -1.5537109375
1512428125.0 -1.3408203125 -0.91815185546875
1543650000.0 -1.65325927734375 0.06585693359375
1574871875.0 -1.27117919921875 1.10736083984375
1606093750.0 -0.2720947265625 1.62921142578125
1637315625.0 0.74176025390625 1.3985595703125
1668537500.0 1.39422607421875 0.69464111328125
1699759375.0 1.57098388671875 -0.277099609375
1730981250.0 1.06231689453125 -1.2275390625
1762203125.0 0.0418701171875 -1.56878662109375
1793425000.0 -0.85504150390625 -1.2244873046875
1824646875.0 -1.39208984375 -0.51397705078125
1855868750.0 -1.47210693359375 0.431884765625
1887090625.0 -0.8736572265625 1.28399658203125
1918312500.0 0.1171875 1.48492431640625
1949534375.0 0.92059326171875 1.08746337890625
1980756250.0 1.3736572265625 0.3692626953125
2011978125.0 1.35791015625 -0.531494140625
2043200000.0 0.74884033203125 -1.2603759765625
2074421875.0 -0.1573486328125 -1.4317626953125
2105643750.0 -0.95928955078125 -1.070556640625
2136865625.0 -1.44561767578125 -0.3043212890625
2168087500.0 -1.35504150390625 0.67047119140625
2199309375.0 -0.637939453125 1.34942626953125
2230531250.0 0.2816162109375 1.43408203125
2261753125.0 1.0711669921875 1.01214599609375
2292975000.0 1.51263427734375 0.170166015625
2324196875.0 1.3037109375 -0.81781005859375
2355418750.0 0.5242919921875 -1.41827392578125
2386640625.0 -0.40411376953125 -1.4468994140625
2417862500.0 -1.17938232421875 -1.02325439453125
2449084375.0 -1.602294921875 -0.0845947265625
2480306250.0 -1.309326171875 0.92437744140625
2511528125.0 -0.49267578125 1.50628662109375
2542750000.0 0.487548828125 1.5338134765625
2573971875.0 1.36993408203125 0.9659423828125
2605193750.0 1.71417236328125 -0.1124267578125
2636415625.0 1.25921630859375 -1.15032958984375
2667637500.0 0.30633544921875 -1.663818359375
2698859375.0 -0.76812744140625 -1.5313720703125
2730081250.0 -1.57073974609375 -0.73944091796875
2761303125.0 -1.67852783203125 0.3880615234375
2792525000.0 -1.0975341796875 1.30401611328125
2823746875.0 -0.10150146484375 1.72662353515625
2854968750.0 1.00970458984375 1.4527587890625
2886190625.0 1.68994140625 0.4908447265625
2917412500.0 1.596923828125 -0.6173095703125
2948634375.0 0.93798828125 -1.43048095703125
2979856250.0 -0.10699462890625 -1.77166748046875
3011078125.0 -1.24658203125 -1.34014892578125
3042300000.0 -1.77191162109375 -0.23358154296875
3073521875.0 -1.505859375 0.8367919921875
3104743750.0 -0.7618408203125 1.565673828125
3135965625.0 0.36090087890625 1.80621337890625
3167187500.0 1.49627685546875 1.1627197265625
3198409375.0 1.8134765625 -0.0755615234375
3229631250.0 1.3463134765625 -1.07952880859375
3260853125.0 0.48785400390625 -1.66632080078125
3292075000.0 -0.65362548828125 -1.69451904296875
3323296875.0 -1.61553955078125 -0.8779296875
3354518750.0 -1.726318359375 0.32684326171875
3385740625.0 -1.15411376953125 1.23138427734375
3416962500.0 -0.23150634765625 1.6783447265625
3448184375.0 0.85955810546875 1.51910400390625
3479406250.0 1.63311767578125 0.64349365234375
3510628125.0 1.64215087890625 -0.49481201171875
3541850000.0 0.99853515625 -1.3531494140625
3573071875.0 -0.00787353515625 -1.6795654296875
3604293750.0 -1.0269775390625 -1.33544921875
3635515625.0 -1.625244140625 -0.43701171875
3666737500.0 -1.55999755859375 0.64617919921875
3697959375.0 -0.823486328125 1.47430419921875
3729181250.0 0.267578125 1.6275634765625
3760403125.0 1.1500244140625 1.09625244140625
3791625000.0 1.550048828125 0.21783447265625
3822846875.0 1.39990234375 -0.7601318359375
3854068750.0 0.618896484375 -1.47894287109375
3885290625.0 -0.41998291015625 -1.478515625
3916512500.0 -1.1396484375 -0.91009521484375
3947734375.0 -1.4451904296875 -0.11962890625
3978956250.0 -1.29559326171875 0.77813720703125
4010178125.0 -0.530029296875 1.4515380859375
4041400000.0 0.472412109375 1.41314697265625
4072621875.0 1.14990234375 0.84625244140625
4103843750.0 1.44287109375 0.06256103515625
4135065625.0 1.26544189453125 -0.84503173828125
4166287500.0 0.45703125 -1.49371337890625
4197509375.0 -0.55615234375 -1.41302490234375
4228731250.0 -1.2457275390625 -0.802001953125
4259953125.0 -1.50689697265625 0.07012939453125
4291175000.0 -1.1865234375 1.0091552734375
4322396875.0 -0.2890625 1.523193359375
4353618750.0 0.67230224609375 1.34814453125
4384840625.0 1.3204345703125 0.69622802734375
4416062500.0 1.49945068359375 -0.22760009765625
4447284375.0 1.05340576171875 -1.10284423828125
4478506250.0 0.17236328125 -1.49298095703125
4509728125.0 -0.73065185546875 -1.30523681640625
4540950000.0 -1.39105224609375 -0.63519287109375
4572171875.0 -1.52044677734375 0.35882568359375
4603393750.0 -0.97137451171875 1.210693359375
4634615625.0 -0.062255859375 1.53375244140625
4665837500.0 0.86871337890625 1.302734375
4697059375.0 1.5386962890625 0.51458740234375
4728281250.0 1.52728271484375 -0.5816650390625
4759503125.0 0.8218994140625 -1.36529541015625
4790725000.0 -0.14508056640625 -1.57080078125
4821946875.0 -1.081298828125 -1.19244384765625
4853168750.0 -1.6116943359375 -0.25128173828125
4884390625.0 -1.37579345703125 0.79150390625
4915612500.0 -0.61199951171875 1.41143798828125
4946834375.0 0.3282470703125 1.507080078125
4978056250.0 1.20330810546875 1.01556396484375
5009278125.0 1.5604248046875 0.03924560546875
5040500000.0 1.2275390625 -0.87469482421875
5071721875.0 0.50091552734375 -1.41290283203125
5102943750.0 -0.44586181640625 -1.49462890625
5134165625.0 -1.33355712890625 -0.90521240234375
5165387500.0 -1.56597900390625 0.1453857421875
5196609375.0 -1.1348876953125 1.0074462890625
5227831250.0 -0.35748291015625 1.503662109375
5259053125.0 0.68597412109375 1.48992919921875
5290275000.0 1.5191650390625 0.6624755859375
5321496875.0 1.48956298828125 -0.4283447265625
5352718750.0 0.919677734375 -1.15240478515625
5383940625.0 0.09722900390625 -1.49755859375
5415162500.0 -0.89776611328125 -1.28192138671875
5446384375.0 -1.4832763671875 -0.3695068359375
5477606250.0 -1.29766845703125 0.5657958984375
5508828125.0 -0.73052978515625 1.1494140625
5540050000.0 0.05340576171875 1.3961181640625
5571271875.0 0.93701171875 1.10736083984375
5602493750.0 1.40606689453125 0.26007080078125
5633715625.0 1.2303466796875 -0.6119384765625
5664937500.0 0.6474609375 -1.20001220703125
5696159375.0 -0.1959228515625 -1.3819580078125
5727381250.0 -1.0201416015625 -0.97760009765625
5758603125.0 -1.3902587890625 -0.1446533203125
5789825000.0 -1.1925048828125 0.7158203125
5821046875.0 -0.5062255859375 1.3055419921875
5852268750.0 0.41021728515625 1.31158447265625
5883490625.0 1.06976318359375 0.77178955078125
5914712500.0 1.30157470703125 0.019287109375
5945934375.0 1.09490966796875 -0.77459716796875
5977156250.0 0.36102294921875 -1.31060791015625
6008378125.0 -0.50921630859375 -1.18096923828125
6039600000.0 -1.02020263671875 -0.6485595703125
6070821875.0 -1.22235107421875 -0.0050048828125
6102043750.0 -1.08203125 0.76171875
6133265625.0 -0.34234619140625 1.3424072265625
6164487500.0 0.56170654296875 1.18621826171875
6195709375.0 1.06982421875 0.629150390625
6226931250.0 1.27880859375 -0.04266357421875
6258153125.0 1.10382080078125 -0.8699951171875
6289375000.0 0.25689697265625 -1.4439697265625
6320596875.0 -0.68817138671875 -1.205078125
6351818750.0 -1.19964599609375 -0.57183837890625
6383040625.0 -1.35345458984375 0.20654296875
6414262500.0 -0.99908447265625 1.05499267578125
6445484375.0 -0.0787353515625 1.4554443359375
6476706250.0 0.79583740234375 1.14764404296875
6507928125.0 1.28778076171875 0.47076416015625
6539150000.0 1.34649658203125 -0.38543701171875
6570371875.0 0.8402099609375 -1.14306640625
6601593750.0 -0.017578125 -1.40423583984375
6632815625.0 -0.83831787109375 -1.13531494140625
6664037500.0 -1.39990234375 -0.41998291015625
6695259375.0 -1.373046875 0.56585693359375
6726481250.0 -0.7098388671875 1.25042724609375
6757703125.0 0.13006591796875 1.40484619140625
6788925000.0 0.95355224609375 1.12939453125
6820146875.0 1.55987548828125 0.286865234375
6851368750.0 1.324951171875 -0.81829833984375
6882590625.0 0.506591796875 -1.3365478515625
6913812500.0 -0.29150390625 -1.3551025390625
6945034375.0 -1.06890869140625 -1.02105712890625
6976256250.0 -1.5906982421875 -0.0938720703125
7007478125.0 -1.23626708984375 0.9307861328125
7038700000.0 -0.4010009765625 1.34259033203125
7069921875.0 0.35699462890625 1.321533203125
7101143750.0 1.11688232421875 0.96728515625
7132365625.0 1.59814453125 0.01470947265625
7163587500.0 1.156494140625 -1.01788330078125
7194809375.0 0.302001953125 -1.39532470703125
7226031250.0 -0.5106201171875 -1.32293701171875
7257253125.0 -1.26385498046875 -0.82403564453125
7288475000.0 -1.55426025390625 0.19464111328125
7319696875.0 -1.0302734375 1.10992431640625
7350918750.0 -0.16357421875 1.44329833984375
7382140625.0 0.7120361328125 1.27520751953125
7413362500.0 1.375732421875 0.57562255859375
7444584375.0 1.41162109375 -0.40740966796875
7475806250.0 0.85687255859375 -1.14263916015625
7507028125.0 0.006591796875 -1.4285888671875
7538250000.0 -0.88580322265625 -1.1229248046875
7569471875.0 -1.336669921875 -0.30999755859375
7600693750.0 -1.2010498046875 0.49578857421875
7631915625.0 -0.7178955078125 1.0823974609375
7663137500.0 0.0799560546875 1.35650634765625
7694359375.0 0.93896484375 0.9796142578125
7725581250.0 1.243408203125 0.1810302734375
7756803125.0 1.0816650390625 -0.49713134765625
7788025000.0 0.66986083984375 -1.04266357421875
7819246875.0 -0.1192626953125 -1.34521484375
7850468750.0 -0.99066162109375 -0.915252685546875
7881690625.0 -1.231201171875 -0.10540771484375
7912912500.0 -1.05322265625 0.552978515625
7944134375.0 -0.6055908203125 1.1123046875
7975356250.0 0.2711181640625 1.333984375
8006578125.0 1.0447998046875 0.77838134765625
8037800000.0 1.1915283203125 0.0174560546875
8069021875.0 1.00555419921875 -0.616455078125
8100243750.0 0.49969482421875 -1.15966796875
8131465625.0 -0.38629150390625 -1.25347900390625
8162687500.0 -1.031494140625 -0.6861572265625
8193909375.0 -1.17877197265625 0.00860595703125
8225131250.0 -1.016845703125 0.67755126953125
8256353125.0 -0.42230224609375 1.245849609375
8287575000.0 0.49969482421875 1.22589111328125
8318796875.0 1.079833984375 0.63568115234375
8350018750.0 1.2432861328125 -0.07470703125
8381240625.0 1.0302734375 -0.83660888671875
8412462500.0 0.25518798828125 -1.37091064453125
8443684375.0 -0.66802978515625 -1.16900634765625
8474906250.0 -1.174072265625 -0.53204345703125
8506128125.0 -1.2962646484375 0.2353515625
8537350000.0 -0.92352294921875 1.04534912109375
8568571875.0 -0.01837158203125 1.392333984375
8599793750.0 0.80035400390625 1.0528564453125
8631015625.0 1.24005126953125 0.39776611328125
8662237500.0 1.2841796875 -0.427734375
8693459375.0 0.73638916015625 -1.17669677734375
8724681250.0 -0.16217041015625 -1.33056640625
8755903125.0 -0.878204345703125 -0.95660400390625
8787125000.0 -1.30206298828125 -0.2822265625
8818346875.0 -1.2501220703125 0.61529541015625
8849568750.0 -0.556396484375 1.259521484375
8880790625.0 0.2969970703125 1.28314208984375
8912012500.0 0.9803466796875 0.891693115234375
8943234375.0 1.39617919921875 0.12939453125
8974456250.0 1.166748046875 -0.8370361328125
9005678125.0 0.3487548828125 -1.31231689453125
9036900000.0 -0.443359375 -1.22406005859375
9068121875.0 -1.10064697265625 -0.785888671875
9099343750.0 -1.43853759765625 0.095947265625
9130565625.0 -0.979248046875 1.01068115234375
9161787500.0 -0.15423583984375 1.28204345703125
9193009375.0 0.55413818359375 1.1329345703125
9224231250.0 1.17742919921875 0.65521240234375
9255453125.0 1.3980712890625 -0.29498291015625
9286675000.0 0.8074951171875 -1.0865478515625
9317896875.0 0.0264892578125 -1.2451171875
9349118750.0 -0.65380859375 -1.06903076171875
9380340625.0 -1.25543212890625 -0.51031494140625
9411562500.0 -1.31085205078125 0.47430419921875
9442784375.0 -0.64764404296875 1.1158447265625
9474006250.0 0.08917236328125 1.21051025390625
9505228125.0 0.761016845703125 0.979339599609375
9536450000.0 1.27459716796875 0.31317138671875
9567671875.0 1.14361572265625 -0.580078125
9598893750.0 0.52935791015625 -1.0687255859375
9630115625.0 -0.142822265625 -1.15692138671875
9661337500.0 -0.817535400390625 -0.902130126953125
9692559375.0 -1.236572265625 -0.19140625
9723781250.0 -1.04229736328125 0.60235595703125
9755003125.0 -0.48602294921875 1.04888916015625
9786225000.0 0.19781494140625 1.15826416015625
9817446875.0 0.893280029296875 0.827667236328125
9848668750.0 1.1973876953125 0.07867431640625
9879890625.0 0.968292236328125 -0.616973876953125
9911112500.0 0.45172119140625 -1.05224609375
9942334375.0 -0.26605224609375 -1.15875244140625
9973556250.0 -0.941070556640625 -0.73846435546875
10004778125.0 -1.1456298828125 -0.01727294921875
10036000000.0 -0.943756103515625 0.614532470703125
10067221875.0 -0.443115234375 1.094482421875
10098443750.0 0.3665771484375 1.1796875
10129665625.0 1.0006103515625 0.6429443359375
10160887500.0 1.11956787109375 -0.05133056640625
10192109375.0 0.9166259765625 -0.66162109375
10223331250.0 0.3616943359375 -1.150634765625
10254553125.0 -0.4849853515625 -1.11279296875
10285775000.0 -0.9857177734375 -0.535736083984375
10316996875.0 -1.06622314453125 0.07647705078125
10348218750.0 -0.8995361328125 0.6678466796875
10379440625.0 -0.3228759765625 1.174072265625
10410662500.0 0.5247802734375 1.08453369140625
10441884375.0 0.99072265625 0.522003173828125
10473106250.0 1.10791015625 -0.0841064453125
10504328125.0 0.947662353515625 -0.754608154296875
10535550000.0 0.24102783203125 -1.29400634765625
10566771875.0 -0.65789794921875 -1.07708740234375
10597993750.0 -1.08050537109375 -0.45941162109375
10629215625.0 -1.17437744140625 0.205078125
10660437500.0 -0.887725830078125 0.948028564453125
10691659375.0 -0.0111083984375 1.33428955078125
10722881250.0 0.783203125 0.9521484375
10754103125.0 1.11785888671875 0.3251953125
10785325000.0 1.13848876953125 -0.365966796875
10816546875.0 0.70037841796875 -1.04730224609375
10847768750.0 -0.1444091796875 -1.22747802734375
10878990625.0 -0.80340576171875 -0.8431396484375
10910212500.0 -1.12286376953125 -0.2449951171875
10941434375.0 -1.09716796875 0.47552490234375
10972656250.0 -0.56793212890625 1.083984375
11003878125.0 0.21649169921875 1.1728515625
11035100000.0 0.84503173828125 0.82159423828125
11066321875.0 1.2215576171875 0.1737060546875
11097543750.0 1.0977783203125 -0.673583984375
11128765625.0 0.38641357421875 -1.198486328125
11159987500.0 -0.39520263671875 -1.13909912109375
11191209375.0 -0.998992919921875 -0.702362060546875
11222431250.0 -1.27313232421875 0.09295654296875
11253653125.0 -0.858917236328125 0.8966064453125
11284875000.0 -0.115234375 1.12615966796875
11316096875.0 0.510009765625 0.955780029296875
11347318750.0 1.00091552734375 0.50238037109375
11378540625.0 1.1158447265625 -0.26763916015625
11409762500.0 0.634857177734375 -0.858795166015625
11440984375.0 0.0372314453125 -0.976837158203125
11472206250.0 -0.48046875 -0.849945068359375
11503428125.0 -0.951751708984375 -0.456787109375
11534650000.0 -1.06768798828125 0.28729248046875
11565871875.0 -0.6026611328125 0.853240966796875
11597093750.0 -0.019744873046875 0.99041748046875
11628315625.0 0.5443115234375 0.87396240234375
11659537500.0 1.0599365234375 0.39251708984375
11690759375.0 1.06451416015625 -0.43377685546875
11721981250.0 0.51806640625 -0.9395751953125
11753203125.0 -0.10491943359375 -1.0367431640625
11784425000.0 -0.7232666015625 -0.808502197265625
11815646875.0 -1.10009765625 -0.15087890625
11846868750.0 -0.8907470703125 0.54962158203125
11878090625.0 -0.391754150390625 0.908660888671875
11909312500.0 0.185791015625 0.983154296875
11940534375.0 0.779876708984375 0.6943359375
11971756250.0 1.02423095703125 0.0391845703125
12002978125.0 0.8056640625 -0.536224365234375
12034200000.0 0.382354736328125 -0.88720703125
12065421875.0 -0.21417236328125 -1.00848388671875
12096643750.0 -0.8470458984375 -0.665679931640625
12127865625.0 -1.0338134765625 0.01690673828125
12159087500.0 -0.814208984375 0.573822021484375
12190309375.0 -0.377716064453125 0.974334716796875
12221531250.0 0.3387451171875 1.087646484375
12252753125.0 0.978973388671875 0.582489013671875
12283975000.0 1.05303955078125 -0.12677001953125
12315196875.0 0.801239013671875 -0.674468994140625
12346418750.0 0.2813720703125 -1.09051513671875
12377640625.0 -0.537109375 -1.06048583984375
12408862500.0 -1.03216552734375 -0.41998291015625
12440084375.0 -1.00860595703125 0.22454833984375
12471306250.0 -0.7418212890625 0.736175537109375
12502528125.0 -0.1807861328125 1.1187744140625
12533750000.0 0.6192626953125 0.993804931640625
12564971875.0 1.03900146484375 0.364990234375
12596193750.0 1.02911376953125 -0.26373291015625
12627415625.0 0.748077392578125 -0.827484130859375
12658637500.0 0.07977294921875 -1.20654296875
12689859375.0 -0.734130859375 -0.9664306640625
12721081250.0 -1.11651611328125 -0.3060302734375
12752303125.0 -1.09521484375 0.3779296875
12783525000.0 -0.6871337890625 1.02642822265625
12814746875.0 0.162841796875 1.250244140625
12845968750.0 0.8616943359375 0.81103515625
12877190625.0 1.11688232421875 0.1719970703125
12908412500.0 1.056640625 -0.50103759765625
12939634375.0 0.54388427734375 -1.11553955078125
12970856250.0 -0.32110595703125 -1.1756591796875
13002078125.0 -0.893951416015625 -0.69305419921875
13033300000.0 -1.1041259765625 -0.08673095703125
13064521875.0 -1.00927734375 0.5936279296875
13095743750.0 -0.42071533203125 1.15350341796875
13126965625.0 0.40997314453125 1.1214599609375
13158187500.0 0.94659423828125 0.63287353515625
13189409375.0 1.1478271484375 -0.0201416015625
13220631250.0 0.935516357421875 -0.74609375
13251853125.0 0.2349853515625 -1.17181396484375
13283075000.0 -0.505859375 -1.01849365234375
13314296875.0 -0.98760986328125 -0.529571533203125
13345518750.0 -1.133544921875 0.17657470703125
13376740625.0 -0.75347900390625 0.855865478515625
