!Created with skrf (http://scikit-rf.org).
# Hz S RI R 50.0 
!freq ReS11 ImS11
45000000.0 -0.07695388793945312 -0.09681320190429688
76221875.0 -0.1961517333984375 -0.04772186279296875
107443750.0 -0.2547149658203125 0.11944580078125
138665625.0 -0.1480865478515625 0.3280792236328125
169887500.0 0.123382568359375 0.4171142578125
201109375.0 0.42138671875 0.2808074951171875
232331250.0 0.578460693359375 -0.05731201171875
263553125.0 0.48931884765625 -0.4520263671875
294775000.0 0.098846435546875 -0.731719970703125
325996875.0 -0.41448974609375 -0.679962158203125
357218750.0 -0.805267333984375 -0.297027587890625
388440625.0 -0.884796142578125 0.29974365234375
419662500.0 -0.517181396484375 0.8653564453125
450884375.0 0.1724853515625 1.02783203125
482106250.0 0.797271728515625 0.71221923828125
513328125.0 1.1182861328125 0.087646484375
544550000.0 1.00311279296875 -0.67877197265625
575771875.0 0.33648681640625 -1.23681640625
606993750.0 -0.552734375 -1.176513671875
638215625.0 -1.16448974609375 -0.59039306640625
669437500.0 -1.338623046875 0.23291015625
700659375.0 -0.97039794921875 1.0947265625
731881250.0 -0.00439453125 1.54144287109375
763103125.0 1.0040283203125 1.1546630859375
794325000.0 1.4669189453125 0.281982421875
825546875.0 1.36602783203125 -0.64990234375
856768750.0 0.794189453125 -1.39825439453125
887990625.0 -0.291259765625 -1.646484375
919212500.0 -1.285888671875 -1.07781982421875
950434375.0 -1.6463623046875 -0.05987548828125
981656250.0 -1.38140869140625 0.94403076171875
1012878125.0 -0.52996826171875 1.66912841796875
1044100000.0 0.69476318359375 1.65972900390625
1075321875.0 1.5714111328125 0.81182861328125
1106543750.0 1.7021484375 -0.31146240234375
1137765625.0 1.18548583984375 -1.28167724609375
1168987500.0 0.138671875 -1.79449462890625
1200209375.0 -1.05950927734375 -1.48187255859375
1231431250.0 -1.72454833984375 -0.45355224609375
1262653125.0 -1.59234619140625 0.68231201171875
1293875000.0 -0.8514404296875 1.48876953125
1325096875.0 0.22686767578125 1.70391845703125
1356318750.0 1.23284912109375 1.21527099609375
1387540625.0 1.736572265625 0.189208984375
1418762500.0 1.46722412109375 -0.94915771484375
1449984375.0 0.529052734375 -1.62322998046875
1481206250.0 -0.548095703125 -1.5537109375
1512428125.0 -1.3388671875 -0.91876220703125
1543650000.0 -1.65325927734375 0.0645751953125
1574871875.0 -1.27203369140625 1.1063232421875
1606093750.0 -0.27325439453125 1.6285400390625
1637315625.0 0.7406005859375 1.39862060546875
1668537500.0 1.3931884765625 0.695556640625
1699759375.0 1.57061767578125 -0.2752685546875
1730981250.0 1.06298828125 -1.2269287109375
1762203125.0 0.0430908203125 -1.5679931640625
1793425000.0 -0.85394287109375 -1.22491455078125
1824646875.0 -1.39129638671875 -0.5147705078125
1855868750.0 -1.47161865234375 0.43096923828125
1887090625.0 -0.87408447265625 1.28363037109375
1918312500.0 0.11614990234375 1.48431396484375
1949534375.0 0.91949462890625 1.0877685546875
1980756250.0 1.3729248046875 0.3697509765625
2011978125.0 1.357666015625 -0.5303955078125
2043200000.0 0.74951171875 -1.259033203125
2074421875.0 -0.15576171875 -1.43133544921875
2105643750.0 -0.95819091796875 -1.071533203125
2136865625.0 -1.445068359375 -0.30511474609375
2168087500.0 -1.355224609375 0.66961669921875
2199309375.0 -0.638671875 1.3489990234375
2230531250.0 0.2808837890625 1.43450927734375
2261753125.0 1.0706787109375 1.0126953125
2292975000.0 1.5123291015625 0.17034912109375
2324196875.0 1.3037109375 -0.81689453125
2355418750.0 0.52508544921875 -1.417236328125
2386640625.0 -0.403076171875 -1.44647216796875
2417862500.0 -1.17938232421875 -1.022705078125
2449084375.0 -1.601318359375 -0.08544921875
2480306250.0 -1.30938720703125 0.9237060546875
2511528125.0 -0.49462890625 1.50469970703125
2542750000.0 0.487060546875 1.53363037109375
2573971875.0 1.367919921875 0.9664306640625
2605193750.0 1.71356201171875 -0.111083984375
2636415625.0 1.25958251953125 -1.148681640625
2667637500.0 0.3062744140625 -1.66375732421875
2698859375.0 -0.7669677734375 -1.53118896484375
2730081250.0 -1.57061767578125 -0.7401123046875
2761303125.0 -1.6781005859375 0.38616943359375
2792525000.0 -1.09820556640625 1.303466796875
2823746875.0 -0.1044921875 1.72509765625
2854968750.0 1.0086669921875 1.45306396484375
2886190625.0 1.6885986328125 0.4913330078125
2917412500.0 1.5966796875 -0.61474609375
2948634375.0 0.93792724609375 -1.43011474609375
2979856250.0 -0.1065673828125 -1.77288818359375
3011078125.0 -1.2427978515625 -1.340576171875
3042300000.0 -1.77093505859375 -0.2353515625
3073521875.0 -1.50604248046875 0.8348388671875
3104743750.0 -0.76226806640625 1.56512451171875
3135965625.0 0.36004638671875 1.8062744140625
3167187500.0 1.4937744140625 1.1630859375
3198409375.0 1.81231689453125 -0.07452392578125
3229631250.0 1.3468017578125 -1.0780029296875
3260853125.0 0.4892578125 -1.6646728515625
3292075000.0 -0.6519775390625 -1.69427490234375
3323296875.0 -1.61590576171875 -0.87884521484375
3354518750.0 -1.7271728515625 0.3270263671875
3385740625.0 -1.15399169921875 1.22894287109375
3416962500.0 -0.23162841796875 1.6788330078125
3448184375.0 0.8565673828125 1.518310546875
3479406250.0 1.63165283203125 0.64410400390625
3510628125.0 1.640869140625 -0.49267578125
3541850000.0 0.99896240234375 -1.3504638671875
3573071875.0 -0.007080078125 -1.67974853515625
3604293750.0 -1.02490234375 -1.33544921875
3635515625.0 -1.6248779296875 -0.43829345703125
3666737500.0 -1.55859375 0.64373779296875
3697959375.0 -0.82415771484375 1.4718017578125
3729181250.0 0.26544189453125 1.62738037109375
3760403125.0 1.150146484375 1.09649658203125
3791625000.0 1.549072265625 0.21807861328125
3822846875.0 1.39996337890625 -0.75982666015625
3854068750.0 0.62060546875 -1.477294921875
3885290625.0 -0.41925048828125 -1.4783935546875
3916512500.0 -1.13946533203125 -0.91021728515625
3947734375.0 -1.44415283203125 -0.12103271484375
3978956250.0 -1.2950439453125 0.77685546875
4010178125.0 -0.53094482421875 1.4515380859375
4041400000.0 0.470703125 1.4127197265625
4072621875.0 1.148681640625 0.84698486328125
4103843750.0 1.44158935546875 0.06439208984375
4135065625.0 1.26593017578125 -0.8433837890625
4166287500.0 0.45770263671875 -1.492431640625
4197509375.0 -0.5552978515625 -1.41259765625
4228731250.0 -1.24462890625 -0.802490234375
4259953125.0 -1.5067138671875 0.06982421875
4291175000.0 -1.187255859375 1.007568359375
4322396875.0 -0.2899169921875 1.5224609375
4353618750.0 0.67095947265625 1.3480224609375
4384840625.0 1.318603515625 0.697021484375
4416062500.0 1.49774169921875 -0.22528076171875
4447284375.0 1.05389404296875 -1.10064697265625
4478506250.0 0.17340087890625 -1.49237060546875
4509728125.0 -0.73126220703125 -1.30584716796875
4540950000.0 -1.39031982421875 -0.63592529296875
4572171875.0 -1.520263671875 0.35894775390625
4603393750.0 -0.97174072265625 1.20977783203125
4634615625.0 -0.062255859375 1.53515625
4665837500.0 0.86761474609375 1.302734375
4697059375.0 1.537353515625 0.5162353515625
4728281250.0 1.52642822265625 -0.580322265625
4759503125.0 0.8223876953125 -1.36419677734375
4790725000.0 -0.14422607421875 -1.57000732421875
4821946875.0 -1.08074951171875 -1.19244384765625
4853168750.0 -1.60943603515625 -0.2520751953125
4884390625.0 -1.3763427734375 0.7901611328125
4915612500.0 -0.61346435546875 1.40972900390625
4946834375.0 0.32830810546875 1.50775146484375
4978056250.0 1.203125 1.0162353515625
5009278125.0 1.5594482421875 0.0400390625
5040500000.0 1.2281494140625 -0.8741455078125
5071721875.0 0.501953125 -1.41131591796875
5102943750.0 -0.44476318359375 -1.49444580078125
5134165625.0 -1.33282470703125 -0.90484619140625
5165387500.0 -1.5654296875 0.14471435546875
5196609375.0 -1.134765625 1.00872802734375
5227831250.0 -0.3577880859375 1.502685546875
5259053125.0 0.68572998046875 1.49102783203125
5290275000.0 1.51922607421875 0.66229248046875
5321496875.0 1.49005126953125 -0.428955078125
5352718750.0 0.91998291015625 -1.1510009765625
5383940625.0 0.09747314453125 -1.49749755859375
5415162500.0 -0.89788818359375 -1.28216552734375
5446384375.0 -1.48150634765625 -0.3707275390625
5477606250.0 -1.29730224609375 0.5640869140625
5508828125.0 -0.7308349609375 1.14898681640625
5540050000.0 0.052734375 1.39617919921875
5571271875.0 0.937744140625 1.10723876953125
5602493750.0 1.40655517578125 0.260498046875
5633715625.0 1.23101806640625 -0.61175537109375
5664937500.0 0.6478271484375 -1.1998291015625
5696159375.0 -0.19598388671875 -1.38134765625
5727381250.0 -1.0191650390625 -0.9776611328125
5758603125.0 -1.38934326171875 -0.1455078125
5789825000.0 -1.193115234375 0.71710205078125
5821046875.0 -0.506103515625 1.30352783203125
5852268750.0 0.40972900390625 1.31060791015625
5883490625.0 1.06976318359375 0.7716064453125
5914712500.0 1.3009033203125 0.0201416015625
5945934375.0 1.09515380859375 -0.77374267578125
5977156250.0 0.36102294921875 -1.31048583984375
6008378125.0 -0.5084228515625 -1.18115234375
6039600000.0 -1.0196533203125 -0.64886474609375
6070821875.0 -1.22210693359375 -0.00506591796875
6102043750.0 -1.0816650390625 0.76092529296875
6133265625.0 -0.3421630859375 1.34246826171875
6164487500.0 0.5614013671875 1.18621826171875
6195709375.0 1.068359375 0.62982177734375
6226931250.0 1.277587890625 -0.04193115234375
6258153125.0 1.1036376953125 -0.86981201171875
6289375000.0 0.2572021484375 -1.4432373046875
6320596875.0 -0.6881103515625 -1.205078125
6351818750.0 -1.19854736328125 -0.5716552734375
6383040625.0 -1.35308837890625 0.20550537109375
6414262500.0 -0.99859619140625 1.05487060546875
6445484375.0 -0.079345703125 1.4541015625
6476706250.0 0.793701171875 1.14697265625
6507928125.0 1.287353515625 0.4708251953125
6539150000.0 1.34521484375 -0.3843994140625
6570371875.0 0.8404541015625 -1.142333984375
6601593750.0 -0.01568603515625 -1.4022216796875
6632815625.0 -0.8377685546875 -1.1356201171875
6664037500.0 -1.3995361328125 -0.42022705078125
6695259375.0 -1.3719482421875 0.5645751953125
6726481250.0 -0.7098388671875 1.25018310546875
6757703125.0 0.12939453125 1.4044189453125
6788925000.0 0.9525146484375 1.12908935546875
6820146875.0 1.55828857421875 0.2882080078125
6851368750.0 1.3243408203125 -0.81658935546875
6882590625.0 0.5057373046875 -1.3377685546875
6913812500.0 -0.291015625 -1.35394287109375
6945034375.0 -1.0672607421875 -1.0203857421875
6976256250.0 -1.58843994140625 -0.09515380859375
7007478125.0 -1.2349853515625 0.93231201171875
7038700000.0 -0.402099609375 1.3406982421875
7069921875.0 0.3570556640625 1.321044921875
7101143750.0 1.11688232421875 0.96868896484375
7132365625.0 1.5950927734375 0.01715087890625
7163587500.0 1.15643310546875 -1.0162353515625
7194809375.0 0.3038330078125 -1.3927001953125
7226031250.0 -0.50921630859375 -1.3232421875
7257253125.0 -1.2646484375 -0.82373046875
7288475000.0 -1.556640625 0.19879150390625
7319696875.0 -1.0286865234375 1.10772705078125
7350918750.0 -0.16571044921875 1.44110107421875
7382140625.0 0.7144775390625 1.27532958984375
7413362500.0 1.37469482421875 0.574951171875
7444584375.0 1.41033935546875 -0.40496826171875
7475806250.0 0.857421875 -1.14208984375
7507028125.0 0.00787353515625 -1.42633056640625
7538250000.0 -0.88543701171875 -1.122314453125
7569471875.0 -1.33343505859375 -0.31256103515625
7600693750.0 -1.20050048828125 0.49462890625
7631915625.0 -0.71795654296875 1.0828857421875
7663137500.0 0.080322265625 1.3577880859375
7694359375.0 0.938568115234375 0.97991943359375
7725581250.0 1.2418212890625 0.18133544921875
7756803125.0 1.08160400390625 -0.49676513671875
7788025000.0 0.66973876953125 -1.04290771484375
7819246875.0 -0.1201171875 -1.34576416015625
7850468750.0 -0.991363525390625 -0.914886474609375
7881690625.0 -1.22998046875 -0.10467529296875
7912912500.0 -1.05316162109375 0.55133056640625
7944134375.0 -0.60491943359375 1.11138916015625
7975356250.0 0.27044677734375 1.3323974609375
8006578125.0 1.04473876953125 0.77838134765625
8037800000.0 1.1917724609375 0.0166015625
8069021875.0 1.0054931640625 -0.615478515625
8100243750.0 0.499755859375 -1.16021728515625
8131465625.0 -0.38592529296875 -1.2529296875
8162687500.0 -1.0299072265625 -0.68695068359375
8193909375.0 -1.18060302734375 0.0076904296875
8225131250.0 -1.0167236328125 0.6748046875
8256353125.0 -0.4227294921875 1.24615478515625
8287575000.0 0.49981689453125 1.22467041015625
8318796875.0 1.0810546875 0.63507080078125
8350018750.0 1.24365234375 -0.07373046875
8381240625.0 1.0306396484375 -0.83905029296875
8412462500.0 0.25457763671875 -1.371826171875
8443684375.0 -0.66632080078125 -1.16815185546875
8474906250.0 -1.17437744140625 -0.53131103515625
8506128125.0 -1.29541015625 0.2354736328125
8537350000.0 -0.92388916015625 1.045654296875
8568571875.0 -0.01556396484375 1.39501953125
8599793750.0 0.8006591796875 1.0523681640625
8631015625.0 1.24114990234375 0.397705078125
8662237500.0 1.28594970703125 -0.42840576171875
8693459375.0 0.7369384765625 -1.1746826171875
8724681250.0 -0.1611328125 -1.330810546875
8755903125.0 -0.8790283203125 -0.957366943359375
8787125000.0 -1.30181884765625 -0.28253173828125
8818346875.0 -1.2496337890625 0.61138916015625
8849568750.0 -0.55633544921875 1.259033203125
8880790625.0 0.29669189453125 1.28369140625
8912012500.0 0.98028564453125 0.89251708984375
8943234375.0 1.39837646484375 0.128662109375
8974456250.0 1.1658935546875 -0.83843994140625
9005678125.0 0.34942626953125 -1.31201171875
9036900000.0 -0.44482421875 -1.22442626953125
9068121875.0 -1.0994873046875 -0.78533935546875
9099343750.0 -1.44012451171875 0.09576416015625
9130565625.0 -0.978759765625 1.0091552734375
9161787500.0 -0.15576171875 1.280029296875
9193009375.0 0.5526123046875 1.13250732421875
9224231250.0 1.177001953125 0.65533447265625
9255453125.0 1.3975830078125 -0.2938232421875
9286675000.0 0.8079833984375 -1.083984375
9317896875.0 0.02801513671875 -1.24462890625
9349118750.0 -0.65118408203125 -1.0677490234375
9380340625.0 -1.255859375 -0.51007080078125
9411562500.0 -1.3099365234375 0.47491455078125
9442784375.0 -0.647705078125 1.11627197265625
9474006250.0 0.08905029296875 1.2093505859375
9505228125.0 0.763641357421875 0.979156494140625
9536450000.0 1.27301025390625 0.31329345703125
9567671875.0 1.1439208984375 -0.58001708984375
9598893750.0 0.5301513671875 -1.06671142578125
9630115625.0 -0.1412353515625 -1.15570068359375
9661337500.0 -0.816192626953125 -0.901702880859375
9692559375.0 -1.23760986328125 -0.19146728515625
9723781250.0 -1.04217529296875 0.6015625
9755003125.0 -0.4862060546875 1.05010986328125
9786225000.0 0.19683837890625 1.15728759765625
9817446875.0 0.89349365234375 0.82708740234375
9848668750.0 1.1951904296875 0.07916259765625
9879890625.0 0.967315673828125 -0.6141357421875
9911112500.0 0.4522705078125 -1.05078125
9942334375.0 -0.2672119140625 -1.1583251953125
9973556250.0 -0.94366455078125 -0.738006591796875
10004778125.0 -1.14508056640625 -0.01788330078125
10036000000.0 -0.944244384765625 0.61492919921875
10067221875.0 -0.4415283203125 1.096923828125
10098443750.0 0.37060546875 1.18060302734375
10129665625.0 1.00274658203125 0.64300537109375
10160887500.0 1.1190185546875 -0.0518798828125
10192109375.0 0.917083740234375 -0.661956787109375
10223331250.0 0.36138916015625 -1.15130615234375
10254553125.0 -0.486572265625 -1.11376953125
10285775000.0 -0.9849853515625 -0.535308837890625
10316996875.0 -1.06573486328125 0.07598876953125
10348218750.0 -0.900604248046875 0.668304443359375
10379440625.0 -0.322998046875 1.1751708984375
10410662500.0 0.52520751953125 1.08477783203125
10441884375.0 0.989715576171875 0.52227783203125
10473106250.0 1.1083984375 -0.0843505859375
10504328125.0 0.948486328125 -0.756561279296875
10535550000.0 0.2392578125 -1.294189453125
10566771875.0 -0.65667724609375 -1.07684326171875
10597993750.0 -1.0802001953125 -0.4591064453125
10629215625.0 -1.173583984375 0.2037353515625
10660437500.0 -0.887481689453125 0.95159912109375
10691659375.0 -0.01019287109375 1.3338623046875
10722881250.0 0.78338623046875 0.951629638671875
10754103125.0 1.11907958984375 0.32476806640625
10785325000.0 1.137939453125 -0.3658447265625
10816546875.0 0.7010498046875 -1.04736328125
10847768750.0 -0.1446533203125 -1.22808837890625
10878990625.0 -0.801666259765625 -0.843658447265625
10910212500.0 -1.12115478515625 -0.245361328125
10941434375.0 -1.0966796875 0.4755859375
10972656250.0 -0.56805419921875 1.084228515625
11003878125.0 0.216064453125 1.1722412109375
11035100000.0 0.846832275390625 0.82196044921875
11066321875.0 1.21875 0.17449951171875
11097543750.0 1.0987548828125 -0.67431640625
11128765625.0 0.38641357421875 -1.19940185546875
11159987500.0 -0.39483642578125 -1.13934326171875
11191209375.0 -0.997833251953125 -0.702117919921875
11222431250.0 -1.27069091796875 0.09228515625
11253653125.0 -0.85919189453125 0.893402099609375
11284875000.0 -0.1160888671875 1.124755859375
11316096875.0 0.5096435546875 0.955963134765625
11347318750.0 1.00152587890625 0.501953125
11378540625.0 1.1165771484375 -0.267822265625
11409762500.0 0.635498046875 -0.857147216796875
11440984375.0 0.036224365234375 -0.977691650390625
11472206250.0 -0.479400634765625 -0.849639892578125
11503428125.0 -0.952056884765625 -0.45648193359375
11534650000.0 -1.06793212890625 0.28790283203125
11565871875.0 -0.602142333984375 0.8548583984375
11597093750.0 -0.019195556640625 0.99066162109375
11628315625.0 0.542236328125 0.874053955078125
11659537500.0 1.05987548828125 0.3914794921875
11690759375.0 1.06402587890625 -0.431884765625
11721981250.0 0.516510009765625 -0.93878173828125
11753203125.0 -0.105224609375 -1.03564453125
11784425000.0 -0.722930908203125 -0.80841064453125
11815646875.0 -1.09991455078125 -0.1514892578125
11846868750.0 -0.8916015625 0.5494384765625
11878090625.0 -0.390899658203125 0.90777587890625
11909312500.0 0.187164306640625 0.984039306640625
11940534375.0 0.779205322265625 0.695465087890625
11971756250.0 1.024658203125 0.0394287109375
12002978125.0 0.805633544921875 -0.53643798828125
12034200000.0 0.382659912109375 -0.888092041015625
12065421875.0 -0.21343994140625 -1.00933837890625
12096643750.0 -0.846343994140625 -0.664794921875
12127865625.0 -1.03216552734375 0.01416015625
12159087500.0 -0.8150634765625 0.574493408203125
12190309375.0 -0.377899169921875 0.97509765625
12221531250.0 0.33795166015625 1.08740234375
12252753125.0 0.9798583984375 0.582366943359375
12283975000.0 1.0518798828125 -0.125732421875
12315196875.0 0.800689697265625 -0.6766357421875
12346418750.0 0.28106689453125 -1.0906982421875
12377640625.0 -0.53631591796875 -1.059814453125
12408862500.0 -1.0328369140625 -0.41973876953125
12440084375.0 -1.00738525390625 0.22357177734375
12471306250.0 -0.74212646484375 0.734527587890625
12502528125.0 -0.18048095703125 1.11846923828125
12533750000.0 0.619354248046875 0.99444580078125
12564971875.0 1.04010009765625 0.3651123046875
12596193750.0 1.0286865234375 -0.26275634765625
12627415625.0 0.74755859375 -0.828033447265625
12658637500.0 0.0806884765625 -1.20574951171875
12689859375.0 -0.7359619140625 -0.966796875
12721081250.0 -1.116943359375 -0.30572509765625
12752303125.0 -1.09619140625 0.3812255859375
12783525000.0 -0.686767578125 1.025634765625
12814746875.0 0.16357421875 1.250244140625
12845968750.0 0.861175537109375 0.8104248046875
12877190625.0 1.11614990234375 0.1717529296875
12908412500.0 1.054443359375 -0.498779296875
12939634375.0 0.54376220703125 -1.114013671875
12970856250.0 -0.3193359375 -1.17462158203125
13002078125.0 -0.89398193359375 -0.693084716796875
13033300000.0 -1.10498046875 -0.0870361328125
13064521875.0 -1.008544921875 0.591796875
13095743750.0 -0.4208984375 1.153564453125
13126965625.0 0.408203125 1.12005615234375
13158187500.0 0.946380615234375 0.631011962890625
13189409375.0 1.14630126953125 -0.01934814453125
13220631250.0 0.935394287109375 -0.746612548828125
13251853125.0 0.23419189453125 -1.17181396484375
13283075000.0 -0.50732421875 -1.02001953125
13314296875.0 -0.9866943359375 -0.52886962890625
13345518750.0 -1.1336669921875 0.17572021484375
13376740625.0 -0.753662109375 0.85443115234375
