!Created with skrf (http://scikit-rf.org).
# Hz S RI R 50.0 
!freq ReS11 ImS11
45000000.0 -0.07672119140625 -0.09703445434570312
76221875.0 -0.1968536376953125 -0.04788970947265625
107443750.0 -0.2558135986328125 0.1195220947265625
138665625.0 -0.1490325927734375 0.3289337158203125
169887500.0 0.1230010986328125 0.4184112548828125
201109375.0 0.4221954345703125 0.2821502685546875
232331250.0 0.58013916015625 -0.0567626953125
263553125.0 0.4912109375 -0.4530181884765625
294775000.0 0.099884033203125 -0.73382568359375
325996875.0 -0.4150390625 -0.68292236328125
357218750.0 -0.80780029296875 -0.299072265625
388440625.0 -0.888153076171875 0.29998779296875
419662500.0 -0.519805908203125 0.867279052734375
450884375.0 0.17144775390625 1.0313720703125
482106250.0 0.7989501953125 0.7156982421875
513328125.0 1.12152099609375 0.08892822265625
544550000.0 1.006591796875 -0.67974853515625
575771875.0 0.33917236328125 -1.23968505859375
606993750.0 -0.55267333984375 -1.1805419921875
638215625.0 -1.1671142578125 -0.5936279296875
669437500.0 -1.34259033203125 0.232177734375
700659375.0 -0.974365234375 1.09661865234375
731881250.0 -0.00634765625 1.5457763671875
763103125.0 1.00518798828125 1.159912109375
794325000.0 1.47125244140625 0.28485107421875
825546875.0 1.3709716796875 -0.650634765625
856768750.0 0.7978515625 -1.4024658203125
887990625.0 -0.29071044921875 -1.65203857421875
919212500.0 -1.28924560546875 -1.0828857421875
950434375.0 -1.65228271484375 -0.0614013671875
981656250.0 -1.386962890625 0.9462890625
1012878125.0 -0.53326416015625 1.6746826171875
1044100000.0 0.6964111328125 1.6669921875
1075321875.0 1.57684326171875 0.81634521484375
1106543750.0 1.7086181640625 -0.3106689453125
1137765625.0 1.1912841796875 -1.2847900390625
1168987500.0 0.1412353515625 -1.80072021484375
1200209375.0 -1.06182861328125 -1.48858642578125
1231431250.0 -1.73052978515625 -0.4566650390625
1262653125.0 -1.5985107421875 0.68353271484375
1293875000.0 -0.8564453125 1.49310302734375
1325096875.0 0.22589111328125 1.7110595703125
1356318750.0 1.235595703125 1.2213134765625
1387540625.0 1.74298095703125 0.19189453125
1418762500.0 1.4732666015625 -0.95098876953125
1449984375.0 0.5328369140625 -1.62799072265625
1481206250.0 -0.54876708984375 -1.5599365234375
1512428125.0 -1.34375 -0.92327880859375
1543650000.0 -1.65875244140625 0.06365966796875
1574871875.0 -1.27716064453125 1.109130859375
1606093750.0 -0.275634765625 1.63397216796875
1637315625.0 0.74163818359375 1.404052734375
1668537500.0 1.3978271484375 0.69921875
1699759375.0 1.57672119140625 -0.2755126953125
1730981250.0 1.06793212890625 -1.23016357421875
1762203125.0 0.044189453125 -1.573486328125
1793425000.0 -0.85614013671875 -1.22998046875
1824646875.0 -1.395263671875 -0.51788330078125
1855868750.0 -1.47711181640625 0.4312744140625
1887090625.0 -0.8782958984375 1.2869873046875
1918312500.0 0.1158447265625 1.4893798828125
1949534375.0 0.922119140625 1.092041015625
1980756250.0 1.376953125 0.37237548828125
2011978125.0 1.36273193359375 -0.5311279296875
2043200000.0 0.75311279296875 -1.26287841796875
2074421875.0 -0.15570068359375 -1.436279296875
2105643750.0 -0.9610595703125 -1.0753173828125
2136865625.0 -1.44970703125 -0.30706787109375
2168087500.0 -1.36041259765625 0.67071533203125
2199309375.0 -0.6416015625 1.35357666015625
2230531250.0 0.2813720703125 1.43939208984375
2261753125.0 1.073486328125 1.0167236328125
2292975000.0 1.51708984375 0.17205810546875
2324196875.0 1.30859375 -0.81878662109375
2355418750.0 0.52734375 -1.42181396484375
2386640625.0 -0.40423583984375 -1.4515380859375
2417862500.0 -1.18170166015625 -1.02685546875
2449084375.0 -1.6077880859375 -0.08489990234375
2480306250.0 -1.3148193359375 0.92657470703125
2511528125.0 -0.49609375 1.51055908203125
2542750000.0 0.48785400390625 1.53997802734375
2573971875.0 1.3736572265625 0.97100830078125
2605193750.0 1.7208251953125 -0.11163330078125
2636415625.0 1.2645263671875 -1.154052734375
2667637500.0 0.3082275390625 -1.66973876953125
2698859375.0 -0.77008056640625 -1.5380859375
2730081250.0 -1.576416015625 -0.7430419921875
2761303125.0 -1.6846923828125 0.38702392578125
2792525000.0 -1.102294921875 1.30902099609375
2823746875.0 -0.10400390625 1.73333740234375
2854968750.0 1.0133056640625 1.45953369140625
2886190625.0 1.69500732421875 0.49383544921875
2917412500.0 1.60400390625 -0.61785888671875
2948634375.0 0.94244384765625 -1.43572998046875
2979856250.0 -0.1072998046875 -1.77935791015625
3011078125.0 -1.249755859375 -1.345703125
3042300000.0 -1.7774658203125 -0.23687744140625
3073521875.0 -1.51165771484375 0.83795166015625
3104743750.0 -0.76568603515625 1.5711669921875
3135965625.0 0.3609619140625 1.8123779296875
3167187500.0 1.50103759765625 1.1671142578125
3198409375.0 1.8187255859375 -0.07354736328125
3229631250.0 1.35174560546875 -1.08111572265625
3260853125.0 0.491455078125 -1.67071533203125
3292075000.0 -0.65478515625 -1.70166015625
3323296875.0 -1.62237548828125 -0.8819580078125
3354518750.0 -1.734619140625 0.328857421875
3385740625.0 -1.15887451171875 1.23291015625
3416962500.0 -0.23272705078125 1.685302734375
3448184375.0 0.86181640625 1.5250244140625
3479406250.0 1.638916015625 0.64630126953125
3510628125.0 1.64666748046875 -0.494140625
3541850000.0 1.0029296875 -1.3570556640625
3573071875.0 -0.0062255859375 -1.6851806640625
3604293750.0 -1.02960205078125 -1.3399658203125
3635515625.0 -1.63006591796875 -0.4398193359375
3666737500.0 -1.564697265625 0.64642333984375
3697959375.0 -0.82672119140625 1.47833251953125
3729181250.0 0.267822265625 1.6336669921875
3760403125.0 1.15423583984375 1.1004638671875
3791625000.0 1.55487060546875 0.21942138671875
3822846875.0 1.4056396484375 -0.761474609375
3854068750.0 0.62213134765625 -1.4853515625
3885290625.0 -0.42230224609375 -1.48468017578125
3916512500.0 -1.14385986328125 -0.91314697265625
3947734375.0 -1.45098876953125 -0.12017822265625
3978956250.0 -1.30072021484375 0.78076171875
4010178125.0 -0.53271484375 1.45703125
4041400000.0 0.4737548828125 1.41754150390625
4072621875.0 1.15447998046875 0.84881591796875
4103843750.0 1.44696044921875 0.06304931640625
4135065625.0 1.27001953125 -0.84844970703125
4166287500.0 0.45794677734375 -1.49871826171875
4197509375.0 -0.55853271484375 -1.41741943359375
4228731250.0 -1.2489013671875 -0.8040771484375
4259953125.0 -1.5111083984375 0.07061767578125
4291175000.0 -1.19073486328125 1.011962890625
4322396875.0 -0.28973388671875 1.52911376953125
4353618750.0 0.6741943359375 1.3525390625
4384840625.0 1.3240966796875 0.69873046875
4416062500.0 1.50347900390625 -0.22760009765625
4447284375.0 1.05743408203125 -1.1065673828125
4478506250.0 0.17303466796875 -1.49737548828125
4509728125.0 -0.73468017578125 -1.31011962890625
4540950000.0 -1.3963623046875 -0.63739013671875
4572171875.0 -1.525390625 0.3612060546875
4603393750.0 -0.9732666015625 1.2154541015625
4634615625.0 -0.06085205078125 1.53936767578125
4665837500.0 0.871826171875 1.3065185546875
4697059375.0 1.54290771484375 0.51617431640625
4728281250.0 1.53143310546875 -0.58392333984375
4759503125.0 0.82415771484375 -1.36962890625
4790725000.0 -0.14642333984375 -1.5750732421875
4821946875.0 -1.0855712890625 -1.19573974609375
4853168750.0 -1.61724853515625 -0.25067138671875
4884390625.0 -1.3798828125 0.7950439453125
4915612500.0 -0.6138916015625 1.4154052734375
4946834375.0 0.3299560546875 1.51287841796875
4978056250.0 1.20758056640625 1.01885986328125
5009278125.0 1.564208984375 0.03961181640625
5040500000.0 1.2313232421875 -0.87835693359375
5071721875.0 0.50164794921875 -1.418212890625
5102943750.0 -0.4488525390625 -1.49981689453125
5134165625.0 -1.33929443359375 -0.9072265625
5165387500.0 -1.5699462890625 0.147216796875
5196609375.0 -1.13714599609375 1.01202392578125
5227831250.0 -0.35772705078125 1.5087890625
5259053125.0 0.68951416015625 1.494873046875
5290275000.0 1.52471923828125 0.66259765625
5321496875.0 1.49462890625 -0.43280029296875
5352718750.0 0.92169189453125 -1.155517578125
5383940625.0 0.0958251953125 -1.50311279296875
5415162500.0 -0.90191650390625 -1.2857666015625
5446384375.0 -1.48651123046875 -0.3709716796875
5477606250.0 -1.301513671875 0.56768798828125
5508828125.0 -0.73223876953125 1.15435791015625
5540050000.0 0.0546875 1.401611328125
5571271875.0 0.94085693359375 1.110107421875
5602493750.0 1.410888671875 0.25970458984375
5633715625.0 1.23455810546875 -0.614990234375
5664937500.0 0.648681640625 -1.20458984375
5696159375.0 -0.1990966796875 -1.38629150390625
5727381250.0 -1.02532958984375 -0.97930908203125
5758603125.0 -1.39361572265625 -0.14410400390625
5789825000.0 -1.19610595703125 0.720947265625
5821046875.0 -0.506103515625 1.31109619140625
5852268750.0 0.41241455078125 1.314453125
5883490625.0 1.07470703125 0.77239990234375
5914712500.0 1.30499267578125 0.01885986328125
5945934375.0 1.09783935546875 -0.778076171875
5977156250.0 0.3603515625 -1.31585693359375
6008378125.0 -0.51177978515625 -1.18450927734375
6039600000.0 -1.0245361328125 -0.64971923828125
6070821875.0 -1.2266845703125 -0.00347900390625
6102043750.0 -1.0850830078125 0.76409912109375
6133265625.0 -0.3411865234375 1.34796142578125
6164487500.0 0.56561279296875 1.18927001953125
6195709375.0 1.07196044921875 0.63018798828125
6226931250.0 1.28216552734375 -0.043701171875
6258153125.0 1.1058349609375 -0.874267578125
6289375000.0 0.253173828125 -1.4498291015625
6320596875.0 -0.6927490234375 -1.20684814453125
6351818750.0 -1.201904296875 -0.5712890625
6383040625.0 -1.3568115234375 0.20941162109375
6414262500.0 -0.9996337890625 1.0601806640625
6445484375.0 -0.0771484375 1.458251953125
6476706250.0 0.796875 1.14794921875
6507928125.0 1.29193115234375 0.46990966796875
6539150000.0 1.34912109375 -0.38800048828125
6570371875.0 0.84149169921875 -1.1475830078125
6601593750.0 -0.018310546875 -1.40704345703125
6632815625.0 -0.841796875 -1.13751220703125
6664037500.0 -1.40423583984375 -0.4195556640625
6695259375.0 -1.37579345703125 0.56976318359375
6726481250.0 -0.7100830078125 1.2550048828125
6757703125.0 0.13153076171875 1.4088134765625
6788925000.0 0.958251953125 1.13275146484375
6820146875.0 1.56414794921875 0.28643798828125
6851368750.0 1.326171875 -0.82183837890625
6882590625.0 0.50506591796875 -1.34100341796875
6913812500.0 -0.29437255859375 -1.35772705078125
6945034375.0 -1.0731201171875 -1.0223388671875
6976256250.0 -1.59539794921875 -0.091064453125
7007478125.0 -1.23687744140625 0.93389892578125
7038700000.0 -0.40203857421875 1.34576416015625
7069921875.0 0.36029052734375 1.32562255859375
7101143750.0 1.1201171875 0.96954345703125
7132365625.0 1.602783203125 0.0130615234375
7163587500.0 1.1585693359375 -1.02508544921875
7194809375.0 0.30218505859375 -1.39984130859375
7226031250.0 -0.5140380859375 -1.3289794921875
7257253125.0 -1.27203369140625 -0.8240966796875
7288475000.0 -1.560791015625 0.2012939453125
7319696875.0 -1.0306396484375 1.11248779296875
7350918750.0 -0.163330078125 1.4473876953125
7382140625.0 0.7196044921875 1.27911376953125
7413362500.0 1.37994384765625 0.5743408203125
7444584375.0 1.4129638671875 -0.408447265625
7475806250.0 0.85931396484375 -1.14605712890625
7507028125.0 0.00469970703125 -1.43182373046875
7538250000.0 -0.8917236328125 -1.12548828125
7569471875.0 -1.33843994140625 -0.30963134765625
7600693750.0 -1.20428466796875 0.49847412109375
7631915625.0 -0.71875 1.08697509765625
7663137500.0 0.08233642578125 1.36224365234375
7694359375.0 0.943817138671875 0.982879638671875
7725581250.0 1.24603271484375 0.17950439453125
7756803125.0 1.084228515625 -0.50079345703125
7788025000.0 0.671142578125 -1.04742431640625
7819246875.0 -0.12310791015625 -1.35205078125
7850468750.0 -0.997344970703125 -0.916168212890625
7881690625.0 -1.234130859375 -0.1029052734375
7912912500.0 -1.0557861328125 0.55682373046875
7944134375.0 -0.6043701171875 1.1182861328125
7975356250.0 0.27734375 1.33880615234375
8006578125.0 1.04803466796875 0.7781982421875
8037800000.0 1.19696044921875 0.01483154296875
8069021875.0 1.00830078125 -0.6197509765625
8100243750.0 0.49945068359375 -1.165283203125
8131465625.0 -0.39129638671875 -1.25579833984375
8162687500.0 -1.033447265625 -0.685791015625
8193909375.0 -1.18328857421875 0.01019287109375
8225131250.0 -1.01898193359375 0.6817626953125
8256353125.0 -0.41961669921875 1.2542724609375
8287575000.0 0.50372314453125 1.22808837890625
8318796875.0 1.0863037109375 0.6365966796875
8350018750.0 1.24700927734375 -0.076904296875
8381240625.0 1.032958984375 -0.84344482421875
8412462500.0 0.251220703125 -1.377685546875
8443684375.0 -0.67218017578125 -1.169921875
8474906250.0 -1.17730712890625 -0.5313720703125
8506128125.0 -1.30029296875 0.24029541015625
8537350000.0 -0.92425537109375 1.05047607421875
8568571875.0 -0.01312255859375 1.39752197265625
8599793750.0 0.80426025390625 1.05401611328125
8631015625.0 1.24383544921875 0.39727783203125
8662237500.0 1.2882080078125 -0.43182373046875
8693459375.0 0.73626708984375 -1.18017578125
8724681250.0 -0.165771484375 -1.33404541015625
8755903125.0 -0.883453369140625 -0.95928955078125
8787125000.0 -1.306396484375 -0.2813720703125
8818346875.0 -1.25244140625 0.61865234375
8849568750.0 -0.55657958984375 1.263671875
8880790625.0 0.3018798828125 1.28887939453125
8912012500.0 0.984283447265625 0.893096923828125
8943234375.0 1.40264892578125 0.126708984375
8974456250.0 1.16693115234375 -0.845703125
9005678125.0 0.34588623046875 -1.31683349609375
9036900000.0 -0.4481201171875 -1.22637939453125
9068121875.0 -1.10772705078125 -0.78509521484375
9099343750.0 -1.44329833984375 0.10009765625
9130565625.0 -0.9775390625 1.0166015625
9161787500.0 -0.151611328125 1.2852783203125
9193009375.0 0.55706787109375 1.1346435546875
9224231250.0 1.1815185546875 0.65576171875
9255453125.0 1.4031982421875 -0.30029296875
9286675000.0 0.80621337890625 -1.08837890625
9317896875.0 0.02520751953125 -1.2501220703125
9349118750.0 -0.65887451171875 -1.0723876953125
9380340625.0 -1.26104736328125 -0.5098876953125
9411562500.0 -1.31427001953125 0.48187255859375
9442784375.0 -0.6470947265625 1.1214599609375
9474006250.0 0.09259033203125 1.21429443359375
9505228125.0 0.76861572265625 0.981719970703125
9536450000.0 1.27911376953125 0.309814453125
9567671875.0 1.14453125 -0.585693359375
9598893750.0 0.527099609375 -1.07177734375
9630115625.0 -0.14703369140625 -1.16033935546875
9661337500.0 -0.820404052734375 -0.901611328125
9692559375.0 -1.24359130859375 -0.18621826171875
9723781250.0 -1.04315185546875 0.606201171875
9755003125.0 -0.48529052734375 1.05291748046875
9786225000.0 0.1998291015625 1.1612548828125
9817446875.0 0.89801025390625 0.82763671875
9848668750.0 1.200927734375 0.07537841796875
9879890625.0 0.96923828125 -0.61993408203125
9911112500.0 0.45184326171875 -1.0546875
9942334375.0 -0.27117919921875 -1.1619873046875
9973556250.0 -0.94842529296875 -0.737274169921875
10004778125.0 -1.14794921875 -0.01397705078125
10036000000.0 -0.944488525390625 0.618988037109375
10067221875.0 -0.4398193359375 1.09906005859375
10098443750.0 0.37396240234375 1.18267822265625
10129665625.0 1.007080078125 0.64044189453125
10160887500.0 1.12158203125 -0.05517578125
10192109375.0 0.918182373046875 -0.66607666015625
10223331250.0 0.357666015625 -1.1572265625
10254553125.0 -0.48907470703125 -1.1134033203125
10285775000.0 -0.98809814453125 -0.533447265625
10316996875.0 -1.0687255859375 0.0784912109375
10348218750.0 -0.9005126953125 0.674774169921875
10379440625.0 -0.32037353515625 1.17840576171875
10410662500.0 0.5318603515625 1.0872802734375
10441884375.0 0.99481201171875 0.520721435546875
10473106250.0 1.111328125 -0.08624267578125
10504328125.0 0.94952392578125 -0.760986328125
10535550000.0 0.23773193359375 -1.297119140625
10566771875.0 -0.66400146484375 -1.07733154296875
10597993750.0 -1.08465576171875 -0.45794677734375
10629215625.0 -1.178466796875 0.209716796875
10660437500.0 -0.887054443359375 0.956390380859375
10691659375.0 -0.00469970703125 1.33917236328125
10722881250.0 0.789154052734375 0.951568603515625
10754103125.0 1.1220703125 0.3233642578125
10785325000.0 1.14117431640625 -0.37200927734375
10816546875.0 0.6993408203125 -1.0528564453125
10847768750.0 -0.14935302734375 -1.23114013671875
10878990625.0 -0.805450439453125 -0.84320068359375
10910212500.0 -1.12579345703125 -0.244873046875
10941434375.0 -1.098876953125 0.48089599609375
10972656250.0 -0.56597900390625 1.09088134765625
11003878125.0 0.22100830078125 1.17633056640625
11035100000.0 0.85296630859375 0.82171630859375
11066321875.0 1.223388671875 0.17230224609375
11097543750.0 1.099365234375 -0.6832275390625
11128765625.0 0.38323974609375 -1.20355224609375
11159987500.0 -0.4017333984375 -1.14141845703125
11191209375.0 -1.00579833984375 -0.7005615234375
11222431250.0 -1.27447509765625 0.09765625
11253653125.0 -0.858123779296875 0.89886474609375
11284875000.0 -0.111328125 1.12939453125
11316096875.0 0.516143798828125 0.9573974609375
11347318750.0 1.00787353515625 0.50018310546875
11378540625.0 1.11883544921875 -0.27337646484375
11409762500.0 0.633056640625 -0.863800048828125
11440984375.0 0.033172607421875 -0.980712890625
11472206250.0 -0.48443603515625 -0.85076904296875
11503428125.0 -0.95855712890625 -0.45513916015625
11534650000.0 -1.069580078125 0.29241943359375
11565871875.0 -0.600372314453125 0.857879638671875
11597093750.0 -0.0167236328125 0.9942626953125
11628315625.0 0.548736572265625 0.877166748046875
11659537500.0 1.06610107421875 0.38916015625
11690759375.0 1.0660400390625 -0.4398193359375
11721981250.0 0.514678955078125 -0.9453125
11753203125.0 -0.10894775390625 -1.0386962890625
11784425000.0 -0.730072021484375 -0.8082275390625
11815646875.0 -1.10540771484375 -0.146240234375
11846868750.0 -0.89111328125 0.555450439453125
11878090625.0 -0.389434814453125 0.91204833984375
11909312500.0 0.190643310546875 0.9864501953125
11940534375.0 0.78399658203125 0.6943359375
11971756250.0 1.02813720703125 0.03485107421875
12002978125.0 0.805908203125 -0.5408935546875
12034200000.0 0.380096435546875 -0.893096923828125
12065421875.0 -0.2210693359375 -1.01300048828125
12096643750.0 -0.851898193359375 -0.663909912109375
12127865625.0 -1.0355224609375 0.020263671875
12159087500.0 -0.815277099609375 0.58026123046875
12190309375.0 -0.375396728515625 0.980926513671875
12221531250.0 0.34356689453125 1.08917236328125
12252753125.0 0.984954833984375 0.57867431640625
12283975000.0 1.055908203125 -0.13323974609375
12315196875.0 0.800201416015625 -0.68157958984375
12346418750.0 0.2783203125 -1.0960693359375
12377640625.0 -0.544189453125 -1.06072998046875
12408862500.0 -1.03790283203125 -0.415771484375
12440084375.0 -1.00982666015625 0.2283935546875
12471306250.0 -0.7415771484375 0.7408447265625
12502528125.0 -0.1754150390625 1.12554931640625
12533750000.0 0.62554931640625 0.9932861328125
12564971875.0 1.04376220703125 0.36114501953125
12596193750.0 1.03143310546875 -0.268310546875
12627415625.0 0.74774169921875 -0.831207275390625
12658637500.0 0.074951171875 -1.21044921875
12689859375.0 -0.741912841796875 -0.965484619140625
12721081250.0 -1.1221923828125 -0.30169677734375
12752303125.0 -1.099853515625 0.38836669921875
12783525000.0 -0.684326171875 1.03411865234375
12814746875.0 0.171875 1.253173828125
12845968750.0 0.86773681640625 0.809112548828125
12877190625.0 1.12078857421875 0.167724609375
12908412500.0 1.05694580078125 -0.5068359375
12939634375.0 0.5391845703125 -1.12261962890625
12970856250.0 -0.32708740234375 -1.17645263671875
13002078125.0 -0.90118408203125 -0.691131591796875
13033300000.0 -1.10943603515625 -0.08343505859375
13064521875.0 -1.00970458984375 0.60003662109375
13095743750.0 -0.4161376953125 1.15985107421875
13126965625.0 0.41522216796875 1.1226806640625
13158187500.0 0.951019287109375 0.63018798828125
13189409375.0 1.15093994140625 -0.0242919921875
13220631250.0 0.937469482421875 -0.75390625
13251853125.0 0.2281494140625 -1.17755126953125
13283075000.0 -0.5140380859375 -1.020263671875
13314296875.0 -0.995147705078125 -0.52685546875
13345518750.0 -1.1378173828125 0.1826171875
13376740625.0 -0.749847412109375 0.8641357421875
