!Created with skrf (http://scikit-rf.org).
# Hz S RI R 50.0 
!freq ReS11 ImS11
45000000.0 -0.07712173461914062 -0.09665298461914062
76221875.0 -0.19647979736328125 -0.04718017578125
107443750.0 -0.25494384765625 0.119964599609375
138665625.0 -0.1480255126953125 0.3287200927734375
169887500.0 0.12384033203125 0.4177398681640625
201109375.0 0.4220733642578125 0.2806549072265625
232331250.0 0.5791015625 -0.05792236328125
263553125.0 0.4893798828125 -0.453277587890625
294775000.0 0.09783935546875 -0.7327880859375
325996875.0 -0.4161376953125 -0.680419921875
357218750.0 -0.806976318359375 -0.29656982421875
388440625.0 -0.885833740234375 0.301361083984375
419662500.0 -0.5169677734375 0.867218017578125
450884375.0 0.1739501953125 1.02886962890625
482106250.0 0.799163818359375 0.712371826171875
513328125.0 1.1195068359375 0.08642578125
544550000.0 1.00335693359375 -0.680419921875
575771875.0 0.33551025390625 -1.2381591796875
606993750.0 -0.5545654296875 -1.17669677734375
638215625.0 -1.16632080078125 -0.58966064453125
669437500.0 -1.33966064453125 0.23455810546875
700659375.0 -0.97027587890625 1.09674072265625
731881250.0 -0.0028076171875 1.54290771484375
763103125.0 1.00592041015625 1.15521240234375
794325000.0 1.4688720703125 0.28057861328125
825546875.0 1.3668212890625 -0.65228271484375
856768750.0 0.793701171875 -1.40142822265625
887990625.0 -0.29351806640625 -1.64776611328125
919212500.0 -1.288818359375 -1.07763671875
950434375.0 -1.64898681640625 -0.05780029296875
981656250.0 -1.3822021484375 0.9468994140625
1012878125.0 -0.528564453125 1.67218017578125
1044100000.0 0.6983642578125 1.66143798828125
1075321875.0 1.5750732421875 0.81103515625
1106543750.0 1.704345703125 -0.3140869140625
1137765625.0 1.18548583984375 -1.28546142578125
1168987500.0 0.13690185546875 -1.796630859375
1200209375.0 -1.06243896484375 -1.4827880859375
1231431250.0 -1.7276611328125 -0.45196533203125
1262653125.0 -1.5936279296875 0.685546875
1293875000.0 -0.85076904296875 1.49200439453125
1325096875.0 0.2293701171875 1.7060546875
1356318750.0 1.23504638671875 1.21575927734375
1387540625.0 1.73944091796875 0.18780517578125
1418762500.0 1.46844482421875 -0.951904296875
1449984375.0 0.52838134765625 -1.62548828125
1481206250.0 -0.55059814453125 -1.55523681640625
1512428125.0 -1.34259033203125 -0.9185791015625
1543650000.0 -1.6551513671875 0.066162109375
1574871875.0 -1.27239990234375 1.10943603515625
1606093750.0 -0.27154541015625 1.63134765625
1637315625.0 0.74322509765625 1.399658203125
1668537500.0 1.395751953125 0.69482421875
1699759375.0 1.57275390625 -0.27862548828125
1730981250.0 1.06280517578125 -1.2293701171875
1762203125.0 0.041259765625 -1.56964111328125
1793425000.0 -0.85601806640625 -1.2255859375
1824646875.0 -1.393310546875 -0.51397705078125
1855868750.0 -1.473388671875 0.43292236328125
1887090625.0 -0.874267578125 1.28515625
1918312500.0 0.11737060546875 1.48626708984375
1949534375.0 0.92205810546875 1.0885009765625
1980756250.0 1.37506103515625 0.369384765625
2011978125.0 1.3587646484375 -0.5321044921875
2043200000.0 0.74884033203125 -1.26080322265625
2074421875.0 -0.15771484375 -1.4324951171875
2105643750.0 -0.96087646484375 -1.07135009765625
2136865625.0 -1.4471435546875 -0.30419921875
2168087500.0 -1.35614013671875 0.67169189453125
2199309375.0 -0.637939453125 1.350830078125
2230531250.0 0.28253173828125 1.43505859375
2261753125.0 1.07257080078125 1.0128173828125
2292975000.0 1.5135498046875 0.1695556640625
2324196875.0 1.3045654296875 -0.81878662109375
2355418750.0 0.5242919921875 -1.41986083984375
2386640625.0 -0.4046630859375 -1.4481201171875
2417862500.0 -1.1807861328125 -1.02276611328125
2449084375.0 -1.60382080078125 -0.08331298828125
2480306250.0 -1.31024169921875 0.92572021484375
2511528125.0 -0.49298095703125 1.50750732421875
2542750000.0 0.488525390625 1.53485107421875
2573971875.0 1.36993408203125 0.9664306640625
2605193750.0 1.7161865234375 -0.1129150390625
2636415625.0 1.2606201171875 -1.1529541015625
2667637500.0 0.304931640625 -1.66693115234375
2698859375.0 -0.7703857421875 -1.5330810546875
2730081250.0 -1.57281494140625 -0.7398681640625
2761303125.0 -1.67938232421875 0.388427734375
2792525000.0 -1.09771728515625 1.307373046875
2823746875.0 -0.1015625 1.7286376953125
2854968750.0 1.0118408203125 1.45379638671875
2886190625.0 1.69012451171875 0.49066162109375
2917412500.0 1.59881591796875 -0.6187744140625
2948634375.0 0.93841552734375 -1.43231201171875
2979856250.0 -0.108154296875 -1.7750244140625
3011078125.0 -1.2489013671875 -1.3409423828125
3042300000.0 -1.77496337890625 -0.2325439453125
3073521875.0 -1.5069580078125 0.83819580078125
3104743750.0 -0.7623291015625 1.56732177734375
3135965625.0 0.36212158203125 1.8076171875
3167187500.0 1.498779296875 1.1629638671875
3198409375.0 1.814697265625 -0.07623291015625
3229631250.0 1.346923828125 -1.080810546875
3260853125.0 0.48876953125 -1.666748046875
3292075000.0 -0.6571044921875 -1.69708251953125
3323296875.0 -1.61834716796875 -0.878173828125
3354518750.0 -1.72845458984375 0.32867431640625
3385740625.0 -1.15435791015625 1.2313232421875
3416962500.0 -0.2305908203125 1.680419921875
3448184375.0 0.861083984375 1.520263671875
3479406250.0 1.63531494140625 0.643310546875
3510628125.0 1.6422119140625 -0.49493408203125
3541850000.0 0.9993896484375 -1.35345458984375
3573071875.0 -0.00860595703125 -1.68212890625
3604293750.0 -1.02752685546875 -1.3359375
3635515625.0 -1.627685546875 -0.4368896484375
3666737500.0 -1.56048583984375 0.646728515625
3697959375.0 -0.82440185546875 1.47607421875
3729181250.0 0.267578125 1.629150390625
3760403125.0 1.1527099609375 1.096923828125
3791625000.0 1.55133056640625 0.21710205078125
3822846875.0 1.40087890625 -0.76287841796875
3854068750.0 0.619140625 -1.4794921875
3885290625.0 -0.42108154296875 -1.4794921875
3916512500.0 -1.1416015625 -0.909423828125
3947734375.0 -1.44659423828125 -0.119140625
3978956250.0 -1.2962646484375 0.779541015625
4010178125.0 -0.5301513671875 1.45440673828125
4041400000.0 0.47369384765625 1.41412353515625
4072621875.0 1.15167236328125 0.84686279296875
4103843750.0 1.44390869140625 0.06268310546875
4135065625.0 1.26617431640625 -0.84490966796875
4166287500.0 0.45709228515625 -1.4957275390625
4197509375.0 -0.55755615234375 -1.41424560546875
4228731250.0 -1.24822998046875 -0.80218505859375
4259953125.0 -1.5089111328125 0.07135009765625
4291175000.0 -1.1873779296875 1.01025390625
4322396875.0 -0.28826904296875 1.52581787109375
4353618750.0 0.67364501953125 1.34912109375
4384840625.0 1.322509765625 0.69580078125
4416062500.0 1.500244140625 -0.2286376953125
4447284375.0 1.05419921875 -1.1026611328125
4478506250.0 0.17205810546875 -1.49407958984375
4509728125.0 -0.73272705078125 -1.30670166015625
4540950000.0 -1.39312744140625 -0.6353759765625
4572171875.0 -1.52203369140625 0.360595703125
4603393750.0 -0.9715576171875 1.212158203125
4634615625.0 -0.060546875 1.537109375
4665837500.0 0.8707275390625 1.303955078125
4697059375.0 1.541015625 0.51416015625
4728281250.0 1.528076171875 -0.582275390625
4759503125.0 0.822265625 -1.36676025390625
4790725000.0 -0.14599609375 -1.5721435546875
4821946875.0 -1.0836181640625 -1.193115234375
4853168750.0 -1.612548828125 -0.2508544921875
4884390625.0 -1.3768310546875 0.79241943359375
4915612500.0 -0.61248779296875 1.41168212890625
4946834375.0 0.32904052734375 1.50811767578125
4978056250.0 1.2044677734375 1.01666259765625
5009278125.0 1.560791015625 0.038818359375
5040500000.0 1.2283935546875 -0.87548828125
5071721875.0 0.50115966796875 -1.4136962890625
5102943750.0 -0.44586181640625 -1.495361328125
5134165625.0 -1.33465576171875 -0.9051513671875
5165387500.0 -1.5675048828125 0.146728515625
5196609375.0 -1.13568115234375 1.00927734375
5227831250.0 -0.3575439453125 1.50537109375
5259053125.0 0.68798828125 1.49139404296875
5290275000.0 1.52001953125 0.66302490234375
5321496875.0 1.4910888671875 -0.4300537109375
5352718750.0 0.9202880859375 -1.15289306640625
5383940625.0 0.09613037109375 -1.4991455078125
5415162500.0 -0.90032958984375 -1.28265380859375
5446384375.0 -1.4827880859375 -0.36993408203125
5477606250.0 -1.29833984375 0.56658935546875
5508828125.0 -0.73077392578125 1.150390625
5540050000.0 0.0548095703125 1.397705078125
5571271875.0 0.93817138671875 1.1077880859375
5602493750.0 1.40728759765625 0.259521484375
5633715625.0 1.23150634765625 -0.61212158203125
5664937500.0 0.647705078125 -1.19989013671875
5696159375.0 -0.19671630859375 -1.3831787109375
5727381250.0 -1.02117919921875 -0.97808837890625
5758603125.0 -1.3907470703125 -0.14501953125
5789825000.0 -1.1937255859375 0.7181396484375
5821046875.0 -0.506103515625 1.3076171875
5852268750.0 0.41143798828125 1.31280517578125
5883490625.0 1.0701904296875 0.7718505859375
5914712500.0 1.30218505859375 0.01953125
5945934375.0 1.09539794921875 -0.77587890625
5977156250.0 0.36114501953125 -1.3115234375
6008378125.0 -0.510009765625 -1.18243408203125
6039600000.0 -1.0216064453125 -0.64862060546875
6070821875.0 -1.22259521484375 -0.00494384765625
6102043750.0 -1.08282470703125 0.7626953125
6133265625.0 -0.34185791015625 1.34344482421875
6164487500.0 0.56329345703125 1.1868896484375
6195709375.0 1.0711669921875 0.62939453125
6226931250.0 1.2789306640625 -0.042236328125
6258153125.0 1.10418701171875 -0.87158203125
6289375000.0 0.2564697265625 -1.4449462890625
6320596875.0 -0.68951416015625 -1.205810546875
6351818750.0 -1.2000732421875 -0.57135009765625
6383040625.0 -1.35443115234375 0.20623779296875
6414262500.0 -0.99920654296875 1.05584716796875
6445484375.0 -0.078125 1.45709228515625
6476706250.0 0.7958984375 1.14764404296875
6507928125.0 1.2900390625 0.46966552734375
6539150000.0 1.346923828125 -0.3863525390625
6570371875.0 0.84039306640625 -1.144287109375
6601593750.0 -0.01654052734375 -1.40350341796875
6632815625.0 -0.8389892578125 -1.13531494140625
6664037500.0 -1.400634765625 -0.41973876953125
6695259375.0 -1.373291015625 0.565673828125
6726481250.0 -0.70977783203125 1.25262451171875
6757703125.0 0.13067626953125 1.40576171875
6788925000.0 0.95465087890625 1.1302490234375
6820146875.0 1.55877685546875 0.28875732421875
6851368750.0 1.3260498046875 -0.8199462890625
6882590625.0 0.50628662109375 -1.3387451171875
6913812500.0 -0.292724609375 -1.3560791015625
6945034375.0 -1.0687255859375 -1.0211181640625
6976256250.0 -1.59197998046875 -0.09356689453125
7007478125.0 -1.23638916015625 0.9342041015625
7038700000.0 -0.40179443359375 1.3424072265625
7069921875.0 0.35888671875 1.32269287109375
7101143750.0 1.11859130859375 0.9676513671875
7132365625.0 1.598388671875 0.01348876953125
7163587500.0 1.15655517578125 -1.019287109375
7194809375.0 0.30194091796875 -1.39654541015625
7226031250.0 -0.51275634765625 -1.3255615234375
7257253125.0 -1.26727294921875 -0.8238525390625
7288475000.0 -1.5572509765625 0.19769287109375
7319696875.0 -1.028564453125 1.108154296875
7350918750.0 -0.16522216796875 1.44256591796875
7382140625.0 0.7147216796875 1.27606201171875
7413362500.0 1.3782958984375 0.5751953125
7444584375.0 1.4107666015625 -0.40594482421875
7475806250.0 0.857421875 -1.14453125
7507028125.0 0.0057373046875 -1.42877197265625
7538250000.0 -0.88629150390625 -1.123779296875
7569471875.0 -1.33770751953125 -0.31072998046875
7600693750.0 -1.2017822265625 0.49774169921875
7631915625.0 -0.71710205078125 1.085205078125
7663137500.0 0.08172607421875 1.3583984375
7694359375.0 0.939300537109375 0.978363037109375
7725581250.0 1.24200439453125 0.18133544921875
7756803125.0 1.08251953125 -0.49810791015625
7788025000.0 0.6700439453125 -1.04254150390625
7819246875.0 -0.119140625 -1.345947265625
7850468750.0 -0.992095947265625 -0.91595458984375
7881690625.0 -1.2314453125 -0.1053466796875
7912912500.0 -1.05548095703125 0.5552978515625
7944134375.0 -0.6053466796875 1.11199951171875
7975356250.0 0.27264404296875 1.3360595703125
8006578125.0 1.046875 0.7784423828125
8037800000.0 1.1939697265625 0.0166015625
8069021875.0 1.00604248046875 -0.61700439453125
8100243750.0 0.49932861328125 -1.161376953125
8131465625.0 -0.387939453125 -1.2547607421875
8162687500.0 -1.0318603515625 -0.686279296875
8193909375.0 -1.18096923828125 0.009033203125
8225131250.0 -1.01800537109375 0.6790771484375
8256353125.0 -0.419677734375 1.24951171875
8287575000.0 0.50054931640625 1.22564697265625
8318796875.0 1.08123779296875 0.63507080078125
8350018750.0 1.24530029296875 -0.07476806640625
8381240625.0 1.0302734375 -0.83953857421875
8412462500.0 0.25482177734375 -1.3729248046875
8443684375.0 -0.66961669921875 -1.17010498046875
8474906250.0 -1.1754150390625 -0.5323486328125
8506128125.0 -1.29815673828125 0.2371826171875
8537350000.0 -0.92401123046875 1.0443115234375
8568571875.0 -0.0166015625 1.3944091796875
8599793750.0 0.80316162109375 1.05352783203125
8631015625.0 1.24261474609375 0.39849853515625
8662237500.0 1.28607177734375 -0.4310302734375
8693459375.0 0.736572265625 -1.1759033203125
8724681250.0 -0.16375732421875 -1.33154296875
8755903125.0 -0.8797607421875 -0.9571533203125
8787125000.0 -1.30389404296875 -0.28094482421875
8818346875.0 -1.250732421875 0.61529541015625
8849568750.0 -0.556396484375 1.2591552734375
8880790625.0 0.29827880859375 1.28363037109375
8912012500.0 0.981048583984375 0.893951416015625
8943234375.0 1.3984375 0.12945556640625
8974456250.0 1.16717529296875 -0.839599609375
9005678125.0 0.34893798828125 -1.31439208984375
9036900000.0 -0.44476318359375 -1.22607421875
9068121875.0 -1.100830078125 -0.78582763671875
9099343750.0 -1.43963623046875 0.09661865234375
9130565625.0 -0.97998046875 1.01226806640625
9161787500.0 -0.153076171875 1.2843017578125
9193009375.0 0.55474853515625 1.13299560546875
9224231250.0 1.17877197265625 0.65484619140625
9255453125.0 1.39996337890625 -0.2958984375
9286675000.0 0.8067626953125 -1.084228515625
9317896875.0 0.026611328125 -1.246826171875
9349118750.0 -0.6531982421875 -1.06890869140625
9380340625.0 -1.25848388671875 -0.5089111328125
9411562500.0 -1.31097412109375 0.47515869140625
9442784375.0 -0.64788818359375 1.11572265625
9474006250.0 0.08807373046875 1.21063232421875
9505228125.0 0.76373291015625 0.979949951171875
9536450000.0 1.27239990234375 0.314453125
9567671875.0 1.1436767578125 -0.57958984375
9598893750.0 0.52996826171875 -1.06854248046875
9630115625.0 -0.14422607421875 -1.15765380859375
9661337500.0 -0.817657470703125 -0.902618408203125
9692559375.0 -1.23956298828125 -0.189697265625
9723781250.0 -1.04412841796875 0.60491943359375
9755003125.0 -0.4857177734375 1.0513916015625
9786225000.0 0.19683837890625 1.1588134765625
9817446875.0 0.896240234375 0.827850341796875
9848668750.0 1.1973876953125 0.07794189453125
9879890625.0 0.968353271484375 -0.617706298828125
9911112500.0 0.4527587890625 -1.050537109375
9942334375.0 -0.268798828125 -1.15972900390625
9973556250.0 -0.942779541015625 -0.73846435546875
10004778125.0 -1.1463623046875 -0.01837158203125
10036000000.0 -0.944580078125 0.614837646484375
10067221875.0 -0.44207763671875 1.09588623046875
10098443750.0 0.36871337890625 1.18109130859375
10129665625.0 1.00152587890625 0.64349365234375
10160887500.0 1.12091064453125 -0.05230712890625
10192109375.0 0.917938232421875 -0.66265869140625
10223331250.0 0.3614501953125 -1.15411376953125
10254553125.0 -0.48602294921875 -1.11456298828125
10285775000.0 -0.985748291015625 -0.535858154296875
10316996875.0 -1.06732177734375 0.07647705078125
10348218750.0 -0.900634765625 0.671295166015625
10379440625.0 -0.32177734375 1.17633056640625
10410662500.0 0.52789306640625 1.08526611328125
10441884375.0 0.99310302734375 0.5213623046875
10473106250.0 1.10992431640625 -0.085693359375
10504328125.0 0.94891357421875 -0.755859375
10535550000.0 0.2403564453125 -1.2930908203125
10566771875.0 -0.65625 -1.07757568359375
10597993750.0 -1.0799560546875 -0.45941162109375
10629215625.0 -1.17401123046875 0.2039794921875
10660437500.0 -0.8876953125 0.950531005859375
10691659375.0 -0.00885009765625 1.33660888671875
10722881250.0 0.78497314453125 0.953521728515625
10754103125.0 1.1197509765625 0.32421875
10785325000.0 1.13946533203125 -0.3670654296875
10816546875.0 0.70013427734375 -1.04949951171875
10847768750.0 -0.1439208984375 -1.2288818359375
10878990625.0 -0.80316162109375 -0.843902587890625
10910212500.0 -1.12384033203125 -0.2445068359375
10941434375.0 -1.0970458984375 0.477294921875
10972656250.0 -0.56878662109375 1.084716796875
11003878125.0 0.218994140625 1.17596435546875
11035100000.0 0.84912109375 0.82159423828125
11066321875.0 1.22149658203125 0.173828125
11097543750.0 1.09716796875 -0.67578125
11128765625.0 0.385498046875 -1.198974609375
11159987500.0 -0.39630126953125 -1.13861083984375
11191209375.0 -0.999725341796875 -0.70220947265625
11222431250.0 -1.27410888671875 0.0948486328125
11253653125.0 -0.8587646484375 0.892364501953125
11284875000.0 -0.1131591796875 1.12890625
11316096875.0 0.510040283203125 0.956024169921875
11347318750.0 1.0023193359375 0.50244140625
11378540625.0 1.1175537109375 -0.26947021484375
11409762500.0 0.634796142578125 -0.860382080078125
11440984375.0 0.036407470703125 -0.9791259765625
11472206250.0 -0.482452392578125 -0.850372314453125
11503428125.0 -0.952423095703125 -0.45623779296875
11534650000.0 -1.070068359375 0.29010009765625
11565871875.0 -0.601959228515625 0.854461669921875
11597093750.0 -0.01922607421875 0.9908447265625
11628315625.0 0.544677734375 0.87579345703125
11659537500.0 1.05987548828125 0.39227294921875
11690759375.0 1.06591796875 -0.43377685546875
11721981250.0 0.516754150390625 -0.940643310546875
11753203125.0 -0.1065673828125 -1.03680419921875
11784425000.0 -0.7247314453125 -0.80963134765625
11815646875.0 -1.1025390625 -0.15087890625
11846868750.0 -0.891876220703125 0.55224609375
11878090625.0 -0.390533447265625 0.9095458984375
11909312500.0 0.18572998046875 0.983673095703125
11940534375.0 0.78094482421875 0.69464111328125
11971756250.0 1.0263671875 0.0386962890625
12002978125.0 0.806396484375 -0.539276123046875
12034200000.0 0.3812255859375 -0.88995361328125
12065421875.0 -0.21441650390625 -1.0103759765625
12096643750.0 -0.8472900390625 -0.665069580078125
12127865625.0 -1.034423828125 0.01708984375
12159087500.0 -0.81500244140625 0.575714111328125
12190309375.0 -0.37725830078125 0.9759521484375
12221531250.0 0.337158203125 1.087646484375
12252753125.0 0.980316162109375 0.581634521484375
12283975000.0 1.05572509765625 -0.12823486328125
12315196875.0 0.80084228515625 -0.67669677734375
12346418750.0 0.281005859375 -1.091552734375
12377640625.0 -0.53924560546875 -1.06103515625
12408862500.0 -1.03436279296875 -0.41937255859375
12440084375.0 -1.008544921875 0.22491455078125
12471306250.0 -0.742034912109375 0.7374267578125
12502528125.0 -0.17901611328125 1.12054443359375
12533750000.0 0.620758056640625 0.994232177734375
12564971875.0 1.0416259765625 0.36376953125
12596193750.0 1.03045654296875 -0.26593017578125
12627415625.0 0.74810791015625 -0.82830810546875
12658637500.0 0.0792236328125 -1.20855712890625
12689859375.0 -0.734710693359375 -0.966400146484375
12721081250.0 -1.1151123046875 -0.30780029296875
12752303125.0 -1.09796142578125 0.383056640625
12783525000.0 -0.68798828125 1.02947998046875
12814746875.0 0.16461181640625 1.250732421875
12845968750.0 0.863311767578125 0.81097412109375
12877190625.0 1.117919921875 0.17205810546875
12908412500.0 1.05609130859375 -0.50323486328125
12939634375.0 0.54339599609375 -1.11749267578125
12970856250.0 -0.31964111328125 -1.1749267578125
13002078125.0 -0.89398193359375 -0.694610595703125
13033300000.0 -1.10601806640625 -0.0865478515625
13064521875.0 -1.00933837890625 0.593017578125
13095743750.0 -0.42071533203125 1.1536865234375
13126965625.0 0.4090576171875 1.12158203125
13158187500.0 0.947113037109375 0.63153076171875
13189409375.0 1.14849853515625 -0.021484375
13220631250.0 0.936492919921875 -0.749420166015625
13251853125.0 0.23443603515625 -1.17095947265625
13283075000.0 -0.50872802734375 -1.02008056640625
13314296875.0 -0.988311767578125 -0.52899169921875
13345518750.0 -1.1361083984375 0.1773681640625
13376740625.0 -0.75244140625 0.858306884765625
