!Created with skrf (http://scikit-rf.org).
# Hz S RI R 50.0 
!freq ReS11 ImS11
45000000.0 -0.07709121704101562 -0.09682846069335938
76221875.0 -0.19628143310546875 -0.047515869140625
107443750.0 -0.254547119140625 0.1195220947265625
138665625.0 -0.1478271484375 0.3283233642578125
169887500.0 0.1234893798828125 0.4171600341796875
201109375.0 0.4217529296875 0.280548095703125
232331250.0 0.5784912109375 -0.0577392578125
263553125.0 0.489166259765625 -0.4527130126953125
294775000.0 0.0980224609375 -0.73199462890625
325996875.0 -0.415283203125 -0.679840087890625
357218750.0 -0.805694580078125 -0.296417236328125
388440625.0 -0.884765625 0.300567626953125
419662500.0 -0.516571044921875 0.86572265625
450884375.0 0.173583984375 1.02789306640625
482106250.0 0.798248291015625 0.71160888671875
513328125.0 1.1185302734375 0.0867919921875
544550000.0 1.00286865234375 -0.67987060546875
575771875.0 0.33575439453125 -1.2373046875
606993750.0 -0.553955078125 -1.17620849609375
638215625.0 -1.16510009765625 -0.58953857421875
669437500.0 -1.33868408203125 0.23406982421875
700659375.0 -0.9697265625 1.09564208984375
731881250.0 -0.00323486328125 1.54180908203125
763103125.0 1.00506591796875 1.1544189453125
794325000.0 1.46710205078125 0.281005859375
825546875.0 1.3656005859375 -0.65130615234375
856768750.0 0.79327392578125 -1.39923095703125
887990625.0 -0.29327392578125 -1.646484375
919212500.0 -1.2872314453125 -1.07666015625
950434375.0 -1.64678955078125 -0.0584716796875
981656250.0 -1.38006591796875 0.94512939453125
1012878125.0 -0.52850341796875 1.6697998046875
1044100000.0 0.69647216796875 1.659423828125
1075321875.0 1.57305908203125 0.8104248046875
1106543750.0 1.7025146484375 -0.3126220703125
1137765625.0 1.184814453125 -1.2830810546875
1168987500.0 0.136962890625 -1.794677734375
1200209375.0 -1.0609130859375 -1.4814453125
1231431250.0 -1.724853515625 -0.452392578125
1262653125.0 -1.5919189453125 0.68402099609375
1293875000.0 -0.85028076171875 1.48974609375
1325096875.0 0.22845458984375 1.70440673828125
1356318750.0 1.23345947265625 1.21429443359375
1387540625.0 1.7379150390625 0.187744140625
1418762500.0 1.46697998046875 -0.95086669921875
1449984375.0 0.5281982421875 -1.62384033203125
1481206250.0 -0.54974365234375 -1.55340576171875
1512428125.0 -1.34063720703125 -0.91815185546875
1543650000.0 -1.65350341796875 0.06561279296875
1574871875.0 -1.2713623046875 1.10772705078125
1606093750.0 -0.27191162109375 1.62982177734375
1637315625.0 0.741455078125 1.3980712890625
1668537500.0 1.39447021484375 0.69439697265625
1699759375.0 1.57086181640625 -0.27764892578125
1730981250.0 1.06243896484375 -1.22802734375
1762203125.0 0.04144287109375 -1.56854248046875
1793425000.0 -0.85455322265625 -1.224609375
1824646875.0 -1.39129638671875 -0.514404296875
1855868750.0 -1.47186279296875 0.43182373046875
1887090625.0 -0.87335205078125 1.28363037109375
1918312500.0 0.1171875 1.4844970703125
1949534375.0 0.92059326171875 1.08746337890625
1980756250.0 1.37347412109375 0.36895751953125
2011978125.0 1.35772705078125 -0.5316162109375
2043200000.0 0.74859619140625 -1.25982666015625
2074421875.0 -0.1571044921875 -1.43133544921875
2105643750.0 -0.9593505859375 -1.070556640625
2136865625.0 -1.44561767578125 -0.30377197265625
2168087500.0 -1.3551025390625 0.67041015625
2199309375.0 -0.6376953125 1.350341796875
2230531250.0 0.28173828125 1.43365478515625
2261753125.0 1.071533203125 1.01220703125
2292975000.0 1.5123291015625 0.169921875
2324196875.0 1.3037109375 -0.81842041015625
2355418750.0 0.52423095703125 -1.41802978515625
2386640625.0 -0.4041748046875 -1.44671630859375
2417862500.0 -1.17962646484375 -1.0225830078125
2449084375.0 -1.6024169921875 -0.0841064453125
2480306250.0 -1.30950927734375 0.924072265625
2511528125.0 -0.49249267578125 1.506103515625
2542750000.0 0.4893798828125 1.53448486328125
2573971875.0 1.369384765625 0.9656982421875
2605193750.0 1.7142333984375 -0.1119384765625
2636415625.0 1.2593994140625 -1.15093994140625
2667637500.0 0.3062744140625 -1.66400146484375
2698859375.0 -0.76873779296875 -1.53179931640625
2730081250.0 -1.57135009765625 -0.73883056640625
2761303125.0 -1.677734375 0.38787841796875
2792525000.0 -1.0968017578125 1.30615234375
2823746875.0 -0.10174560546875 1.72698974609375
2854968750.0 1.00970458984375 1.45233154296875
2886190625.0 1.68817138671875 0.49041748046875
2917412500.0 1.5968017578125 -0.6163330078125
2948634375.0 0.93743896484375 -1.42938232421875
2979856250.0 -0.10736083984375 -1.77264404296875
3011078125.0 -1.2467041015625 -1.33990478515625
3042300000.0 -1.7720947265625 -0.23419189453125
3073521875.0 -1.50579833984375 0.8370361328125
3104743750.0 -0.7613525390625 1.56610107421875
3135965625.0 0.36102294921875 1.80474853515625
3167187500.0 1.49542236328125 1.161865234375
3198409375.0 1.81256103515625 -0.0753173828125
3229631250.0 1.34552001953125 -1.0791015625
3260853125.0 0.48773193359375 -1.6658935546875
3292075000.0 -0.65386962890625 -1.694091796875
3323296875.0 -1.61505126953125 -0.87823486328125
3354518750.0 -1.7274169921875 0.32879638671875
3385740625.0 -1.15338134765625 1.229248046875
3416962500.0 -0.23065185546875 1.677978515625
3448184375.0 0.860107421875 1.51904296875
3479406250.0 1.63134765625 0.6439208984375
3510628125.0 1.6409912109375 -0.49481201171875
3541850000.0 0.99847412109375 -1.35211181640625
3573071875.0 -0.009033203125 -1.680419921875
3604293750.0 -1.025390625 -1.3343505859375
3635515625.0 -1.62493896484375 -0.4371337890625
3666737500.0 -1.55865478515625 0.64434814453125
3697959375.0 -0.82305908203125 1.47332763671875
3729181250.0 0.26837158203125 1.62774658203125
3760403125.0 1.15045166015625 1.0960693359375
3791625000.0 1.55059814453125 0.21661376953125
3822846875.0 1.3994140625 -0.75946044921875
3854068750.0 0.61907958984375 -1.47784423828125
3885290625.0 -0.41937255859375 -1.477783203125
3916512500.0 -1.13995361328125 -0.9090576171875
3947734375.0 -1.4447021484375 -0.11932373046875
3978956250.0 -1.29473876953125 0.77838134765625
4010178125.0 -0.5303955078125 1.45147705078125
4041400000.0 0.4720458984375 1.41290283203125
4072621875.0 1.14935302734375 0.84625244140625
4103843750.0 1.44146728515625 0.06390380859375
4135065625.0 1.26580810546875 -0.84454345703125
4166287500.0 0.45721435546875 -1.49334716796875
4197509375.0 -0.5572509765625 -1.4129638671875
4228731250.0 -1.24566650390625 -0.801513671875
4259953125.0 -1.5064697265625 0.07025146484375
4291175000.0 -1.18621826171875 1.0093994140625
4322396875.0 -0.28900146484375 1.5240478515625
4353618750.0 0.6717529296875 1.347412109375
4384840625.0 1.3206787109375 0.69580078125
4416062500.0 1.4981689453125 -0.2269287109375
4447284375.0 1.05340576171875 -1.10235595703125
4478506250.0 0.17242431640625 -1.49249267578125
4509728125.0 -0.73199462890625 -1.30596923828125
4540950000.0 -1.3912353515625 -0.63507080078125
4572171875.0 -1.51959228515625 0.35882568359375
4603393750.0 -0.97076416015625 1.21087646484375
4634615625.0 -0.06146240234375 1.53472900390625
4665837500.0 0.8682861328125 1.302001953125
4697059375.0 1.53857421875 0.5146484375
4728281250.0 1.52679443359375 -0.5814208984375
4759503125.0 0.82177734375 -1.365234375
4790725000.0 -0.1448974609375 -1.56976318359375
4821946875.0 -1.08221435546875 -1.19232177734375
4853168750.0 -1.61138916015625 -0.2508544921875
4884390625.0 -1.37646484375 0.792724609375
4915612500.0 -0.612548828125 1.409912109375
4946834375.0 0.329833984375 1.50799560546875
4978056250.0 1.2020263671875 1.0155029296875
5009278125.0 1.55908203125 0.03948974609375
5040500000.0 1.22735595703125 -0.87335205078125
5071721875.0 0.50115966796875 -1.412109375
5102943750.0 -0.44482421875 -1.494140625
5134165625.0 -1.33306884765625 -0.90509033203125
5165387500.0 -1.566650390625 0.14593505859375
5196609375.0 -1.13421630859375 1.00714111328125
5227831250.0 -0.35784912109375 1.503173828125
5259053125.0 0.686767578125 1.48992919921875
5290275000.0 1.518798828125 0.662353515625
5321496875.0 1.49005126953125 -0.4296875
5352718750.0 0.91949462890625 -1.15179443359375
5383940625.0 0.09722900390625 -1.49749755859375
5415162500.0 -0.89947509765625 -1.281982421875
5446384375.0 -1.48065185546875 -0.37054443359375
5477606250.0 -1.29736328125 0.56536865234375
5508828125.0 -0.7303466796875 1.1490478515625
5540050000.0 0.0540771484375 1.39666748046875
5571271875.0 0.93634033203125 1.10711669921875
5602493750.0 1.40618896484375 0.25994873046875
5633715625.0 1.23028564453125 -0.61090087890625
5664937500.0 0.64752197265625 -1.20013427734375
5696159375.0 -0.19677734375 -1.38165283203125
5727381250.0 -1.01947021484375 -0.97760009765625
5758603125.0 -1.3897705078125 -0.14447021484375
5789825000.0 -1.19268798828125 0.71697998046875
5821046875.0 -0.50567626953125 1.30487060546875
5852268750.0 0.40936279296875 1.3104248046875
5883490625.0 1.07025146484375 0.7711181640625
5914712500.0 1.30084228515625 0.01959228515625
5945934375.0 1.0947265625 -0.77423095703125
5977156250.0 0.36163330078125 -1.31048583984375
6008378125.0 -0.5084228515625 -1.181396484375
6039600000.0 -1.01947021484375 -0.6488037109375
6070821875.0 -1.22247314453125 -0.00482177734375
6102043750.0 -1.08154296875 0.761962890625
6133265625.0 -0.342041015625 1.34271240234375
6164487500.0 0.561767578125 1.185546875
6195709375.0 1.06976318359375 0.62957763671875
6226931250.0 1.27777099609375 -0.04248046875
6258153125.0 1.1033935546875 -0.87078857421875
6289375000.0 0.25604248046875 -1.4443359375
6320596875.0 -0.68865966796875 -1.2052001953125
6351818750.0 -1.19873046875 -0.571533203125
6383040625.0 -1.3525390625 0.205810546875
6414262500.0 -0.99945068359375 1.05584716796875
6445484375.0 -0.07855224609375 1.45440673828125
6476706250.0 0.7935791015625 1.14642333984375
6507928125.0 1.28826904296875 0.46990966796875
6539150000.0 1.3458251953125 -0.3856201171875
6570371875.0 0.84014892578125 -1.14300537109375
6601593750.0 -0.01727294921875 -1.4033203125
6632815625.0 -0.83831787109375 -1.13494873046875
6664037500.0 -1.39971923828125 -0.41949462890625
6695259375.0 -1.37225341796875 0.56475830078125
6726481250.0 -0.7095947265625 1.2491455078125
6757703125.0 0.13055419921875 1.405029296875
6788925000.0 0.9537353515625 1.12933349609375
6820146875.0 1.5577392578125 0.2879638671875
6851368750.0 1.32489013671875 -0.8187255859375
6882590625.0 0.5064697265625 -1.33624267578125
6913812500.0 -0.2913818359375 -1.35467529296875
6945034375.0 -1.0655517578125 -1.02081298828125
6976256250.0 -1.59130859375 -0.09307861328125
7007478125.0 -1.2352294921875 0.93072509765625
7038700000.0 -0.40185546875 1.33978271484375
7069921875.0 0.3582763671875 1.321533203125
7101143750.0 1.11505126953125 0.96697998046875
7132365625.0 1.59844970703125 0.0152587890625
7163587500.0 1.15673828125 -1.01922607421875
7194809375.0 0.302490234375 -1.3946533203125
7226031250.0 -0.510986328125 -1.32366943359375
7257253125.0 -1.265869140625 -0.82305908203125
7288475000.0 -1.5562744140625 0.19659423828125
7319696875.0 -1.02874755859375 1.10760498046875
7350918750.0 -0.1649169921875 1.44110107421875
7382140625.0 0.71533203125 1.27508544921875
7413362500.0 1.373779296875 0.57568359375
7444584375.0 1.40985107421875 -0.40478515625
7475806250.0 0.85711669921875 -1.14105224609375
7507028125.0 0.00421142578125 -1.42889404296875
7538250000.0 -0.88348388671875 -1.12255859375
7569471875.0 -1.33465576171875 -0.3104248046875
7600693750.0 -1.20123291015625 0.49603271484375
7631915625.0 -0.71759033203125 1.0830078125
7663137500.0 0.08001708984375 1.356689453125
7694359375.0 0.937713623046875 0.9796142578125
7725581250.0 1.24127197265625 0.18017578125
7756803125.0 1.08123779296875 -0.49786376953125
7788025000.0 0.670166015625 -1.0416259765625
7819246875.0 -0.12054443359375 -1.3460693359375
7850468750.0 -0.9901123046875 -0.9149169921875
7881690625.0 -1.2298583984375 -0.10601806640625
7912912500.0 -1.0546875 0.55426025390625
7944134375.0 -0.6053466796875 1.1102294921875
7975356250.0 0.26910400390625 1.33319091796875
8006578125.0 1.04364013671875 0.77813720703125
8037800000.0 1.19158935546875 0.0177001953125
8069021875.0 1.00592041015625 -0.6177978515625
8100243750.0 0.49981689453125 -1.1612548828125
8131465625.0 -0.38616943359375 -1.25274658203125
8162687500.0 -1.03076171875 -0.685546875
8193909375.0 -1.17913818359375 0.00872802734375
8225131250.0 -1.016845703125 0.6771240234375
8256353125.0 -0.42144775390625 1.24725341796875
8287575000.0 0.50048828125 1.22601318359375
8318796875.0 1.08099365234375 0.63525390625
8350018750.0 1.2432861328125 -0.07501220703125
8381240625.0 1.03033447265625 -0.83837890625
8412462500.0 0.25457763671875 -1.37176513671875
8443684375.0 -0.6666259765625 -1.16876220703125
8474906250.0 -1.1746826171875 -0.5321044921875
8506128125.0 -1.29632568359375 0.23468017578125
8537350000.0 -0.92437744140625 1.04425048828125
8568571875.0 -0.01727294921875 1.39324951171875
8599793750.0 0.8004150390625 1.0518798828125
8631015625.0 1.240478515625 0.39739990234375
8662237500.0 1.28436279296875 -0.42919921875
8693459375.0 0.73602294921875 -1.17608642578125
8724681250.0 -0.160888671875 -1.33099365234375
8755903125.0 -0.879913330078125 -0.95684814453125
8787125000.0 -1.30126953125 -0.28424072265625
8818346875.0 -1.2501220703125 0.61541748046875
8849568750.0 -0.5556640625 1.25933837890625
8880790625.0 0.29681396484375 1.28302001953125
8912012500.0 0.9794921875 0.891510009765625
8943234375.0 1.39727783203125 0.12872314453125
8974456250.0 1.16583251953125 -0.837158203125
9005678125.0 0.34881591796875 -1.31060791015625
9036900000.0 -0.44647216796875 -1.224609375
9068121875.0 -1.09991455078125 -0.785400390625
9099343750.0 -1.43914794921875 0.09576416015625
9130565625.0 -0.97955322265625 1.010498046875
9161787500.0 -0.1533203125 1.28424072265625
9193009375.0 0.5535888671875 1.13299560546875
9224231250.0 1.1778564453125 0.65362548828125
9255453125.0 1.39691162109375 -0.2940673828125
9286675000.0 0.806884765625 -1.0819091796875
9317896875.0 0.0260009765625 -1.2469482421875
9349118750.0 -0.65179443359375 -1.06903076171875
9380340625.0 -1.25604248046875 -0.510009765625
9411562500.0 -1.3104248046875 0.4761962890625
9442784375.0 -0.64727783203125 1.1170654296875
9474006250.0 0.08709716796875 1.20916748046875
9505228125.0 0.763275146484375 0.978790283203125
9536450000.0 1.271728515625 0.31396484375
9567671875.0 1.14324951171875 -0.578857421875
9598893750.0 0.5296630859375 -1.0679931640625
9630115625.0 -0.14300537109375 -1.156982421875
9661337500.0 -0.817840576171875 -0.90252685546875
9692559375.0 -1.23779296875 -0.1907958984375
9723781250.0 -1.04315185546875 0.60382080078125
9755003125.0 -0.486083984375 1.048583984375
9786225000.0 0.19732666015625 1.15826416015625
9817446875.0 0.893341064453125 0.827362060546875
9848668750.0 1.1951904296875 0.07891845703125
9879890625.0 0.96783447265625 -0.61529541015625
9911112500.0 0.45233154296875 -1.0501708984375
9942334375.0 -0.26763916015625 -1.15887451171875
9973556250.0 -0.943603515625 -0.73797607421875
10004778125.0 -1.1455078125 -0.01837158203125
10036000000.0 -0.94342041015625 0.614898681640625
10067221875.0 -0.4425048828125 1.0938720703125
10098443750.0 0.36834716796875 1.18017578125
10129665625.0 1.0018310546875 0.64306640625
10160887500.0 1.12005615234375 -0.0511474609375
10192109375.0 0.916839599609375 -0.661712646484375
10223331250.0 0.36248779296875 -1.14984130859375
10254553125.0 -0.485595703125 -1.1141357421875
10285775000.0 -0.983367919921875 -0.5360107421875
10316996875.0 -1.066650390625 0.076904296875
10348218750.0 -0.899322509765625 0.66741943359375
10379440625.0 -0.321533203125 1.1739501953125
10410662500.0 0.52532958984375 1.08441162109375
10441884375.0 0.989593505859375 0.5218505859375
10473106250.0 1.10772705078125 -0.08349609375
10504328125.0 0.948455810546875 -0.75628662109375
10535550000.0 0.24029541015625 -1.2935791015625
10566771875.0 -0.65557861328125 -1.076171875
10597993750.0 -1.08026123046875 -0.458740234375
10629215625.0 -1.17413330078125 0.20489501953125
10660437500.0 -0.888092041015625 0.95074462890625
10691659375.0 -0.00933837890625 1.33599853515625
10722881250.0 0.785430908203125 0.952301025390625
10754103125.0 1.1175537109375 0.3250732421875
10785325000.0 1.1387939453125 -0.3663330078125
10816546875.0 0.7017822265625 -1.049072265625
10847768750.0 -0.145263671875 -1.229248046875
10878990625.0 -0.802215576171875 -0.84295654296875
10910212500.0 -1.12164306640625 -0.24517822265625
10941434375.0 -1.09686279296875 0.47650146484375
10972656250.0 -0.568115234375 1.08404541015625
11003878125.0 0.21527099609375 1.1719970703125
11035100000.0 0.84765625 0.822265625
11066321875.0 1.21929931640625 0.17425537109375
11097543750.0 1.09722900390625 -0.67535400390625
11128765625.0 0.38641357421875 -1.19781494140625
11159987500.0 -0.39556884765625 -1.138916015625
11191209375.0 -0.998016357421875 -0.702056884765625
11222431250.0 -1.269775390625 0.0911865234375
11253653125.0 -0.858154296875 0.89361572265625
11284875000.0 -0.11541748046875 1.12548828125
11316096875.0 0.5091552734375 0.955322265625
11347318750.0 1.00421142578125 0.5018310546875
11378540625.0 1.11700439453125 -0.2691650390625
11409762500.0 0.63525390625 -0.860107421875
11440984375.0 0.037200927734375 -0.97723388671875
11472206250.0 -0.479736328125 -0.849365234375
11503428125.0 -0.951324462890625 -0.456390380859375
11534650000.0 -1.06842041015625 0.2886962890625
11565871875.0 -0.60223388671875 0.8524169921875
11597093750.0 -0.0184326171875 0.99041748046875
11628315625.0 0.543701171875 0.87481689453125
11659537500.0 1.05975341796875 0.39202880859375
11690759375.0 1.06396484375 -0.4307861328125
11721981250.0 0.51690673828125 -0.939666748046875
11753203125.0 -0.1058349609375 -1.03546142578125
11784425000.0 -0.72467041015625 -0.80841064453125
11815646875.0 -1.09930419921875 -0.15142822265625
11846868750.0 -0.89105224609375 0.55181884765625
11878090625.0 -0.39178466796875 0.90728759765625
11909312500.0 0.186370849609375 0.983551025390625
11940534375.0 0.779449462890625 0.694976806640625
11971756250.0 1.02325439453125 0.040771484375
12002978125.0 0.80584716796875 -0.536865234375
12034200000.0 0.38128662109375 -0.88897705078125
12065421875.0 -0.21502685546875 -1.00982666015625
12096643750.0 -0.845703125 -0.665679931640625
12127865625.0 -1.0328369140625 0.0159912109375
12159087500.0 -0.81536865234375 0.5751953125
12190309375.0 -0.3785400390625 0.973876953125
12221531250.0 0.33770751953125 1.0875244140625
12252753125.0 0.979095458984375 0.58258056640625
12283975000.0 1.053955078125 -0.12689208984375
12315196875.0 0.800567626953125 -0.675201416015625
12346418750.0 0.28253173828125 -1.08905029296875
12377640625.0 -0.537109375 -1.06097412109375
12408862500.0 -1.03192138671875 -0.42095947265625
12440084375.0 -1.00830078125 0.22479248046875
12471306250.0 -0.741058349609375 0.735931396484375
12502528125.0 -0.1788330078125 1.1195068359375
12533750000.0 0.619964599609375 0.99383544921875
12564971875.0 1.041748046875 0.36285400390625
12596193750.0 1.029052734375 -0.26458740234375
12627415625.0 0.747802734375 -0.829864501953125
12658637500.0 0.0811767578125 -1.20562744140625
12689859375.0 -0.735076904296875 -0.96527099609375
12721081250.0 -1.11627197265625 -0.30609130859375
12752303125.0 -1.0963134765625 0.38055419921875
12783525000.0 -0.68707275390625 1.02593994140625
12814746875.0 0.1636962890625 1.2501220703125
12845968750.0 0.860931396484375 0.81060791015625
12877190625.0 1.11541748046875 0.1737060546875
12908412500.0 1.0557861328125 -0.5013427734375
12939634375.0 0.54339599609375 -1.114501953125
12970856250.0 -0.31988525390625 -1.174560546875
13002078125.0 -0.893707275390625 -0.693572998046875
13033300000.0 -1.105712890625 -0.08624267578125
13064521875.0 -1.00897216796875 0.59271240234375
13095743750.0 -0.42059326171875 1.15338134765625
13126965625.0 0.4080810546875 1.11956787109375
13158187500.0 0.9447021484375 0.63201904296875
13189409375.0 1.1473388671875 -0.02056884765625
13220631250.0 0.93511962890625 -0.745086669921875
13251853125.0 0.23529052734375 -1.17193603515625
13283075000.0 -0.50836181640625 -1.0184326171875
13314296875.0 -0.985931396484375 -0.52947998046875
