!Created with skrf (http://scikit-rf.org).
# Hz S RI R 50.0 
!freq ReS11 ImS11
45000000.0 -0.076934814453125 -0.09697341918945312
76221875.0 -0.1968841552734375 -0.0474395751953125
107443750.0 -0.2555999755859375 0.1200714111328125
138665625.0 -0.1484832763671875 0.329681396484375
169887500.0 0.123626708984375 0.418426513671875
201109375.0 0.422943115234375 0.2819061279296875
232331250.0 0.580474853515625 -0.0577392578125
263553125.0 0.49072265625 -0.4541473388671875
294775000.0 0.098602294921875 -0.734100341796875
325996875.0 -0.416595458984375 -0.682464599609375
357218750.0 -0.8089599609375 -0.297760009765625
388440625.0 -0.88818359375 0.301971435546875
419662500.0 -0.518707275390625 0.868896484375
450884375.0 0.17352294921875 1.031494140625
482106250.0 0.800567626953125 0.71490478515625
513328125.0 1.1224365234375 0.0872802734375
544550000.0 1.0057373046875 -0.68170166015625
575771875.0 0.3369140625 -1.24041748046875
606993750.0 -0.554931640625 -1.180419921875
638215625.0 -1.1688232421875 -0.5919189453125
669437500.0 -1.343017578125 0.234619140625
700659375.0 -0.97271728515625 1.0989990234375
731881250.0 -0.003662109375 1.5467529296875
763103125.0 1.00799560546875 1.15887451171875
794325000.0 1.4727783203125 0.2822265625
825546875.0 1.3704833984375 -0.6536865234375
856768750.0 0.7955322265625 -1.40478515625
887990625.0 -0.2940673828125 -1.652587890625
919212500.0 -1.29254150390625 -1.0811767578125
950434375.0 -1.65374755859375 -0.0579833984375
981656250.0 -1.38604736328125 0.95013427734375
1012878125.0 -0.53009033203125 1.67718505859375
1044100000.0 0.70001220703125 1.6663818359375
1075321875.0 1.580322265625 0.8135986328125
1106543750.0 1.70953369140625 -0.314453125
1137765625.0 1.18963623046875 -1.2889404296875
1168987500.0 0.13787841796875 -1.80218505859375
1200209375.0 -1.0654296875 -1.48724365234375
1231431250.0 -1.7322998046875 -0.45379638671875
1262653125.0 -1.598388671875 0.6878662109375
1293875000.0 -0.85400390625 1.49652099609375
1325096875.0 0.228759765625 1.71173095703125
1356318750.0 1.2396240234375 1.22003173828125
1387540625.0 1.74505615234375 0.188720703125
1418762500.0 1.4725341796875 -0.955078125
1449984375.0 0.52978515625 -1.63031005859375
1481206250.0 -0.55242919921875 -1.559814453125
1512428125.0 -1.34625244140625 -0.9210205078125
1543650000.0 -1.65960693359375 0.06646728515625
1574871875.0 -1.2757568359375 1.11212158203125
1606093750.0 -0.27264404296875 1.6361083984375
1637315625.0 0.74462890625 1.40350341796875
1668537500.0 1.39971923828125 0.69677734375
1699759375.0 1.5772705078125 -0.278564453125
1730981250.0 1.066650390625 -1.2330322265625
1762203125.0 0.0413818359375 -1.5750732421875
1793425000.0 -0.859375 -1.2288818359375
1824646875.0 -1.3975830078125 -0.5150146484375
1855868750.0 -1.47747802734375 0.4346923828125
1887090625.0 -0.8760986328125 1.2899169921875
1918312500.0 0.11920166015625 1.490478515625
1949534375.0 0.92474365234375 1.090576171875
1980756250.0 1.37872314453125 0.3699951171875
2011978125.0 1.36248779296875 -0.53363037109375
2043200000.0 0.75128173828125 -1.265380859375
2074421875.0 -0.15814208984375 -1.4366455078125
2105643750.0 -0.9637451171875 -1.07427978515625
2136865625.0 -1.45098876953125 -0.3043212890625
2168087500.0 -1.36004638671875 0.673828125
2199309375.0 -0.63958740234375 1.35589599609375
2230531250.0 0.28399658203125 1.4400634765625
2261753125.0 1.07696533203125 1.015625
2292975000.0 1.5181884765625 0.1688232421875
2324196875.0 1.3077392578125 -0.82269287109375
2355418750.0 0.5247802734375 -1.42413330078125
2386640625.0 -0.40740966796875 -1.4515380859375
2417862500.0 -1.18621826171875 -1.02496337890625
2449084375.0 -1.60894775390625 -0.08160400390625
2480306250.0 -1.31341552734375 0.9298095703125
2511528125.0 -0.49359130859375 1.51214599609375
2542750000.0 0.492919921875 1.5399169921875
2573971875.0 1.3770751953125 0.9691162109375
2605193750.0 1.72235107421875 -0.11614990234375
2636415625.0 1.2626953125 -1.1572265625
2667637500.0 0.3052978515625 -1.6712646484375
2698859375.0 -0.77471923828125 -1.5374755859375
2730081250.0 -1.5789794921875 -0.740234375
2761303125.0 -1.6854248046875 0.39154052734375
2792525000.0 -1.1007080078125 1.3128662109375
2823746875.0 -0.0992431640625 1.73553466796875
2854968750.0 1.01873779296875 1.45855712890625
2886190625.0 1.697265625 0.4901123046875
2917412500.0 1.60308837890625 -0.62249755859375
2948634375.0 0.9390869140625 -1.4385986328125
2979856250.0 -0.111328125 -1.781005859375
3011078125.0 -1.25335693359375 -1.3436279296875
3042300000.0 -1.779296875 -0.23248291015625
3073521875.0 -1.51104736328125 0.8421630859375
3104743750.0 -0.76275634765625 1.57305908203125
3135965625.0 0.3670654296875 1.81329345703125
3167187500.0 1.50531005859375 1.1646728515625
3198409375.0 1.820068359375 -0.07867431640625
3229631250.0 1.35052490234375 -1.08551025390625
3260853125.0 0.48822021484375 -1.6734619140625
3292075000.0 -0.659423828125 -1.7020263671875
3323296875.0 -1.6268310546875 -0.87908935546875
3354518750.0 -1.73486328125 0.3330078125
3385740625.0 -1.15692138671875 1.23748779296875
3416962500.0 -0.228759765625 1.68695068359375
3448184375.0 0.86749267578125 1.52459716796875
3479406250.0 1.64111328125 0.64288330078125
3510628125.0 1.64715576171875 -0.49884033203125
3541850000.0 1.00018310546875 -1.36102294921875
3573071875.0 -0.0113525390625 -1.6864013671875
3604293750.0 -1.03094482421875 -1.3385009765625
3635515625.0 -1.63238525390625 -0.43658447265625
3666737500.0 -1.56512451171875 0.65155029296875
3697959375.0 -0.823974609375 1.48095703125
3729181250.0 0.272705078125 1.634765625
3760403125.0 1.15692138671875 1.099365234375
3791625000.0 1.5560302734375 0.2164306640625
3822846875.0 1.40435791015625 -0.76458740234375
3854068750.0 0.61968994140625 -1.487060546875
3885290625.0 -0.4249267578125 -1.4844970703125
3916512500.0 -1.14678955078125 -0.91107177734375
3947734375.0 -1.45184326171875 -0.11767578125
3978956250.0 -1.299560546875 0.78460693359375
4010178125.0 -0.5291748046875 1.4595947265625
4041400000.0 0.4786376953125 1.41796875
4072621875.0 1.15716552734375 0.845947265625
4103843750.0 1.44866943359375 0.0592041015625
4135065625.0 1.26910400390625 -0.85101318359375
4166287500.0 0.45440673828125 -1.502197265625
4197509375.0 -0.5623779296875 -1.41571044921875
4228731250.0 -1.25299072265625 -0.8004150390625
4259953125.0 -1.5120849609375 0.0743408203125
4291175000.0 -1.18914794921875 1.01422119140625
4322396875.0 -0.28668212890625 1.5301513671875
4353618750.0 0.6778564453125 1.3516845703125
4384840625.0 1.3272705078125 0.69586181640625
4416062500.0 1.50421142578125 -0.231689453125
4447284375.0 1.05535888671875 -1.109619140625
4478506250.0 0.16876220703125 -1.5
4509728125.0 -0.73736572265625 -1.30865478515625
4540950000.0 -1.39990234375 -0.6334228515625
4572171875.0 -1.5255126953125 0.3662109375
4603393750.0 -0.97119140625 1.2183837890625
4634615625.0 -0.05712890625 1.5411376953125
4665837500.0 0.87554931640625 1.3055419921875
4697059375.0 1.54730224609375 0.51190185546875
4728281250.0 1.53076171875 -0.589111328125
4759503125.0 0.8206787109375 -1.37261962890625
4790725000.0 -0.149169921875 -1.57476806640625
4821946875.0 -1.0892333984375 -1.19390869140625
4853168750.0 -1.61846923828125 -0.2471923828125
4884390625.0 -1.37896728515625 0.79791259765625
4915612500.0 -0.6112060546875 1.41754150390625
4946834375.0 0.33343505859375 1.51171875
4978056250.0 1.21075439453125 1.01641845703125
5009278125.0 1.5657958984375 0.03497314453125
5040500000.0 1.2298583984375 -0.88214111328125
5071721875.0 0.4990234375 -1.42059326171875
5102943750.0 -0.45166015625 -1.49908447265625
5134165625.0 -1.34332275390625 -0.903076171875
5165387500.0 -1.57220458984375 0.15325927734375
5196609375.0 -1.1356201171875 1.01507568359375
5227831250.0 -0.35357666015625 1.5106201171875
5259053125.0 0.69500732421875 1.4940185546875
5290275000.0 1.5274658203125 0.65960693359375
5321496875.0 1.49395751953125 -0.43743896484375
5352718750.0 0.91925048828125 -1.1575927734375
5383940625.0 0.09246826171875 -1.504638671875
5415162500.0 -0.90606689453125 -1.28436279296875
5446384375.0 -1.48944091796875 -0.3670654296875
5477606250.0 -1.3006591796875 0.57135009765625
5508828125.0 -0.72955322265625 1.1568603515625
5540050000.0 0.058349609375 1.40283203125
5571271875.0 0.94573974609375 1.10919189453125
5602493750.0 1.4132080078125 0.25604248046875
5633715625.0 1.2333984375 -0.61834716796875
5664937500.0 0.6455078125 -1.2069091796875
5696159375.0 -0.20355224609375 -1.387451171875
5727381250.0 -1.0299072265625 -0.97674560546875
5758603125.0 -1.395751953125 -0.14031982421875
5789825000.0 -1.19549560546875 0.72467041015625
5821046875.0 -0.50244140625 1.313232421875
5852268750.0 0.41790771484375 1.314697265625
5883490625.0 1.076416015625 0.76995849609375
5914712500.0 1.3052978515625 0.01611328125
5945934375.0 1.09710693359375 -0.7823486328125
5977156250.0 0.3570556640625 -1.3179931640625
6008378125.0 -0.51593017578125 -1.18316650390625
6039600000.0 -1.025634765625 -0.64752197265625
6070821875.0 -1.2274169921875 -0.0008544921875
6102043750.0 -1.084228515625 0.7686767578125
6133265625.0 -0.33746337890625 1.3494873046875
6164487500.0 0.570068359375 1.18878173828125
6195709375.0 1.07568359375 0.627685546875
6226931250.0 1.283447265625 -0.0474853515625
6258153125.0 1.1036376953125 -0.87811279296875
6289375000.0 0.24957275390625 -1.4510498046875
6320596875.0 -0.69598388671875 -1.2049560546875
6351818750.0 -1.204833984375 -0.56805419921875
6383040625.0 -1.35723876953125 0.213134765625
6414262500.0 -0.99749755859375 1.0633544921875
6445484375.0 -0.0723876953125 1.4599609375
6476706250.0 0.80267333984375 1.1474609375
6507928125.0 1.294677734375 0.46649169921875
6539150000.0 1.34918212890625 -0.3924560546875
6570371875.0 0.83892822265625 -1.150146484375
6601593750.0 -0.02313232421875 -1.40924072265625
6632815625.0 -0.84600830078125 -1.13653564453125
6664037500.0 -1.4072265625 -0.4150390625
6695259375.0 -1.37469482421875 0.57391357421875
6726481250.0 -0.7064208984375 1.2574462890625
6757703125.0 0.1363525390625 1.4097900390625
6788925000.0 0.9619140625 1.13006591796875
6820146875.0 1.5660400390625 0.28076171875
6851368750.0 1.3248291015625 -0.828369140625
6882590625.0 0.50140380859375 -1.34381103515625
6913812500.0 -0.29742431640625 -1.357666015625
6945034375.0 -1.0767822265625 -1.0203857421875
6976256250.0 -1.5966796875 -0.085693359375
7007478125.0 -1.23431396484375 0.93963623046875
7038700000.0 -0.3984375 1.34814453125
7069921875.0 0.36260986328125 1.3251953125
7101143750.0 1.1260986328125 0.9677734375
7132365625.0 1.60455322265625 0.00762939453125
7163587500.0 1.156005859375 -1.0277099609375
7194809375.0 0.29962158203125 -1.40179443359375
7226031250.0 -0.51837158203125 -1.32769775390625
7257253125.0 -1.276611328125 -0.81976318359375
7288475000.0 -1.56097412109375 0.20562744140625
7319696875.0 -1.027587890625 1.11822509765625
7350918750.0 -0.1585693359375 1.44903564453125
7382140625.0 0.7232666015625 1.27703857421875
7413362500.0 1.3831787109375 0.57049560546875
7444584375.0 1.4130859375 -0.41552734375
7475806250.0 0.854248046875 -1.14910888671875
7507028125.0 0.0009765625 -1.433837890625
7538250000.0 -0.89520263671875 -1.1226806640625
7569471875.0 -1.34051513671875 -0.30487060546875
7600693750.0 -1.2027587890625 0.5035400390625
7631915625.0 -0.716796875 1.09197998046875
7663137500.0 0.08636474609375 1.363037109375
7694359375.0 0.94775390625 0.97955322265625
7725581250.0 1.24835205078125 0.17657470703125
7756803125.0 1.08465576171875 -0.50457763671875
7788025000.0 0.668212890625 -1.05084228515625
7819246875.0 -0.12811279296875 -1.35357666015625
7850468750.0 -1.0006103515625 -0.9129638671875
7881690625.0 -1.23516845703125 -0.1004638671875
7912912500.0 -1.0556640625 0.56048583984375
7944134375.0 -0.60211181640625 1.12158203125
7975356250.0 0.2808837890625 1.33709716796875
8006578125.0 1.05340576171875 0.77508544921875
8037800000.0 1.19573974609375 0.01171875
8069021875.0 1.006591796875 -0.6229248046875
8100243750.0 0.495361328125 -1.166259765625
8131465625.0 -0.39501953125 -1.25439453125
8162687500.0 -1.03607177734375 -0.68341064453125
8193909375.0 -1.18389892578125 0.01275634765625
8225131250.0 -1.01947021484375 0.6854248046875
8256353125.0 -0.4156494140625 1.2568359375
8287575000.0 0.508544921875 1.2276611328125
8318796875.0 1.08746337890625 0.63238525390625
8350018750.0 1.24847412109375 -0.08209228515625
8381240625.0 1.03094482421875 -0.8475341796875
8412462500.0 0.247802734375 -1.37872314453125
8443684375.0 -0.67840576171875 -1.1697998046875
8474906250.0 -1.1806640625 -0.527587890625
8506128125.0 -1.30010986328125 0.24395751953125
8537350000.0 -0.920654296875 1.0552978515625
8568571875.0 -0.00726318359375 1.39892578125
8599793750.0 0.80926513671875 1.05133056640625
8631015625.0 1.24566650390625 0.39385986328125
8662237500.0 1.2869873046875 -0.434814453125
8693459375.0 0.73309326171875 -1.1817626953125
8724681250.0 -0.1671142578125 -1.334228515625
8755903125.0 -0.887603759765625 -0.957244873046875
8787125000.0 -1.30828857421875 -0.27838134765625
8818346875.0 -1.25146484375 0.6224365234375
8849568750.0 -0.5528564453125 1.2677001953125
8880790625.0 0.30609130859375 1.28900146484375
8912012500.0 0.990234375 0.891387939453125
8943234375.0 1.406494140625 0.12109375
8974456250.0 1.16534423828125 -0.8480224609375
9005678125.0 0.34063720703125 -1.3193359375
9036900000.0 -0.454345703125 -1.2254638671875
9068121875.0 -1.1112060546875 -0.78106689453125
9099343750.0 -1.4451904296875 0.10809326171875
9130565625.0 -0.97552490234375 1.02020263671875
9161787500.0 -0.14727783203125 1.28619384765625
9193009375.0 0.56182861328125 1.1346435546875
9224231250.0 1.18548583984375 0.65252685546875
9255453125.0 1.40264892578125 -0.3033447265625
9286675000.0 0.80291748046875 -1.09375
9317896875.0 0.02130126953125 -1.25079345703125
9349118750.0 -0.6629638671875 -1.07080078125
9380340625.0 -1.26531982421875 -0.5052490234375
9411562500.0 -1.31414794921875 0.48773193359375
9442784375.0 -0.64324951171875 1.1236572265625
9474006250.0 0.09515380859375 1.214111328125
9505228125.0 0.7755126953125 0.97979736328125
9536450000.0 1.28167724609375 0.30462646484375
9567671875.0 1.14306640625 -0.5897216796875
9598893750.0 0.52349853515625 -1.07550048828125
9630115625.0 -0.15087890625 -1.16107177734375
9661337500.0 -0.82598876953125 -0.899658203125
9692559375.0 -1.2440185546875 -0.18182373046875
9723781250.0 -1.0423583984375 0.61053466796875
9755003125.0 -0.48175048828125 1.05499267578125
9786225000.0 0.205078125 1.16162109375
9817446875.0 0.90386962890625 0.825042724609375
9848668750.0 1.2012939453125 0.07183837890625
9879890625.0 0.96771240234375 -0.62432861328125
9911112500.0 0.44891357421875 -1.058349609375
9942334375.0 -0.27587890625 -1.16259765625
9973556250.0 -0.952606201171875 -0.734161376953125
10004778125.0 -1.149169921875 -0.01080322265625
10036000000.0 -0.94342041015625 0.6243896484375
10067221875.0 -0.436279296875 1.10498046875
10098443750.0 0.38250732421875 1.1832275390625
10129665625.0 1.010009765625 0.6370849609375
10160887500.0 1.12200927734375 -0.05999755859375
10192109375.0 0.916015625 -0.670928955078125
10223331250.0 0.35479736328125 -1.15838623046875
10254553125.0 -0.493896484375 -1.11248779296875
10285775000.0 -0.991851806640625 -0.530120849609375
10316996875.0 -1.0692138671875 0.082763671875
10348218750.0 -0.8994140625 0.678558349609375
10379440625.0 -0.31646728515625 1.1812744140625
10410662500.0 0.53643798828125 1.0863037109375
10441884375.0 0.99713134765625 0.51739501953125
10473106250.0 1.1129150390625 -0.09149169921875
10504328125.0 0.948944091796875 -0.766815185546875
10535550000.0 0.23114013671875 -1.30157470703125
10566771875.0 -0.66778564453125 -1.07550048828125
10597993750.0 -1.08697509765625 -0.45318603515625
10629215625.0 -1.178466796875 0.21405029296875
10660437500.0 -0.884002685546875 0.963287353515625
10691659375.0 0.0001220703125 1.33905029296875
10722881250.0 0.7952880859375 0.94830322265625
10754103125.0 1.1243896484375 0.320068359375
10785325000.0 1.14111328125 -0.37646484375
10816546875.0 0.696044921875 -1.058349609375
10847768750.0 -0.1546630859375 -1.23101806640625
10878990625.0 -0.80926513671875 -0.840576171875
10910212500.0 -1.1279296875 -0.23919677734375
10941434375.0 -1.09832763671875 0.48541259765625
10972656250.0 -0.5635986328125 1.0927734375
11003878125.0 0.22528076171875 1.1759033203125
11035100000.0 0.8565673828125 0.81951904296875
11066321875.0 1.2254638671875 0.1678466796875
11097543750.0 1.09857177734375 -0.685546875
11128765625.0 0.3780517578125 -1.20709228515625
11159987500.0 -0.40380859375 -1.14044189453125
11191209375.0 -1.00775146484375 -0.69818115234375
11222431250.0 -1.27691650390625 0.10296630859375
11253653125.0 -0.854400634765625 0.9024658203125
11284875000.0 -0.10699462890625 1.1302490234375
11316096875.0 0.51995849609375 0.956329345703125
11347318750.0 1.0103759765625 0.49725341796875
11378540625.0 1.11810302734375 -0.2779541015625
11409762500.0 0.63018798828125 -0.8670654296875
11440984375.0 0.030059814453125 -0.981781005859375
11472206250.0 -0.488006591796875 -0.850372314453125
11503428125.0 -0.95965576171875 -0.4522705078125
11534650000.0 -1.07061767578125 0.29693603515625
11565871875.0 -0.5977783203125 0.8609619140625
11597093750.0 -0.01220703125 0.994873046875
11628315625.0 0.552520751953125 0.876129150390625
11659537500.0 1.0689697265625 0.38543701171875
11690759375.0 1.06524658203125 -0.44451904296875
11721981250.0 0.51116943359375 -0.947235107421875
11753203125.0 -0.1121826171875 -1.03875732421875
11784425000.0 -0.7315673828125 -0.80712890625
11815646875.0 -1.10546875 -0.142578125
11846868750.0 -0.889007568359375 0.55877685546875
11878090625.0 -0.38616943359375 0.913909912109375
11909312500.0 0.193450927734375 0.986328125
11940534375.0 0.78912353515625 0.692291259765625
11971756250.0 1.0277099609375 0.0321044921875
12002978125.0 0.804901123046875 -0.545318603515625
12034200000.0 0.377655029296875 -0.893890380859375
12065421875.0 -0.2225341796875 -1.01153564453125
12096643750.0 -0.856231689453125 -0.660614013671875
12127865625.0 -1.036376953125 0.02496337890625
12159087500.0 -0.813140869140625 0.583587646484375
12190309375.0 -0.372161865234375 0.9810791015625
12221531250.0 0.35009765625 1.08966064453125
12252753125.0 0.98785400390625 0.57470703125
12283975000.0 1.05523681640625 -0.13555908203125
12315196875.0 0.797698974609375 -0.684051513671875
12346418750.0 0.2738037109375 -1.099853515625
12377640625.0 -0.54852294921875 -1.06011962890625
12408862500.0 -1.0396728515625 -0.412109375
12440084375.0 -1.00946044921875 0.23272705078125
12471306250.0 -0.73907470703125 0.744781494140625
12502528125.0 -0.1727294921875 1.12628173828125
12533750000.0 0.6297607421875 0.991729736328125
12564971875.0 1.046142578125 0.35748291015625
12596193750.0 1.0302734375 -0.27191162109375
12627415625.0 0.745635986328125 -0.83746337890625
12658637500.0 0.07110595703125 -1.21173095703125
12689859375.0 -0.744140625 -0.96307373046875
12721081250.0 -1.122802734375 -0.2982177734375
12752303125.0 -1.10015869140625 0.392822265625
12783525000.0 -0.68084716796875 1.03729248046875
12814746875.0 0.176513671875 1.2542724609375
12845968750.0 0.8702392578125 0.806671142578125
12877190625.0 1.1226806640625 0.16339111328125
12908412500.0 1.055908203125 -0.51214599609375
12939634375.0 0.534912109375 -1.1270751953125
12970856250.0 -0.33203125 -1.17547607421875
13002078125.0 -0.901092529296875 -0.688201904296875
13033300000.0 -1.10992431640625 -0.07843017578125
13064521875.0 -1.00909423828125 0.60345458984375
13095743750.0 -0.4110107421875 1.1627197265625
13126965625.0 0.41839599609375 1.11962890625
13158187500.0 0.95562744140625 0.626190185546875
13189409375.0 1.1531982421875 -0.031005859375
13220631250.0 0.934234619140625 -0.760009765625
13251853125.0 0.22381591796875 -1.17864990234375
13283075000.0 -0.51763916015625 -1.0177001953125
13314296875.0 -0.99322509765625 -0.52349853515625
13345518750.0 -1.1376953125 0.187255859375
13376740625.0 -0.74725341796875 0.86871337890625
13407962500.0 -0.0496826171875 1.0697021484375
