!Created with skrf (http://scikit-rf.org).
# Hz S RI R 50.0 
!freq ReS11 ImS11
45000000.0 -0.0766754150390625 -0.09721755981445312
76221875.0 -0.19680023193359375 -0.04814910888671875
107443750.0 -0.2559051513671875 0.11944580078125
138665625.0 -0.14935302734375 0.3289031982421875
169887500.0 0.12255859375 0.4185028076171875
201109375.0 0.422027587890625 0.282745361328125
232331250.0 0.580352783203125 -0.05615234375
263553125.0 0.491485595703125 -0.4528656005859375
294775000.0 0.1005859375 -0.734100341796875
325996875.0 -0.414642333984375 -0.683685302734375
357218750.0 -0.80780029296875 -0.300048828125
388440625.0 -0.888885498046875 0.29962158203125
419662500.0 -0.5208740234375 0.8670654296875
450884375.0 0.17047119140625 1.03204345703125
482106250.0 0.79864501953125 0.716827392578125
513328125.0 1.12188720703125 0.09027099609375
544550000.0 1.0074462890625 -0.67889404296875
575771875.0 0.3402099609375 -1.2396240234375
606993750.0 -0.551513671875 -1.18121337890625
638215625.0 -1.16656494140625 -0.5948486328125
669437500.0 -1.34307861328125 0.23095703125
700659375.0 -0.97540283203125 1.0960693359375
731881250.0 -0.0079345703125 1.546142578125
763103125.0 1.0045166015625 1.1612548828125
794325000.0 1.4713134765625 0.28607177734375
825546875.0 1.37164306640625 -0.64947509765625
856768750.0 0.7994384765625 -1.40234375
887990625.0 -0.28955078125 -1.65289306640625
919212500.0 -1.28851318359375 -1.08477783203125
950434375.0 -1.6527099609375 -0.0631103515625
981656250.0 -1.3883056640625 0.94500732421875
1012878125.0 -0.5347900390625 1.67486572265625
1044100000.0 0.695068359375 1.66815185546875
1075321875.0 1.5772705078125 0.8177490234375
1106543750.0 1.7099609375 -0.30950927734375
1137765625.0 1.19268798828125 -1.28472900390625
1168987500.0 0.1435546875 -1.80120849609375
1200209375.0 -1.06097412109375 -1.4906005859375
1231431250.0 -1.731201171875 -0.45843505859375
1262653125.0 -1.599609375 0.682861328125
1293875000.0 -0.85723876953125 1.4931640625
1325096875.0 0.22430419921875 1.7115478515625
1356318750.0 1.2354736328125 1.2230224609375
1387540625.0 1.74334716796875 0.19366455078125
1418762500.0 1.47509765625 -0.9498291015625
1449984375.0 0.53472900390625 -1.6279296875
1481206250.0 -0.5472412109375 -1.5609130859375
1512428125.0 -1.3431396484375 -0.9248046875
1543650000.0 -1.6593017578125 0.06170654296875
1574871875.0 -1.27838134765625 1.1085205078125
1606093750.0 -0.2769775390625 1.63433837890625
1637315625.0 0.740478515625 1.40509033203125
1668537500.0 1.3975830078125 0.70025634765625
1699759375.0 1.5771484375 -0.2738037109375
1730981250.0 1.0693359375 -1.2293701171875
1762203125.0 0.045654296875 -1.57379150390625
1793425000.0 -0.85479736328125 -1.23095703125
1824646875.0 -1.3953857421875 -0.51904296875
1855868750.0 -1.47833251953125 0.42974853515625
1887090625.0 -0.87982177734375 1.28619384765625
1918312500.0 0.11431884765625 1.4901123046875
1949534375.0 0.9215087890625 1.0933837890625
1980756250.0 1.376953125 0.373779296875
2011978125.0 1.3636474609375 -0.52996826171875
2043200000.0 0.754638671875 -1.2626953125
2074421875.0 -0.15447998046875 -1.43658447265625
2105643750.0 -0.960205078125 -1.07684326171875
2136865625.0 -1.44964599609375 -0.30853271484375
2168087500.0 -1.3612060546875 0.66943359375
2199309375.0 -0.64300537109375 1.3531494140625
2230531250.0 0.27972412109375 1.43975830078125
2261753125.0 1.072998046875 1.01800537109375
2292975000.0 1.51702880859375 0.17376708984375
2324196875.0 1.30975341796875 -0.81817626953125
2355418750.0 0.52886962890625 -1.4219970703125
2386640625.0 -0.40228271484375 -1.45233154296875
2417862500.0 -1.1810302734375 -1.02886962890625
2449084375.0 -1.60760498046875 -0.08697509765625
2480306250.0 -1.31561279296875 0.92498779296875
2511528125.0 -0.498291015625 1.50921630859375
2542750000.0 0.48712158203125 1.54071044921875
2573971875.0 1.3731689453125 0.97296142578125
2605193750.0 1.72161865234375 -0.10943603515625
2636415625.0 1.26611328125 -1.153076171875
2667637500.0 0.30987548828125 -1.67071533203125
2698859375.0 -0.76763916015625 -1.538330078125
2730081250.0 -1.57635498046875 -0.7447509765625
2761303125.0 -1.68548583984375 0.38525390625
2792525000.0 -1.10418701171875 1.30767822265625
2823746875.0 -0.10614013671875 1.73236083984375
2854968750.0 1.0123291015625 1.46063232421875
2886190625.0 1.6944580078125 0.4957275390625
2917412500.0 1.6053466796875 -0.61700439453125
2948634375.0 0.94415283203125 -1.43536376953125
2979856250.0 -0.1053466796875 -1.78009033203125
3011078125.0 -1.247802734375 -1.34735107421875
3042300000.0 -1.7783203125 -0.2381591796875
3073521875.0 -1.51312255859375 0.83709716796875
3104743750.0 -0.7677001953125 1.570556640625
3135965625.0 0.35968017578125 1.81365966796875
3167187500.0 1.49957275390625 1.16937255859375
3198409375.0 1.8197021484375 -0.07177734375
3229631250.0 1.35369873046875 -1.0811767578125
3260853125.0 0.4937744140625 -1.67193603515625
3292075000.0 -0.6534423828125 -1.70281982421875
3323296875.0 -1.6229248046875 -0.88458251953125
3354518750.0 -1.735107421875 0.32720947265625
3385740625.0 -1.16046142578125 1.23370361328125
3416962500.0 -0.23480224609375 1.68511962890625
3448184375.0 0.860107421875 1.52642822265625
3479406250.0 1.6387939453125 0.64788818359375
3510628125.0 1.64886474609375 -0.49456787109375
3541850000.0 1.0042724609375 -1.35699462890625
3573071875.0 -0.00518798828125 -1.6859130859375
3604293750.0 -1.02777099609375 -1.34161376953125
3635515625.0 -1.6298828125 -0.4417724609375
3666737500.0 -1.56634521484375 0.64520263671875
3697959375.0 -0.82879638671875 1.47882080078125
3729181250.0 0.26690673828125 1.6341552734375
3760403125.0 1.1533203125 1.10205078125
3791625000.0 1.55474853515625 0.2213134765625
3822846875.0 1.40625 -0.75958251953125
3854068750.0 0.6239013671875 -1.48443603515625
3885290625.0 -0.41973876953125 -1.4842529296875
3916512500.0 -1.14239501953125 -0.9149169921875
3947734375.0 -1.45062255859375 -0.1226806640625
3978956250.0 -1.30181884765625 0.7789306640625
4010178125.0 -0.5340576171875 1.4571533203125
4041400000.0 0.4747314453125 1.41949462890625
4072621875.0 1.15338134765625 0.85028076171875
4103843750.0 1.44732666015625 0.06524658203125
4135065625.0 1.27130126953125 -0.8458251953125
4166287500.0 0.45977783203125 -1.498291015625
4197509375.0 -0.55712890625 -1.41802978515625
4228731250.0 -1.2491455078125 -0.805419921875
4259953125.0 -1.51171875 0.068603515625
4291175000.0 -1.19171142578125 1.0101318359375
4322396875.0 -0.29180908203125 1.52874755859375
4353618750.0 0.67340087890625 1.3538818359375
4384840625.0 1.323974609375 0.70074462890625
4416062500.0 1.50518798828125 -0.22662353515625
4447284375.0 1.05889892578125 -1.10491943359375
4478506250.0 0.17376708984375 -1.49920654296875
4509728125.0 -0.7330322265625 -1.31103515625
4540950000.0 -1.396484375 -0.63873291015625
4572171875.0 -1.5257568359375 0.35955810546875
4603393750.0 -0.97540283203125 1.21533203125
4634615625.0 -0.063232421875 1.5390625
4665837500.0 0.87005615234375 1.30755615234375
4697059375.0 1.5445556640625 0.51751708984375
4728281250.0 1.532958984375 -0.58380126953125
4759503125.0 0.82623291015625 -1.36920166015625
4790725000.0 -0.1444091796875 -1.57598876953125
4821946875.0 -1.08380126953125 -1.19671630859375
4853168750.0 -1.6170654296875 -0.2532958984375
4884390625.0 -1.3819580078125 0.7938232421875
4915612500.0 -0.616455078125 1.41357421875
4946834375.0 0.32879638671875 1.5137939453125
4978056250.0 1.2066650390625 1.02117919921875
5009278125.0 1.56524658203125 0.040771484375
5040500000.0 1.23236083984375 -0.8778076171875
5071721875.0 0.50396728515625 -1.41656494140625
5102943750.0 -0.447021484375 -1.500732421875
5134165625.0 -1.3380126953125 -0.908447265625
5165387500.0 -1.57098388671875 0.14532470703125
5196609375.0 -1.13922119140625 1.0108642578125
5227831250.0 -0.359619140625 1.50836181640625
5259053125.0 0.68865966796875 1.49560546875
5290275000.0 1.52471923828125 0.6644287109375
5321496875.0 1.49554443359375 -0.43096923828125
5352718750.0 0.923583984375 -1.15362548828125
5383940625.0 0.09857177734375 -1.50274658203125
5415162500.0 -0.9022216796875 -1.28790283203125
5446384375.0 -1.48822021484375 -0.3719482421875
5477606250.0 -1.30230712890625 0.5650634765625
5508828125.0 -0.73394775390625 1.15228271484375
5540050000.0 0.05291748046875 1.40185546875
5571271875.0 0.94049072265625 1.1119384765625
5602493750.0 1.411376953125 0.26123046875
5633715625.0 1.23553466796875 -0.61370849609375
5664937500.0 0.650634765625 -1.20361328125
5696159375.0 -0.1973876953125 -1.386962890625
5727381250.0 -1.024169921875 -0.98095703125
5758603125.0 -1.3939208984375 -0.14617919921875
5789825000.0 -1.1973876953125 0.71875
5821046875.0 -0.5079345703125 1.31048583984375
5852268750.0 0.412353515625 1.315185546875
5883490625.0 1.07403564453125 0.77398681640625
5914712500.0 1.30517578125 0.020751953125
5945934375.0 1.09918212890625 -0.7764892578125
5977156250.0 0.363037109375 -1.31439208984375
6008378125.0 -0.51025390625 -1.18475341796875
6039600000.0 -1.02386474609375 -0.65069580078125
6070821875.0 -1.22637939453125 -0.00537109375
6102043750.0 -1.0859375 0.76287841796875
6133265625.0 -0.34307861328125 1.34808349609375
6164487500.0 0.5645751953125 1.19000244140625
6195709375.0 1.07281494140625 0.6319580078125
6226931250.0 1.28271484375 -0.04266357421875
6258153125.0 1.10693359375 -0.873046875
6289375000.0 0.25653076171875 -1.44964599609375
6320596875.0 -0.69140625 -1.2081298828125
6351818750.0 -1.20184326171875 -0.5728759765625
6383040625.0 -1.35723876953125 0.20709228515625
6414262500.0 -1.00164794921875 1.059814453125
6445484375.0 -0.077880859375 1.45947265625
6476706250.0 0.79620361328125 1.14959716796875
6507928125.0 1.29217529296875 0.4718017578125
6539150000.0 1.35015869140625 -0.38690185546875
6570371875.0 0.843017578125 -1.1453857421875
6601593750.0 -0.017333984375 -1.4080810546875
6632815625.0 -0.841552734375 -1.13922119140625
6664037500.0 -1.4052734375 -0.42071533203125
6695259375.0 -1.376708984375 0.56622314453125
6726481250.0 -0.71148681640625 1.2548828125
6757703125.0 0.13116455078125 1.40997314453125
6788925000.0 0.9576416015625 1.1328125
6820146875.0 1.56378173828125 0.28765869140625
6851368750.0 1.32806396484375 -0.82098388671875
6882590625.0 0.5067138671875 -1.34112548828125
6913812500.0 -0.29327392578125 -1.3597412109375
6945034375.0 -1.073486328125 -1.02374267578125
6976256250.0 -1.59576416015625 -0.0924072265625
7007478125.0 -1.23870849609375 0.93646240234375
7038700000.0 -0.40338134765625 1.34686279296875
7069921875.0 0.35992431640625 1.32708740234375
7101143750.0 1.12237548828125 0.9718017578125
7132365625.0 1.60272216796875 0.01483154296875
7163587500.0 1.16033935546875 -1.023193359375
7194809375.0 0.3035888671875 -1.39898681640625
7226031250.0 -0.51336669921875 -1.329345703125
7257253125.0 -1.26953125 -0.82666015625
7288475000.0 -1.562255859375 0.19873046875
7319696875.0 -1.03265380859375 1.1123046875
7350918750.0 -0.16326904296875 1.450439453125
7382140625.0 0.71710205078125 1.2799072265625
7413362500.0 1.37957763671875 0.576416015625
7444584375.0 1.41400146484375 -0.408447265625
7475806250.0 0.85955810546875 -1.14666748046875
7507028125.0 0.00469970703125 -1.43359375
7538250000.0 -0.89019775390625 -1.12615966796875
7569471875.0 -1.3389892578125 -0.31158447265625
7600693750.0 -1.2047119140625 0.498046875
7631915625.0 -0.7196044921875 1.08880615234375
7663137500.0 0.08099365234375 1.36236572265625
7694359375.0 0.940826416015625 0.98321533203125
7725581250.0 1.24700927734375 0.18133544921875
7756803125.0 1.08587646484375 -0.50128173828125
7788025000.0 0.672607421875 -1.04730224609375
7819246875.0 -0.121337890625 -1.35260009765625
7850468750.0 -0.996734619140625 -0.91827392578125
7881690625.0 -1.23443603515625 -0.10491943359375
7912912500.0 -1.05767822265625 0.55706787109375
7944134375.0 -0.6063232421875 1.1171875
7975356250.0 0.27423095703125 1.3389892578125
8006578125.0 1.05023193359375 0.77911376953125
8037800000.0 1.1966552734375 0.0159912109375
8069021875.0 1.00927734375 -0.619140625
8100243750.0 0.500244140625 -1.16595458984375
8131465625.0 -0.3900146484375 -1.25738525390625
8162687500.0 -1.034912109375 -0.687255859375
8193909375.0 -1.1832275390625 0.00677490234375
8225131250.0 -1.0213623046875 0.68157958984375
8256353125.0 -0.42156982421875 1.2525634765625
8287575000.0 0.50164794921875 1.22955322265625
8318796875.0 1.08551025390625 0.63604736328125
8350018750.0 1.24932861328125 -0.07635498046875
8381240625.0 1.033935546875 -0.84051513671875
8412462500.0 0.253173828125 -1.37725830078125
8443684375.0 -0.671875 -1.1727294921875
8474906250.0 -1.17742919921875 -0.53369140625
8506128125.0 -1.3006591796875 0.23876953125
8537350000.0 -0.92535400390625 1.049560546875
8568571875.0 -0.0142822265625 1.3966064453125
8599793750.0 0.804931640625 1.05487060546875
8631015625.0 1.24542236328125 0.3983154296875
8662237500.0 1.288818359375 -0.4305419921875
8693459375.0 0.73846435546875 -1.17901611328125
8724681250.0 -0.1636962890625 -1.3363037109375
8755903125.0 -0.8809814453125 -0.9599609375
8787125000.0 -1.30731201171875 -0.2833251953125
8818346875.0 -1.25494384765625 0.61956787109375
8849568750.0 -0.55743408203125 1.264892578125
8880790625.0 0.302490234375 1.2904052734375
8912012500.0 0.98590087890625 0.89471435546875
8943234375.0 1.40478515625 0.128173828125
8974456250.0 1.16943359375 -0.845458984375
9005678125.0 0.34552001953125 -1.31805419921875
9036900000.0 -0.44769287109375 -1.2261962890625
9068121875.0 -1.10430908203125 -0.78753662109375
9099343750.0 -1.44427490234375 0.10028076171875
9130565625.0 -0.97967529296875 1.01434326171875
9161787500.0 -0.15338134765625 1.28594970703125
9193009375.0 0.5552978515625 1.1357421875
9224231250.0 1.1824951171875 0.65631103515625
9255453125.0 1.40374755859375 -0.2974853515625
9286675000.0 0.8082275390625 -1.0887451171875
9317896875.0 0.02618408203125 -1.25079345703125
9349118750.0 -0.65618896484375 -1.07293701171875
9380340625.0 -1.26190185546875 -0.510498046875
9411562500.0 -1.3143310546875 0.47998046875
9442784375.0 -0.6492919921875 1.12127685546875
9474006250.0 0.08953857421875 1.2135009765625
9505228125.0 0.770843505859375 0.982757568359375
9536450000.0 1.2802734375 0.31121826171875
9567671875.0 1.145751953125 -0.582275390625
9598893750.0 0.52972412109375 -1.07049560546875
9630115625.0 -0.1453857421875 -1.15972900390625
9661337500.0 -0.820281982421875 -0.903900146484375
9692559375.0 -1.24310302734375 -0.18792724609375
9723781250.0 -1.044189453125 0.60516357421875
9755003125.0 -0.48504638671875 1.05413818359375
9786225000.0 0.20074462890625 1.162353515625
9817446875.0 0.89947509765625 0.828277587890625
9848668750.0 1.20184326171875 0.0760498046875
9879890625.0 0.970916748046875 -0.6180419921875
9911112500.0 0.4530029296875 -1.05426025390625
9942334375.0 -0.2698974609375 -1.16314697265625
9973556250.0 -0.94854736328125 -0.73876953125
10004778125.0 -1.1500244140625 -0.01617431640625
10036000000.0 -0.94659423828125 0.619659423828125
10067221875.0 -0.440185546875 1.102294921875
10098443750.0 0.37347412109375 1.1834716796875
10129665625.0 1.005859375 0.6416015625
10160887500.0 1.1226806640625 -0.0546875
10192109375.0 0.919097900390625 -0.66729736328125
10223331250.0 0.36126708984375 -1.15570068359375
10254553125.0 -0.48876953125 -1.1158447265625
10285775000.0 -0.987579345703125 -0.53497314453125
10316996875.0 -1.06915283203125 0.0780029296875
10348218750.0 -0.90283203125 0.6722412109375
10379440625.0 -0.32098388671875 1.18072509765625
10410662500.0 0.5301513671875 1.087158203125
10441884375.0 0.99542236328125 0.5224609375
10473106250.0 1.1124267578125 -0.08575439453125
10504328125.0 0.950897216796875 -0.7596435546875
10535550000.0 0.23773193359375 -1.2994384765625
10566771875.0 -0.66302490234375 -1.078369140625
10597993750.0 -1.083251953125 -0.45843505859375
10629215625.0 -1.17889404296875 0.20831298828125
10660437500.0 -0.888641357421875 0.95623779296875
10691659375.0 -0.0074462890625 1.338623046875
10722881250.0 0.786529541015625 0.95245361328125
10754103125.0 1.1217041015625 0.323974609375
10785325000.0 1.14129638671875 -0.36871337890625
10816546875.0 0.700927734375 -1.0533447265625
10847768750.0 -0.1475830078125 -1.23260498046875
10878990625.0 -0.806640625 -0.8443603515625
10910212500.0 -1.12420654296875 -0.2457275390625
10941434375.0 -1.099853515625 0.478759765625
10972656250.0 -0.56768798828125 1.0908203125
11003878125.0 0.220458984375 1.17724609375
11035100000.0 0.85137939453125 0.823455810546875
11066321875.0 1.2247314453125 0.17279052734375
11097543750.0 1.10028076171875 -0.6790771484375
11128765625.0 0.38458251953125 -1.2017822265625
11159987500.0 -0.39874267578125 -1.14117431640625
11191209375.0 -1.00714111328125 -0.70318603515625
11222431250.0 -1.2764892578125 0.09735107421875
11253653125.0 -0.859283447265625 0.89788818359375
11284875000.0 -0.11279296875 1.1297607421875
11316096875.0 0.51409912109375 0.959228515625
11347318750.0 1.0074462890625 0.50152587890625
11378540625.0 1.11865234375 -0.27117919921875
11409762500.0 0.634857177734375 -0.86273193359375
11440984375.0 0.0350341796875 -0.98138427734375
11472206250.0 -0.483245849609375 -0.852264404296875
11503428125.0 -0.956512451171875 -0.456268310546875
11534650000.0 -1.07061767578125 0.29052734375
11565871875.0 -0.60174560546875 0.858001708984375
11597093750.0 -0.016754150390625 0.993865966796875
11628315625.0 0.54754638671875 0.87774658203125
11659537500.0 1.0650634765625 0.39111328125
11690759375.0 1.066650390625 -0.4375
11721981250.0 0.515777587890625 -0.9443359375
11753203125.0 -0.110107421875 -1.0411376953125
11784425000.0 -0.72918701171875 -0.80999755859375
11815646875.0 -1.10443115234375 -0.148681640625
11846868750.0 -0.891693115234375 0.553558349609375
11878090625.0 -0.3895263671875 0.912078857421875
11909312500.0 0.189605712890625 0.988037109375
11940534375.0 0.784576416015625 0.69586181640625
11971756250.0 1.0267333984375 0.03717041015625
12002978125.0 0.8079833984375 -0.54052734375
12034200000.0 0.38177490234375 -0.892364501953125
12065421875.0 -0.218505859375 -1.013427734375
12096643750.0 -0.852325439453125 -0.664581298828125
12127865625.0 -1.0355224609375 0.0196533203125
12159087500.0 -0.816009521484375 0.578521728515625
12190309375.0 -0.37774658203125 0.978363037109375
12221531250.0 0.34356689453125 1.091552734375
12252753125.0 0.9852294921875 0.579193115234375
12283975000.0 1.05572509765625 -0.13104248046875
12315196875.0 0.800384521484375 -0.679779052734375
12346418750.0 0.28045654296875 -1.095458984375
12377640625.0 -0.54254150390625 -1.06195068359375
12408862500.0 -1.03729248046875 -0.417724609375
12440084375.0 -1.00885009765625 0.227294921875
12471306250.0 -0.742645263671875 0.74102783203125
12502528125.0 -0.17828369140625 1.122802734375
12533750000.0 0.625640869140625 0.9952392578125
12564971875.0 1.04425048828125 0.36199951171875
12596193750.0 1.0321044921875 -0.26885986328125
12627415625.0 0.7493896484375 -0.833038330078125
12658637500.0 0.0751953125 -1.21295166015625
12689859375.0 -0.739990234375 -0.9676513671875
12721081250.0 -1.120361328125 -0.3048095703125
12752303125.0 -1.10028076171875 0.3863525390625
12783525000.0 -0.68695068359375 1.03173828125
12814746875.0 0.16973876953125 1.254638671875
12845968750.0 0.866973876953125 0.81158447265625
12877190625.0 1.1220703125 0.16864013671875
12908412500.0 1.05877685546875 -0.5069580078125
12939634375.0 0.54095458984375 -1.1219482421875
12970856250.0 -0.325439453125 -1.177490234375
13002078125.0 -0.8983154296875 -0.693634033203125
13033300000.0 -1.1087646484375 -0.0849609375
13064521875.0 -1.01104736328125 0.59906005859375
13095743750.0 -0.41845703125 1.158935546875
13126965625.0 0.4119873046875 1.121826171875
13158187500.0 0.949462890625 0.6317138671875
13189409375.0 1.152099609375 -0.0247802734375
13220631250.0 0.937408447265625 -0.752777099609375
13251853125.0 0.2314453125 -1.1749267578125
13283075000.0 -0.51483154296875 -1.022216796875
13314296875.0 -0.9918212890625 -0.527679443359375
13345518750.0 -1.13848876953125 0.180908203125
13376740625.0 -0.75152587890625 0.86358642578125
