!Created with skrf (http://scikit-rf.org).
# Hz S RI R 50.0 
!freq ReS11 ImS11
45000000.0 -0.07682037353515625 -0.09686660766601562
76221875.0 -0.1962432861328125 -0.0478515625
107443750.0 -0.255035400390625 0.1194915771484375
138665625.0 -0.1485443115234375 0.328277587890625
169887500.0 0.12298583984375 0.417633056640625
201109375.0 0.4215240478515625 0.2813873291015625
232331250.0 0.578887939453125 -0.05645751953125
263553125.0 0.4898834228515625 -0.4518280029296875
294775000.0 0.09942626953125 -0.73187255859375
325996875.0 -0.41424560546875 -0.68072509765625
357218750.0 -0.805419921875 -0.29815673828125
388440625.0 -0.885894775390625 0.29925537109375
419662500.0 -0.517974853515625 0.864959716796875
450884375.0 0.17169189453125 1.0286865234375
482106250.0 0.79718017578125 0.713409423828125
513328125.0 1.11895751953125 0.08880615234375
544550000.0 1.004150390625 -0.67822265625
575771875.0 0.3377685546875 -1.2371826171875
606993750.0 -0.5521240234375 -1.17755126953125
638215625.0 -1.1644287109375 -0.59161376953125
669437500.0 -1.33953857421875 0.23193359375
700659375.0 -0.97161865234375 1.09454345703125
731881250.0 -0.0054931640625 1.54248046875
763103125.0 1.00384521484375 1.15643310546875
794325000.0 1.4674072265625 0.28363037109375
825546875.0 1.3675537109375 -0.6492919921875
856768750.0 0.7962646484375 -1.39837646484375
887990625.0 -0.28997802734375 -1.6473388671875
919212500.0 -1.2862548828125 -1.07940673828125
950434375.0 -1.64715576171875 -0.061279296875
981656250.0 -1.38250732421875 0.9432373046875
1012878125.0 -0.53143310546875 1.66949462890625
1044100000.0 0.694091796875 1.6612548828125
1075321875.0 1.572265625 0.81353759765625
1106543750.0 1.70367431640625 -0.31048583984375
1137765625.0 1.1876220703125 -1.281005859375
1168987500.0 0.14093017578125 -1.79541015625
1200209375.0 -1.05889892578125 -1.4837646484375
1231431250.0 -1.72509765625 -0.4554443359375
1262653125.0 -1.593505859375 0.68194580078125
1293875000.0 -0.853271484375 1.489013671875
1325096875.0 0.22540283203125 1.70538330078125
1356318750.0 1.23297119140625 1.21722412109375
1387540625.0 1.7381591796875 0.1910400390625
1418762500.0 1.46917724609375 -0.94879150390625
1449984375.0 0.53070068359375 -1.62353515625
1481206250.0 -0.54730224609375 -1.55548095703125
1512428125.0 -1.339599609375 -0.92034912109375
1543650000.0 -1.6541748046875 0.06317138671875
1574871875.0 -1.2735595703125 1.1064453125
1606093750.0 -0.27490234375 1.62994384765625
1637315625.0 0.73974609375 1.4005126953125
1668537500.0 1.3939208984375 0.69683837890625
1699759375.0 1.5721435546875 -0.274658203125
1730981250.0 1.064697265625 -1.2271728515625
1762203125.0 0.04376220703125 -1.56939697265625
1793425000.0 -0.853515625 -1.2266845703125
1824646875.0 -1.3917236328125 -0.5164794921875
1855868750.0 -1.47332763671875 0.4302978515625
1887090625.0 -0.87567138671875 1.2833251953125
1918312500.0 0.11541748046875 1.485595703125
1949534375.0 0.9190673828125 1.08917236328125
1980756250.0 1.37298583984375 0.371337890625
2011978125.0 1.35882568359375 -0.52935791015625
2043200000.0 0.7509765625 -1.25946044921875
2074421875.0 -0.15472412109375 -1.4320068359375
2105643750.0 -0.95819091796875 -1.072998046875
2136865625.0 -1.44549560546875 -0.30633544921875
2168087500.0 -1.35662841796875 0.66876220703125
2199309375.0 -0.64007568359375 1.3492431640625
2230531250.0 0.2801513671875 1.4351806640625
2261753125.0 1.0706787109375 1.014404296875
2292975000.0 1.51251220703125 0.17205810546875
2324196875.0 1.30548095703125 -0.816650390625
2355418750.0 0.52630615234375 -1.41790771484375
2386640625.0 -0.40240478515625 -1.44757080078125
2417862500.0 -1.17718505859375 -1.02435302734375
2449084375.0 -1.60211181640625 -0.08642578125
2480306250.0 -1.3115234375 0.9228515625
2511528125.0 -0.49462890625 1.5059814453125
2542750000.0 0.4859619140625 1.5355224609375
2573971875.0 1.3681640625 0.96826171875
2605193750.0 1.71502685546875 -0.11016845703125
2636415625.0 1.26165771484375 -1.149169921875
2667637500.0 0.3084716796875 -1.66436767578125
2698859375.0 -0.767333984375 -1.533203125
2730081250.0 -1.571044921875 -0.74176025390625
2761303125.0 -1.67926025390625 0.38494873046875
2792525000.0 -1.0997314453125 1.304443359375
2823746875.0 -0.10418701171875 1.7271728515625
2854968750.0 1.0098876953125 1.454833984375
2886190625.0 1.68927001953125 0.4930419921875
2917412500.0 1.59808349609375 -0.614501953125
2948634375.0 0.94036865234375 -1.430419921875
2979856250.0 -0.10516357421875 -1.774169921875
3011078125.0 -1.2447509765625 -1.34283447265625
3042300000.0 -1.77142333984375 -0.23724365234375
3073521875.0 -1.5076904296875 0.83575439453125
3104743750.0 -0.76397705078125 1.56463623046875
3135965625.0 0.35968017578125 1.8084716796875
3167187500.0 1.49639892578125 1.16436767578125
3198409375.0 1.81353759765625 -0.07232666015625
3229631250.0 1.34832763671875 -1.07830810546875
3260853125.0 0.4912109375 -1.664306640625
3292075000.0 -0.65057373046875 -1.69610595703125
3323296875.0 -1.61676025390625 -0.88067626953125
3354518750.0 -1.72894287109375 0.32574462890625
3385740625.0 -1.1551513671875 1.22796630859375
3416962500.0 -0.2335205078125 1.67877197265625
3448184375.0 0.85748291015625 1.52056884765625
3479406250.0 1.63287353515625 0.64532470703125
3510628125.0 1.6427001953125 -0.49261474609375
3541850000.0 1.00042724609375 -1.35137939453125
3573071875.0 -0.0052490234375 -1.679443359375
3604293750.0 -1.0245361328125 -1.33709716796875
3635515625.0 -1.62469482421875 -0.43994140625
3666737500.0 -1.560302734375 0.6431884765625
3697959375.0 -0.8251953125 1.4730224609375
3729181250.0 0.26513671875 1.62860107421875
3760403125.0 1.14874267578125 1.09783935546875
3791625000.0 1.55023193359375 0.21990966796875
3822846875.0 1.40118408203125 -0.75750732421875
3854068750.0 0.6214599609375 -1.4791259765625
3885290625.0 -0.41802978515625 -1.479736328125
3916512500.0 -1.13861083984375 -0.9117431640625
3947734375.0 -1.44586181640625 -0.12152099609375
3978956250.0 -1.2967529296875 0.7769775390625
4010178125.0 -0.532470703125 1.45147705078125
4041400000.0 0.47100830078125 1.41375732421875
4072621875.0 1.14984130859375 0.847900390625
4103843750.0 1.4425048828125 0.065185546875
4135065625.0 1.266845703125 -0.8433837890625
4166287500.0 0.45904541015625 -1.49334716796875
4197509375.0 -0.55487060546875 -1.41387939453125
4228731250.0 -1.24444580078125 -0.8033447265625
4259953125.0 -1.5072021484375 0.06884765625
4291175000.0 -1.18817138671875 1.008056640625
4322396875.0 -0.2906494140625 1.52459716796875
4353618750.0 0.6710205078125 1.34912109375
4384840625.0 1.31982421875 0.69805908203125
4416062500.0 1.4996337890625 -0.2255859375
4447284375.0 1.0550537109375 -1.1007080078125
4478506250.0 0.17425537109375 -1.4932861328125
4509728125.0 -0.7294921875 -1.30682373046875
4540950000.0 -1.39190673828125 -0.63714599609375
4572171875.0 -1.52093505859375 0.35797119140625
4603393750.0 -0.9727783203125 1.2108154296875
4634615625.0 -0.06292724609375 1.53533935546875
4665837500.0 0.8671875 1.30364990234375
4697059375.0 1.537841796875 0.51666259765625
4728281250.0 1.52783203125 -0.579833984375
4759503125.0 0.8238525390625 -1.36468505859375
4790725000.0 -0.14306640625 -1.570068359375
4821946875.0 -1.0810546875 -1.19390869140625
4853168750.0 -1.61077880859375 -0.2525634765625
4884390625.0 -1.37744140625 0.79119873046875
4915612500.0 -0.6142578125 1.41009521484375
4946834375.0 0.32696533203125 1.5081787109375
4978056250.0 1.20281982421875 1.01776123046875
5009278125.0 1.56036376953125 0.04119873046875
5040500000.0 1.22900390625 -0.87298583984375
5071721875.0 0.50225830078125 -1.4130859375
5102943750.0 -0.44439697265625 -1.49609375
5134165625.0 -1.3338623046875 -0.90582275390625
5165387500.0 -1.5665283203125 0.14459228515625
5196609375.0 -1.135986328125 1.00567626953125
5227831250.0 -0.35870361328125 1.503662109375
5259053125.0 0.6866455078125 1.49151611328125
5290275000.0 1.5184326171875 0.66400146484375
5321496875.0 1.49102783203125 -0.42877197265625
5352718750.0 0.92108154296875 -1.15057373046875
5383940625.0 0.09783935546875 -1.49853515625
5415162500.0 -0.89776611328125 -1.28338623046875
5446384375.0 -1.48297119140625 -0.37109375
5477606250.0 -1.298828125 0.56488037109375
5508828125.0 -0.73236083984375 1.1483154296875
5540050000.0 0.0531005859375 1.3985595703125
5571271875.0 0.93670654296875 1.108642578125
5602493750.0 1.406494140625 0.26165771484375
5633715625.0 1.23187255859375 -0.61065673828125
5664937500.0 0.64910888671875 -1.19927978515625
5696159375.0 -0.19512939453125 -1.3822021484375
5727381250.0 -1.0194091796875 -0.97821044921875
5758603125.0 -1.3900146484375 -0.14569091796875
5789825000.0 -1.19378662109375 0.7169189453125
5821046875.0 -0.50689697265625 1.30462646484375
5852268750.0 0.4100341796875 1.311767578125
5883490625.0 1.06884765625 0.77227783203125
5914712500.0 1.3009033203125 0.0216064453125
5945934375.0 1.0963134765625 -0.77374267578125
5977156250.0 0.3619384765625 -1.3109130859375
6008378125.0 -0.50726318359375 -1.18194580078125
6039600000.0 -1.0206298828125 -0.64923095703125
6070821875.0 -1.2237548828125 -0.00506591796875
6102043750.0 -1.08367919921875 0.76123046875
6133265625.0 -0.34344482421875 1.34332275390625
6164487500.0 0.56231689453125 1.18682861328125
6195709375.0 1.0697021484375 0.630126953125
6226931250.0 1.2786865234375 -0.041748046875
6258153125.0 1.1044921875 -0.869140625
6289375000.0 0.2568359375 -1.4444580078125
6320596875.0 -0.68719482421875 -1.20556640625
6351818750.0 -1.197998046875 -0.57305908203125
6383040625.0 -1.353759765625 0.2061767578125
6414262500.0 -0.99957275390625 1.054443359375
6445484375.0 -0.07989501953125 1.45458984375
6476706250.0 0.79412841796875 1.14752197265625
6507928125.0 1.28887939453125 0.47125244140625
6539150000.0 1.3460693359375 -0.3843994140625
6570371875.0 0.84222412109375 -1.142578125
6601593750.0 -0.01702880859375 -1.4041748046875
6632815625.0 -0.83709716796875 -1.1358642578125
6664037500.0 -1.40130615234375 -0.420166015625
6695259375.0 -1.37322998046875 0.56439208984375
6726481250.0 -0.7108154296875 1.248779296875
6757703125.0 0.13043212890625 1.4061279296875
6788925000.0 0.9521484375 1.13037109375
6820146875.0 1.55902099609375 0.2882080078125
6851368750.0 1.3250732421875 -0.8175048828125
6882590625.0 0.5067138671875 -1.33648681640625
6913812500.0 -0.2904052734375 -1.35498046875
6945034375.0 -1.068115234375 -1.0216064453125
6976256250.0 -1.59039306640625 -0.0953369140625
7007478125.0 -1.23651123046875 0.93170166015625
7038700000.0 -0.40325927734375 1.34112548828125
7069921875.0 0.35638427734375 1.3228759765625
7101143750.0 1.116455078125 0.96875
7132365625.0 1.59747314453125 0.017578125
7163587500.0 1.15740966796875 -1.0186767578125
7194809375.0 0.30401611328125 -1.3966064453125
7226031250.0 -0.510986328125 -1.32598876953125
7257253125.0 -1.26568603515625 -0.82513427734375
7288475000.0 -1.55670166015625 0.197509765625
7319696875.0 -1.02947998046875 1.10736083984375
7350918750.0 -0.1654052734375 1.4425048828125
7382140625.0 0.7137451171875 1.27606201171875
7413362500.0 1.37548828125 0.576171875
7444584375.0 1.40966796875 -0.4041748046875
7475806250.0 0.8577880859375 -1.1416015625
7507028125.0 0.00634765625 -1.42877197265625
7538250000.0 -0.88690185546875 -1.12481689453125
7569471875.0 -1.3333740234375 -0.3126220703125
7600693750.0 -1.2017822265625 0.49560546875
7631915625.0 -0.71783447265625 1.0848388671875
7663137500.0 0.07867431640625 1.357177734375
7694359375.0 0.938385009765625 0.98095703125
7725581250.0 1.24212646484375 0.181884765625
7756803125.0 1.08203125 -0.49755859375
7788025000.0 0.67083740234375 -1.041748046875
7819246875.0 -0.119384765625 -1.34600830078125
7850468750.0 -0.98980712890625 -0.91668701171875
7881690625.0 -1.231201171875 -0.10565185546875
7912912500.0 -1.05517578125 0.55462646484375
7944134375.0 -0.6055908203125 1.11181640625
7975356250.0 0.27044677734375 1.3336181640625
8006578125.0 1.0452880859375 0.77886962890625
8037800000.0 1.194580078125 0.0162353515625
8069021875.0 1.00628662109375 -0.6160888671875
8100243750.0 0.4998779296875 -1.16168212890625
8131465625.0 -0.385009765625 -1.2525634765625
8162687500.0 -1.03021240234375 -0.6868896484375
8193909375.0 -1.1806640625 0.0079345703125
8225131250.0 -1.01739501953125 0.67510986328125
8256353125.0 -0.4219970703125 1.2489013671875
8287575000.0 0.50006103515625 1.226318359375
8318796875.0 1.08160400390625 0.63592529296875
8350018750.0 1.24432373046875 -0.073974609375
8381240625.0 1.03155517578125 -0.83746337890625
8412462500.0 0.2559814453125 -1.3720703125
8443684375.0 -0.66827392578125 -1.16925048828125
8474906250.0 -1.1732177734375 -0.5323486328125
8506128125.0 -1.29644775390625 0.23614501953125
8537350000.0 -0.92510986328125 1.04461669921875
8568571875.0 -0.0166015625 1.3931884765625
8599793750.0 0.79949951171875 1.0526123046875
8631015625.0 1.24127197265625 0.39788818359375
8662237500.0 1.28515625 -0.4278564453125
8693459375.0 0.73699951171875 -1.17730712890625
8724681250.0 -0.158935546875 -1.32989501953125
8755903125.0 -0.87835693359375 -0.957977294921875
8787125000.0 -1.30328369140625 -0.2828369140625
8818346875.0 -1.25146484375 0.61505126953125
8849568750.0 -0.55712890625 1.2587890625
8880790625.0 0.29541015625 1.28424072265625
8912012500.0 0.979949951171875 0.8936767578125
8943234375.0 1.39892578125 0.130126953125
8974456250.0 1.165283203125 -0.8363037109375
9005678125.0 0.34918212890625 -1.3104248046875
9036900000.0 -0.4425048828125 -1.22393798828125
9068121875.0 -1.0987548828125 -0.7862548828125
9099343750.0 -1.43841552734375 0.094970703125
9130565625.0 -0.97955322265625 1.01092529296875
9161787500.0 -0.15478515625 1.28271484375
9193009375.0 0.55194091796875 1.13311767578125
9224231250.0 1.17822265625 0.65545654296875
9255453125.0 1.3983154296875 -0.29254150390625
9286675000.0 0.8070068359375 -1.08477783203125
9317896875.0 0.027099609375 -1.24713134765625
9349118750.0 -0.65130615234375 -1.06988525390625
9380340625.0 -1.25634765625 -0.509765625
9411562500.0 -1.31005859375 0.474853515625
9442784375.0 -0.6488037109375 1.11761474609375
9474006250.0 0.088134765625 1.21124267578125
9505228125.0 0.76483154296875 0.9801025390625
9536450000.0 1.27362060546875 0.31396484375
9567671875.0 1.1444091796875 -0.57977294921875
9598893750.0 0.53057861328125 -1.06744384765625
9630115625.0 -0.142578125 -1.1571044921875
9661337500.0 -0.8150634765625 -0.90240478515625
9692559375.0 -1.23724365234375 -0.19134521484375
9723781250.0 -1.0435791015625 0.602294921875
9755003125.0 -0.486572265625 1.0482177734375
9786225000.0 0.1968994140625 1.15997314453125
9817446875.0 0.893218994140625 0.828155517578125
9848668750.0 1.19757080078125 0.07855224609375
9879890625.0 0.968597412109375 -0.6163330078125
9911112500.0 0.45361328125 -1.0513916015625
9942334375.0 -0.26702880859375 -1.15899658203125
9973556250.0 -0.942626953125 -0.73846435546875
10004778125.0 -1.14605712890625 -0.01824951171875
10036000000.0 -0.9447021484375 0.616455078125
10067221875.0 -0.4420166015625 1.09674072265625
10098443750.0 0.369384765625 1.18060302734375
10129665625.0 1.00201416015625 0.64349365234375
10160887500.0 1.11895751953125 -0.05126953125
10192109375.0 0.917388916015625 -0.66131591796875
10223331250.0 0.36187744140625 -1.15228271484375
10254553125.0 -0.48431396484375 -1.113037109375
10285775000.0 -0.9844970703125 -0.53582763671875
10316996875.0 -1.06658935546875 0.07568359375
10348218750.0 -0.8995361328125 0.6690673828125
10379440625.0 -0.3221435546875 1.1756591796875
10410662500.0 0.526611328125 1.086181640625
10441884375.0 0.992462158203125 0.52239990234375
10473106250.0 1.10882568359375 -0.08380126953125
10504328125.0 0.949676513671875 -0.75482177734375
10535550000.0 0.239013671875 -1.2947998046875
10566771875.0 -0.656005859375 -1.07720947265625
10597993750.0 -1.0804443359375 -0.4591064453125
10629215625.0 -1.17584228515625 0.20562744140625
10660437500.0 -0.887786865234375 0.950469970703125
10691659375.0 -0.0106201171875 1.33538818359375
10722881250.0 0.78363037109375 0.95233154296875
10754103125.0 1.11798095703125 0.32525634765625
10785325000.0 1.13922119140625 -0.36553955078125
10816546875.0 0.70123291015625 -1.04827880859375
10847768750.0 -0.1444091796875 -1.22869873046875
10878990625.0 -0.803009033203125 -0.843841552734375
10910212500.0 -1.121337890625 -0.24468994140625
10941434375.0 -1.0966796875 0.47503662109375
10972656250.0 -0.5693359375 1.08392333984375
11003878125.0 0.2161865234375 1.17352294921875
11035100000.0 0.8475341796875 0.821929931640625
11066321875.0 1.2205810546875 0.174560546875
11097543750.0 1.09796142578125 -0.6744384765625
11128765625.0 0.386962890625 -1.19659423828125
11159987500.0 -0.3955078125 -1.1390380859375
11191209375.0 -0.99896240234375 -0.70208740234375
11222431250.0 -1.27197265625 0.094970703125
11253653125.0 -0.859130859375 0.8927001953125
11284875000.0 -0.11456298828125 1.12493896484375
11316096875.0 0.510345458984375 0.95611572265625
11347318750.0 1.00335693359375 0.501953125
11378540625.0 1.11669921875 -0.26824951171875
11409762500.0 0.634674072265625 -0.85797119140625
11440984375.0 0.03717041015625 -0.978057861328125
11472206250.0 -0.480499267578125 -0.850921630859375
11503428125.0 -0.9520263671875 -0.45660400390625
11534650000.0 -1.06927490234375 0.2886962890625
11565871875.0 -0.602020263671875 0.854705810546875
11597093750.0 -0.019683837890625 0.990570068359375
11628315625.0 0.54412841796875 0.875579833984375
11659537500.0 1.05999755859375 0.392822265625
11690759375.0 1.06488037109375 -0.4329833984375
11721981250.0 0.51788330078125 -0.9376220703125
11753203125.0 -0.10528564453125 -1.0367431640625
11784425000.0 -0.724639892578125 -0.809051513671875
11815646875.0 -1.099609375 -0.15155029296875
11846868750.0 -0.890838623046875 0.551239013671875
11878090625.0 -0.391571044921875 0.90966796875
11909312500.0 0.184661865234375 0.983673095703125
11940534375.0 0.779510498046875 0.694610595703125
11971756250.0 1.02423095703125 0.040283203125
12002978125.0 0.806732177734375 -0.536407470703125
12034200000.0 0.38299560546875 -0.887939453125
12065421875.0 -0.2159423828125 -1.01031494140625
12096643750.0 -0.848114013671875 -0.6651611328125
12127865625.0 -1.0333251953125 0.01593017578125
12159087500.0 -0.815185546875 0.5751953125
12190309375.0 -0.3773193359375 0.97564697265625
12221531250.0 0.33837890625 1.088134765625
12252753125.0 0.979248046875 0.581634521484375
12283975000.0 1.05438232421875 -0.12744140625
12315196875.0 0.800567626953125 -0.675628662109375
12346418750.0 0.2816162109375 -1.09039306640625
12377640625.0 -0.537841796875 -1.06005859375
12408862500.0 -1.0338134765625 -0.41986083984375
12440084375.0 -1.0084228515625 0.22454833984375
12471306250.0 -0.742340087890625 0.7362060546875
12502528125.0 -0.1800537109375 1.11968994140625
12533750000.0 0.619140625 0.9931640625
12564971875.0 1.04046630859375 0.36505126953125
12596193750.0 1.02996826171875 -0.26251220703125
12627415625.0 0.749053955078125 -0.82916259765625
12658637500.0 0.0806884765625 -1.2078857421875
12689859375.0 -0.735260009765625 -0.966064453125
12721081250.0 -1.11810302734375 -0.30615234375
12752303125.0 -1.09759521484375 0.38140869140625
12783525000.0 -0.68670654296875 1.02532958984375
12814746875.0 0.1650390625 1.25030517578125
12845968750.0 0.861297607421875 0.811279296875
12877190625.0 1.11749267578125 0.1715087890625
12908412500.0 1.05633544921875 -0.499755859375
12939634375.0 0.543701171875 -1.1151123046875
12970856250.0 -0.32086181640625 -1.17620849609375
13002078125.0 -0.89422607421875 -0.692413330078125
13033300000.0 -1.10455322265625 -0.08856201171875
13064521875.0 -1.00927734375 0.59393310546875
13095743750.0 -0.41949462890625 1.1556396484375
13126965625.0 0.407470703125 1.1202392578125
13158187500.0 0.9483642578125 0.63165283203125
13189409375.0 1.148193359375 -0.02093505859375
13220631250.0 0.935699462890625 -0.746826171875
13251853125.0 0.23431396484375 -1.17169189453125
13283075000.0 -0.50567626953125 -1.01910400390625
13314296875.0 -0.986419677734375 -0.528900146484375
13345518750.0 -1.13372802734375 0.17608642578125
