!Created with skrf (http://scikit-rf.org).
# Hz S RI R 50.0 
!freq ReS11 ImS11
45000000.0 -0.0767974853515625 -0.097137451171875
76221875.0 -0.19698333740234375 -0.0480194091796875
107443750.0 -0.25604248046875 0.1195526123046875
138665625.0 -0.1492919921875 0.329193115234375
169887500.0 0.1229705810546875 0.4189605712890625
201109375.0 0.422393798828125 0.282745361328125
232331250.0 0.5806884765625 -0.05657958984375
263553125.0 0.4918975830078125 -0.4531707763671875
294775000.0 0.1002197265625 -0.734588623046875
325996875.0 -0.41546630859375 -0.683807373046875
357218750.0 -0.8087158203125 -0.2999267578125
388440625.0 -0.88958740234375 0.299652099609375
419662500.0 -0.520782470703125 0.867828369140625
450884375.0 0.17132568359375 1.03240966796875
482106250.0 0.799560546875 0.71685791015625
513328125.0 1.12261962890625 0.089599609375
544550000.0 1.0079345703125 -0.67987060546875
575771875.0 0.33978271484375 -1.240478515625
606993750.0 -0.55267333984375 -1.18170166015625
638215625.0 -1.167724609375 -0.5943603515625
669437500.0 -1.34375 0.23126220703125
700659375.0 -0.9755859375 1.09716796875
731881250.0 -0.0074462890625 1.54681396484375
763103125.0 1.00555419921875 1.161376953125
794325000.0 1.47210693359375 0.28564453125
825546875.0 1.3721923828125 -0.6502685546875
856768750.0 0.79974365234375 -1.40374755859375
887990625.0 -0.2904052734375 -1.65362548828125
919212500.0 -1.290283203125 -1.084716796875
950434375.0 -1.654052734375 -0.06268310546875
981656250.0 -1.38934326171875 0.94598388671875
1012878125.0 -0.53472900390625 1.67657470703125
1044100000.0 0.696533203125 1.66912841796875
1075321875.0 1.57891845703125 0.818115234375
1106543750.0 1.711181640625 -0.31072998046875
1137765625.0 1.193115234375 -1.2855224609375
1168987500.0 0.14276123046875 -1.80267333984375
1200209375.0 -1.06231689453125 -1.49078369140625
1231431250.0 -1.73211669921875 -0.45849609375
1262653125.0 -1.60028076171875 0.68414306640625
1293875000.0 -0.8575439453125 1.494140625
1325096875.0 0.22515869140625 1.71282958984375
1356318750.0 1.236328125 1.2230224609375
1387540625.0 1.744384765625 0.193359375
1418762500.0 1.4755859375 -0.95159912109375
1449984375.0 0.5345458984375 -1.6300048828125
1481206250.0 -0.5482177734375 -1.5618896484375
1512428125.0 -1.3441162109375 -0.92462158203125
1543650000.0 -1.66033935546875 0.06231689453125
1574871875.0 -1.27880859375 1.10955810546875
1606093750.0 -0.27667236328125 1.63507080078125
1637315625.0 0.741943359375 1.40570068359375
1668537500.0 1.3985595703125 0.70001220703125
1699759375.0 1.57818603515625 -0.275146484375
1730981250.0 1.069091796875 -1.23077392578125
1762203125.0 0.04522705078125 -1.57421875
1793425000.0 -0.8560791015625 -1.2314453125
1824646875.0 -1.39556884765625 -0.51922607421875
1855868750.0 -1.47882080078125 0.43060302734375
1887090625.0 -0.8798828125 1.2872314453125
1918312500.0 0.11480712890625 1.4910888671875
1949534375.0 0.9217529296875 1.09356689453125
1980756250.0 1.37835693359375 0.3731689453125
2011978125.0 1.3642578125 -0.5306396484375
2043200000.0 0.75408935546875 -1.26361083984375
2074421875.0 -0.15484619140625 -1.4373779296875
2105643750.0 -0.9608154296875 -1.0770263671875
2136865625.0 -1.4505615234375 -0.30816650390625
2168087500.0 -1.36163330078125 0.670166015625
2199309375.0 -0.642822265625 1.3538818359375
2230531250.0 0.28033447265625 1.44024658203125
2261753125.0 1.073486328125 1.0181884765625
2292975000.0 1.517822265625 0.1734619140625
2324196875.0 1.30987548828125 -0.8184814453125
2355418750.0 0.52880859375 -1.422607421875
2386640625.0 -0.4029541015625 -1.45306396484375
2417862500.0 -1.18280029296875 -1.02911376953125
2449084375.0 -1.60955810546875 -0.08642578125
2480306250.0 -1.31640625 0.92572021484375
2511528125.0 -0.49798583984375 1.5113525390625
2542750000.0 0.48828125 1.5423583984375
2573971875.0 1.37335205078125 0.97296142578125
2605193750.0 1.7220458984375 -0.1099853515625
2636415625.0 1.2666015625 -1.15313720703125
2667637500.0 0.30914306640625 -1.6717529296875
2698859375.0 -0.7694091796875 -1.5394287109375
2730081250.0 -1.57745361328125 -0.7451171875
2761303125.0 -1.687744140625 0.3878173828125
2792525000.0 -1.10504150390625 1.3095703125
2823746875.0 -0.10498046875 1.735107421875
2854968750.0 1.0120849609375 1.46136474609375
2886190625.0 1.696044921875 0.496337890625
2917412500.0 1.6065673828125 -0.61767578125
2948634375.0 0.9444580078125 -1.4345703125
2979856250.0 -0.10601806640625 -1.7816162109375
3011078125.0 -1.25 -1.347900390625
3042300000.0 -1.78021240234375 -0.23785400390625
3073521875.0 -1.51483154296875 0.838623046875
3104743750.0 -0.76763916015625 1.57330322265625
3135965625.0 0.36065673828125 1.81561279296875
3167187500.0 1.50115966796875 1.17022705078125
3198409375.0 1.821533203125 -0.07257080078125
3229631250.0 1.35455322265625 -1.08197021484375
3260853125.0 0.49407958984375 -1.67169189453125
3292075000.0 -0.6546630859375 -1.70452880859375
3323296875.0 -1.62322998046875 -0.884765625
3354518750.0 -1.73577880859375 0.32708740234375
3385740625.0 -1.16094970703125 1.23370361328125
3416962500.0 -0.23553466796875 1.68499755859375
3448184375.0 0.8599853515625 1.527099609375
3479406250.0 1.6390380859375 0.64886474609375
3510628125.0 1.64923095703125 -0.49420166015625
3541850000.0 1.00567626953125 -1.35638427734375
3573071875.0 -0.0050048828125 -1.68670654296875
3604293750.0 -1.02825927734375 -1.34222412109375
3635515625.0 -1.6314697265625 -0.4417724609375
3666737500.0 -1.5670166015625 0.645263671875
3697959375.0 -0.8292236328125 1.4796142578125
3729181250.0 0.26690673828125 1.63568115234375
3760403125.0 1.15472412109375 1.10284423828125
3791625000.0 1.55584716796875 0.2218017578125
3822846875.0 1.4073486328125 -0.76123046875
3854068750.0 0.62445068359375 -1.484130859375
3885290625.0 -0.419921875 -1.48529052734375
3916512500.0 -1.14459228515625 -0.91534423828125
3947734375.0 -1.45068359375 -0.12237548828125
3978956250.0 -1.3028564453125 0.78094482421875
4010178125.0 -0.53485107421875 1.4580078125
4041400000.0 0.4737548828125 1.4197998046875
4072621875.0 1.15380859375 0.8507080078125
4103843750.0 1.4488525390625 0.0648193359375
4135065625.0 1.2723388671875 -0.84527587890625
4166287500.0 0.460693359375 -1.49884033203125
4197509375.0 -0.5570068359375 -1.41888427734375
4228731250.0 -1.24993896484375 -0.80609130859375
4259953125.0 -1.512939453125 0.069091796875
4291175000.0 -1.19287109375 1.0113525390625
4322396875.0 -0.292236328125 1.52947998046875
4353618750.0 0.67376708984375 1.3543701171875
4384840625.0 1.3253173828125 0.7003173828125
4416062500.0 1.50531005859375 -0.22674560546875
4447284375.0 1.05938720703125 -1.10595703125
4478506250.0 0.17535400390625 -1.4981689453125
4509728125.0 -0.732666015625 -1.31146240234375
4540950000.0 -1.39617919921875 -0.63922119140625
4572171875.0 -1.52716064453125 0.35992431640625
4603393750.0 -0.97613525390625 1.21337890625
4634615625.0 -0.062744140625 1.5400390625
4665837500.0 0.8707275390625 1.30828857421875
4697059375.0 1.5438232421875 0.5184326171875
4728281250.0 1.53338623046875 -0.58245849609375
4759503125.0 0.826416015625 -1.36944580078125
4790725000.0 -0.14337158203125 -1.57611083984375
4821946875.0 -1.0848388671875 -1.1986083984375
4853168750.0 -1.61749267578125 -0.2542724609375
4884390625.0 -1.382568359375 0.79345703125
4915612500.0 -0.61639404296875 1.4151611328125
4946834375.0 0.3272705078125 1.513427734375
4978056250.0 1.20721435546875 1.02130126953125
5009278125.0 1.5650634765625 0.04132080078125
5040500000.0 1.23284912109375 -0.8763427734375
5071721875.0 0.50396728515625 -1.41766357421875
5102943750.0 -0.4476318359375 -1.50201416015625
5134165625.0 -1.33935546875 -0.90869140625
5165387500.0 -1.5718994140625 0.1444091796875
5196609375.0 -1.13970947265625 1.00970458984375
5227831250.0 -0.36041259765625 1.50921630859375
5259053125.0 0.6888427734375 1.49676513671875
5290275000.0 1.525634765625 0.66558837890625
5321496875.0 1.4957275390625 -0.43048095703125
5352718750.0 0.9239501953125 -1.1544189453125
5383940625.0 0.09893798828125 -1.50396728515625
5415162500.0 -0.900634765625 -1.28875732421875
5446384375.0 -1.48779296875 -0.3726806640625
5477606250.0 -1.30303955078125 0.56591796875
5508828125.0 -0.734130859375 1.153564453125
5540050000.0 0.0533447265625 1.403076171875
5571271875.0 0.94073486328125 1.11297607421875
5602493750.0 1.411865234375 0.261474609375
5633715625.0 1.2359619140625 -0.61279296875
5664937500.0 0.65081787109375 -1.2047119140625
5696159375.0 -0.197265625 -1.38787841796875
5727381250.0 -1.02520751953125 -0.9814453125
5758603125.0 -1.394775390625 -0.14654541015625
5789825000.0 -1.19769287109375 0.71826171875
5821046875.0 -0.5081787109375 1.310302734375
5852268750.0 0.412109375 1.31658935546875
5883490625.0 1.07281494140625 0.77435302734375
5914712500.0 1.30584716796875 0.02093505859375
5945934375.0 1.1002197265625 -0.77685546875
5977156250.0 0.36248779296875 -1.3157958984375
6008378125.0 -0.510009765625 -1.18560791015625
6039600000.0 -1.02386474609375 -0.6517333984375
6070821875.0 -1.22735595703125 -0.00518798828125
6102043750.0 -1.087158203125 0.76385498046875
6133265625.0 -0.3438720703125 1.3475341796875
6164487500.0 0.5643310546875 1.19061279296875
6195709375.0 1.0731201171875 0.63201904296875
6226931250.0 1.2835693359375 -0.04254150390625
6258153125.0 1.1080322265625 -0.87396240234375
6289375000.0 0.2568359375 -1.45025634765625
6320596875.0 -0.6910400390625 -1.2086181640625
6351818750.0 -1.2027587890625 -0.5738525390625
6383040625.0 -1.35833740234375 0.20709228515625
6414262500.0 -1.002685546875 1.058349609375
6445484375.0 -0.07958984375 1.4593505859375
6476706250.0 0.79754638671875 1.15142822265625
6507928125.0 1.2935791015625 0.4716796875
6539150000.0 1.351318359375 -0.386962890625
6570371875.0 0.8438720703125 -1.147705078125
6601593750.0 -0.0169677734375 -1.4090576171875
6632815625.0 -0.84130859375 -1.13995361328125
6664037500.0 -1.40521240234375 -0.4217529296875
6695259375.0 -1.37762451171875 0.56744384765625
6726481250.0 -0.71240234375 1.2540283203125
6757703125.0 0.13055419921875 1.4105224609375
6788925000.0 0.95672607421875 1.13409423828125
6820146875.0 1.5640869140625 0.28912353515625
6851368750.0 1.32965087890625 -0.82196044921875
6882590625.0 0.5081787109375 -1.3419189453125
6913812500.0 -0.2921142578125 -1.360107421875
6945034375.0 -1.07244873046875 -1.02490234375
6976256250.0 -1.596923828125 -0.0933837890625
7007478125.0 -1.24169921875 0.93695068359375
7038700000.0 -0.404052734375 1.34527587890625
7069921875.0 0.359375 1.328857421875
7101143750.0 1.11956787109375 0.9725341796875
7132365625.0 1.60528564453125 0.0150146484375
7163587500.0 1.16180419921875 -1.0228271484375
7194809375.0 0.30352783203125 -1.4010009765625
7226031250.0 -0.51141357421875 -1.3294677734375
7257253125.0 -1.2703857421875 -0.8271484375
7288475000.0 -1.5631103515625 0.19805908203125
7319696875.0 -1.034423828125 1.1148681640625
7350918750.0 -0.16455078125 1.44964599609375
7382140625.0 0.716064453125 1.28021240234375
7413362500.0 1.37872314453125 0.57904052734375
7444584375.0 1.4163818359375 -0.40802001953125
7475806250.0 0.86102294921875 -1.14508056640625
7507028125.0 0.005859375 -1.43426513671875
7538250000.0 -0.8902587890625 -1.12799072265625
7569471875.0 -1.340576171875 -0.31201171875
7600693750.0 -1.20550537109375 0.497802734375
7631915625.0 -0.72003173828125 1.08935546875
7663137500.0 0.0802001953125 1.3621826171875
7694359375.0 0.94195556640625 0.9840087890625
7725581250.0 1.24957275390625 0.18096923828125
7756803125.0 1.08648681640625 -0.50030517578125
7788025000.0 0.6728515625 -1.0458984375
7819246875.0 -0.12274169921875 -1.35443115234375
7850468750.0 -0.997894287109375 -0.919097900390625
7881690625.0 -1.2373046875 -0.1048583984375
7912912500.0 -1.0579833984375 0.556640625
7944134375.0 -0.607421875 1.1177978515625
7975356250.0 0.27410888671875 1.34002685546875
8006578125.0 1.0506591796875 0.78106689453125
8037800000.0 1.19580078125 0.01776123046875
8069021875.0 1.00946044921875 -0.618408203125
8100243750.0 0.50115966796875 -1.1661376953125
8131465625.0 -0.390625 -1.25885009765625
8162687500.0 -1.03515625 -0.68890380859375
8193909375.0 -1.184326171875 0.0084228515625
8225131250.0 -1.0216064453125 0.67962646484375
8256353125.0 -0.42388916015625 1.2532958984375
8287575000.0 0.502197265625 1.22955322265625
8318796875.0 1.085693359375 0.6365966796875
8350018750.0 1.24853515625 -0.07574462890625
8381240625.0 1.034912109375 -0.84307861328125
8412462500.0 0.25445556640625 -1.3795166015625
8443684375.0 -0.67205810546875 -1.1732177734375
8474906250.0 -1.177490234375 -0.53369140625
8506128125.0 -1.3013916015625 0.23712158203125
8537350000.0 -0.927001953125 1.049072265625
8568571875.0 -0.01519775390625 1.39947509765625
8599793750.0 0.80487060546875 1.05682373046875
8631015625.0 1.24542236328125 0.3994140625
8662237500.0 1.28857421875 -0.4290771484375
8693459375.0 0.73919677734375 -1.18292236328125
8724681250.0 -0.1622314453125 -1.3348388671875
8755903125.0 -0.88238525390625 -0.961669921875
8787125000.0 -1.3074951171875 -0.28436279296875
8818346875.0 -1.255615234375 0.6168212890625
8849568750.0 -0.5576171875 1.26513671875
8880790625.0 0.29815673828125 1.28857421875
8912012500.0 0.985260009765625 0.8961181640625
8943234375.0 1.4041748046875 0.1285400390625
8974456250.0 1.169921875 -0.841552734375
9005678125.0 0.34844970703125 -1.3182373046875
9036900000.0 -0.447265625 -1.22857666015625
9068121875.0 -1.1041259765625 -0.7886962890625
9099343750.0 -1.4449462890625 0.09832763671875
9130565625.0 -0.98175048828125 1.0133056640625
9161787500.0 -0.155029296875 1.28594970703125
9193009375.0 0.5546875 1.13665771484375
9224231250.0 1.18304443359375 0.65740966796875
9255453125.0 1.40362548828125 -0.29608154296875
9286675000.0 0.8092041015625 -1.08795166015625
9317896875.0 0.0269775390625 -1.2510986328125
9349118750.0 -0.6573486328125 -1.07391357421875
9380340625.0 -1.2607421875 -0.51171875
9411562500.0 -1.3162841796875 0.47821044921875
9442784375.0 -0.64990234375 1.1214599609375
9474006250.0 0.089111328125 1.21539306640625
9505228125.0 0.7691650390625 0.98309326171875
9536450000.0 1.2783203125 0.31396484375
9567671875.0 1.147216796875 -0.584228515625
9598893750.0 0.5311279296875 -1.07183837890625
9630115625.0 -0.14373779296875 -1.16156005859375
9661337500.0 -0.821258544921875 -0.90496826171875
9692559375.0 -1.2412109375 -0.1915283203125
9723781250.0 -1.046875 0.6058349609375
9755003125.0 -0.4886474609375 1.05303955078125
9786225000.0 0.19964599609375 1.1632080078125
9817446875.0 0.89892578125 0.8306884765625
9848668750.0 1.2015380859375 0.0770263671875
9879890625.0 0.971893310546875 -0.619232177734375
9911112500.0 0.4542236328125 -1.056396484375
9942334375.0 -0.26922607421875 -1.16357421875
9973556250.0 -0.94683837890625 -0.739837646484375
10004778125.0 -1.1510009765625 -0.01513671875
10036000000.0 -0.9468994140625 0.617889404296875
10067221875.0 -0.4432373046875 1.101318359375
10098443750.0 0.37335205078125 1.18450927734375
10129665625.0 1.0072021484375 0.6431884765625
10160887500.0 1.12384033203125 -0.0543212890625
10192109375.0 0.919769287109375 -0.66473388671875
10223331250.0 0.36065673828125 -1.1546630859375
10254553125.0 -0.4886474609375 -1.11663818359375
10285775000.0 -0.988189697265625 -0.53668212890625
10316996875.0 -1.06976318359375 0.07574462890625
10348218750.0 -0.902740478515625 0.671356201171875
10379440625.0 -0.322998046875 1.1795654296875
10410662500.0 0.5294189453125 1.0880126953125
10441884375.0 0.9959716796875 0.523590087890625
10473106250.0 1.11273193359375 -0.08489990234375
10504328125.0 0.9521484375 -0.76190185546875
10535550000.0 0.23968505859375 -1.2999267578125
10566771875.0 -0.66021728515625 -1.078857421875
10597993750.0 -1.0849609375 -0.46002197265625
10629215625.0 -1.17864990234375 0.20660400390625
10660437500.0 -0.89117431640625 0.95574951171875
10691659375.0 -0.00665283203125 1.34051513671875
10722881250.0 0.78814697265625 0.95361328125
10754103125.0 1.1226806640625 0.32501220703125
10785325000.0 1.142333984375 -0.36871337890625
10816546875.0 0.70318603515625 -1.051513671875
10847768750.0 -0.14703369140625 -1.23358154296875
10878990625.0 -0.8050537109375 -0.845703125
10910212500.0 -1.125 -0.2462158203125
10941434375.0 -1.10076904296875 0.47882080078125
10972656250.0 -0.569580078125 1.08831787109375
11003878125.0 0.21905517578125 1.17803955078125
11035100000.0 0.852752685546875 0.824462890625
11066321875.0 1.2257080078125 0.17352294921875
11097543750.0 1.1021728515625 -0.679931640625
11128765625.0 0.38604736328125 -1.203125
11159987500.0 -0.39813232421875 -1.14373779296875
11191209375.0 -1.00213623046875 -0.703857421875
11222431250.0 -1.2760009765625 0.09368896484375
11253653125.0 -0.860687255859375 0.8974609375
11284875000.0 -0.1141357421875 1.1297607421875
11316096875.0 0.512420654296875 0.9586181640625
11347318750.0 1.00518798828125 0.50341796875
11378540625.0 1.11865234375 -0.2701416015625
11409762500.0 0.63623046875 -0.861907958984375
11440984375.0 0.035491943359375 -0.98211669921875
11472206250.0 -0.48297119140625 -0.85357666015625
11503428125.0 -0.9561767578125 -0.457305908203125
11534650000.0 -1.0712890625 0.28912353515625
11565871875.0 -0.603546142578125 0.856597900390625
11597093750.0 -0.0181884765625 0.99505615234375
11628315625.0 0.547637939453125 0.878265380859375
11659537500.0 1.06512451171875 0.39263916015625
11690759375.0 1.06805419921875 -0.43701171875
11721981250.0 0.517913818359375 -0.9437255859375
11753203125.0 -0.10595703125 -1.03955078125
11784425000.0 -0.726531982421875 -0.81097412109375
11815646875.0 -1.1036376953125 -0.15069580078125
11846868750.0 -0.893035888671875 0.55322265625
11878090625.0 -0.39093017578125 0.913055419921875
11909312500.0 0.188323974609375 0.988037109375
11940534375.0 0.783233642578125 0.69677734375
11971756250.0 1.02880859375 0.0380859375
12002978125.0 0.808624267578125 -0.540374755859375
12034200000.0 0.3814697265625 -0.892822265625
12065421875.0 -0.21728515625 -1.01361083984375
12096643750.0 -0.851104736328125 -0.66656494140625
12127865625.0 -1.036865234375 0.0185546875
12159087500.0 -0.817626953125 0.57781982421875
12190309375.0 -0.3782958984375 0.97796630859375
12221531250.0 0.34075927734375 1.09002685546875
12252753125.0 0.9832763671875 0.58197021484375
12283975000.0 1.05792236328125 -0.13006591796875
12315196875.0 0.8031005859375 -0.6795654296875
12346418750.0 0.28125 -1.095458984375
12377640625.0 -0.541015625 -1.0628662109375
12408862500.0 -1.03765869140625 -0.418701171875
12440084375.0 -1.01104736328125 0.22650146484375
12471306250.0 -0.743988037109375 0.74005126953125
12502528125.0 -0.17926025390625 1.1240234375
12533750000.0 0.624237060546875 0.9969482421875
12564971875.0 1.04534912109375 0.36474609375
12596193750.0 1.03216552734375 -0.26519775390625
12627415625.0 0.75018310546875 -0.831512451171875
12658637500.0 0.07763671875 -1.2127685546875
12689859375.0 -0.739593505859375 -0.968719482421875
12721081250.0 -1.120361328125 -0.306396484375
12752303125.0 -1.101806640625 0.38580322265625
12783525000.0 -0.68878173828125 1.03173828125
12814746875.0 0.166748046875 1.25390625
12845968750.0 0.8668212890625 0.812774658203125
12877190625.0 1.12384033203125 0.17108154296875
12908412500.0 1.058349609375 -0.50341796875
12939634375.0 0.54296875 -1.12176513671875
12970856250.0 -0.3231201171875 -1.17694091796875
13002078125.0 -0.896331787109375 -0.694610595703125
13033300000.0 -1.109619140625 -0.087158203125
13064521875.0 -1.01202392578125 0.5958251953125
13095743750.0 -0.419677734375 1.16046142578125
13126965625.0 0.413330078125 1.12408447265625
13158187500.0 0.950347900390625 0.632904052734375
13189409375.0 1.15191650390625 -0.0216064453125
13220631250.0 0.938995361328125 -0.754302978515625
13251853125.0 0.23309326171875 -1.17657470703125
13283075000.0 -0.5103759765625 -1.02166748046875
13314296875.0 -0.9935302734375 -0.528717041015625
13345518750.0 -1.13934326171875 0.18023681640625
13376740625.0 -0.753875732421875 0.86212158203125
13407962500.0 -0.05908203125 1.068603515625
13439184375.0 0.52923583984375 0.87396240234375
