!Created with skrf (http://scikit-rf.org).
# Hz S RI R 50.0 
!freq ReS11 ImS11
45000000.0 -0.07666778564453125 -0.09712600708007812
76221875.0 -0.19678497314453125 -0.048095703125
107443750.0 -0.2558135986328125 0.1194305419921875
138665625.0 -0.14935302734375 0.329193115234375
169887500.0 0.1226959228515625 0.4186553955078125
201109375.0 0.422119140625 0.2827606201171875
232331250.0 0.580413818359375 -0.056060791015625
263553125.0 0.4916839599609375 -0.452667236328125
294775000.0 0.10052490234375 -0.733917236328125
325996875.0 -0.414794921875 -0.68341064453125
357218750.0 -0.807891845703125 -0.299835205078125
388440625.0 -0.888916015625 0.299285888671875
419662500.0 -0.520477294921875 0.86737060546875
450884375.0 0.17083740234375 1.0318603515625
482106250.0 0.7987060546875 0.71649169921875
513328125.0 1.121826171875 0.09002685546875
544550000.0 1.00750732421875 -0.6788330078125
575771875.0 0.3402099609375 -1.2398681640625
606993750.0 -0.5517578125 -1.18115234375
638215625.0 -1.16693115234375 -0.5947265625
669437500.0 -1.3431396484375 0.231201171875
700659375.0 -0.9755859375 1.095947265625
731881250.0 -0.0078125 1.546142578125
763103125.0 1.00494384765625 1.16082763671875
794325000.0 1.47149658203125 0.28594970703125
825546875.0 1.37176513671875 -0.649658203125
856768750.0 0.799560546875 -1.40240478515625
887990625.0 -0.28924560546875 -1.6527099609375
919212500.0 -1.2890625 -1.08447265625
950434375.0 -1.6529541015625 -0.06298828125
981656250.0 -1.388427734375 0.9456787109375
1012878125.0 -0.53448486328125 1.67486572265625
1044100000.0 0.6951904296875 1.66827392578125
1075321875.0 1.57720947265625 0.81781005859375
1106543750.0 1.71014404296875 -0.31011962890625
1137765625.0 1.19287109375 -1.28460693359375
1168987500.0 0.14276123046875 -1.8017578125
1200209375.0 -1.0614013671875 -1.4903564453125
1231431250.0 -1.7308349609375 -0.45794677734375
1262653125.0 -1.59918212890625 0.68292236328125
1293875000.0 -0.85760498046875 1.49298095703125
1325096875.0 0.22430419921875 1.711669921875
1356318750.0 1.23541259765625 1.22247314453125
1387540625.0 1.74407958984375 0.19293212890625
1418762500.0 1.47491455078125 -0.95013427734375
1449984375.0 0.53448486328125 -1.62823486328125
1481206250.0 -0.5477294921875 -1.5609130859375
1512428125.0 -1.34307861328125 -0.924560546875
1543650000.0 -1.659423828125 0.062744140625
1574871875.0 -1.278564453125 1.108642578125
1606093750.0 -0.27655029296875 1.635009765625
1637315625.0 0.74114990234375 1.40521240234375
1668537500.0 1.397705078125 0.7003173828125
1699759375.0 1.57745361328125 -0.274658203125
1730981250.0 1.0692138671875 -1.22998046875
1762203125.0 0.04534912109375 -1.57421875
1793425000.0 -0.855224609375 -1.23095703125
1824646875.0 -1.3953857421875 -0.51873779296875
1855868750.0 -1.47821044921875 0.43017578125
1887090625.0 -0.8797607421875 1.28662109375
1918312500.0 0.11456298828125 1.49029541015625
1949534375.0 0.92132568359375 1.0933837890625
1980756250.0 1.3778076171875 0.3734130859375
2011978125.0 1.36358642578125 -0.53021240234375
2043200000.0 0.75408935546875 -1.26239013671875
2074421875.0 -0.15472412109375 -1.43658447265625
2105643750.0 -0.96002197265625 -1.076416015625
2136865625.0 -1.44940185546875 -0.3087158203125
2168087500.0 -1.361328125 0.669677734375
2199309375.0 -0.64276123046875 1.3533935546875
2230531250.0 0.2796630859375 1.43963623046875
2261753125.0 1.07342529296875 1.0174560546875
2292975000.0 1.517333984375 0.17315673828125
2324196875.0 1.30950927734375 -0.81842041015625
2355418750.0 0.5289306640625 -1.42193603515625
2386640625.0 -0.40283203125 -1.45220947265625
2417862500.0 -1.18212890625 -1.0281982421875
2449084375.0 -1.6090087890625 -0.08587646484375
2480306250.0 -1.3154296875 0.92437744140625
2511528125.0 -0.49737548828125 1.5106201171875
2542750000.0 0.4879150390625 1.5411376953125
2573971875.0 1.37255859375 0.97222900390625
2605193750.0 1.72088623046875 -0.1090087890625
2636415625.0 1.26593017578125 -1.15264892578125
2667637500.0 0.31011962890625 -1.66943359375
2698859375.0 -0.76959228515625 -1.5399169921875
2730081250.0 -1.5758056640625 -0.74530029296875
2761303125.0 -1.68560791015625 0.3853759765625
2792525000.0 -1.10394287109375 1.3087158203125
2823746875.0 -0.1046142578125 1.7342529296875
2854968750.0 1.01220703125 1.46112060546875
2886190625.0 1.69464111328125 0.49603271484375
2917412500.0 1.6046142578125 -0.61663818359375
2948634375.0 0.944091796875 -1.4354248046875
2979856250.0 -0.10498046875 -1.78033447265625
3011078125.0 -1.2476806640625 -1.34722900390625
3042300000.0 -1.77880859375 -0.23748779296875
3073521875.0 -1.51397705078125 0.83807373046875
3104743750.0 -0.7674560546875 1.57073974609375
3135965625.0 0.359130859375 1.81353759765625
3167187500.0 1.50079345703125 1.16961669921875
3198409375.0 1.81988525390625 -0.0716552734375
3229631250.0 1.3538818359375 -1.08148193359375
3260853125.0 0.49237060546875 -1.67291259765625
3292075000.0 -0.65435791015625 -1.70361328125
3323296875.0 -1.62213134765625 -0.884033203125
3354518750.0 -1.7353515625 0.3267822265625
3385740625.0 -1.160400390625 1.2335205078125
3416962500.0 -0.2342529296875 1.68505859375
3448184375.0 0.86053466796875 1.5263671875
3479406250.0 1.63763427734375 0.64892578125
3510628125.0 1.64886474609375 -0.4945068359375
3541850000.0 1.004150390625 -1.356201171875
3573071875.0 -0.00543212890625 -1.686279296875
3604293750.0 -1.02923583984375 -1.34161376953125
3635515625.0 -1.63031005859375 -0.442138671875
3666737500.0 -1.56597900390625 0.6453857421875
3697959375.0 -0.8282470703125 1.4794921875
3729181250.0 0.26605224609375 1.63446044921875
3760403125.0 1.153564453125 1.1026611328125
3791625000.0 1.55572509765625 0.22113037109375
3822846875.0 1.40625 -0.7606201171875
3854068750.0 0.62420654296875 -1.48388671875
3885290625.0 -0.41949462890625 -1.48541259765625
3916512500.0 -1.14361572265625 -0.91461181640625
3947734375.0 -1.45123291015625 -0.121826171875
3978956250.0 -1.30145263671875 0.779296875
4010178125.0 -0.53399658203125 1.4581298828125
4041400000.0 0.473388671875 1.4188232421875
4072621875.0 1.15289306640625 0.85052490234375
4103843750.0 1.44781494140625 0.0648193359375
4135065625.0 1.27105712890625 -0.84552001953125
4166287500.0 0.46063232421875 -1.4976806640625
4197509375.0 -0.558349609375 -1.41845703125
4228731250.0 -1.249755859375 -0.80523681640625
4259953125.0 -1.51123046875 0.068359375
4291175000.0 -1.1917724609375 1.010986328125
4322396875.0 -0.292236328125 1.52783203125
4353618750.0 0.67315673828125 1.35357666015625
4384840625.0 1.32421875 0.7005615234375
4416062500.0 1.50506591796875 -0.22698974609375
4447284375.0 1.05877685546875 -1.10546875
4478506250.0 0.174072265625 -1.4989013671875
4509728125.0 -0.73272705078125 -1.3111572265625
4540950000.0 -1.3955078125 -0.63848876953125
4572171875.0 -1.52593994140625 0.359375
4603393750.0 -0.97509765625 1.21466064453125
4634615625.0 -0.06231689453125 1.5401611328125
4665837500.0 0.8707275390625 1.30780029296875
4697059375.0 1.5443115234375 0.51763916015625
4728281250.0 1.5318603515625 -0.58154296875
4759503125.0 0.825927734375 -1.36932373046875
4790725000.0 -0.14324951171875 -1.5745849609375
4821946875.0 -1.08294677734375 -1.1976318359375
4853168750.0 -1.616455078125 -0.25286865234375
4884390625.0 -1.38165283203125 0.793701171875
4915612500.0 -0.61602783203125 1.414306640625
4946834375.0 0.32733154296875 1.51287841796875
4978056250.0 1.2080078125 1.0205078125
5009278125.0 1.5645751953125 0.04156494140625
5040500000.0 1.2327880859375 -0.87689208984375
5071721875.0 0.504150390625 -1.41693115234375
5102943750.0 -0.4453125 -1.49981689453125
5134165625.0 -1.3397216796875 -0.90814208984375
5165387500.0 -1.57086181640625 0.14532470703125
5196609375.0 -1.13885498046875 1.01055908203125
5227831250.0 -0.35882568359375 1.50927734375
5259053125.0 0.68804931640625 1.4959716796875
5290275000.0 1.5252685546875 0.66497802734375
5321496875.0 1.495361328125 -0.4305419921875
5352718750.0 0.92364501953125 -1.15435791015625
5383940625.0 0.0987548828125 -1.50225830078125
5415162500.0 -0.901123046875 -1.28729248046875
5446384375.0 -1.48779296875 -0.37213134765625
5477606250.0 -1.3023681640625 0.566650390625
5508828125.0 -0.734130859375 1.15264892578125
5540050000.0 0.05224609375 1.40155029296875
5571271875.0 0.94036865234375 1.11212158203125
5602493750.0 1.412109375 0.26123046875
5633715625.0 1.2352294921875 -0.61334228515625
5664937500.0 0.6497802734375 -1.204345703125
5696159375.0 -0.19683837890625 -1.3870849609375
5727381250.0 -1.02374267578125 -0.98046875
5758603125.0 -1.3944091796875 -0.14508056640625
5789825000.0 -1.1971435546875 0.718505859375
5821046875.0 -0.5069580078125 1.31060791015625
5852268750.0 0.41259765625 1.3160400390625
5883490625.0 1.07275390625 0.77398681640625
5914712500.0 1.3050537109375 0.02081298828125
5945934375.0 1.0989990234375 -0.77642822265625
5977156250.0 0.3623046875 -1.3150634765625
6008378125.0 -0.5101318359375 -1.18487548828125
6039600000.0 -1.02349853515625 -0.65087890625
6070821875.0 -1.2269287109375 -0.0054931640625
6102043750.0 -1.08660888671875 0.7645263671875
6133265625.0 -0.343017578125 1.3477783203125
6164487500.0 0.564208984375 1.1900634765625
6195709375.0 1.0726318359375 0.63201904296875
6226931250.0 1.28369140625 -0.042724609375
6258153125.0 1.10687255859375 -0.8731689453125
6289375000.0 0.255615234375 -1.45001220703125
6320596875.0 -0.6915283203125 -1.20819091796875
6351818750.0 -1.20220947265625 -0.57318115234375
6383040625.0 -1.35723876953125 0.2071533203125
6414262500.0 -1.00238037109375 1.05859375
6445484375.0 -0.0777587890625 1.46044921875
6476706250.0 0.79766845703125 1.15045166015625
6507928125.0 1.2930908203125 0.47076416015625
6539150000.0 1.3504638671875 -0.3865966796875
6570371875.0 0.84375 -1.14544677734375
6601593750.0 -0.01708984375 -1.40789794921875
6632815625.0 -0.84130859375 -1.13934326171875
6664037500.0 -1.40399169921875 -0.42156982421875
6695259375.0 -1.37652587890625 0.56640625
6726481250.0 -0.71136474609375 1.25494384765625
6757703125.0 0.1297607421875 1.4093017578125
6788925000.0 0.9576416015625 1.1334228515625
6820146875.0 1.5631103515625 0.28863525390625
6851368750.0 1.3282470703125 -0.82086181640625
6882590625.0 0.50689697265625 -1.34149169921875
6913812500.0 -0.292724609375 -1.35968017578125
6945034375.0 -1.072509765625 -1.02374267578125
6976256250.0 -1.595703125 -0.0928955078125
7007478125.0 -1.2386474609375 0.93316650390625
7038700000.0 -0.40362548828125 1.34637451171875
7069921875.0 0.35986328125 1.32720947265625
7101143750.0 1.1214599609375 0.971923828125
7132365625.0 1.603759765625 0.01666259765625
7163587500.0 1.160400390625 -1.023681640625
7194809375.0 0.30279541015625 -1.4022216796875
7226031250.0 -0.51373291015625 -1.32958984375
7257253125.0 -1.26934814453125 -0.825927734375
7288475000.0 -1.56201171875 0.1998291015625
7319696875.0 -1.03216552734375 1.11138916015625
7350918750.0 -0.16387939453125 1.44891357421875
7382140625.0 0.718994140625 1.28033447265625
7413362500.0 1.3817138671875 0.57757568359375
7444584375.0 1.41558837890625 -0.40814208984375
7475806250.0 0.8603515625 -1.14508056640625
7507028125.0 0.008544921875 -1.431640625
7538250000.0 -0.89117431640625 -1.127197265625
7569471875.0 -1.33770751953125 -0.31201171875
7600693750.0 -1.2041015625 0.49810791015625
7631915625.0 -0.71978759765625 1.086669921875
7663137500.0 0.080322265625 1.36419677734375
7694359375.0 0.943084716796875 0.983856201171875
7725581250.0 1.24658203125 0.18218994140625
7756803125.0 1.08612060546875 -0.501220703125
7788025000.0 0.67266845703125 -1.0472412109375
7819246875.0 -0.12152099609375 -1.3521728515625
7850468750.0 -0.995819091796875 -0.91796875
7881690625.0 -1.234130859375 -0.10595703125
7912912500.0 -1.05755615234375 0.55487060546875
7944134375.0 -0.60662841796875 1.117431640625
7975356250.0 0.27410888671875 1.3397216796875
8006578125.0 1.0506591796875 0.78045654296875
8037800000.0 1.1971435546875 0.0157470703125
8069021875.0 1.009033203125 -0.61962890625
8100243750.0 0.500244140625 -1.1644287109375
8131465625.0 -0.39013671875 -1.2567138671875
8162687500.0 -1.03509521484375 -0.6873779296875
8193909375.0 -1.18359375 0.008544921875
8225131250.0 -1.02130126953125 0.6807861328125
8256353125.0 -0.42218017578125 1.2528076171875
8287575000.0 0.50299072265625 1.229248046875
8318796875.0 1.0877685546875 0.63702392578125
8350018750.0 1.2489013671875 -0.07720947265625
8381240625.0 1.0345458984375 -0.8426513671875
8412462500.0 0.25360107421875 -1.37762451171875
8443684375.0 -0.67242431640625 -1.17218017578125
8474906250.0 -1.1793212890625 -0.53155517578125
8506128125.0 -1.30096435546875 0.23907470703125
8537350000.0 -0.92596435546875 1.050048828125
8568571875.0 -0.01483154296875 1.3973388671875
8599793750.0 0.8031005859375 1.0552978515625
8631015625.0 1.2449951171875 0.3985595703125
8662237500.0 1.28912353515625 -0.4302978515625
8693459375.0 0.7371826171875 -1.18017578125
8724681250.0 -0.16290283203125 -1.33642578125
8755903125.0 -0.882232666015625 -0.960479736328125
8787125000.0 -1.3082275390625 -0.28302001953125
8818346875.0 -1.255615234375 0.618896484375
8849568750.0 -0.558349609375 1.2647705078125
8880790625.0 0.300048828125 1.2894287109375
8912012500.0 0.983978271484375 0.8941650390625
8943234375.0 1.4033203125 0.1280517578125
8974456250.0 1.16876220703125 -0.84326171875
9005678125.0 0.3475341796875 -1.31695556640625
9036900000.0 -0.44757080078125 -1.2275390625
9068121875.0 -1.10455322265625 -0.78643798828125
9099343750.0 -1.44549560546875 0.10107421875
9130565625.0 -0.9796142578125 1.01409912109375
9161787500.0 -0.1549072265625 1.28558349609375
9193009375.0 0.555908203125 1.1361083984375
9224231250.0 1.1837158203125 0.65716552734375
9255453125.0 1.40484619140625 -0.2979736328125
9286675000.0 0.80987548828125 -1.08892822265625
9317896875.0 0.027099609375 -1.249755859375
9349118750.0 -0.65740966796875 -1.07373046875
9380340625.0 -1.2618408203125 -0.5103759765625
9411562500.0 -1.31549072265625 0.47943115234375
9442784375.0 -0.6485595703125 1.12152099609375
9474006250.0 0.08990478515625 1.21490478515625
9505228125.0 0.76861572265625 0.983154296875
9536450000.0 1.2763671875 0.3133544921875
9567671875.0 1.14581298828125 -0.58245849609375
9598893750.0 0.52838134765625 -1.0711669921875
9630115625.0 -0.14483642578125 -1.16082763671875
9661337500.0 -0.82037353515625 -0.902130126953125
9692559375.0 -1.2435302734375 -0.18756103515625
9723781250.0 -1.0452880859375 0.60699462890625
9755003125.0 -0.4866943359375 1.0533447265625
9786225000.0 0.19927978515625 1.16241455078125
9817446875.0 0.897491455078125 0.829864501953125
9848668750.0 1.2008056640625 0.077880859375
9879890625.0 0.970123291015625 -0.61871337890625
9911112500.0 0.45306396484375 -1.05462646484375
9942334375.0 -0.2681884765625 -1.162353515625
9973556250.0 -0.946533203125 -0.7386474609375
10004778125.0 -1.1507568359375 -0.01544189453125
10036000000.0 -0.94598388671875 0.6199951171875
10067221875.0 -0.441162109375 1.10076904296875
10098443750.0 0.37249755859375 1.18353271484375
10129665625.0 1.00604248046875 0.641845703125
10160887500.0 1.12200927734375 -0.05340576171875
10192109375.0 0.918182373046875 -0.664398193359375
10223331250.0 0.35955810546875 -1.15606689453125
10254553125.0 -0.48828125 -1.115966796875
10285775000.0 -0.988311767578125 -0.534515380859375
10316996875.0 -1.06793212890625 0.07720947265625
10348218750.0 -0.901885986328125 0.671630859375
10379440625.0 -0.32171630859375 1.17828369140625
10410662500.0 0.5296630859375 1.087890625
10441884375.0 0.995513916015625 0.521881103515625
10473106250.0 1.11114501953125 -0.08416748046875
10504328125.0 0.9512939453125 -0.759735107421875
10535550000.0 0.23699951171875 -1.300537109375
10566771875.0 -0.6602783203125 -1.0782470703125
10597993750.0 -1.0831298828125 -0.457763671875
10629215625.0 -1.17816162109375 0.2069091796875
10660437500.0 -0.8883056640625 0.956939697265625
10691659375.0 -0.00714111328125 1.33984375
10722881250.0 0.788848876953125 0.9532470703125
10754103125.0 1.12200927734375 0.3243408203125
10785325000.0 1.14215087890625 -0.37054443359375
10816546875.0 0.70123291015625 -1.05255126953125
10847768750.0 -0.14697265625 -1.23297119140625
10878990625.0 -0.806060791015625 -0.84478759765625
10910212500.0 -1.1256103515625 -0.24542236328125
10941434375.0 -1.0992431640625 0.478271484375
10972656250.0 -0.568359375 1.09130859375
11003878125.0 0.21881103515625 1.17657470703125
11035100000.0 0.85137939453125 0.824371337890625
11066321875.0 1.2254638671875 0.173095703125
11097543750.0 1.10089111328125 -0.6796875
11128765625.0 0.3843994140625 -1.2041015625
11159987500.0 -0.3983154296875 -1.14141845703125
11191209375.0 -1.00518798828125 -0.7027587890625
11222431250.0 -1.27642822265625 0.09698486328125
11253653125.0 -0.859588623046875 0.8968505859375
11284875000.0 -0.112060546875 1.1302490234375
11316096875.0 0.512847900390625 0.9583740234375
11347318750.0 1.006591796875 0.50225830078125
11378540625.0 1.1209716796875 -0.272705078125
11409762500.0 0.63568115234375 -0.861663818359375
11440984375.0 0.03570556640625 -0.980194091796875
11472206250.0 -0.482421875 -0.852264404296875
11503428125.0 -0.95648193359375 -0.45574951171875
11534650000.0 -1.0709228515625 0.290771484375
11565871875.0 -0.602325439453125 0.857452392578125
11597093750.0 -0.01727294921875 0.99383544921875
11628315625.0 0.54656982421875 0.877655029296875
11659537500.0 1.0643310546875 0.3914794921875
11690759375.0 1.068359375 -0.4385986328125
11721981250.0 0.517578125 -0.942840576171875
11753203125.0 -0.1072998046875 -1.0389404296875
11784425000.0 -0.728973388671875 -0.8101806640625
11815646875.0 -1.10498046875 -0.14892578125
11846868750.0 -0.892181396484375 0.553497314453125
11878090625.0 -0.390472412109375 0.9130859375
11909312500.0 0.1888427734375 0.986968994140625
11940534375.0 0.7833251953125 0.695709228515625
11971756250.0 1.02789306640625 0.03717041015625
12002978125.0 0.807464599609375 -0.5408935546875
12034200000.0 0.381591796875 -0.891815185546875
12065421875.0 -0.21917724609375 -1.01361083984375
12096643750.0 -0.85174560546875 -0.664886474609375
12127865625.0 -1.036376953125 0.01849365234375
12159087500.0 -0.816131591796875 0.578704833984375
12190309375.0 -0.37713623046875 0.9793701171875
12221531250.0 0.34185791015625 1.09039306640625
12252753125.0 0.98358154296875 0.5811767578125
12283975000.0 1.055419921875 -0.13018798828125
12315196875.0 0.802703857421875 -0.6790771484375
12346418750.0 0.27984619140625 -1.0953369140625
12377640625.0 -0.5416259765625 -1.0615234375
12408862500.0 -1.0372314453125 -0.41796875
12440084375.0 -1.01031494140625 0.2266845703125
12471306250.0 -0.743072509765625 0.74005126953125
12502528125.0 -0.17803955078125 1.1239013671875
12533750000.0 0.624908447265625 0.995208740234375
12564971875.0 1.04229736328125 0.36297607421875
12596193750.0 1.03253173828125 -0.26837158203125
12627415625.0 0.74908447265625 -0.83184814453125
12658637500.0 0.0772705078125 -1.21258544921875
12689859375.0 -0.739959716796875 -0.96746826171875
12721081250.0 -1.11822509765625 -0.30633544921875
12752303125.0 -1.1002197265625 0.38348388671875
12783525000.0 -0.68670654296875 1.0318603515625
12814746875.0 0.1689453125 1.25372314453125
12845968750.0 0.86529541015625 0.81085205078125
12877190625.0 1.11968994140625 0.1708984375
12908412500.0 1.0584716796875 -0.505615234375
12939634375.0 0.54119873046875 -1.12420654296875
12970856250.0 -0.32464599609375 -1.17681884765625
13002078125.0 -0.89886474609375 -0.692901611328125
13033300000.0 -1.10955810546875 -0.08447265625
13064521875.0 -1.01080322265625 0.5980224609375
13095743750.0 -0.418212890625 1.1578369140625
13126965625.0 0.41339111328125 1.12286376953125
13158187500.0 0.949554443359375 0.632720947265625
13189409375.0 1.1507568359375 -0.0238037109375
13220631250.0 0.9371337890625 -0.751068115234375
13251853125.0 0.23248291015625 -1.1763916015625
13283075000.0 -0.51123046875 -1.02130126953125
13314296875.0 -0.990753173828125 -0.5291748046875
13345518750.0 -1.13861083984375 0.181396484375
13376740625.0 -0.751190185546875 0.862762451171875
13407962500.0 -0.05633544921875 1.07061767578125
