!Created with skrf (http://scikit-rf.org).
# Hz S RI R 50.0 
!freq ReS11 ImS11
45000000.0 -0.076568603515625 -0.097076416015625
76221875.0 -0.19672393798828125 -0.04808807373046875
107443750.0 -0.2558746337890625 0.1194305419921875
138665625.0 -0.14935302734375 0.3291168212890625
169887500.0 0.12255859375 0.41888427734375
201109375.0 0.42205810546875 0.2828216552734375
232331250.0 0.58050537109375 -0.056060791015625
263553125.0 0.4922027587890625 -0.45269775390625
294775000.0 0.100860595703125 -0.734344482421875
325996875.0 -0.41461181640625 -0.683990478515625
357218750.0 -0.808074951171875 -0.30035400390625
388440625.0 -0.8890380859375 0.299163818359375
419662500.0 -0.521148681640625 0.866912841796875
450884375.0 0.17047119140625 1.031982421875
482106250.0 0.79852294921875 0.717132568359375
513328125.0 1.12213134765625 0.09063720703125
544550000.0 1.00775146484375 -0.6785888671875
575771875.0 0.34051513671875 -1.2398681640625
606993750.0 -0.5513916015625 -1.1815185546875
638215625.0 -1.16680908203125 -0.59515380859375
669437500.0 -1.34344482421875 0.23065185546875
700659375.0 -0.97613525390625 1.09588623046875
731881250.0 -0.00823974609375 1.54644775390625
763103125.0 1.0042724609375 1.16131591796875
794325000.0 1.4713134765625 0.28662109375
825546875.0 1.372314453125 -0.64898681640625
856768750.0 0.80035400390625 -1.40289306640625
887990625.0 -0.28912353515625 -1.65338134765625
919212500.0 -1.288330078125 -1.08544921875
950434375.0 -1.65325927734375 -0.063232421875
981656250.0 -1.3885498046875 0.94500732421875
1012878125.0 -0.5355224609375 1.67535400390625
1044100000.0 0.69464111328125 1.66888427734375
1075321875.0 1.57781982421875 0.81829833984375
1106543750.0 1.71051025390625 -0.30963134765625
1137765625.0 1.193359375 -1.28509521484375
1168987500.0 0.14361572265625 -1.80169677734375
1200209375.0 -1.06121826171875 -1.49078369140625
1231431250.0 -1.731201171875 -0.45867919921875
1262653125.0 -1.5997314453125 0.68231201171875
1293875000.0 -0.8582763671875 1.49285888671875
1325096875.0 0.22412109375 1.71258544921875
1356318750.0 1.23504638671875 1.22369384765625
1387540625.0 1.74383544921875 0.19464111328125
1418762500.0 1.47564697265625 -0.9501953125
1449984375.0 0.5350341796875 -1.6287841796875
1481206250.0 -0.5469970703125 -1.56134033203125
1512428125.0 -1.34332275390625 -0.92523193359375
1543650000.0 -1.6600341796875 0.0616455078125
1574871875.0 -1.279052734375 1.10870361328125
1606093750.0 -0.27703857421875 1.63507080078125
1637315625.0 0.74078369140625 1.40606689453125
1668537500.0 1.3978271484375 0.70074462890625
1699759375.0 1.57720947265625 -0.27337646484375
1730981250.0 1.06964111328125 -1.229736328125
1762203125.0 0.04644775390625 -1.57373046875
1793425000.0 -0.8551025390625 -1.23150634765625
1824646875.0 -1.39544677734375 -0.51959228515625
1855868750.0 -1.478271484375 0.4293212890625
1887090625.0 -0.88018798828125 1.2862548828125
1918312500.0 0.11444091796875 1.4908447265625
1949534375.0 0.92095947265625 1.09381103515625
1980756250.0 1.37738037109375 0.37451171875
2011978125.0 1.36407470703125 -0.529296875
2043200000.0 0.75482177734375 -1.26300048828125
2074421875.0 -0.15374755859375 -1.4364013671875
2105643750.0 -0.95989990234375 -1.07684326171875
2136865625.0 -1.44964599609375 -0.30889892578125
2168087500.0 -1.36175537109375 0.66961669921875
2199309375.0 -0.64349365234375 1.3529052734375
2230531250.0 0.27947998046875 1.44000244140625
2261753125.0 1.0726318359375 1.0181884765625
2292975000.0 1.5167236328125 0.17431640625
2324196875.0 1.3101806640625 -0.81744384765625
2355418750.0 0.52947998046875 -1.421630859375
2386640625.0 -0.4019775390625 -1.452392578125
2417862500.0 -1.1822509765625 -1.02874755859375
2449084375.0 -1.60858154296875 -0.08709716796875
2480306250.0 -1.316650390625 0.92376708984375
2511528125.0 -0.4984130859375 1.50927734375
2542750000.0 0.48687744140625 1.54071044921875
2573971875.0 1.37310791015625 0.973388671875
2605193750.0 1.72119140625 -0.1080322265625
2636415625.0 1.26678466796875 -1.15179443359375
2667637500.0 0.31158447265625 -1.6695556640625
2698859375.0 -0.76861572265625 -1.53955078125
2730081250.0 -1.57666015625 -0.7452392578125
2761303125.0 -1.6865234375 0.3863525390625
2792525000.0 -1.10467529296875 1.3084716796875
2823746875.0 -0.105712890625 1.7342529296875
2854968750.0 1.0125732421875 1.46185302734375
2886190625.0 1.6961669921875 0.49591064453125
2917412500.0 1.60479736328125 -0.61492919921875
2948634375.0 0.94451904296875 -1.4349365234375
2979856250.0 -0.104736328125 -1.7802734375
3011078125.0 -1.24822998046875 -1.3477783203125
3042300000.0 -1.778076171875 -0.23919677734375
3073521875.0 -1.51397705078125 0.83642578125
3104743750.0 -0.7689208984375 1.5703125
3135965625.0 0.358642578125 1.81414794921875
3167187500.0 1.50054931640625 1.16986083984375
3198409375.0 1.8209228515625 -0.07220458984375
3229631250.0 1.354248046875 -1.0799560546875
3260853125.0 0.494140625 -1.671630859375
3292075000.0 -0.652099609375 -1.7032470703125
3323296875.0 -1.62200927734375 -0.88531494140625
3354518750.0 -1.73583984375 0.32635498046875
3385740625.0 -1.1611328125 1.2335205078125
3416962500.0 -0.23602294921875 1.68402099609375
3448184375.0 0.85943603515625 1.5267333984375
3479406250.0 1.63897705078125 0.6490478515625
3510628125.0 1.6492919921875 -0.49365234375
3541850000.0 1.005126953125 -1.356201171875
3573071875.0 -0.004150390625 -1.68609619140625
3604293750.0 -1.0283203125 -1.34259033203125
3635515625.0 -1.6312255859375 -0.442138671875
3666737500.0 -1.56640625 0.64501953125
3697959375.0 -0.82977294921875 1.47772216796875
3729181250.0 0.2655029296875 1.63525390625
3760403125.0 1.15216064453125 1.10235595703125
3791625000.0 1.55682373046875 0.22149658203125
3822846875.0 1.40673828125 -0.7591552734375
3854068750.0 0.625 -1.48236083984375
3885290625.0 -0.41998291015625 -1.48565673828125
3916512500.0 -1.14251708984375 -0.91595458984375
3947734375.0 -1.45037841796875 -0.12310791015625
3978956250.0 -1.30242919921875 0.7799072265625
4010178125.0 -0.53472900390625 1.4576416015625
4041400000.0 0.4727783203125 1.4189453125
4072621875.0 1.152587890625 0.85186767578125
4103843750.0 1.4483642578125 0.0648193359375
4135065625.0 1.271240234375 -0.8453369140625
4166287500.0 0.46112060546875 -1.49755859375
4197509375.0 -0.55615234375 -1.4183349609375
4228731250.0 -1.2481689453125 -0.8057861328125
4259953125.0 -1.51226806640625 0.068603515625
4291175000.0 -1.19195556640625 1.00897216796875
4322396875.0 -0.29254150390625 1.528564453125
4353618750.0 0.672119140625 1.354248046875
4384840625.0 1.32391357421875 0.7012939453125
4416062500.0 1.504638671875 -0.22607421875
4447284375.0 1.05914306640625 -1.10626220703125
4478506250.0 0.1756591796875 -1.497314453125
4509728125.0 -0.7320556640625 -1.31170654296875
4540950000.0 -1.3966064453125 -0.639404296875
4572171875.0 -1.5257568359375 0.358642578125
4603393750.0 -0.9755859375 1.2137451171875
4634615625.0 -0.06341552734375 1.5400390625
4665837500.0 0.8692626953125 1.30828857421875
4697059375.0 1.54315185546875 0.5186767578125
4728281250.0 1.53302001953125 -0.582275390625
4759503125.0 0.82635498046875 -1.3685302734375
4790725000.0 -0.1439208984375 -1.5760498046875
4821946875.0 -1.083740234375 -1.1982421875
4853168750.0 -1.61639404296875 -0.2545166015625
4884390625.0 -1.38262939453125 0.793701171875
4915612500.0 -0.61627197265625 1.41436767578125
4946834375.0 0.32708740234375 1.51287841796875
4978056250.0 1.2060546875 1.0213623046875
5009278125.0 1.565673828125 0.04144287109375
5040500000.0 1.23297119140625 -0.876953125
5071721875.0 0.5052490234375 -1.41619873046875
5102943750.0 -0.44696044921875 -1.50091552734375
5134165625.0 -1.33843994140625 -0.90838623046875
5165387500.0 -1.57171630859375 0.14483642578125
5196609375.0 -1.1396484375 1.00994873046875
5227831250.0 -0.3594970703125 1.50909423828125
5259053125.0 0.68780517578125 1.49603271484375
5290275000.0 1.52374267578125 0.66595458984375
5321496875.0 1.49517822265625 -0.42926025390625
5352718750.0 0.9241943359375 -1.1536865234375
5383940625.0 0.09857177734375 -1.503173828125
5415162500.0 -0.90020751953125 -1.28729248046875
5446384375.0 -1.4871826171875 -0.373291015625
5477606250.0 -1.302978515625 0.56622314453125
5508828125.0 -0.73468017578125 1.15350341796875
5540050000.0 0.05340576171875 1.4027099609375
5571271875.0 0.940185546875 1.11260986328125
5602493750.0 1.41143798828125 0.26251220703125
5633715625.0 1.23553466796875 -0.61279296875
5664937500.0 0.65087890625 -1.202880859375
5696159375.0 -0.19635009765625 -1.38702392578125
5727381250.0 -1.023193359375 -0.98101806640625
5758603125.0 -1.393798828125 -0.147216796875
5789825000.0 -1.1968994140625 0.7177734375
5821046875.0 -0.50848388671875 1.3101806640625
5852268750.0 0.41192626953125 1.31597900390625
5883490625.0 1.072998046875 0.77435302734375
5914712500.0 1.305419921875 0.02142333984375
5945934375.0 1.0994873046875 -0.775390625
5977156250.0 0.3634033203125 -1.31451416015625
6008378125.0 -0.50927734375 -1.18487548828125
6039600000.0 -1.02301025390625 -0.65130615234375
6070821875.0 -1.22674560546875 -0.00579833984375
6102043750.0 -1.08660888671875 0.763671875
6133265625.0 -0.34368896484375 1.34686279296875
6164487500.0 0.5633544921875 1.19024658203125
6195709375.0 1.0718994140625 0.6329345703125
6226931250.0 1.282470703125 -0.04119873046875
6258153125.0 1.10784912109375 -0.8734130859375
6289375000.0 0.2569580078125 -1.4495849609375
6320596875.0 -0.69091796875 -1.2083740234375
6351818750.0 -1.202392578125 -0.57305908203125
6383040625.0 -1.3568115234375 0.20635986328125
6414262500.0 -1.00238037109375 1.0596923828125
6445484375.0 -0.078857421875 1.4610595703125
6476706250.0 0.79638671875 1.15057373046875
6507928125.0 1.2926025390625 0.47210693359375
6539150000.0 1.35003662109375 -0.3861083984375
6570371875.0 0.84393310546875 -1.1453857421875
6601593750.0 -0.015869140625 -1.408203125
6632815625.0 -0.84051513671875 -1.13958740234375
6664037500.0 -1.40423583984375 -0.42181396484375
6695259375.0 -1.37713623046875 0.5673828125
6726481250.0 -0.71258544921875 1.25433349609375
6757703125.0 0.1309814453125 1.41094970703125
6788925000.0 0.95672607421875 1.13385009765625
6820146875.0 1.56414794921875 0.2884521484375
6851368750.0 1.32861328125 -0.8211669921875
6882590625.0 0.50762939453125 -1.34124755859375
6913812500.0 -0.29119873046875 -1.3592529296875
6945034375.0 -1.0721435546875 -1.0242919921875
6976256250.0 -1.59527587890625 -0.094482421875
7007478125.0 -1.24090576171875 0.9345703125
7038700000.0 -0.40411376953125 1.3475341796875
7069921875.0 0.35919189453125 1.3275146484375
7101143750.0 1.1190185546875 0.9715576171875
7132365625.0 1.603759765625 0.0155029296875
7163587500.0 1.1610107421875 -1.0206298828125
7194809375.0 0.305419921875 -1.40130615234375
7226031250.0 -0.51092529296875 -1.32843017578125
7257253125.0 -1.271240234375 -0.8271484375
7288475000.0 -1.5614013671875 0.19866943359375
7319696875.0 -1.03387451171875 1.1104736328125
7350918750.0 -0.16632080078125 1.447509765625
7382140625.0 0.7159423828125 1.27935791015625
7413362500.0 1.382080078125 0.5770263671875
7444584375.0 1.413818359375 -0.406982421875
7475806250.0 0.86077880859375 -1.14593505859375
7507028125.0 0.00738525390625 -1.43218994140625
7538250000.0 -0.88787841796875 -1.1275634765625
7569471875.0 -1.340087890625 -0.3121337890625
7600693750.0 -1.20635986328125 0.4986572265625
7631915625.0 -0.72137451171875 1.085693359375
7663137500.0 0.078369140625 1.3616943359375
7694359375.0 0.940582275390625 0.98443603515625
7725581250.0 1.2469482421875 0.18255615234375
7756803125.0 1.08575439453125 -0.49798583984375
7788025000.0 0.67291259765625 -1.0474853515625
7819246875.0 -0.11968994140625 -1.3519287109375
7850468750.0 -0.99603271484375 -0.918243408203125
7881690625.0 -1.23388671875 -0.105712890625
7912912500.0 -1.05712890625 0.5552978515625
7944134375.0 -0.606689453125 1.11724853515625
7975356250.0 0.27362060546875 1.33880615234375
8006578125.0 1.04803466796875 0.7806396484375
8037800000.0 1.19744873046875 0.01580810546875
8069021875.0 1.0096435546875 -0.61895751953125
8100243750.0 0.50128173828125 -1.16522216796875
8131465625.0 -0.388916015625 -1.25677490234375
8162687500.0 -1.033935546875 -0.6876220703125
8193909375.0 -1.1829833984375 0.00726318359375
8225131250.0 -1.02276611328125 0.67926025390625
8256353125.0 -0.42291259765625 1.25250244140625
8287575000.0 0.50341796875 1.229736328125
8318796875.0 1.08526611328125 0.63671875
8350018750.0 1.24859619140625 -0.0748291015625
8381240625.0 1.03509521484375 -0.84417724609375
8412462500.0 0.255126953125 -1.37725830078125
8443684375.0 -0.6719970703125 -1.172119140625
8474906250.0 -1.1776123046875 -0.53265380859375
8506128125.0 -1.3011474609375 0.23699951171875
8537350000.0 -0.92706298828125 1.0496826171875
8568571875.0 -0.015625 1.39935302734375
8599793750.0 0.803955078125 1.0565185546875
8631015625.0 1.24481201171875 0.39923095703125
8662237500.0 1.28826904296875 -0.42889404296875
8693459375.0 0.7384033203125 -1.18121337890625
8724681250.0 -0.16217041015625 -1.3353271484375
8755903125.0 -0.882537841796875 -0.9605712890625
8787125000.0 -1.3077392578125 -0.283203125
8818346875.0 -1.25579833984375 0.61859130859375
8849568750.0 -0.557861328125 1.26519775390625
8880790625.0 0.2996826171875 1.2886962890625
8912012500.0 0.98529052734375 0.89471435546875
8943234375.0 1.404052734375 0.12890625
8974456250.0 1.1690673828125 -0.844482421875
9005678125.0 0.34759521484375 -1.31707763671875
9036900000.0 -0.44512939453125 -1.2266845703125
9068121875.0 -1.10357666015625 -0.78857421875
9099343750.0 -1.44342041015625 0.0986328125
9130565625.0 -0.98162841796875 1.016845703125
9161787500.0 -0.15533447265625 1.28399658203125
9193009375.0 0.5545654296875 1.13580322265625
9224231250.0 1.183349609375 0.65704345703125
9255453125.0 1.405517578125 -0.29833984375
9286675000.0 0.80975341796875 -1.0872802734375
9317896875.0 0.026611328125 -1.25054931640625
9349118750.0 -0.6571044921875 -1.0740966796875
9380340625.0 -1.26226806640625 -0.51116943359375
9411562500.0 -1.31536865234375 0.478515625
9442784375.0 -0.6488037109375 1.12164306640625
9474006250.0 0.08782958984375 1.2139892578125
9505228125.0 0.769927978515625 0.983489990234375
9536450000.0 1.27740478515625 0.31280517578125
9567671875.0 1.1463623046875 -0.58160400390625
9598893750.0 0.5296630859375 -1.07379150390625
9630115625.0 -0.1444091796875 -1.16162109375
9661337500.0 -0.820953369140625 -0.904754638671875
9692559375.0 -1.24249267578125 -0.189453125
9723781250.0 -1.04620361328125 0.60577392578125
9755003125.0 -0.48651123046875 1.0533447265625
9786225000.0 0.1998291015625 1.16424560546875
9817446875.0 0.899200439453125 0.8299560546875
9848668750.0 1.20074462890625 0.07757568359375
9879890625.0 0.97198486328125 -0.61981201171875
9911112500.0 0.45330810546875 -1.05474853515625
9942334375.0 -0.26947021484375 -1.163818359375
9973556250.0 -0.948211669921875 -0.739776611328125
10004778125.0 -1.150146484375 -0.01568603515625
10036000000.0 -0.946929931640625 0.617767333984375
10067221875.0 -0.44122314453125 1.10052490234375
10098443750.0 0.3724365234375 1.18426513671875
10129665625.0 1.0059814453125 0.642822265625
10160887500.0 1.122802734375 -0.053955078125
10192109375.0 0.9188232421875 -0.66497802734375
10223331250.0 0.36077880859375 -1.15643310546875
10254553125.0 -0.48968505859375 -1.11541748046875
10285775000.0 -0.988067626953125 -0.536468505859375
10316996875.0 -1.06982421875 0.078125
10348218750.0 -0.901458740234375 0.671722412109375
10379440625.0 -0.3231201171875 1.17877197265625
10410662500.0 0.52880859375 1.08795166015625
10441884375.0 0.995849609375 0.522491455078125
10473106250.0 1.11224365234375 -0.08447265625
10504328125.0 0.952606201171875 -0.761322021484375
10535550000.0 0.23828125 -1.2998046875
10566771875.0 -0.6593017578125 -1.07830810546875
10597993750.0 -1.08416748046875 -0.458740234375
10629215625.0 -1.1787109375 0.20654296875
10660437500.0 -0.88922119140625 0.95733642578125
10691659375.0 -0.0069580078125 1.33880615234375
10722881250.0 0.789093017578125 0.953857421875
10754103125.0 1.12359619140625 0.3240966796875
10785325000.0 1.142333984375 -0.36767578125
10816546875.0 0.70257568359375 -1.05084228515625
10847768750.0 -0.1473388671875 -1.23236083984375
10878990625.0 -0.8056640625 -0.84515380859375
10910212500.0 -1.12640380859375 -0.2452392578125
10941434375.0 -1.10064697265625 0.478759765625
10972656250.0 -0.56951904296875 1.0885009765625
11003878125.0 0.219482421875 1.17791748046875
11035100000.0 0.850738525390625 0.82366943359375
11066321875.0 1.22491455078125 0.17303466796875
11097543750.0 1.10101318359375 -0.6767578125
11128765625.0 0.38580322265625 -1.20245361328125
11159987500.0 -0.39794921875 -1.14227294921875
11191209375.0 -1.005126953125 -0.703369140625
11222431250.0 -1.275146484375 0.09466552734375
11253653125.0 -0.859405517578125 0.898773193359375
11284875000.0 -0.11383056640625 1.1290283203125
11316096875.0 0.512908935546875 0.959136962890625
11347318750.0 1.007080078125 0.50274658203125
11378540625.0 1.11968994140625 -0.271484375
11409762500.0 0.63531494140625 -0.8634033203125
11440984375.0 0.035003662109375 -0.98077392578125
11472206250.0 -0.48199462890625 -0.852569580078125
11503428125.0 -0.955078125 -0.457305908203125
11534650000.0 -1.07147216796875 0.29144287109375
11565871875.0 -0.60345458984375 0.857025146484375
11597093750.0 -0.0186767578125 0.993896484375
11628315625.0 0.548004150390625 0.87774658203125
11659537500.0 1.06573486328125 0.39154052734375
11690759375.0 1.06719970703125 -0.43707275390625
11721981250.0 0.51751708984375 -0.94342041015625
11753203125.0 -0.106689453125 -1.03875732421875
11784425000.0 -0.727630615234375 -0.81048583984375
11815646875.0 -1.1036376953125 -0.1510009765625
11846868750.0 -0.893280029296875 0.553558349609375
11878090625.0 -0.391448974609375 0.911102294921875
11909312500.0 0.188232421875 0.986907958984375
11940534375.0 0.783660888671875 0.69586181640625
11971756250.0 1.02642822265625 0.03997802734375
12002978125.0 0.8082275390625 -0.54107666015625
12034200000.0 0.38116455078125 -0.89154052734375
12065421875.0 -0.2177734375 -1.013671875
12096643750.0 -0.850860595703125 -0.665802001953125
12127865625.0 -1.03533935546875 0.01800537109375
12159087500.0 -0.8162841796875 0.578857421875
12190309375.0 -0.377716064453125 0.9786376953125
12221531250.0 0.3428955078125 1.0911865234375
12252753125.0 0.98345947265625 0.581298828125
12283975000.0 1.05657958984375 -0.12957763671875
12315196875.0 0.802093505859375 -0.679443359375
12346418750.0 0.2808837890625 -1.094970703125
12377640625.0 -0.5419921875 -1.06201171875
12408862500.0 -1.037109375 -0.41815185546875
12440084375.0 -1.01141357421875 0.2269287109375
12471306250.0 -0.743255615234375 0.739654541015625
12502528125.0 -0.17877197265625 1.12518310546875
12533750000.0 0.623779296875 0.995086669921875
12564971875.0 1.04425048828125 0.36334228515625
12596193750.0 1.03228759765625 -0.2647705078125
12627415625.0 0.74969482421875 -0.832427978515625
12658637500.0 0.07879638671875 -1.2105712890625
12689859375.0 -0.740478515625 -0.967864990234375
12721081250.0 -1.12109375 -0.30523681640625
12752303125.0 -1.10125732421875 0.3858642578125
12783525000.0 -0.68731689453125 1.03326416015625
12814746875.0 0.16900634765625 1.25439453125
12845968750.0 0.8665771484375 0.81231689453125
12877190625.0 1.12158203125 0.1702880859375
12908412500.0 1.0587158203125 -0.5054931640625
12939634375.0 0.54217529296875 -1.12225341796875
12970856250.0 -0.325439453125 -1.17755126953125
13002078125.0 -0.8974609375 -0.6934814453125
13033300000.0 -1.1090087890625 -0.0859375
13064521875.0 -1.01129150390625 0.59710693359375
13095743750.0 -0.4193115234375 1.1605224609375
13126965625.0 0.4130859375 1.12286376953125
13158187500.0 0.948455810546875 0.63311767578125
13189409375.0 1.1514892578125 -0.02294921875
13220631250.0 0.9371337890625 -0.7530517578125
13251853125.0 0.23370361328125 -1.17535400390625
13283075000.0 -0.50958251953125 -1.0211181640625
13314296875.0 -0.99151611328125 -0.52862548828125
13345518750.0 -1.13848876953125 0.1795654296875
