!Created with skrf (http://scikit-rf.org).
# Hz S RI R 50.0 
!freq ReS11 ImS11
45000000.0 -0.07762527465820312 -0.09716033935546875
76221875.0 -0.19905853271484375 -0.0471038818359375
107443750.0 -0.2577056884765625 0.1226959228515625
138665625.0 -0.1486358642578125 0.3331298828125
169887500.0 0.126312255859375 0.4218597412109375
201109375.0 0.4274139404296875 0.2826690673828125
232331250.0 0.584930419921875 -0.060455322265625
263553125.0 0.4932098388671875 -0.4609527587890625
294775000.0 0.096038818359375 -0.742401123046875
325996875.0 -0.423980712890625 -0.68780517578125
357218750.0 -0.81890869140625 -0.29742431640625
388440625.0 -0.89593505859375 0.3087158203125
419662500.0 -0.52008056640625 0.87933349609375
450884375.0 0.17901611328125 1.0411376953125
482106250.0 0.811126708984375 0.718292236328125
513328125.0 1.133056640625 0.08349609375
544550000.0 1.0118408203125 -0.69195556640625
575771875.0 0.33489990234375 -1.2525634765625
606993750.0 -0.56414794921875 -1.18804931640625
638215625.0 -1.18121337890625 -0.59222412109375
669437500.0 -1.35345458984375 0.24176025390625
700659375.0 -0.97686767578125 1.11212158203125
731881250.0 0.0015869140625 1.5596923828125
763103125.0 1.02093505859375 1.1650390625
794325000.0 1.486328125 0.279052734375
825546875.0 1.37945556640625 -0.66424560546875
856768750.0 0.79718017578125 -1.4232177734375
887990625.0 -0.3050537109375 -1.66815185546875
919212500.0 -1.31085205078125 -1.08697509765625
950434375.0 -1.671875 -0.05096435546875
981656250.0 -1.3966064453125 0.9664306640625
1012878125.0 -0.52789306640625 1.69830322265625
1044100000.0 0.7152099609375 1.68218994140625
1075321875.0 1.601318359375 0.8150634765625
1106543750.0 1.7269287109375 -0.32623291015625
1137765625.0 1.1964111328125 -1.30706787109375
1168987500.0 0.13128662109375 -1.82232666015625
1200209375.0 -1.083740234375 -1.49908447265625
1231431250.0 -1.7528076171875 -0.45013427734375
1262653125.0 -1.61114501953125 0.70196533203125
1293875000.0 -0.85638427734375 1.5142822265625
1325096875.0 0.23834228515625 1.72845458984375
1356318750.0 1.2569580078125 1.22747802734375
1387540625.0 1.7633056640625 0.1837158203125
1418762500.0 1.48345947265625 -0.97039794921875
1449984375.0 0.52874755859375 -1.64874267578125
1481206250.0 -0.56439208984375 -1.57281494140625
1512428125.0 -1.36358642578125 -0.92437744140625
1543650000.0 -1.67547607421875 0.07501220703125
1574871875.0 -1.28302001953125 1.12835693359375
1606093750.0 -0.268310546875 1.65203857421875
1637315625.0 0.75787353515625 1.4134521484375
1668537500.0 1.41632080078125 0.69732666015625
1699759375.0 1.59051513671875 -0.28778076171875
1730981250.0 1.07073974609375 -1.24853515625
1762203125.0 0.034912109375 -1.58917236328125
1793425000.0 -0.87237548828125 -1.23626708984375
1824646875.0 -1.4119873046875 -0.5142822265625
1855868750.0 -1.48968505859375 0.4444580078125
1887090625.0 -0.8787841796875 1.30523681640625
1918312500.0 0.12628173828125 1.50341796875
1949534375.0 0.9378662109375 1.09674072265625
1980756250.0 1.392333984375 0.36761474609375
2011978125.0 1.37237548828125 -0.5440673828125
2043200000.0 0.752685546875 -1.27935791015625
2074421875.0 -0.16571044921875 -1.44903564453125
2105643750.0 -0.97698974609375 -1.0797119140625
2136865625.0 -1.46551513671875 -0.30108642578125
2168087500.0 -1.36932373046875 0.6859130859375
2199309375.0 -0.63916015625 1.3704833984375
2230531250.0 0.29254150390625 1.451171875
2261753125.0 1.09002685546875 1.02001953125
2292975000.0 1.53240966796875 0.16400146484375
2324196875.0 1.3155517578125 -0.83538818359375
2355418750.0 0.52325439453125 -1.4383544921875
2386640625.0 -0.41717529296875 -1.4627685546875
2417862500.0 -1.2039794921875 -1.02935791015625
2449084375.0 -1.626220703125 -0.07464599609375
2480306250.0 -1.322265625 0.945068359375
2511528125.0 -0.491455078125 1.53021240234375
2542750000.0 0.50433349609375 1.5540771484375
2573971875.0 1.39678955078125 0.97216796875
2605193750.0 1.739501953125 -0.12493896484375
2636415625.0 1.27081298828125 -1.17657470703125
2667637500.0 0.2987060546875 -1.69232177734375
2698859375.0 -0.789794921875 -1.55059814453125
2730081250.0 -1.599609375 -0.74078369140625
2761303125.0 -1.70208740234375 0.4046630859375
2792525000.0 -1.10638427734375 1.33367919921875
2823746875.0 -0.09344482421875 1.75408935546875
2854968750.0 1.03643798828125 1.46966552734375
2886190625.0 1.7193603515625 0.48748779296875
2917412500.0 1.6185302734375 -0.637451171875
2948634375.0 0.9427490234375 -1.45965576171875
2979856250.0 -0.12286376953125 -1.80078125
3011078125.0 -1.2740478515625 -1.35198974609375
3042300000.0 -1.799560546875 -0.2265625
3073521875.0 -1.52386474609375 0.85882568359375
3104743750.0 -0.7637939453125 1.59515380859375
3135965625.0 0.378662109375 1.83184814453125
3167187500.0 1.5267333984375 1.17071533203125
3198409375.0 1.839111328125 -0.0865478515625
3229631250.0 1.36102294921875 -1.104736328125
3260853125.0 0.48583984375 -1.69500732421875
3292075000.0 -0.6732177734375 -1.7174072265625
3323296875.0 -1.6480712890625 -0.88116455078125
3354518750.0 -1.751953125 0.3436279296875
3385740625.0 -1.1641845703125 1.2559814453125
3416962500.0 -0.2237548828125 1.706787109375
3448184375.0 0.88311767578125 1.53717041015625
3479406250.0 1.66259765625 0.6409912109375
3510628125.0 1.66259765625 -0.51239013671875
3541850000.0 1.0045166015625 -1.37969970703125
3573071875.0 -0.01885986328125 -1.70343017578125
3604293750.0 -1.05023193359375 -1.34735107421875
3635515625.0 -1.65020751953125 -0.433837890625
3666737500.0 -1.5775146484375 0.66351318359375
3697959375.0 -0.82562255859375 1.50079345703125
3729181250.0 0.28253173828125 1.64971923828125
3760403125.0 1.17462158203125 1.10455322265625
3791625000.0 1.57379150390625 0.2122802734375
3822846875.0 1.416259765625 -0.779052734375
3854068750.0 0.61968994140625 -1.5047607421875
3885290625.0 -0.43707275390625 -1.498779296875
3916512500.0 -1.16387939453125 -0.915283203125
3947734375.0 -1.46728515625 -0.112060546875
3978956250.0 -1.30963134765625 0.797607421875
4010178125.0 -0.5269775390625 1.4788818359375
4041400000.0 0.4906005859375 1.4296875
4072621875.0 1.1737060546875 0.84844970703125
4103843750.0 1.46173095703125 0.0537109375
4135065625.0 1.27740478515625 -0.8642578125
4166287500.0 0.4512939453125 -1.517333984375
4197509375.0 -0.57568359375 -1.4271240234375
4228731250.0 -1.2674560546875 -0.80224609375
4259953125.0 -1.525634765625 0.08154296875
4291175000.0 -1.19525146484375 1.03118896484375
4322396875.0 -0.28228759765625 1.546875
4353618750.0 0.69000244140625 1.3621826171875
4384840625.0 1.34368896484375 0.6966552734375
4416062500.0 1.51812744140625 -0.24072265625
4447284375.0 1.06011962890625 -1.1259765625
4478506250.0 0.162841796875 -1.515380859375
4509728125.0 -0.75091552734375 -1.31781005859375
4540950000.0 -1.416259765625 -0.632080078125
4572171875.0 -1.5380859375 0.37664794921875
4603393750.0 -0.9739990234375 1.23419189453125
4634615625.0 -0.04937744140625 1.55560302734375
4665837500.0 0.88922119140625 1.3133544921875
4697059375.0 1.56298828125 0.51007080078125
4728281250.0 1.541748046875 -0.60113525390625
4759503125.0 0.8211669921875 -1.388671875
4790725000.0 -0.15863037109375 -1.58837890625
4821946875.0 -1.10369873046875 -1.20037841796875
4853168750.0 -1.634521484375 -0.2425537109375
4884390625.0 -1.38861083984375 0.81396484375
4915612500.0 -0.61016845703125 1.43414306640625
4946834375.0 0.3428955078125 1.52471923828125
4978056250.0 1.2269287109375 1.02044677734375
5009278125.0 1.58154296875 0.02801513671875
5040500000.0 1.2376708984375 -0.895751953125
5071721875.0 0.4962158203125 -1.43597412109375
5102943750.0 -0.46405029296875 -1.51202392578125
5134165625.0 -1.35919189453125 -0.9052734375
5165387500.0 -1.5845947265625 0.161376953125
5196609375.0 -1.1409912109375 1.0303955078125
5227831250.0 -0.34918212890625 1.527099609375
5259053125.0 0.70831298828125 1.50482177734375
5290275000.0 1.54473876953125 0.6568603515625
5321496875.0 1.50494384765625 -0.44854736328125
5352718750.0 0.92205810546875 -1.17236328125
5383940625.0 0.0867919921875 -1.5179443359375
5415162500.0 -0.9207763671875 -1.2926025390625
5446384375.0 -1.504638671875 -0.36346435546875
5477606250.0 -1.31024169921875 0.5828857421875
5508828125.0 -0.731201171875 1.1705322265625
5540050000.0 0.06591796875 1.41680908203125
5571271875.0 0.958984375 1.11517333984375
5602493750.0 1.4285888671875 0.25067138671875
5633715625.0 1.24163818359375 -0.62957763671875
5664937500.0 0.645751953125 -1.220947265625
5696159375.0 -0.2117919921875 -1.3984375
5727381250.0 -1.04132080078125 -0.9803466796875
5758603125.0 -1.40838623046875 -0.1343994140625
5789825000.0 -1.2012939453125 0.73626708984375
5821046875.0 -0.50054931640625 1.32733154296875
5852268750.0 0.42828369140625 1.32421875
5883490625.0 1.08892822265625 0.771728515625
5914712500.0 1.31793212890625 0.0096435546875
5945934375.0 1.10296630859375 -0.7938232421875
5977156250.0 0.35443115234375 -1.33056640625
6008378125.0 -0.5245361328125 -1.191162109375
6039600000.0 -1.03814697265625 -0.64801025390625
6070821875.0 -1.23876953125 0.0054931640625
6102043750.0 -1.09075927734375 0.78070068359375
6133265625.0 -0.33319091796875 1.364501953125
6164487500.0 0.5814208984375 1.19622802734375
6195709375.0 1.08892822265625 0.62799072265625
6226931250.0 1.29522705078125 -0.0548095703125
6258153125.0 1.10980224609375 -0.89288330078125
6289375000.0 0.24407958984375 -1.4644775390625
6320596875.0 -0.707763671875 -1.21142578125
6351818750.0 -1.2178955078125 -0.5665283203125
6383040625.0 -1.36688232421875 0.2215576171875
6414262500.0 -1.00128173828125 1.07733154296875
6445484375.0 -0.06524658203125 1.472900390625
6476706250.0 0.81396484375 1.152587890625
6507928125.0 1.30841064453125 0.46343994140625
6539150000.0 1.358642578125 -0.40203857421875
6570371875.0 0.84063720703125 -1.16326904296875
6601593750.0 -0.02886962890625 -1.4205322265625
6632815625.0 -0.85888671875 -1.1422119140625
6664037500.0 -1.42132568359375 -0.4119873046875
6695259375.0 -1.38421630859375 0.585693359375
6726481250.0 -0.70654296875 1.27227783203125
6757703125.0 0.14501953125 1.42205810546875
6788925000.0 0.97698974609375 1.1356201171875
6820146875.0 1.58050537109375 0.27593994140625
6851368750.0 1.331298828125 -0.84149169921875
6882590625.0 0.49884033203125 -1.3575439453125
6913812500.0 -0.30804443359375 -1.36865234375
6945034375.0 -1.091796875 -1.02301025390625
6976256250.0 -1.61077880859375 -0.07904052734375
7007478125.0 -1.243408203125 0.9566650390625
7038700000.0 -0.39520263671875 1.36260986328125
7069921875.0 0.37518310546875 1.33770751953125
7101143750.0 1.14166259765625 0.9718017578125
7132365625.0 1.62005615234375 -0.00018310546875
7163587500.0 1.162841796875 -1.04547119140625
7194809375.0 0.2940673828125 -1.4195556640625
7226031250.0 -0.53240966796875 -1.33929443359375
7257253125.0 -1.29193115234375 -0.8228759765625
7288475000.0 -1.5777587890625 0.21624755859375
7319696875.0 -1.0330810546875 1.13690185546875
7350918750.0 -0.15423583984375 1.46368408203125
7382140625.0 0.74066162109375 1.28662109375
7413362500.0 1.3997802734375 0.5692138671875
7444584375.0 1.4254150390625 -0.4263916015625
7475806250.0 0.8575439453125 -1.164794921875
7507028125.0 -0.0098876953125 -1.4493408203125
7538250000.0 -0.90887451171875 -1.12994384765625
7569471875.0 -1.3553466796875 -0.30096435546875
7600693750.0 -1.212158203125 0.5130615234375
7631915625.0 -0.717041015625 1.10491943359375
7663137500.0 0.0914306640625 1.3753662109375
7694359375.0 0.963043212890625 0.985870361328125
7725581250.0 1.2615966796875 0.171875
7756803125.0 1.09307861328125 -0.5159912109375
7788025000.0 0.67059326171875 -1.06536865234375
7819246875.0 -0.13824462890625 -1.36761474609375
7850468750.0 -1.01812744140625 -0.9178466796875
7881690625.0 -1.25 -0.09228515625
7912912500.0 -1.06304931640625 0.57159423828125
7944134375.0 -0.60076904296875 1.13726806640625
7975356250.0 0.28985595703125 1.34771728515625
8006578125.0 1.06793212890625 0.7764892578125
8037800000.0 1.20843505859375 0.00439453125
8069021875.0 1.01361083984375 -0.63525390625
8100243750.0 0.49444580078125 -1.1820068359375
8131465625.0 -0.404541015625 -1.26446533203125
8162687500.0 -1.04931640625 -0.68499755859375
8193909375.0 -1.19512939453125 0.0194091796875
8225131250.0 -1.02618408203125 0.6959228515625
8256353125.0 -0.41522216796875 1.2691650390625
8287575000.0 0.52093505859375 1.2373046875
8318796875.0 1.101806640625 0.6329345703125
8350018750.0 1.26055908203125 -0.0877685546875
8381240625.0 1.03704833984375 -0.86285400390625
8412462500.0 0.2403564453125 -1.39642333984375
8443684375.0 -0.68914794921875 -1.1763916015625
8474906250.0 -1.193115234375 -0.52581787109375
8506128125.0 -1.3101806640625 0.2525634765625
8537350000.0 -0.9237060546875 1.06829833984375
8568571875.0 -0.001220703125 1.41107177734375
8599793750.0 0.82061767578125 1.05670166015625
8631015625.0 1.25927734375 0.391357421875
8662237500.0 1.2982177734375 -0.44610595703125
8693459375.0 0.734619140625 -1.19769287109375
8724681250.0 -0.1739501953125 -1.34478759765625
8755903125.0 -0.90087890625 -0.96240234375
8787125000.0 -1.32427978515625 -0.27410888671875
8818346875.0 -1.2635498046875 0.63671875
8849568750.0 -0.54931640625 1.28424072265625
8880790625.0 0.31591796875 1.3006591796875
8912012500.0 1.0057373046875 0.89422607421875
8943234375.0 1.42156982421875 0.11431884765625
8974456250.0 1.1724853515625 -0.86431884765625
9005678125.0 0.3353271484375 -1.33380126953125
9036900000.0 -0.46392822265625 -1.2340087890625
9068121875.0 -1.12451171875 -0.78228759765625
9099343750.0 -1.4583740234375 0.118408203125
9130565625.0 -0.97760009765625 1.03436279296875
9161787500.0 -0.14385986328125 1.2972412109375
9193009375.0 0.57330322265625 1.14215087890625
9224231250.0 1.20001220703125 0.65252685546875
9255453125.0 1.4136962890625 -0.3128662109375
9286675000.0 0.8057861328125 -1.10614013671875
9317896875.0 0.015869140625 -1.26318359375
9349118750.0 -0.67181396484375 -1.07843017578125
9380340625.0 -1.28314208984375 -0.50274658203125
9411562500.0 -1.322998046875 0.498291015625
9442784375.0 -0.64312744140625 1.14019775390625
9474006250.0 0.10382080078125 1.2266845703125
9505228125.0 0.78717041015625 0.984710693359375
9536450000.0 1.29437255859375 0.30133056640625
9567671875.0 1.149169921875 -0.60009765625
9598893750.0 0.52264404296875 -1.08599853515625
9630115625.0 -0.16033935546875 -1.1707763671875
9661337500.0 -0.83837890625 -0.9034423828125
9692559375.0 -1.25653076171875 -0.17694091796875
9723781250.0 -1.0482177734375 0.6226806640625
9755003125.0 -0.47998046875 1.06842041015625
9786225000.0 0.21368408203125 1.171875
9817446875.0 0.913818359375 0.8287353515625
9848668750.0 1.21429443359375 0.0670166015625
9879890625.0 0.97357177734375 -0.635223388671875
9911112500.0 0.44659423828125 -1.07073974609375
9942334375.0 -0.28515625 -1.1732177734375
9973556250.0 -0.965484619140625 -0.73583984375
10004778125.0 -1.16046142578125 -0.00408935546875
10036000000.0 -0.947967529296875 0.635955810546875
10067221875.0 -0.43328857421875 1.11712646484375
10098443750.0 0.39276123046875 1.19171142578125
10129665625.0 1.02435302734375 0.63543701171875
10160887500.0 1.1309814453125 -0.06658935546875
10192109375.0 0.9195556640625 -0.6817626953125
10223331250.0 0.35089111328125 -1.170654296875
10254553125.0 -0.50433349609375 -1.119140625
10285775000.0 -1.0 -0.5294189453125
10316996875.0 -1.0762939453125 0.0882568359375
10348218750.0 -0.90386962890625 0.686614990234375
10379440625.0 -0.31182861328125 1.194091796875
10410662500.0 0.54559326171875 1.09185791015625
10441884375.0 1.009521484375 0.5172119140625
10473106250.0 1.12176513671875 -0.0966796875
10504328125.0 0.952911376953125 -0.777587890625
10535550000.0 0.2257080078125 -1.31488037109375
10566771875.0 -0.68145751953125 -1.08050537109375
10597993750.0 -1.10003662109375 -0.450439453125
10629215625.0 -1.18798828125 0.22296142578125
10660437500.0 -0.886688232421875 0.9739990234375
10691659375.0 0.00885009765625 1.35308837890625
10722881250.0 0.805938720703125 0.9517822265625
10754103125.0 1.13671875 0.31439208984375
10785325000.0 1.14923095703125 -0.38555908203125
10816546875.0 0.69671630859375 -1.0699462890625
10847768750.0 -0.16204833984375 -1.241943359375
10878990625.0 -0.8203125 -0.8443603515625
10910212500.0 -1.13800048828125 -0.2357177734375
10941434375.0 -1.10614013671875 0.49603271484375
10972656250.0 -0.562255859375 1.1053466796875
11003878125.0 0.2342529296875 1.18634033203125
11035100000.0 0.86810302734375 0.822784423828125
11066321875.0 1.2386474609375 0.16204833984375
11097543750.0 1.10443115234375 -0.70025634765625
11128765625.0 0.37554931640625 -1.2174072265625
11159987500.0 -0.41302490234375 -1.14788818359375
11191209375.0 -1.02130126953125 -0.6983642578125
11222431250.0 -1.28662109375 0.1119384765625
11253653125.0 -0.857269287109375 0.915985107421875
11284875000.0 -0.10260009765625 1.14105224609375
11316096875.0 0.529754638671875 0.962066650390625
11347318750.0 1.02117919921875 0.49609375
11378540625.0 1.12713623046875 -0.28594970703125
11409762500.0 0.63079833984375 -0.877655029296875
11440984375.0 0.025970458984375 -0.99005126953125
11472206250.0 -0.4952392578125 -0.855133056640625
11503428125.0 -0.971160888671875 -0.450653076171875
11534650000.0 -1.0784912109375 0.3062744140625
11565871875.0 -0.59857177734375 0.871246337890625
11597093750.0 -0.006591796875 1.00469970703125
11628315625.0 0.560455322265625 0.8814697265625
11659537500.0 1.07965087890625 0.385009765625
11690759375.0 1.07196044921875 -0.45355224609375
11721981250.0 0.510406494140625 -0.957489013671875
11753203125.0 -0.119384765625 -1.04827880859375
11784425000.0 -0.744476318359375 -0.810028076171875
11815646875.0 -1.1165771484375 -0.13775634765625
11846868750.0 -0.89398193359375 0.571563720703125
11878090625.0 -0.38372802734375 0.925445556640625
11909312500.0 0.20147705078125 0.99493408203125
11940534375.0 0.799468994140625 0.693450927734375
11971756250.0 1.03778076171875 0.02606201171875
12002978125.0 0.808929443359375 -0.55322265625
12034200000.0 0.37567138671875 -0.904083251953125
12065421875.0 -0.23193359375 -1.019775390625
12096643750.0 -0.868896484375 -0.66094970703125
12127865625.0 -1.04534912109375 0.03131103515625
12159087500.0 -0.816619873046875 0.59222412109375
12190309375.0 -0.36932373046875 0.993743896484375
12221531250.0 0.3582763671875 1.09710693359375
12252753125.0 0.999359130859375 0.573516845703125
12283975000.0 1.0640869140625 -0.14361572265625
12315196875.0 0.80096435546875 -0.694854736328125
12346418750.0 0.2701416015625 -1.10870361328125
12377640625.0 -0.55950927734375 -1.06610107421875
12408862500.0 -1.051025390625 -0.40972900390625
12440084375.0 -1.01605224609375 0.23944091796875
12471306250.0 -0.742523193359375 0.754486083984375
12502528125.0 -0.167724609375 1.13818359375
12533750000.0 0.642791748046875 0.998138427734375
12564971875.0 1.0582275390625 0.35498046875
12596193750.0 1.03900146484375 -0.28057861328125
12627415625.0 0.747467041015625 -0.849700927734375
12658637500.0 0.06402587890625 -1.22454833984375
12689859375.0 -0.75634765625 -0.968048095703125
12721081250.0 -1.135009765625 -0.294921875
12752303125.0 -1.10711669921875 0.4007568359375
12783525000.0 -0.6806640625 1.0509033203125
12814746875.0 0.18731689453125 1.2652587890625
12845968750.0 0.88507080078125 0.807861328125
12877190625.0 1.13385009765625 0.16009521484375
12908412500.0 1.06317138671875 -0.52386474609375
12939634375.0 0.531982421875 -1.14031982421875
12970856250.0 -0.34228515625 -1.18408203125
13002078125.0 -0.914794921875 -0.688995361328125
13033300000.0 -1.12103271484375 -0.0732421875
13064521875.0 -1.0146484375 0.61676025390625
13095743750.0 -0.40704345703125 1.1773681640625
13126965625.0 0.4302978515625 1.1282958984375
13158187500.0 0.965576171875 0.6270751953125
13189409375.0 1.1624755859375 -0.03662109375
13220631250.0 0.940032958984375 -0.77056884765625
13251853125.0 0.22052001953125 -1.19012451171875
13283075000.0 -0.52801513671875 -1.0257568359375
13314296875.0 -1.0081787109375 -0.52142333984375
13345518750.0 -1.14776611328125 0.1961669921875
