!Created with skrf (http://scikit-rf.org).
# Hz S RI R 50.0 
!freq ReS11 ImS11
45000000.0 -0.0771331787109375 -0.09663009643554688
76221875.0 -0.19686126708984375 -0.04740142822265625
107443750.0 -0.2555084228515625 0.1201629638671875
138665625.0 -0.1484527587890625 0.32940673828125
169887500.0 0.123626708984375 0.418304443359375
201109375.0 0.4225921630859375 0.2816619873046875
232331250.0 0.580078125 -0.057403564453125
263553125.0 0.490631103515625 -0.4539337158203125
294775000.0 0.0987548828125 -0.734222412109375
325996875.0 -0.41632080078125 -0.68267822265625
357218750.0 -0.80841064453125 -0.2979736328125
388440625.0 -0.88800048828125 0.30126953125
419662500.0 -0.518524169921875 0.868438720703125
450884375.0 0.17315673828125 1.03106689453125
482106250.0 0.800018310546875 0.714202880859375
513328125.0 1.121826171875 0.0875244140625
544550000.0 1.00567626953125 -0.6810302734375
575771875.0 0.33740234375 -1.24041748046875
606993750.0 -0.55419921875 -1.179443359375
638215625.0 -1.167724609375 -0.59197998046875
669437500.0 -1.34234619140625 0.23345947265625
700659375.0 -0.97308349609375 1.09771728515625
731881250.0 -0.004638671875 1.54547119140625
763103125.0 1.00653076171875 1.1585693359375
794325000.0 1.4713134765625 0.28338623046875
825546875.0 1.370361328125 -0.6519775390625
856768750.0 0.7960205078125 -1.4036865234375
887990625.0 -0.2935791015625 -1.65167236328125
919212500.0 -1.2908935546875 -1.0814208984375
950434375.0 -1.65252685546875 -0.0592041015625
981656250.0 -1.3857421875 0.9486083984375
1012878125.0 -0.5311279296875 1.67633056640625
1044100000.0 0.69873046875 1.66595458984375
1075321875.0 1.57861328125 0.813720703125
1106543750.0 1.70855712890625 -0.3134765625
1137765625.0 1.18927001953125 -1.28717041015625
1168987500.0 0.13873291015625 -1.80096435546875
1200209375.0 -1.0633544921875 -1.48748779296875
1231431250.0 -1.7318115234375 -0.45440673828125
1262653125.0 -1.59759521484375 0.68603515625
1293875000.0 -0.85369873046875 1.49420166015625
1325096875.0 0.22833251953125 1.710205078125
1356318750.0 1.23651123046875 1.21954345703125
1387540625.0 1.74298095703125 0.190185546875
1418762500.0 1.47259521484375 -0.953125
1449984375.0 0.53106689453125 -1.6295166015625
1481206250.0 -0.5504150390625 -1.55975341796875
1512428125.0 -1.34429931640625 -0.921630859375
1543650000.0 -1.65911865234375 0.0650634765625
1574871875.0 -1.27593994140625 1.1109619140625
1606093750.0 -0.27374267578125 1.63458251953125
1637315625.0 0.743408203125 1.40325927734375
1668537500.0 1.39849853515625 0.69683837890625
1699759375.0 1.5755615234375 -0.27734375
1730981250.0 1.0660400390625 -1.23095703125
1762203125.0 0.04266357421875 -1.5731201171875
1793425000.0 -0.85675048828125 -1.22857666015625
1824646875.0 -1.39501953125 -0.5169677734375
1855868750.0 -1.47662353515625 0.43157958984375
1887090625.0 -0.87744140625 1.2869873046875
1918312500.0 0.11663818359375 1.48980712890625
1949534375.0 0.92303466796875 1.091552734375
1980756250.0 1.37774658203125 0.37115478515625
2011978125.0 1.3621826171875 -0.53228759765625
2043200000.0 0.75140380859375 -1.2637939453125
2074421875.0 -0.15728759765625 -1.43548583984375
2105643750.0 -0.96124267578125 -1.0740966796875
2136865625.0 -1.44940185546875 -0.30596923828125
2168087500.0 -1.359130859375 0.672119140625
2199309375.0 -0.640380859375 1.35333251953125
2230531250.0 0.281982421875 1.4381103515625
2261753125.0 1.07427978515625 1.01580810546875
2292975000.0 1.51666259765625 0.17095947265625
2324196875.0 1.30767822265625 -0.81939697265625
2355418750.0 0.52685546875 -1.4217529296875
2386640625.0 -0.40447998046875 -1.45135498046875
2417862500.0 -1.183837890625 -1.02728271484375
2449084375.0 -1.6092529296875 -0.08319091796875
2480306250.0 -1.31353759765625 0.927978515625
2511528125.0 -0.4940185546875 1.5115966796875
2542750000.0 0.48919677734375 1.5389404296875
2573971875.0 1.3734130859375 0.96966552734375
2605193750.0 1.72076416015625 -0.11328125
2636415625.0 1.26385498046875 -1.1546630859375
2667637500.0 0.306396484375 -1.67083740234375
2698859375.0 -0.77166748046875 -1.537353515625
2730081250.0 -1.57623291015625 -0.74212646484375
2761303125.0 -1.68438720703125 0.38922119140625
2792525000.0 -1.1015625 1.30999755859375
2823746875.0 -0.10260009765625 1.73284912109375
2854968750.0 1.01361083984375 1.4586181640625
2886190625.0 1.6944580078125 0.4931640625
2917412500.0 1.60296630859375 -0.617919921875
2948634375.0 0.9412841796875 -1.435791015625
2979856250.0 -0.1082763671875 -1.77923583984375
3011078125.0 -1.251220703125 -1.3448486328125
3042300000.0 -1.77728271484375 -0.23529052734375
3073521875.0 -1.510986328125 0.83868408203125
3104743750.0 -0.76470947265625 1.57232666015625
3135965625.0 0.3626708984375 1.81201171875
3167187500.0 1.5020751953125 1.16619873046875
3198409375.0 1.81939697265625 -0.07598876953125
3229631250.0 1.3507080078125 -1.08367919921875
3260853125.0 0.48907470703125 -1.67291259765625
3292075000.0 -0.65631103515625 -1.70172119140625
3323296875.0 -1.621826171875 -0.8807373046875
3354518750.0 -1.73382568359375 0.33001708984375
3385740625.0 -1.1575927734375 1.2342529296875
3416962500.0 -0.23150634765625 1.68505859375
3448184375.0 0.86212158203125 1.52398681640625
3479406250.0 1.63824462890625 0.645263671875
3510628125.0 1.64727783203125 -0.49560546875
3541850000.0 1.00189208984375 -1.357177734375
3573071875.0 -0.00787353515625 -1.6859130859375
3604293750.0 -1.0294189453125 -1.3392333984375
3635515625.0 -1.6302490234375 -0.439453125
3666737500.0 -1.56396484375 0.64654541015625
3697959375.0 -0.8265380859375 1.4781494140625
3729181250.0 0.26910400390625 1.63348388671875
3760403125.0 1.15399169921875 1.09942626953125
3791625000.0 1.554931640625 0.2186279296875
3822846875.0 1.40484619140625 -0.76300048828125
3854068750.0 0.6212158203125 -1.48431396484375
3885290625.0 -0.4224853515625 -1.483642578125
3916512500.0 -1.1451416015625 -0.91265869140625
3947734375.0 -1.4493408203125 -0.12054443359375
3978956250.0 -1.29937744140625 0.77960205078125
4010178125.0 -0.53216552734375 1.45794677734375
4041400000.0 0.474853515625 1.41729736328125
4072621875.0 1.15399169921875 0.8487548828125
4103843750.0 1.44659423828125 0.06341552734375
4135065625.0 1.2694091796875 -0.8466796875
4166287500.0 0.4578857421875 -1.4989013671875
4197509375.0 -0.5587158203125 -1.41729736328125
4228731250.0 -1.2501220703125 -0.80340576171875
4259953125.0 -1.51165771484375 0.0706787109375
4291175000.0 -1.1900634765625 1.01123046875
4322396875.0 -0.28912353515625 1.52935791015625
4353618750.0 0.6746826171875 1.35186767578125
4384840625.0 1.3245849609375 0.697509765625
4416062500.0 1.5023193359375 -0.22772216796875
4447284375.0 1.05621337890625 -1.106201171875
4478506250.0 0.17230224609375 -1.49737548828125
4509728125.0 -0.73480224609375 -1.30950927734375
4540950000.0 -1.395751953125 -0.63677978515625
4572171875.0 -1.52423095703125 0.3609619140625
4603393750.0 -0.973388671875 1.21490478515625
4634615625.0 -0.06103515625 1.53875732421875
4665837500.0 0.87127685546875 1.3065185546875
4697059375.0 1.54388427734375 0.515869140625
4728281250.0 1.53131103515625 -0.58355712890625
4759503125.0 0.823974609375 -1.36920166015625
4790725000.0 -0.1456298828125 -1.57525634765625
4821946875.0 -1.0848388671875 -1.19561767578125
4853168750.0 -1.6162109375 -0.2513427734375
4884390625.0 -1.3797607421875 0.79534912109375
4915612500.0 -0.61328125 1.41497802734375
4946834375.0 0.32904052734375 1.51068115234375
4978056250.0 1.2071533203125 1.0189208984375
5009278125.0 1.564697265625 0.03857421875
5040500000.0 1.230712890625 -0.87750244140625
5071721875.0 0.50152587890625 -1.41796875
5102943750.0 -0.44732666015625 -1.4986572265625
5134165625.0 -1.33721923828125 -0.90704345703125
5165387500.0 -1.570556640625 0.146484375
5196609375.0 -1.13763427734375 1.01092529296875
5227831250.0 -0.35760498046875 1.5084228515625
5259053125.0 0.68963623046875 1.4942626953125
5290275000.0 1.52557373046875 0.66357421875
5321496875.0 1.49456787109375 -0.43157958984375
5352718750.0 0.9224853515625 -1.15545654296875
5383940625.0 0.09716796875 -1.50250244140625
5415162500.0 -0.90203857421875 -1.285888671875
5446384375.0 -1.4862060546875 -0.37017822265625
5477606250.0 -1.30078125 0.5670166015625
5508828125.0 -0.73211669921875 1.1522216796875
5540050000.0 0.0543212890625 1.40106201171875
5571271875.0 0.94134521484375 1.1107177734375
5602493750.0 1.4111328125 0.25958251953125
5633715625.0 1.23382568359375 -0.61334228515625
5664937500.0 0.649169921875 -1.203857421875
5696159375.0 -0.19683837890625 -1.385498046875
5727381250.0 -1.02349853515625 -0.9803466796875
5758603125.0 -1.39306640625 -0.1455078125
5789825000.0 -1.196044921875 0.71795654296875
5821046875.0 -0.50714111328125 1.3094482421875
5852268750.0 0.41290283203125 1.31549072265625
5883490625.0 1.072265625 0.77313232421875
5914712500.0 1.30474853515625 0.01971435546875
5945934375.0 1.0980224609375 -0.778076171875
5977156250.0 0.36126708984375 -1.31524658203125
6008378125.0 -0.5115966796875 -1.1842041015625
6039600000.0 -1.0230712890625 -0.649658203125
6070821875.0 -1.2259521484375 -0.0042724609375
6102043750.0 -1.0850830078125 0.764404296875
6133265625.0 -0.34210205078125 1.34619140625
6164487500.0 0.565185546875 1.18890380859375
6195709375.0 1.071533203125 0.630859375
6226931250.0 1.28173828125 -0.042724609375
6258153125.0 1.106689453125 -0.87200927734375
6289375000.0 0.2559814453125 -1.448486328125
6320596875.0 -0.6904296875 -1.20782470703125
6351818750.0 -1.2021484375 -0.57275390625
6383040625.0 -1.35760498046875 0.207763671875
6414262500.0 -1.00128173828125 1.05987548828125
6445484375.0 -0.07708740234375 1.4598388671875
6476706250.0 0.7978515625 1.1492919921875
6507928125.0 1.29266357421875 0.47021484375
6539150000.0 1.34979248046875 -0.3878173828125
6570371875.0 0.84185791015625 -1.1453857421875
6601593750.0 -0.01776123046875 -1.40667724609375
6632815625.0 -0.84210205078125 -1.13775634765625
6664037500.0 -1.40380859375 -0.42034912109375
6695259375.0 -1.37579345703125 0.567626953125
6726481250.0 -0.71142578125 1.25238037109375
6757703125.0 0.1319580078125 1.40997314453125
6788925000.0 0.95562744140625 1.13201904296875
6820146875.0 1.5638427734375 0.28759765625
6851368750.0 1.32904052734375 -0.82257080078125
6882590625.0 0.50689697265625 -1.3408203125
6913812500.0 -0.29412841796875 -1.3599853515625
6945034375.0 -1.07159423828125 -1.0233154296875
6976256250.0 -1.595947265625 -0.0921630859375
7007478125.0 -1.2391357421875 0.93658447265625
7038700000.0 -0.4024658203125 1.34490966796875
7069921875.0 0.360107421875 1.32623291015625
7101143750.0 1.12213134765625 0.97015380859375
7132365625.0 1.60394287109375 0.01300048828125
7163587500.0 1.1585693359375 -1.0225830078125
7194809375.0 0.30194091796875 -1.4012451171875
7226031250.0 -0.5155029296875 -1.3289794921875
7257253125.0 -1.27081298828125 -0.82501220703125
7288475000.0 -1.56170654296875 0.1988525390625
7319696875.0 -1.0311279296875 1.11248779296875
7350918750.0 -0.1639404296875 1.44671630859375
7382140625.0 0.717529296875 1.2786865234375
7413362500.0 1.379638671875 0.5771484375
7444584375.0 1.4144287109375 -0.40655517578125
7475806250.0 0.85992431640625 -1.14581298828125
7507028125.0 0.00433349609375 -1.43328857421875
7538250000.0 -0.8902587890625 -1.12567138671875
7569471875.0 -1.34014892578125 -0.31109619140625
7600693750.0 -1.20477294921875 0.49908447265625
7631915625.0 -0.7188720703125 1.08929443359375
7663137500.0 0.0828857421875 1.3624267578125
7694359375.0 0.943359375 0.981475830078125
7725581250.0 1.2471923828125 0.1798095703125
7756803125.0 1.08502197265625 -0.50079345703125
7788025000.0 0.6707763671875 -1.047119140625
7819246875.0 -0.12176513671875 -1.3509521484375
7850468750.0 -0.995941162109375 -0.9168701171875
7881690625.0 -1.23370361328125 -0.105712890625
7912912500.0 -1.05682373046875 0.55560302734375
7944134375.0 -0.6058349609375 1.11669921875
7975356250.0 0.27215576171875 1.33746337890625
8006578125.0 1.04974365234375 0.77972412109375
8037800000.0 1.1961669921875 0.01556396484375
8069021875.0 1.00921630859375 -0.62042236328125
8100243750.0 0.4993896484375 -1.1666259765625
8131465625.0 -0.38946533203125 -1.256591796875
8162687500.0 -1.034423828125 -0.6871337890625
8193909375.0 -1.18310546875 0.01007080078125
8225131250.0 -1.01953125 0.681396484375
8256353125.0 -0.42205810546875 1.2509765625
8287575000.0 0.50396728515625 1.22833251953125
8318796875.0 1.083984375 0.63580322265625
8350018750.0 1.24713134765625 -0.07696533203125
8381240625.0 1.03338623046875 -0.8424072265625
8412462500.0 0.2542724609375 -1.37786865234375
8443684375.0 -0.6717529296875 -1.17181396484375
8474906250.0 -1.177001953125 -0.53271484375
8506128125.0 -1.30133056640625 0.23834228515625
8537350000.0 -0.92620849609375 1.05181884765625
8568571875.0 -0.0142822265625 1.39849853515625
8599793750.0 0.806396484375 1.05523681640625
8631015625.0 1.2452392578125 0.39874267578125
8662237500.0 1.28839111328125 -0.43084716796875
8693459375.0 0.736328125 -1.1812744140625
8724681250.0 -0.16436767578125 -1.334228515625
8755903125.0 -0.88201904296875 -0.959014892578125
8787125000.0 -1.30706787109375 -0.2813720703125
8818346875.0 -1.2528076171875 0.61724853515625
8849568750.0 -0.55584716796875 1.26422119140625
8880790625.0 0.3001708984375 1.286376953125
8912012500.0 0.984161376953125 0.894744873046875
8943234375.0 1.4033203125 0.12847900390625
8974456250.0 1.16912841796875 -0.84368896484375
9005678125.0 0.34814453125 -1.3173828125
9036900000.0 -0.447265625 -1.22650146484375
9068121875.0 -1.1036376953125 -0.78717041015625
9099343750.0 -1.44329833984375 0.0980224609375
9130565625.0 -0.9801025390625 1.01519775390625
9161787500.0 -0.15423583984375 1.285888671875
9193009375.0 0.5567626953125 1.13531494140625
9224231250.0 1.18280029296875 0.65557861328125
9255453125.0 1.40338134765625 -0.2998046875
9286675000.0 0.80767822265625 -1.08770751953125
9317896875.0 0.02606201171875 -1.2506103515625
9349118750.0 -0.65496826171875 -1.07159423828125
9380340625.0 -1.2603759765625 -0.50897216796875
9411562500.0 -1.312744140625 0.4781494140625
9442784375.0 -0.64801025390625 1.1195068359375
9474006250.0 0.089111328125 1.21368408203125
9505228125.0 0.767181396484375 0.982391357421875
9536450000.0 1.27783203125 0.31268310546875
9567671875.0 1.14630126953125 -0.5833740234375
9598893750.0 0.53033447265625 -1.0721435546875
9630115625.0 -0.14630126953125 -1.1619873046875
9661337500.0 -0.8216552734375 -0.90411376953125
9692559375.0 -1.2420654296875 -0.18902587890625
9723781250.0 -1.04547119140625 0.6053466796875
9755003125.0 -0.486328125 1.0528564453125
9786225000.0 0.2003173828125 1.16156005859375
9817446875.0 0.899078369140625 0.829010009765625
9848668750.0 1.2010498046875 0.07635498046875
9879890625.0 0.969512939453125 -0.619659423828125
9911112500.0 0.4525146484375 -1.055419921875
9942334375.0 -0.2689208984375 -1.16058349609375
9973556250.0 -0.9462890625 -0.73858642578125
10004778125.0 -1.14837646484375 -0.0164794921875
10036000000.0 -0.945404052734375 0.61920166015625
10067221875.0 -0.44171142578125 1.09991455078125
10098443750.0 0.37225341796875 1.1842041015625
10129665625.0 1.00640869140625 0.64300537109375
10160887500.0 1.12200927734375 -0.05267333984375
10192109375.0 0.919281005859375 -0.66668701171875
10223331250.0 0.36065673828125 -1.15557861328125
10254553125.0 -0.48846435546875 -1.11578369140625
10285775000.0 -0.9896240234375 -0.534637451171875
10316996875.0 -1.068603515625 0.0780029296875
10348218750.0 -0.9005126953125 0.67095947265625
10379440625.0 -0.3211669921875 1.1793212890625
10410662500.0 0.52972412109375 1.0870361328125
10441884375.0 0.995269775390625 0.52093505859375
10473106250.0 1.111083984375 -0.08447265625
10504328125.0 0.951019287109375 -0.75982666015625
10535550000.0 0.23968505859375 -1.29705810546875
10566771875.0 -0.6614990234375 -1.07952880859375
10597993750.0 -1.0843505859375 -0.45916748046875
10629215625.0 -1.177978515625 0.20672607421875
10660437500.0 -0.888702392578125 0.95452880859375
10691659375.0 -0.00762939453125 1.33929443359375
10722881250.0 0.787384033203125 0.9537353515625
10754103125.0 1.12261962890625 0.3243408203125
10785325000.0 1.1414794921875 -0.367431640625
10816546875.0 0.7005615234375 -1.05267333984375
10847768750.0 -0.1478271484375 -1.23260498046875
10878990625.0 -0.806427001953125 -0.844818115234375
10910212500.0 -1.12542724609375 -0.245361328125
10941434375.0 -1.0987548828125 0.47991943359375
10972656250.0 -0.567626953125 1.08868408203125
11003878125.0 0.218994140625 1.176513671875
11035100000.0 0.850128173828125 0.82275390625
11066321875.0 1.22357177734375 0.17254638671875
11097543750.0 1.09930419921875 -0.68023681640625
11128765625.0 0.384765625 -1.20245361328125
11159987500.0 -0.39739990234375 -1.14178466796875
11191209375.0 -1.00250244140625 -0.70361328125
11222431250.0 -1.27655029296875 0.094482421875
11253653125.0 -0.86053466796875 0.89630126953125
11284875000.0 -0.11370849609375 1.129638671875
11316096875.0 0.513214111328125 0.957977294921875
11347318750.0 1.00531005859375 0.50213623046875
11378540625.0 1.1199951171875 -0.27081298828125
11409762500.0 0.634796142578125 -0.862548828125
11440984375.0 0.03448486328125 -0.9808349609375
11472206250.0 -0.482513427734375 -0.851837158203125
11503428125.0 -0.955902099609375 -0.456268310546875
11534650000.0 -1.0703125 0.29107666015625
11565871875.0 -0.6029052734375 0.85595703125
11597093750.0 -0.017913818359375 0.992462158203125
11628315625.0 0.547515869140625 0.87713623046875
11659537500.0 1.06488037109375 0.3922119140625
11690759375.0 1.0670166015625 -0.4375
11721981250.0 0.51751708984375 -0.94439697265625
11753203125.0 -0.10662841796875 -1.0386962890625
11784425000.0 -0.7274169921875 -0.809814453125
11815646875.0 -1.10430908203125 -0.14947509765625
11846868750.0 -0.893035888671875 0.5543212890625
11878090625.0 -0.390777587890625 0.911163330078125
11909312500.0 0.18878173828125 0.986846923828125
11940534375.0 0.78131103515625 0.69573974609375
11971756250.0 1.027099609375 0.03826904296875
12002978125.0 0.8072509765625 -0.5400390625
12034200000.0 0.3817138671875 -0.891387939453125
12065421875.0 -0.2176513671875 -1.01190185546875
12096643750.0 -0.851959228515625 -0.665252685546875
12127865625.0 -1.036376953125 0.01837158203125
12159087500.0 -0.81597900390625 0.578582763671875
12190309375.0 -0.377593994140625 0.978240966796875
12221531250.0 0.3409423828125 1.09051513671875
12252753125.0 0.981964111328125 0.582305908203125
12283975000.0 1.05792236328125 -0.1322021484375
12315196875.0 0.80120849609375 -0.679168701171875
12346418750.0 0.28070068359375 -1.09429931640625
12377640625.0 -0.54168701171875 -1.06268310546875
12408862500.0 -1.03692626953125 -0.41949462890625
12440084375.0 -1.01080322265625 0.22650146484375
12471306250.0 -0.74322509765625 0.739593505859375
12502528125.0 -0.17913818359375 1.12249755859375
12533750000.0 0.623687744140625 0.995208740234375
12564971875.0 1.0443115234375 0.36334228515625
12596193750.0 1.0318603515625 -0.26824951171875
12627415625.0 0.74884033203125 -0.831939697265625
12658637500.0 0.0782470703125 -1.21051025390625
12689859375.0 -0.740386962890625 -0.96728515625
12721081250.0 -1.12066650390625 -0.30499267578125
12752303125.0 -1.0997314453125 0.38494873046875
12783525000.0 -0.688720703125 1.03204345703125
12814746875.0 0.16717529296875 1.2537841796875
12845968750.0 0.86651611328125 0.812957763671875
12877190625.0 1.12139892578125 0.17095947265625
12908412500.0 1.0589599609375 -0.50494384765625
12939634375.0 0.54266357421875 -1.12060546875
12970856250.0 -0.322021484375 -1.1783447265625
13002078125.0 -0.89813232421875 -0.693817138671875
13033300000.0 -1.10931396484375 -0.0848388671875
13064521875.0 -1.01055908203125 0.5950927734375
13095743750.0 -0.41888427734375 1.1580810546875
13126965625.0 0.41253662109375 1.12261962890625
13158187500.0 0.949920654296875 0.632598876953125
13189409375.0 1.15081787109375 -0.0234375
13220631250.0 0.9375 -0.752349853515625
13251853125.0 0.2330322265625 -1.17559814453125
13283075000.0 -0.51025390625 -1.0216064453125
13314296875.0 -0.991485595703125 -0.52838134765625
