!Created with skrf (http://scikit-rf.org).
# Hz S RI R 50.0 
!freq ReS11 ImS11
45000000.0 -0.07693099975585938 -0.09665679931640625
76221875.0 -0.19632720947265625 -0.047576904296875
107443750.0 -0.254669189453125 0.119598388671875
138665625.0 -0.148101806640625 0.3281402587890625
169887500.0 0.1235504150390625 0.4171905517578125
201109375.0 0.421539306640625 0.280517578125
232331250.0 0.578369140625 -0.057647705078125
263553125.0 0.489105224609375 -0.4524078369140625
294775000.0 0.098297119140625 -0.731842041015625
325996875.0 -0.41497802734375 -0.679779052734375
357218750.0 -0.80535888671875 -0.296722412109375
388440625.0 -0.884796142578125 0.3004150390625
419662500.0 -0.516845703125 0.86553955078125
450884375.0 0.17303466796875 1.02740478515625
482106250.0 0.79766845703125 0.7117919921875
513328125.0 1.1181640625 0.0869140625
544550000.0 1.002685546875 -0.67938232421875
575771875.0 0.33587646484375 -1.23687744140625
606993750.0 -0.55352783203125 -1.176025390625
638215625.0 -1.16461181640625 -0.5894775390625
669437500.0 -1.33837890625 0.23358154296875
700659375.0 -0.96990966796875 1.09527587890625
731881250.0 -0.00372314453125 1.54107666015625
763103125.0 1.00457763671875 1.15447998046875
794325000.0 1.46710205078125 0.2811279296875
825546875.0 1.36572265625 -0.650634765625
856768750.0 0.79327392578125 -1.39837646484375
887990625.0 -0.29217529296875 -1.646240234375
919212500.0 -1.2860107421875 -1.0771484375
950434375.0 -1.64617919921875 -0.05914306640625
981656250.0 -1.38043212890625 0.94439697265625
1012878125.0 -0.52880859375 1.66864013671875
1044100000.0 0.695556640625 1.65899658203125
1075321875.0 1.57220458984375 0.81085205078125
1106543750.0 1.70208740234375 -0.3121337890625
1137765625.0 1.1849365234375 -1.28265380859375
1168987500.0 0.13775634765625 -1.79400634765625
1200209375.0 -1.06024169921875 -1.48126220703125
1231431250.0 -1.72467041015625 -0.4527587890625
1262653125.0 -1.591796875 0.6834716796875
1293875000.0 -0.85052490234375 1.4888916015625
1325096875.0 0.22796630859375 1.70416259765625
1356318750.0 1.233154296875 1.21429443359375
1387540625.0 1.7373046875 0.188720703125
1418762500.0 1.46697998046875 -0.9503173828125
1449984375.0 0.528076171875 -1.62353515625
1481206250.0 -0.54937744140625 -1.5533447265625
1512428125.0 -1.33990478515625 -0.9183349609375
1543650000.0 -1.65289306640625 0.06591796875
1574871875.0 -1.271728515625 1.10736083984375
1606093750.0 -0.2723388671875 1.62890625
1637315625.0 0.74102783203125 1.39849853515625
1668537500.0 1.39422607421875 0.6947021484375
1699759375.0 1.570556640625 -0.277099609375
1730981250.0 1.0625 -1.22772216796875
1762203125.0 0.04217529296875 -1.56787109375
1793425000.0 -0.85443115234375 -1.2244873046875
1824646875.0 -1.3916015625 -0.51397705078125
1855868750.0 -1.47161865234375 0.43194580078125
1887090625.0 -0.87371826171875 1.28326416015625
1918312500.0 0.116943359375 1.484375
1949534375.0 0.92047119140625 1.0875244140625
1980756250.0 1.372802734375 0.36956787109375
2011978125.0 1.3572998046875 -0.53076171875
2043200000.0 0.7489013671875 -1.25933837890625
2074421875.0 -0.156494140625 -1.43072509765625
2105643750.0 -0.95849609375 -1.0709228515625
2136865625.0 -1.4454345703125 -0.30450439453125
2168087500.0 -1.35504150390625 0.67022705078125
2199309375.0 -0.637939453125 1.3494873046875
2230531250.0 0.28143310546875 1.4337158203125
2261753125.0 1.071044921875 1.0123291015625
2292975000.0 1.51171875 0.17010498046875
2324196875.0 1.3038330078125 -0.817626953125
2355418750.0 0.5242919921875 -1.4178466796875
2386640625.0 -0.40386962890625 -1.4464111328125
2417862500.0 -1.1785888671875 -1.02239990234375
2449084375.0 -1.60162353515625 -0.0843505859375
2480306250.0 -1.309326171875 0.92236328125
2511528125.0 -0.4927978515625 1.504638671875
2542750000.0 0.48809814453125 1.5330810546875
2573971875.0 1.3677978515625 0.96649169921875
2605193750.0 1.71380615234375 -0.11175537109375
2636415625.0 1.259033203125 -1.149658203125
2667637500.0 0.306396484375 -1.66387939453125
2698859375.0 -0.76922607421875 -1.53131103515625
2730081250.0 -1.56976318359375 -0.7392578125
2761303125.0 -1.67779541015625 0.38690185546875
2792525000.0 -1.09722900390625 1.3050537109375
2823746875.0 -0.10150146484375 1.7259521484375
2854968750.0 1.00860595703125 1.45233154296875
2886190625.0 1.68792724609375 0.49090576171875
2917412500.0 1.59686279296875 -0.61639404296875
2948634375.0 0.9373779296875 -1.43194580078125
2979856250.0 -0.107421875 -1.77227783203125
3011078125.0 -1.24322509765625 -1.33966064453125
3042300000.0 -1.7706298828125 -0.234375
3073521875.0 -1.50567626953125 0.83612060546875
3104743750.0 -0.76220703125 1.56488037109375
3135965625.0 0.360595703125 1.8056640625
3167187500.0 1.4952392578125 1.1622314453125
3198409375.0 1.81195068359375 -0.07452392578125
3229631250.0 1.34576416015625 -1.07830810546875
3260853125.0 0.4884033203125 -1.6654052734375
3292075000.0 -0.65277099609375 -1.69439697265625
3323296875.0 -1.61614990234375 -0.8780517578125
3354518750.0 -1.726318359375 0.3270263671875
3385740625.0 -1.15386962890625 1.22894287109375
3416962500.0 -0.23040771484375 1.67901611328125
3448184375.0 0.85797119140625 1.51837158203125
3479406250.0 1.6322021484375 0.643310546875
3510628125.0 1.64007568359375 -0.49298095703125
3541850000.0 0.99835205078125 -1.35198974609375
3573071875.0 -0.00811767578125 -1.67974853515625
3604293750.0 -1.02545166015625 -1.334716796875
3635515625.0 -1.62420654296875 -0.438232421875
3666737500.0 -1.55828857421875 0.64398193359375
3697959375.0 -0.8232421875 1.47381591796875
3729181250.0 0.2681884765625 1.62786865234375
3760403125.0 1.15069580078125 1.09588623046875
3791625000.0 1.548828125 0.21795654296875
3822846875.0 1.39910888671875 -0.7596435546875
3854068750.0 0.619384765625 -1.47723388671875
3885290625.0 -0.4202880859375 -1.47857666015625
3916512500.0 -1.14068603515625 -0.9095458984375
3947734375.0 -1.44427490234375 -0.11993408203125
3978956250.0 -1.294677734375 0.77667236328125
4010178125.0 -0.5302734375 1.45135498046875
4041400000.0 0.47222900390625 1.41265869140625
4072621875.0 1.14935302734375 0.84619140625
4103843750.0 1.4410400390625 0.06390380859375
4135065625.0 1.26556396484375 -0.8433837890625
4166287500.0 0.45684814453125 -1.4935302734375
4197509375.0 -0.556396484375 -1.41278076171875
4228731250.0 -1.24493408203125 -0.80181884765625
4259953125.0 -1.50628662109375 0.0694580078125
4291175000.0 -1.18621826171875 1.00750732421875
4322396875.0 -0.28961181640625 1.52288818359375
4353618750.0 0.671142578125 1.347412109375
4384840625.0 1.3199462890625 0.69610595703125
4416062500.0 1.4976806640625 -0.22576904296875
4447284375.0 1.05322265625 -1.10272216796875
4478506250.0 0.1728515625 -1.49224853515625
4509728125.0 -0.73089599609375 -1.304931640625
4540950000.0 -1.390869140625 -0.635498046875
4572171875.0 -1.51983642578125 0.35894775390625
4603393750.0 -0.97137451171875 1.20989990234375
4634615625.0 -0.06170654296875 1.5340576171875
4665837500.0 0.867431640625 1.3018798828125
4697059375.0 1.53790283203125 0.5146484375
4728281250.0 1.526611328125 -0.5811767578125
4759503125.0 0.8221435546875 -1.364501953125
4790725000.0 -0.14471435546875 -1.5701904296875
4821946875.0 -1.0814208984375 -1.19305419921875
4853168750.0 -1.61090087890625 -0.2515869140625
4884390625.0 -1.376220703125 0.7918701171875
4915612500.0 -0.61334228515625 1.40966796875
4946834375.0 0.32781982421875 1.50738525390625
4978056250.0 1.203125 1.01593017578125
5009278125.0 1.55877685546875 0.0399169921875
5040500000.0 1.227783203125 -0.8741455078125
5071721875.0 0.5010986328125 -1.4119873046875
5102943750.0 -0.4444580078125 -1.493896484375
5134165625.0 -1.3333740234375 -0.9044189453125
5165387500.0 -1.565673828125 0.14581298828125
5196609375.0 -1.13446044921875 1.0072021484375
5227831250.0 -0.35723876953125 1.5032958984375
5259053125.0 0.6856689453125 1.4896240234375
5290275000.0 1.518798828125 0.6627197265625
5321496875.0 1.490234375 -0.4300537109375
5352718750.0 0.91973876953125 -1.150634765625
5383940625.0 0.0968017578125 -1.49798583984375
5415162500.0 -0.89825439453125 -1.2822265625
5446384375.0 -1.4814453125 -0.37017822265625
5477606250.0 -1.29681396484375 0.5648193359375
5508828125.0 -0.73095703125 1.14776611328125
5540050000.0 0.0526123046875 1.39630126953125
5571271875.0 0.9365234375 1.107421875
5602493750.0 1.40643310546875 0.25958251953125
5633715625.0 1.22979736328125 -0.61004638671875
5664937500.0 0.6475830078125 -1.1978759765625
5696159375.0 -0.19573974609375 -1.3812255859375
5727381250.0 -1.019287109375 -0.97735595703125
5758603125.0 -1.389892578125 -0.1448974609375
5789825000.0 -1.1922607421875 0.7156982421875
5821046875.0 -0.50634765625 1.3050537109375
5852268750.0 0.40997314453125 1.31060791015625
5883490625.0 1.06939697265625 0.77093505859375
5914712500.0 1.30059814453125 0.02020263671875
5945934375.0 1.0947265625 -0.77374267578125
5977156250.0 0.36114501953125 -1.3096923828125
6008378125.0 -0.50927734375 -1.18121337890625
6039600000.0 -1.0196533203125 -0.64849853515625
6070821875.0 -1.22161865234375 -0.0048828125
6102043750.0 -1.08221435546875 0.76104736328125
6133265625.0 -0.34161376953125 1.34210205078125
6164487500.0 0.5618896484375 1.18603515625
6195709375.0 1.06890869140625 0.6297607421875
6226931250.0 1.27734375 -0.0418701171875
6258153125.0 1.1029052734375 -0.86895751953125
6289375000.0 0.256591796875 -1.44439697265625
6320596875.0 -0.68792724609375 -1.204833984375
6351818750.0 -1.19915771484375 -0.57196044921875
6383040625.0 -1.3524169921875 0.20623779296875
6414262500.0 -0.9989013671875 1.0548095703125
6445484375.0 -0.0791015625 1.45458984375
6476706250.0 0.7943115234375 1.14678955078125
6507928125.0 1.2886962890625 0.46905517578125
6539150000.0 1.345703125 -0.38604736328125
6570371875.0 0.84051513671875 -1.14202880859375
6601593750.0 -0.0162353515625 -1.40179443359375
6632815625.0 -0.8377685546875 -1.134765625
6664037500.0 -1.39935302734375 -0.41986083984375
6695259375.0 -1.37176513671875 0.56396484375
6726481250.0 -0.70977783203125 1.24981689453125
6757703125.0 0.130615234375 1.40545654296875
6788925000.0 0.952880859375 1.1295166015625
6820146875.0 1.5579833984375 0.287353515625
6851368750.0 1.32470703125 -0.81915283203125
6882590625.0 0.50677490234375 -1.33642578125
6913812500.0 -0.2913818359375 -1.35418701171875
6945034375.0 -1.0677490234375 -1.01995849609375
6976256250.0 -1.59027099609375 -0.0938720703125
7007478125.0 -1.2344970703125 0.93096923828125
7038700000.0 -0.40185546875 1.34088134765625
7069921875.0 0.3570556640625 1.32147216796875
7101143750.0 1.11431884765625 0.96759033203125
7132365625.0 1.59735107421875 0.0147705078125
7163587500.0 1.1563720703125 -1.0181884765625
7194809375.0 0.301513671875 -1.39599609375
7226031250.0 -0.5103759765625 -1.32452392578125
7257253125.0 -1.26483154296875 -0.82354736328125
7288475000.0 -1.55657958984375 0.19781494140625
7319696875.0 -1.0284423828125 1.109375
7350918750.0 -0.16436767578125 1.44244384765625
7382140625.0 0.712890625 1.27423095703125
7413362500.0 1.37347412109375 0.576416015625
7444584375.0 1.40911865234375 -0.40521240234375
7475806250.0 0.85687255859375 -1.1396484375
7507028125.0 0.0064697265625 -1.42620849609375
7538250000.0 -0.88421630859375 -1.12261962890625
7569471875.0 -1.3345947265625 -0.31060791015625
7600693750.0 -1.200927734375 0.49505615234375
7631915625.0 -0.71710205078125 1.08416748046875
7663137500.0 0.07818603515625 1.3558349609375
7694359375.0 0.940032958984375 0.98016357421875
7725581250.0 1.2423095703125 0.1805419921875
7756803125.0 1.0814208984375 -0.4981689453125
7788025000.0 0.669921875 -1.04180908203125
7819246875.0 -0.12115478515625 -1.3470458984375
7850468750.0 -0.990386962890625 -0.914703369140625
7881690625.0 -1.23138427734375 -0.1041259765625
7912912500.0 -1.05340576171875 0.553955078125
7944134375.0 -0.60565185546875 1.1112060546875
7975356250.0 0.27081298828125 1.333984375
8006578125.0 1.045166015625 0.7781982421875
8037800000.0 1.19134521484375 0.0169677734375
8069021875.0 1.00537109375 -0.615966796875
8100243750.0 0.499755859375 -1.16156005859375
8131465625.0 -0.38592529296875 -1.25299072265625
8162687500.0 -1.02972412109375 -0.68524169921875
8193909375.0 -1.178955078125 0.0074462890625
8225131250.0 -1.01751708984375 0.67803955078125
8256353125.0 -0.42132568359375 1.24859619140625
8287575000.0 0.49871826171875 1.22479248046875
8318796875.0 1.08123779296875 0.6353759765625
8350018750.0 1.2418212890625 -0.07470703125
8381240625.0 1.02996826171875 -0.83697509765625
8412462500.0 0.2542724609375 -1.37139892578125
8443684375.0 -0.667236328125 -1.1689453125
8474906250.0 -1.17401123046875 -0.53143310546875
8506128125.0 -1.2952880859375 0.23565673828125
8537350000.0 -0.924560546875 1.04345703125
8568571875.0 -0.01654052734375 1.39263916015625
8599793750.0 0.80157470703125 1.0523681640625
8631015625.0 1.24041748046875 0.39837646484375
8662237500.0 1.2835693359375 -0.42755126953125
8693459375.0 0.7364501953125 -1.17529296875
8724681250.0 -0.16082763671875 -1.32916259765625
8755903125.0 -0.8795166015625 -0.956939697265625
8787125000.0 -1.3009033203125 -0.28302001953125
8818346875.0 -1.25006103515625 0.613525390625
8849568750.0 -0.5577392578125 1.2584228515625
8880790625.0 0.297119140625 1.28277587890625
8912012500.0 0.97802734375 0.89154052734375
8943234375.0 1.39715576171875 0.12908935546875
8974456250.0 1.16680908203125 -0.8365478515625
9005678125.0 0.34942626953125 -1.31109619140625
9036900000.0 -0.444580078125 -1.22418212890625
9068121875.0 -1.10028076171875 -0.7845458984375
9099343750.0 -1.43939208984375 0.09576416015625
9130565625.0 -0.97955322265625 1.0111083984375
9161787500.0 -0.15399169921875 1.2813720703125
9193009375.0 0.55316162109375 1.13238525390625
9224231250.0 1.17718505859375 0.65557861328125
9255453125.0 1.39788818359375 -0.29388427734375
9286675000.0 0.80548095703125 -1.08197021484375
9317896875.0 0.02740478515625 -1.24468994140625
9349118750.0 -0.653076171875 -1.0684814453125
9380340625.0 -1.2545166015625 -0.5103759765625
9411562500.0 -1.3092041015625 0.4754638671875
9442784375.0 -0.64794921875 1.1168212890625
9474006250.0 0.0875244140625 1.2098388671875
9505228125.0 0.762115478515625 0.97967529296875
9536450000.0 1.271728515625 0.31439208984375
9567671875.0 1.14306640625 -0.57940673828125
9598893750.0 0.5286865234375 -1.0677490234375
9630115625.0 -0.14306640625 -1.15692138671875
9661337500.0 -0.816131591796875 -0.902130126953125
9692559375.0 -1.23748779296875 -0.191162109375
9723781250.0 -1.04254150390625 0.60125732421875
9755003125.0 -0.48590087890625 1.0499267578125
9786225000.0 0.197265625 1.15814208984375
9817446875.0 0.89239501953125 0.82720947265625
9848668750.0 1.1971435546875 0.07818603515625
9879890625.0 0.96826171875 -0.61663818359375
9911112500.0 0.45263671875 -1.04803466796875
9942334375.0 -0.2664794921875 -1.15753173828125
9973556250.0 -0.941680908203125 -0.738311767578125
10004778125.0 -1.14483642578125 -0.0186767578125
10036000000.0 -0.943023681640625 0.614837646484375
10067221875.0 -0.441650390625 1.09393310546875
10098443750.0 0.36773681640625 1.1793212890625
10129665625.0 1.00115966796875 0.64385986328125
10160887500.0 1.11932373046875 -0.051025390625
10192109375.0 0.91766357421875 -0.66302490234375
10223331250.0 0.36181640625 -1.1495361328125
10254553125.0 -0.48333740234375 -1.112060546875
10285775000.0 -0.983428955078125 -0.5362548828125
10316996875.0 -1.0665283203125 0.07647705078125
10348218750.0 -0.899871826171875 0.66778564453125
10379440625.0 -0.32342529296875 1.17364501953125
10410662500.0 0.5267333984375 1.08453369140625
10441884375.0 0.99151611328125 0.52142333984375
10473106250.0 1.10589599609375 -0.08233642578125
10504328125.0 0.9481201171875 -0.754486083984375
10535550000.0 0.239501953125 -1.29400634765625
10566771875.0 -0.6553955078125 -1.0772705078125
10597993750.0 -1.08001708984375 -0.4578857421875
10629215625.0 -1.17437744140625 0.20526123046875
10660437500.0 -0.88726806640625 0.950592041015625
10691659375.0 -0.01123046875 1.3345947265625
10722881250.0 0.783233642578125 0.95220947265625
10754103125.0 1.11602783203125 0.325927734375
10785325000.0 1.13726806640625 -0.364990234375
10816546875.0 0.70159912109375 -1.04644775390625
10847768750.0 -0.1444091796875 -1.2283935546875
10878990625.0 -0.80230712890625 -0.8428955078125
10910212500.0 -1.121826171875 -0.24560546875
10941434375.0 -1.0965576171875 0.47528076171875
10972656250.0 -0.5673828125 1.084228515625
11003878125.0 0.21649169921875 1.17352294921875
11035100000.0 0.847259521484375 0.821624755859375
11066321875.0 1.2203369140625 0.1739501953125
11097543750.0 1.096923828125 -0.67431640625
11128765625.0 0.3870849609375 -1.19573974609375
11159987500.0 -0.393310546875 -1.13714599609375
11191209375.0 -0.99859619140625 -0.7017822265625
11222431250.0 -1.27044677734375 0.09210205078125
11253653125.0 -0.85888671875 0.8939208984375
11284875000.0 -0.1158447265625 1.12469482421875
11316096875.0 0.50933837890625 0.954315185546875
11347318750.0 1.00201416015625 0.5018310546875
11378540625.0 1.1160888671875 -0.26837158203125
11409762500.0 0.635650634765625 -0.85894775390625
11440984375.0 0.035552978515625 -0.9775390625
11472206250.0 -0.480133056640625 -0.849517822265625
11503428125.0 -0.95159912109375 -0.455657958984375
11534650000.0 -1.0675048828125 0.2877197265625
11565871875.0 -0.60235595703125 0.853912353515625
11597093750.0 -0.01947021484375 0.98968505859375
11628315625.0 0.542572021484375 0.87445068359375
11659537500.0 1.05877685546875 0.392333984375
11690759375.0 1.06451416015625 -0.43194580078125
11721981250.0 0.51708984375 -0.940521240234375
11753203125.0 -0.10504150390625 -1.0350341796875
11784425000.0 -0.7227783203125 -0.808197021484375
11815646875.0 -1.0994873046875 -0.15179443359375
11846868750.0 -0.89093017578125 0.549835205078125
11878090625.0 -0.39093017578125 0.907806396484375
11909312500.0 0.186492919921875 0.983062744140625
11940534375.0 0.779510498046875 0.693756103515625
11971756250.0 1.0238037109375 0.0408935546875
12002978125.0 0.80694580078125 -0.537994384765625
12034200000.0 0.382232666015625 -0.88751220703125
12065421875.0 -0.21441650390625 -1.00799560546875
12096643750.0 -0.8453369140625 -0.666229248046875
12127865625.0 -1.03277587890625 0.01617431640625
12159087500.0 -0.81494140625 0.57427978515625
12190309375.0 -0.377655029296875 0.974365234375
12221531250.0 0.336669921875 1.0875244140625
12252753125.0 0.977508544921875 0.582122802734375
12283975000.0 1.0546875 -0.12744140625
12315196875.0 0.79998779296875 -0.67437744140625
12346418750.0 0.28155517578125 -1.08984375
12377640625.0 -0.53619384765625 -1.0594482421875
12408862500.0 -1.0325927734375 -0.419921875
12440084375.0 -1.0078125 0.22393798828125
12471306250.0 -0.74237060546875 0.73651123046875
12502528125.0 -0.18121337890625 1.11932373046875
12533750000.0 0.619384765625 0.99322509765625
12564971875.0 1.0399169921875 0.3646240234375
12596193750.0 1.02850341796875 -0.26373291015625
12627415625.0 0.747650146484375 -0.828033447265625
12658637500.0 0.079833984375 -1.206298828125
12689859375.0 -0.733184814453125 -0.9656982421875
12721081250.0 -1.11590576171875 -0.3070068359375
12752303125.0 -1.09600830078125 0.381103515625
12783525000.0 -0.6881103515625 1.02606201171875
12814746875.0 0.16461181640625 1.25128173828125
12845968750.0 0.8624267578125 0.810577392578125
12877190625.0 1.1160888671875 0.1712646484375
12908412500.0 1.0550537109375 -0.5008544921875
12939634375.0 0.5423583984375 -1.11553955078125
12970856250.0 -0.3193359375 -1.17498779296875
13002078125.0 -0.893157958984375 -0.6927490234375
13033300000.0 -1.10479736328125 -0.0870361328125
13064521875.0 -1.008056640625 0.59185791015625
13095743750.0 -0.41986083984375 1.1541748046875
13126965625.0 0.4083251953125 1.11981201171875
13158187500.0 0.944793701171875 0.633026123046875
13189409375.0 1.148681640625 -0.0216064453125
13220631250.0 0.93646240234375 -0.748992919921875
13251853125.0 0.23504638671875 -1.1707763671875
13283075000.0 -0.50689697265625 -1.0191650390625
13314296875.0 -0.9844970703125 -0.530731201171875
13345518750.0 -1.1348876953125 0.17578125
