!Created with skrf (http://scikit-rf.org).
# Hz S RI R 50.0 
!freq ReS11 ImS11
45000000.0 -0.07714462280273438 -0.0968017578125
76221875.0 -0.19647216796875 -0.0474853515625
107443750.0 -0.2549591064453125 0.1197967529296875
138665625.0 -0.1479644775390625 0.3287353515625
169887500.0 0.1236419677734375 0.41729736328125
201109375.0 0.422027587890625 0.2806854248046875
232331250.0 0.57891845703125 -0.057586669921875
263553125.0 0.4894256591796875 -0.453155517578125
294775000.0 0.098175048828125 -0.732879638671875
325996875.0 -0.41583251953125 -0.68048095703125
357218750.0 -0.806732177734375 -0.296630859375
388440625.0 -0.885833740234375 0.301055908203125
419662500.0 -0.5169677734375 0.867156982421875
450884375.0 0.17364501953125 1.029052734375
482106250.0 0.798858642578125 0.712066650390625
513328125.0 1.11956787109375 0.08673095703125
544550000.0 1.0032958984375 -0.68035888671875
575771875.0 0.33575439453125 -1.2381591796875
606993750.0 -0.554443359375 -1.1768798828125
638215625.0 -1.16595458984375 -0.58984375
669437500.0 -1.339599609375 0.23406982421875
700659375.0 -0.9703369140625 1.09661865234375
731881250.0 -0.00323486328125 1.54296875
763103125.0 1.0059814453125 1.1552734375
794325000.0 1.46856689453125 0.2813720703125
825546875.0 1.36700439453125 -0.65191650390625
856768750.0 0.79376220703125 -1.400634765625
887990625.0 -0.2935791015625 -1.64794921875
919212500.0 -1.28863525390625 -1.07769775390625
950434375.0 -1.64788818359375 -0.05816650390625
981656250.0 -1.3819580078125 0.9462890625
1012878125.0 -0.52886962890625 1.671875
1044100000.0 0.69793701171875 1.6612548828125
1075321875.0 1.5748291015625 0.8111572265625
1106543750.0 1.7042236328125 -0.31378173828125
1137765625.0 1.185791015625 -1.2847900390625
1168987500.0 0.13690185546875 -1.79693603515625
1200209375.0 -1.06219482421875 -1.48284912109375
1231431250.0 -1.72747802734375 -0.452880859375
1262653125.0 -1.59393310546875 0.68511962890625
1293875000.0 -0.85137939453125 1.4912109375
1325096875.0 0.22900390625 1.705810546875
1356318750.0 1.23529052734375 1.21551513671875
1387540625.0 1.7393798828125 0.18792724609375
1418762500.0 1.46868896484375 -0.9517822265625
1449984375.0 0.52874755859375 -1.62542724609375
1481206250.0 -0.55023193359375 -1.55499267578125
1512428125.0 -1.341552734375 -0.9188232421875
1543650000.0 -1.6549072265625 0.066162109375
1574871875.0 -1.2724609375 1.10894775390625
1606093750.0 -0.27197265625 1.63037109375
1637315625.0 0.74249267578125 1.399658203125
1668537500.0 1.39581298828125 0.69482421875
1699759375.0 1.57269287109375 -0.2774658203125
1730981250.0 1.06298828125 -1.22918701171875
1762203125.0 0.04150390625 -1.56982421875
1793425000.0 -0.85540771484375 -1.225341796875
1824646875.0 -1.39312744140625 -0.5146484375
1855868750.0 -1.47314453125 0.432373046875
1887090625.0 -0.8743896484375 1.284423828125
1918312500.0 0.11767578125 1.48614501953125
1949534375.0 0.921630859375 1.08856201171875
1980756250.0 1.374267578125 0.3695068359375
2011978125.0 1.358642578125 -0.53204345703125
2043200000.0 0.74896240234375 -1.260986328125
2074421875.0 -0.1573486328125 -1.43243408203125
2105643750.0 -0.9599609375 -1.071533203125
2136865625.0 -1.44671630859375 -0.3045654296875
2168087500.0 -1.35595703125 0.67071533203125
2199309375.0 -0.63836669921875 1.350830078125
2230531250.0 0.28204345703125 1.435302734375
2261753125.0 1.07244873046875 1.01275634765625
2292975000.0 1.513427734375 0.16986083984375
2324196875.0 1.30438232421875 -0.8182373046875
2355418750.0 0.52447509765625 -1.4193115234375
2386640625.0 -0.40447998046875 -1.44781494140625
2417862500.0 -1.18109130859375 -1.02374267578125
2449084375.0 -1.60455322265625 -0.08343505859375
2480306250.0 -1.3106689453125 0.9256591796875
2511528125.0 -0.493408203125 1.50653076171875
2542750000.0 0.4881591796875 1.53485107421875
2573971875.0 1.37237548828125 0.96649169921875
2605193750.0 1.71649169921875 -0.1134033203125
2636415625.0 1.2606201171875 -1.15283203125
2667637500.0 0.3050537109375 -1.66717529296875
2698859375.0 -0.76983642578125 -1.5325927734375
2730081250.0 -1.57269287109375 -0.7396240234375
2761303125.0 -1.67999267578125 0.38861083984375
2792525000.0 -1.09820556640625 1.30645751953125
2823746875.0 -0.10150146484375 1.727294921875
2854968750.0 1.01202392578125 1.45416259765625
2886190625.0 1.6904296875 0.4906005859375
2917412500.0 1.59820556640625 -0.61676025390625
2948634375.0 0.9384765625 -1.43304443359375
2979856250.0 -0.10809326171875 -1.77471923828125
3011078125.0 -1.24755859375 -1.34088134765625
3042300000.0 -1.773681640625 -0.23358154296875
3073521875.0 -1.50738525390625 0.83734130859375
3104743750.0 -0.7628173828125 1.567138671875
3135965625.0 0.361572265625 1.807373046875
3167187500.0 1.49761962890625 1.1634521484375
3198409375.0 1.81414794921875 -0.07550048828125
3229631250.0 1.34765625 -1.080810546875
3260853125.0 0.48809814453125 -1.66802978515625
3292075000.0 -0.6541748046875 -1.69610595703125
3323296875.0 -1.61883544921875 -0.87811279296875
3354518750.0 -1.72796630859375 0.32830810546875
3385740625.0 -1.15460205078125 1.2293701171875
3416962500.0 -0.23095703125 1.68096923828125
3448184375.0 0.86090087890625 1.52069091796875
3479406250.0 1.6346435546875 0.64324951171875
3510628125.0 1.6431884765625 -0.4952392578125
3541850000.0 0.99957275390625 -1.35394287109375
3573071875.0 -0.00787353515625 -1.681396484375
3604293750.0 -1.02606201171875 -1.33599853515625
3635515625.0 -1.6273193359375 -0.43756103515625
3666737500.0 -1.5599365234375 0.64508056640625
3697959375.0 -0.8236083984375 1.47540283203125
3729181250.0 0.26873779296875 1.62908935546875
3760403125.0 1.15228271484375 1.096923828125
3791625000.0 1.55072021484375 0.21795654296875
3822846875.0 1.40087890625 -0.7615966796875
3854068750.0 0.61932373046875 -1.4793701171875
3885290625.0 -0.4200439453125 -1.4793701171875
3916512500.0 -1.14105224609375 -0.909912109375
3947734375.0 -1.44647216796875 -0.11956787109375
3978956250.0 -1.296142578125 0.77874755859375
4010178125.0 -0.53125 1.45367431640625
4041400000.0 0.4732666015625 1.4140625
4072621875.0 1.15179443359375 0.84722900390625
4103843750.0 1.443603515625 0.0628662109375
4135065625.0 1.2664794921875 -0.8446044921875
4166287500.0 0.4573974609375 -1.494384765625
4197509375.0 -0.55731201171875 -1.414306640625
4228731250.0 -1.2476806640625 -0.8018798828125
4259953125.0 -1.50848388671875 0.071044921875
4291175000.0 -1.1873779296875 1.00897216796875
4322396875.0 -0.28857421875 1.52587890625
4353618750.0 0.6727294921875 1.3487548828125
4384840625.0 1.3211669921875 0.6964111328125
4416062500.0 1.49957275390625 -0.22772216796875
4447284375.0 1.05389404296875 -1.1036376953125
4478506250.0 0.17193603515625 -1.49420166015625
4509728125.0 -0.73211669921875 -1.306884765625
4540950000.0 -1.39227294921875 -0.6357421875
4572171875.0 -1.5206298828125 0.35968017578125
4603393750.0 -0.97216796875 1.2105712890625
4634615625.0 -0.061767578125 1.534912109375
4665837500.0 0.86981201171875 1.303466796875
4697059375.0 1.5413818359375 0.514404296875
4728281250.0 1.5274658203125 -0.581787109375
4759503125.0 0.82244873046875 -1.36651611328125
4790725000.0 -0.1455078125 -1.57147216796875
4821946875.0 -1.08245849609375 -1.19384765625
4853168750.0 -1.61322021484375 -0.25042724609375
4884390625.0 -1.3765869140625 0.7918701171875
4915612500.0 -0.6129150390625 1.4111328125
4946834375.0 0.32904052734375 1.50830078125
4978056250.0 1.2037353515625 1.0164794921875
5009278125.0 1.5609130859375 0.0391845703125
5040500000.0 1.22833251953125 -0.8756103515625
5071721875.0 0.5013427734375 -1.4140625
5102943750.0 -0.445556640625 -1.4949951171875
5134165625.0 -1.3331298828125 -0.9052734375
5165387500.0 -1.56719970703125 0.14544677734375
5196609375.0 -1.13604736328125 1.00836181640625
5227831250.0 -0.35693359375 1.50543212890625
5259053125.0 0.6873779296875 1.4920654296875
5290275000.0 1.52093505859375 0.66278076171875
5321496875.0 1.49176025390625 -0.430419921875
5352718750.0 0.92059326171875 -1.1529541015625
5383940625.0 0.0966796875 -1.4990234375
5415162500.0 -0.90087890625 -1.2833251953125
5446384375.0 -1.48388671875 -0.369384765625
5477606250.0 -1.29827880859375 0.56597900390625
5508828125.0 -0.73095703125 1.1513671875
5540050000.0 0.0528564453125 1.39691162109375
5571271875.0 0.93817138671875 1.107666015625
5602493750.0 1.40704345703125 0.25982666015625
5633715625.0 1.231689453125 -0.6116943359375
5664937500.0 0.647705078125 -1.2008056640625
5696159375.0 -0.19635009765625 -1.38287353515625
5727381250.0 -1.02069091796875 -0.97845458984375
5758603125.0 -1.38995361328125 -0.14605712890625
5789825000.0 -1.193359375 0.716796875
5821046875.0 -0.506591796875 1.30609130859375
5852268750.0 0.41131591796875 1.3128662109375
5883490625.0 1.07000732421875 0.77203369140625
5914712500.0 1.3026123046875 0.01959228515625
5945934375.0 1.095703125 -0.77593994140625
5977156250.0 0.3614501953125 -1.31158447265625
6008378125.0 -0.50970458984375 -1.182373046875
6039600000.0 -1.0218505859375 -0.6488037109375
6070821875.0 -1.22265625 -0.00555419921875
6102043750.0 -1.0828857421875 0.7615966796875
6133265625.0 -0.3421630859375 1.343994140625
6164487500.0 0.5621337890625 1.1866455078125
6195709375.0 1.07012939453125 0.6298828125
6226931250.0 1.27850341796875 -0.0419921875
6258153125.0 1.10400390625 -0.87054443359375
6289375000.0 0.2557373046875 -1.44647216796875
6320596875.0 -0.688720703125 -1.205810546875
6351818750.0 -1.19903564453125 -0.5723876953125
6383040625.0 -1.35528564453125 0.2078857421875
6414262500.0 -1.00006103515625 1.05718994140625
6445484375.0 -0.0777587890625 1.456298828125
6476706250.0 0.79364013671875 1.14727783203125
6507928125.0 1.29058837890625 0.46978759765625
6539150000.0 1.34661865234375 -0.385498046875
6570371875.0 0.8406982421875 -1.14190673828125
6601593750.0 -0.01788330078125 -1.40423583984375
6632815625.0 -0.84014892578125 -1.13604736328125
6664037500.0 -1.4013671875 -0.41998291015625
6695259375.0 -1.37359619140625 0.5657958984375
6726481250.0 -0.709716796875 1.2518310546875
6757703125.0 0.130859375 1.40692138671875
6788925000.0 0.9542236328125 1.13055419921875
6820146875.0 1.55908203125 0.28839111328125
6851368750.0 1.3255615234375 -0.81805419921875
6882590625.0 0.50653076171875 -1.33843994140625
6913812500.0 -0.29205322265625 -1.35601806640625
6945034375.0 -1.06915283203125 -1.021728515625
6976256250.0 -1.59307861328125 -0.09326171875
7007478125.0 -1.2364501953125 0.93389892578125
7038700000.0 -0.40130615234375 1.343017578125
7069921875.0 0.35736083984375 1.32293701171875
7101143750.0 1.11773681640625 0.96844482421875
7132365625.0 1.59906005859375 0.014892578125
7163587500.0 1.15625 -1.0206298828125
7194809375.0 0.3011474609375 -1.39776611328125
7226031250.0 -0.51171875 -1.32550048828125
7257253125.0 -1.265625 -0.82366943359375
7288475000.0 -1.556884765625 0.19683837890625
7319696875.0 -1.0296630859375 1.11181640625
7350918750.0 -0.16387939453125 1.4447021484375
7382140625.0 0.7149658203125 1.27618408203125
7413362500.0 1.37652587890625 0.57696533203125
7444584375.0 1.4110107421875 -0.40728759765625
7475806250.0 0.859130859375 -1.14044189453125
7507028125.0 0.00390625 -1.4293212890625
7538250000.0 -0.88531494140625 -1.12371826171875
7569471875.0 -1.33538818359375 -0.3118896484375
7600693750.0 -1.20172119140625 0.49627685546875
7631915625.0 -0.718505859375 1.0848388671875
7663137500.0 0.0799560546875 1.35736083984375
7694359375.0 0.939208984375 0.980224609375
7725581250.0 1.24407958984375 0.17926025390625
7756803125.0 1.0816650390625 -0.49920654296875
7788025000.0 0.67047119140625 -1.04205322265625
7819246875.0 -0.1190185546875 -1.34619140625
7850468750.0 -0.991546630859375 -0.9168701171875
7881690625.0 -1.2315673828125 -0.105224609375
7912912500.0 -1.05352783203125 0.55401611328125
7944134375.0 -0.60614013671875 1.110107421875
7975356250.0 0.27056884765625 1.33612060546875
8006578125.0 1.04522705078125 0.7794189453125
8037800000.0 1.19317626953125 0.016845703125
8069021875.0 1.006591796875 -0.61669921875
8100243750.0 0.49847412109375 -1.16168212890625
8131465625.0 -0.387451171875 -1.2540283203125
8162687500.0 -1.03173828125 -0.685791015625
8193909375.0 -1.17962646484375 0.0081787109375
8225131250.0 -1.017333984375 0.67694091796875
8256353125.0 -0.4210205078125 1.2484130859375
8287575000.0 0.500732421875 1.22637939453125
8318796875.0 1.08001708984375 0.63629150390625
8350018750.0 1.24481201171875 -0.07562255859375
8381240625.0 1.03167724609375 -0.83917236328125
8412462500.0 0.255859375 -1.3719482421875
8443684375.0 -0.6669921875 -1.17022705078125
8474906250.0 -1.1754150390625 -0.53253173828125
8506128125.0 -1.296630859375 0.2359619140625
8537350000.0 -0.92474365234375 1.04742431640625
8568571875.0 -0.0162353515625 1.39520263671875
8599793750.0 0.80316162109375 1.0537109375
8631015625.0 1.24151611328125 0.3983154296875
8662237500.0 1.28704833984375 -0.4285888671875
8693459375.0 0.736572265625 -1.17706298828125
8724681250.0 -0.16351318359375 -1.33258056640625
8755903125.0 -0.87890625 -0.958404541015625
8787125000.0 -1.30548095703125 -0.2816162109375
8818346875.0 -1.24969482421875 0.61224365234375
8849568750.0 -0.557373046875 1.25921630859375
8880790625.0 0.299072265625 1.28460693359375
8912012500.0 0.97998046875 0.89251708984375
8943234375.0 1.39874267578125 0.1292724609375
8974456250.0 1.166259765625 -0.837890625
9005678125.0 0.34906005859375 -1.31365966796875
9036900000.0 -0.44647216796875 -1.22625732421875
9068121875.0 -1.10113525390625 -0.7855224609375
9099343750.0 -1.442138671875 0.09747314453125
9130565625.0 -0.97979736328125 1.01312255859375
9161787500.0 -0.1558837890625 1.28033447265625
9193009375.0 0.55523681640625 1.133544921875
9224231250.0 1.178955078125 0.6546630859375
9255453125.0 1.3997802734375 -0.296630859375
9286675000.0 0.80780029296875 -1.08441162109375
9317896875.0 0.02581787109375 -1.2479248046875
9349118750.0 -0.6549072265625 -1.06982421875
9380340625.0 -1.25714111328125 -0.50970458984375
9411562500.0 -1.31170654296875 0.477294921875
9442784375.0 -0.64886474609375 1.11688232421875
9474006250.0 0.087890625 1.21014404296875
9505228125.0 0.764404296875 0.980072021484375
9536450000.0 1.27093505859375 0.3154296875
9567671875.0 1.14422607421875 -0.57879638671875
9598893750.0 0.52923583984375 -1.0694580078125
9630115625.0 -0.1439208984375 -1.15863037109375
9661337500.0 -0.818878173828125 -0.903778076171875
9692559375.0 -1.23736572265625 -0.1915283203125
9723781250.0 -1.04364013671875 0.60211181640625
9755003125.0 -0.48699951171875 1.048583984375
9786225000.0 0.1964111328125 1.15814208984375
9817446875.0 0.894866943359375 0.827362060546875
9848668750.0 1.197265625 0.07916259765625
9879890625.0 0.96826171875 -0.615478515625
9911112500.0 0.4521484375 -1.05023193359375
9942334375.0 -0.26776123046875 -1.16033935546875
9973556250.0 -0.942230224609375 -0.738250732421875
10004778125.0 -1.1453857421875 -0.01947021484375
10036000000.0 -0.945343017578125 0.61566162109375
10067221875.0 -0.44219970703125 1.0960693359375
10098443750.0 0.36962890625 1.181884765625
10129665625.0 1.00299072265625 0.64532470703125
10160887500.0 1.120361328125 -0.052001953125
10192109375.0 0.917724609375 -0.662933349609375
10223331250.0 0.3614501953125 -1.153076171875
10254553125.0 -0.4857177734375 -1.114501953125
10285775000.0 -0.987274169921875 -0.535064697265625
10316996875.0 -1.0682373046875 0.0772705078125
10348218750.0 -0.900115966796875 0.669097900390625
10379440625.0 -0.322265625 1.17449951171875
10410662500.0 0.52606201171875 1.08514404296875
10441884375.0 0.991546630859375 0.521820068359375
10473106250.0 1.10888671875 -0.08465576171875
10504328125.0 0.949249267578125 -0.7567138671875
10535550000.0 0.240478515625 -1.29534912109375
10566771875.0 -0.6553955078125 -1.07806396484375
10597993750.0 -1.0814208984375 -0.45904541015625
10629215625.0 -1.17437744140625 0.203857421875
10660437500.0 -0.88812255859375 0.951751708984375
10691659375.0 -0.01123046875 1.33453369140625
10722881250.0 0.783966064453125 0.95269775390625
10754103125.0 1.1201171875 0.32427978515625
10785325000.0 1.1392822265625 -0.36676025390625
10816546875.0 0.7005615234375 -1.0482177734375
10847768750.0 -0.14556884765625 -1.22991943359375
10878990625.0 -0.8037109375 -0.8438720703125
10910212500.0 -1.12274169921875 -0.2451171875
10941434375.0 -1.0980224609375 0.47613525390625
10972656250.0 -0.56817626953125 1.08642578125
11003878125.0 0.2183837890625 1.175048828125
11035100000.0 0.84716796875 0.82183837890625
11066321875.0 1.2191162109375 0.17547607421875
11097543750.0 1.09783935546875 -0.676025390625
11128765625.0 0.38653564453125 -1.19757080078125
11159987500.0 -0.395751953125 -1.13909912109375
11191209375.0 -1.00079345703125 -0.70220947265625
11222431250.0 -1.27264404296875 0.0933837890625
11253653125.0 -0.859771728515625 0.894683837890625
11284875000.0 -0.11456298828125 1.1265869140625
11316096875.0 0.51129150390625 0.956634521484375
11347318750.0 1.0015869140625 0.50250244140625
11378540625.0 1.11700439453125 -0.26800537109375
11409762500.0 0.634857177734375 -0.86163330078125
11440984375.0 0.035430908203125 -0.978851318359375
11472206250.0 -0.481475830078125 -0.850250244140625
11503428125.0 -0.95184326171875 -0.456024169921875
11534650000.0 -1.068359375 0.28729248046875
11565871875.0 -0.602386474609375 0.854095458984375
11597093750.0 -0.02008056640625 0.989898681640625
11628315625.0 0.544464111328125 0.875152587890625
11659537500.0 1.05987548828125 0.3934326171875
11690759375.0 1.06573486328125 -0.43292236328125
11721981250.0 0.51763916015625 -0.938934326171875
11753203125.0 -0.10595703125 -1.03741455078125
11784425000.0 -0.723846435546875 -0.80889892578125
11815646875.0 -1.09954833984375 -0.15289306640625
11846868750.0 -0.891845703125 0.549041748046875
11878090625.0 -0.390533447265625 0.909515380859375
11909312500.0 0.186920166015625 0.984954833984375
11940534375.0 0.778411865234375 0.695526123046875
11971756250.0 1.0245361328125 0.0396728515625
12002978125.0 0.80645751953125 -0.538543701171875
12034200000.0 0.382476806640625 -0.889190673828125
12065421875.0 -0.21490478515625 -1.0093994140625
12096643750.0 -0.847686767578125 -0.66558837890625
12127865625.0 -1.03369140625 0.0162353515625
12159087500.0 -0.815155029296875 0.575347900390625
12190309375.0 -0.377655029296875 0.97467041015625
12221531250.0 0.33758544921875 1.0877685546875
12252753125.0 0.980224609375 0.5816650390625
12283975000.0 1.0543212890625 -0.1273193359375
12315196875.0 0.800445556640625 -0.676544189453125
12346418750.0 0.2811279296875 -1.09149169921875
12377640625.0 -0.5379638671875 -1.061279296875
12408862500.0 -1.033447265625 -0.42059326171875
12440084375.0 -1.00909423828125 0.2242431640625
12471306250.0 -0.741943359375 0.73638916015625
12502528125.0 -0.18023681640625 1.119873046875
12533750000.0 0.620849609375 0.99359130859375
12564971875.0 1.0416259765625 0.3636474609375
12596193750.0 1.029052734375 -0.263916015625
12627415625.0 0.74810791015625 -0.82879638671875
12658637500.0 0.0809326171875 -1.20562744140625
12689859375.0 -0.734222412109375 -0.967193603515625
12721081250.0 -1.117431640625 -0.3067626953125
12752303125.0 -1.09796142578125 0.38214111328125
12783525000.0 -0.6876220703125 1.02752685546875
12814746875.0 0.1634521484375 1.25054931640625
12845968750.0 0.8621826171875 0.81121826171875
12877190625.0 1.11724853515625 0.17266845703125
12908412500.0 1.05596923828125 -0.5009765625
12939634375.0 0.5438232421875 -1.11669921875
12970856250.0 -0.32122802734375 -1.1756591796875
13002078125.0 -0.89471435546875 -0.6934814453125
13033300000.0 -1.10546875 -0.08660888671875
13064521875.0 -1.00970458984375 0.59295654296875
13095743750.0 -0.42059326171875 1.1552734375
13126965625.0 0.408203125 1.12078857421875
13158187500.0 0.94677734375 0.63177490234375
13189409375.0 1.14837646484375 -0.02044677734375
13220631250.0 0.936981201171875 -0.7490234375
13251853125.0 0.2349853515625 -1.1717529296875
13283075000.0 -0.50592041015625 -1.01959228515625
13314296875.0 -0.987030029296875 -0.52978515625
13345518750.0 -1.13421630859375 0.17596435546875
13376740625.0 -0.75360107421875 0.85711669921875
