!Created with skrf (http://scikit-rf.org).
# Hz S RI R 50.0 
!freq ReS11 ImS11
45000000.0 -0.07717132568359375 -0.09661483764648438
76221875.0 -0.19666290283203125 -0.04730224609375
107443750.0 -0.25494384765625 0.12017822265625
138665625.0 -0.1481170654296875 0.3287353515625
169887500.0 0.1240081787109375 0.41754150390625
201109375.0 0.422149658203125 0.2805938720703125
232331250.0 0.579132080078125 -0.058013916015625
263553125.0 0.4896240234375 -0.4533538818359375
294775000.0 0.097747802734375 -0.733062744140625
325996875.0 -0.416351318359375 -0.6807861328125
357218750.0 -0.807220458984375 -0.296478271484375
388440625.0 -0.88616943359375 0.30169677734375
419662500.0 -0.516815185546875 0.867279052734375
450884375.0 0.1741943359375 1.0291748046875
482106250.0 0.79931640625 0.712432861328125
513328125.0 1.1199951171875 0.08624267578125
544550000.0 1.0035400390625 -0.68109130859375
575771875.0 0.33544921875 -1.2391357421875
606993750.0 -0.554931640625 -1.1771240234375
638215625.0 -1.16656494140625 -0.5894775390625
669437500.0 -1.33984375 0.2347412109375
700659375.0 -0.97052001953125 1.097412109375
731881250.0 -0.00274658203125 1.54351806640625
763103125.0 1.0067138671875 1.15533447265625
794325000.0 1.46929931640625 0.281005859375
825546875.0 1.3673095703125 -0.6524658203125
856768750.0 0.793701171875 -1.40185546875
887990625.0 -0.2943115234375 -1.64825439453125
919212500.0 -1.2896728515625 -1.07769775390625
950434375.0 -1.6492919921875 -0.0577392578125
981656250.0 -1.382568359375 0.9476318359375
1012878125.0 -0.52850341796875 1.67279052734375
1044100000.0 0.6986083984375 1.66162109375
1075321875.0 1.57574462890625 0.810791015625
1106543750.0 1.7047119140625 -0.31488037109375
1137765625.0 1.1856689453125 -1.28582763671875
1168987500.0 0.13665771484375 -1.7974853515625
1200209375.0 -1.0628662109375 -1.48272705078125
1231431250.0 -1.7279052734375 -0.451904296875
1262653125.0 -1.59405517578125 0.6866455078125
1293875000.0 -0.8507080078125 1.492431640625
1325096875.0 0.22918701171875 1.7060546875
1356318750.0 1.2359619140625 1.215576171875
1387540625.0 1.74005126953125 0.18743896484375
1418762500.0 1.4686279296875 -0.95306396484375
1449984375.0 0.5284423828125 -1.62603759765625
1481206250.0 -0.55108642578125 -1.55572509765625
1512428125.0 -1.3427734375 -0.918701171875
1543650000.0 -1.65576171875 0.0667724609375
1574871875.0 -1.2724609375 1.109375
1606093750.0 -0.27142333984375 1.63134765625
1637315625.0 0.743408203125 1.39984130859375
1668537500.0 1.3966064453125 0.6947021484375
1699759375.0 1.5728759765625 -0.27880859375
1730981250.0 1.0628662109375 -1.2298583984375
1762203125.0 0.04095458984375 -1.570068359375
1793425000.0 -0.8564453125 -1.225830078125
1824646875.0 -1.39337158203125 -0.51416015625
1855868750.0 -1.47344970703125 0.43310546875
1887090625.0 -0.8740234375 1.2857666015625
1918312500.0 0.11798095703125 1.4864501953125
1949534375.0 0.9219970703125 1.08856201171875
1980756250.0 1.37554931640625 0.3692626953125
2011978125.0 1.35968017578125 -0.53271484375
2043200000.0 0.7490234375 -1.2615966796875
2074421875.0 -0.15771484375 -1.43280029296875
2105643750.0 -0.9605712890625 -1.07147216796875
2136865625.0 -1.4473876953125 -0.3037109375
2168087500.0 -1.35626220703125 0.671630859375
2199309375.0 -0.6378173828125 1.3515625
2230531250.0 0.28302001953125 1.4354248046875
2261753125.0 1.07293701171875 1.013427734375
2292975000.0 1.51416015625 0.1693115234375
2324196875.0 1.30499267578125 -0.81939697265625
2355418750.0 0.52423095703125 -1.41998291015625
2386640625.0 -0.40478515625 -1.44818115234375
2417862500.0 -1.18218994140625 -1.0235595703125
2449084375.0 -1.60528564453125 -0.08270263671875
2480306250.0 -1.310791015625 0.92718505859375
2511528125.0 -0.49298095703125 1.50714111328125
2542750000.0 0.48931884765625 1.53497314453125
2573971875.0 1.37091064453125 0.96771240234375
2605193750.0 1.716552734375 -0.1136474609375
2636415625.0 1.2607421875 -1.15228271484375
2667637500.0 0.30499267578125 -1.667236328125
2698859375.0 -0.77081298828125 -1.5333251953125
2730081250.0 -1.57342529296875 -0.7392578125
2761303125.0 -1.679931640625 0.388671875
2792525000.0 -1.0980224609375 1.3079833984375
2823746875.0 -0.100830078125 1.72918701171875
2854968750.0 1.01287841796875 1.45391845703125
2886190625.0 1.69049072265625 0.4906005859375
2917412500.0 1.59893798828125 -0.61834716796875
2948634375.0 0.93841552734375 -1.4332275390625
2979856250.0 -0.1090087890625 -1.7763671875
3011078125.0 -1.24713134765625 -1.341552734375
3042300000.0 -1.77496337890625 -0.2333984375
3073521875.0 -1.50762939453125 0.8397216796875
3104743750.0 -0.7625732421875 1.56829833984375
3135965625.0 0.36383056640625 1.80841064453125
3167187500.0 1.4991455078125 1.1630859375
3198409375.0 1.814453125 -0.076171875
3229631250.0 1.34820556640625 -1.08184814453125
3260853125.0 0.4881591796875 -1.66839599609375
3292075000.0 -0.654541015625 -1.6964111328125
3323296875.0 -1.619384765625 -0.878173828125
3354518750.0 -1.72918701171875 0.3291015625
3385740625.0 -1.15447998046875 1.23089599609375
3416962500.0 -0.230712890625 1.6805419921875
3448184375.0 0.86065673828125 1.52001953125
3479406250.0 1.63677978515625 0.64263916015625
3510628125.0 1.6441650390625 -0.49609375
3541850000.0 0.99951171875 -1.3548583984375
3573071875.0 -0.00921630859375 -1.68212890625
3604293750.0 -1.0284423828125 -1.336181640625
3635515625.0 -1.6275634765625 -0.437744140625
3666737500.0 -1.56109619140625 0.64642333984375
3697959375.0 -0.82373046875 1.47625732421875
3729181250.0 0.26971435546875 1.6304931640625
3760403125.0 1.15277099609375 1.09637451171875
3791625000.0 1.55120849609375 0.21746826171875
3822846875.0 1.40057373046875 -0.7611083984375
3854068750.0 0.6197509765625 -1.4805908203125
3885290625.0 -0.4215087890625 -1.4794921875
3916512500.0 -1.14154052734375 -0.90960693359375
3947734375.0 -1.447509765625 -0.11859130859375
3978956250.0 -1.296875 0.78057861328125
4010178125.0 -0.531005859375 1.45343017578125
4041400000.0 0.473388671875 1.4141845703125
4072621875.0 1.152099609375 0.84716796875
4103843750.0 1.44378662109375 0.06298828125
4135065625.0 1.26678466796875 -0.84576416015625
4166287500.0 0.45672607421875 -1.4954833984375
4197509375.0 -0.55694580078125 -1.41424560546875
4228731250.0 -1.24761962890625 -0.8018798828125
4259953125.0 -1.50848388671875 0.0716552734375
4291175000.0 -1.1875 1.00994873046875
4322396875.0 -0.28857421875 1.52557373046875
4353618750.0 0.6741943359375 1.34930419921875
4384840625.0 1.322998046875 0.69622802734375
4416062500.0 1.5008544921875 -0.228515625
4447284375.0 1.05401611328125 -1.10345458984375
4478506250.0 0.17156982421875 -1.49456787109375
4509728125.0 -0.7327880859375 -1.3067626953125
4540950000.0 -1.39263916015625 -0.6351318359375
4572171875.0 -1.520751953125 0.36004638671875
4603393750.0 -0.97198486328125 1.21234130859375
4634615625.0 -0.06072998046875 1.535888671875
4665837500.0 0.87042236328125 1.3037109375
4697059375.0 1.5416259765625 0.51470947265625
4728281250.0 1.5286865234375 -0.583251953125
4759503125.0 0.82244873046875 -1.3665771484375
4790725000.0 -0.14581298828125 -1.5716552734375
4821946875.0 -1.08258056640625 -1.1929931640625
4853168750.0 -1.61309814453125 -0.2501220703125
4884390625.0 -1.3770751953125 0.793701171875
4915612500.0 -0.61285400390625 1.4127197265625
4946834375.0 0.32940673828125 1.50823974609375
4978056250.0 1.20556640625 1.0166015625
5009278125.0 1.56072998046875 0.0391845703125
5040500000.0 1.22802734375 -0.87469482421875
5071721875.0 0.5 -1.41558837890625
5102943750.0 -0.44708251953125 -1.49627685546875
5134165625.0 -1.335693359375 -0.90509033203125
5165387500.0 -1.56732177734375 0.146728515625
5196609375.0 -1.1358642578125 1.01055908203125
5227831250.0 -0.3570556640625 1.50634765625
5259053125.0 0.68798828125 1.4918212890625
5290275000.0 1.5211181640625 0.66229248046875
5321496875.0 1.49237060546875 -0.431640625
5352718750.0 0.9205322265625 -1.15325927734375
5383940625.0 0.095703125 -1.50018310546875
5415162500.0 -0.90081787109375 -1.28289794921875
5446384375.0 -1.4837646484375 -0.36920166015625
5477606250.0 -1.298583984375 0.56640625
5508828125.0 -0.73052978515625 1.15130615234375
5540050000.0 0.05438232421875 1.398193359375
5571271875.0 0.93798828125 1.1080322265625
5602493750.0 1.407470703125 0.25982666015625
5633715625.0 1.2315673828125 -0.612548828125
5664937500.0 0.64801025390625 -1.2001953125
5696159375.0 -0.19708251953125 -1.383056640625
5727381250.0 -1.0208740234375 -0.9783935546875
5758603125.0 -1.3905029296875 -0.14508056640625
5789825000.0 -1.193603515625 0.7171630859375
5821046875.0 -0.506591796875 1.30657958984375
5852268750.0 0.4119873046875 1.3133544921875
5883490625.0 1.0699462890625 0.77197265625
5914712500.0 1.3031005859375 0.0185546875
5945934375.0 1.0960693359375 -0.775634765625
5977156250.0 0.36077880859375 -1.312255859375
6008378125.0 -0.50958251953125 -1.1822509765625
6039600000.0 -1.0213623046875 -0.64910888671875
6070821875.0 -1.2242431640625 -0.00335693359375
6102043750.0 -1.082275390625 0.76214599609375
6133265625.0 -0.341796875 1.343505859375
6164487500.0 0.5631103515625 1.18658447265625
6195709375.0 1.070556640625 0.62982177734375
6226931250.0 1.27972412109375 -0.04327392578125
6258153125.0 1.10369873046875 -0.87115478515625
6289375000.0 0.25592041015625 -1.4466552734375
6320596875.0 -0.689208984375 -1.20550537109375
6351818750.0 -1.19952392578125 -0.5721435546875
6383040625.0 -1.3541259765625 0.206787109375
6414262500.0 -0.999755859375 1.05792236328125
6445484375.0 -0.0780029296875 1.45672607421875
6476706250.0 0.79571533203125 1.1475830078125
6507928125.0 1.290771484375 0.4696044921875
6539150000.0 1.3466796875 -0.38616943359375
6570371875.0 0.84088134765625 -1.14404296875
6601593750.0 -0.01806640625 -1.40496826171875
6632815625.0 -0.8399658203125 -1.13580322265625
6664037500.0 -1.40203857421875 -0.41943359375
6695259375.0 -1.3731689453125 0.565673828125
6726481250.0 -0.7103271484375 1.2506103515625
6757703125.0 0.1309814453125 1.4066162109375
6788925000.0 0.95562744140625 1.13031005859375
6820146875.0 1.5589599609375 0.28857421875
6851368750.0 1.326171875 -0.82000732421875
6882590625.0 0.506103515625 -1.338134765625
6913812500.0 -0.29248046875 -1.3563232421875
6945034375.0 -1.06976318359375 -1.021240234375
6976256250.0 -1.593994140625 -0.092529296875
7007478125.0 -1.236328125 0.932373046875
7038700000.0 -0.401123046875 1.343994140625
7069921875.0 0.3594970703125 1.323974609375
7101143750.0 1.119384765625 0.9676513671875
7132365625.0 1.59808349609375 0.013916015625
7163587500.0 1.15655517578125 -1.02130126953125
7194809375.0 0.30194091796875 -1.39739990234375
7226031250.0 -0.51239013671875 -1.32489013671875
7257253125.0 -1.26715087890625 -0.8243408203125
7288475000.0 -1.55804443359375 0.19915771484375
7319696875.0 -1.03045654296875 1.109619140625
7350918750.0 -0.163818359375 1.44586181640625
7382140625.0 0.71551513671875 1.27593994140625
7413362500.0 1.37469482421875 0.576416015625
7444584375.0 1.41131591796875 -0.4053955078125
7475806250.0 0.85772705078125 -1.14239501953125
7507028125.0 0.006103515625 -1.4306640625
7538250000.0 -0.88873291015625 -1.12353515625
7569471875.0 -1.33587646484375 -0.31072998046875
7600693750.0 -1.20208740234375 0.4970703125
7631915625.0 -0.717529296875 1.08575439453125
7663137500.0 0.08013916015625 1.3575439453125
7694359375.0 0.940155029296875 0.979583740234375
7725581250.0 1.24407958984375 0.1800537109375
7756803125.0 1.08197021484375 -0.49951171875
7788025000.0 0.66986083984375 -1.044189453125
7819246875.0 -0.12054443359375 -1.34710693359375
7850468750.0 -0.9913330078125 -0.915802001953125
7881690625.0 -1.23211669921875 -0.10498046875
7912912500.0 -1.05487060546875 0.55401611328125
7944134375.0 -0.60491943359375 1.114013671875
7975356250.0 0.27178955078125 1.33575439453125
8006578125.0 1.0487060546875 0.7794189453125
8037800000.0 1.19488525390625 0.0152587890625
8069021875.0 1.00750732421875 -0.61590576171875
8100243750.0 0.4993896484375 -1.16265869140625
8131465625.0 -0.38848876953125 -1.254638671875
8162687500.0 -1.0328369140625 -0.685546875
8193909375.0 -1.1805419921875 0.00933837890625
8225131250.0 -1.01751708984375 0.67877197265625
8256353125.0 -0.42169189453125 1.2481689453125
8287575000.0 0.50177001953125 1.22650146484375
8318796875.0 1.08135986328125 0.6353759765625
8350018750.0 1.24462890625 -0.07659912109375
8381240625.0 1.03131103515625 -0.8402099609375
8412462500.0 0.2552490234375 -1.372802734375
8443684375.0 -0.67156982421875 -1.17041015625
8474906250.0 -1.1759033203125 -0.53265380859375
8506128125.0 -1.2972412109375 0.23675537109375
8537350000.0 -0.9248046875 1.045654296875
8568571875.0 -0.0167236328125 1.39324951171875
8599793750.0 0.8017578125 1.052490234375
8631015625.0 1.24090576171875 0.39892578125
8662237500.0 1.28790283203125 -0.4300537109375
8693459375.0 0.7359619140625 -1.17730712890625
8724681250.0 -0.1639404296875 -1.3319091796875
8755903125.0 -0.880096435546875 -0.957916259765625
8787125000.0 -1.30279541015625 -0.2818603515625
8818346875.0 -1.250732421875 0.615966796875
8849568750.0 -0.55621337890625 1.26129150390625
8880790625.0 0.298828125 1.28485107421875
8912012500.0 0.979766845703125 0.8929443359375
8943234375.0 1.40020751953125 0.1282958984375
8974456250.0 1.16693115234375 -0.83868408203125
9005678125.0 0.3489990234375 -1.31390380859375
9036900000.0 -0.44390869140625 -1.22467041015625
9068121875.0 -1.1029052734375 -0.78570556640625
9099343750.0 -1.44073486328125 0.09710693359375
9130565625.0 -0.98028564453125 1.010009765625
9161787500.0 -0.15423583984375 1.2843017578125
9193009375.0 0.55731201171875 1.134521484375
9224231250.0 1.1796875 0.655029296875
9255453125.0 1.39898681640625 -0.29638671875
9286675000.0 0.80694580078125 -1.08526611328125
9317896875.0 0.0269775390625 -1.2454833984375
9349118750.0 -0.65484619140625 -1.069580078125
9380340625.0 -1.2574462890625 -0.50927734375
9411562500.0 -1.31109619140625 0.47662353515625
9442784375.0 -0.6475830078125 1.11846923828125
9474006250.0 0.08795166015625 1.21075439453125
9505228125.0 0.76531982421875 0.980377197265625
9536450000.0 1.27496337890625 0.312744140625
9567671875.0 1.143798828125 -0.57904052734375
9598893750.0 0.5291748046875 -1.07080078125
9630115625.0 -0.1431884765625 -1.15948486328125
9661337500.0 -0.818756103515625 -0.902862548828125
9692559375.0 -1.2393798828125 -0.18975830078125
9723781250.0 -1.04437255859375 0.6044921875
9755003125.0 -0.48614501953125 1.05096435546875
9786225000.0 0.19818115234375 1.15924072265625
9817446875.0 0.89678955078125 0.82818603515625
9848668750.0 1.19775390625 0.07806396484375
9879890625.0 0.968902587890625 -0.618896484375
9911112500.0 0.4525146484375 -1.05224609375
9942334375.0 -0.2667236328125 -1.1583251953125
9973556250.0 -0.9437255859375 -0.7388916015625
10004778125.0 -1.14556884765625 -0.017578125
10036000000.0 -0.944061279296875 0.61474609375
10067221875.0 -0.44268798828125 1.09576416015625
10098443750.0 0.36956787109375 1.181396484375
10129665625.0 1.0029296875 0.64447021484375
10160887500.0 1.1201171875 -0.052001953125
10192109375.0 0.917816162109375 -0.663421630859375
10223331250.0 0.36187744140625 -1.15179443359375
10254553125.0 -0.48651123046875 -1.11444091796875
10285775000.0 -0.987274169921875 -0.534820556640625
10316996875.0 -1.0672607421875 0.07769775390625
10348218750.0 -0.9005126953125 0.670989990234375
10379440625.0 -0.322509765625 1.17431640625
10410662500.0 0.527587890625 1.0855712890625
10441884375.0 0.992706298828125 0.521026611328125
10473106250.0 1.1097412109375 -0.08477783203125
10504328125.0 0.949462890625 -0.757293701171875
10535550000.0 0.23944091796875 -1.296630859375
10566771875.0 -0.657470703125 -1.07769775390625
10597993750.0 -1.078857421875 -0.4600830078125
10629215625.0 -1.17559814453125 0.2059326171875
10660437500.0 -0.887908935546875 0.952484130859375
10691659375.0 -0.01055908203125 1.3358154296875
10722881250.0 0.7845458984375 0.953216552734375
10754103125.0 1.1207275390625 0.32421875
10785325000.0 1.13970947265625 -0.3675537109375
10816546875.0 0.70074462890625 -1.05029296875
10847768750.0 -0.14697265625 -1.23040771484375
10878990625.0 -0.803619384765625 -0.84405517578125
10910212500.0 -1.12451171875 -0.24578857421875
10941434375.0 -1.097900390625 0.47833251953125
10972656250.0 -0.56817626953125 1.0848388671875
11003878125.0 0.21807861328125 1.17431640625
11035100000.0 0.847930908203125 0.8223876953125
11066321875.0 1.22149658203125 0.17333984375
11097543750.0 1.098876953125 -0.67608642578125
11128765625.0 0.38568115234375 -1.19927978515625
11159987500.0 -0.3974609375 -1.1397705078125
11191209375.0 -0.99957275390625 -0.702484130859375
11222431250.0 -1.273193359375 0.09356689453125
11253653125.0 -0.8602294921875 0.894500732421875
11284875000.0 -0.11431884765625 1.12689208984375
11316096875.0 0.512542724609375 0.957122802734375
11347318750.0 1.00274658203125 0.50201416015625
11378540625.0 1.1180419921875 -0.2706298828125
11409762500.0 0.63507080078125 -0.85833740234375
11440984375.0 0.035064697265625 -0.97943115234375
11472206250.0 -0.48114013671875 -0.850616455078125
11503428125.0 -0.9534912109375 -0.455841064453125
11534650000.0 -1.0684814453125 0.28851318359375
11565871875.0 -0.602203369140625 0.855804443359375
11597093750.0 -0.01788330078125 0.991790771484375
11628315625.0 0.544097900390625 0.875518798828125
11659537500.0 1.06103515625 0.3919677734375
11690759375.0 1.06500244140625 -0.43304443359375
11721981250.0 0.51788330078125 -0.942291259765625
11753203125.0 -0.1065673828125 -1.03656005859375
11784425000.0 -0.7237548828125 -0.8089599609375
11815646875.0 -1.1019287109375 -0.1513671875
11846868750.0 -0.892303466796875 0.55316162109375
11878090625.0 -0.390869140625 0.90924072265625
11909312500.0 0.187652587890625 0.986358642578125
11940534375.0 0.779815673828125 0.69549560546875
11971756250.0 1.02545166015625 0.0390625
12002978125.0 0.80682373046875 -0.539154052734375
12034200000.0 0.3817138671875 -0.890045166015625
12065421875.0 -0.21673583984375 -1.01007080078125
12096643750.0 -0.847686767578125 -0.66607666015625
12127865625.0 -1.0335693359375 0.0169677734375
12159087500.0 -0.815643310546875 0.576507568359375
12190309375.0 -0.3782958984375 0.975311279296875
12221531250.0 0.33837890625 1.08837890625
12252753125.0 0.979461669921875 0.582489013671875
12283975000.0 1.0546875 -0.1282958984375
12315196875.0 0.80072021484375 -0.676055908203125
12346418750.0 0.28179931640625 -1.09222412109375
12377640625.0 -0.53704833984375 -1.060546875
12408862500.0 -1.03436279296875 -0.4200439453125
12440084375.0 -1.0096435546875 0.22576904296875
12471306250.0 -0.741424560546875 0.7381591796875
12502528125.0 -0.17877197265625 1.12237548828125
12533750000.0 0.61895751953125 0.992767333984375
12564971875.0 1.0408935546875 0.36376953125
12596193750.0 1.02923583984375 -0.26507568359375
12627415625.0 0.748321533203125 -0.83050537109375
12658637500.0 0.07867431640625 -1.20855712890625
12689859375.0 -0.7340087890625 -0.966217041015625
12721081250.0 -1.11669921875 -0.3062744140625
12752303125.0 -1.0986328125 0.3831787109375
12783525000.0 -0.6876220703125 1.02825927734375
12814746875.0 0.164306640625 1.250244140625
12845968750.0 0.862884521484375 0.811676025390625
12877190625.0 1.1175537109375 0.1712646484375
12908412500.0 1.0552978515625 -0.50054931640625
12939634375.0 0.5435791015625 -1.11737060546875
12970856250.0 -0.31982421875 -1.17572021484375
13002078125.0 -0.89544677734375 -0.694000244140625
13033300000.0 -1.1058349609375 -0.0858154296875
13064521875.0 -1.01019287109375 0.5953369140625
13095743750.0 -0.42022705078125 1.15594482421875
13126965625.0 0.40826416015625 1.11944580078125
13158187500.0 0.94677734375 0.631378173828125
13189409375.0 1.14727783203125 -0.02081298828125
13220631250.0 0.93646240234375 -0.74755859375
13251853125.0 0.23480224609375 -1.1712646484375
13283075000.0 -0.50665283203125 -1.0198974609375
13314296875.0 -0.9876708984375 -0.529510498046875
13345518750.0 -1.13616943359375 0.178466796875
13376740625.0 -0.753082275390625 0.85614013671875
13407962500.0 -0.0596923828125 1.06744384765625
