!Created with skrf (http://scikit-rf.org).
# Hz S RI R 50.0 
!freq ReS11 ImS11
45000000.0 -0.0770263671875 -0.0966033935546875
76221875.0 -0.19635772705078125 -0.04740142822265625
107443750.0 -0.2546844482421875 0.1197357177734375
138665625.0 -0.14794921875 0.328399658203125
169887500.0 0.123748779296875 0.4171905517578125
201109375.0 0.42169189453125 0.2805328369140625
232331250.0 0.57861328125 -0.057647705078125
263553125.0 0.48907470703125 -0.4526824951171875
294775000.0 0.09820556640625 -0.732177734375
325996875.0 -0.415374755859375 -0.680145263671875
357218750.0 -0.80584716796875 -0.29656982421875
388440625.0 -0.884979248046875 0.301025390625
419662500.0 -0.5167236328125 0.865966796875
450884375.0 0.17333984375 1.0279541015625
482106250.0 0.798309326171875 0.711761474609375
513328125.0 1.1185302734375 0.0867919921875
544550000.0 1.0028076171875 -0.67974853515625
575771875.0 0.335693359375 -1.2371826171875
606993750.0 -0.55389404296875 -1.17633056640625
638215625.0 -1.16546630859375 -0.58929443359375
669437500.0 -1.33868408203125 0.23394775390625
700659375.0 -0.9698486328125 1.0958251953125
731881250.0 -0.003173828125 1.541748046875
763103125.0 1.00518798828125 1.154296875
794325000.0 1.46746826171875 0.28125
825546875.0 1.36572265625 -0.65118408203125
856768750.0 0.7933349609375 -1.39923095703125
887990625.0 -0.29290771484375 -1.64654541015625
919212500.0 -1.28680419921875 -1.07684326171875
950434375.0 -1.646728515625 -0.058349609375
981656250.0 -1.380615234375 0.9451904296875
1012878125.0 -0.528564453125 1.669677734375
1044100000.0 0.69659423828125 1.65936279296875
1075321875.0 1.57342529296875 0.81048583984375
1106543750.0 1.70245361328125 -0.31280517578125
1137765625.0 1.1849365234375 -1.282958984375
1168987500.0 0.137451171875 -1.7945556640625
1200209375.0 -1.0609130859375 -1.4815673828125
1231431250.0 -1.725341796875 -0.45269775390625
1262653125.0 -1.59197998046875 0.68414306640625
1293875000.0 -0.8502197265625 1.4896240234375
1325096875.0 0.22869873046875 1.7047119140625
1356318750.0 1.23419189453125 1.21453857421875
1387540625.0 1.7376708984375 0.18841552734375
1418762500.0 1.46734619140625 -0.951171875
1449984375.0 0.52813720703125 -1.62420654296875
1481206250.0 -0.5496826171875 -1.55377197265625
1512428125.0 -1.340576171875 -0.918212890625
1543650000.0 -1.6539306640625 0.06591796875
1574871875.0 -1.27130126953125 1.1077880859375
1606093750.0 -0.27178955078125 1.62982177734375
1637315625.0 0.741943359375 1.39862060546875
1668537500.0 1.39459228515625 0.69451904296875
1699759375.0 1.5711669921875 -0.2774658203125
1730981250.0 1.062255859375 -1.2279052734375
1762203125.0 0.041748046875 -1.56866455078125
1793425000.0 -0.85498046875 -1.22479248046875
1824646875.0 -1.39215087890625 -0.513916015625
1855868750.0 -1.4718017578125 0.43194580078125
1887090625.0 -0.8734130859375 1.2838134765625
1918312500.0 0.11724853515625 1.48504638671875
1949534375.0 0.9205322265625 1.08770751953125
1980756250.0 1.37359619140625 0.36932373046875
2011978125.0 1.3577880859375 -0.531494140625
2043200000.0 0.7484130859375 -1.26007080078125
2074421875.0 -0.15716552734375 -1.43109130859375
2105643750.0 -0.958984375 -1.0706787109375
2136865625.0 -1.44610595703125 -0.30377197265625
2168087500.0 -1.35491943359375 0.6702880859375
2199309375.0 -0.63787841796875 1.34991455078125
2230531250.0 0.28173828125 1.43426513671875
2261753125.0 1.07135009765625 1.01220703125
2292975000.0 1.51202392578125 0.17010498046875
2324196875.0 1.3038330078125 -0.81817626953125
2355418750.0 0.5244140625 -1.417724609375
2386640625.0 -0.40386962890625 -1.4468994140625
2417862500.0 -1.1783447265625 -1.022705078125
2449084375.0 -1.6019287109375 -0.083984375
2480306250.0 -1.3095703125 0.9246826171875
2511528125.0 -0.49285888671875 1.5062255859375
2542750000.0 0.48724365234375 1.5335693359375
2573971875.0 1.3697509765625 0.96649169921875
2605193750.0 1.71429443359375 -0.11285400390625
2636415625.0 1.25909423828125 -1.14984130859375
2667637500.0 0.3056640625 -1.66461181640625
2698859375.0 -0.76800537109375 -1.53204345703125
2730081250.0 -1.57147216796875 -0.73907470703125
2761303125.0 -1.67889404296875 0.38836669921875
2792525000.0 -1.0975341796875 1.3052978515625
2823746875.0 -0.1011962890625 1.72735595703125
2854968750.0 1.0106201171875 1.452880859375
2886190625.0 1.688720703125 0.4908447265625
2917412500.0 1.596923828125 -0.61614990234375
2948634375.0 0.9381103515625 -1.43206787109375
2979856250.0 -0.10791015625 -1.773193359375
3011078125.0 -1.24505615234375 -1.3399658203125
3042300000.0 -1.7724609375 -0.23406982421875
3073521875.0 -1.50604248046875 0.836669921875
3104743750.0 -0.76153564453125 1.567138671875
3135965625.0 0.36163330078125 1.8060302734375
3167187500.0 1.49591064453125 1.16217041015625
3198409375.0 1.81219482421875 -0.07470703125
3229631250.0 1.3460693359375 -1.0797119140625
3260853125.0 0.488037109375 -1.66619873046875
3292075000.0 -0.65484619140625 -1.695068359375
3323296875.0 -1.6171875 -0.8775634765625
3354518750.0 -1.72662353515625 0.3277587890625
3385740625.0 -1.1536865234375 1.23046875
3416962500.0 -0.2305908203125 1.6787109375
3448184375.0 0.85870361328125 1.51904296875
3479406250.0 1.63232421875 0.6431884765625
3510628125.0 1.6409912109375 -0.494140625
3541850000.0 0.9986572265625 -1.35223388671875
3573071875.0 -0.00787353515625 -1.67938232421875
3604293750.0 -1.027099609375 -1.33526611328125
3635515625.0 -1.62493896484375 -0.43743896484375
3666737500.0 -1.55889892578125 0.64453125
3697959375.0 -0.8236083984375 1.47320556640625
3729181250.0 0.26763916015625 1.62762451171875
3760403125.0 1.15093994140625 1.09600830078125
3791625000.0 1.54986572265625 0.21734619140625
3822846875.0 1.398681640625 -0.7586669921875
3854068750.0 0.61883544921875 -1.47906494140625
3885290625.0 -0.42071533203125 -1.47894287109375
3916512500.0 -1.1402587890625 -0.9090576171875
3947734375.0 -1.44537353515625 -0.119140625
3978956250.0 -1.2952880859375 0.77691650390625
4010178125.0 -0.530517578125 1.45166015625
4041400000.0 0.47235107421875 1.4130859375
4072621875.0 1.1505126953125 0.84674072265625
4103843750.0 1.442138671875 0.06317138671875
4135065625.0 1.265869140625 -0.8450927734375
4166287500.0 0.45721435546875 -1.49359130859375
4197509375.0 -0.5556640625 -1.41265869140625
4228731250.0 -1.24627685546875 -0.80194091796875
4259953125.0 -1.5059814453125 0.06976318359375
4291175000.0 -1.1865234375 1.0072021484375
4322396875.0 -0.28839111328125 1.52435302734375
4353618750.0 0.67230224609375 1.347412109375
4384840625.0 1.31964111328125 0.69573974609375
4416062500.0 1.498291015625 -0.22686767578125
4447284375.0 1.0533447265625 -1.1009521484375
4478506250.0 0.171875 -1.49310302734375
4509728125.0 -0.73150634765625 -1.3052978515625
4540950000.0 -1.3914794921875 -0.6353759765625
4572171875.0 -1.520751953125 0.359130859375
4603393750.0 -0.9716796875 1.21038818359375
4634615625.0 -0.06146240234375 1.534912109375
4665837500.0 0.867919921875 1.3018798828125
4697059375.0 1.53857421875 0.514892578125
4728281250.0 1.52691650390625 -0.58203125
4759503125.0 0.82171630859375 -1.3653564453125
4790725000.0 -0.14459228515625 -1.56976318359375
4821946875.0 -1.0826416015625 -1.19256591796875
4853168750.0 -1.6104736328125 -0.25079345703125
4884390625.0 -1.37652587890625 0.79266357421875
4915612500.0 -0.61236572265625 1.41168212890625
4946834375.0 0.32794189453125 1.50665283203125
4978056250.0 1.20220947265625 1.01568603515625
5009278125.0 1.559814453125 0.0400390625
5040500000.0 1.227783203125 -0.87384033203125
5071721875.0 0.5010986328125 -1.4119873046875
5102943750.0 -0.44561767578125 -1.494384765625
5134165625.0 -1.3341064453125 -0.90423583984375
5165387500.0 -1.5657958984375 0.14544677734375
5196609375.0 -1.13470458984375 1.0069580078125
5227831250.0 -0.357177734375 1.50421142578125
5259053125.0 0.68695068359375 1.4898681640625
5290275000.0 1.518798828125 0.66229248046875
5321496875.0 1.49053955078125 -0.4295654296875
5352718750.0 0.9197998046875 -1.15155029296875
5383940625.0 0.0963134765625 -1.49810791015625
5415162500.0 -0.89898681640625 -1.28240966796875
5446384375.0 -1.482421875 -0.37017822265625
5477606250.0 -1.298095703125 0.566162109375
5508828125.0 -0.7308349609375 1.1484375
5540050000.0 0.05364990234375 1.396484375
5571271875.0 0.9368896484375 1.10736083984375
5602493750.0 1.4066162109375 0.260009765625
5633715625.0 1.2303466796875 -0.61126708984375
5664937500.0 0.64752197265625 -1.1998291015625
5696159375.0 -0.1956787109375 -1.38104248046875
5727381250.0 -1.01995849609375 -0.9775390625
5758603125.0 -1.38922119140625 -0.1458740234375
5789825000.0 -1.1927490234375 0.7171630859375
5821046875.0 -0.5062255859375 1.30517578125
5852268750.0 0.40997314453125 1.31097412109375
5883490625.0 1.0697021484375 0.77117919921875
5914712500.0 1.30084228515625 0.0198974609375
5945934375.0 1.09478759765625 -0.77398681640625
5977156250.0 0.361328125 -1.3106689453125
6008378125.0 -0.50830078125 -1.1807861328125
6039600000.0 -1.02069091796875 -0.6484375
6070821875.0 -1.22259521484375 -0.00433349609375
6102043750.0 -1.08172607421875 0.76092529296875
6133265625.0 -0.341796875 1.34295654296875
6164487500.0 0.56182861328125 1.186279296875
6195709375.0 1.06884765625 0.62933349609375
6226931250.0 1.27801513671875 -0.042236328125
6258153125.0 1.103515625 -0.86981201171875
6289375000.0 0.25701904296875 -1.443603515625
6320596875.0 -0.68756103515625 -1.2049560546875
6351818750.0 -1.19842529296875 -0.57147216796875
6383040625.0 -1.3531494140625 0.2059326171875
6414262500.0 -0.9989013671875 1.055908203125
6445484375.0 -0.078369140625 1.455078125
6476706250.0 0.79449462890625 1.1473388671875
6507928125.0 1.28875732421875 0.4698486328125
6539150000.0 1.3458251953125 -0.38531494140625
6570371875.0 0.84051513671875 -1.1417236328125
6601593750.0 -0.01727294921875 -1.403564453125
6632815625.0 -0.83843994140625 -1.13482666015625
6664037500.0 -1.39984130859375 -0.419921875
6695259375.0 -1.37298583984375 0.56494140625
6726481250.0 -0.70941162109375 1.24981689453125
6757703125.0 0.13043212890625 1.40582275390625
6788925000.0 0.953369140625 1.129638671875
6820146875.0 1.55816650390625 0.287841796875
6851368750.0 1.32464599609375 -0.81646728515625
6882590625.0 0.50616455078125 -1.33758544921875
6913812500.0 -0.29217529296875 -1.35516357421875
6945034375.0 -1.06854248046875 -1.0211181640625
6976256250.0 -1.59130859375 -0.09368896484375
7007478125.0 -1.23419189453125 0.9300537109375
7038700000.0 -0.40252685546875 1.3416748046875
7069921875.0 0.3560791015625 1.3214111328125
7101143750.0 1.11767578125 0.96697998046875
7132365625.0 1.59820556640625 0.01416015625
7163587500.0 1.15631103515625 -1.02020263671875
7194809375.0 0.30145263671875 -1.39630126953125
7226031250.0 -0.509033203125 -1.32281494140625
7257253125.0 -1.26495361328125 -0.82305908203125
7288475000.0 -1.55596923828125 0.1966552734375
7319696875.0 -1.02886962890625 1.1075439453125
7350918750.0 -0.16455078125 1.442626953125
7382140625.0 0.7130126953125 1.27423095703125
7413362500.0 1.37432861328125 0.57647705078125
7444584375.0 1.410888671875 -0.40740966796875
7475806250.0 0.85711669921875 -1.14263916015625
7507028125.0 0.004638671875 -1.4281005859375
7538250000.0 -0.8868408203125 -1.1234130859375
7569471875.0 -1.3353271484375 -0.31121826171875
7600693750.0 -1.20068359375 0.49566650390625
7631915625.0 -0.7166748046875 1.08428955078125
7663137500.0 0.07806396484375 1.35650634765625
7694359375.0 0.938232421875 0.9798583984375
7725581250.0 1.24072265625 0.18115234375
7756803125.0 1.08111572265625 -0.49774169921875
7788025000.0 0.669189453125 -1.04095458984375
7819246875.0 -0.12054443359375 -1.345458984375
7850468750.0 -0.989654541015625 -0.91510009765625
7881690625.0 -1.2298583984375 -0.1053466796875
7912912500.0 -1.0537109375 0.552734375
7944134375.0 -0.6060791015625 1.111083984375
7975356250.0 0.2703857421875 1.33306884765625
8006578125.0 1.04534912109375 0.77850341796875
8037800000.0 1.1927490234375 0.01617431640625
8069021875.0 1.00628662109375 -0.619140625
8100243750.0 0.49945068359375 -1.1610107421875
8131465625.0 -0.38580322265625 -1.25286865234375
8162687500.0 -1.0316162109375 -0.6851806640625
8193909375.0 -1.1796875 0.00836181640625
8225131250.0 -1.01727294921875 0.67822265625
8256353125.0 -0.42169189453125 1.248779296875
8287575000.0 0.4981689453125 1.22369384765625
8318796875.0 1.08001708984375 0.6357421875
8350018750.0 1.243408203125 -0.07501220703125
8381240625.0 1.0301513671875 -0.8363037109375
8412462500.0 0.2548828125 -1.370849609375
8443684375.0 -0.6688232421875 -1.16851806640625
8474906250.0 -1.17401123046875 -0.53192138671875
8506128125.0 -1.29736328125 0.2357177734375
8537350000.0 -0.92327880859375 1.0447998046875
8568571875.0 -0.01641845703125 1.39373779296875
8599793750.0 0.80072021484375 1.05242919921875
8631015625.0 1.240966796875 0.3985595703125
8662237500.0 1.2847900390625 -0.4278564453125
8693459375.0 0.73663330078125 -1.17547607421875
8724681250.0 -0.161865234375 -1.32989501953125
8755903125.0 -0.879150390625 -0.956329345703125
8787125000.0 -1.30242919921875 -0.2818603515625
8818346875.0 -1.25030517578125 0.61358642578125
8849568750.0 -0.55712890625 1.2584228515625
8880790625.0 0.29864501953125 1.283447265625
8912012500.0 0.97918701171875 0.891632080078125
8943234375.0 1.3983154296875 0.12933349609375
8974456250.0 1.16595458984375 -0.83740234375
9005678125.0 0.34918212890625 -1.3121337890625
9036900000.0 -0.4429931640625 -1.22357177734375
9068121875.0 -1.099365234375 -0.78607177734375
9099343750.0 -1.4404296875 0.097900390625
9130565625.0 -0.9793701171875 1.00872802734375
9161787500.0 -0.15533447265625 1.2821044921875
9193009375.0 0.5540771484375 1.13311767578125
9224231250.0 1.178955078125 0.65478515625
9255453125.0 1.39813232421875 -0.2943115234375
9286675000.0 0.8062744140625 -1.085693359375
9317896875.0 0.02752685546875 -1.244873046875
9349118750.0 -0.6534423828125 -1.06866455078125
9380340625.0 -1.25555419921875 -0.5093994140625
9411562500.0 -1.31005859375 0.4759521484375
9442784375.0 -0.64849853515625 1.115234375
9474006250.0 0.08721923828125 1.20953369140625
9505228125.0 0.764190673828125 0.979461669921875
9536450000.0 1.272705078125 0.313720703125
9567671875.0 1.14483642578125 -0.58050537109375
9598893750.0 0.529052734375 -1.06817626953125
9630115625.0 -0.14337158203125 -1.1572265625
9661337500.0 -0.81658935546875 -0.90203857421875
9692559375.0 -1.23895263671875 -0.19036865234375
9723781250.0 -1.04266357421875 0.60205078125
9755003125.0 -0.48553466796875 1.050048828125
9786225000.0 0.19732666015625 1.15753173828125
9817446875.0 0.89337158203125 0.826995849609375
9848668750.0 1.19708251953125 0.07867431640625
9879890625.0 0.9671630859375 -0.615447998046875
9911112500.0 0.4512939453125 -1.05133056640625
9942334375.0 -0.26629638671875 -1.158203125
9973556250.0 -0.942535400390625 -0.73895263671875
10004778125.0 -1.14373779296875 -0.02044677734375
10036000000.0 -0.94378662109375 0.613922119140625
10067221875.0 -0.44189453125 1.09600830078125
10098443750.0 0.369140625 1.18084716796875
10129665625.0 1.0018310546875 0.642822265625
10160887500.0 1.12005615234375 -0.05291748046875
10192109375.0 0.9168701171875 -0.660491943359375
10223331250.0 0.36212158203125 -1.14996337890625
10254553125.0 -0.48492431640625 -1.11474609375
10285775000.0 -0.98406982421875 -0.535491943359375
10316996875.0 -1.066162109375 0.075439453125
10348218750.0 -0.89996337890625 0.668060302734375
10379440625.0 -0.32269287109375 1.17413330078125
10410662500.0 0.52679443359375 1.0849609375
10441884375.0 0.991241455078125 0.521392822265625
10473106250.0 1.10797119140625 -0.0836181640625
10504328125.0 0.948822021484375 -0.75604248046875
10535550000.0 0.2401123046875 -1.29119873046875
10566771875.0 -0.65869140625 -1.07745361328125
10597993750.0 -1.08099365234375 -0.45806884765625
10629215625.0 -1.1739501953125 0.204345703125
10660437500.0 -0.88848876953125 0.950469970703125
10691659375.0 -0.0079345703125 1.338134765625
10722881250.0 0.78253173828125 0.952392578125
10754103125.0 1.118408203125 0.3250732421875
10785325000.0 1.13848876953125 -0.3656005859375
10816546875.0 0.70123291015625 -1.04779052734375
10847768750.0 -0.14434814453125 -1.2288818359375
10878990625.0 -0.802642822265625 -0.843994140625
10910212500.0 -1.12176513671875 -0.24609375
10941434375.0 -1.0963134765625 0.47540283203125
10972656250.0 -0.56890869140625 1.08380126953125
11003878125.0 0.21710205078125 1.17388916015625
11035100000.0 0.847137451171875 0.82183837890625
11066321875.0 1.21905517578125 0.17425537109375
11097543750.0 1.0968017578125 -0.675537109375
11128765625.0 0.386474609375 -1.1968994140625
11159987500.0 -0.3939208984375 -1.1373291015625
11191209375.0 -0.99993896484375 -0.702423095703125
11222431250.0 -1.26995849609375 0.09161376953125
11253653125.0 -0.859039306640625 0.89111328125
11284875000.0 -0.11358642578125 1.1273193359375
11316096875.0 0.510040283203125 0.95562744140625
11347318750.0 1.00177001953125 0.50225830078125
11378540625.0 1.115966796875 -0.26788330078125
11409762500.0 0.635345458984375 -0.861297607421875
11440984375.0 0.03704833984375 -0.97705078125
11472206250.0 -0.480804443359375 -0.849700927734375
11503428125.0 -0.95184326171875 -0.45526123046875
11534650000.0 -1.068359375 0.287109375
11565871875.0 -0.60247802734375 0.852783203125
11597093750.0 -0.018707275390625 0.990264892578125
11628315625.0 0.54302978515625 0.874237060546875
11659537500.0 1.05828857421875 0.39263916015625
11690759375.0 1.0643310546875 -0.4322509765625
11721981250.0 0.516998291015625 -0.940155029296875
11753203125.0 -0.10498046875 -1.03533935546875
11784425000.0 -0.722259521484375 -0.808349609375
11815646875.0 -1.10003662109375 -0.15142822265625
11846868750.0 -0.89044189453125 0.55029296875
11878090625.0 -0.3909912109375 0.90802001953125
11909312500.0 0.185882568359375 0.9837646484375
11940534375.0 0.7802734375 0.694610595703125
11971756250.0 1.02374267578125 0.040283203125
12002978125.0 0.805908203125 -0.536102294921875
12034200000.0 0.38201904296875 -0.88665771484375
12065421875.0 -0.21539306640625 -1.00970458984375
12096643750.0 -0.846771240234375 -0.6658935546875
12127865625.0 -1.0338134765625 0.0166015625
12159087500.0 -0.815948486328125 0.57440185546875
12190309375.0 -0.37762451171875 0.97509765625
12221531250.0 0.33734130859375 1.0870361328125
12252753125.0 0.97930908203125 0.5821533203125
12283975000.0 1.0533447265625 -0.12750244140625
12315196875.0 0.800567626953125 -0.6751708984375
12346418750.0 0.28045654296875 -1.09130859375
12377640625.0 -0.536376953125 -1.05963134765625
12408862500.0 -1.03338623046875 -0.419921875
12440084375.0 -1.00750732421875 0.22430419921875
12471306250.0 -0.741180419921875 0.7376708984375
12502528125.0 -0.17950439453125 1.12078857421875
12533750000.0 0.618499755859375 0.993255615234375
12564971875.0 1.041015625 0.36358642578125
12596193750.0 1.0281982421875 -0.2615966796875
12627415625.0 0.748138427734375 -0.828765869140625
12658637500.0 0.0794677734375 -1.2071533203125
12689859375.0 -0.735321044921875 -0.96710205078125
12721081250.0 -1.11639404296875 -0.306396484375
12752303125.0 -1.097900390625 0.38311767578125
12783525000.0 -0.6881103515625 1.02386474609375
12814746875.0 0.16473388671875 1.25128173828125
12845968750.0 0.863922119140625 0.81072998046875
12877190625.0 1.11810302734375 0.17218017578125
12908412500.0 1.055419921875 -0.5008544921875
12939634375.0 0.54315185546875 -1.11468505859375
12970856250.0 -0.32159423828125 -1.1756591796875
13002078125.0 -0.894073486328125 -0.6932373046875
13033300000.0 -1.1046142578125 -0.08709716796875
13064521875.0 -1.0091552734375 0.591552734375
13095743750.0 -0.420166015625 1.15338134765625
13126965625.0 0.407470703125 1.12060546875
13158187500.0 0.94549560546875 0.63226318359375
13189409375.0 1.14715576171875 -0.02081298828125
13220631250.0 0.93536376953125 -0.7471923828125
13251853125.0 0.23565673828125 -1.1702880859375
13283075000.0 -0.50567626953125 -1.02044677734375
13314296875.0 -0.98577880859375 -0.52899169921875
13345518750.0 -1.13330078125 0.17486572265625
13376740625.0 -0.7532958984375 0.8568115234375
