!Created with skrf (http://scikit-rf.org).
# Hz S RI R 50.0 
!freq ReS11 ImS11
45000000.0 -0.07712173461914062 -0.09698486328125
76221875.0 -0.1973724365234375 -0.04764556884765625
107443750.0 -0.25616455078125 0.1204071044921875
138665625.0 -0.1487884521484375 0.330078125
169887500.0 0.123870849609375 0.4190521240234375
201109375.0 0.4233551025390625 0.282379150390625
232331250.0 0.581451416015625 -0.057220458984375
263553125.0 0.491973876953125 -0.455078125
294775000.0 0.098968505859375 -0.736358642578125
325996875.0 -0.41754150390625 -0.684326171875
357218750.0 -0.8109130859375 -0.298980712890625
388440625.0 -0.890625 0.302154541015625
419662500.0 -0.520111083984375 0.87066650390625
450884375.0 0.17364501953125 1.03387451171875
482106250.0 0.80194091796875 0.716400146484375
513328125.0 1.12457275390625 0.08782958984375
544550000.0 1.00830078125 -0.68280029296875
575771875.0 0.33819580078125 -1.24267578125
606993750.0 -0.5556640625 -1.1824951171875
638215625.0 -1.17022705078125 -0.593505859375
669437500.0 -1.34552001953125 0.23388671875
700659375.0 -0.97552490234375 1.10003662109375
731881250.0 -0.00531005859375 1.54913330078125
763103125.0 1.00848388671875 1.16162109375
794325000.0 1.47467041015625 0.28399658203125
825546875.0 1.37347412109375 -0.6533203125
856768750.0 0.7979736328125 -1.40826416015625
887990625.0 -0.2939453125 -1.65631103515625
919212500.0 -1.29473876953125 -1.084716796875
950434375.0 -1.65777587890625 -0.05950927734375
981656250.0 -1.3902587890625 0.95147705078125
1012878125.0 -0.5328369140625 1.681396484375
1044100000.0 0.7010498046875 1.67144775390625
1075321875.0 1.58343505859375 0.81634521484375
1106543750.0 1.7139892578125 -0.31494140625
1137765625.0 1.1929931640625 -1.29071044921875
1168987500.0 0.13983154296875 -1.80596923828125
1200209375.0 -1.067626953125 -1.49200439453125
1231431250.0 -1.736572265625 -0.4564208984375
1262653125.0 -1.60205078125 0.68804931640625
1293875000.0 -0.8563232421875 1.4984130859375
1325096875.0 0.228271484375 1.71484375
1356318750.0 1.2406005859375 1.223388671875
1387540625.0 1.7481689453125 0.1907958984375
1418762500.0 1.476806640625 -0.95538330078125
1449984375.0 0.5325927734375 -1.63360595703125
1481206250.0 -0.55206298828125 -1.5635986328125
1512428125.0 -1.34857177734375 -0.92437744140625
1543650000.0 -1.66357421875 0.0654296875
1574871875.0 -1.27899169921875 1.11346435546875
1606093750.0 -0.274169921875 1.63836669921875
1637315625.0 0.7447509765625 1.40655517578125
1668537500.0 1.40185546875 0.6988525390625
1699759375.0 1.57977294921875 -0.278076171875
1730981250.0 1.0687255859375 -1.2340087890625
1762203125.0 0.0426025390625 -1.57684326171875
1793425000.0 -0.85870361328125 -1.2314453125
1824646875.0 -1.39874267578125 -0.51776123046875
1855868750.0 -1.48065185546875 0.43280029296875
1887090625.0 -0.87982177734375 1.2900390625
1918312500.0 0.11712646484375 1.4935302734375
1949534375.0 0.9254150390625 1.09423828125
1980756250.0 1.38104248046875 0.37200927734375
2011978125.0 1.36541748046875 -0.53338623046875
2043200000.0 0.7535400390625 -1.26666259765625
2074421875.0 -0.15716552734375 -1.43890380859375
2105643750.0 -0.9638671875 -1.0771484375
2136865625.0 -1.45343017578125 -0.3060302734375
2168087500.0 -1.36285400390625 0.67333984375
2199309375.0 -0.6417236328125 1.35693359375
2230531250.0 0.28277587890625 1.44207763671875
2261753125.0 1.07659912109375 1.01788330078125
2292975000.0 1.5201416015625 0.171142578125
2324196875.0 1.310791015625 -0.82159423828125
2355418750.0 0.527587890625 -1.42529296875
2386640625.0 -0.405517578125 -1.45465087890625
2417862500.0 -1.1871337890625 -1.02947998046875
2449084375.0 -1.6126708984375 -0.08441162109375
2480306250.0 -1.3177490234375 0.93109130859375
2511528125.0 -0.4952392578125 1.5162353515625
2542750000.0 0.49090576171875 1.54296875
2573971875.0 1.37896728515625 0.972412109375
2605193750.0 1.72723388671875 -0.11456298828125
2636415625.0 1.26702880859375 -1.1583251953125
2667637500.0 0.30767822265625 -1.67449951171875
2698859375.0 -0.7760009765625 -1.54248046875
2730081250.0 -1.5811767578125 -0.74371337890625
2761303125.0 -1.68963623046875 0.39031982421875
2792525000.0 -1.10455322265625 1.3148193359375
2823746875.0 -0.102294921875 1.73822021484375
2854968750.0 1.0181884765625 1.46258544921875
2886190625.0 1.69964599609375 0.49383544921875
2917412500.0 1.60809326171875 -0.621337890625
2948634375.0 0.94378662109375 -1.44189453125
2979856250.0 -0.10888671875 -1.78460693359375
3011078125.0 -1.25567626953125 -1.34918212890625
3042300000.0 -1.78375244140625 -0.23492431640625
3073521875.0 -1.51568603515625 0.84320068359375
3104743750.0 -0.7662353515625 1.57708740234375
3135965625.0 0.365478515625 1.81854248046875
3167187500.0 1.5079345703125 1.16998291015625
3198409375.0 1.824951171875 -0.0760498046875
3229631250.0 1.35491943359375 -1.08660888671875
3260853125.0 0.490966796875 -1.6768798828125
3292075000.0 -0.65899658203125 -1.70599365234375
3323296875.0 -1.6279296875 -0.88323974609375
3354518750.0 -1.73834228515625 0.33050537109375
3385740625.0 -1.16058349609375 1.238525390625
3416962500.0 -0.23236083984375 1.68939208984375
3448184375.0 0.86444091796875 1.52880859375
3479406250.0 1.64349365234375 0.64697265625
3510628125.0 1.651611328125 -0.49774169921875
3541850000.0 1.00494384765625 -1.36181640625
3573071875.0 -0.00897216796875 -1.689697265625
3604293750.0 -1.03350830078125 -1.34307861328125
3635515625.0 -1.6363525390625 -0.4398193359375
3666737500.0 -1.56915283203125 0.64959716796875
3697959375.0 -0.8280029296875 1.482177734375
3729181250.0 0.2706298828125 1.6390380859375
3760403125.0 1.1591796875 1.1026611328125
3791625000.0 1.559326171875 0.21881103515625
3822846875.0 1.40826416015625 -0.7655029296875
3854068750.0 0.622802734375 -1.4881591796875
3885290625.0 -0.4241943359375 -1.487548828125
3916512500.0 -1.1478271484375 -0.91485595703125
3947734375.0 -1.4534912109375 -0.12078857421875
3978956250.0 -1.30340576171875 0.7828369140625
4010178125.0 -0.5325927734375 1.4627685546875
4041400000.0 0.476318359375 1.4212646484375
4072621875.0 1.1573486328125 0.85064697265625
4103843750.0 1.4500732421875 0.06396484375
4135065625.0 1.2725830078125 -0.85028076171875
4166287500.0 0.45892333984375 -1.50299072265625
4197509375.0 -0.56121826171875 -1.42095947265625
4228731250.0 -1.25360107421875 -0.804931640625
4259953125.0 -1.51507568359375 0.07135009765625
4291175000.0 -1.193115234375 1.0150146484375
4322396875.0 -0.2896728515625 1.53326416015625
4353618750.0 0.6776123046875 1.35540771484375
4384840625.0 1.3292236328125 0.698974609375
4416062500.0 1.5074462890625 -0.22894287109375
4447284375.0 1.058349609375 -1.10931396484375
4478506250.0 0.17254638671875 -1.5013427734375
4509728125.0 -0.7366943359375 -1.311767578125
4540950000.0 -1.4013671875 -0.63775634765625
4572171875.0 -1.528076171875 0.36163330078125
4603393750.0 -0.9755859375 1.21844482421875
4634615625.0 -0.06085205078125 1.54345703125
4665837500.0 0.87384033203125 1.30963134765625
4697059375.0 1.54949951171875 0.51629638671875
4728281250.0 1.53448486328125 -0.58526611328125
4759503125.0 0.82568359375 -1.37213134765625
4790725000.0 -0.1468505859375 -1.57830810546875
4821946875.0 -1.08917236328125 -1.19854736328125
4853168750.0 -1.62103271484375 -0.2510986328125
4884390625.0 -1.38336181640625 0.79718017578125
4915612500.0 -0.6142578125 1.4189453125
4946834375.0 0.330810546875 1.51507568359375
4978056250.0 1.21038818359375 1.02069091796875
5009278125.0 1.56854248046875 0.0384521484375
5040500000.0 1.2335205078125 -0.88055419921875
5071721875.0 0.50262451171875 -1.420166015625
5102943750.0 -0.449462890625 -1.5025634765625
5134165625.0 -1.34112548828125 -0.908447265625
5165387500.0 -1.57452392578125 0.1466064453125
5196609375.0 -1.14056396484375 1.0145263671875
5227831250.0 -0.35791015625 1.51251220703125
5259053125.0 0.69146728515625 1.49786376953125
5290275000.0 1.52874755859375 0.66455078125
5321496875.0 1.498046875 -0.43328857421875
5352718750.0 0.92401123046875 -1.15826416015625
5383940625.0 0.09649658203125 -1.5064697265625
5415162500.0 -0.90618896484375 -1.28900146484375
5446384375.0 -1.49066162109375 -0.370361328125
5477606250.0 -1.3040771484375 0.5693359375
5508828125.0 -0.73358154296875 1.15521240234375
5540050000.0 0.05474853515625 1.404052734375
5571271875.0 0.9437255859375 1.11297607421875
5602493750.0 1.41375732421875 0.260498046875
5633715625.0 1.23724365234375 -0.61663818359375
5664937500.0 0.64996337890625 -1.207275390625
5696159375.0 -0.19842529296875 -1.3892822265625
5727381250.0 -1.02734375 -0.98187255859375
5758603125.0 -1.39727783203125 -0.144775390625
5789825000.0 -1.1986083984375 0.72052001953125
5821046875.0 -0.507080078125 1.31402587890625
5852268750.0 0.4141845703125 1.31781005859375
5883490625.0 1.07696533203125 0.77471923828125
5914712500.0 1.30889892578125 0.0185546875
5945934375.0 1.1004638671875 -0.78033447265625
5977156250.0 0.361572265625 -1.3182373046875
6008378125.0 -0.5128173828125 -1.1864013671875
6039600000.0 -1.02740478515625 -0.650634765625
6070821875.0 -1.22918701171875 -0.00360107421875
6102043750.0 -1.08721923828125 0.766845703125
6133265625.0 -0.34124755859375 1.35107421875
6164487500.0 0.56634521484375 1.191162109375
6195709375.0 1.07568359375 0.63134765625
6226931250.0 1.28509521484375 -0.04351806640625
6258153125.0 1.108154296875 -0.8758544921875
6289375000.0 0.25494384765625 -1.453369140625
6320596875.0 -0.69317626953125 -1.2100830078125
6351818750.0 -1.20477294921875 -0.5733642578125
6383040625.0 -1.35992431640625 0.20892333984375
6414262500.0 -1.00323486328125 1.0628662109375
6445484375.0 -0.0762939453125 1.4638671875
6476706250.0 0.800537109375 1.1517333984375
6507928125.0 1.296142578125 0.4705810546875
6539150000.0 1.35272216796875 -0.38995361328125
6570371875.0 0.84332275390625 -1.1494140625
6601593750.0 -0.0185546875 -1.4105224609375
6632815625.0 -0.84320068359375 -1.13983154296875
6664037500.0 -1.40753173828125 -0.42010498046875
6695259375.0 -1.37921142578125 0.570068359375
6726481250.0 -0.7119140625 1.25701904296875
6757703125.0 0.1324462890625 1.41217041015625
6788925000.0 0.959716796875 1.13482666015625
6820146875.0 1.56719970703125 0.287109375
6851368750.0 1.330322265625 -0.824951171875
6882590625.0 0.507080078125 -1.3447265625
6913812500.0 -0.29412841796875 -1.3616943359375
6945034375.0 -1.07586669921875 -1.02532958984375
6976256250.0 -1.6007080078125 -0.09039306640625
7007478125.0 -1.24102783203125 0.93743896484375
7038700000.0 -0.404052734375 1.3485107421875
7069921875.0 0.36358642578125 1.329833984375
7101143750.0 1.12530517578125 0.9722900390625
7132365625.0 1.60699462890625 0.01239013671875
7163587500.0 1.16168212890625 -1.0269775390625
7194809375.0 0.3018798828125 -1.4046630859375
7226031250.0 -0.5166015625 -1.33184814453125
7257253125.0 -1.27374267578125 -0.82720947265625
7288475000.0 -1.564697265625 0.20159912109375
7319696875.0 -1.03460693359375 1.1151123046875
7350918750.0 -0.1634521484375 1.4521484375
7382140625.0 0.72100830078125 1.28240966796875
7413362500.0 1.3843994140625 0.57708740234375
7444584375.0 1.41827392578125 -0.41119384765625
7475806250.0 0.86126708984375 -1.14990234375
7507028125.0 0.00384521484375 -1.43731689453125
7538250000.0 -0.89288330078125 -1.12786865234375
7569471875.0 -1.34375 -0.31036376953125
7600693750.0 -1.20684814453125 0.50146484375
7631915625.0 -0.72113037109375 1.09149169921875
7663137500.0 0.083740234375 1.36492919921875
7694359375.0 0.945465087890625 0.98394775390625
7725581250.0 1.250732421875 0.17950439453125
7756803125.0 1.08782958984375 -0.50390625
7788025000.0 0.67242431640625 -1.05035400390625
7819246875.0 -0.12225341796875 -1.354248046875
7850468750.0 -0.999359130859375 -0.9189453125
7881690625.0 -1.2379150390625 -0.103759765625
7912912500.0 -1.0589599609375 0.5570068359375
7944134375.0 -0.60687255859375 1.1214599609375
7975356250.0 0.27587890625 1.34259033203125
8006578125.0 1.052490234375 0.78057861328125
8037800000.0 1.19927978515625 0.01446533203125
8069021875.0 1.010986328125 -0.62249755859375
8100243750.0 0.50048828125 -1.1693115234375
8131465625.0 -0.3912353515625 -1.25994873046875
8162687500.0 -1.038330078125 -0.68792724609375
8193909375.0 -1.18621826171875 0.01141357421875
8225131250.0 -1.0220947265625 0.68316650390625
8256353125.0 -0.42047119140625 1.25653076171875
8287575000.0 0.50482177734375 1.22955322265625
8318796875.0 1.08807373046875 0.636474609375
8350018750.0 1.251220703125 -0.0789794921875
8381240625.0 1.03472900390625 -0.84423828125
8412462500.0 0.252685546875 -1.3814697265625
8443684375.0 -0.67437744140625 -1.17474365234375
8474906250.0 -1.18206787109375 -0.53240966796875
8506128125.0 -1.3040771484375 0.2393798828125
8537350000.0 -0.927734375 1.053466796875
8568571875.0 -0.013427734375 1.4000244140625
8599793750.0 0.8076171875 1.0572509765625
8631015625.0 1.2471923828125 0.3992919921875
8662237500.0 1.29132080078125 -0.43438720703125
8693459375.0 0.73748779296875 -1.185791015625
8724681250.0 -0.16448974609375 -1.3377685546875
8755903125.0 -0.8848876953125 -0.960418701171875
8787125000.0 -1.30938720703125 -0.2828369140625
8818346875.0 -1.25653076171875 0.62030029296875
8849568750.0 -0.55731201171875 1.26824951171875
8880790625.0 0.30169677734375 1.29150390625
8912012500.0 0.986541748046875 0.894927978515625
8943234375.0 1.40765380859375 0.12762451171875
8974456250.0 1.171142578125 -0.84765625
9005678125.0 0.34796142578125 -1.3212890625
9036900000.0 -0.45086669921875 -1.231201171875
9068121875.0 -1.10943603515625 -0.7874755859375
9099343750.0 -1.4481201171875 0.1011962890625
9130565625.0 -0.98236083984375 1.01904296875
9161787500.0 -0.152099609375 1.28961181640625
9193009375.0 0.55853271484375 1.13720703125
9224231250.0 1.18792724609375 0.656494140625
9255453125.0 1.40625 -0.2994384765625
9286675000.0 0.80853271484375 -1.09033203125
9317896875.0 0.02520751953125 -1.25262451171875
9349118750.0 -0.6611328125 -1.0743408203125
9380340625.0 -1.265869140625 -0.5103759765625
9411562500.0 -1.31732177734375 0.48321533203125
9442784375.0 -0.64825439453125 1.12322998046875
9474006250.0 0.091064453125 1.21685791015625
9505228125.0 0.770233154296875 0.984130859375
9536450000.0 1.2803955078125 0.3121337890625
9567671875.0 1.14886474609375 -0.584228515625
9598893750.0 0.52972412109375 -1.07586669921875
9630115625.0 -0.14569091796875 -1.16375732421875
9661337500.0 -0.82470703125 -0.905426025390625
9692559375.0 -1.24566650390625 -0.18890380859375
9723781250.0 -1.04754638671875 0.6090087890625
9755003125.0 -0.48583984375 1.0565185546875
9786225000.0 0.20135498046875 1.16485595703125
9817446875.0 0.902313232421875 0.829620361328125
9848668750.0 1.2041015625 0.0755615234375
9879890625.0 0.97216796875 -0.620849609375
9911112500.0 0.452392578125 -1.05767822265625
9942334375.0 -0.27093505859375 -1.1646728515625
9973556250.0 -0.9501953125 -0.739105224609375
10004778125.0 -1.1517333984375 -0.01446533203125
10036000000.0 -0.94769287109375 0.621246337890625
10067221875.0 -0.44097900390625 1.10302734375
10098443750.0 0.37457275390625 1.18634033203125
10129665625.0 1.00823974609375 0.6429443359375
10160887500.0 1.1265869140625 -0.055908203125
10192109375.0 0.91986083984375 -0.667388916015625
10223331250.0 0.3602294921875 -1.15887451171875
10254553125.0 -0.49114990234375 -1.11688232421875
10285775000.0 -0.990966796875 -0.535308837890625
10316996875.0 -1.0718994140625 0.07940673828125
10348218750.0 -0.903472900390625 0.675750732421875
10379440625.0 -0.32098388671875 1.181640625
10410662500.0 0.532470703125 1.08892822265625
10441884375.0 0.99810791015625 0.5216064453125
10473106250.0 1.11309814453125 -0.08587646484375
10504328125.0 0.952392578125 -0.763458251953125
10535550000.0 0.2384033203125 -1.30157470703125
10566771875.0 -0.661376953125 -1.079833984375
10597993750.0 -1.08660888671875 -0.4595947265625
10629215625.0 -1.17987060546875 0.20855712890625
10660437500.0 -0.890350341796875 0.9599609375
10691659375.0 -0.00433349609375 1.343017578125
10722881250.0 0.789642333984375 0.95501708984375
10754103125.0 1.12646484375 0.32257080078125
10785325000.0 1.1448974609375 -0.3720703125
10816546875.0 0.7021484375 -1.05633544921875
10847768750.0 -0.14923095703125 -1.23565673828125
10878990625.0 -0.807891845703125 -0.845855712890625
10910212500.0 -1.12847900390625 -0.24322509765625
10941434375.0 -1.1019287109375 0.4825439453125
10972656250.0 -0.5684814453125 1.09002685546875
11003878125.0 0.22137451171875 1.17864990234375
11035100000.0 0.8533935546875 0.8240966796875
11066321875.0 1.22735595703125 0.17242431640625
11097543750.0 1.10150146484375 -0.6817626953125
11128765625.0 0.38531494140625 -1.2052001953125
11159987500.0 -0.4000244140625 -1.14288330078125
11191209375.0 -1.0072021484375 -0.7034912109375
11222431250.0 -1.27813720703125 0.09613037109375
11253653125.0 -0.861328125 0.903045654296875
11284875000.0 -0.11328125 1.13128662109375
11316096875.0 0.51397705078125 0.959136962890625
11347318750.0 1.00933837890625 0.5028076171875
11378540625.0 1.12255859375 -0.274169921875
11409762500.0 0.635833740234375 -0.86566162109375
11440984375.0 0.033233642578125 -0.98406982421875
11472206250.0 -0.484649658203125 -0.853179931640625
11503428125.0 -0.95751953125 -0.456390380859375
11534650000.0 -1.07366943359375 0.29296875
11565871875.0 -0.6026611328125 0.860443115234375
11597093750.0 -0.016204833984375 0.996429443359375
11628315625.0 0.549285888671875 0.87896728515625
11659537500.0 1.0660400390625 0.39154052734375
11690759375.0 1.0687255859375 -0.43890380859375
11721981250.0 0.51751708984375 -0.94647216796875
11753203125.0 -0.1085205078125 -1.04083251953125
11784425000.0 -0.731048583984375 -0.81170654296875
11815646875.0 -1.10809326171875 -0.14764404296875
11846868750.0 -0.8935546875 0.55694580078125
11878090625.0 -0.39068603515625 0.913787841796875
11909312500.0 0.189697265625 0.989166259765625
11940534375.0 0.78729248046875 0.696136474609375
11971756250.0 1.029296875 0.03790283203125
12002978125.0 0.80902099609375 -0.54351806640625
12034200000.0 0.3818359375 -0.895172119140625
12065421875.0 -0.21905517578125 -1.013427734375
12096643750.0 -0.85430908203125 -0.6663818359375
12127865625.0 -1.03839111328125 0.019775390625
12159087500.0 -0.817901611328125 0.5806884765625
12190309375.0 -0.3770751953125 0.98065185546875
12221531250.0 0.3438720703125 1.0927734375
12252753125.0 0.986602783203125 0.581817626953125
12283975000.0 1.05926513671875 -0.13092041015625
12315196875.0 0.80316162109375 -0.682403564453125
12346418750.0 0.28021240234375 -1.09710693359375
12377640625.0 -0.544677734375 -1.0648193359375
12408862500.0 -1.03973388671875 -0.41864013671875
12440084375.0 -1.01287841796875 0.2288818359375
12471306250.0 -0.74554443359375 0.741943359375
12502528125.0 -0.17657470703125 1.126708984375
12533750000.0 0.6273193359375 0.99664306640625
12564971875.0 1.0465087890625 0.3634033203125
12596193750.0 1.032958984375 -0.2681884765625
12627415625.0 0.75103759765625 -0.8348388671875
12658637500.0 0.075927734375 -1.21343994140625
12689859375.0 -0.741729736328125 -0.968780517578125
12721081250.0 -1.12353515625 -0.30322265625
12752303125.0 -1.10272216796875 0.3873291015625
12783525000.0 -0.687744140625 1.03594970703125
12814746875.0 0.1678466796875 1.2550048828125
12845968750.0 0.8707275390625 0.812164306640625
12877190625.0 1.121826171875 0.16998291015625
12908412500.0 1.05908203125 -0.50518798828125
12939634375.0 0.5421142578125 -1.12457275390625
12970856250.0 -0.32598876953125 -1.17919921875
13002078125.0 -0.9013671875 -0.6937255859375
13033300000.0 -1.1104736328125 -0.08477783203125
13064521875.0 -1.01300048828125 0.60028076171875
13095743750.0 -0.41864013671875 1.161376953125
13126965625.0 0.413818359375 1.124267578125
13158187500.0 0.952667236328125 0.63287353515625
13189409375.0 1.154296875 -0.0247802734375
13220631250.0 0.938751220703125 -0.754638671875
13251853125.0 0.23175048828125 -1.177734375
13283075000.0 -0.51397705078125 -1.023681640625
13314296875.0 -0.994964599609375 -0.529022216796875
13345518750.0 -1.1400146484375 0.18072509765625
13376740625.0 -0.75372314453125 0.86474609375
