!Created with skrf (http://scikit-rf.org).
# Hz S RI R 50.0 
!freq ReS11 ImS11
45000000.0 -0.07695388793945312 -0.09671401977539062
76221875.0 -0.19628143310546875 -0.047515869140625
107443750.0 -0.2546234130859375 0.119720458984375
138665625.0 -0.1478729248046875 0.328399658203125
169887500.0 0.12353515625 0.4169769287109375
201109375.0 0.421478271484375 0.2806243896484375
232331250.0 0.578399658203125 -0.057708740234375
263553125.0 0.489288330078125 -0.452362060546875
294775000.0 0.09844970703125 -0.731597900390625
325996875.0 -0.41510009765625 -0.6798095703125
357218750.0 -0.80548095703125 -0.296661376953125
388440625.0 -0.884796142578125 0.30059814453125
419662500.0 -0.5166015625 0.86529541015625
450884375.0 0.1732177734375 1.02752685546875
482106250.0 0.79779052734375 0.71185302734375
513328125.0 1.1182861328125 0.08709716796875
544550000.0 1.00262451171875 -0.679443359375
575771875.0 0.3358154296875 -1.23699951171875
606993750.0 -0.55340576171875 -1.1761474609375
638215625.0 -1.1646728515625 -0.58941650390625
669437500.0 -1.33831787109375 0.2337646484375
700659375.0 -0.9697265625 1.0953369140625
731881250.0 -0.0032958984375 1.541259765625
763103125.0 1.0047607421875 1.1544189453125
794325000.0 1.46685791015625 0.2811279296875
825546875.0 1.36553955078125 -0.65069580078125
856768750.0 0.79351806640625 -1.398681640625
887990625.0 -0.29241943359375 -1.64617919921875
919212500.0 -1.28607177734375 -1.0770263671875
950434375.0 -1.6458740234375 -0.05889892578125
981656250.0 -1.38037109375 0.94439697265625
1012878125.0 -0.52880859375 1.6688232421875
1044100000.0 0.696044921875 1.6593017578125
1075321875.0 1.572021484375 0.8104248046875
1106543750.0 1.70184326171875 -0.3125
1137765625.0 1.1849365234375 -1.28228759765625
1168987500.0 0.1380615234375 -1.794189453125
1200209375.0 -1.05999755859375 -1.48101806640625
1231431250.0 -1.72479248046875 -0.452880859375
1262653125.0 -1.59124755859375 0.68341064453125
1293875000.0 -0.85040283203125 1.48944091796875
1325096875.0 0.2281494140625 1.7042236328125
1356318750.0 1.23370361328125 1.214599609375
1387540625.0 1.73748779296875 0.18817138671875
1418762500.0 1.466796875 -0.9503173828125
1449984375.0 0.52850341796875 -1.62298583984375
1481206250.0 -0.5494384765625 -1.55352783203125
1512428125.0 -1.33984375 -0.91845703125
1543650000.0 -1.6529541015625 0.06494140625
1574871875.0 -1.2716064453125 1.1075439453125
1606093750.0 -0.27215576171875 1.62908935546875
1637315625.0 0.7412109375 1.39825439453125
1668537500.0 1.3936767578125 0.6949462890625
1699759375.0 1.570068359375 -0.27679443359375
1730981250.0 1.06268310546875 -1.22784423828125
1762203125.0 0.0421142578125 -1.56787109375
1793425000.0 -0.85406494140625 -1.22412109375
1824646875.0 -1.39154052734375 -0.51458740234375
1855868750.0 -1.4718017578125 0.43194580078125
1887090625.0 -0.87335205078125 1.2835693359375
1918312500.0 0.1168212890625 1.48443603515625
1949534375.0 0.92010498046875 1.0872802734375
1980756250.0 1.37286376953125 0.36932373046875
2011978125.0 1.35723876953125 -0.53076171875
2043200000.0 0.74871826171875 -1.25927734375
2074421875.0 -0.15655517578125 -1.43096923828125
2105643750.0 -0.95892333984375 -1.0704345703125
2136865625.0 -1.445068359375 -0.3046875
2168087500.0 -1.35498046875 0.6702880859375
2199309375.0 -0.63818359375 1.34881591796875
2230531250.0 0.281494140625 1.4339599609375
2261753125.0 1.07098388671875 1.0125732421875
2292975000.0 1.5123291015625 0.16986083984375
2324196875.0 1.3035888671875 -0.81719970703125
2355418750.0 0.52435302734375 -1.4180908203125
2386640625.0 -0.40386962890625 -1.44677734375
2417862500.0 -1.17828369140625 -1.02276611328125
2449084375.0 -1.60174560546875 -0.08416748046875
2480306250.0 -1.30902099609375 0.92376708984375
2511528125.0 -0.49322509765625 1.50506591796875
2542750000.0 0.48797607421875 1.53363037109375
2573971875.0 1.36810302734375 0.9664306640625
2605193750.0 1.71343994140625 -0.1116943359375
2636415625.0 1.2596435546875 -1.15032958984375
2667637500.0 0.30621337890625 -1.66424560546875
2698859375.0 -0.76898193359375 -1.53179931640625
2730081250.0 -1.5699462890625 -0.73944091796875
2761303125.0 -1.67803955078125 0.38671875
2792525000.0 -1.09710693359375 1.30389404296875
2823746875.0 -0.10205078125 1.7254638671875
2854968750.0 1.01080322265625 1.45318603515625
2886190625.0 1.687255859375 0.4912109375
2917412500.0 1.595703125 -0.61505126953125
2948634375.0 0.93743896484375 -1.43194580078125
2979856250.0 -0.10760498046875 -1.77301025390625
3011078125.0 -1.24493408203125 -1.34027099609375
3042300000.0 -1.77130126953125 -0.234619140625
3073521875.0 -1.50592041015625 0.83648681640625
3104743750.0 -0.761962890625 1.5640869140625
3135965625.0 0.3603515625 1.8048095703125
3167187500.0 1.4964599609375 1.16241455078125
3198409375.0 1.81298828125 -0.07574462890625
3229631250.0 1.346435546875 -1.0789794921875
3260853125.0 0.48797607421875 -1.66571044921875
3292075000.0 -0.65350341796875 -1.6944580078125
3323296875.0 -1.61614990234375 -0.87786865234375
3354518750.0 -1.7269287109375 0.32733154296875
3385740625.0 -1.1533203125 1.22869873046875
3416962500.0 -0.23187255859375 1.6771240234375
3448184375.0 0.85858154296875 1.5184326171875
3479406250.0 1.63336181640625 0.64312744140625
3510628125.0 1.64093017578125 -0.49420166015625
3541850000.0 0.99853515625 -1.3515625
3573071875.0 -0.0076904296875 -1.67999267578125
3604293750.0 -1.02569580078125 -1.33447265625
3635515625.0 -1.62506103515625 -0.4378662109375
3666737500.0 -1.55914306640625 0.64556884765625
3697959375.0 -0.82354736328125 1.4725341796875
3729181250.0 0.26824951171875 1.62762451171875
3760403125.0 1.1488037109375 1.09576416015625
3791625000.0 1.54901123046875 0.2178955078125
3822846875.0 1.3994140625 -0.75994873046875
3854068750.0 0.61981201171875 -1.47711181640625
3885290625.0 -0.42047119140625 -1.47857666015625
3916512500.0 -1.13934326171875 -0.90966796875
3947734375.0 -1.44403076171875 -0.12030029296875
3978956250.0 -1.2940673828125 0.775634765625
4010178125.0 -0.53094482421875 1.451171875
4041400000.0 0.47222900390625 1.4130859375
4072621875.0 1.15020751953125 0.84637451171875
4103843750.0 1.4417724609375 0.063720703125
4135065625.0 1.26556396484375 -0.8443603515625
4166287500.0 0.456787109375 -1.4931640625
4197509375.0 -0.55621337890625 -1.41278076171875
4228731250.0 -1.24530029296875 -0.80157470703125
4259953125.0 -1.50640869140625 0.06988525390625
4291175000.0 -1.1865234375 1.00823974609375
4322396875.0 -0.2891845703125 1.5234375
4353618750.0 0.6708984375 1.3477783203125
4384840625.0 1.319580078125 0.696044921875
4416062500.0 1.49774169921875 -0.22674560546875
4447284375.0 1.05316162109375 -1.10101318359375
4478506250.0 0.1719970703125 -1.4935302734375
4509728125.0 -0.7313232421875 -1.30609130859375
4540950000.0 -1.3902587890625 -0.6358642578125
4572171875.0 -1.51959228515625 0.35858154296875
4603393750.0 -0.97119140625 1.2099609375
4634615625.0 -0.0618896484375 1.533203125
4665837500.0 0.8670654296875 1.3018798828125
4697059375.0 1.53802490234375 0.51495361328125
4728281250.0 1.52618408203125 -0.580810546875
4759503125.0 0.8221435546875 -1.36358642578125
4790725000.0 -0.14471435546875 -1.5699462890625
4821946875.0 -1.080810546875 -1.19287109375
4853168750.0 -1.6103515625 -0.25189208984375
4884390625.0 -1.3758544921875 0.7908935546875
4915612500.0 -0.6129150390625 1.409423828125
4946834375.0 0.3277587890625 1.5064697265625
4978056250.0 1.20294189453125 1.01556396484375
5009278125.0 1.55902099609375 0.04010009765625
5040500000.0 1.22711181640625 -0.87353515625
5071721875.0 0.50067138671875 -1.4122314453125
5102943750.0 -0.44482421875 -1.4940185546875
5134165625.0 -1.3336181640625 -0.90472412109375
5165387500.0 -1.56500244140625 0.144775390625
5196609375.0 -1.134765625 1.00811767578125
5227831250.0 -0.35748291015625 1.50360107421875
5259053125.0 0.686279296875 1.49005126953125
5290275000.0 1.51898193359375 0.6622314453125
5321496875.0 1.49005126953125 -0.42926025390625
5352718750.0 0.91949462890625 -1.15087890625
5383940625.0 0.09686279296875 -1.4979248046875
5415162500.0 -0.8988037109375 -1.28192138671875
5446384375.0 -1.4822998046875 -0.369873046875
5477606250.0 -1.29718017578125 0.56561279296875
5508828125.0 -0.73028564453125 1.1494140625
5540050000.0 0.05340576171875 1.3966064453125
5571271875.0 0.9368896484375 1.1072998046875
5602493750.0 1.40570068359375 0.26007080078125
5633715625.0 1.230224609375 -0.61102294921875
5664937500.0 0.64752197265625 -1.19927978515625
5696159375.0 -0.19677734375 -1.3818359375
5727381250.0 -1.02001953125 -0.97711181640625
5758603125.0 -1.39031982421875 -0.14495849609375
5789825000.0 -1.19268798828125 0.7164306640625
5821046875.0 -0.5054931640625 1.30499267578125
5852268750.0 0.4097900390625 1.31060791015625
5883490625.0 1.06927490234375 0.771240234375
5914712500.0 1.3001708984375 0.0205078125
5945934375.0 1.09521484375 -0.7755126953125
5977156250.0 0.36212158203125 -1.308837890625
6008378125.0 -0.50836181640625 -1.18096923828125
6039600000.0 -1.019287109375 -0.64837646484375
6070821875.0 -1.22210693359375 -0.00469970703125
6102043750.0 -1.08197021484375 0.76123046875
6133265625.0 -0.34173583984375 1.3426513671875
6164487500.0 0.56207275390625 1.18609619140625
6195709375.0 1.06890869140625 0.62933349609375
6226931250.0 1.27813720703125 -0.0428466796875
6258153125.0 1.10302734375 -0.86846923828125
6289375000.0 0.25732421875 -1.44366455078125
6320596875.0 -0.68719482421875 -1.20452880859375
6351818750.0 -1.197998046875 -0.5721435546875
6383040625.0 -1.3531494140625 0.206787109375
6414262500.0 -0.9993896484375 1.05517578125
6445484375.0 -0.078369140625 1.45562744140625
6476706250.0 0.79449462890625 1.14691162109375
6507928125.0 1.2890625 0.4696044921875
6539150000.0 1.3458251953125 -0.38604736328125
6570371875.0 0.8404541015625 -1.14166259765625
6601593750.0 -0.01708984375 -1.40240478515625
6632815625.0 -0.837890625 -1.135009765625
6664037500.0 -1.39984130859375 -0.41961669921875
6695259375.0 -1.3720703125 0.56524658203125
6726481250.0 -0.708984375 1.25048828125
6757703125.0 0.13055419921875 1.405029296875
6788925000.0 0.952392578125 1.129638671875
6820146875.0 1.558837890625 0.28790283203125
6851368750.0 1.32427978515625 -0.8175048828125
6882590625.0 0.50592041015625 -1.33673095703125
6913812500.0 -0.29168701171875 -1.35443115234375
6945034375.0 -1.06683349609375 -1.02056884765625
6976256250.0 -1.59002685546875 -0.0947265625
7007478125.0 -1.23419189453125 0.93011474609375
7038700000.0 -0.40093994140625 1.3409423828125
7069921875.0 0.3590087890625 1.32177734375
7101143750.0 1.115478515625 0.96728515625
7132365625.0 1.59735107421875 0.015625
7163587500.0 1.1558837890625 -1.019287109375
7194809375.0 0.3031005859375 -1.39447021484375
7226031250.0 -0.50830078125 -1.32330322265625
7257253125.0 -1.2635498046875 -0.82373046875
7288475000.0 -1.555908203125 0.19696044921875
7319696875.0 -1.02862548828125 1.1063232421875
7350918750.0 -0.1644287109375 1.44317626953125
7382140625.0 0.71429443359375 1.2747802734375
7413362500.0 1.37335205078125 0.57586669921875
7444584375.0 1.4088134765625 -0.40423583984375
7475806250.0 0.857666015625 -1.139892578125
7507028125.0 0.00616455078125 -1.427734375
7538250000.0 -0.88531494140625 -1.12322998046875
7569471875.0 -1.33416748046875 -0.31097412109375
7600693750.0 -1.20025634765625 0.49493408203125
7631915625.0 -0.7171630859375 1.0843505859375
7663137500.0 0.08050537109375 1.35638427734375
7694359375.0 0.936004638671875 0.978973388671875
7725581250.0 1.242431640625 0.17999267578125
7756803125.0 1.0814208984375 -0.49774169921875
7788025000.0 0.6697998046875 -1.0411376953125
7819246875.0 -0.119873046875 -1.3448486328125
7850468750.0 -0.992034912109375 -0.914947509765625
7881690625.0 -1.229248046875 -0.106201171875
7912912500.0 -1.05328369140625 0.55218505859375
7944134375.0 -0.6063232421875 1.110107421875
7975356250.0 0.27142333984375 1.334228515625
8006578125.0 1.04437255859375 0.77862548828125
8037800000.0 1.19281005859375 0.01593017578125
8069021875.0 1.00494384765625 -0.6171875
8100243750.0 0.5006103515625 -1.15826416015625
8131465625.0 -0.38714599609375 -1.25341796875
8162687500.0 -1.0302734375 -0.68682861328125
8193909375.0 -1.179443359375 0.00811767578125
8225131250.0 -1.01715087890625 0.67724609375
8256353125.0 -0.421875 1.24591064453125
8287575000.0 0.50091552734375 1.22467041015625
8318796875.0 1.0809326171875 0.63525390625
8350018750.0 1.24267578125 -0.07421875
8381240625.0 1.0302734375 -0.83673095703125
8412462500.0 0.255126953125 -1.36932373046875
8443684375.0 -0.66778564453125 -1.16851806640625
8474906250.0 -1.17230224609375 -0.53265380859375
8506128125.0 -1.29693603515625 0.23736572265625
8537350000.0 -0.92291259765625 1.0445556640625
8568571875.0 -0.01617431640625 1.39404296875
8599793750.0 0.80035400390625 1.05224609375
8631015625.0 1.23919677734375 0.3997802734375
8662237500.0 1.28350830078125 -0.42755126953125
8693459375.0 0.73565673828125 -1.1773681640625
8724681250.0 -0.1611328125 -1.33038330078125
8755903125.0 -0.87847900390625 -0.95709228515625
8787125000.0 -1.3023681640625 -0.2830810546875
8818346875.0 -1.24957275390625 0.61376953125
8849568750.0 -0.55609130859375 1.25927734375
8880790625.0 0.29803466796875 1.2833251953125
8912012500.0 0.981109619140625 0.89178466796875
8943234375.0 1.39678955078125 0.1304931640625
8974456250.0 1.16656494140625 -0.83935546875
9005678125.0 0.3492431640625 -1.3116455078125
9036900000.0 -0.44525146484375 -1.22418212890625
9068121875.0 -1.09979248046875 -0.78515625
9099343750.0 -1.44036865234375 0.09716796875
9130565625.0 -0.9793701171875 1.00775146484375
9161787500.0 -0.15472412109375 1.28289794921875
9193009375.0 0.55303955078125 1.1329345703125
9224231250.0 1.177001953125 0.65380859375
9255453125.0 1.398193359375 -0.29351806640625
9286675000.0 0.8067626953125 -1.0845947265625
9317896875.0 0.0274658203125 -1.245849609375
9349118750.0 -0.65240478515625 -1.0687255859375
9380340625.0 -1.25726318359375 -0.5093994140625
9411562500.0 -1.3095703125 0.4736328125
9442784375.0 -0.64703369140625 1.1151123046875
9474006250.0 0.08843994140625 1.21002197265625
9505228125.0 0.762603759765625 0.979400634765625
9536450000.0 1.2723388671875 0.31378173828125
9567671875.0 1.14306640625 -0.57867431640625
9598893750.0 0.52935791015625 -1.06781005859375
9630115625.0 -0.140380859375 -1.1551513671875
9661337500.0 -0.816253662109375 -0.90179443359375
9692559375.0 -1.23760986328125 -0.1910400390625
9723781250.0 -1.043212890625 0.6014404296875
9755003125.0 -0.48565673828125 1.04888916015625
9786225000.0 0.1978759765625 1.1573486328125
9817446875.0 0.89239501953125 0.8270263671875
9848668750.0 1.196044921875 0.07940673828125
9879890625.0 0.968017578125 -0.614959716796875
9911112500.0 0.45233154296875 -1.05206298828125
9942334375.0 -0.266357421875 -1.1583251953125
9973556250.0 -0.94097900390625 -0.73822021484375
10004778125.0 -1.14422607421875 -0.0186767578125
10036000000.0 -0.94317626953125 0.613372802734375
10067221875.0 -0.4422607421875 1.0963134765625
10098443750.0 0.3707275390625 1.1810302734375
10129665625.0 1.0018310546875 0.6441650390625
10160887500.0 1.1195068359375 -0.0496826171875
10192109375.0 0.91705322265625 -0.66229248046875
10223331250.0 0.36102294921875 -1.1512451171875
10254553125.0 -0.48388671875 -1.11224365234375
10285775000.0 -0.984100341796875 -0.535614013671875
10316996875.0 -1.0667724609375 0.076171875
10348218750.0 -0.8994140625 0.669708251953125
10379440625.0 -0.32159423828125 1.17498779296875
10410662500.0 0.525390625 1.08404541015625
10441884375.0 0.990081787109375 0.52239990234375
10473106250.0 1.10693359375 -0.0826416015625
10504328125.0 0.948394775390625 -0.754608154296875
10535550000.0 0.23968505859375 -1.2943115234375
10566771875.0 -0.65625 -1.07720947265625
10597993750.0 -1.0794677734375 -0.45941162109375
10629215625.0 -1.1734619140625 0.2032470703125
10660437500.0 -0.88763427734375 0.949249267578125
10691659375.0 -0.01153564453125 1.33355712890625
10722881250.0 0.781585693359375 0.951416015625
10754103125.0 1.11737060546875 0.32464599609375
10785325000.0 1.1390380859375 -0.36724853515625
10816546875.0 0.70025634765625 -1.04791259765625
10847768750.0 -0.1419677734375 -1.22869873046875
10878990625.0 -0.8043212890625 -0.843780517578125
10910212500.0 -1.121337890625 -0.2457275390625
10941434375.0 -1.09747314453125 0.4755859375
10972656250.0 -0.56817626953125 1.08349609375
11003878125.0 0.216064453125 1.17340087890625
11035100000.0 0.846466064453125 0.8212890625
11066321875.0 1.21875 0.1746826171875
11097543750.0 1.09771728515625 -0.67596435546875
11128765625.0 0.38690185546875 -1.19708251953125
11159987500.0 -0.3956298828125 -1.13818359375
11191209375.0 -0.997528076171875 -0.703369140625
11222431250.0 -1.2716064453125 0.09320068359375
11253653125.0 -0.8582763671875 0.891082763671875
11284875000.0 -0.11474609375 1.125732421875
11316096875.0 0.510223388671875 0.955841064453125
11347318750.0 1.00250244140625 0.5023193359375
11378540625.0 1.116455078125 -0.26763916015625
11409762500.0 0.634033203125 -0.858612060546875
11440984375.0 0.03643798828125 -0.976898193359375
11472206250.0 -0.47979736328125 -0.8487548828125
11503428125.0 -0.951446533203125 -0.45599365234375
11534650000.0 -1.06903076171875 0.288330078125
11565871875.0 -0.60308837890625 0.852325439453125
11597093750.0 -0.018157958984375 0.990753173828125
11628315625.0 0.544097900390625 0.874603271484375
11659537500.0 1.05889892578125 0.39227294921875
11690759375.0 1.063232421875 -0.4310302734375
11721981250.0 0.51715087890625 -0.93878173828125
11753203125.0 -0.10595703125 -1.03619384765625
11784425000.0 -0.724395751953125 -0.808013916015625
11815646875.0 -1.1002197265625 -0.14947509765625
11846868750.0 -0.8916015625 0.55120849609375
11878090625.0 -0.392059326171875 0.90716552734375
11909312500.0 0.1864013671875 0.983489990234375
11940534375.0 0.778106689453125 0.69500732421875
11971756250.0 1.02313232421875 0.04058837890625
12002978125.0 0.80615234375 -0.5369873046875
12034200000.0 0.38323974609375 -0.886474609375
12065421875.0 -0.2137451171875 -1.01007080078125
12096643750.0 -0.846832275390625 -0.6654052734375
12127865625.0 -1.03302001953125 0.0164794921875
12159087500.0 -0.814483642578125 0.5745849609375
12190309375.0 -0.3785400390625 0.973175048828125
12221531250.0 0.3389892578125 1.0875244140625
12252753125.0 0.978973388671875 0.582000732421875
12283975000.0 1.053955078125 -0.126708984375
12315196875.0 0.800018310546875 -0.6741943359375
12346418750.0 0.281494140625 -1.088134765625
12377640625.0 -0.53631591796875 -1.0596923828125
12408862500.0 -1.03375244140625 -0.4197998046875
12440084375.0 -1.0078125 0.22393798828125
12471306250.0 -0.740478515625 0.73699951171875
12502528125.0 -0.1805419921875 1.11883544921875
12533750000.0 0.62042236328125 0.9937744140625
12564971875.0 1.0401611328125 0.36474609375
12596193750.0 1.0284423828125 -0.26416015625
12627415625.0 0.748260498046875 -0.826385498046875
12658637500.0 0.080322265625 -1.20562744140625
12689859375.0 -0.7335205078125 -0.965362548828125
12721081250.0 -1.11590576171875 -0.305908203125
12752303125.0 -1.0965576171875 0.38275146484375
12783525000.0 -0.6871337890625 1.02471923828125
12814746875.0 0.162841796875 1.247802734375
12845968750.0 0.862762451171875 0.811676025390625
12877190625.0 1.1163330078125 0.17144775390625
12908412500.0 1.0560302734375 -0.5028076171875
12939634375.0 0.54296875 -1.11328125
12970856250.0 -0.31884765625 -1.17437744140625
13002078125.0 -0.892974853515625 -0.693084716796875
13033300000.0 -1.1053466796875 -0.08685302734375
13064521875.0 -1.00811767578125 0.593505859375
13095743750.0 -0.42108154296875 1.15264892578125
13126965625.0 0.4071044921875 1.11932373046875
13158187500.0 0.94598388671875 0.631805419921875
13189409375.0 1.14801025390625 -0.02081298828125
13220631250.0 0.93511962890625 -0.74639892578125
13251853125.0 0.2344970703125 -1.17181396484375
13283075000.0 -0.50604248046875 -1.01910400390625
13314296875.0 -0.986572265625 -0.5294189453125
13345518750.0 -1.13446044921875 0.1746826171875
13376740625.0 -0.752532958984375 0.855194091796875
