!Created with skrf (http://scikit-rf.org).
# Hz S RI R 50.0 
!freq ReS11 ImS11
45000000.0 -0.07717132568359375 -0.09684371948242188
76221875.0 -0.1965484619140625 -0.0473175048828125
107443750.0 -0.2550201416015625 0.1201019287109375
138665625.0 -0.1478729248046875 0.3287353515625
169887500.0 0.1239471435546875 0.417694091796875
201109375.0 0.4222259521484375 0.2805938720703125
232331250.0 0.5789794921875 -0.0579833984375
263553125.0 0.4893646240234375 -0.4534149169921875
294775000.0 0.0980224609375 -0.73309326171875
325996875.0 -0.41619873046875 -0.68072509765625
357218750.0 -0.80682373046875 -0.296539306640625
388440625.0 -0.8856201171875 0.30126953125
419662500.0 -0.516937255859375 0.867034912109375
450884375.0 0.17401123046875 1.0291748046875
482106250.0 0.799407958984375 0.712127685546875
513328125.0 1.11981201171875 0.08636474609375
544550000.0 1.003662109375 -0.6807861328125
575771875.0 0.335693359375 -1.23870849609375
606993750.0 -0.5545654296875 -1.1771240234375
638215625.0 -1.166259765625 -0.58966064453125
669437500.0 -1.3397216796875 0.23455810546875
700659375.0 -0.970458984375 1.09686279296875
731881250.0 -0.0029296875 1.54302978515625
763103125.0 1.00616455078125 1.155029296875
794325000.0 1.46893310546875 0.28094482421875
825546875.0 1.366943359375 -0.65234375
856768750.0 0.79376220703125 -1.4017333984375
887990625.0 -0.29364013671875 -1.64813232421875
919212500.0 -1.28887939453125 -1.07769775390625
950434375.0 -1.64837646484375 -0.05780029296875
981656250.0 -1.3819580078125 0.94696044921875
1012878125.0 -0.5281982421875 1.67279052734375
1044100000.0 0.6978759765625 1.66107177734375
1075321875.0 1.57525634765625 0.81072998046875
1106543750.0 1.70465087890625 -0.31427001953125
1137765625.0 1.18560791015625 -1.28460693359375
1168987500.0 0.13714599609375 -1.7969970703125
1200209375.0 -1.0625 -1.48297119140625
1231431250.0 -1.72772216796875 -0.45220947265625
1262653125.0 -1.593505859375 0.6861572265625
1293875000.0 -0.8507080078125 1.49188232421875
1325096875.0 0.22930908203125 1.7061767578125
1356318750.0 1.23541259765625 1.215576171875
1387540625.0 1.7398681640625 0.1873779296875
1418762500.0 1.4686279296875 -0.95233154296875
1449984375.0 0.5284423828125 -1.626220703125
1481206250.0 -0.55047607421875 -1.55535888671875
1512428125.0 -1.34222412109375 -0.91876220703125
1543650000.0 -1.65557861328125 0.06634521484375
1574871875.0 -1.2725830078125 1.10968017578125
1606093750.0 -0.27130126953125 1.63189697265625
1637315625.0 0.7430419921875 1.399658203125
1668537500.0 1.396484375 0.69451904296875
1699759375.0 1.57220458984375 -0.27813720703125
1730981250.0 1.06298828125 -1.22955322265625
1762203125.0 0.04119873046875 -1.56988525390625
1793425000.0 -0.85626220703125 -1.22564697265625
1824646875.0 -1.3929443359375 -0.51446533203125
1855868750.0 -1.4736328125 0.4332275390625
1887090625.0 -0.874267578125 1.2847900390625
1918312500.0 0.11785888671875 1.48651123046875
1949534375.0 0.922119140625 1.08856201171875
1980756250.0 1.37542724609375 0.36932373046875
2011978125.0 1.35888671875 -0.53240966796875
2043200000.0 0.7489013671875 -1.261962890625
2074421875.0 -0.15765380859375 -1.4324951171875
2105643750.0 -0.96026611328125 -1.07159423828125
2136865625.0 -1.447265625 -0.30389404296875
2168087500.0 -1.356201171875 0.67169189453125
2199309375.0 -0.63812255859375 1.35174560546875
2230531250.0 0.28240966796875 1.435302734375
2261753125.0 1.07269287109375 1.0128173828125
2292975000.0 1.5137939453125 0.16961669921875
2324196875.0 1.3048095703125 -0.81927490234375
2355418750.0 0.52447509765625 -1.41986083984375
2386640625.0 -0.40484619140625 -1.44854736328125
2417862500.0 -1.18133544921875 -1.0234375
2449084375.0 -1.6046142578125 -0.08319091796875
2480306250.0 -1.31103515625 0.92730712890625
2511528125.0 -0.4930419921875 1.50714111328125
2542750000.0 0.48956298828125 1.5350341796875
2573971875.0 1.37054443359375 0.96673583984375
2605193750.0 1.7171630859375 -0.1141357421875
2636415625.0 1.26043701171875 -1.15289306640625
2667637500.0 0.3043212890625 -1.6680908203125
2698859375.0 -0.76959228515625 -1.53277587890625
2730081250.0 -1.57354736328125 -0.739013671875
2761303125.0 -1.679443359375 0.38861083984375
2792525000.0 -1.09808349609375 1.307861328125
2823746875.0 -0.1007080078125 1.728759765625
2854968750.0 1.01324462890625 1.454345703125
2886190625.0 1.690673828125 0.490478515625
2917412500.0 1.59906005859375 -0.61749267578125
2948634375.0 0.938720703125 -1.43377685546875
2979856250.0 -0.109619140625 -1.77545166015625
3011078125.0 -1.24725341796875 -1.34051513671875
3042300000.0 -1.77349853515625 -0.23370361328125
3073521875.0 -1.50701904296875 0.8377685546875
3104743750.0 -0.76214599609375 1.567138671875
3135965625.0 0.36248779296875 1.807861328125
3167187500.0 1.49945068359375 1.16363525390625
3198409375.0 1.81512451171875 -0.07708740234375
3229631250.0 1.34747314453125 -1.0811767578125
3260853125.0 0.4884033203125 -1.66668701171875
3292075000.0 -0.65447998046875 -1.695556640625
3323296875.0 -1.619140625 -0.8780517578125
3354518750.0 -1.72869873046875 0.32891845703125
3385740625.0 -1.1546630859375 1.230712890625
3416962500.0 -0.230712890625 1.6807861328125
3448184375.0 0.859619140625 1.51995849609375
3479406250.0 1.63592529296875 0.64306640625
3510628125.0 1.64324951171875 -0.4957275390625
3541850000.0 0.99908447265625 -1.35394287109375
3573071875.0 -0.0086669921875 -1.6815185546875
3604293750.0 -1.0289306640625 -1.33636474609375
3635515625.0 -1.6270751953125 -0.4376220703125
3666737500.0 -1.56097412109375 0.64678955078125
3697959375.0 -0.8236083984375 1.475830078125
3729181250.0 0.2691650390625 1.62957763671875
3760403125.0 1.1522216796875 1.0970458984375
3791625000.0 1.55010986328125 0.21783447265625
3822846875.0 1.40087890625 -0.76123046875
3854068750.0 0.61944580078125 -1.4798583984375
3885290625.0 -0.4210205078125 -1.479736328125
3916512500.0 -1.141845703125 -0.90997314453125
3947734375.0 -1.4461669921875 -0.119384765625
3978956250.0 -1.2967529296875 0.77850341796875
4010178125.0 -0.53033447265625 1.45477294921875
4041400000.0 0.4730224609375 1.41424560546875
4072621875.0 1.15032958984375 0.8466796875
4103843750.0 1.4442138671875 0.06292724609375
4135065625.0 1.2669677734375 -0.846923828125
4166287500.0 0.457763671875 -1.49371337890625
4197509375.0 -0.5570068359375 -1.4139404296875
4228731250.0 -1.2481689453125 -0.80224609375
4259953125.0 -1.50836181640625 0.0714111328125
4291175000.0 -1.18780517578125 1.00970458984375
4322396875.0 -0.28900146484375 1.52484130859375
4353618750.0 0.67236328125 1.34906005859375
4384840625.0 1.32110595703125 0.6964111328125
4416062500.0 1.49920654296875 -0.2276611328125
4447284375.0 1.0540771484375 -1.103515625
4478506250.0 0.17205810546875 -1.49395751953125
4509728125.0 -0.73260498046875 -1.30609130859375
4540950000.0 -1.3922119140625 -0.6357421875
4572171875.0 -1.521484375 0.36004638671875
4603393750.0 -0.9715576171875 1.21197509765625
4634615625.0 -0.06170654296875 1.535888671875
4665837500.0 0.87115478515625 1.30401611328125
4697059375.0 1.53948974609375 0.515869140625
4728281250.0 1.5286865234375 -0.58319091796875
4759503125.0 0.82244873046875 -1.3663330078125
4790725000.0 -0.14605712890625 -1.57177734375
4821946875.0 -1.08489990234375 -1.19317626953125
4853168750.0 -1.61358642578125 -0.24969482421875
4884390625.0 -1.377197265625 0.79388427734375
4915612500.0 -0.6121826171875 1.4119873046875
4946834375.0 0.32952880859375 1.508544921875
4978056250.0 1.203125 1.01641845703125
5009278125.0 1.561279296875 0.03912353515625
5040500000.0 1.2288818359375 -0.8753662109375
5071721875.0 0.5009765625 -1.41375732421875
5102943750.0 -0.44580078125 -1.49530029296875
5134165625.0 -1.3345947265625 -0.90509033203125
5165387500.0 -1.56707763671875 0.1461181640625
5196609375.0 -1.13543701171875 1.0087890625
5227831250.0 -0.3570556640625 1.506103515625
5259053125.0 0.68865966796875 1.49163818359375
5290275000.0 1.52105712890625 0.66253662109375
5321496875.0 1.49127197265625 -0.43072509765625
5352718750.0 0.92059326171875 -1.153076171875
5383940625.0 0.09649658203125 -1.5
5415162500.0 -0.89959716796875 -1.2823486328125
5446384375.0 -1.4835205078125 -0.369873046875
5477606250.0 -1.29779052734375 0.56561279296875
5508828125.0 -0.73065185546875 1.150390625
5540050000.0 0.053955078125 1.39764404296875
5571271875.0 0.93829345703125 1.10797119140625
5602493750.0 1.40728759765625 0.25982666015625
5633715625.0 1.2315673828125 -0.61279296875
5664937500.0 0.64801025390625 -1.199951171875
5696159375.0 -0.19635009765625 -1.38330078125
5727381250.0 -1.0223388671875 -0.97821044921875
5758603125.0 -1.390380859375 -0.1456298828125
5789825000.0 -1.19439697265625 0.71832275390625
5821046875.0 -0.50653076171875 1.3065185546875
5852268750.0 0.41192626953125 1.3131103515625
5883490625.0 1.07110595703125 0.77191162109375
5914712500.0 1.30230712890625 0.0194091796875
5945934375.0 1.09613037109375 -0.776611328125
5977156250.0 0.3609619140625 -1.3115234375
6008378125.0 -0.5091552734375 -1.18218994140625
6039600000.0 -1.02166748046875 -0.64862060546875
6070821875.0 -1.2236328125 -0.00408935546875
6102043750.0 -1.0828857421875 0.7625732421875
6133265625.0 -0.3419189453125 1.343505859375
6164487500.0 0.5628662109375 1.18695068359375
6195709375.0 1.0706787109375 0.6298828125
6226931250.0 1.2786865234375 -0.04241943359375
6258153125.0 1.104248046875 -0.87060546875
6289375000.0 0.255859375 -1.44683837890625
6320596875.0 -0.68927001953125 -1.20635986328125
6351818750.0 -1.19915771484375 -0.57220458984375
6383040625.0 -1.35479736328125 0.2059326171875
6414262500.0 -0.9998779296875 1.05816650390625
6445484375.0 -0.07806396484375 1.4571533203125
6476706250.0 0.796630859375 1.14776611328125
6507928125.0 1.2906494140625 0.46990966796875
6539150000.0 1.34722900390625 -0.386962890625
6570371875.0 0.84063720703125 -1.14361572265625
6601593750.0 -0.0179443359375 -1.40521240234375
6632815625.0 -0.83941650390625 -1.1358642578125
6664037500.0 -1.40020751953125 -0.419677734375
6695259375.0 -1.3731689453125 0.56500244140625
6726481250.0 -0.71002197265625 1.251708984375
6757703125.0 0.13043212890625 1.40673828125
6788925000.0 0.95513916015625 1.1309814453125
6820146875.0 1.5594482421875 0.288330078125
6851368750.0 1.3262939453125 -0.82086181640625
6882590625.0 0.507080078125 -1.33795166015625
6913812500.0 -0.2926025390625 -1.3565673828125
6945034375.0 -1.06903076171875 -1.02130126953125
6976256250.0 -1.5924072265625 -0.09326171875
7007478125.0 -1.23614501953125 0.9346923828125
7038700000.0 -0.40325927734375 1.341796875
7069921875.0 0.36114501953125 1.3245849609375
7101143750.0 1.1175537109375 0.96875
7132365625.0 1.59832763671875 0.01544189453125
7163587500.0 1.15679931640625 -1.02276611328125
7194809375.0 0.30145263671875 -1.39605712890625
7226031250.0 -0.51080322265625 -1.32427978515625
7257253125.0 -1.2664794921875 -0.823486328125
7288475000.0 -1.55706787109375 0.197509765625
7319696875.0 -1.02874755859375 1.10955810546875
7350918750.0 -0.1630859375 1.44659423828125
7382140625.0 0.7159423828125 1.27679443359375
7413362500.0 1.37841796875 0.57562255859375
7444584375.0 1.41143798828125 -0.40606689453125
7475806250.0 0.8583984375 -1.14208984375
7507028125.0 0.005615234375 -1.4298095703125
7538250000.0 -0.886962890625 -1.12347412109375
7569471875.0 -1.3360595703125 -0.3104248046875
7600693750.0 -1.201171875 0.49652099609375
7631915625.0 -0.7176513671875 1.085205078125
7663137500.0 0.08099365234375 1.35833740234375
7694359375.0 0.9420166015625 0.9803466796875
7725581250.0 1.24322509765625 0.1805419921875
7756803125.0 1.0823974609375 -0.49884033203125
7788025000.0 0.669189453125 -1.0430908203125
7819246875.0 -0.12091064453125 -1.3470458984375
7850468750.0 -0.991485595703125 -0.916351318359375
7881690625.0 -1.23260498046875 -0.1041259765625
7912912500.0 -1.0548095703125 0.55401611328125
7944134375.0 -0.6053466796875 1.11285400390625
7975356250.0 0.27197265625 1.33544921875
8006578125.0 1.0467529296875 0.77911376953125
8037800000.0 1.19354248046875 0.01641845703125
8069021875.0 1.00665283203125 -0.616455078125
8100243750.0 0.499755859375 -1.16143798828125
8131465625.0 -0.38836669921875 -1.254638671875
8162687500.0 -1.03228759765625 -0.68572998046875
8193909375.0 -1.18194580078125 0.009765625
8225131250.0 -1.0172119140625 0.677490234375
8256353125.0 -0.4222412109375 1.2470703125
8287575000.0 0.49993896484375 1.2259521484375
8318796875.0 1.08197021484375 0.6356201171875
8350018750.0 1.2454833984375 -0.0758056640625
8381240625.0 1.03057861328125 -0.8377685546875
8412462500.0 0.2547607421875 -1.37286376953125
8443684375.0 -0.67095947265625 -1.1705322265625
8474906250.0 -1.1756591796875 -0.53179931640625
8506128125.0 -1.298095703125 0.2366943359375
8537350000.0 -0.92413330078125 1.0458984375
8568571875.0 -0.01513671875 1.396484375
8599793750.0 0.80206298828125 1.0538330078125
8631015625.0 1.24078369140625 0.3975830078125
8662237500.0 1.28631591796875 -0.42913818359375
8693459375.0 0.73583984375 -1.1773681640625
8724681250.0 -0.16253662109375 -1.33251953125
8755903125.0 -0.87890625 -0.957977294921875
8787125000.0 -1.30377197265625 -0.28082275390625
8818346875.0 -1.2506103515625 0.613037109375
8849568750.0 -0.557861328125 1.2603759765625
8880790625.0 0.29901123046875 1.28460693359375
8912012500.0 0.981201171875 0.89251708984375
8943234375.0 1.39837646484375 0.12939453125
8974456250.0 1.1671142578125 -0.8372802734375
9005678125.0 0.3482666015625 -1.3148193359375
9036900000.0 -0.44610595703125 -1.2247314453125
9068121875.0 -1.0999755859375 -0.78680419921875
9099343750.0 -1.44000244140625 0.0963134765625
9130565625.0 -0.98004150390625 1.0120849609375
9161787500.0 -0.15509033203125 1.2840576171875
9193009375.0 0.55621337890625 1.1337890625
9224231250.0 1.18017578125 0.65411376953125
9255453125.0 1.4002685546875 -0.29595947265625
9286675000.0 0.806884765625 -1.08740234375
9317896875.0 0.02618408203125 -1.2470703125
9349118750.0 -0.65478515625 -1.07000732421875
9380340625.0 -1.25848388671875 -0.51031494140625
9411562500.0 -1.3101806640625 0.47412109375
9442784375.0 -0.647705078125 1.11700439453125
9474006250.0 0.0880126953125 1.21087646484375
9505228125.0 0.764984130859375 0.980010986328125
9536450000.0 1.27239990234375 0.31463623046875
9567671875.0 1.14404296875 -0.57867431640625
9598893750.0 0.53021240234375 -1.0682373046875
9630115625.0 -0.1431884765625 -1.1575927734375
9661337500.0 -0.8193359375 -0.903472900390625
9692559375.0 -1.238525390625 -0.19000244140625
9723781250.0 -1.0445556640625 0.6041259765625
9755003125.0 -0.4857177734375 1.05023193359375
9786225000.0 0.1995849609375 1.16021728515625
9817446875.0 0.89654541015625 0.828399658203125
9848668750.0 1.19927978515625 0.0772705078125
9879890625.0 0.96844482421875 -0.617828369140625
9911112500.0 0.45196533203125 -1.052001953125
9942334375.0 -0.26690673828125 -1.1585693359375
9973556250.0 -0.9434814453125 -0.738128662109375
10004778125.0 -1.14581298828125 -0.01849365234375
10036000000.0 -0.944915771484375 0.616668701171875
10067221875.0 -0.44244384765625 1.09539794921875
10098443750.0 0.36883544921875 1.18212890625
10129665625.0 1.00262451171875 0.64337158203125
10160887500.0 1.1197509765625 -0.05133056640625
10192109375.0 0.917724609375 -0.662994384765625
10223331250.0 0.36090087890625 -1.15289306640625
10254553125.0 -0.48486328125 -1.11370849609375
10285775000.0 -0.984588623046875 -0.535797119140625
10316996875.0 -1.0682373046875 0.07598876953125
10348218750.0 -0.89996337890625 0.670135498046875
10379440625.0 -0.32159423828125 1.17694091796875
10410662500.0 0.52606201171875 1.08544921875
10441884375.0 0.9903564453125 0.521392822265625
10473106250.0 1.10968017578125 -0.08514404296875
10504328125.0 0.949249267578125 -0.75634765625
10535550000.0 0.23944091796875 -1.29376220703125
10566771875.0 -0.65557861328125 -1.07720947265625
10597993750.0 -1.08135986328125 -0.45916748046875
10629215625.0 -1.17596435546875 0.20556640625
10660437500.0 -0.88739013671875 0.951080322265625
10691659375.0 -0.01092529296875 1.33428955078125
10722881250.0 0.785736083984375 0.95245361328125
10754103125.0 1.12060546875 0.323974609375
10785325000.0 1.14031982421875 -0.3681640625
10816546875.0 0.7017822265625 -1.0484619140625
10847768750.0 -0.14569091796875 -1.23046875
10878990625.0 -0.803497314453125 -0.843475341796875
10910212500.0 -1.12457275390625 -0.24560546875
10941434375.0 -1.09710693359375 0.4757080078125
10972656250.0 -0.56842041015625 1.08544921875
11003878125.0 0.21624755859375 1.17333984375
11035100000.0 0.84765625 0.822601318359375
11066321875.0 1.220458984375 0.174560546875
11097543750.0 1.0992431640625 -0.67523193359375
11128765625.0 0.3861083984375 -1.19879150390625
11159987500.0 -0.3958740234375 -1.13916015625
11191209375.0 -1.00018310546875 -0.70294189453125
11222431250.0 -1.27239990234375 0.09356689453125
11253653125.0 -0.8592529296875 0.897003173828125
11284875000.0 -0.115234375 1.12646484375
11316096875.0 0.511962890625 0.95770263671875
11347318750.0 1.0029296875 0.5025634765625
11378540625.0 1.1182861328125 -0.2701416015625
11409762500.0 0.63494873046875 -0.86004638671875
11440984375.0 0.034912109375 -0.979461669921875
11472206250.0 -0.48138427734375 -0.850799560546875
11503428125.0 -0.95343017578125 -0.45556640625
11534650000.0 -1.06915283203125 0.28955078125
11565871875.0 -0.6029052734375 0.854461669921875
11597093750.0 -0.01861572265625 0.991363525390625
11628315625.0 0.542724609375 0.874725341796875
11659537500.0 1.06005859375 0.3929443359375
11690759375.0 1.0660400390625 -0.4345703125
11721981250.0 0.5167236328125 -0.941375732421875
11753203125.0 -0.10546875 -1.03607177734375
11784425000.0 -0.7235107421875 -0.809326171875
11815646875.0 -1.10003662109375 -0.15216064453125
11846868750.0 -0.8919677734375 0.552398681640625
11878090625.0 -0.39111328125 0.909210205078125
11909312500.0 0.186553955078125 0.984771728515625
11940534375.0 0.779632568359375 0.69580078125
11971756250.0 1.02545166015625 0.03961181640625
12002978125.0 0.8070068359375 -0.538909912109375
12034200000.0 0.3814697265625 -0.889984130859375
12065421875.0 -0.21514892578125 -1.00994873046875
12096643750.0 -0.8494873046875 -0.6658935546875
12127865625.0 -1.033935546875 0.01611328125
12159087500.0 -0.8148193359375 0.57574462890625
12190309375.0 -0.37762451171875 0.9764404296875
12221531250.0 0.33758544921875 1.0872802734375
12252753125.0 0.98046875 0.583038330078125
12283975000.0 1.0546875 -0.12701416015625
12315196875.0 0.8009033203125 -0.677703857421875
12346418750.0 0.2822265625 -1.09075927734375
12377640625.0 -0.53643798828125 -1.0599365234375
12408862500.0 -1.03521728515625 -0.41912841796875
12440084375.0 -1.00787353515625 0.22393798828125
12471306250.0 -0.74200439453125 0.737030029296875
12502528125.0 -0.179443359375 1.12054443359375
12533750000.0 0.621002197265625 0.993804931640625
12564971875.0 1.040771484375 0.3648681640625
12596193750.0 1.0284423828125 -0.263916015625
12627415625.0 0.747955322265625 -0.8284912109375
12658637500.0 0.0791015625 -1.20733642578125
12689859375.0 -0.73590087890625 -0.96722412109375
12721081250.0 -1.11566162109375 -0.30621337890625
12752303125.0 -1.09881591796875 0.38226318359375
12783525000.0 -0.687255859375 1.0272216796875
12814746875.0 0.164306640625 1.25091552734375
12845968750.0 0.86322021484375 0.811187744140625
12877190625.0 1.1177978515625 0.17083740234375
12908412500.0 1.05511474609375 -0.50030517578125
12939634375.0 0.54278564453125 -1.11688232421875
12970856250.0 -0.322021484375 -1.17645263671875
13002078125.0 -0.895233154296875 -0.6939697265625
13033300000.0 -1.10540771484375 -0.08709716796875
13064521875.0 -1.009765625 0.59521484375
13095743750.0 -0.4205322265625 1.15570068359375
13126965625.0 0.4095458984375 1.12127685546875
13158187500.0 0.94781494140625 0.632354736328125
13189409375.0 1.148193359375 -0.02105712890625
13220631250.0 0.937225341796875 -0.746978759765625
13251853125.0 0.2344970703125 -1.1727294921875
13283075000.0 -0.50604248046875 -1.01971435546875
13314296875.0 -0.98681640625 -0.5302734375
13345518750.0 -1.1361083984375 0.1781005859375
13376740625.0 -0.75341796875 0.85595703125
