!Created with skrf (http://scikit-rf.org).
# Hz S RI R 50.0 
!freq ReS11 ImS11
45000000.0 -0.07696914672851562 -0.09697723388671875
76221875.0 -0.196136474609375 -0.04766845703125
107443750.0 -0.25482177734375 0.119537353515625
138665625.0 -0.148162841796875 0.3282928466796875
169887500.0 0.123260498046875 0.41729736328125
201109375.0 0.42144775390625 0.2808685302734375
232331250.0 0.578521728515625 -0.057281494140625
263553125.0 0.4894561767578125 -0.4522552490234375
294775000.0 0.098876953125 -0.731719970703125
325996875.0 -0.41473388671875 -0.68017578125
357218750.0 -0.805450439453125 -0.297119140625
388440625.0 -0.88507080078125 0.30010986328125
419662500.0 -0.517303466796875 0.865264892578125
450884375.0 0.17254638671875 1.02789306640625
482106250.0 0.797393798828125 0.7122802734375
513328125.0 1.11834716796875 0.08758544921875
544550000.0 1.003173828125 -0.6788330078125
575771875.0 0.33648681640625 -1.23681640625
606993750.0 -0.55279541015625 -1.1766357421875
638215625.0 -1.16455078125 -0.59039306640625
669437500.0 -1.3385009765625 0.23291015625
700659375.0 -0.9703369140625 1.09515380859375
731881250.0 -0.00408935546875 1.54168701171875
763103125.0 1.00421142578125 1.15509033203125
794325000.0 1.46697998046875 0.28192138671875
825546875.0 1.3660888671875 -0.65032958984375
856768750.0 0.79449462890625 -1.398681640625
887990625.0 -0.29156494140625 -1.64654541015625
919212500.0 -1.28607177734375 -1.07794189453125
950434375.0 -1.6463623046875 -0.05987548828125
981656250.0 -1.38104248046875 0.943603515625
1012878125.0 -0.53009033203125 1.66845703125
1044100000.0 0.69488525390625 1.66009521484375
1075321875.0 1.572021484375 0.81146240234375
1106543750.0 1.702880859375 -0.31170654296875
1137765625.0 1.1859130859375 -1.28179931640625
1168987500.0 0.138916015625 -1.79461669921875
1200209375.0 -1.0596923828125 -1.48175048828125
1231431250.0 -1.7244873046875 -0.4541015625
1262653125.0 -1.5924072265625 0.682373046875
1293875000.0 -0.85150146484375 1.4888916015625
1325096875.0 0.2274169921875 1.70452880859375
1356318750.0 1.23297119140625 1.21527099609375
1387540625.0 1.737548828125 0.18927001953125
1418762500.0 1.467529296875 -0.949462890625
1449984375.0 0.52886962890625 -1.62384033203125
1481206250.0 -0.54852294921875 -1.5543212890625
1512428125.0 -1.339599609375 -0.9188232421875
1543650000.0 -1.65301513671875 0.06414794921875
1574871875.0 -1.27203369140625 1.1068115234375
1606093750.0 -0.27337646484375 1.629150390625
1637315625.0 0.74066162109375 1.39910888671875
1668537500.0 1.3936767578125 0.6954345703125
1699759375.0 1.57110595703125 -0.27618408203125
1730981250.0 1.063232421875 -1.227294921875
1762203125.0 0.0428466796875 -1.568115234375
1793425000.0 -0.85394287109375 -1.225341796875
1824646875.0 -1.39117431640625 -0.5150146484375
1855868750.0 -1.47222900390625 0.43096923828125
1887090625.0 -0.8741455078125 1.28326416015625
1918312500.0 0.1168212890625 1.4844970703125
1949534375.0 0.919677734375 1.08782958984375
1980756250.0 1.37322998046875 0.36968994140625
2011978125.0 1.35760498046875 -0.53009033203125
2043200000.0 0.7493896484375 -1.2589111328125
2074421875.0 -0.15594482421875 -1.431640625
2105643750.0 -0.95849609375 -1.071533203125
2136865625.0 -1.44525146484375 -0.30511474609375
2168087500.0 -1.35546875 0.66925048828125
2199309375.0 -0.6387939453125 1.3487548828125
2230531250.0 0.28033447265625 1.43365478515625
2261753125.0 1.07061767578125 1.01312255859375
2292975000.0 1.51202392578125 0.17071533203125
2324196875.0 1.30401611328125 -0.81756591796875
2355418750.0 0.52496337890625 -1.4176025390625
2386640625.0 -0.4033203125 -1.4468994140625
2417862500.0 -1.17755126953125 -1.0233154296875
2449084375.0 -1.600830078125 -0.08575439453125
2480306250.0 -1.3099365234375 0.9222412109375
2511528125.0 -0.4935302734375 1.50543212890625
2542750000.0 0.4871826171875 1.53424072265625
2573971875.0 1.36798095703125 0.9671630859375
2605193750.0 1.7144775390625 -0.11090087890625
2636415625.0 1.260009765625 -1.1494140625
2667637500.0 0.3070068359375 -1.66497802734375
2698859375.0 -0.76788330078125 -1.5322265625
2730081250.0 -1.5694580078125 -0.74072265625
2761303125.0 -1.6781005859375 0.3861083984375
2792525000.0 -1.09808349609375 1.30419921875
2823746875.0 -0.1031494140625 1.72589111328125
2854968750.0 1.00927734375 1.4532470703125
2886190625.0 1.68804931640625 0.491455078125
2917412500.0 1.59698486328125 -0.61602783203125
2948634375.0 0.9388427734375 -1.42901611328125
2979856250.0 -0.10595703125 -1.77239990234375
3011078125.0 -1.24444580078125 -1.3404541015625
3042300000.0 -1.77154541015625 -0.23504638671875
3073521875.0 -1.50634765625 0.83575439453125
3104743750.0 -0.76251220703125 1.5655517578125
3135965625.0 0.3583984375 1.804443359375
3167187500.0 1.4962158203125 1.16290283203125
3198409375.0 1.81207275390625 -0.07305908203125
3229631250.0 1.34625244140625 -1.0782470703125
3260853125.0 0.489990234375 -1.6644287109375
3292075000.0 -0.65234375 -1.69476318359375
3323296875.0 -1.6165771484375 -0.87860107421875
3354518750.0 -1.7265625 0.3267822265625
3385740625.0 -1.154541015625 1.22735595703125
3416962500.0 -0.2322998046875 1.6783447265625
3448184375.0 0.85833740234375 1.51947021484375
3479406250.0 1.63262939453125 0.6435546875
3510628125.0 1.6405029296875 -0.49200439453125
3541850000.0 0.99951171875 -1.351806640625
3573071875.0 -0.00714111328125 -1.67974853515625
3604293750.0 -1.02581787109375 -1.33538818359375
3635515625.0 -1.62469482421875 -0.4383544921875
3666737500.0 -1.55902099609375 0.644287109375
3697959375.0 -0.824462890625 1.4722900390625
3729181250.0 0.26727294921875 1.6280517578125
3760403125.0 1.150146484375 1.0966796875
3791625000.0 1.54962158203125 0.21875
3822846875.0 1.39898681640625 -0.75799560546875
3854068750.0 0.61993408203125 -1.477783203125
3885290625.0 -0.41912841796875 -1.478271484375
3916512500.0 -1.1396484375 -0.9097900390625
3947734375.0 -1.44476318359375 -0.12030029296875
3978956250.0 -1.29522705078125 0.7760009765625
4010178125.0 -0.5311279296875 1.45111083984375
4041400000.0 0.47027587890625 1.41265869140625
4072621875.0 1.14910888671875 0.84674072265625
4103843750.0 1.442138671875 0.064453125
4135065625.0 1.26629638671875 -0.844482421875
4166287500.0 0.45758056640625 -1.492431640625
4197509375.0 -0.55517578125 -1.41278076171875
4228731250.0 -1.24530029296875 -0.8017578125
4259953125.0 -1.506103515625 0.06976318359375
4291175000.0 -1.1868896484375 1.0076904296875
4322396875.0 -0.2900390625 1.52252197265625
4353618750.0 0.6705322265625 1.34759521484375
4384840625.0 1.3184814453125 0.697021484375
4416062500.0 1.498779296875 -0.2264404296875
4447284375.0 1.05401611328125 -1.10137939453125
4478506250.0 0.173583984375 -1.49212646484375
4509728125.0 -0.730224609375 -1.3057861328125
4540950000.0 -1.3912353515625 -0.6353759765625
4572171875.0 -1.52032470703125 0.3587646484375
4603393750.0 -0.971435546875 1.21075439453125
4634615625.0 -0.06195068359375 1.53515625
4665837500.0 0.86767578125 1.30316162109375
4697059375.0 1.53857421875 0.5150146484375
4728281250.0 1.526611328125 -0.58056640625
4759503125.0 0.8218994140625 -1.365966796875
4790725000.0 -0.14422607421875 -1.5697021484375
4821946875.0 -1.0811767578125 -1.19244384765625
4853168750.0 -1.61102294921875 -0.25115966796875
4884390625.0 -1.3765869140625 0.7921142578125
4915612500.0 -0.61376953125 1.4095458984375
4946834375.0 0.3272705078125 1.5078125
4978056250.0 1.20245361328125 1.0159912109375
5009278125.0 1.55938720703125 0.04052734375
5040500000.0 1.2286376953125 -0.8751220703125
5071721875.0 0.5015869140625 -1.412109375
5102943750.0 -0.44525146484375 -1.4945068359375
5134165625.0 -1.3336181640625 -0.9044189453125
5165387500.0 -1.56475830078125 0.14459228515625
5196609375.0 -1.134765625 1.00714111328125
5227831250.0 -0.35821533203125 1.50390625
5259053125.0 0.68572998046875 1.48980712890625
5290275000.0 1.51812744140625 0.66259765625
5321496875.0 1.49017333984375 -0.42919921875
5352718750.0 0.919921875 -1.1522216796875
5383940625.0 0.09661865234375 -1.49859619140625
5415162500.0 -0.8974609375 -1.2818603515625
5446384375.0 -1.482666015625 -0.370361328125
5477606250.0 -1.29779052734375 0.56463623046875
5508828125.0 -0.73101806640625 1.14935302734375
5540050000.0 0.05242919921875 1.3966064453125
5571271875.0 0.93798828125 1.1080322265625
5602493750.0 1.40582275390625 0.26043701171875
5633715625.0 1.23077392578125 -0.611083984375
5664937500.0 0.647705078125 -1.19976806640625
5696159375.0 -0.1959228515625 -1.3818359375
5727381250.0 -1.0201416015625 -0.9775390625
5758603125.0 -1.39007568359375 -0.1451416015625
5789825000.0 -1.19293212890625 0.716064453125
5821046875.0 -0.5062255859375 1.305419921875
5852268750.0 0.4093017578125 1.3106689453125
5883490625.0 1.06903076171875 0.77099609375
5914712500.0 1.3006591796875 0.02044677734375
5945934375.0 1.094970703125 -0.77374267578125
5977156250.0 0.3614501953125 -1.31048583984375
6008378125.0 -0.50860595703125 -1.18121337890625
6039600000.0 -1.0198974609375 -0.6488037109375
6070821875.0 -1.22216796875 -0.00506591796875
6102043750.0 -1.08245849609375 0.7603759765625
6133265625.0 -0.3426513671875 1.34295654296875
6164487500.0 0.56158447265625 1.18572998046875
6195709375.0 1.06787109375 0.63018798828125
6226931250.0 1.27838134765625 -0.04248046875
6258153125.0 1.1033935546875 -0.86944580078125
6289375000.0 0.25701904296875 -1.44451904296875
6320596875.0 -0.68798828125 -1.20458984375
6351818750.0 -1.19818115234375 -0.5721435546875
6383040625.0 -1.3526611328125 0.2059326171875
6414262500.0 -0.99871826171875 1.05560302734375
6445484375.0 -0.07891845703125 1.4547119140625
6476706250.0 0.7943115234375 1.1473388671875
6507928125.0 1.28753662109375 0.4705810546875
6539150000.0 1.3458251953125 -0.3851318359375
6570371875.0 0.8404541015625 -1.14190673828125
6601593750.0 -0.016845703125 -1.40362548828125
6632815625.0 -0.83782958984375 -1.1351318359375
6664037500.0 -1.3990478515625 -0.420166015625
6695259375.0 -1.3731689453125 0.5660400390625
6726481250.0 -0.709228515625 1.25006103515625
6757703125.0 0.12969970703125 1.4056396484375
6788925000.0 0.953125 1.12994384765625
6820146875.0 1.55865478515625 0.2880859375
6851368750.0 1.32452392578125 -0.81658935546875
6882590625.0 0.50616455078125 -1.336669921875
6913812500.0 -0.29150390625 -1.354736328125
6945034375.0 -1.06793212890625 -1.0203857421875
6976256250.0 -1.58953857421875 -0.094482421875
7007478125.0 -1.23486328125 0.9305419921875
7038700000.0 -0.40191650390625 1.34100341796875
7069921875.0 0.35687255859375 1.32080078125
7101143750.0 1.11639404296875 0.9671630859375
7132365625.0 1.59686279296875 0.01580810546875
7163587500.0 1.15740966796875 -1.0206298828125
7194809375.0 0.3017578125 -1.3958740234375
7226031250.0 -0.51043701171875 -1.32452392578125
7257253125.0 -1.26495361328125 -0.82379150390625
7288475000.0 -1.55682373046875 0.197998046875
7319696875.0 -1.02874755859375 1.10504150390625
7350918750.0 -0.16351318359375 1.444580078125
7382140625.0 0.7132568359375 1.27459716796875
7413362500.0 1.3751220703125 0.5745849609375
7444584375.0 1.40966796875 -0.4046630859375
7475806250.0 0.85748291015625 -1.140380859375
7507028125.0 0.00567626953125 -1.42889404296875
7538250000.0 -0.88531494140625 -1.12359619140625
7569471875.0 -1.3348388671875 -0.3116455078125
7600693750.0 -1.20050048828125 0.49517822265625
7631915625.0 -0.7174072265625 1.08184814453125
7663137500.0 0.07867431640625 1.3570556640625
7694359375.0 0.93804931640625 0.980224609375
7725581250.0 1.24188232421875 0.18035888671875
7756803125.0 1.08087158203125 -0.49853515625
7788025000.0 0.66912841796875 -1.04205322265625
7819246875.0 -0.118408203125 -1.3446044921875
7850468750.0 -0.990234375 -0.915374755859375
7881690625.0 -1.2298583984375 -0.1058349609375
7912912500.0 -1.05316162109375 0.5537109375
7944134375.0 -0.60479736328125 1.11260986328125
7975356250.0 0.26995849609375 1.3331298828125
8006578125.0 1.04510498046875 0.77850341796875
8037800000.0 1.19134521484375 0.01666259765625
8069021875.0 1.00567626953125 -0.6158447265625
8100243750.0 0.49853515625 -1.1602783203125
8131465625.0 -0.3861083984375 -1.25238037109375
8162687500.0 -1.0294189453125 -0.686279296875
8193909375.0 -1.18011474609375 0.007080078125
8225131250.0 -1.0167236328125 0.67572021484375
8256353125.0 -0.4224853515625 1.24639892578125
8287575000.0 0.49945068359375 1.22479248046875
8318796875.0 1.081787109375 0.6357421875
8350018750.0 1.24285888671875 -0.07476806640625
8381240625.0 1.0302734375 -0.8394775390625
8412462500.0 0.25567626953125 -1.37176513671875
8443684375.0 -0.6688232421875 -1.168701171875
8474906250.0 -1.1728515625 -0.53277587890625
8506128125.0 -1.29730224609375 0.23712158203125
8537350000.0 -0.9244384765625 1.04351806640625
8568571875.0 -0.0145263671875 1.39520263671875
8599793750.0 0.8011474609375 1.05322265625
8631015625.0 1.24041748046875 0.3985595703125
8662237500.0 1.283203125 -0.4273681640625
8693459375.0 0.73626708984375 -1.17535400390625
8724681250.0 -0.16265869140625 -1.33087158203125
8755903125.0 -0.87872314453125 -0.957305908203125
8787125000.0 -1.300537109375 -0.28289794921875
8818346875.0 -1.2503662109375 0.61492919921875
8849568750.0 -0.55499267578125 1.26031494140625
8880790625.0 0.3004150390625 1.2857666015625
8912012500.0 0.97967529296875 0.89154052734375
8943234375.0 1.39898681640625 0.1279296875
8974456250.0 1.1666259765625 -0.83837890625
9005678125.0 0.34869384765625 -1.31085205078125
9036900000.0 -0.4432373046875 -1.2242431640625
9068121875.0 -1.09820556640625 -0.78509521484375
9099343750.0 -1.43853759765625 0.09613037109375
9130565625.0 -0.98046875 1.009033203125
9161787500.0 -0.155517578125 1.28155517578125
9193009375.0 0.55511474609375 1.13348388671875
9224231250.0 1.17767333984375 0.65435791015625
9255453125.0 1.39666748046875 -0.2939453125
9286675000.0 0.8060302734375 -1.08465576171875
9317896875.0 0.0286865234375 -1.24444580078125
9349118750.0 -0.6533203125 -1.07025146484375
9380340625.0 -1.25592041015625 -0.5091552734375
9411562500.0 -1.310302734375 0.4735107421875
9442784375.0 -0.64825439453125 1.114501953125
9474006250.0 0.0867919921875 1.2091064453125
9505228125.0 0.762115478515625 0.97918701171875
9536450000.0 1.272216796875 0.3138427734375
9567671875.0 1.14306640625 -0.57891845703125
9598893750.0 0.52996826171875 -1.06591796875
9630115625.0 -0.1424560546875 -1.1568603515625
9661337500.0 -0.817169189453125 -0.901885986328125
9692559375.0 -1.2381591796875 -0.1904296875
9723781250.0 -1.04241943359375 0.6021728515625
9755003125.0 -0.48626708984375 1.04852294921875
9786225000.0 0.19793701171875 1.1578369140625
9817446875.0 0.89306640625 0.827423095703125
9848668750.0 1.19769287109375 0.07794189453125
9879890625.0 0.968292236328125 -0.615692138671875
9911112500.0 0.451904296875 -1.0509033203125
9942334375.0 -0.26568603515625 -1.15838623046875
9973556250.0 -0.942535400390625 -0.737823486328125
10004778125.0 -1.14508056640625 -0.01788330078125
10036000000.0 -0.943939208984375 0.61614990234375
10067221875.0 -0.4420166015625 1.09576416015625
10098443750.0 0.36883544921875 1.1805419921875
10129665625.0 1.0023193359375 0.64361572265625
10160887500.0 1.1185302734375 -0.05126953125
10192109375.0 0.916595458984375 -0.663238525390625
10223331250.0 0.36175537109375 -1.15045166015625
10254553125.0 -0.48614501953125 -1.11309814453125
10285775000.0 -0.983917236328125 -0.535491943359375
10316996875.0 -1.0665283203125 0.0748291015625
10348218750.0 -0.898712158203125 0.668212890625
10379440625.0 -0.3221435546875 1.17596435546875
10410662500.0 0.52581787109375 1.0841064453125
10441884375.0 0.991424560546875 0.5218505859375
10473106250.0 1.1070556640625 -0.0830078125
10504328125.0 0.948394775390625 -0.755645751953125
10535550000.0 0.23919677734375 -1.29412841796875
10566771875.0 -0.65679931640625 -1.0771484375
10597993750.0 -1.078857421875 -0.4593505859375
10629215625.0 -1.17425537109375 0.20599365234375
10660437500.0 -0.886474609375 0.951629638671875
10691659375.0 -0.00927734375 1.33477783203125
10722881250.0 0.784637451171875 0.95159912109375
10754103125.0 1.1168212890625 0.32501220703125
10785325000.0 1.13739013671875 -0.36474609375
10816546875.0 0.70001220703125 -1.04864501953125
10847768750.0 -0.14532470703125 -1.2291259765625
10878990625.0 -0.802886962890625 -0.84356689453125
10910212500.0 -1.12261962890625 -0.2447509765625
10941434375.0 -1.09735107421875 0.4757080078125
10972656250.0 -0.56842041015625 1.0838623046875
11003878125.0 0.21697998046875 1.17376708984375
11035100000.0 0.84613037109375 0.821441650390625
11066321875.0 1.2205810546875 0.17364501953125
11097543750.0 1.0975341796875 -0.67523193359375
11128765625.0 0.3861083984375 -1.19757080078125
11159987500.0 -0.39373779296875 -1.1376953125
11191209375.0 -0.998382568359375 -0.702178955078125
11222431250.0 -1.27178955078125 0.09356689453125
11253653125.0 -0.858917236328125 0.89495849609375
11284875000.0 -0.11468505859375 1.12493896484375
11316096875.0 0.508697509765625 0.955902099609375
11347318750.0 1.00140380859375 0.5020751953125
11378540625.0 1.11566162109375 -0.2685546875
11409762500.0 0.6356201171875 -0.859283447265625
11440984375.0 0.03656005859375 -0.9775390625
11472206250.0 -0.480712890625 -0.850189208984375
11503428125.0 -0.952667236328125 -0.45703125
11534650000.0 -1.0673828125 0.287353515625
11565871875.0 -0.6025390625 0.85577392578125
11597093750.0 -0.018768310546875 0.99078369140625
11628315625.0 0.54376220703125 0.874969482421875
11659537500.0 1.058349609375 0.39215087890625
11690759375.0 1.06353759765625 -0.43243408203125
11721981250.0 0.517608642578125 -0.93939208984375
11753203125.0 -0.10577392578125 -1.035888671875
11784425000.0 -0.724395751953125 -0.80877685546875
11815646875.0 -1.09814453125 -0.15185546875
11846868750.0 -0.891143798828125 0.550811767578125
11878090625.0 -0.390960693359375 0.9073486328125
11909312500.0 0.18658447265625 0.983795166015625
11940534375.0 0.780548095703125 0.694427490234375
11971756250.0 1.02392578125 0.04156494140625
12002978125.0 0.8065185546875 -0.5374755859375
12034200000.0 0.3818359375 -0.887847900390625
12065421875.0 -0.2154541015625 -1.009521484375
12096643750.0 -0.845550537109375 -0.665252685546875
12127865625.0 -1.033447265625 0.01690673828125
12159087500.0 -0.815185546875 0.573089599609375
12190309375.0 -0.377410888671875 0.97320556640625
12221531250.0 0.3387451171875 1.0877685546875
12252753125.0 0.980499267578125 0.580841064453125
12283975000.0 1.0540771484375 -0.1278076171875
12315196875.0 0.80010986328125 -0.67486572265625
12346418750.0 0.281494140625 -1.0902099609375
12377640625.0 -0.53778076171875 -1.06011962890625
12408862500.0 -1.0333251953125 -0.41998291015625
12440084375.0 -1.00634765625 0.22247314453125
12471306250.0 -0.7408447265625 0.736968994140625
12502528125.0 -0.18121337890625 1.11859130859375
12533750000.0 0.618133544921875 0.99285888671875
12564971875.0 1.03961181640625 0.36431884765625
12596193750.0 1.02850341796875 -0.26275634765625
12627415625.0 0.748291015625 -0.8260498046875
12658637500.0 0.07928466796875 -1.20684814453125
12689859375.0 -0.73675537109375 -0.966949462890625
12721081250.0 -1.1160888671875 -0.3060302734375
12752303125.0 -1.097900390625 0.3809814453125
12783525000.0 -0.68701171875 1.02520751953125
12814746875.0 0.16546630859375 1.2506103515625
12845968750.0 0.861968994140625 0.810791015625
12877190625.0 1.11572265625 0.17205810546875
12908412500.0 1.055908203125 -0.49993896484375
12939634375.0 0.54302978515625 -1.11334228515625
12970856250.0 -0.31842041015625 -1.17364501953125
13002078125.0 -0.8922119140625 -0.694610595703125
13033300000.0 -1.10540771484375 -0.0880126953125
13064521875.0 -1.009033203125 0.5921630859375
13095743750.0 -0.42138671875 1.15447998046875
13126965625.0 0.4078369140625 1.119140625
13158187500.0 0.9443359375 0.6318359375
13189409375.0 1.1475830078125 -0.02081298828125
13220631250.0 0.934661865234375 -0.74822998046875
13251853125.0 0.23577880859375 -1.1697998046875
13283075000.0 -0.50653076171875 -1.01959228515625
13314296875.0 -0.9862060546875 -0.529266357421875
13345518750.0 -1.13385009765625 0.17608642578125
