!Created with skrf (http://scikit-rf.org).
# Hz S RI R 50.0 
!freq ReS11 ImS11
45000000.0 -0.0770721435546875 -0.096893310546875
76221875.0 -0.19647979736328125 -0.04738616943359375
107443750.0 -0.2547454833984375 0.119781494140625
138665625.0 -0.1478729248046875 0.3287353515625
169887500.0 0.1238250732421875 0.41717529296875
201109375.0 0.4218902587890625 0.280517578125
232331250.0 0.57855224609375 -0.057891845703125
263553125.0 0.4890594482421875 -0.45294189453125
294775000.0 0.09808349609375 -0.732391357421875
325996875.0 -0.415740966796875 -0.680145263671875
357218750.0 -0.80615234375 -0.2962646484375
388440625.0 -0.885009765625 0.300933837890625
419662500.0 -0.516265869140625 0.866363525390625
450884375.0 0.17401123046875 1.02825927734375
482106250.0 0.79852294921875 0.711700439453125
513328125.0 1.118896484375 0.08636474609375
544550000.0 1.0029296875 -0.68017578125
575771875.0 0.3353271484375 -1.23779296875
606993750.0 -0.55419921875 -1.17633056640625
638215625.0 -1.16546630859375 -0.5892333984375
669437500.0 -1.3389892578125 0.23431396484375
700659375.0 -0.969970703125 1.0963134765625
731881250.0 -0.0028076171875 1.54205322265625
763103125.0 1.00555419921875 1.15478515625
794325000.0 1.46795654296875 0.28057861328125
825546875.0 1.36590576171875 -0.65179443359375
856768750.0 0.79315185546875 -1.3997802734375
887990625.0 -0.2930908203125 -1.64697265625
919212500.0 -1.2884521484375 -1.07666015625
950434375.0 -1.6473388671875 -0.05780029296875
981656250.0 -1.3807373046875 0.94671630859375
1012878125.0 -0.52801513671875 1.670654296875
1044100000.0 0.697021484375 1.6597900390625
1075321875.0 1.5736083984375 0.81036376953125
1106543750.0 1.70318603515625 -0.31402587890625
1137765625.0 1.18450927734375 -1.28399658203125
1168987500.0 0.1368408203125 -1.794921875
1200209375.0 -1.0615234375 -1.48150634765625
1231431250.0 -1.72613525390625 -0.45172119140625
1262653125.0 -1.59210205078125 0.6851806640625
1293875000.0 -0.85015869140625 1.48992919921875
1325096875.0 0.22882080078125 1.704833984375
1356318750.0 1.2342529296875 1.21466064453125
1387540625.0 1.73797607421875 0.187744140625
1418762500.0 1.4674072265625 -0.95111083984375
1449984375.0 0.52789306640625 -1.624267578125
1481206250.0 -0.55035400390625 -1.55401611328125
1512428125.0 -1.3414306640625 -0.9178466796875
1543650000.0 -1.65374755859375 0.06597900390625
1574871875.0 -1.2711181640625 1.10870361328125
1606093750.0 -0.27178955078125 1.6298828125
1637315625.0 0.74188232421875 1.3983154296875
1668537500.0 1.39508056640625 0.694091796875
1699759375.0 1.57135009765625 -0.27777099609375
1730981250.0 1.06207275390625 -1.22894287109375
1762203125.0 0.04119873046875 -1.5687255859375
1793425000.0 -0.85552978515625 -1.2249755859375
1824646875.0 -1.39239501953125 -0.513916015625
1855868750.0 -1.47222900390625 0.43292236328125
1887090625.0 -0.87335205078125 1.28424072265625
1918312500.0 0.11749267578125 1.48486328125
1949534375.0 0.92095947265625 1.08758544921875
1980756250.0 1.3739013671875 0.36932373046875
2011978125.0 1.357666015625 -0.53179931640625
2043200000.0 0.74847412109375 -1.26068115234375
2074421875.0 -0.15765380859375 -1.431396484375
2105643750.0 -0.95977783203125 -1.07061767578125
2136865625.0 -1.44573974609375 -0.30377197265625
2168087500.0 -1.35516357421875 0.67083740234375
2199309375.0 -0.6375732421875 1.34979248046875
2230531250.0 0.28179931640625 1.43438720703125
2261753125.0 1.07196044921875 1.01220703125
2292975000.0 1.512939453125 0.169189453125
2324196875.0 1.3038330078125 -0.81854248046875
2355418750.0 0.52435302734375 -1.418212890625
2386640625.0 -0.4044189453125 -1.44732666015625
2417862500.0 -1.17852783203125 -1.02276611328125
2449084375.0 -1.603515625 -0.08233642578125
2480306250.0 -1.30975341796875 0.92486572265625
2511528125.0 -0.4915771484375 1.5067138671875
2542750000.0 0.4881591796875 1.533935546875
2573971875.0 1.36859130859375 0.96612548828125
2605193750.0 1.71466064453125 -0.11297607421875
2636415625.0 1.25933837890625 -1.150634765625
2667637500.0 0.3052978515625 -1.66510009765625
2698859375.0 -0.7685546875 -1.53070068359375
2730081250.0 -1.5701904296875 -0.73919677734375
2761303125.0 -1.678955078125 0.38897705078125
2792525000.0 -1.09735107421875 1.30474853515625
2823746875.0 -0.10150146484375 1.72674560546875
2854968750.0 1.01092529296875 1.452880859375
2886190625.0 1.6878662109375 0.49102783203125
2917412500.0 1.597412109375 -0.61810302734375
2948634375.0 0.93695068359375 -1.430908203125
2979856250.0 -0.1094970703125 -1.77423095703125
3011078125.0 -1.24700927734375 -1.339599609375
3042300000.0 -1.7725830078125 -0.23333740234375
3073521875.0 -1.50653076171875 0.83721923828125
3104743750.0 -0.7618408203125 1.5653076171875
3135965625.0 0.3626708984375 1.80609130859375
3167187500.0 1.49725341796875 1.16259765625
3198409375.0 1.81243896484375 -0.07501220703125
3229631250.0 1.34588623046875 -1.07977294921875
3260853125.0 0.4876708984375 -1.66546630859375
3292075000.0 -0.6541748046875 -1.694580078125
3323296875.0 -1.616943359375 -0.87762451171875
3354518750.0 -1.7274169921875 0.3284912109375
3385740625.0 -1.1536865234375 1.23114013671875
3416962500.0 -0.23101806640625 1.678466796875
3448184375.0 0.86090087890625 1.5191650390625
3479406250.0 1.63250732421875 0.6434326171875
3510628125.0 1.6414794921875 -0.4947509765625
3541850000.0 0.99835205078125 -1.3531494140625
3573071875.0 -0.00811767578125 -1.67974853515625
3604293750.0 -1.0263671875 -1.33502197265625
3635515625.0 -1.62542724609375 -0.437255859375
3666737500.0 -1.55908203125 0.646240234375
3697959375.0 -0.82342529296875 1.47412109375
3729181250.0 0.26934814453125 1.62945556640625
3760403125.0 1.15155029296875 1.0963134765625
3791625000.0 1.549560546875 0.2174072265625
3822846875.0 1.39892578125 -0.7603759765625
3854068750.0 0.619140625 -1.47833251953125
3885290625.0 -0.42071533203125 -1.47821044921875
3916512500.0 -1.1402587890625 -0.9095458984375
3947734375.0 -1.4447021484375 -0.11981201171875
3978956250.0 -1.294921875 0.7777099609375
4010178125.0 -0.5303955078125 1.451171875
4041400000.0 0.47332763671875 1.41375732421875
4072621875.0 1.15081787109375 0.84613037109375
4103843750.0 1.44268798828125 0.06304931640625
4135065625.0 1.2655029296875 -0.84466552734375
4166287500.0 0.45648193359375 -1.49432373046875
4197509375.0 -0.55694580078125 -1.412841796875
4228731250.0 -1.24713134765625 -0.8013916015625
4259953125.0 -1.5069580078125 0.07012939453125
4291175000.0 -1.186767578125 1.00909423828125
4322396875.0 -0.2880859375 1.5238037109375
4353618750.0 0.67205810546875 1.347412109375
4384840625.0 1.32086181640625 0.69561767578125
4416062500.0 1.49847412109375 -0.22747802734375
4447284375.0 1.0533447265625 -1.10296630859375
4478506250.0 0.17218017578125 -1.493408203125
4509728125.0 -0.7318115234375 -1.30548095703125
4540950000.0 -1.3905029296875 -0.63525390625
4572171875.0 -1.52044677734375 0.35943603515625
4603393750.0 -0.971435546875 1.2108154296875
4634615625.0 -0.06097412109375 1.5350341796875
4665837500.0 0.868896484375 1.3026123046875
4697059375.0 1.5396728515625 0.51422119140625
4728281250.0 1.5272216796875 -0.58221435546875
4759503125.0 0.82183837890625 -1.36553955078125
4790725000.0 -0.145263671875 -1.571044921875
4821946875.0 -1.0828857421875 -1.1922607421875
4853168750.0 -1.6109619140625 -0.250244140625
4884390625.0 -1.3760986328125 0.792236328125
4915612500.0 -0.6123046875 1.4095458984375
4946834375.0 0.32843017578125 1.5068359375
4978056250.0 1.20330810546875 1.01580810546875
5009278125.0 1.55902099609375 0.04022216796875
5040500000.0 1.22735595703125 -0.8740234375
5071721875.0 0.50091552734375 -1.4122314453125
5102943750.0 -0.44598388671875 -1.4949951171875
5134165625.0 -1.334716796875 -0.904541015625
5165387500.0 -1.56597900390625 0.146484375
5196609375.0 -1.134521484375 1.0078125
5227831250.0 -0.3568115234375 1.5047607421875
5259053125.0 0.68670654296875 1.48974609375
5290275000.0 1.51947021484375 0.661865234375
5321496875.0 1.490234375 -0.42987060546875
5352718750.0 0.9200439453125 -1.15216064453125
5383940625.0 0.09625244140625 -1.49835205078125
5415162500.0 -0.89935302734375 -1.28228759765625
5446384375.0 -1.481689453125 -0.3695068359375
5477606250.0 -1.297607421875 0.5662841796875
5508828125.0 -0.73040771484375 1.1492919921875
5540050000.0 0.05401611328125 1.3973388671875
5571271875.0 0.9368896484375 1.1070556640625
5602493750.0 1.40765380859375 0.2589111328125
5633715625.0 1.23046875 -0.61175537109375
5664937500.0 0.64703369140625 -1.19952392578125
5696159375.0 -0.19708251953125 -1.38226318359375
5727381250.0 -1.01983642578125 -0.97711181640625
5758603125.0 -1.3902587890625 -0.14447021484375
5789825000.0 -1.1925048828125 0.71624755859375
5821046875.0 -0.50604248046875 1.305419921875
5852268750.0 0.41168212890625 1.3115234375
5883490625.0 1.06976318359375 0.771240234375
5914712500.0 1.30059814453125 0.0203857421875
5945934375.0 1.09490966796875 -0.77447509765625
5977156250.0 0.36077880859375 -1.31103515625
6008378125.0 -0.50994873046875 -1.18157958984375
6039600000.0 -1.02099609375 -0.64837646484375
6070821875.0 -1.22222900390625 -0.00457763671875
6102043750.0 -1.08197021484375 0.76153564453125
6133265625.0 -0.34197998046875 1.34234619140625
6164487500.0 0.56298828125 1.18646240234375
6195709375.0 1.06927490234375 0.62957763671875
6226931250.0 1.27801513671875 -0.04278564453125
6258153125.0 1.1033935546875 -0.86993408203125
6289375000.0 0.25616455078125 -1.44476318359375
6320596875.0 -0.6893310546875 -1.2052001953125
6351818750.0 -1.1983642578125 -0.57208251953125
6383040625.0 -1.353759765625 0.206787109375
6414262500.0 -0.99932861328125 1.05706787109375
6445484375.0 -0.078369140625 1.45556640625
6476706250.0 0.7943115234375 1.14654541015625
6507928125.0 1.28961181640625 0.46929931640625
6539150000.0 1.34619140625 -0.38616943359375
6570371875.0 0.83990478515625 -1.14306640625
6601593750.0 -0.0172119140625 -1.4033203125
6632815625.0 -0.83892822265625 -1.13494873046875
6664037500.0 -1.40045166015625 -0.419921875
6695259375.0 -1.3721923828125 0.56524658203125
6726481250.0 -0.70977783203125 1.24951171875
6757703125.0 0.12969970703125 1.40496826171875
6788925000.0 0.95379638671875 1.1297607421875
6820146875.0 1.5596923828125 0.28729248046875
6851368750.0 1.3248291015625 -0.8193359375
6882590625.0 0.50592041015625 -1.3380126953125
6913812500.0 -0.29278564453125 -1.35540771484375
6945034375.0 -1.06878662109375 -1.0208740234375
6976256250.0 -1.59161376953125 -0.0928955078125
7007478125.0 -1.2352294921875 0.93194580078125
7038700000.0 -0.40087890625 1.34033203125
7069921875.0 0.36041259765625 1.3221435546875
7101143750.0 1.11920166015625 0.96734619140625
7132365625.0 1.59698486328125 0.014404296875
7163587500.0 1.1558837890625 -1.01873779296875
7194809375.0 0.30108642578125 -1.39508056640625
7226031250.0 -0.51055908203125 -1.32342529296875
7257253125.0 -1.26275634765625 -0.82379150390625
7288475000.0 -1.55816650390625 0.19708251953125
7319696875.0 -1.029052734375 1.109130859375
7350918750.0 -0.16375732421875 1.443359375
7382140625.0 0.71624755859375 1.27471923828125
7413362500.0 1.3739013671875 0.5765380859375
7444584375.0 1.41064453125 -0.40545654296875
7475806250.0 0.85693359375 -1.14044189453125
7507028125.0 0.0050048828125 -1.4276123046875
7538250000.0 -0.88665771484375 -1.122314453125
7569471875.0 -1.3321533203125 -0.313232421875
7600693750.0 -1.20184326171875 0.4974365234375
7631915625.0 -0.71697998046875 1.08477783203125
7663137500.0 0.08026123046875 1.35748291015625
7694359375.0 0.93902587890625 0.979888916015625
7725581250.0 1.24139404296875 0.181396484375
7756803125.0 1.08062744140625 -0.49749755859375
7788025000.0 0.6702880859375 -1.0406494140625
7819246875.0 -0.12017822265625 -1.34576416015625
7850468750.0 -0.990966796875 -0.915008544921875
7881690625.0 -1.23046875 -0.1053466796875
7912912500.0 -1.05450439453125 0.5550537109375
7944134375.0 -0.6053466796875 1.11114501953125
7975356250.0 0.27056884765625 1.3343505859375
8006578125.0 1.04620361328125 0.7789306640625
8037800000.0 1.1922607421875 0.01568603515625
8069021875.0 1.005859375 -0.61669921875
8100243750.0 0.49920654296875 -1.16046142578125
8131465625.0 -0.38525390625 -1.25225830078125
8162687500.0 -1.03167724609375 -0.6854248046875
8193909375.0 -1.179931640625 0.00885009765625
8225131250.0 -1.0169677734375 0.6768798828125
8256353125.0 -0.42120361328125 1.2479248046875
8287575000.0 0.500244140625 1.22552490234375
8318796875.0 1.082763671875 0.6358642578125
8350018750.0 1.24493408203125 -0.07623291015625
8381240625.0 1.0303955078125 -0.838134765625
8412462500.0 0.25421142578125 -1.371337890625
8443684375.0 -0.6673583984375 -1.1683349609375
8474906250.0 -1.174560546875 -0.53173828125
8506128125.0 -1.2972412109375 0.2381591796875
8537350000.0 -0.92340087890625 1.04547119140625
8568571875.0 -0.015380859375 1.3941650390625
8599793750.0 0.80072021484375 1.05267333984375
8631015625.0 1.2410888671875 0.397705078125
8662237500.0 1.28472900390625 -0.43017578125
8693459375.0 0.736328125 -1.17596435546875
8724681250.0 -0.16314697265625 -1.33056640625
8755903125.0 -0.8795166015625 -0.957275390625
8787125000.0 -1.30169677734375 -0.28173828125
8818346875.0 -1.2496337890625 0.6156005859375
8849568750.0 -0.55706787109375 1.2596435546875
8880790625.0 0.29833984375 1.2843017578125
8912012500.0 0.980743408203125 0.89166259765625
8943234375.0 1.3978271484375 0.12890625
8974456250.0 1.16595458984375 -0.83807373046875
9005678125.0 0.3489990234375 -1.3123779296875
9036900000.0 -0.44464111328125 -1.2239990234375
9068121875.0 -1.099609375 -0.7855224609375
9099343750.0 -1.44000244140625 0.0963134765625
9130565625.0 -0.9783935546875 1.009521484375
9161787500.0 -0.1551513671875 1.2808837890625
9193009375.0 0.55291748046875 1.13214111328125
9224231250.0 1.17889404296875 0.65386962890625
9255453125.0 1.3978271484375 -0.29486083984375
9286675000.0 0.80657958984375 -1.08514404296875
9317896875.0 0.02508544921875 -1.24755859375
9349118750.0 -0.65374755859375 -1.068359375
9380340625.0 -1.25494384765625 -0.5107421875
9411562500.0 -1.31011962890625 0.47613525390625
9442784375.0 -0.64764404296875 1.11614990234375
9474006250.0 0.08831787109375 1.21087646484375
9505228125.0 0.766021728515625 0.98052978515625
9536450000.0 1.27325439453125 0.31396484375
9567671875.0 1.14398193359375 -0.5791015625
9598893750.0 0.52984619140625 -1.06622314453125
9630115625.0 -0.1436767578125 -1.15679931640625
9661337500.0 -0.817169189453125 -0.901885986328125
9692559375.0 -1.23834228515625 -0.1900634765625
9723781250.0 -1.04302978515625 0.6038818359375
9755003125.0 -0.48565673828125 1.04901123046875
9786225000.0 0.1971435546875 1.15875244140625
9817446875.0 0.895172119140625 0.82684326171875
9848668750.0 1.19757080078125 0.07855224609375
9879890625.0 0.967926025390625 -0.617431640625
9911112500.0 0.45123291015625 -1.0526123046875
9942334375.0 -0.267578125 -1.15869140625
9973556250.0 -0.941253662109375 -0.73883056640625
10004778125.0 -1.14483642578125 -0.01898193359375
10036000000.0 -0.9439697265625 0.6156005859375
10067221875.0 -0.4420166015625 1.09576416015625
10098443750.0 0.36993408203125 1.18121337890625
10129665625.0 1.00128173828125 0.64312744140625
10160887500.0 1.1185302734375 -0.04986572265625
10192109375.0 0.91815185546875 -0.664215087890625
10223331250.0 0.3614501953125 -1.151611328125
10254553125.0 -0.4857177734375 -1.1131591796875
10285775000.0 -0.984344482421875 -0.53570556640625
10316996875.0 -1.06634521484375 0.07659912109375
10348218750.0 -0.899566650390625 0.6705322265625
10379440625.0 -0.322265625 1.1739501953125
10410662500.0 0.52587890625 1.084716796875
10441884375.0 0.99151611328125 0.521728515625
10473106250.0 1.10821533203125 -0.0841064453125
10504328125.0 0.948638916015625 -0.7557373046875
10535550000.0 0.23992919921875 -1.29534912109375
10566771875.0 -0.65704345703125 -1.07666015625
10597993750.0 -1.08074951171875 -0.45794677734375
10629215625.0 -1.173583984375 0.2047119140625
10660437500.0 -0.8876953125 0.95013427734375
10691659375.0 -0.011962890625 1.3343505859375
10722881250.0 0.785064697265625 0.952484130859375
10754103125.0 1.1197509765625 0.3233642578125
10785325000.0 1.1383056640625 -0.3648681640625
10816546875.0 0.70074462890625 -1.04742431640625
10847768750.0 -0.1446533203125 -1.22894287109375
10878990625.0 -0.803253173828125 -0.84405517578125
10910212500.0 -1.1214599609375 -0.24615478515625
10941434375.0 -1.09625244140625 0.47601318359375
10972656250.0 -0.56719970703125 1.08416748046875
11003878125.0 0.21697998046875 1.1722412109375
11035100000.0 0.845672607421875 0.82177734375
11066321875.0 1.21905517578125 0.1763916015625
11097543750.0 1.09747314453125 -0.676513671875
11128765625.0 0.38543701171875 -1.197265625
11159987500.0 -0.39501953125 -1.1378173828125
11191209375.0 -0.998016357421875 -0.702850341796875
11222431250.0 -1.27362060546875 0.0943603515625
11253653125.0 -0.85870361328125 0.89434814453125
11284875000.0 -0.11456298828125 1.12664794921875
11316096875.0 0.511383056640625 0.95587158203125
11347318750.0 1.002685546875 0.50250244140625
11378540625.0 1.115966796875 -0.267578125
11409762500.0 0.635009765625 -0.8597412109375
11440984375.0 0.036407470703125 -0.9786376953125
11472206250.0 -0.480865478515625 -0.84930419921875
11503428125.0 -0.951904296875 -0.45611572265625
11534650000.0 -1.068359375 0.28826904296875
11565871875.0 -0.60205078125 0.85467529296875
11597093750.0 -0.019866943359375 0.990234375
11628315625.0 0.54608154296875 0.875091552734375
11659537500.0 1.05889892578125 0.39215087890625
11690759375.0 1.06500244140625 -0.43328857421875
11721981250.0 0.517486572265625 -0.938385009765625
11753203125.0 -0.1058349609375 -1.036376953125
11784425000.0 -0.723052978515625 -0.808563232421875
11815646875.0 -1.10003662109375 -0.15179443359375
11846868750.0 -0.89166259765625 0.55047607421875
11878090625.0 -0.391448974609375 0.907073974609375
11909312500.0 0.18695068359375 0.983795166015625
11940534375.0 0.779937744140625 0.69525146484375
11971756250.0 1.0247802734375 0.03955078125
12002978125.0 0.805755615234375 -0.5352783203125
12034200000.0 0.382049560546875 -0.888214111328125
12065421875.0 -0.21392822265625 -1.009521484375
12096643750.0 -0.846923828125 -0.665496826171875
12127865625.0 -1.0330810546875 0.0164794921875
12159087500.0 -0.81549072265625 0.57611083984375
12190309375.0 -0.37835693359375 0.974273681640625
12221531250.0 0.33929443359375 1.08770751953125
12252753125.0 0.979217529296875 0.5819091796875
12283975000.0 1.05401611328125 -0.12689208984375
12315196875.0 0.800048828125 -0.67584228515625
12346418750.0 0.2816162109375 -1.0904541015625
12377640625.0 -0.53692626953125 -1.060791015625
12408862500.0 -1.03277587890625 -0.4193115234375
12440084375.0 -1.0072021484375 0.22454833984375
12471306250.0 -0.741455078125 0.73614501953125
12502528125.0 -0.1793212890625 1.1199951171875
12533750000.0 0.6187744140625 0.99261474609375
12564971875.0 1.03955078125 0.3643798828125
12596193750.0 1.03033447265625 -0.26397705078125
12627415625.0 0.74737548828125 -0.827789306640625
12658637500.0 0.07977294921875 -1.20733642578125
12689859375.0 -0.73577880859375 -0.965667724609375
12721081250.0 -1.11456298828125 -0.30657958984375
12752303125.0 -1.09759521484375 0.38311767578125
12783525000.0 -0.686767578125 1.0264892578125
12814746875.0 0.1627197265625 1.25103759765625
12845968750.0 0.86407470703125 0.8111572265625
12877190625.0 1.116455078125 0.17279052734375
12908412500.0 1.0557861328125 -0.50177001953125
12939634375.0 0.54327392578125 -1.11444091796875
12970856250.0 -0.32086181640625 -1.17572021484375
13002078125.0 -0.89459228515625 -0.69293212890625
13033300000.0 -1.10516357421875 -0.08758544921875
13064521875.0 -1.00897216796875 0.59332275390625
13095743750.0 -0.419921875 1.15484619140625
13126965625.0 0.4075927734375 1.12030029296875
13158187500.0 0.945556640625 0.632965087890625
13189409375.0 1.1475830078125 -0.021240234375
13220631250.0 0.936004638671875 -0.74639892578125
13251853125.0 0.23431396484375 -1.17138671875
13283075000.0 -0.506591796875 -1.0196533203125
13314296875.0 -0.98553466796875 -0.52923583984375
