!Created with skrf (http://scikit-rf.org).
# Hz S RI R 50.0 
!freq ReS11 ImS11
45000000.0 -0.076629638671875 -0.09722900390625
76221875.0 -0.19687652587890625 -0.04822540283203125
107443750.0 -0.2562255859375 0.1195068359375
138665625.0 -0.14959716796875 0.329071044921875
169887500.0 0.12249755859375 0.4188690185546875
201109375.0 0.4220733642578125 0.283111572265625
232331250.0 0.580718994140625 -0.055633544921875
263553125.0 0.492462158203125 -0.4528350830078125
294775000.0 0.101104736328125 -0.734375
325996875.0 -0.414520263671875 -0.684234619140625
357218750.0 -0.808380126953125 -0.3006591796875
388440625.0 -0.889495849609375 0.29901123046875
419662500.0 -0.521728515625 0.8671875
450884375.0 0.17034912109375 1.032470703125
482106250.0 0.798614501953125 0.717437744140625
513328125.0 1.1224365234375 0.0909423828125
544550000.0 1.00836181640625 -0.67864990234375
575771875.0 0.34112548828125 -1.23992919921875
606993750.0 -0.55133056640625 -1.1820068359375
638215625.0 -1.1669921875 -0.5958251953125
669437500.0 -1.3438720703125 0.23028564453125
700659375.0 -0.9765625 1.09564208984375
731881250.0 -0.00897216796875 1.54656982421875
763103125.0 1.00445556640625 1.1624755859375
794325000.0 1.47174072265625 0.287353515625
825546875.0 1.372802734375 -0.6492919921875
856768750.0 0.8009033203125 -1.40228271484375
887990625.0 -0.2890625 -1.65380859375
919212500.0 -1.28900146484375 -1.0860595703125
950434375.0 -1.654296875 -0.06378173828125
981656250.0 -1.38958740234375 0.94482421875
1012878125.0 -0.53643798828125 1.6759033203125
1044100000.0 0.69482421875 1.66961669921875
1075321875.0 1.57757568359375 0.81939697265625
1106543750.0 1.711181640625 -0.30914306640625
1137765625.0 1.194091796875 -1.28521728515625
1168987500.0 0.14422607421875 -1.802490234375
1200209375.0 -1.06103515625 -1.4915771484375
1231431250.0 -1.731689453125 -0.45953369140625
1262653125.0 -1.60064697265625 0.68231201171875
1293875000.0 -0.85888671875 1.4932861328125
1325096875.0 0.2230224609375 1.71197509765625
1356318750.0 1.2353515625 1.22418212890625
1387540625.0 1.74481201171875 0.19488525390625
1418762500.0 1.47662353515625 -0.94915771484375
1449984375.0 0.5357666015625 -1.62933349609375
1481206250.0 -0.546875 -1.56201171875
1512428125.0 -1.34375 -0.92584228515625
1543650000.0 -1.6605224609375 0.06134033203125
1574871875.0 -1.2796630859375 1.10797119140625
1606093750.0 -0.27813720703125 1.63507080078125
1637315625.0 0.74017333984375 1.40625
1668537500.0 1.39752197265625 0.70159912109375
1699759375.0 1.5780029296875 -0.27337646484375
1730981250.0 1.0703125 -1.229248046875
1762203125.0 0.046875 -1.57440185546875
1793425000.0 -0.8546142578125 -1.23223876953125
1824646875.0 -1.39544677734375 -0.5203857421875
1855868750.0 -1.47955322265625 0.4290771484375
1887090625.0 -0.88116455078125 1.28643798828125
1918312500.0 0.11334228515625 1.4910888671875
1949534375.0 0.92108154296875 1.09423828125
1980756250.0 1.3775634765625 0.37530517578125
2011978125.0 1.36474609375 -0.52923583984375
2043200000.0 0.7552490234375 -1.26251220703125
2074421875.0 -0.15386962890625 -1.43756103515625
2105643750.0 -0.960205078125 -1.07763671875
2136865625.0 -1.4501953125 -0.30938720703125
2168087500.0 -1.362548828125 0.6693115234375
2199309375.0 -0.64422607421875 1.3531494140625
2230531250.0 0.27899169921875 1.44085693359375
2261753125.0 1.07281494140625 1.0191650390625
2292975000.0 1.51776123046875 0.17462158203125
2324196875.0 1.310791015625 -0.81719970703125
2355418750.0 0.5302734375 -1.4215087890625
2386640625.0 -0.4019775390625 -1.45355224609375
2417862500.0 -1.18206787109375 -1.029052734375
2449084375.0 -1.60845947265625 -0.0880126953125
2480306250.0 -1.31719970703125 0.9246826171875
2511528125.0 -0.49810791015625 1.51129150390625
2542750000.0 0.486328125 1.54168701171875
2573971875.0 1.37261962890625 0.97442626953125
2605193750.0 1.72222900390625 -0.1082763671875
2636415625.0 1.26806640625 -1.15362548828125
2667637500.0 0.3111572265625 -1.67083740234375
2698859375.0 -0.76824951171875 -1.5404052734375
2730081250.0 -1.57635498046875 -0.746826171875
2761303125.0 -1.6876220703125 0.38531494140625
2792525000.0 -1.10614013671875 1.30792236328125
2823746875.0 -0.10687255859375 1.73419189453125
2854968750.0 1.01220703125 1.46240234375
2886190625.0 1.69580078125 0.49749755859375
2917412500.0 1.605712890625 -0.615234375
2948634375.0 0.9454345703125 -1.43646240234375
2979856250.0 -0.10443115234375 -1.78143310546875
3011078125.0 -1.248291015625 -1.348388671875
3042300000.0 -1.7796630859375 -0.23846435546875
3073521875.0 -1.514892578125 0.83740234375
3104743750.0 -0.76873779296875 1.57080078125
3135965625.0 0.359130859375 1.81536865234375
3167187500.0 1.50030517578125 1.1708984375
3198409375.0 1.82110595703125 -0.0709228515625
3229631250.0 1.3553466796875 -1.081787109375
3260853125.0 0.49468994140625 -1.6719970703125
3292075000.0 -0.65325927734375 -1.7047119140625
3323296875.0 -1.62200927734375 -0.8856201171875
3354518750.0 -1.73699951171875 0.325927734375
3385740625.0 -1.1622314453125 1.23193359375
3416962500.0 -0.23583984375 1.6856689453125
3448184375.0 0.85992431640625 1.52825927734375
3479406250.0 1.63861083984375 0.6500244140625
3510628125.0 1.64996337890625 -0.4935302734375
3541850000.0 1.00592041015625 -1.35491943359375
3573071875.0 -0.004150390625 -1.68682861328125
3604293750.0 -1.0279541015625 -1.34271240234375
3635515625.0 -1.63128662109375 -0.443359375
3666737500.0 -1.56707763671875 0.64453125
3697959375.0 -0.83038330078125 1.4781494140625
3729181250.0 0.265380859375 1.6348876953125
3760403125.0 1.15277099609375 1.10369873046875
3791625000.0 1.55633544921875 0.22247314453125
3822846875.0 1.4075927734375 -0.76007080078125
3854068750.0 0.6260986328125 -1.48419189453125
3885290625.0 -0.4193115234375 -1.486328125
3916512500.0 -1.14324951171875 -0.91607666015625
3947734375.0 -1.4517822265625 -0.1231689453125
3978956250.0 -1.3031005859375 0.77911376953125
4010178125.0 -0.5352783203125 1.4580078125
4041400000.0 0.4732666015625 1.4202880859375
4072621875.0 1.15338134765625 0.8516845703125
4103843750.0 1.44903564453125 0.0655517578125
4135065625.0 1.272216796875 -0.84454345703125
4166287500.0 0.46160888671875 -1.49871826171875
4197509375.0 -0.55596923828125 -1.41912841796875
4228731250.0 -1.2498779296875 -0.806884765625
4259953125.0 -1.5126953125 0.0684814453125
4291175000.0 -1.19342041015625 1.01104736328125
4322396875.0 -0.2933349609375 1.52935791015625
4353618750.0 0.67181396484375 1.35418701171875
4384840625.0 1.3233642578125 0.70220947265625
4416062500.0 1.50543212890625 -0.22564697265625
4447284375.0 1.0594482421875 -1.104248046875
4478506250.0 0.175537109375 -1.49835205078125
4509728125.0 -0.7327880859375 -1.31201171875
4540950000.0 -1.39599609375 -0.639404296875
4572171875.0 -1.52667236328125 0.35858154296875
4603393750.0 -0.9766845703125 1.21441650390625
4634615625.0 -0.0640869140625 1.539794921875
4665837500.0 0.871337890625 1.30908203125
4697059375.0 1.54486083984375 0.51861572265625
4728281250.0 1.53363037109375 -0.58135986328125
4759503125.0 0.82672119140625 -1.36956787109375
4790725000.0 -0.142578125 -1.5762939453125
4821946875.0 -1.08416748046875 -1.199462890625
4853168750.0 -1.61822509765625 -0.25396728515625
4884390625.0 -1.3834228515625 0.79315185546875
4915612500.0 -0.61724853515625 1.41448974609375
4946834375.0 0.326416015625 1.51348876953125
4978056250.0 1.20587158203125 1.02197265625
5009278125.0 1.5655517578125 0.04205322265625
5040500000.0 1.2342529296875 -0.87664794921875
5071721875.0 0.505126953125 -1.417236328125
5102943750.0 -0.446044921875 -1.501220703125
5134165625.0 -1.33843994140625 -0.9093017578125
5165387500.0 -1.57232666015625 0.14501953125
5196609375.0 -1.14031982421875 1.0106201171875
5227831250.0 -0.36077880859375 1.5093994140625
5259053125.0 0.6868896484375 1.49658203125
5290275000.0 1.5252685546875 0.666259765625
5321496875.0 1.4959716796875 -0.42877197265625
5352718750.0 0.925048828125 -1.1556396484375
5383940625.0 0.0992431640625 -1.50372314453125
5415162500.0 -0.901123046875 -1.288330078125
5446384375.0 -1.48919677734375 -0.37255859375
5477606250.0 -1.30364990234375 0.5657958984375
5508828125.0 -0.735107421875 1.15350341796875
5540050000.0 0.0531005859375 1.40350341796875
5571271875.0 0.93988037109375 1.1131591796875
5602493750.0 1.4129638671875 0.26190185546875
5633715625.0 1.23583984375 -0.6119384765625
5664937500.0 0.65155029296875 -1.20269775390625
5696159375.0 -0.19683837890625 -1.388427734375
5727381250.0 -1.023681640625 -0.9822998046875
5758603125.0 -1.39434814453125 -0.1473388671875
5789825000.0 -1.1981201171875 0.7186279296875
5821046875.0 -0.50897216796875 1.31024169921875
5852268750.0 0.40997314453125 1.31591796875
5883490625.0 1.07275390625 0.77508544921875
5914712500.0 1.30572509765625 0.02178955078125
5945934375.0 1.10040283203125 -0.77655029296875
5977156250.0 0.36346435546875 -1.315673828125
6008378125.0 -0.5087890625 -1.1851806640625
6039600000.0 -1.02276611328125 -0.65179443359375
6070821875.0 -1.22772216796875 -0.00579833984375
6102043750.0 -1.08709716796875 0.7630615234375
6133265625.0 -0.343505859375 1.3485107421875
6164487500.0 0.5635986328125 1.19012451171875
6195709375.0 1.07275390625 0.632568359375
6226931250.0 1.28338623046875 -0.0416259765625
6258153125.0 1.1082763671875 -0.87420654296875
6289375000.0 0.25799560546875 -1.44976806640625
6320596875.0 -0.6903076171875 -1.209228515625
6351818750.0 -1.20281982421875 -0.573486328125
6383040625.0 -1.35784912109375 0.20611572265625
6414262500.0 -1.00335693359375 1.05889892578125
6445484375.0 -0.0789794921875 1.46063232421875
6476706250.0 0.79620361328125 1.15093994140625
6507928125.0 1.2935791015625 0.47216796875
6539150000.0 1.35107421875 -0.385986328125
6570371875.0 0.84405517578125 -1.14520263671875
6601593750.0 -0.01617431640625 -1.4088134765625
6632815625.0 -0.8419189453125 -1.14019775390625
6664037500.0 -1.40478515625 -0.42181396484375
6695259375.0 -1.37799072265625 0.56683349609375
6726481250.0 -0.71331787109375 1.25390625
6757703125.0 0.129638671875 1.41094970703125
6788925000.0 0.9578857421875 1.1343994140625
6820146875.0 1.5640869140625 0.28924560546875
6851368750.0 1.32879638671875 -0.819091796875
6882590625.0 0.50823974609375 -1.341552734375
6913812500.0 -0.2918701171875 -1.36016845703125
6945034375.0 -1.071044921875 -1.02520751953125
6976256250.0 -1.5970458984375 -0.0948486328125
7007478125.0 -1.2403564453125 0.93438720703125
7038700000.0 -0.40533447265625 1.3470458984375
7069921875.0 0.3577880859375 1.32733154296875
7101143750.0 1.12213134765625 0.97314453125
7132365625.0 1.605712890625 0.0140380859375
7163587500.0 1.16217041015625 -1.0225830078125
7194809375.0 0.3043212890625 -1.40008544921875
7226031250.0 -0.51251220703125 -1.329833984375
7257253125.0 -1.26947021484375 -0.8275146484375
7288475000.0 -1.56329345703125 0.1981201171875
7319696875.0 -1.034423828125 1.1119384765625
7350918750.0 -0.1661376953125 1.447265625
7382140625.0 0.7161865234375 1.281005859375
7413362500.0 1.379150390625 0.5789794921875
7444584375.0 1.414794921875 -0.40618896484375
7475806250.0 0.8612060546875 -1.14678955078125
7507028125.0 0.0079345703125 -1.4327392578125
7538250000.0 -0.890625 -1.1280517578125
7569471875.0 -1.3411865234375 -0.31121826171875
7600693750.0 -1.20562744140625 0.497314453125
7631915625.0 -0.721435546875 1.0875244140625
7663137500.0 0.0802001953125 1.363525390625
7694359375.0 0.941558837890625 0.985260009765625
7725581250.0 1.24713134765625 0.18304443359375
7756803125.0 1.08685302734375 -0.499267578125
7788025000.0 0.6732177734375 -1.04718017578125
7819246875.0 -0.12066650390625 -1.35308837890625
7850468750.0 -0.99481201171875 -0.918182373046875
7881690625.0 -1.2353515625 -0.1068115234375
7912912500.0 -1.0589599609375 0.55657958984375
7944134375.0 -0.6070556640625 1.1177978515625
7975356250.0 0.27227783203125 1.3394775390625
8006578125.0 1.04962158203125 0.78094482421875
8037800000.0 1.1968994140625 0.01678466796875
8069021875.0 1.01068115234375 -0.6195068359375
8100243750.0 0.501220703125 -1.16583251953125
8131465625.0 -0.38739013671875 -1.25677490234375
8162687500.0 -1.03521728515625 -0.68841552734375
8193909375.0 -1.183349609375 0.00634765625
8225131250.0 -1.02178955078125 0.67987060546875
8256353125.0 -0.423583984375 1.25335693359375
8287575000.0 0.50311279296875 1.2301025390625
8318796875.0 1.08599853515625 0.63751220703125
8350018750.0 1.24761962890625 -0.07379150390625
8381240625.0 1.03558349609375 -0.84429931640625
8412462500.0 0.25518798828125 -1.37786865234375
8443684375.0 -0.67083740234375 -1.17340087890625
8474906250.0 -1.17828369140625 -0.53314208984375
8506128125.0 -1.3028564453125 0.23834228515625
8537350000.0 -0.9271240234375 1.04937744140625
8568571875.0 -0.01531982421875 1.3990478515625
8599793750.0 0.80517578125 1.05548095703125
8631015625.0 1.24481201171875 0.4002685546875
8662237500.0 1.28973388671875 -0.4298095703125
8693459375.0 0.73944091796875 -1.17987060546875
8724681250.0 -0.16082763671875 -1.3355712890625
8755903125.0 -0.882232666015625 -0.960845947265625
8787125000.0 -1.30670166015625 -0.2845458984375
8818346875.0 -1.25567626953125 0.61773681640625
8849568750.0 -0.55804443359375 1.26593017578125
8880790625.0 0.30059814453125 1.28985595703125
8912012500.0 0.982940673828125 0.896514892578125
8943234375.0 1.4039306640625 0.12896728515625
8974456250.0 1.16943359375 -0.84368896484375
9005678125.0 0.3480224609375 -1.31805419921875
9036900000.0 -0.44708251953125 -1.22802734375
9068121875.0 -1.10595703125 -0.78778076171875
9099343750.0 -1.44482421875 0.0982666015625
9130565625.0 -0.98065185546875 1.01324462890625
9161787500.0 -0.154296875 1.2862548828125
9193009375.0 0.5550537109375 1.13671875
9224231250.0 1.18145751953125 0.6580810546875
9255453125.0 1.40374755859375 -0.29522705078125
9286675000.0 0.80914306640625 -1.089111328125
9317896875.0 0.02801513671875 -1.24945068359375
9349118750.0 -0.65606689453125 -1.07421875
9380340625.0 -1.262939453125 -0.51153564453125
9411562500.0 -1.317138671875 0.48004150390625
9442784375.0 -0.64996337890625 1.11981201171875
9474006250.0 0.08917236328125 1.2158203125
9505228125.0 0.76947021484375 0.983734130859375
9536450000.0 1.27984619140625 0.31292724609375
9567671875.0 1.147705078125 -0.5843505859375
9598893750.0 0.53070068359375 -1.072265625
9630115625.0 -0.14447021484375 -1.16217041015625
9661337500.0 -0.82232666015625 -0.90478515625
9692559375.0 -1.24237060546875 -0.18963623046875
9723781250.0 -1.047119140625 0.6055908203125
9755003125.0 -0.4876708984375 1.05291748046875
9786225000.0 0.198974609375 1.16412353515625
9817446875.0 0.89825439453125 0.830474853515625
9848668750.0 1.20257568359375 0.07684326171875
9879890625.0 0.971649169921875 -0.618988037109375
9911112500.0 0.45477294921875 -1.055908203125
9942334375.0 -0.2698974609375 -1.16473388671875
9973556250.0 -0.9466552734375 -0.740966796875
10004778125.0 -1.14984130859375 -0.0159912109375
10036000000.0 -0.94635009765625 0.61798095703125
10067221875.0 -0.4417724609375 1.10211181640625
10098443750.0 0.3734130859375 1.18505859375
10129665625.0 1.00640869140625 0.64324951171875
10160887500.0 1.12347412109375 -0.05322265625
10192109375.0 0.91949462890625 -0.664825439453125
10223331250.0 0.3619384765625 -1.15673828125
10254553125.0 -0.4886474609375 -1.11651611328125
10285775000.0 -0.989044189453125 -0.53582763671875
10316996875.0 -1.06927490234375 0.07672119140625
10348218750.0 -0.902587890625 0.67230224609375
10379440625.0 -0.3223876953125 1.17974853515625
10410662500.0 0.53021240234375 1.0880126953125
10441884375.0 0.996490478515625 0.5224609375
10473106250.0 1.1134033203125 -0.08502197265625
10504328125.0 0.952789306640625 -0.76043701171875
10535550000.0 0.23876953125 -1.30035400390625
10566771875.0 -0.662109375 -1.08013916015625
10597993750.0 -1.08428955078125 -0.46026611328125
10629215625.0 -1.1790771484375 0.2069091796875
10660437500.0 -0.8905029296875 0.955841064453125
10691659375.0 -0.00836181640625 1.33856201171875
10722881250.0 0.7889404296875 0.95404052734375
10754103125.0 1.1226806640625 0.3250732421875
10785325000.0 1.14312744140625 -0.3680419921875
10816546875.0 0.7020263671875 -1.05316162109375
10847768750.0 -0.14910888671875 -1.23358154296875
10878990625.0 -0.806243896484375 -0.845611572265625
10910212500.0 -1.12591552734375 -0.24615478515625
10941434375.0 -1.1011962890625 0.4776611328125
10972656250.0 -0.5699462890625 1.08966064453125
11003878125.0 0.21893310546875 1.1787109375
11035100000.0 0.851318359375 0.82415771484375
11066321875.0 1.22576904296875 0.17462158203125
11097543750.0 1.10162353515625 -0.6790771484375
11128765625.0 0.38616943359375 -1.20367431640625
11159987500.0 -0.3984375 -1.1434326171875
11191209375.0 -1.00531005859375 -0.70440673828125
11222431250.0 -1.27593994140625 0.09442138671875
11253653125.0 -0.861175537109375 0.89892578125
11284875000.0 -0.11456298828125 1.13037109375
11316096875.0 0.514434814453125 0.958587646484375
11347318750.0 1.00616455078125 0.503173828125
11378540625.0 1.1207275390625 -0.2716064453125
11409762500.0 0.6351318359375 -0.86273193359375
11440984375.0 0.0355224609375 -0.981109619140625
11472206250.0 -0.483734130859375 -0.853240966796875
11503428125.0 -0.956817626953125 -0.457366943359375
11534650000.0 -1.07147216796875 0.290283203125
11565871875.0 -0.603057861328125 0.857696533203125
11597093750.0 -0.0185546875 0.99334716796875
11628315625.0 0.547821044921875 0.8787841796875
11659537500.0 1.06591796875 0.3927001953125
11690759375.0 1.0667724609375 -0.4365234375
11721981250.0 0.51763916015625 -0.943206787109375
11753203125.0 -0.107421875 -1.0400390625
11784425000.0 -0.727783203125 -0.810302734375
11815646875.0 -1.10528564453125 -0.1495361328125
11846868750.0 -0.89312744140625 0.55389404296875
11878090625.0 -0.3916015625 0.91107177734375
11909312500.0 0.188232421875 0.98779296875
11940534375.0 0.784912109375 0.696929931640625
11971756250.0 1.0279541015625 0.03839111328125
12002978125.0 0.80792236328125 -0.539886474609375
12034200000.0 0.38238525390625 -0.892181396484375
12065421875.0 -0.218505859375 -1.014404296875
12096643750.0 -0.852508544921875 -0.6663818359375
12127865625.0 -1.03692626953125 0.0194091796875
12159087500.0 -0.81695556640625 0.578704833984375
12190309375.0 -0.378692626953125 0.9781494140625
12221531250.0 0.34149169921875 1.0914306640625
12252753125.0 0.984100341796875 0.581451416015625
12283975000.0 1.05914306640625 -0.131103515625
12315196875.0 0.802947998046875 -0.679931640625
12346418750.0 0.2822265625 -1.09552001953125
12377640625.0 -0.542236328125 -1.06304931640625
12408862500.0 -1.03656005859375 -0.41937255859375
12440084375.0 -1.00933837890625 0.22552490234375
12471306250.0 -0.74322509765625 0.73974609375
12502528125.0 -0.1788330078125 1.12591552734375
12533750000.0 0.624847412109375 0.996063232421875
12564971875.0 1.04345703125 0.3636474609375
12596193750.0 1.03228759765625 -0.2662353515625
12627415625.0 0.74981689453125 -0.8330078125
12658637500.0 0.07940673828125 -1.210693359375
12689859375.0 -0.741790771484375 -0.96881103515625
12721081250.0 -1.12078857421875 -0.30560302734375
12752303125.0 -1.1019287109375 0.38616943359375
12783525000.0 -0.6883544921875 1.03216552734375
12814746875.0 0.1680908203125 1.25616455078125
12845968750.0 0.8680419921875 0.812896728515625
12877190625.0 1.1207275390625 0.171630859375
12908412500.0 1.05975341796875 -0.50531005859375
12939634375.0 0.54156494140625 -1.1214599609375
12970856250.0 -0.32568359375 -1.178466796875
13002078125.0 -0.896484375 -0.69439697265625
13033300000.0 -1.111572265625 -0.08563232421875
13064521875.0 -1.01171875 0.5972900390625
13095743750.0 -0.41900634765625 1.15997314453125
13126965625.0 0.4130859375 1.12249755859375
13158187500.0 0.9498291015625 0.63232421875
13189409375.0 1.1514892578125 -0.0220947265625
13220631250.0 0.93865966796875 -0.753814697265625
13251853125.0 0.2322998046875 -1.17816162109375
13283075000.0 -0.51190185546875 -1.0224609375
13314296875.0 -0.992401123046875 -0.52880859375
13345518750.0 -1.13970947265625 0.181396484375
13376740625.0 -0.753173828125 0.86279296875
