!Created with skrf (http://scikit-rf.org).
# Hz S RI R 50.0 
!freq ReS11 ImS11
45000000.0 -0.07720565795898438 -0.09686660766601562
76221875.0 -0.1966094970703125 -0.04718017578125
107443750.0 -0.254974365234375 0.1199493408203125
138665625.0 -0.1478118896484375 0.32891845703125
169887500.0 0.1239776611328125 0.4173431396484375
201109375.0 0.422119140625 0.2805938720703125
232331250.0 0.579010009765625 -0.05792236328125
263553125.0 0.48944091796875 -0.45330810546875
294775000.0 0.09796142578125 -0.73309326171875
325996875.0 -0.416168212890625 -0.680450439453125
357218750.0 -0.806793212890625 -0.296661376953125
388440625.0 -0.885589599609375 0.3013916015625
419662500.0 -0.5169677734375 0.867095947265625
450884375.0 0.173828125 1.02874755859375
482106250.0 0.7991943359375 0.712158203125
513328125.0 1.119384765625 0.08660888671875
544550000.0 1.00323486328125 -0.68072509765625
575771875.0 0.33551025390625 -1.2384033203125
606993750.0 -0.5548095703125 -1.177001953125
638215625.0 -1.166259765625 -0.58953857421875
669437500.0 -1.339599609375 0.234375
700659375.0 -0.97039794921875 1.09686279296875
731881250.0 -0.00274658203125 1.5430908203125
763103125.0 1.00628662109375 1.1551513671875
794325000.0 1.46881103515625 0.28076171875
825546875.0 1.3668212890625 -0.65203857421875
856768750.0 0.79364013671875 -1.40155029296875
887990625.0 -0.2938232421875 -1.648193359375
919212500.0 -1.28948974609375 -1.07745361328125
950434375.0 -1.64862060546875 -0.0579833984375
981656250.0 -1.3819580078125 0.94720458984375
1012878125.0 -0.52880859375 1.672119140625
1044100000.0 0.6982421875 1.66143798828125
1075321875.0 1.57501220703125 0.81103515625
1106543750.0 1.7042236328125 -0.31396484375
1137765625.0 1.18524169921875 -1.28521728515625
1168987500.0 0.136962890625 -1.79669189453125
1200209375.0 -1.0625 -1.48272705078125
1231431250.0 -1.7275390625 -0.452392578125
1262653125.0 -1.59375 0.68548583984375
1293875000.0 -0.850830078125 1.49151611328125
1325096875.0 0.22894287109375 1.705810546875
1356318750.0 1.2352294921875 1.215576171875
1387540625.0 1.73956298828125 0.1878662109375
1418762500.0 1.4683837890625 -0.95196533203125
1449984375.0 0.52789306640625 -1.62603759765625
1481206250.0 -0.55047607421875 -1.55499267578125
1512428125.0 -1.34210205078125 -0.91864013671875
1543650000.0 -1.6553955078125 0.0665283203125
1574871875.0 -1.27227783203125 1.1092529296875
1606093750.0 -0.27178955078125 1.630859375
1637315625.0 0.7430419921875 1.3994140625
1668537500.0 1.39617919921875 0.6943359375
1699759375.0 1.57208251953125 -0.27825927734375
1730981250.0 1.0628662109375 -1.229248046875
1762203125.0 0.0408935546875 -1.56976318359375
1793425000.0 -0.85626220703125 -1.22552490234375
1824646875.0 -1.39306640625 -0.5140380859375
1855868750.0 -1.473388671875 0.4327392578125
1887090625.0 -0.8741455078125 1.28497314453125
1918312500.0 0.11798095703125 1.48614501953125
1949534375.0 0.92193603515625 1.0882568359375
1980756250.0 1.37518310546875 0.36944580078125
2011978125.0 1.3587646484375 -0.53192138671875
2043200000.0 0.74896240234375 -1.26129150390625
2074421875.0 -0.15789794921875 -1.432373046875
2105643750.0 -0.9600830078125 -1.07110595703125
2136865625.0 -1.44677734375 -0.30389404296875
2168087500.0 -1.35626220703125 0.67156982421875
2199309375.0 -0.6376953125 1.3509521484375
2230531250.0 0.282470703125 1.43505859375
2261753125.0 1.07244873046875 1.0126953125
2292975000.0 1.5137939453125 0.1695556640625
2324196875.0 1.304443359375 -0.81866455078125
2355418750.0 0.52423095703125 -1.41937255859375
2386640625.0 -0.4046630859375 -1.4481201171875
2417862500.0 -1.18121337890625 -1.02301025390625
2449084375.0 -1.60406494140625 -0.083251953125
2480306250.0 -1.30987548828125 0.925537109375
2511528125.0 -0.4918212890625 1.50823974609375
2542750000.0 0.4893798828125 1.53521728515625
2573971875.0 1.37060546875 0.96661376953125
2605193750.0 1.71673583984375 -0.11370849609375
2636415625.0 1.26031494140625 -1.1513671875
2667637500.0 0.3052978515625 -1.66754150390625
2698859375.0 -0.770263671875 -1.53253173828125
2730081250.0 -1.5721435546875 -0.73919677734375
2761303125.0 -1.68023681640625 0.3895263671875
2792525000.0 -1.0977783203125 1.3077392578125
2823746875.0 -0.1009521484375 1.728271484375
2854968750.0 1.0130615234375 1.45416259765625
2886190625.0 1.6900634765625 0.490234375
2917412500.0 1.598388671875 -0.6170654296875
2948634375.0 0.9381103515625 -1.4322509765625
2979856250.0 -0.10894775390625 -1.7755126953125
3011078125.0 -1.248046875 -1.3402099609375
3042300000.0 -1.7750244140625 -0.23291015625
3073521875.0 -1.507080078125 0.83843994140625
3104743750.0 -0.76171875 1.5675048828125
3135965625.0 0.3621826171875 1.807861328125
3167187500.0 1.4989013671875 1.16278076171875
3198409375.0 1.8154296875 -0.07635498046875
3229631250.0 1.34716796875 -1.0811767578125
3260853125.0 0.48748779296875 -1.66766357421875
3292075000.0 -0.6561279296875 -1.6964111328125
3323296875.0 -1.61944580078125 -0.87750244140625
3354518750.0 -1.7288818359375 0.3302001953125
3385740625.0 -1.15435791015625 1.23016357421875
3416962500.0 -0.23028564453125 1.67987060546875
3448184375.0 0.85943603515625 1.52032470703125
3479406250.0 1.63555908203125 0.643310546875
3510628125.0 1.6427001953125 -0.495361328125
3541850000.0 0.99896240234375 -1.35498046875
3573071875.0 -0.0076904296875 -1.6805419921875
3604293750.0 -1.0272216796875 -1.33587646484375
3635515625.0 -1.626708984375 -0.43743896484375
3666737500.0 -1.560791015625 0.6463623046875
3697959375.0 -0.82415771484375 1.47540283203125
3729181250.0 0.26904296875 1.6295166015625
3760403125.0 1.1510009765625 1.096923828125
3791625000.0 1.5516357421875 0.21710205078125
3822846875.0 1.4010009765625 -0.76171875
3854068750.0 0.619140625 -1.47998046875
3885290625.0 -0.421875 -1.47991943359375
3916512500.0 -1.1402587890625 -0.909912109375
3947734375.0 -1.44622802734375 -0.119384765625
3978956250.0 -1.29608154296875 0.7784423828125
4010178125.0 -0.53045654296875 1.45330810546875
4041400000.0 0.472900390625 1.414306640625
4072621875.0 1.15155029296875 0.8468017578125
4103843750.0 1.443603515625 0.06329345703125
4135065625.0 1.2667236328125 -0.845458984375
4166287500.0 0.45745849609375 -1.494873046875
4197509375.0 -0.5576171875 -1.414306640625
4228731250.0 -1.24761962890625 -0.80181884765625
4259953125.0 -1.50775146484375 0.071044921875
4291175000.0 -1.18768310546875 1.0098876953125
4322396875.0 -0.28875732421875 1.52545166015625
4353618750.0 0.6737060546875 1.348388671875
4384840625.0 1.3212890625 0.69622802734375
4416062500.0 1.499267578125 -0.22662353515625
4447284375.0 1.053955078125 -1.10211181640625
4478506250.0 0.17181396484375 -1.4940185546875
4509728125.0 -0.73199462890625 -1.3062744140625
4540950000.0 -1.39306640625 -0.6346435546875
4572171875.0 -1.52069091796875 0.35992431640625
4603393750.0 -0.97222900390625 1.2109375
4634615625.0 -0.06109619140625 1.5361328125
4665837500.0 0.86993408203125 1.3033447265625
4697059375.0 1.54046630859375 0.51483154296875
4728281250.0 1.52789306640625 -0.5830078125
4759503125.0 0.822265625 -1.36590576171875
4790725000.0 -0.146484375 -1.57171630859375
4821946875.0 -1.08428955078125 -1.19317626953125
4853168750.0 -1.6119384765625 -0.2510986328125
4884390625.0 -1.3765869140625 0.7928466796875
4915612500.0 -0.6123046875 1.4117431640625
4946834375.0 0.32958984375 1.50823974609375
4978056250.0 1.2049560546875 1.01617431640625
5009278125.0 1.56097412109375 0.03839111328125
5040500000.0 1.22796630859375 -0.87420654296875
5071721875.0 0.50067138671875 -1.41400146484375
5102943750.0 -0.44647216796875 -1.4954833984375
5134165625.0 -1.33526611328125 -0.90478515625
5165387500.0 -1.5672607421875 0.145751953125
5196609375.0 -1.1353759765625 1.0078125
5227831250.0 -0.35675048828125 1.505859375
5259053125.0 0.68914794921875 1.49169921875
5290275000.0 1.52069091796875 0.66265869140625
5321496875.0 1.4912109375 -0.4306640625
5352718750.0 0.92059326171875 -1.1529541015625
5383940625.0 0.0966796875 -1.49957275390625
5415162500.0 -0.8995361328125 -1.2828369140625
5446384375.0 -1.483154296875 -0.36993408203125
5477606250.0 -1.29852294921875 0.56646728515625
5508828125.0 -0.73077392578125 1.1502685546875
5540050000.0 0.05419921875 1.39776611328125
5571271875.0 0.9378662109375 1.1085205078125
5602493750.0 1.4080810546875 0.259521484375
5633715625.0 1.2314453125 -0.61224365234375
5664937500.0 0.64764404296875 -1.20074462890625
5696159375.0 -0.1961669921875 -1.38250732421875
5727381250.0 -1.02081298828125 -0.97808837890625
5758603125.0 -1.3909912109375 -0.1453857421875
5789825000.0 -1.19384765625 0.71673583984375
5821046875.0 -0.50640869140625 1.30657958984375
5852268750.0 0.411376953125 1.3123779296875
5883490625.0 1.0706787109375 0.77166748046875
5914712500.0 1.30255126953125 0.01922607421875
5945934375.0 1.09600830078125 -0.77630615234375
5977156250.0 0.36090087890625 -1.31109619140625
6008378125.0 -0.50970458984375 -1.181884765625
6039600000.0 -1.02154541015625 -0.6488037109375
6070821875.0 -1.2237548828125 -0.0042724609375
6102043750.0 -1.08294677734375 0.76214599609375
6133265625.0 -0.342041015625 1.3431396484375
6164487500.0 0.56304931640625 1.18707275390625
6195709375.0 1.071044921875 0.62945556640625
6226931250.0 1.2786865234375 -0.042236328125
6258153125.0 1.10394287109375 -0.87164306640625
6289375000.0 0.2562255859375 -1.44610595703125
6320596875.0 -0.68896484375 -1.205810546875
6351818750.0 -1.19903564453125 -0.57244873046875
6383040625.0 -1.35443115234375 0.20672607421875
6414262500.0 -0.99969482421875 1.0572509765625
6445484375.0 -0.07763671875 1.45745849609375
6476706250.0 0.79632568359375 1.147705078125
6507928125.0 1.291015625 0.46923828125
6539150000.0 1.34710693359375 -0.3863525390625
6570371875.0 0.84063720703125 -1.14324951171875
6601593750.0 -0.01788330078125 -1.40496826171875
6632815625.0 -0.8397216796875 -1.1357421875
6664037500.0 -1.40081787109375 -0.419677734375
6695259375.0 -1.3734130859375 0.56536865234375
6726481250.0 -0.71038818359375 1.25018310546875
6757703125.0 0.130126953125 1.4056396484375
6788925000.0 0.95440673828125 1.12994384765625
6820146875.0 1.55938720703125 0.2879638671875
6851368750.0 1.32586669921875 -0.81988525390625
6882590625.0 0.5067138671875 -1.3380126953125
6913812500.0 -0.29241943359375 -1.35601806640625
6945034375.0 -1.0692138671875 -1.02191162109375
6976256250.0 -1.5931396484375 -0.09259033203125
7007478125.0 -1.2366943359375 0.93475341796875
7038700000.0 -0.40283203125 1.34283447265625
7069921875.0 0.35809326171875 1.32244873046875
7101143750.0 1.1160888671875 0.96771240234375
7132365625.0 1.59814453125 0.01556396484375
7163587500.0 1.15625 -1.02117919921875
7194809375.0 0.30084228515625 -1.39923095703125
7226031250.0 -0.50927734375 -1.324462890625
7257253125.0 -1.2677001953125 -0.82244873046875
7288475000.0 -1.55841064453125 0.1982421875
7319696875.0 -1.029541015625 1.10919189453125
7350918750.0 -0.16473388671875 1.4439697265625
7382140625.0 0.716552734375 1.27471923828125
7413362500.0 1.375244140625 0.57586669921875
7444584375.0 1.4117431640625 -0.406494140625
7475806250.0 0.857421875 -1.1427001953125
7507028125.0 0.006103515625 -1.428955078125
7538250000.0 -0.88861083984375 -1.12359619140625
7569471875.0 -1.3355712890625 -0.31085205078125
7600693750.0 -1.20159912109375 0.49810791015625
7631915625.0 -0.7171630859375 1.08587646484375
7663137500.0 0.07940673828125 1.35723876953125
7694359375.0 0.939422607421875 0.980560302734375
7725581250.0 1.243896484375 0.1806640625
7756803125.0 1.08172607421875 -0.4998779296875
7788025000.0 0.6702880859375 -1.04180908203125
7819246875.0 -0.122314453125 -1.34808349609375
7850468750.0 -0.9915771484375 -0.915740966796875
7881690625.0 -1.230224609375 -0.10626220703125
7912912500.0 -1.05419921875 0.554443359375
7944134375.0 -0.604736328125 1.11358642578125
7975356250.0 0.2713623046875 1.33447265625
8006578125.0 1.047119140625 0.778564453125
8037800000.0 1.19439697265625 0.01605224609375
8069021875.0 1.00726318359375 -0.61700439453125
8100243750.0 0.5003662109375 -1.1611328125
8131465625.0 -0.3878173828125 -1.2540283203125
8162687500.0 -1.03289794921875 -0.68646240234375
8193909375.0 -1.18072509765625 0.00836181640625
8225131250.0 -1.01788330078125 0.67919921875
8256353125.0 -0.4215087890625 1.24700927734375
8287575000.0 0.50042724609375 1.2266845703125
8318796875.0 1.0811767578125 0.63525390625
8350018750.0 1.2445068359375 -0.07574462890625
8381240625.0 1.03106689453125 -0.8404541015625
8412462500.0 0.2537841796875 -1.37384033203125
8443684375.0 -0.66851806640625 -1.17010498046875
8474906250.0 -1.1761474609375 -0.5318603515625
8506128125.0 -1.2974853515625 0.23699951171875
8537350000.0 -0.924560546875 1.047119140625
8568571875.0 -0.01641845703125 1.3931884765625
8599793750.0 0.8011474609375 1.0537109375
8631015625.0 1.24169921875 0.398681640625
8662237500.0 1.28558349609375 -0.4310302734375
8693459375.0 0.73651123046875 -1.1781005859375
8724681250.0 -0.16259765625 -1.33197021484375
8755903125.0 -0.879669189453125 -0.957427978515625
8787125000.0 -1.30450439453125 -0.28106689453125
8818346875.0 -1.25006103515625 0.61395263671875
8849568750.0 -0.55670166015625 1.25982666015625
8880790625.0 0.29840087890625 1.284423828125
8912012500.0 0.98016357421875 0.892578125
8943234375.0 1.39971923828125 0.12908935546875
8974456250.0 1.16693115234375 -0.84002685546875
9005678125.0 0.3485107421875 -1.31329345703125
9036900000.0 -0.44549560546875 -1.22528076171875
9068121875.0 -1.1021728515625 -0.7860107421875
9099343750.0 -1.44000244140625 0.0965576171875
9130565625.0 -0.9808349609375 1.0128173828125
9161787500.0 -0.1541748046875 1.2823486328125
9193009375.0 0.55645751953125 1.13409423828125
9224231250.0 1.17919921875 0.65509033203125
9255453125.0 1.4002685546875 -0.29656982421875
9286675000.0 0.80712890625 -1.0841064453125
9317896875.0 0.02606201171875 -1.24761962890625
9349118750.0 -0.65423583984375 -1.06951904296875
9380340625.0 -1.2581787109375 -0.50927734375
9411562500.0 -1.31146240234375 0.4771728515625
9442784375.0 -0.64813232421875 1.1158447265625
9474006250.0 0.08868408203125 1.21124267578125
9505228125.0 0.7647705078125 0.980194091796875
9536450000.0 1.27398681640625 0.3131103515625
9567671875.0 1.1439208984375 -0.5789794921875
9598893750.0 0.52996826171875 -1.06829833984375
9630115625.0 -0.14404296875 -1.15777587890625
9661337500.0 -0.81903076171875 -0.9024658203125
9692559375.0 -1.2374267578125 -0.19110107421875
9723781250.0 -1.04400634765625 0.6038818359375
9755003125.0 -0.4859619140625 1.051513671875
9786225000.0 0.19891357421875 1.1605224609375
9817446875.0 0.894989013671875 0.828338623046875
9848668750.0 1.19921875 0.07781982421875
9879890625.0 0.96856689453125 -0.61614990234375
9911112500.0 0.45184326171875 -1.0513916015625
9942334375.0 -0.267578125 -1.15924072265625
9973556250.0 -0.94342041015625 -0.738067626953125
10004778125.0 -1.1453857421875 -0.01861572265625
10036000000.0 -0.944427490234375 0.61749267578125
10067221875.0 -0.4423828125 1.0968017578125
10098443750.0 0.368408203125 1.18096923828125
10129665625.0 1.002685546875 0.6434326171875
10160887500.0 1.12115478515625 -0.05194091796875
10192109375.0 0.917816162109375 -0.662139892578125
10223331250.0 0.36212158203125 -1.15234375
10254553125.0 -0.4854736328125 -1.11383056640625
10285775000.0 -0.983795166015625 -0.535888671875
10316996875.0 -1.0672607421875 0.07666015625
10348218750.0 -0.899566650390625 0.6708984375
10379440625.0 -0.321533203125 1.17559814453125
10410662500.0 0.52777099609375 1.08563232421875
10441884375.0 0.992767333984375 0.521209716796875
10473106250.0 1.10919189453125 -0.08349609375
10504328125.0 0.94940185546875 -0.75653076171875
10535550000.0 0.23919677734375 -1.2957763671875
10566771875.0 -0.65692138671875 -1.07666015625
10597993750.0 -1.081298828125 -0.4588623046875
10629215625.0 -1.1749267578125 0.20550537109375
10660437500.0 -0.88824462890625 0.951446533203125
10691659375.0 -0.010498046875 1.3348388671875
10722881250.0 0.785888671875 0.95263671875
10754103125.0 1.11981201171875 0.324462890625
10785325000.0 1.14007568359375 -0.3680419921875
10816546875.0 0.69970703125 -1.0506591796875
10847768750.0 -0.14501953125 -1.22998046875
10878990625.0 -0.802093505859375 -0.843719482421875
10910212500.0 -1.12359619140625 -0.2442626953125
10941434375.0 -1.0970458984375 0.4754638671875
10972656250.0 -0.568359375 1.08380126953125
11003878125.0 0.21600341796875 1.17376708984375
11035100000.0 0.847015380859375 0.821746826171875
11066321875.0 1.22052001953125 0.174560546875
11097543750.0 1.0985107421875 -0.67510986328125
11128765625.0 0.38604736328125 -1.19903564453125
11159987500.0 -0.3944091796875 -1.1392822265625
11191209375.0 -0.99896240234375 -0.70306396484375
11222431250.0 -1.27191162109375 0.09332275390625
11253653125.0 -0.8587646484375 0.89263916015625
11284875000.0 -0.11517333984375 1.12628173828125
11316096875.0 0.511810302734375 0.956298828125
11347318750.0 1.0030517578125 0.501708984375
11378540625.0 1.116943359375 -0.2691650390625
11409762500.0 0.635528564453125 -0.857269287109375
11440984375.0 0.035980224609375 -0.9775390625
11472206250.0 -0.481048583984375 -0.850433349609375
11503428125.0 -0.95281982421875 -0.456268310546875
11534650000.0 -1.068115234375 0.28851318359375
11565871875.0 -0.602294921875 0.854583740234375
11597093750.0 -0.018798828125 0.991363525390625
11628315625.0 0.544830322265625 0.875518798828125
11659537500.0 1.06072998046875 0.3929443359375
11690759375.0 1.06512451171875 -0.43353271484375
11721981250.0 0.51739501953125 -0.94091796875
11753203125.0 -0.10516357421875 -1.0362548828125
11784425000.0 -0.724761962890625 -0.80841064453125
11815646875.0 -1.101806640625 -0.15057373046875
11846868750.0 -0.891510009765625 0.55224609375
11878090625.0 -0.391326904296875 0.90802001953125
11909312500.0 0.18719482421875 0.984954833984375
11940534375.0 0.78033447265625 0.6947021484375
11971756250.0 1.02581787109375 0.03936767578125
12002978125.0 0.806121826171875 -0.5374755859375
12034200000.0 0.38092041015625 -0.890045166015625
12065421875.0 -0.21527099609375 -1.01007080078125
12096643750.0 -0.848358154296875 -0.66522216796875
12127865625.0 -1.0343017578125 0.01605224609375
12159087500.0 -0.8150634765625 0.575347900390625
12190309375.0 -0.377197265625 0.975189208984375
12221531250.0 0.33941650390625 1.0885009765625
12252753125.0 0.97967529296875 0.58197021484375
12283975000.0 1.0543212890625 -0.12725830078125
12315196875.0 0.8011474609375 -0.677001953125
12346418750.0 0.28131103515625 -1.09295654296875
12377640625.0 -0.53961181640625 -1.0614013671875
12408862500.0 -1.0343017578125 -0.42034912109375
12440084375.0 -1.0078125 0.22332763671875
12471306250.0 -0.742095947265625 0.737030029296875
12502528125.0 -0.1796875 1.12103271484375
12533750000.0 0.61944580078125 0.99383544921875
12564971875.0 1.04058837890625 0.36376953125
12596193750.0 1.030517578125 -0.26519775390625
12627415625.0 0.74871826171875 -0.82843017578125
12658637500.0 0.08050537109375 -1.20703125
12689859375.0 -0.735626220703125 -0.966400146484375
12721081250.0 -1.1168212890625 -0.3062744140625
12752303125.0 -1.09783935546875 0.381103515625
12783525000.0 -0.6881103515625 1.026611328125
12814746875.0 0.1649169921875 1.25189208984375
12845968750.0 0.86260986328125 0.811279296875
12877190625.0 1.11895751953125 0.172119140625
12908412500.0 1.05694580078125 -0.50390625
12939634375.0 0.54278564453125 -1.11773681640625
12970856250.0 -0.3211669921875 -1.1763916015625
13002078125.0 -0.894195556640625 -0.693389892578125
13033300000.0 -1.106689453125 -0.08575439453125
13064521875.0 -1.0089111328125 0.59326171875
13095743750.0 -0.4200439453125 1.15509033203125
13126965625.0 0.408203125 1.12005615234375
13158187500.0 0.946929931640625 0.632537841796875
13189409375.0 1.14794921875 -0.021240234375
13220631250.0 0.935699462890625 -0.747039794921875
13251853125.0 0.234619140625 -1.1722412109375
13283075000.0 -0.5079345703125 -1.01971435546875
13314296875.0 -0.98779296875 -0.52923583984375
13345518750.0 -1.135498046875 0.1763916015625
13376740625.0 -0.753387451171875 0.8580322265625
13407962500.0 -0.05963134765625 1.06707763671875
