!Created with skrf (http://scikit-rf.org).
# Hz S RI R 50.0 
!freq ReS11 ImS11
45000000.0 -0.07694625854492188 -0.09678268432617188
76221875.0 -0.19626617431640625 -0.047637939453125
107443750.0 -0.2548370361328125 0.119476318359375
138665625.0 -0.1483154296875 0.32818603515625
169887500.0 0.123321533203125 0.417205810546875
201109375.0 0.42144775390625 0.280853271484375
232331250.0 0.5784912109375 -0.057373046875
263553125.0 0.4892425537109375 -0.4522247314453125
294775000.0 0.0989990234375 -0.7318115234375
325996875.0 -0.4146728515625 -0.679901123046875
357218750.0 -0.805419921875 -0.29718017578125
388440625.0 -0.884979248046875 0.2998046875
419662500.0 -0.517120361328125 0.86505126953125
450884375.0 0.17230224609375 1.027587890625
482106250.0 0.79736328125 0.712249755859375
513328125.0 1.1182861328125 0.08770751953125
544550000.0 1.0030517578125 -0.6787109375
575771875.0 0.33673095703125 -1.23687744140625
606993750.0 -0.5528564453125 -1.1761474609375
638215625.0 -1.16436767578125 -0.59014892578125
669437500.0 -1.33868408203125 0.23291015625
700659375.0 -0.97039794921875 1.09478759765625
731881250.0 -0.00433349609375 1.54156494140625
763103125.0 1.004150390625 1.155029296875
794325000.0 1.46728515625 0.2818603515625
825546875.0 1.36627197265625 -0.64996337890625
856768750.0 0.79437255859375 -1.3983154296875
887990625.0 -0.29095458984375 -1.6461181640625
919212500.0 -1.2852783203125 -1.077880859375
950434375.0 -1.64642333984375 -0.06011962890625
981656250.0 -1.3809814453125 0.94342041015625
1012878125.0 -0.53033447265625 1.66900634765625
1044100000.0 0.69500732421875 1.6597900390625
1075321875.0 1.5712890625 0.8116455078125
1106543750.0 1.701904296875 -0.311279296875
1137765625.0 1.18572998046875 -1.2816162109375
1168987500.0 0.13885498046875 -1.79473876953125
1200209375.0 -1.05950927734375 -1.48187255859375
1231431250.0 -1.72393798828125 -0.45379638671875
1262653125.0 -1.591796875 0.6824951171875
1293875000.0 -0.8511962890625 1.4892578125
1325096875.0 0.22723388671875 1.70465087890625
1356318750.0 1.232421875 1.2154541015625
1387540625.0 1.73687744140625 0.189208984375
1418762500.0 1.46746826171875 -0.94921875
1449984375.0 0.5291748046875 -1.6231689453125
1481206250.0 -0.5484619140625 -1.55401611328125
1512428125.0 -1.3394775390625 -0.91876220703125
1543650000.0 -1.6533203125 0.064208984375
1574871875.0 -1.2723388671875 1.10662841796875
1606093750.0 -0.27313232421875 1.62884521484375
1637315625.0 0.74029541015625 1.39849853515625
1668537500.0 1.39385986328125 0.69573974609375
1699759375.0 1.57080078125 -0.27606201171875
1730981250.0 1.06341552734375 -1.22723388671875
1762203125.0 0.04290771484375 -1.568359375
1793425000.0 -0.85406494140625 -1.22503662109375
1824646875.0 -1.3909912109375 -0.51507568359375
1855868750.0 -1.4720458984375 0.43109130859375
1887090625.0 -0.87371826171875 1.28314208984375
1918312500.0 0.11651611328125 1.48480224609375
1949534375.0 0.91937255859375 1.08795166015625
1980756250.0 1.37249755859375 0.37054443359375
2011978125.0 1.35760498046875 -0.5301513671875
2043200000.0 0.7493896484375 -1.25921630859375
2074421875.0 -0.1556396484375 -1.430908203125
2105643750.0 -0.9583740234375 -1.07122802734375
2136865625.0 -1.44512939453125 -0.30499267578125
2168087500.0 -1.35528564453125 0.6693115234375
2199309375.0 -0.638671875 1.34930419921875
2230531250.0 0.28082275390625 1.4342041015625
2261753125.0 1.0706787109375 1.012939453125
2292975000.0 1.5120849609375 0.1708984375
2324196875.0 1.30426025390625 -0.8173828125
2355418750.0 0.5250244140625 -1.417724609375
2386640625.0 -0.40301513671875 -1.4471435546875
2417862500.0 -1.17828369140625 -1.02337646484375
2449084375.0 -1.60113525390625 -0.0853271484375
2480306250.0 -1.30999755859375 0.92279052734375
2511528125.0 -0.494140625 1.50555419921875
2542750000.0 0.48638916015625 1.53363037109375
2573971875.0 1.36773681640625 0.96685791015625
2605193750.0 1.7139892578125 -0.11083984375
2636415625.0 1.259521484375 -1.14849853515625
2667637500.0 0.3070068359375 -1.6632080078125
2698859375.0 -0.7672119140625 -1.5316162109375
2730081250.0 -1.5711669921875 -0.73931884765625
2761303125.0 -1.67822265625 0.3865966796875
2792525000.0 -1.098388671875 1.3031005859375
2823746875.0 -0.10333251953125 1.7254638671875
2854968750.0 1.00897216796875 1.453369140625
2886190625.0 1.68731689453125 0.49169921875
2917412500.0 1.59716796875 -0.6160888671875
2948634375.0 0.9385986328125 -1.42987060546875
2979856250.0 -0.10552978515625 -1.7716064453125
3011078125.0 -1.24365234375 -1.34075927734375
3042300000.0 -1.77093505859375 -0.2352294921875
3073521875.0 -1.5064697265625 0.8360595703125
3104743750.0 -0.762939453125 1.563720703125
3135965625.0 0.359619140625 1.80615234375
3167187500.0 1.49530029296875 1.16265869140625
3198409375.0 1.8126220703125 -0.07403564453125
3229631250.0 1.34625244140625 -1.07830810546875
3260853125.0 0.48974609375 -1.66387939453125
3292075000.0 -0.652587890625 -1.69451904296875
3323296875.0 -1.61517333984375 -0.8790283203125
3354518750.0 -1.72735595703125 0.32769775390625
3385740625.0 -1.1544189453125 1.228759765625
3416962500.0 -0.23162841796875 1.6783447265625
3448184375.0 0.85894775390625 1.5198974609375
3479406250.0 1.6328125 0.64373779296875
3510628125.0 1.6405029296875 -0.49273681640625
3541850000.0 0.99945068359375 -1.35260009765625
3573071875.0 -0.00689697265625 -1.6796875
3604293750.0 -1.02447509765625 -1.33538818359375
3635515625.0 -1.62353515625 -0.43902587890625
3666737500.0 -1.55963134765625 0.64447021484375
3697959375.0 -0.823974609375 1.4716796875
3729181250.0 0.26641845703125 1.628173828125
3760403125.0 1.15045166015625 1.09661865234375
3791625000.0 1.54876708984375 0.21875
3822846875.0 1.39990234375 -0.7587890625
3854068750.0 0.6204833984375 -1.4776611328125
3885290625.0 -0.41900634765625 -1.47833251953125
3916512500.0 -1.14031982421875 -0.910400390625
3947734375.0 -1.44488525390625 -0.12078857421875
3978956250.0 -1.29571533203125 0.77716064453125
4010178125.0 -0.53167724609375 1.45062255859375
4041400000.0 0.47186279296875 1.4134521484375
4072621875.0 1.14935302734375 0.84722900390625
4103843750.0 1.44183349609375 0.0640869140625
4135065625.0 1.26641845703125 -0.8436279296875
4166287500.0 0.4573974609375 -1.49334716796875
4197509375.0 -0.55609130859375 -1.413330078125
4228731250.0 -1.2442626953125 -0.80224609375
4259953125.0 -1.5059814453125 0.06866455078125
4291175000.0 -1.1868896484375 1.00689697265625
4322396875.0 -0.28985595703125 1.52325439453125
4353618750.0 0.671142578125 1.34765625
4384840625.0 1.31964111328125 0.697021484375
4416062500.0 1.49847412109375 -0.226806640625
4447284375.0 1.05401611328125 -1.101806640625
4478506250.0 0.17327880859375 -1.49249267578125
4509728125.0 -0.72991943359375 -1.305908203125
4540950000.0 -1.391357421875 -0.63543701171875
4572171875.0 -1.519775390625 0.35809326171875
4603393750.0 -0.97137451171875 1.21099853515625
4634615625.0 -0.06219482421875 1.5341796875
4665837500.0 0.86798095703125 1.30279541015625
4697059375.0 1.53839111328125 0.51531982421875
4728281250.0 1.526611328125 -0.5804443359375
4759503125.0 0.82220458984375 -1.3646240234375
4790725000.0 -0.1451416015625 -1.57049560546875
4821946875.0 -1.07977294921875 -1.19232177734375
4853168750.0 -1.61090087890625 -0.25103759765625
4884390625.0 -1.37615966796875 0.79071044921875
4915612500.0 -0.61309814453125 1.41046142578125
4946834375.0 0.32763671875 1.50750732421875
4978056250.0 1.2012939453125 1.016357421875
5009278125.0 1.5595703125 0.03997802734375
5040500000.0 1.227294921875 -0.8729248046875
5071721875.0 0.50225830078125 -1.41119384765625
5102943750.0 -0.445556640625 -1.49462890625
5134165625.0 -1.33319091796875 -0.90496826171875
5165387500.0 -1.565673828125 0.145263671875
5196609375.0 -1.1351318359375 1.00811767578125
5227831250.0 -0.3583984375 1.50372314453125
5259053125.0 0.6864013671875 1.4908447265625
5290275000.0 1.5184326171875 0.66290283203125
5321496875.0 1.48992919921875 -0.4293212890625
5352718750.0 0.919677734375 -1.15045166015625
5383940625.0 0.09722900390625 -1.497314453125
5415162500.0 -0.89715576171875 -1.28271484375
5446384375.0 -1.4813232421875 -0.37066650390625
5477606250.0 -1.29742431640625 0.56494140625
5508828125.0 -0.7310791015625 1.1492919921875
5540050000.0 0.052734375 1.39599609375
5571271875.0 0.9365234375 1.1077880859375
5602493750.0 1.406005859375 0.2611083984375
5633715625.0 1.23138427734375 -0.611572265625
5664937500.0 0.64776611328125 -1.19952392578125
5696159375.0 -0.1956787109375 -1.381591796875
5727381250.0 -1.02020263671875 -0.97760009765625
5758603125.0 -1.3897705078125 -0.14532470703125
5789825000.0 -1.19305419921875 0.7164306640625
5821046875.0 -0.50640869140625 1.30487060546875
5852268750.0 0.41021728515625 1.31121826171875
5883490625.0 1.0679931640625 0.771484375
5914712500.0 1.30023193359375 0.02081298828125
5945934375.0 1.09515380859375 -0.77398681640625
5977156250.0 0.36151123046875 -1.30975341796875
6008378125.0 -0.50799560546875 -1.1810302734375
6039600000.0 -1.02032470703125 -0.648681640625
6070821875.0 -1.22216796875 -0.00494384765625
6102043750.0 -1.08221435546875 0.76031494140625
6133265625.0 -0.34228515625 1.34271240234375
6164487500.0 0.5615234375 1.1865234375
6195709375.0 1.0694580078125 0.62969970703125
6226931250.0 1.27777099609375 -0.04150390625
6258153125.0 1.1036376953125 -0.86981201171875
6289375000.0 0.25640869140625 -1.44476318359375
6320596875.0 -0.687744140625 -1.20513916015625
6351818750.0 -1.19775390625 -0.5723876953125
6383040625.0 -1.35174560546875 0.20477294921875
6414262500.0 -0.9991455078125 1.05517578125
6445484375.0 -0.0789794921875 1.4554443359375
6476706250.0 0.79425048828125 1.14691162109375
6507928125.0 1.28875732421875 0.47015380859375
6539150000.0 1.3455810546875 -0.38543701171875
6570371875.0 0.8404541015625 -1.1412353515625
6601593750.0 -0.016357421875 -1.40289306640625
6632815625.0 -0.83819580078125 -1.13519287109375
6664037500.0 -1.39959716796875 -0.42041015625
6695259375.0 -1.3721923828125 0.56414794921875
6726481250.0 -0.70965576171875 1.24957275390625
6757703125.0 0.1290283203125 1.4044189453125
6788925000.0 0.95281982421875 1.12969970703125
6820146875.0 1.55816650390625 0.28826904296875
6851368750.0 1.3248291015625 -0.81744384765625
6882590625.0 0.50634765625 -1.33709716796875
6913812500.0 -0.29107666015625 -1.35504150390625
6945034375.0 -1.06781005859375 -1.02117919921875
6976256250.0 -1.59027099609375 -0.0946044921875
7007478125.0 -1.234130859375 0.9300537109375
7038700000.0 -0.4022216796875 1.34014892578125
7069921875.0 0.35626220703125 1.32110595703125
7101143750.0 1.11468505859375 0.96875
7132365625.0 1.5972900390625 0.01507568359375
7163587500.0 1.15655517578125 -1.0167236328125
7194809375.0 0.3023681640625 -1.395751953125
7226031250.0 -0.50994873046875 -1.324462890625
7257253125.0 -1.26092529296875 -0.8251953125
7288475000.0 -1.55615234375 0.1956787109375
7319696875.0 -1.02996826171875 1.11029052734375
7350918750.0 -0.1654052734375 1.44134521484375
7382140625.0 0.71514892578125 1.2744140625
7413362500.0 1.37353515625 0.57598876953125
7444584375.0 1.410888671875 -0.4068603515625
7475806250.0 0.858154296875 -1.14105224609375
7507028125.0 0.0078125 -1.4261474609375
7538250000.0 -0.88494873046875 -1.12274169921875
7569471875.0 -1.3345947265625 -0.31121826171875
7600693750.0 -1.2012939453125 0.49554443359375
7631915625.0 -0.717041015625 1.08306884765625
7663137500.0 0.07843017578125 1.35589599609375
7694359375.0 0.937530517578125 0.979736328125
7725581250.0 1.24224853515625 0.180419921875
7756803125.0 1.0816650390625 -0.49725341796875
7788025000.0 0.67047119140625 -1.0406494140625
7819246875.0 -0.1181640625 -1.344482421875
7850468750.0 -0.991607666015625 -0.9154052734375
7881690625.0 -1.22869873046875 -0.1060791015625
7912912500.0 -1.0538330078125 0.55224609375
7944134375.0 -0.6046142578125 1.1126708984375
7975356250.0 0.27008056640625 1.3336181640625
8006578125.0 1.04412841796875 0.7781982421875
8037800000.0 1.19232177734375 0.01702880859375
8069021875.0 1.005126953125 -0.615234375
8100243750.0 0.4998779296875 -1.16033935546875
8131465625.0 -0.38458251953125 -1.25244140625
8162687500.0 -1.02978515625 -0.6865234375
8193909375.0 -1.1798095703125 0.00640869140625
8225131250.0 -1.01739501953125 0.676513671875
8256353125.0 -0.42242431640625 1.2459716796875
8287575000.0 0.50115966796875 1.22528076171875
8318796875.0 1.08099365234375 0.6361083984375
8350018750.0 1.24371337890625 -0.07403564453125
8381240625.0 1.0303955078125 -0.8367919921875
8412462500.0 0.25518798828125 -1.37054443359375
8443684375.0 -0.665771484375 -1.16815185546875
8474906250.0 -1.1732177734375 -0.5323486328125
8506128125.0 -1.2955322265625 0.23443603515625
8537350000.0 -0.92449951171875 1.04547119140625
8568571875.0 -0.0166015625 1.3924560546875
8599793750.0 0.80023193359375 1.052001953125
8631015625.0 1.24017333984375 0.399169921875
8662237500.0 1.2847900390625 -0.4271240234375
8693459375.0 0.7362060546875 -1.17449951171875
8724681250.0 -0.16015625 -1.33026123046875
8755903125.0 -0.880523681640625 -0.957611083984375
8787125000.0 -1.30059814453125 -0.28326416015625
8818346875.0 -1.25067138671875 0.6131591796875
8849568750.0 -0.5574951171875 1.25830078125
8880790625.0 0.29901123046875 1.28448486328125
8912012500.0 0.97894287109375 0.891204833984375
8943234375.0 1.3970947265625 0.1297607421875
8974456250.0 1.16534423828125 -0.8363037109375
9005678125.0 0.3492431640625 -1.3116455078125
9036900000.0 -0.44329833984375 -1.22332763671875
9068121875.0 -1.10162353515625 -0.78564453125
9099343750.0 -1.4393310546875 0.09661865234375
9130565625.0 -0.97900390625 1.0093994140625
9161787500.0 -0.15435791015625 1.28179931640625
9193009375.0 0.55224609375 1.13226318359375
9224231250.0 1.1766357421875 0.65478515625
9255453125.0 1.39788818359375 -0.29498291015625
9286675000.0 0.80694580078125 -1.08453369140625
9317896875.0 0.02777099609375 -1.24658203125
9349118750.0 -0.6534423828125 -1.06915283203125
9380340625.0 -1.25677490234375 -0.5101318359375
9411562500.0 -1.310302734375 0.47418212890625
9442784375.0 -0.64764404296875 1.1146240234375
9474006250.0 0.08843994140625 1.2099609375
9505228125.0 0.7623291015625 0.979522705078125
9536450000.0 1.27056884765625 0.3148193359375
9567671875.0 1.14373779296875 -0.57763671875
9598893750.0 0.5296630859375 -1.06671142578125
9630115625.0 -0.143798828125 -1.15789794921875
9661337500.0 -0.81597900390625 -0.902313232421875
9692559375.0 -1.237060546875 -0.19110107421875
9723781250.0 -1.04302978515625 0.60260009765625
9755003125.0 -0.4859619140625 1.0477294921875
9786225000.0 0.1981201171875 1.159423828125
9817446875.0 0.89324951171875 0.827789306640625
9848668750.0 1.19525146484375 0.0802001953125
9879890625.0 0.968292236328125 -0.61590576171875
9911112500.0 0.452880859375 -1.05029296875
9942334375.0 -0.2659912109375 -1.15863037109375
9973556250.0 -0.942169189453125 -0.738128662109375
10004778125.0 -1.14556884765625 -0.01861572265625
10036000000.0 -0.943145751953125 0.615020751953125
10067221875.0 -0.44244384765625 1.0946044921875
10098443750.0 0.369140625 1.18035888671875
10129665625.0 1.0023193359375 0.6429443359375
10160887500.0 1.119384765625 -0.05145263671875
10192109375.0 0.91680908203125 -0.661895751953125
10223331250.0 0.36199951171875 -1.1514892578125
10254553125.0 -0.48333740234375 -1.11236572265625
10285775000.0 -0.98321533203125 -0.53594970703125
10316996875.0 -1.0665283203125 0.0750732421875
10348218750.0 -0.899566650390625 0.668670654296875
10379440625.0 -0.32354736328125 1.1734619140625
10410662500.0 0.5250244140625 1.084716796875
10441884375.0 0.9908447265625 0.522247314453125
10473106250.0 1.109130859375 -0.083984375
10504328125.0 0.947845458984375 -0.75543212890625
10535550000.0 0.24029541015625 -1.29425048828125
10566771875.0 -0.65606689453125 -1.076904296875
10597993750.0 -1.0804443359375 -0.45880126953125
10629215625.0 -1.17327880859375 0.20269775390625
10660437500.0 -0.887786865234375 0.94921875
10691659375.0 -0.009521484375 1.3345947265625
10722881250.0 0.783294677734375 0.951934814453125
10754103125.0 1.11688232421875 0.32550048828125
10785325000.0 1.13800048828125 -0.36627197265625
10816546875.0 0.70111083984375 -1.048583984375
10847768750.0 -0.14337158203125 -1.22821044921875
10878990625.0 -0.803985595703125 -0.842681884765625
10910212500.0 -1.12158203125 -0.2451171875
10941434375.0 -1.09747314453125 0.4749755859375
10972656250.0 -0.568115234375 1.0850830078125
11003878125.0 0.21490478515625 1.1732177734375
11035100000.0 0.8448486328125 0.82135009765625
11066321875.0 1.219482421875 0.174072265625
11097543750.0 1.0972900390625 -0.67626953125
11128765625.0 0.38531494140625 -1.19805908203125
11159987500.0 -0.3944091796875 -1.137939453125
11191209375.0 -0.99853515625 -0.7025146484375
11222431250.0 -1.27069091796875 0.0921630859375
11253653125.0 -0.8594970703125 0.893768310546875
11284875000.0 -0.1141357421875 1.126953125
11316096875.0 0.509033203125 0.955474853515625
11347318750.0 1.0010986328125 0.5030517578125
11378540625.0 1.116943359375 -0.26898193359375
11409762500.0 0.635162353515625 -0.85797119140625
11440984375.0 0.037353515625 -0.976776123046875
11472206250.0 -0.481231689453125 -0.850372314453125
11503428125.0 -0.953033447265625 -0.45599365234375
11534650000.0 -1.06817626953125 0.28692626953125
11565871875.0 -0.60272216796875 0.853302001953125
11597093750.0 -0.020477294921875 0.989898681640625
11628315625.0 0.54266357421875 0.874725341796875
11659537500.0 1.05731201171875 0.393310546875
11690759375.0 1.0634765625 -0.4326171875
11721981250.0 0.51654052734375 -0.940460205078125
11753203125.0 -0.10589599609375 -1.03594970703125
11784425000.0 -0.7232666015625 -0.808563232421875
11815646875.0 -1.09808349609375 -0.15289306640625
11846868750.0 -0.890472412109375 0.548736572265625
11878090625.0 -0.390899658203125 0.90948486328125
11909312500.0 0.18511962890625 0.98272705078125
11940534375.0 0.77880859375 0.69451904296875
11971756250.0 1.0238037109375 0.04052734375
12002978125.0 0.806488037109375 -0.53692626953125
12034200000.0 0.381988525390625 -0.88726806640625
12065421875.0 -0.2149658203125 -1.00946044921875
12096643750.0 -0.845611572265625 -0.66552734375
12127865625.0 -1.032958984375 0.01654052734375
12159087500.0 -0.81573486328125 0.575042724609375
12190309375.0 -0.378265380859375 0.9747314453125
12221531250.0 0.3382568359375 1.0875244140625
12252753125.0 0.979766845703125 0.581878662109375
12283975000.0 1.05303955078125 -0.12744140625
12315196875.0 0.7999267578125 -0.6761474609375
12346418750.0 0.28143310546875 -1.0916748046875
12377640625.0 -0.53631591796875 -1.059814453125
12408862500.0 -1.03265380859375 -0.41998291015625
12440084375.0 -1.007568359375 0.22479248046875
12471306250.0 -0.741607666015625 0.736083984375
12502528125.0 -0.179443359375 1.11956787109375
12533750000.0 0.618408203125 0.992584228515625
12564971875.0 1.04034423828125 0.36480712890625
12596193750.0 1.02838134765625 -0.26202392578125
12627415625.0 0.7471923828125 -0.828155517578125
12658637500.0 0.0799560546875 -1.206787109375
12689859375.0 -0.734893798828125 -0.965240478515625
12721081250.0 -1.11712646484375 -0.30596923828125
12752303125.0 -1.09600830078125 0.3802490234375
12783525000.0 -0.6866455078125 1.02587890625
12814746875.0 0.1632080078125 1.24847412109375
12845968750.0 0.862396240234375 0.810394287109375
12877190625.0 1.11639404296875 0.17193603515625
12908412500.0 1.0565185546875 -0.501953125
12939634375.0 0.54443359375 -1.11285400390625
12970856250.0 -0.320068359375 -1.1739501953125
13002078125.0 -0.891937255859375 -0.6927490234375
13033300000.0 -1.103515625 -0.08758544921875
13064521875.0 -1.0081787109375 0.5914306640625
13095743750.0 -0.4202880859375 1.1531982421875
13126965625.0 0.4073486328125 1.1199951171875
13158187500.0 0.94598388671875 0.6328125
13189409375.0 1.14727783203125 -0.0201416015625
13220631250.0 0.93511962890625 -0.7462158203125
13251853125.0 0.2354736328125 -1.1695556640625
13283075000.0 -0.5076904296875 -1.0196533203125
13314296875.0 -0.98504638671875 -0.52978515625
13345518750.0 -1.1346435546875 0.17645263671875
