!Created with skrf (http://scikit-rf.org).
# Hz S RI R 50.0 
!freq ReS11 ImS11
45000000.0 -0.07680130004882812 -0.09719467163085938
76221875.0 -0.19669342041015625 -0.04803466796875
107443750.0 -0.255828857421875 0.1194915771484375
138665625.0 -0.149139404296875 0.32891845703125
169887500.0 0.12286376953125 0.4185333251953125
201109375.0 0.4220428466796875 0.2824554443359375
232331250.0 0.58026123046875 -0.056549072265625
263553125.0 0.4913177490234375 -0.452880859375
294775000.0 0.10028076171875 -0.734130859375
325996875.0 -0.414947509765625 -0.683258056640625
357218750.0 -0.807952880859375 -0.299530029296875
388440625.0 -0.88836669921875 0.299468994140625
419662500.0 -0.5203857421875 0.867095947265625
450884375.0 0.17108154296875 1.03131103515625
482106250.0 0.79876708984375 0.716156005859375
513328125.0 1.1217041015625 0.0897216796875
544550000.0 1.0068359375 -0.67901611328125
575771875.0 0.339599609375 -1.239501953125
606993750.0 -0.55218505859375 -1.1807861328125
638215625.0 -1.1668701171875 -0.59405517578125
669437500.0 -1.3428955078125 0.23162841796875
700659375.0 -0.9747314453125 1.0963134765625
731881250.0 -0.00714111328125 1.5458984375
763103125.0 1.0048828125 1.16033935546875
794325000.0 1.47113037109375 0.2852783203125
825546875.0 1.37115478515625 -0.650390625
856768750.0 0.799072265625 -1.402099609375
887990625.0 -0.28997802734375 -1.6524658203125
919212500.0 -1.2890625 -1.08367919921875
950434375.0 -1.65252685546875 -0.06201171875
981656250.0 -1.3876953125 0.94671630859375
1012878125.0 -0.5341796875 1.67413330078125
1044100000.0 0.6951904296875 1.667236328125
1075321875.0 1.57647705078125 0.817138671875
1106543750.0 1.7098388671875 -0.31072998046875
1137765625.0 1.19219970703125 -1.284912109375
1168987500.0 0.1419677734375 -1.80145263671875
1200209375.0 -1.0611572265625 -1.48919677734375
1231431250.0 -1.73052978515625 -0.4578857421875
1262653125.0 -1.5987548828125 0.682861328125
1293875000.0 -0.85675048828125 1.49285888671875
1325096875.0 0.22528076171875 1.71099853515625
1356318750.0 1.2354736328125 1.2220458984375
1387540625.0 1.742919921875 0.19256591796875
1418762500.0 1.4742431640625 -0.9505615234375
1449984375.0 0.5335693359375 -1.62823486328125
1481206250.0 -0.548095703125 -1.56036376953125
1512428125.0 -1.34320068359375 -0.92401123046875
1543650000.0 -1.6588134765625 0.0628662109375
1574871875.0 -1.27789306640625 1.10833740234375
1606093750.0 -0.27642822265625 1.634033203125
1637315625.0 0.74078369140625 1.404541015625
1668537500.0 1.39794921875 0.69921875
1699759375.0 1.57696533203125 -0.2750244140625
1730981250.0 1.0682373046875 -1.229736328125
1762203125.0 0.04486083984375 -1.5736083984375
1793425000.0 -0.8551025390625 -1.2303466796875
1824646875.0 -1.39495849609375 -0.51812744140625
1855868750.0 -1.47772216796875 0.43115234375
1887090625.0 -0.878662109375 1.28619384765625
1918312500.0 0.11553955078125 1.4898681640625
1949534375.0 0.921630859375 1.0924072265625
1980756250.0 1.37677001953125 0.3729248046875
2011978125.0 1.36309814453125 -0.530517578125
2043200000.0 0.75347900390625 -1.26220703125
2074421875.0 -0.15472412109375 -1.43597412109375
2105643750.0 -0.96026611328125 -1.07586669921875
2136865625.0 -1.449462890625 -0.30792236328125
2168087500.0 -1.36083984375 0.67010498046875
2199309375.0 -0.6422119140625 1.35302734375
2230531250.0 0.28033447265625 1.43927001953125
2261753125.0 1.0732421875 1.017333984375
2292975000.0 1.51690673828125 0.172607421875
2324196875.0 1.308837890625 -0.818115234375
2355418750.0 0.52801513671875 -1.42156982421875
2386640625.0 -0.40362548828125 -1.45196533203125
2417862500.0 -1.18206787109375 -1.02783203125
2449084375.0 -1.6075439453125 -0.08636474609375
2480306250.0 -1.31536865234375 0.92535400390625
2511528125.0 -0.49676513671875 1.51019287109375
2542750000.0 0.487060546875 1.53955078125
2573971875.0 1.37261962890625 0.97137451171875
2605193750.0 1.72076416015625 -0.11065673828125
2636415625.0 1.26495361328125 -1.15216064453125
2667637500.0 0.3096923828125 -1.6697998046875
2698859375.0 -0.76885986328125 -1.53851318359375
2730081250.0 -1.575439453125 -0.74395751953125
2761303125.0 -1.68585205078125 0.38751220703125
2792525000.0 -1.1033935546875 1.30865478515625
2823746875.0 -0.10491943359375 1.73248291015625
2854968750.0 1.0113525390625 1.45953369140625
2886190625.0 1.69342041015625 0.4952392578125
2917412500.0 1.60418701171875 -0.61700439453125
2948634375.0 0.94293212890625 -1.43548583984375
2979856250.0 -0.10650634765625 -1.78082275390625
3011078125.0 -1.24725341796875 -1.34661865234375
3042300000.0 -1.7784423828125 -0.2373046875
3073521875.0 -1.51226806640625 0.8375244140625
3104743750.0 -0.76666259765625 1.571044921875
3135965625.0 0.36077880859375 1.812744140625
3167187500.0 1.50042724609375 1.16864013671875
3198409375.0 1.81976318359375 -0.07354736328125
3229631250.0 1.35284423828125 -1.08245849609375
3260853125.0 0.49261474609375 -1.67120361328125
3292075000.0 -0.65411376953125 -1.70184326171875
3323296875.0 -1.622314453125 -0.88348388671875
3354518750.0 -1.7337646484375 0.326171875
3385740625.0 -1.16033935546875 1.2325439453125
3416962500.0 -0.2335205078125 1.68511962890625
3448184375.0 0.859375 1.525634765625
3479406250.0 1.6385498046875 0.646728515625
3510628125.0 1.64727783203125 -0.49407958984375
3541850000.0 1.00360107421875 -1.3558349609375
3573071875.0 -0.00579833984375 -1.68572998046875
3604293750.0 -1.02783203125 -1.3406982421875
3635515625.0 -1.63031005859375 -0.44097900390625
3666737500.0 -1.56549072265625 0.64556884765625
3697959375.0 -0.82781982421875 1.47808837890625
3729181250.0 0.267822265625 1.6343994140625
3760403125.0 1.15399169921875 1.10125732421875
3791625000.0 1.5550537109375 0.22021484375
3822846875.0 1.4056396484375 -0.75982666015625
3854068750.0 0.62384033203125 -1.482666015625
3885290625.0 -0.4208984375 -1.484619140625
3916512500.0 -1.14324951171875 -0.9140625
3947734375.0 -1.45050048828125 -0.12152099609375
3978956250.0 -1.301025390625 0.78070068359375
4010178125.0 -0.53338623046875 1.45721435546875
4041400000.0 0.473388671875 1.41802978515625
4072621875.0 1.15313720703125 0.8497314453125
4103843750.0 1.4471435546875 0.06439208984375
4135065625.0 1.270751953125 -0.8460693359375
4166287500.0 0.45916748046875 -1.49835205078125
4197509375.0 -0.55810546875 -1.417236328125
4228731250.0 -1.24896240234375 -0.804443359375
4259953125.0 -1.511474609375 0.06976318359375
4291175000.0 -1.19140625 1.01007080078125
4322396875.0 -0.29150390625 1.5281982421875
4353618750.0 0.67236328125 1.352783203125
4384840625.0 1.32318115234375 0.69970703125
4416062500.0 1.50384521484375 -0.22705078125
4447284375.0 1.0579833984375 -1.1058349609375
4478506250.0 0.1734619140625 -1.49859619140625
4509728125.0 -0.73309326171875 -1.31072998046875
4540950000.0 -1.39593505859375 -0.63818359375
4572171875.0 -1.5252685546875 0.36065673828125
4603393750.0 -0.97479248046875 1.21368408203125
4634615625.0 -0.0628662109375 1.538330078125
4665837500.0 0.87054443359375 1.306640625
4697059375.0 1.54345703125 0.5167236328125
4728281250.0 1.53143310546875 -0.582275390625
4759503125.0 0.8250732421875 -1.36834716796875
4790725000.0 -0.14483642578125 -1.5751953125
4821946875.0 -1.08331298828125 -1.19696044921875
4853168750.0 -1.61651611328125 -0.25250244140625
4884390625.0 -1.38116455078125 0.79461669921875
4915612500.0 -0.61553955078125 1.41485595703125
4946834375.0 0.32763671875 1.51251220703125
4978056250.0 1.20703125 1.01971435546875
5009278125.0 1.56524658203125 0.0394287109375
5040500000.0 1.23199462890625 -0.8773193359375
5071721875.0 0.50323486328125 -1.41644287109375
5102943750.0 -0.44708251953125 -1.49981689453125
5134165625.0 -1.33880615234375 -0.9072265625
5165387500.0 -1.5706787109375 0.146240234375
5196609375.0 -1.13824462890625 1.0106201171875
5227831250.0 -0.35845947265625 1.508056640625
5259053125.0 0.68768310546875 1.49481201171875
5290275000.0 1.52423095703125 0.66375732421875
5321496875.0 1.4945068359375 -0.4315185546875
5352718750.0 0.9229736328125 -1.155517578125
5383940625.0 0.09783935546875 -1.50244140625
5415162500.0 -0.902099609375 -1.28680419921875
5446384375.0 -1.48748779296875 -0.371337890625
5477606250.0 -1.3018798828125 0.56610107421875
5508828125.0 -0.73309326171875 1.15386962890625
5540050000.0 0.05389404296875 1.40216064453125
5571271875.0 0.94036865234375 1.11187744140625
5602493750.0 1.41156005859375 0.26068115234375
5633715625.0 1.2344970703125 -0.613037109375
5664937500.0 0.64984130859375 -1.2034912109375
5696159375.0 -0.19744873046875 -1.38690185546875
5727381250.0 -1.023681640625 -0.98028564453125
5758603125.0 -1.39422607421875 -0.14520263671875
5789825000.0 -1.1964111328125 0.7186279296875
5821046875.0 -0.506591796875 1.309326171875
5852268750.0 0.41204833984375 1.31512451171875
5883490625.0 1.072021484375 0.77362060546875
5914712500.0 1.3045654296875 0.02032470703125
5945934375.0 1.0989990234375 -0.77801513671875
5977156250.0 0.3621826171875 -1.3143310546875
6008378125.0 -0.50994873046875 -1.184814453125
6039600000.0 -1.02447509765625 -0.650146484375
6070821875.0 -1.22564697265625 -0.00567626953125
6102043750.0 -1.08587646484375 0.7645263671875
6133265625.0 -0.34234619140625 1.3482666015625
6164487500.0 0.56463623046875 1.1898193359375
6195709375.0 1.07354736328125 0.63116455078125
6226931250.0 1.28204345703125 -0.0418701171875
6258153125.0 1.1068115234375 -0.8758544921875
6289375000.0 0.2554931640625 -1.4483642578125
6320596875.0 -0.69140625 -1.20745849609375
6351818750.0 -1.202392578125 -0.57220458984375
6383040625.0 -1.35748291015625 0.2078857421875
6414262500.0 -1.00067138671875 1.05914306640625
6445484375.0 -0.07806396484375 1.45867919921875
6476706250.0 0.79693603515625 1.14935302734375
6507928125.0 1.29229736328125 0.47088623046875
6539150000.0 1.349609375 -0.38714599609375
6570371875.0 0.842529296875 -1.1458740234375
6601593750.0 -0.0177001953125 -1.4078369140625
6632815625.0 -0.84161376953125 -1.13909912109375
6664037500.0 -1.4046630859375 -0.42071533203125
6695259375.0 -1.3765869140625 0.5682373046875
6726481250.0 -0.71124267578125 1.2537841796875
6757703125.0 0.13134765625 1.4102783203125
6788925000.0 0.95623779296875 1.13238525390625
6820146875.0 1.56439208984375 0.28717041015625
6851368750.0 1.32763671875 -0.82196044921875
6882590625.0 0.50640869140625 -1.34075927734375
6913812500.0 -0.292724609375 -1.35858154296875
6945034375.0 -1.0732421875 -1.023193359375
6976256250.0 -1.5946044921875 -0.092041015625
7007478125.0 -1.2384033203125 0.93560791015625
7038700000.0 -0.4027099609375 1.3468017578125
7069921875.0 0.35772705078125 1.325927734375
7101143750.0 1.1231689453125 0.97113037109375
7132365625.0 1.601806640625 0.01324462890625
7163587500.0 1.15966796875 -1.0233154296875
7194809375.0 0.3026123046875 -1.40069580078125
7226031250.0 -0.51251220703125 -1.32855224609375
7257253125.0 -1.26959228515625 -0.82611083984375
7288475000.0 -1.5625 0.1998291015625
7319696875.0 -1.0321044921875 1.1114501953125
7350918750.0 -0.16571044921875 1.44622802734375
7382140625.0 0.719970703125 1.2801513671875
7413362500.0 1.3797607421875 0.57574462890625
7444584375.0 1.413818359375 -0.4090576171875
7475806250.0 0.85894775390625 -1.14599609375
7507028125.0 0.00390625 -1.43341064453125
7538250000.0 -0.89044189453125 -1.1258544921875
7569471875.0 -1.3385009765625 -0.31085205078125
7600693750.0 -1.2047119140625 0.49884033203125
7631915625.0 -0.7197265625 1.08673095703125
7663137500.0 0.080322265625 1.36114501953125
7694359375.0 0.942291259765625 0.98333740234375
7725581250.0 1.2471923828125 0.18157958984375
7756803125.0 1.08544921875 -0.50146484375
7788025000.0 0.67144775390625 -1.047607421875
7819246875.0 -0.12139892578125 -1.35107421875
7850468750.0 -0.997039794921875 -0.91748046875
7881690625.0 -1.23486328125 -0.10382080078125
7912912500.0 -1.0577392578125 0.556884765625
7944134375.0 -0.6064453125 1.11688232421875
7975356250.0 0.27435302734375 1.337890625
8006578125.0 1.04669189453125 0.77874755859375
8037800000.0 1.19732666015625 0.0140380859375
8069021875.0 1.00885009765625 -0.62127685546875
8100243750.0 0.49945068359375 -1.16497802734375
8131465625.0 -0.388916015625 -1.25616455078125
8162687500.0 -1.0347900390625 -0.68695068359375
8193909375.0 -1.18218994140625 0.008544921875
8225131250.0 -1.0208740234375 0.67987060546875
8256353125.0 -0.421142578125 1.25360107421875
8287575000.0 0.50262451171875 1.2275390625
8318796875.0 1.0845947265625 0.63671875
8350018750.0 1.2493896484375 -0.0784912109375
8381240625.0 1.03363037109375 -0.8428955078125
8412462500.0 0.25244140625 -1.37860107421875
8443684375.0 -0.67266845703125 -1.17095947265625
8474906250.0 -1.1781005859375 -0.53057861328125
8506128125.0 -1.3001708984375 0.2386474609375
8537350000.0 -0.92449951171875 1.0499267578125
8568571875.0 -0.01568603515625 1.396484375
8599793750.0 0.80419921875 1.05609130859375
8631015625.0 1.24462890625 0.39849853515625
8662237500.0 1.28912353515625 -0.43206787109375
8693459375.0 0.7379150390625 -1.1790771484375
8724681250.0 -0.163330078125 -1.33441162109375
8755903125.0 -0.882781982421875 -0.95965576171875
8787125000.0 -1.30816650390625 -0.28265380859375
8818346875.0 -1.25341796875 0.6162109375
8849568750.0 -0.55780029296875 1.26422119140625
8880790625.0 0.30010986328125 1.2879638671875
8912012500.0 0.983795166015625 0.89447021484375
8943234375.0 1.40313720703125 0.1278076171875
8974456250.0 1.16851806640625 -0.84515380859375
9005678125.0 0.34613037109375 -1.31744384765625
9036900000.0 -0.44775390625 -1.226806640625
9068121875.0 -1.10565185546875 -0.7861328125
9099343750.0 -1.44403076171875 0.10089111328125
9130565625.0 -0.97918701171875 1.0157470703125
9161787500.0 -0.15289306640625 1.284912109375
9193009375.0 0.556396484375 1.135498046875
9224231250.0 1.181640625 0.65557861328125
9255453125.0 1.4044189453125 -0.29937744140625
9286675000.0 0.80865478515625 -1.08807373046875
9317896875.0 0.0250244140625 -1.25030517578125
9349118750.0 -0.656982421875 -1.072998046875
9380340625.0 -1.26129150390625 -0.51031494140625
9411562500.0 -1.31475830078125 0.480712890625
9442784375.0 -0.64825439453125 1.12054443359375
9474006250.0 0.0914306640625 1.21490478515625
9505228125.0 0.768951416015625 0.9825439453125
9536450000.0 1.27667236328125 0.3116455078125
9567671875.0 1.14581298828125 -0.583740234375
9598893750.0 0.5301513671875 -1.0714111328125
9630115625.0 -0.1453857421875 -1.1614990234375
9661337500.0 -0.82025146484375 -0.903564453125
9692559375.0 -1.24334716796875 -0.18707275390625
9723781250.0 -1.04443359375 0.6043701171875
9755003125.0 -0.4862060546875 1.05352783203125
9786225000.0 0.2000732421875 1.16253662109375
9817446875.0 0.900909423828125 0.82928466796875
9848668750.0 1.19952392578125 0.076904296875
9879890625.0 0.969390869140625 -0.6168212890625
9911112500.0 0.45245361328125 -1.05560302734375
9942334375.0 -0.2701416015625 -1.16363525390625
9973556250.0 -0.9481201171875 -0.738250732421875
10004778125.0 -1.14776611328125 -0.0166015625
10036000000.0 -0.94482421875 0.6187744140625
10067221875.0 -0.44183349609375 1.100341796875
10098443750.0 0.3756103515625 1.18475341796875
10129665625.0 1.00567626953125 0.64111328125
10160887500.0 1.12176513671875 -0.05389404296875
10192109375.0 0.918731689453125 -0.666351318359375
10223331250.0 0.35906982421875 -1.15618896484375
10254553125.0 -0.49078369140625 -1.11529541015625
10285775000.0 -0.98883056640625 -0.534149169921875
10316996875.0 -1.06951904296875 0.07867431640625
10348218750.0 -0.900726318359375 0.6715087890625
10379440625.0 -0.32196044921875 1.17755126953125
10410662500.0 0.5296630859375 1.087158203125
10441884375.0 0.995452880859375 0.521453857421875
10473106250.0 1.112060546875 -0.085693359375
10504328125.0 0.951019287109375 -0.7591552734375
10535550000.0 0.236328125 -1.29937744140625
10566771875.0 -0.66009521484375 -1.07769775390625
10597993750.0 -1.08453369140625 -0.45819091796875
10629215625.0 -1.17877197265625 0.20941162109375
10660437500.0 -0.887939453125 0.956146240234375
10691659375.0 -0.00628662109375 1.3375244140625
10722881250.0 0.788299560546875 0.952392578125
10754103125.0 1.12213134765625 0.32293701171875
10785325000.0 1.140869140625 -0.36944580078125
10816546875.0 0.69976806640625 -1.05389404296875
10847768750.0 -0.1478271484375 -1.23052978515625
10878990625.0 -0.80517578125 -0.844024658203125
10910212500.0 -1.1256103515625 -0.2447509765625
10941434375.0 -1.09930419921875 0.48028564453125
10972656250.0 -0.568115234375 1.08929443359375
11003878125.0 0.2203369140625 1.176513671875
11035100000.0 0.850341796875 0.823089599609375
11066321875.0 1.22332763671875 0.17388916015625
11097543750.0 1.100830078125 -0.6802978515625
11128765625.0 0.385009765625 -1.20269775390625
11159987500.0 -0.3975830078125 -1.14154052734375
11191209375.0 -1.00408935546875 -0.70184326171875
11222431250.0 -1.276123046875 0.09796142578125
11253653125.0 -0.857696533203125 0.898284912109375
11284875000.0 -0.1129150390625 1.1287841796875
11316096875.0 0.513519287109375 0.957794189453125
11347318750.0 1.00604248046875 0.50213623046875
11378540625.0 1.11956787109375 -0.2724609375
11409762500.0 0.635162353515625 -0.861328125
11440984375.0 0.0345458984375 -0.98077392578125
11472206250.0 -0.48382568359375 -0.852020263671875
11503428125.0 -0.95611572265625 -0.4559326171875
11534650000.0 -1.07135009765625 0.29180908203125
11565871875.0 -0.6031494140625 0.85626220703125
11597093750.0 -0.016571044921875 0.99462890625
11628315625.0 0.547454833984375 0.8768310546875
11659537500.0 1.06304931640625 0.39129638671875
11690759375.0 1.0667724609375 -0.4390869140625
11721981250.0 0.516876220703125 -0.942596435546875
11753203125.0 -0.107421875 -1.0394287109375
11784425000.0 -0.728607177734375 -0.8096923828125
11815646875.0 -1.10260009765625 -0.1490478515625
11846868750.0 -0.8919677734375 0.55450439453125
11878090625.0 -0.390625 0.91259765625
11909312500.0 0.188720703125 0.985809326171875
11940534375.0 0.783721923828125 0.695068359375
11971756250.0 1.02783203125 0.03790283203125
12002978125.0 0.80743408203125 -0.541259765625
12034200000.0 0.38153076171875 -0.892669677734375
12065421875.0 -0.21832275390625 -1.01300048828125
12096643750.0 -0.852508544921875 -0.663970947265625
12127865625.0 -1.03546142578125 0.01959228515625
12159087500.0 -0.816131591796875 0.578460693359375
12190309375.0 -0.37646484375 0.97906494140625
12221531250.0 0.341796875 1.08978271484375
12252753125.0 0.9847412109375 0.579010009765625
12283975000.0 1.05511474609375 -0.12872314453125
12315196875.0 0.801605224609375 -0.679168701171875
12346418750.0 0.278564453125 -1.0955810546875
12377640625.0 -0.54132080078125 -1.061279296875
12408862500.0 -1.03607177734375 -0.41705322265625
12440084375.0 -1.00970458984375 0.22607421875
12471306250.0 -0.74359130859375 0.7391357421875
12502528125.0 -0.17755126953125 1.124755859375
12533750000.0 0.62530517578125 0.994842529296875
12564971875.0 1.045654296875 0.36151123046875
12596193750.0 1.03125 -0.26727294921875
12627415625.0 0.749420166015625 -0.833221435546875
12658637500.0 0.076171875 -1.2135009765625
12689859375.0 -0.739501953125 -0.966461181640625
12721081250.0 -1.1199951171875 -0.30413818359375
12752303125.0 -1.10015869140625 0.3865966796875
12783525000.0 -0.6856689453125 1.03271484375
12814746875.0 0.16900634765625 1.253662109375
12845968750.0 0.86663818359375 0.81024169921875
12877190625.0 1.12127685546875 0.16973876953125
12908412500.0 1.0565185546875 -0.5040283203125
12939634375.0 0.53985595703125 -1.12335205078125
12970856250.0 -0.32611083984375 -1.17657470703125
13002078125.0 -0.89788818359375 -0.692047119140625
13033300000.0 -1.10821533203125 -0.08477783203125
13064521875.0 -1.01165771484375 0.59814453125
13095743750.0 -0.4166259765625 1.16143798828125
13126965625.0 0.41265869140625 1.12176513671875
13158187500.0 0.95245361328125 0.630706787109375
13189409375.0 1.15185546875 -0.02435302734375
13220631250.0 0.937591552734375 -0.754241943359375
13251853125.0 0.23040771484375 -1.17535400390625
13283075000.0 -0.510498046875 -1.02105712890625
13314296875.0 -0.99212646484375 -0.527618408203125
13345518750.0 -1.13812255859375 0.18084716796875
