!Created with skrf (http://scikit-rf.org).
# Hz S RI R 50.0 
!freq ReS11 ImS11
45000000.0 -0.0769195556640625 -0.09695816040039062
76221875.0 -0.196136474609375 -0.0474700927734375
107443750.0 -0.25469970703125 0.1194305419921875
138665625.0 -0.148040771484375 0.3280029296875
169887500.0 0.12335205078125 0.4172821044921875
201109375.0 0.4214935302734375 0.280731201171875
232331250.0 0.578460693359375 -0.057464599609375
263553125.0 0.48907470703125 -0.4519805908203125
294775000.0 0.09857177734375 -0.73175048828125
325996875.0 -0.414794921875 -0.679779052734375
357218750.0 -0.805267333984375 -0.296875
388440625.0 -0.884857177734375 0.30010986328125
419662500.0 -0.516815185546875 0.86541748046875
450884375.0 0.17266845703125 1.02764892578125
482106250.0 0.797515869140625 0.71185302734375
513328125.0 1.11822509765625 0.08734130859375
544550000.0 1.00299072265625 -0.678955078125
575771875.0 0.33624267578125 -1.237060546875
606993750.0 -0.5531005859375 -1.17626953125
638215625.0 -1.16461181640625 -0.5899658203125
669437500.0 -1.3385009765625 0.23333740234375
700659375.0 -0.97015380859375 1.09503173828125
731881250.0 -0.00396728515625 1.54132080078125
763103125.0 1.00439453125 1.1546630859375
794325000.0 1.4669189453125 0.281494140625
825546875.0 1.36578369140625 -0.650390625
856768750.0 0.79388427734375 -1.39886474609375
887990625.0 -0.29168701171875 -1.646240234375
919212500.0 -1.2860107421875 -1.07720947265625
950434375.0 -1.6461181640625 -0.05963134765625
981656250.0 -1.38043212890625 0.94384765625
1012878125.0 -0.52923583984375 1.66937255859375
1044100000.0 0.69573974609375 1.6593017578125
1075321875.0 1.57196044921875 0.81097412109375
1106543750.0 1.70184326171875 -0.31195068359375
1137765625.0 1.18505859375 -1.28240966796875
1168987500.0 0.13812255859375 -1.794189453125
1200209375.0 -1.06005859375 -1.48138427734375
1231431250.0 -1.724853515625 -0.4530029296875
1262653125.0 -1.59161376953125 0.68280029296875
1293875000.0 -0.85089111328125 1.48907470703125
1325096875.0 0.2279052734375 1.70404052734375
1356318750.0 1.2332763671875 1.21490478515625
1387540625.0 1.73663330078125 0.18914794921875
1418762500.0 1.466796875 -0.94964599609375
1449984375.0 0.5284423828125 -1.6234130859375
1481206250.0 -0.5487060546875 -1.55352783203125
1512428125.0 -1.339599609375 -0.91815185546875
1543650000.0 -1.652587890625 0.06500244140625
1574871875.0 -1.271484375 1.1064453125
1606093750.0 -0.27276611328125 1.6287841796875
1637315625.0 0.7408447265625 1.3983154296875
1668537500.0 1.393310546875 0.6951904296875
1699759375.0 1.57073974609375 -0.2764892578125
1730981250.0 1.06256103515625 -1.227294921875
1762203125.0 0.0423583984375 -1.56805419921875
1793425000.0 -0.85430908203125 -1.224853515625
1824646875.0 -1.39166259765625 -0.51446533203125
1855868750.0 -1.4720458984375 0.43157958984375
1887090625.0 -0.8739013671875 1.282958984375
1918312500.0 0.11676025390625 1.48406982421875
1949534375.0 0.9197998046875 1.08740234375
1980756250.0 1.37261962890625 0.3701171875
2011978125.0 1.357421875 -0.53070068359375
2043200000.0 0.74908447265625 -1.2591552734375
2074421875.0 -0.156494140625 -1.43133544921875
2105643750.0 -0.95849609375 -1.07122802734375
2136865625.0 -1.44525146484375 -0.3045654296875
2168087500.0 -1.3548583984375 0.66925048828125
2199309375.0 -0.63836669921875 1.3489990234375
2230531250.0 0.28131103515625 1.43359375
2261753125.0 1.0709228515625 1.0125732421875
2292975000.0 1.5118408203125 0.17034912109375
2324196875.0 1.30377197265625 -0.8167724609375
2355418750.0 0.52447509765625 -1.41754150390625
2386640625.0 -0.403076171875 -1.44622802734375
2417862500.0 -1.17742919921875 -1.022705078125
2449084375.0 -1.6009521484375 -0.084716796875
2480306250.0 -1.30963134765625 0.9229736328125
2511528125.0 -0.49365234375 1.5048828125
2542750000.0 0.48577880859375 1.5333251953125
2573971875.0 1.36907958984375 0.9661865234375
2605193750.0 1.7132568359375 -0.11114501953125
2636415625.0 1.25921630859375 -1.14971923828125
2667637500.0 0.30670166015625 -1.6639404296875
2698859375.0 -0.76837158203125 -1.5311279296875
2730081250.0 -1.56964111328125 -0.7393798828125
2761303125.0 -1.6773681640625 0.38671875
2792525000.0 -1.09747314453125 1.305419921875
2823746875.0 -0.101806640625 1.726318359375
2854968750.0 1.0093994140625 1.4530029296875
2886190625.0 1.68841552734375 0.49127197265625
2917412500.0 1.59649658203125 -0.61541748046875
2948634375.0 0.93792724609375 -1.42987060546875
2979856250.0 -0.10693359375 -1.772216796875
3011078125.0 -1.2445068359375 -1.3402099609375
3042300000.0 -1.7705078125 -0.2352294921875
3073521875.0 -1.50592041015625 0.8353271484375
3104743750.0 -0.76214599609375 1.56494140625
3135965625.0 0.360107421875 1.8050537109375
3167187500.0 1.495849609375 1.16217041015625
3198409375.0 1.81134033203125 -0.07489013671875
3229631250.0 1.34649658203125 -1.07928466796875
3260853125.0 0.4892578125 -1.6641845703125
3292075000.0 -0.65350341796875 -1.6947021484375
3323296875.0 -1.61676025390625 -0.8778076171875
3354518750.0 -1.7264404296875 0.32720947265625
3385740625.0 -1.15386962890625 1.22772216796875
3416962500.0 -0.2313232421875 1.67877197265625
3448184375.0 0.85650634765625 1.5181884765625
3479406250.0 1.63226318359375 0.64349365234375
3510628125.0 1.6405029296875 -0.49371337890625
3541850000.0 0.9981689453125 -1.35205078125
3573071875.0 -0.0068359375 -1.67803955078125
3604293750.0 -1.0247802734375 -1.33465576171875
3635515625.0 -1.6243896484375 -0.43780517578125
3666737500.0 -1.5584716796875 0.6439208984375
3697959375.0 -0.8236083984375 1.4718017578125
3729181250.0 0.26678466796875 1.6273193359375
3760403125.0 1.15081787109375 1.095947265625
3791625000.0 1.54840087890625 0.21868896484375
3822846875.0 1.39898681640625 -0.75836181640625
3854068750.0 0.6197509765625 -1.47747802734375
3885290625.0 -0.42022705078125 -1.4791259765625
3916512500.0 -1.13848876953125 -0.9095458984375
3947734375.0 -1.44403076171875 -0.12078857421875
3978956250.0 -1.29498291015625 0.7764892578125
4010178125.0 -0.53082275390625 1.45166015625
4041400000.0 0.4713134765625 1.412353515625
4072621875.0 1.149169921875 0.84625244140625
4103843750.0 1.4417724609375 0.0634765625
4135065625.0 1.26544189453125 -0.8433837890625
4166287500.0 0.45684814453125 -1.49298095703125
4197509375.0 -0.55560302734375 -1.41241455078125
4228731250.0 -1.24517822265625 -0.80218505859375
4259953125.0 -1.50579833984375 0.0697021484375
4291175000.0 -1.1861572265625 1.00836181640625
4322396875.0 -0.28924560546875 1.52276611328125
4353618750.0 0.6712646484375 1.34783935546875
4384840625.0 1.31866455078125 0.6964111328125
4416062500.0 1.49822998046875 -0.2264404296875
4447284375.0 1.05377197265625 -1.1014404296875
4478506250.0 0.17254638671875 -1.49285888671875
4509728125.0 -0.73046875 -1.3050537109375
4540950000.0 -1.38970947265625 -0.63543701171875
4572171875.0 -1.51953125 0.35784912109375
4603393750.0 -0.97113037109375 1.20953369140625
4634615625.0 -0.06231689453125 1.533447265625
4665837500.0 0.8681640625 1.3023681640625
4697059375.0 1.5377197265625 0.51544189453125
4728281250.0 1.527099609375 -0.58074951171875
4759503125.0 0.82232666015625 -1.36297607421875
4790725000.0 -0.14404296875 -1.5697021484375
4821946875.0 -1.08148193359375 -1.192138671875
4853168750.0 -1.610107421875 -0.25164794921875
4884390625.0 -1.376220703125 0.7918701171875
4915612500.0 -0.613037109375 1.40997314453125
4946834375.0 0.3270263671875 1.50640869140625
4978056250.0 1.2017822265625 1.015625
5009278125.0 1.56011962890625 0.0396728515625
5040500000.0 1.22705078125 -0.8739013671875
5071721875.0 0.50201416015625 -1.41094970703125
5102943750.0 -0.4449462890625 -1.49395751953125
5134165625.0 -1.3323974609375 -0.9044189453125
5165387500.0 -1.56591796875 0.1455078125
5196609375.0 -1.13458251953125 1.00531005859375
5227831250.0 -0.35748291015625 1.50323486328125
5259053125.0 0.686279296875 1.4901123046875
5290275000.0 1.520263671875 0.66217041015625
5321496875.0 1.4898681640625 -0.4293212890625
5352718750.0 0.919921875 -1.15130615234375
5383940625.0 0.0975341796875 -1.49664306640625
5415162500.0 -0.89825439453125 -1.28216552734375
5446384375.0 -1.4818115234375 -0.37030029296875
5477606250.0 -1.296875 0.5648193359375
5508828125.0 -0.73065185546875 1.14910888671875
5540050000.0 0.05364990234375 1.396728515625
5571271875.0 0.9371337890625 1.10736083984375
5602493750.0 1.40643310546875 0.26055908203125
5633715625.0 1.2305908203125 -0.61187744140625
5664937500.0 0.64727783203125 -1.19921875
5696159375.0 -0.1954345703125 -1.38153076171875
5727381250.0 -1.020263671875 -0.9771728515625
5758603125.0 -1.38916015625 -0.14532470703125
5789825000.0 -1.19268798828125 0.71630859375
5821046875.0 -0.50634765625 1.30499267578125
5852268750.0 0.40936279296875 1.31048583984375
5883490625.0 1.06866455078125 0.77117919921875
5914712500.0 1.300537109375 0.02008056640625
5945934375.0 1.0946044921875 -0.7738037109375
5977156250.0 0.361328125 -1.30914306640625
6008378125.0 -0.50799560546875 -1.1806640625
6039600000.0 -1.02008056640625 -0.64892578125
6070821875.0 -1.221435546875 -0.005126953125
6102043750.0 -1.0816650390625 0.759765625
6133265625.0 -0.34173583984375 1.3428955078125
6164487500.0 0.561279296875 1.185546875
6195709375.0 1.06781005859375 0.6297607421875
6226931250.0 1.27752685546875 -0.04144287109375
6258153125.0 1.1029052734375 -0.8699951171875
6289375000.0 0.2562255859375 -1.444091796875
6320596875.0 -0.68804931640625 -1.20440673828125
6351818750.0 -1.1978759765625 -0.57159423828125
6383040625.0 -1.35284423828125 0.2060546875
6414262500.0 -0.9990234375 1.0545654296875
6445484375.0 -0.07989501953125 1.4539794921875
6476706250.0 0.79351806640625 1.1463623046875
6507928125.0 1.28900146484375 0.46978759765625
6539150000.0 1.345947265625 -0.3856201171875
6570371875.0 0.84002685546875 -1.14239501953125
6601593750.0 -0.01708984375 -1.40362548828125
6632815625.0 -0.838623046875 -1.135009765625
6664037500.0 -1.39984130859375 -0.4195556640625
6695259375.0 -1.3719482421875 0.56427001953125
6726481250.0 -0.709716796875 1.2491455078125
6757703125.0 0.13043212890625 1.4052734375
6788925000.0 0.95391845703125 1.12957763671875
6820146875.0 1.55792236328125 0.28753662109375
6851368750.0 1.3243408203125 -0.818115234375
6882590625.0 0.50616455078125 -1.33648681640625
6913812500.0 -0.29107666015625 -1.3543701171875
6945034375.0 -1.068603515625 -1.02056884765625
6976256250.0 -1.59033203125 -0.094482421875
7007478125.0 -1.235107421875 0.9320068359375
7038700000.0 -0.40289306640625 1.33929443359375
7069921875.0 0.3570556640625 1.32012939453125
7101143750.0 1.11553955078125 0.96783447265625
7132365625.0 1.59661865234375 0.0150146484375
7163587500.0 1.1561279296875 -1.01837158203125
7194809375.0 0.30230712890625 -1.3948974609375
7226031250.0 -0.50885009765625 -1.3231201171875
7257253125.0 -1.26519775390625 -0.82342529296875
7288475000.0 -1.55560302734375 0.1962890625
7319696875.0 -1.02880859375 1.106201171875
7350918750.0 -0.165283203125 1.44183349609375
7382140625.0 0.7137451171875 1.27435302734375
7413362500.0 1.373779296875 0.57666015625
7444584375.0 1.4100341796875 -0.40594482421875
7475806250.0 0.857177734375 -1.140625
7507028125.0 0.00634765625 -1.42730712890625
7538250000.0 -0.88543701171875 -1.12176513671875
7569471875.0 -1.334716796875 -0.3104248046875
7600693750.0 -1.19940185546875 0.4947509765625
7631915625.0 -0.7178955078125 1.08392333984375
7663137500.0 0.07861328125 1.35516357421875
7694359375.0 0.93743896484375 0.980438232421875
7725581250.0 1.2421875 0.18121337890625
7756803125.0 1.0810546875 -0.49664306640625
7788025000.0 0.67010498046875 -1.04315185546875
7819246875.0 -0.12091064453125 -1.34619140625
7850468750.0 -0.9908447265625 -0.915313720703125
7881690625.0 -1.22979736328125 -0.10546875
7912912500.0 -1.05316162109375 0.55377197265625
7944134375.0 -0.6058349609375 1.1107177734375
7975356250.0 0.27081298828125 1.334228515625
8006578125.0 1.04461669921875 0.77899169921875
8037800000.0 1.19189453125 0.01580810546875
8069021875.0 1.00555419921875 -0.61669921875
8100243750.0 0.5001220703125 -1.1591796875
8131465625.0 -0.3865966796875 -1.25372314453125
8162687500.0 -1.02825927734375 -0.68597412109375
8193909375.0 -1.179931640625 0.00897216796875
8225131250.0 -1.01641845703125 0.67633056640625
8256353125.0 -0.42242431640625 1.24578857421875
8287575000.0 0.5 1.22528076171875
8318796875.0 1.08154296875 0.6351318359375
8350018750.0 1.24224853515625 -0.07403564453125
8381240625.0 1.0302734375 -0.83819580078125
8412462500.0 0.25482177734375 -1.37115478515625
8443684375.0 -0.669189453125 -1.16961669921875
8474906250.0 -1.17218017578125 -0.53155517578125
8506128125.0 -1.2965087890625 0.23638916015625
8537350000.0 -0.9234619140625 1.04248046875
8568571875.0 -0.017578125 1.39337158203125
8599793750.0 0.800537109375 1.05316162109375
8631015625.0 1.239990234375 0.3990478515625
8662237500.0 1.28466796875 -0.428955078125
8693459375.0 0.73614501953125 -1.17523193359375
8724681250.0 -0.16058349609375 -1.3289794921875
8755903125.0 -0.878509521484375 -0.957122802734375
8787125000.0 -1.30133056640625 -0.2825927734375
8818346875.0 -1.24981689453125 0.61444091796875
8849568750.0 -0.55609130859375 1.25946044921875
8880790625.0 0.29803466796875 1.28424072265625
8912012500.0 0.9810791015625 0.89154052734375
8943234375.0 1.3975830078125 0.13006591796875
8974456250.0 1.1658935546875 -0.83575439453125
9005678125.0 0.34832763671875 -1.3126220703125
9036900000.0 -0.44354248046875 -1.223388671875
9068121875.0 -1.09869384765625 -0.78582763671875
9099343750.0 -1.4388427734375 0.0965576171875
9130565625.0 -0.97906494140625 1.009521484375
9161787500.0 -0.155517578125 1.28106689453125
9193009375.0 0.553955078125 1.13336181640625
9224231250.0 1.1783447265625 0.654296875
9255453125.0 1.39801025390625 -0.29449462890625
9286675000.0 0.80718994140625 -1.0841064453125
9317896875.0 0.02789306640625 -1.24609375
9349118750.0 -0.65228271484375 -1.06878662109375
9380340625.0 -1.25640869140625 -0.51031494140625
9411562500.0 -1.310302734375 0.47662353515625
9442784375.0 -0.6484375 1.1136474609375
9474006250.0 0.0882568359375 1.2109375
9505228125.0 0.762603759765625 0.980865478515625
9536450000.0 1.2711181640625 0.313720703125
9567671875.0 1.14373779296875 -0.5810546875
9598893750.0 0.529052734375 -1.0693359375
9630115625.0 -0.1422119140625 -1.15618896484375
9661337500.0 -0.817138671875 -0.90203857421875
9692559375.0 -1.23590087890625 -0.19122314453125
9723781250.0 -1.04248046875 0.6019287109375
9755003125.0 -0.48553466796875 1.04974365234375
9786225000.0 0.19671630859375 1.1573486328125
9817446875.0 0.893707275390625 0.82763671875
9848668750.0 1.19720458984375 0.07861328125
9879890625.0 0.967315673828125 -0.614044189453125
9911112500.0 0.45281982421875 -1.04986572265625
9942334375.0 -0.26611328125 -1.15777587890625
9973556250.0 -0.939910888671875 -0.7379150390625
10004778125.0 -1.1458740234375 -0.01812744140625
10036000000.0 -0.943450927734375 0.61431884765625
10067221875.0 -0.4423828125 1.09423828125
10098443750.0 0.36865234375 1.1805419921875
10129665625.0 1.00103759765625 0.64306640625
10160887500.0 1.11944580078125 -0.05145263671875
10192109375.0 0.9166259765625 -0.66119384765625
10223331250.0 0.36151123046875 -1.149658203125
10254553125.0 -0.48297119140625 -1.11248779296875
10285775000.0 -0.9842529296875 -0.535491943359375
10316996875.0 -1.066162109375 0.07666015625
10348218750.0 -0.8997802734375 0.6702880859375
10379440625.0 -0.323974609375 1.17315673828125
10410662500.0 0.5257568359375 1.08465576171875
10441884375.0 0.9906005859375 0.521209716796875
10473106250.0 1.10784912109375 -0.08380126953125
10504328125.0 0.947479248046875 -0.75494384765625
10535550000.0 0.24066162109375 -1.293212890625
10566771875.0 -0.65631103515625 -1.0771484375
10597993750.0 -1.07965087890625 -0.45916748046875
10629215625.0 -1.1728515625 0.2039794921875
10660437500.0 -0.886962890625 0.947967529296875
10691659375.0 -0.010498046875 1.33294677734375
10722881250.0 0.783538818359375 0.951812744140625
10754103125.0 1.118408203125 0.32525634765625
10785325000.0 1.13836669921875 -0.365966796875
10816546875.0 0.70025634765625 -1.04736328125
10847768750.0 -0.1441650390625 -1.2281494140625
10878990625.0 -0.80169677734375 -0.843505859375
10910212500.0 -1.12164306640625 -0.2451171875
10941434375.0 -1.0982666015625 0.477294921875
10972656250.0 -0.568603515625 1.08355712890625
11003878125.0 0.21514892578125 1.17254638671875
11035100000.0 0.84564208984375 0.821319580078125
11066321875.0 1.21881103515625 0.1751708984375
11097543750.0 1.09759521484375 -0.67486572265625
11128765625.0 0.38653564453125 -1.1976318359375
11159987500.0 -0.39544677734375 -1.13812255859375
11191209375.0 -0.997711181640625 -0.703033447265625
11222431250.0 -1.2711181640625 0.09259033203125
11253653125.0 -0.859893798828125 0.89251708984375
11284875000.0 -0.11572265625 1.1248779296875
11316096875.0 0.509185791015625 0.95526123046875
11347318750.0 1.00152587890625 0.50189208984375
11378540625.0 1.1153564453125 -0.26739501953125
11409762500.0 0.634796142578125 -0.857879638671875
11440984375.0 0.036529541015625 -0.97711181640625
11472206250.0 -0.4796142578125 -0.849609375
11503428125.0 -0.95220947265625 -0.45623779296875
11534650000.0 -1.06805419921875 0.287353515625
11565871875.0 -0.6026611328125 0.851715087890625
11597093750.0 -0.020233154296875 0.989654541015625
11628315625.0 0.54437255859375 0.875030517578125
11659537500.0 1.06060791015625 0.391845703125
11690759375.0 1.06402587890625 -0.4320068359375
11721981250.0 0.5162353515625 -0.94085693359375
11753203125.0 -0.10546875 -1.0360107421875
11784425000.0 -0.7237548828125 -0.808319091796875
11815646875.0 -1.1004638671875 -0.15081787109375
11846868750.0 -0.890167236328125 0.549835205078125
11878090625.0 -0.391693115234375 0.90948486328125
11909312500.0 0.18695068359375 0.98370361328125
11940534375.0 0.77899169921875 0.6942138671875
11971756250.0 1.0234375 0.03973388671875
12002978125.0 0.805999755859375 -0.53594970703125
12034200000.0 0.382080078125 -0.888275146484375
12065421875.0 -0.21429443359375 -1.00836181640625
12096643750.0 -0.847686767578125 -0.66448974609375
12127865625.0 -1.03363037109375 0.01666259765625
12159087500.0 -0.814208984375 0.5740966796875
12190309375.0 -0.377349853515625 0.974212646484375
12221531250.0 0.33917236328125 1.08685302734375
12252753125.0 0.97894287109375 0.581817626953125
12283975000.0 1.05267333984375 -0.12701416015625
12315196875.0 0.800048828125 -0.675048828125
12346418750.0 0.28131103515625 -1.089599609375
12377640625.0 -0.53802490234375 -1.0601806640625
12408862500.0 -1.03253173828125 -0.42047119140625
12440084375.0 -1.0078125 0.22369384765625
12471306250.0 -0.7410888671875 0.735931396484375
12502528125.0 -0.1796875 1.11968994140625
12533750000.0 0.619110107421875 0.993377685546875
12564971875.0 1.0408935546875 0.36474609375
12596193750.0 1.029052734375 -0.26416015625
12627415625.0 0.748077392578125 -0.8271484375
12658637500.0 0.08074951171875 -1.20556640625
12689859375.0 -0.73480224609375 -0.96490478515625
12721081250.0 -1.11407470703125 -0.30657958984375
12752303125.0 -1.0975341796875 0.38189697265625
12783525000.0 -0.68731689453125 1.02508544921875
12814746875.0 0.1650390625 1.250244140625
12845968750.0 0.86016845703125 0.81024169921875
12877190625.0 1.11676025390625 0.17193603515625
12908412500.0 1.0556640625 -0.50146484375
12939634375.0 0.54290771484375 -1.1158447265625
12970856250.0 -0.3177490234375 -1.17340087890625
13002078125.0 -0.89404296875 -0.6932373046875
13033300000.0 -1.10467529296875 -0.0875244140625
13064521875.0 -1.0093994140625 0.5921630859375
13095743750.0 -0.4205322265625 1.15313720703125
13126965625.0 0.4085693359375 1.11956787109375
13158187500.0 0.9451904296875 0.63153076171875
13189409375.0 1.14715576171875 -0.02142333984375
13220631250.0 0.935577392578125 -0.74609375
13251853125.0 0.2349853515625 -1.16986083984375
13283075000.0 -0.50762939453125 -1.02008056640625
13314296875.0 -0.987640380859375 -0.529449462890625
13345518750.0 -1.13262939453125 0.17523193359375
13376740625.0 -0.75225830078125 0.8565673828125
