!Created with skrf (http://scikit-rf.org).
# Hz S RI R 50.0 
!freq ReS11 ImS11
45000000.0 -0.07698440551757812 -0.09686660766601562
76221875.0 -0.196258544921875 -0.04761505126953125
107443750.0 -0.2546234130859375 0.1194305419921875
138665625.0 -0.1480865478515625 0.327972412109375
169887500.0 0.1234588623046875 0.416961669921875
201109375.0 0.421539306640625 0.280548095703125
232331250.0 0.578460693359375 -0.057464599609375
263553125.0 0.489105224609375 -0.452301025390625
294775000.0 0.098419189453125 -0.731597900390625
325996875.0 -0.414947509765625 -0.67974853515625
357218750.0 -0.805511474609375 -0.296875
388440625.0 -0.8846435546875 0.300201416015625
419662500.0 -0.516845703125 0.865478515625
450884375.0 0.1728515625 1.02752685546875
482106250.0 0.797332763671875 0.71185302734375
513328125.0 1.1181640625 0.08709716796875
544550000.0 1.00274658203125 -0.67926025390625
575771875.0 0.336181640625 -1.23675537109375
606993750.0 -0.5533447265625 -1.1761474609375
638215625.0 -1.16448974609375 -0.5897216796875
669437500.0 -1.33837890625 0.23321533203125
700659375.0 -0.97003173828125 1.094970703125
731881250.0 -0.00360107421875 1.54107666015625
763103125.0 1.00439453125 1.1546630859375
794325000.0 1.466796875 0.28143310546875
825546875.0 1.365478515625 -0.650634765625
856768750.0 0.7939453125 -1.3985595703125
887990625.0 -0.292236328125 -1.64617919921875
919212500.0 -1.28607177734375 -1.07720947265625
950434375.0 -1.646484375 -0.05889892578125
981656250.0 -1.38092041015625 0.94384765625
1012878125.0 -0.52935791015625 1.66925048828125
1044100000.0 0.6954345703125 1.6590576171875
1075321875.0 1.57171630859375 0.81097412109375
1106543750.0 1.70208740234375 -0.31207275390625
1137765625.0 1.18463134765625 -1.28179931640625
1168987500.0 0.13818359375 -1.7940673828125
1200209375.0 -1.0599365234375 -1.48162841796875
1231431250.0 -1.724365234375 -0.45330810546875
1262653125.0 -1.5916748046875 0.68328857421875
1293875000.0 -0.850830078125 1.4891357421875
1325096875.0 0.2275390625 1.704345703125
1356318750.0 1.23291015625 1.21478271484375
1387540625.0 1.73699951171875 0.18902587890625
1418762500.0 1.4669189453125 -0.949951171875
1449984375.0 0.52825927734375 -1.62347412109375
1481206250.0 -0.5489501953125 -1.55389404296875
1512428125.0 -1.33941650390625 -0.91802978515625
1543650000.0 -1.65283203125 0.0648193359375
1574871875.0 -1.27117919921875 1.1068115234375
1606093750.0 -0.27294921875 1.6285400390625
1637315625.0 0.740966796875 1.3983154296875
1668537500.0 1.393798828125 0.6949462890625
1699759375.0 1.5706787109375 -0.2764892578125
1730981250.0 1.062744140625 -1.2271728515625
1762203125.0 0.042236328125 -1.568115234375
1793425000.0 -0.8541259765625 -1.22479248046875
1824646875.0 -1.391357421875 -0.5145263671875
1855868750.0 -1.47149658203125 0.4315185546875
1887090625.0 -0.87347412109375 1.282958984375
1918312500.0 0.11700439453125 1.484619140625
1949534375.0 0.91961669921875 1.08770751953125
1980756250.0 1.3724365234375 0.36956787109375
2011978125.0 1.357421875 -0.530517578125
2043200000.0 0.7489013671875 -1.25927734375
2074421875.0 -0.15618896484375 -1.4306640625
2105643750.0 -0.95831298828125 -1.071044921875
2136865625.0 -1.44500732421875 -0.30499267578125
2168087500.0 -1.35504150390625 0.66961669921875
2199309375.0 -0.638427734375 1.34918212890625
2230531250.0 0.281005859375 1.43359375
2261753125.0 1.07073974609375 1.0125732421875
2292975000.0 1.51226806640625 0.16986083984375
2324196875.0 1.30340576171875 -0.81744384765625
2355418750.0 0.52471923828125 -1.417724609375
2386640625.0 -0.40362548828125 -1.44659423828125
2417862500.0 -1.178955078125 -1.02288818359375
2449084375.0 -1.60101318359375 -0.0845947265625
2480306250.0 -1.309326171875 0.92291259765625
2511528125.0 -0.493408203125 1.5047607421875
2542750000.0 0.488037109375 1.53338623046875
2573971875.0 1.36834716796875 0.966064453125
2605193750.0 1.7137451171875 -0.1114501953125
2636415625.0 1.259033203125 -1.14984130859375
2667637500.0 0.3062744140625 -1.6641845703125
2698859375.0 -0.7686767578125 -1.53216552734375
2730081250.0 -1.5703125 -0.73974609375
2761303125.0 -1.6778564453125 0.38690185546875
2792525000.0 -1.097412109375 1.30523681640625
2823746875.0 -0.103271484375 1.72509765625
2854968750.0 1.00830078125 1.45220947265625
2886190625.0 1.6873779296875 0.49041748046875
2917412500.0 1.59661865234375 -0.6160888671875
2948634375.0 0.9381103515625 -1.4302978515625
2979856250.0 -0.10711669921875 -1.7723388671875
3011078125.0 -1.24456787109375 -1.3399658203125
3042300000.0 -1.7703857421875 -0.2352294921875
3073521875.0 -1.50579833984375 0.8355712890625
3104743750.0 -0.7615966796875 1.56573486328125
3135965625.0 0.36138916015625 1.805419921875
3167187500.0 1.49609375 1.16229248046875
3198409375.0 1.81195068359375 -0.07464599609375
3229631250.0 1.3458251953125 -1.07794189453125
3260853125.0 0.48846435546875 -1.665771484375
3292075000.0 -0.65289306640625 -1.69451904296875
3323296875.0 -1.61676025390625 -0.8778076171875
3354518750.0 -1.72705078125 0.3282470703125
3385740625.0 -1.1534423828125 1.2296142578125
3416962500.0 -0.23101806640625 1.6778564453125
3448184375.0 0.8580322265625 1.51824951171875
3479406250.0 1.63287353515625 0.64324951171875
3510628125.0 1.6407470703125 -0.49365234375
3541850000.0 0.99884033203125 -1.35198974609375
3573071875.0 -0.0069580078125 -1.67840576171875
3604293750.0 -1.02581787109375 -1.3350830078125
3635515625.0 -1.62335205078125 -0.43865966796875
3666737500.0 -1.55914306640625 0.6448974609375
3697959375.0 -0.8238525390625 1.472412109375
3729181250.0 0.26666259765625 1.62689208984375
3760403125.0 1.15069580078125 1.095947265625
3791625000.0 1.54913330078125 0.218017578125
3822846875.0 1.39825439453125 -0.75872802734375
3854068750.0 0.61944580078125 -1.47833251953125
3885290625.0 -0.41961669921875 -1.478515625
3916512500.0 -1.13916015625 -0.909423828125
3947734375.0 -1.44488525390625 -0.12005615234375
3978956250.0 -1.29547119140625 0.7772216796875
4010178125.0 -0.5308837890625 1.45074462890625
4041400000.0 0.47137451171875 1.41259765625
4072621875.0 1.149169921875 0.84674072265625
4103843750.0 1.44195556640625 0.06353759765625
4135065625.0 1.265380859375 -0.84405517578125
4166287500.0 0.457275390625 -1.49237060546875
4197509375.0 -0.55609130859375 -1.41278076171875
4228731250.0 -1.2457275390625 -0.80230712890625
4259953125.0 -1.506103515625 0.07000732421875
4291175000.0 -1.186279296875 1.0079345703125
4322396875.0 -0.28936767578125 1.52349853515625
4353618750.0 0.67083740234375 1.34759521484375
4384840625.0 1.3193359375 0.6962890625
4416062500.0 1.49786376953125 -0.22564697265625
4447284375.0 1.0535888671875 -1.10198974609375
4478506250.0 0.1722412109375 -1.49267578125
4509728125.0 -0.73004150390625 -1.3050537109375
4540950000.0 -1.39031982421875 -0.6357421875
4572171875.0 -1.51922607421875 0.3577880859375
4603393750.0 -0.97119140625 1.2098388671875
4634615625.0 -0.061767578125 1.5343017578125
4665837500.0 0.8677978515625 1.3021240234375
4697059375.0 1.537841796875 0.51544189453125
4728281250.0 1.52618408203125 -0.58001708984375
4759503125.0 0.8218994140625 -1.3643798828125
4790725000.0 -0.14398193359375 -1.5693359375
4821946875.0 -1.0809326171875 -1.19256591796875
4853168750.0 -1.610595703125 -0.25152587890625
4884390625.0 -1.3759765625 0.79052734375
4915612500.0 -0.61260986328125 1.40911865234375
4946834375.0 0.32733154296875 1.5067138671875
4978056250.0 1.2034912109375 1.0157470703125
5009278125.0 1.55841064453125 0.04010009765625
5040500000.0 1.22674560546875 -0.8726806640625
5071721875.0 0.50091552734375 -1.4129638671875
5102943750.0 -0.4453125 -1.49462890625
5134165625.0 -1.33258056640625 -0.9046630859375
5165387500.0 -1.565185546875 0.1451416015625
5196609375.0 -1.13433837890625 1.00640869140625
5227831250.0 -0.357666015625 1.50323486328125
5259053125.0 0.68695068359375 1.489990234375
5290275000.0 1.51824951171875 0.6629638671875
5321496875.0 1.48944091796875 -0.428955078125
5352718750.0 0.9200439453125 -1.15191650390625
5383940625.0 0.09759521484375 -1.4969482421875
5415162500.0 -0.898193359375 -1.28216552734375
5446384375.0 -1.48175048828125 -0.37005615234375
5477606250.0 -1.29730224609375 0.5645751953125
5508828125.0 -0.73089599609375 1.14801025390625
5540050000.0 0.05328369140625 1.39605712890625
5571271875.0 0.936279296875 1.10748291015625
5602493750.0 1.406005859375 0.25982666015625
5633715625.0 1.23046875 -0.61102294921875
5664937500.0 0.64794921875 -1.19873046875
5696159375.0 -0.19580078125 -1.38165283203125
5727381250.0 -1.0205078125 -0.9771728515625
5758603125.0 -1.38934326171875 -0.14544677734375
5789825000.0 -1.19268798828125 0.7152099609375
5821046875.0 -0.5059814453125 1.3050537109375
5852268750.0 0.40960693359375 1.31060791015625
5883490625.0 1.069580078125 0.77099609375
5914712500.0 1.30084228515625 0.01983642578125
5945934375.0 1.09442138671875 -0.77276611328125
5977156250.0 0.361328125 -1.30987548828125
6008378125.0 -0.50775146484375 -1.18060302734375
6039600000.0 -1.01971435546875 -0.64874267578125
6070821875.0 -1.2227783203125 -0.00482177734375
6102043750.0 -1.081787109375 0.7601318359375
6133265625.0 -0.342041015625 1.34259033203125
6164487500.0 0.56219482421875 1.18603515625
6195709375.0 1.068115234375 0.62957763671875
6226931250.0 1.27655029296875 -0.0408935546875
6258153125.0 1.10302734375 -0.86895751953125
6289375000.0 0.2564697265625 -1.4434814453125
6320596875.0 -0.6885986328125 -1.204833984375
6351818750.0 -1.19793701171875 -0.572021484375
6383040625.0 -1.3526611328125 0.20599365234375
6414262500.0 -0.9991455078125 1.0552978515625
6445484375.0 -0.079345703125 1.454345703125
6476706250.0 0.79339599609375 1.1466064453125
6507928125.0 1.28778076171875 0.47039794921875
6539150000.0 1.3460693359375 -0.38519287109375
6570371875.0 0.84075927734375 -1.1417236328125
6601593750.0 -0.016357421875 -1.402587890625
6632815625.0 -0.8382568359375 -1.135009765625
6664037500.0 -1.39996337890625 -0.4197998046875
6695259375.0 -1.3724365234375 0.56475830078125
6726481250.0 -0.70989990234375 1.24957275390625
6757703125.0 0.1297607421875 1.40478515625
6788925000.0 0.95318603515625 1.1292724609375
6820146875.0 1.558349609375 0.28778076171875
6851368750.0 1.32427978515625 -0.81854248046875
6882590625.0 0.50567626953125 -1.33685302734375
6913812500.0 -0.290771484375 -1.35443115234375
6945034375.0 -1.06829833984375 -1.02093505859375
6976256250.0 -1.59027099609375 -0.09332275390625
7007478125.0 -1.23468017578125 0.92938232421875
7038700000.0 -0.40325927734375 1.33984375
7069921875.0 0.3572998046875 1.3206787109375
7101143750.0 1.11474609375 0.9677734375
7132365625.0 1.595703125 0.0164794921875
7163587500.0 1.1563720703125 -1.01861572265625
7194809375.0 0.30224609375 -1.39483642578125
7226031250.0 -0.50994873046875 -1.32330322265625
7257253125.0 -1.2652587890625 -0.823486328125
7288475000.0 -1.5552978515625 0.19775390625
7319696875.0 -1.029052734375 1.1063232421875
7350918750.0 -0.16424560546875 1.442138671875
7382140625.0 0.71343994140625 1.2747802734375
7413362500.0 1.37335205078125 0.5762939453125
7444584375.0 1.40869140625 -0.40386962890625
7475806250.0 0.85711669921875 -1.140380859375
7507028125.0 0.00579833984375 -1.42742919921875
7538250000.0 -0.8851318359375 -1.1224365234375
7569471875.0 -1.33477783203125 -0.310546875
7600693750.0 -1.20001220703125 0.49493408203125
7631915625.0 -0.71722412109375 1.0821533203125
7663137500.0 0.07977294921875 1.35772705078125
7694359375.0 0.936737060546875 0.9794921875
7725581250.0 1.24017333984375 0.18182373046875
7756803125.0 1.081298828125 -0.4974365234375
7788025000.0 0.6705322265625 -1.041259765625
7819246875.0 -0.1199951171875 -1.34588623046875
7850468750.0 -0.9891357421875 -0.91552734375
7881690625.0 -1.22998046875 -0.105712890625
7912912500.0 -1.053466796875 0.55352783203125
7944134375.0 -0.6048583984375 1.10955810546875
7975356250.0 0.2711181640625 1.3341064453125
8006578125.0 1.04608154296875 0.778076171875
8037800000.0 1.192138671875 0.01617431640625
8069021875.0 1.00543212890625 -0.615966796875
8100243750.0 0.49957275390625 -1.159912109375
8131465625.0 -0.38726806640625 -1.252685546875
8162687500.0 -1.03033447265625 -0.685791015625
8193909375.0 -1.17913818359375 0.008544921875
8225131250.0 -1.0167236328125 0.67681884765625
8256353125.0 -0.4222412109375 1.24700927734375
8287575000.0 0.49920654296875 1.224853515625
8318796875.0 1.08026123046875 0.63690185546875
8350018750.0 1.2435302734375 -0.0758056640625
8381240625.0 1.0306396484375 -0.83734130859375
8412462500.0 0.25482177734375 -1.37030029296875
8443684375.0 -0.667236328125 -1.16888427734375
8474906250.0 -1.17315673828125 -0.5323486328125
8506128125.0 -1.29620361328125 0.23492431640625
8537350000.0 -0.92340087890625 1.04296875
8568571875.0 -0.01580810546875 1.39410400390625
8599793750.0 0.80145263671875 1.0531005859375
8631015625.0 1.2381591796875 0.3988037109375
8662237500.0 1.2840576171875 -0.42816162109375
8693459375.0 0.73663330078125 -1.17572021484375
8724681250.0 -0.16119384765625 -1.32965087890625
8755903125.0 -0.877105712890625 -0.95684814453125
8787125000.0 -1.30242919921875 -0.28240966796875
8818346875.0 -1.2493896484375 0.614013671875
8849568750.0 -0.55645751953125 1.25982666015625
8880790625.0 0.29736328125 1.2833251953125
8912012500.0 0.9791259765625 0.891845703125
8943234375.0 1.3963623046875 0.12945556640625
8974456250.0 1.16534423828125 -0.83660888671875
9005678125.0 0.34912109375 -1.31024169921875
9036900000.0 -0.44329833984375 -1.22369384765625
9068121875.0 -1.100830078125 -0.78533935546875
9099343750.0 -1.44061279296875 0.0972900390625
9130565625.0 -0.97882080078125 1.010009765625
9161787500.0 -0.15374755859375 1.28155517578125
9193009375.0 0.55303955078125 1.1322021484375
9224231250.0 1.1751708984375 0.6549072265625
9255453125.0 1.39703369140625 -0.2930908203125
9286675000.0 0.8072509765625 -1.08197021484375
9317896875.0 0.0284423828125 -1.2437744140625
9349118750.0 -0.65399169921875 -1.06927490234375
9380340625.0 -1.25762939453125 -0.50958251953125
9411562500.0 -1.3106689453125 0.47418212890625
9442784375.0 -0.6473388671875 1.11578369140625
9474006250.0 0.0867919921875 1.2086181640625
9505228125.0 0.762603759765625 0.978515625
9536450000.0 1.27117919921875 0.313720703125
9567671875.0 1.1429443359375 -0.5794677734375
9598893750.0 0.52923583984375 -1.06573486328125
9630115625.0 -0.14105224609375 -1.156494140625
9661337500.0 -0.816253662109375 -0.902130126953125
9692559375.0 -1.237060546875 -0.1912841796875
9723781250.0 -1.04315185546875 0.60223388671875
9755003125.0 -0.48492431640625 1.0499267578125
9786225000.0 0.19744873046875 1.15802001953125
9817446875.0 0.893280029296875 0.8272705078125
9848668750.0 1.1968994140625 0.07977294921875
9879890625.0 0.967529296875 -0.61566162109375
9911112500.0 0.45172119140625 -1.0516357421875
9942334375.0 -0.26580810546875 -1.15777587890625
9973556250.0 -0.941497802734375 -0.7381591796875
10004778125.0 -1.1463623046875 -0.01763916015625
10036000000.0 -0.944122314453125 0.6141357421875
10067221875.0 -0.4422607421875 1.09588623046875
10098443750.0 0.3685302734375 1.17962646484375
10129665625.0 1.00018310546875 0.64398193359375
10160887500.0 1.11785888671875 -0.050537109375
10192109375.0 0.917236328125 -0.661651611328125
10223331250.0 0.36083984375 -1.15130615234375
10254553125.0 -0.48577880859375 -1.11334228515625
10285775000.0 -0.984619140625 -0.535736083984375
10316996875.0 -1.06561279296875 0.0758056640625
10348218750.0 -0.89935302734375 0.669158935546875
10379440625.0 -0.32281494140625 1.1734619140625
10410662500.0 0.5255126953125 1.08465576171875
10441884375.0 0.99151611328125 0.521331787109375
10473106250.0 1.10845947265625 -0.08319091796875
10504328125.0 0.94854736328125 -0.756072998046875
10535550000.0 0.24029541015625 -1.2939453125
10566771875.0 -0.65692138671875 -1.076416015625
10597993750.0 -1.0787353515625 -0.4599609375
10629215625.0 -1.174072265625 0.20428466796875
10660437500.0 -0.886962890625 0.95086669921875
10691659375.0 -0.0107421875 1.33428955078125
10722881250.0 0.78277587890625 0.951141357421875
10754103125.0 1.1190185546875 0.32415771484375
10785325000.0 1.13763427734375 -0.366455078125
10816546875.0 0.70135498046875 -1.046142578125
10847768750.0 -0.1434326171875 -1.2269287109375
10878990625.0 -0.80096435546875 -0.842864990234375
10910212500.0 -1.1217041015625 -0.2471923828125
10941434375.0 -1.09686279296875 0.4749755859375
10972656250.0 -0.56964111328125 1.08056640625
11003878125.0 0.215576171875 1.17291259765625
11035100000.0 0.844970703125 0.822540283203125
11066321875.0 1.21844482421875 0.1749267578125
11097543750.0 1.09686279296875 -0.67205810546875
11128765625.0 0.38494873046875 -1.1988525390625
11159987500.0 -0.39508056640625 -1.13861083984375
11191209375.0 -0.99853515625 -0.702117919921875
11222431250.0 -1.26910400390625 0.09088134765625
11253653125.0 -0.859222412109375 0.892913818359375
11284875000.0 -0.11578369140625 1.1246337890625
11316096875.0 0.50921630859375 0.955810546875
11347318750.0 1.00067138671875 0.50250244140625
11378540625.0 1.11590576171875 -0.268798828125
11409762500.0 0.634918212890625 -0.85797119140625
11440984375.0 0.037017822265625 -0.97711181640625
11472206250.0 -0.480316162109375 -0.850677490234375
11503428125.0 -0.95013427734375 -0.45648193359375
11534650000.0 -1.0672607421875 0.28680419921875
11565871875.0 -0.60205078125 0.852386474609375
11597093750.0 -0.019256591796875 0.989410400390625
11628315625.0 0.544036865234375 0.874176025390625
11659537500.0 1.05975341796875 0.39208984375
11690759375.0 1.06378173828125 -0.4326171875
11721981250.0 0.516326904296875 -0.93896484375
11753203125.0 -0.105712890625 -1.03448486328125
11784425000.0 -0.72308349609375 -0.8084716796875
11815646875.0 -1.09906005859375 -0.15179443359375
11846868750.0 -0.8905029296875 0.550262451171875
11878090625.0 -0.391632080078125 0.906646728515625
11909312500.0 0.18597412109375 0.9830322265625
11940534375.0 0.77978515625 0.694793701171875
11971756250.0 1.02349853515625 0.04071044921875
12002978125.0 0.806304931640625 -0.536956787109375
12034200000.0 0.38214111328125 -0.886566162109375
12065421875.0 -0.214599609375 -1.00933837890625
12096643750.0 -0.84625244140625 -0.6663818359375
12127865625.0 -1.03216552734375 0.015625
12159087500.0 -0.81524658203125 0.5740966796875
12190309375.0 -0.37921142578125 0.972198486328125
12221531250.0 0.3369140625 1.08697509765625
12252753125.0 0.979583740234375 0.58148193359375
12283975000.0 1.0538330078125 -0.1279296875
12315196875.0 0.800537109375 -0.6739501953125
12346418750.0 0.28131103515625 -1.09002685546875
12377640625.0 -0.53680419921875 -1.05963134765625
12408862500.0 -1.03460693359375 -0.4200439453125
12440084375.0 -1.00750732421875 0.22357177734375
12471306250.0 -0.741363525390625 0.735504150390625
12502528125.0 -0.1798095703125 1.1192626953125
12533750000.0 0.61962890625 0.992919921875
12564971875.0 1.03924560546875 0.36431884765625
12596193750.0 1.028564453125 -0.26348876953125
12627415625.0 0.7474365234375 -0.825042724609375
12658637500.0 0.07977294921875 -1.206298828125
12689859375.0 -0.735504150390625 -0.966339111328125
12721081250.0 -1.1173095703125 -0.30645751953125
12752303125.0 -1.0966796875 0.3812255859375
12783525000.0 -0.68658447265625 1.0269775390625
12814746875.0 0.16363525390625 1.2501220703125
12845968750.0 0.861846923828125 0.811309814453125
12877190625.0 1.1180419921875 0.171630859375
12908412500.0 1.053955078125 -0.50048828125
12939634375.0 0.5435791015625 -1.1143798828125
12970856250.0 -0.3192138671875 -1.174072265625
13002078125.0 -0.892059326171875 -0.69354248046875
13033300000.0 -1.104248046875 -0.08856201171875
13064521875.0 -1.00860595703125 0.59222412109375
13095743750.0 -0.42034912109375 1.1531982421875
13126965625.0 0.40728759765625 1.1192626953125
13158187500.0 0.946258544921875 0.631378173828125
13189409375.0 1.14739990234375 -0.02044677734375
13220631250.0 0.9354248046875 -0.745330810546875
13251853125.0 0.2359619140625 -1.1695556640625
13283075000.0 -0.5081787109375 -1.01922607421875
13314296875.0 -0.986663818359375 -0.529052734375
13345518750.0 -1.1331787109375 0.17584228515625
