!Created with skrf (http://scikit-rf.org).
# Hz S RI R 50.0 
!freq ReS11 ImS11
45000000.0 -0.07704925537109375 -0.09674072265625
76221875.0 -0.1963043212890625 -0.04752349853515625
107443750.0 -0.2548370361328125 0.1197357177734375
138665625.0 -0.1479949951171875 0.3282928466796875
169887500.0 0.123565673828125 0.4172515869140625
201109375.0 0.4216766357421875 0.2806549072265625
232331250.0 0.578399658203125 -0.057708740234375
263553125.0 0.4890594482421875 -0.4524078369140625
294775000.0 0.09832763671875 -0.73211669921875
325996875.0 -0.415252685546875 -0.679931640625
357218750.0 -0.80560302734375 -0.296539306640625
388440625.0 -0.884979248046875 0.30047607421875
419662500.0 -0.516387939453125 0.865692138671875
450884375.0 0.17327880859375 1.02783203125
482106250.0 0.7979736328125 0.711669921875
513328125.0 1.1182861328125 0.0869140625
544550000.0 1.0025634765625 -0.67962646484375
575771875.0 0.33575439453125 -1.23681640625
606993750.0 -0.55364990234375 -1.176025390625
638215625.0 -1.1650390625 -0.58935546875
669437500.0 -1.33843994140625 0.233642578125
700659375.0 -0.9697265625 1.0953369140625
731881250.0 -0.003173828125 1.54150390625
763103125.0 1.00482177734375 1.154296875
794325000.0 1.46722412109375 0.28118896484375
825546875.0 1.36578369140625 -0.65093994140625
856768750.0 0.79364013671875 -1.39898681640625
887990625.0 -0.29248046875 -1.64593505859375
919212500.0 -1.2862548828125 -1.07684326171875
950434375.0 -1.6466064453125 -0.05859375
981656250.0 -1.38043212890625 0.9451904296875
1012878125.0 -0.52850341796875 1.6700439453125
1044100000.0 0.6961669921875 1.659423828125
1075321875.0 1.57269287109375 0.81036376953125
1106543750.0 1.70233154296875 -0.31280517578125
1137765625.0 1.184814453125 -1.28326416015625
1168987500.0 0.13720703125 -1.7947998046875
1200209375.0 -1.0604248046875 -1.4813232421875
1231431250.0 -1.72467041015625 -0.4525146484375
1262653125.0 -1.5916748046875 0.683349609375
1293875000.0 -0.85040283203125 1.48907470703125
1325096875.0 0.22845458984375 1.7041015625
1356318750.0 1.2333984375 1.214599609375
1387540625.0 1.73736572265625 0.18817138671875
1418762500.0 1.466552734375 -0.95013427734375
1449984375.0 0.5281982421875 -1.6241455078125
1481206250.0 -0.549560546875 -1.55389404296875
1512428125.0 -1.33984375 -0.91802978515625
1543650000.0 -1.653076171875 0.0654296875
1574871875.0 -1.2713623046875 1.10723876953125
1606093750.0 -0.2720947265625 1.628662109375
1637315625.0 0.74163818359375 1.398193359375
1668537500.0 1.39422607421875 0.6944580078125
1699759375.0 1.570556640625 -0.27734375
1730981250.0 1.0625 -1.22821044921875
1762203125.0 0.04205322265625 -1.5679931640625
1793425000.0 -0.85443115234375 -1.22454833984375
1824646875.0 -1.3916015625 -0.51446533203125
1855868750.0 -1.47174072265625 0.4317626953125
1887090625.0 -0.87371826171875 1.28302001953125
1918312500.0 0.11724853515625 1.4842529296875
1949534375.0 0.9202880859375 1.08758544921875
1980756250.0 1.3729248046875 0.3695068359375
2011978125.0 1.35736083984375 -0.53118896484375
2043200000.0 0.74853515625 -1.2598876953125
2074421875.0 -0.1568603515625 -1.43121337890625
2105643750.0 -0.9586181640625 -1.07098388671875
2136865625.0 -1.44537353515625 -0.30438232421875
2168087500.0 -1.35479736328125 0.670166015625
2199309375.0 -0.6376953125 1.34954833984375
2230531250.0 0.28155517578125 1.43359375
2261753125.0 1.0709228515625 1.0125732421875
2292975000.0 1.51214599609375 0.1697998046875
2324196875.0 1.30377197265625 -0.817626953125
2355418750.0 0.52435302734375 -1.4178466796875
2386640625.0 -0.40399169921875 -1.44683837890625
2417862500.0 -1.17913818359375 -1.02264404296875
2449084375.0 -1.601806640625 -0.08416748046875
2480306250.0 -1.309326171875 0.92401123046875
2511528125.0 -0.492919921875 1.504638671875
2542750000.0 0.4871826171875 1.53326416015625
2573971875.0 1.3680419921875 0.966064453125
2605193750.0 1.7139892578125 -0.112548828125
2636415625.0 1.25933837890625 -1.15142822265625
2667637500.0 0.30596923828125 -1.66424560546875
2698859375.0 -0.76812744140625 -1.53094482421875
2730081250.0 -1.56964111328125 -0.73846435546875
2761303125.0 -1.67864990234375 0.38787841796875
2792525000.0 -1.09747314453125 1.30499267578125
2823746875.0 -0.10064697265625 1.72711181640625
2854968750.0 1.01068115234375 1.45269775390625
2886190625.0 1.6884765625 0.490234375
2917412500.0 1.5965576171875 -0.61627197265625
2948634375.0 0.93743896484375 -1.42950439453125
2979856250.0 -0.10760498046875 -1.7725830078125
3011078125.0 -1.24493408203125 -1.340087890625
3042300000.0 -1.77215576171875 -0.23382568359375
3073521875.0 -1.5057373046875 0.83685302734375
3104743750.0 -0.76190185546875 1.56488037109375
3135965625.0 0.3614501953125 1.80523681640625
3167187500.0 1.4969482421875 1.16192626953125
3198409375.0 1.8118896484375 -0.07464599609375
3229631250.0 1.3463134765625 -1.0797119140625
3260853125.0 0.4879150390625 -1.6644287109375
3292075000.0 -0.65411376953125 -1.6949462890625
3323296875.0 -1.61572265625 -0.8779296875
3354518750.0 -1.72613525390625 0.3280029296875
3385740625.0 -1.15362548828125 1.228515625
3416962500.0 -0.231201171875 1.67791748046875
3448184375.0 0.85736083984375 1.5177001953125
3479406250.0 1.632568359375 0.643310546875
3510628125.0 1.640625 -0.49420166015625
3541850000.0 0.99810791015625 -1.3515625
3573071875.0 -0.007568359375 -1.6785888671875
3604293750.0 -1.0260009765625 -1.33428955078125
3635515625.0 -1.62530517578125 -0.43707275390625
3666737500.0 -1.55859375 0.64508056640625
3697959375.0 -0.82379150390625 1.47296142578125
3729181250.0 0.2685546875 1.62774658203125
3760403125.0 1.15081787109375 1.09625244140625
3791625000.0 1.54974365234375 0.21722412109375
3822846875.0 1.39947509765625 -0.7606201171875
3854068750.0 0.6187744140625 -1.47943115234375
3885290625.0 -0.42034912109375 -1.47857666015625
3916512500.0 -1.13909912109375 -0.90985107421875
3947734375.0 -1.44427490234375 -0.119873046875
3978956250.0 -1.2950439453125 0.77801513671875
4010178125.0 -0.5301513671875 1.45196533203125
4041400000.0 0.4720458984375 1.41253662109375
4072621875.0 1.1497802734375 0.84619140625
4103843750.0 1.4434814453125 0.06219482421875
4135065625.0 1.26544189453125 -0.84417724609375
4166287500.0 0.45709228515625 -1.49310302734375
4197509375.0 -0.55657958984375 -1.4134521484375
4228731250.0 -1.24481201171875 -0.8017578125
4259953125.0 -1.50592041015625 0.0706787109375
4291175000.0 -1.18658447265625 1.0089111328125
4322396875.0 -0.289306640625 1.52337646484375
4353618750.0 0.67266845703125 1.34832763671875
4384840625.0 1.31976318359375 0.69659423828125
4416062500.0 1.49798583984375 -0.22705078125
4447284375.0 1.05328369140625 -1.1025390625
4478506250.0 0.17193603515625 -1.49322509765625
4509728125.0 -0.730712890625 -1.3052978515625
4540950000.0 -1.391845703125 -0.63494873046875
4572171875.0 -1.51953125 0.358642578125
4603393750.0 -0.9713134765625 1.210205078125
4634615625.0 -0.0618896484375 1.5338134765625
4665837500.0 0.86871337890625 1.30218505859375
4697059375.0 1.53826904296875 0.5147705078125
4728281250.0 1.5267333984375 -0.58123779296875
4759503125.0 0.82244873046875 -1.3646240234375
4790725000.0 -0.1448974609375 -1.56988525390625
4821946875.0 -1.081787109375 -1.19183349609375
4853168750.0 -1.6107177734375 -0.25103759765625
4884390625.0 -1.37542724609375 0.7911376953125
4915612500.0 -0.612548828125 1.409912109375
4946834375.0 0.3277587890625 1.50732421875
4978056250.0 1.20294189453125 1.01580810546875
5009278125.0 1.55938720703125 0.03985595703125
5040500000.0 1.22760009765625 -0.87420654296875
5071721875.0 0.50115966796875 -1.41204833984375
5102943750.0 -0.4454345703125 -1.494384765625
5134165625.0 -1.333251953125 -0.90374755859375
5165387500.0 -1.56597900390625 0.14581298828125
5196609375.0 -1.13446044921875 1.007568359375
5227831250.0 -0.35760498046875 1.50244140625
5259053125.0 0.6865234375 1.489501953125
5290275000.0 1.519775390625 0.6622314453125
5321496875.0 1.490234375 -0.4296875
5352718750.0 0.91961669921875 -1.15252685546875
5383940625.0 0.09625244140625 -1.4981689453125
5415162500.0 -0.89910888671875 -1.28173828125
5446384375.0 -1.48199462890625 -0.36993408203125
5477606250.0 -1.29730224609375 0.5643310546875
5508828125.0 -0.73040771484375 1.14923095703125
5540050000.0 0.0535888671875 1.3966064453125
5571271875.0 0.936767578125 1.10760498046875
5602493750.0 1.40643310546875 0.2598876953125
5633715625.0 1.2305908203125 -0.61163330078125
5664937500.0 0.6478271484375 -1.1993408203125
5696159375.0 -0.19573974609375 -1.38104248046875
5727381250.0 -1.02044677734375 -0.97760009765625
5758603125.0 -1.38958740234375 -0.14459228515625
5789825000.0 -1.19293212890625 0.71624755859375
5821046875.0 -0.505615234375 1.30548095703125
5852268750.0 0.41094970703125 1.31170654296875
5883490625.0 1.06884765625 0.771240234375
5914712500.0 1.301025390625 0.01959228515625
5945934375.0 1.09466552734375 -0.77386474609375
5977156250.0 0.3614501953125 -1.31005859375
6008378125.0 -0.50823974609375 -1.18121337890625
6039600000.0 -1.020751953125 -0.64794921875
6070821875.0 -1.22125244140625 -0.0050048828125
6102043750.0 -1.0819091796875 0.7611083984375
6133265625.0 -0.34197998046875 1.3426513671875
6164487500.0 0.56219482421875 1.18597412109375
6195709375.0 1.06866455078125 0.62945556640625
6226931250.0 1.27740478515625 -0.04193115234375
6258153125.0 1.10284423828125 -0.86920166015625
6289375000.0 0.25701904296875 -1.44378662109375
6320596875.0 -0.687255859375 -1.20465087890625
6351818750.0 -1.19805908203125 -0.57135009765625
6383040625.0 -1.3529052734375 0.2061767578125
6414262500.0 -0.99884033203125 1.05438232421875
6445484375.0 -0.07891845703125 1.45440673828125
6476706250.0 0.79425048828125 1.1466064453125
6507928125.0 1.28741455078125 0.47027587890625
6539150000.0 1.34552001953125 -0.385498046875
6570371875.0 0.84088134765625 -1.14239501953125
6601593750.0 -0.01715087890625 -1.402587890625
6632815625.0 -0.837158203125 -1.13507080078125
6664037500.0 -1.3990478515625 -0.42022705078125
6695259375.0 -1.372314453125 0.56512451171875
6726481250.0 -0.7099609375 1.24908447265625
6757703125.0 0.1300048828125 1.4051513671875
6788925000.0 0.9527587890625 1.1297607421875
6820146875.0 1.55828857421875 0.287841796875
6851368750.0 1.32476806640625 -0.818603515625
6882590625.0 0.507080078125 -1.33642578125
6913812500.0 -0.2916259765625 -1.3546142578125
6945034375.0 -1.06719970703125 -1.0201416015625
6976256250.0 -1.58990478515625 -0.09356689453125
7007478125.0 -1.23529052734375 0.9317626953125
7038700000.0 -0.4029541015625 1.34051513671875
7069921875.0 0.3607177734375 1.32403564453125
7101143750.0 1.11614990234375 0.967041015625
7132365625.0 1.5963134765625 0.01641845703125
7163587500.0 1.15643310546875 -1.01800537109375
7194809375.0 0.30279541015625 -1.39508056640625
7226031250.0 -0.5089111328125 -1.322998046875
7257253125.0 -1.2657470703125 -0.8231201171875
7288475000.0 -1.55572509765625 0.19732666015625
7319696875.0 -1.029296875 1.107421875
7350918750.0 -0.16412353515625 1.442626953125
7382140625.0 0.7139892578125 1.27532958984375
7413362500.0 1.37445068359375 0.576171875
7444584375.0 1.40887451171875 -0.404052734375
7475806250.0 0.857421875 -1.14031982421875
7507028125.0 0.006103515625 -1.42694091796875
7538250000.0 -0.88641357421875 -1.12261962890625
7569471875.0 -1.333251953125 -0.31201171875
7600693750.0 -1.20135498046875 0.4964599609375
7631915625.0 -0.717529296875 1.0836181640625
7663137500.0 0.0784912109375 1.3563232421875
7694359375.0 0.938140869140625 0.98016357421875
7725581250.0 1.24322509765625 0.17999267578125
7756803125.0 1.08135986328125 -0.497802734375
7788025000.0 0.66998291015625 -1.0411376953125
7819246875.0 -0.1197509765625 -1.3460693359375
7850468750.0 -0.991485595703125 -0.9158935546875
7881690625.0 -1.22998046875 -0.10516357421875
7912912500.0 -1.0531005859375 0.553466796875
7944134375.0 -0.60443115234375 1.11126708984375
7975356250.0 0.2723388671875 1.33538818359375
8006578125.0 1.046142578125 0.7789306640625
8037800000.0 1.19232177734375 0.017578125
8069021875.0 1.00634765625 -0.614990234375
8100243750.0 0.5001220703125 -1.16070556640625
8131465625.0 -0.38720703125 -1.25262451171875
8162687500.0 -1.03094482421875 -0.68524169921875
8193909375.0 -1.1795654296875 0.007568359375
8225131250.0 -1.0162353515625 0.677001953125
8256353125.0 -0.42108154296875 1.2476806640625
8287575000.0 0.50006103515625 1.22479248046875
8318796875.0 1.0811767578125 0.63507080078125
8350018750.0 1.24267578125 -0.073974609375
8381240625.0 1.03076171875 -0.83740234375
8412462500.0 0.25640869140625 -1.36962890625
8443684375.0 -0.6685791015625 -1.16888427734375
8474906250.0 -1.1751708984375 -0.53173828125
8506128125.0 -1.2965087890625 0.23577880859375
8537350000.0 -0.923095703125 1.04412841796875
8568571875.0 -0.01593017578125 1.3929443359375
8599793750.0 0.79901123046875 1.0523681640625
8631015625.0 1.23785400390625 0.39892578125
8662237500.0 1.28509521484375 -0.4267578125
8693459375.0 0.73681640625 -1.17681884765625
8724681250.0 -0.15899658203125 -1.32794189453125
8755903125.0 -0.8797607421875 -0.957275390625
8787125000.0 -1.30108642578125 -0.2825927734375
8818346875.0 -1.25054931640625 0.6146240234375
8849568750.0 -0.55645751953125 1.2578125
8880790625.0 0.297607421875 1.2835693359375
8912012500.0 0.97808837890625 0.891815185546875
8943234375.0 1.3970947265625 0.1297607421875
8974456250.0 1.16473388671875 -0.836669921875
9005678125.0 0.34930419921875 -1.311279296875
9036900000.0 -0.444091796875 -1.2232666015625
9068121875.0 -1.09930419921875 -0.78631591796875
9099343750.0 -1.4385986328125 0.09674072265625
9130565625.0 -0.97869873046875 1.0107421875
9161787500.0 -0.15411376953125 1.28167724609375
9193009375.0 0.552978515625 1.13262939453125
9224231250.0 1.17877197265625 0.65447998046875
9255453125.0 1.3985595703125 -0.29595947265625
9286675000.0 0.80645751953125 -1.08258056640625
9317896875.0 0.0284423828125 -1.2449951171875
9349118750.0 -0.65283203125 -1.06817626953125
9380340625.0 -1.257080078125 -0.50970458984375
9411562500.0 -1.3094482421875 0.4735107421875
9442784375.0 -0.6478271484375 1.1151123046875
9474006250.0 0.089111328125 1.2099609375
9505228125.0 0.76361083984375 0.979522705078125
9536450000.0 1.27276611328125 0.3138427734375
9567671875.0 1.14306640625 -0.57867431640625
9598893750.0 0.5291748046875 -1.0673828125
9630115625.0 -0.14215087890625 -1.15545654296875
9661337500.0 -0.816741943359375 -0.901641845703125
9692559375.0 -1.23907470703125 -0.18994140625
9723781250.0 -1.04241943359375 0.6021728515625
9755003125.0 -0.48681640625 1.04815673828125
9786225000.0 0.1959228515625 1.1563720703125
9817446875.0 0.89312744140625 0.827392578125
9848668750.0 1.19708251953125 0.07794189453125
9879890625.0 0.967437744140625 -0.61553955078125
9911112500.0 0.45269775390625 -1.0484619140625
9942334375.0 -0.2664794921875 -1.15802001953125
9973556250.0 -0.94158935546875 -0.73736572265625
10004778125.0 -1.1456298828125 -0.01885986328125
10036000000.0 -0.943695068359375 0.614501953125
10067221875.0 -0.4420166015625 1.0953369140625
10098443750.0 0.3697509765625 1.18109130859375
10129665625.0 1.001220703125 0.64361572265625
10160887500.0 1.1190185546875 -0.05096435546875
10192109375.0 0.9169921875 -0.66290283203125
10223331250.0 0.362060546875 -1.150390625
10254553125.0 -0.4857177734375 -1.11297607421875
10285775000.0 -0.984527587890625 -0.53594970703125
10316996875.0 -1.0662841796875 0.07611083984375
10348218750.0 -0.900238037109375 0.66937255859375
10379440625.0 -0.322021484375 1.17431640625
10410662500.0 0.52581787109375 1.085205078125
10441884375.0 0.991485595703125 0.521636962890625
10473106250.0 1.10760498046875 -0.0830078125
10504328125.0 0.948089599609375 -0.754547119140625
10535550000.0 0.23956298828125 -1.292724609375
10566771875.0 -0.6561279296875 -1.07647705078125
10597993750.0 -1.07928466796875 -0.45928955078125
10629215625.0 -1.17315673828125 0.20367431640625
10660437500.0 -0.887786865234375 0.9493408203125
10691659375.0 -0.0107421875 1.33502197265625
10722881250.0 0.783843994140625 0.9520263671875
10754103125.0 1.118896484375 0.32421875
10785325000.0 1.13861083984375 -0.36669921875
10816546875.0 0.6998291015625 -1.0487060546875
10847768750.0 -0.1427001953125 -1.22796630859375
10878990625.0 -0.802734375 -0.84283447265625
10910212500.0 -1.1199951171875 -0.2459716796875
10941434375.0 -1.09619140625 0.47528076171875
10972656250.0 -0.56744384765625 1.083740234375
11003878125.0 0.2159423828125 1.17279052734375
11035100000.0 0.846771240234375 0.822052001953125
11066321875.0 1.219970703125 0.17376708984375
11097543750.0 1.09783935546875 -0.67486572265625
11128765625.0 0.3857421875 -1.1978759765625
11159987500.0 -0.3941650390625 -1.13836669921875
11191209375.0 -0.99871826171875 -0.702545166015625
11222431250.0 -1.27117919921875 0.0928955078125
11253653125.0 -0.8583984375 0.892608642578125
11284875000.0 -0.114501953125 1.1268310546875
11316096875.0 0.509429931640625 0.95501708984375
11347318750.0 1.002685546875 0.501708984375
11378540625.0 1.11578369140625 -0.26751708984375
11409762500.0 0.63397216796875 -0.859100341796875
11440984375.0 0.036773681640625 -0.977081298828125
11472206250.0 -0.480712890625 -0.849822998046875
11503428125.0 -0.9517822265625 -0.456939697265625
11534650000.0 -1.0684814453125 0.287841796875
11565871875.0 -0.60198974609375 0.85498046875
11597093750.0 -0.018890380859375 0.990814208984375
11628315625.0 0.5433349609375 0.874969482421875
11659537500.0 1.0577392578125 0.39263916015625
11690759375.0 1.0638427734375 -0.43206787109375
11721981250.0 0.517120361328125 -0.938079833984375
11753203125.0 -0.1048583984375 -1.0352783203125
11784425000.0 -0.724273681640625 -0.808349609375
11815646875.0 -1.099609375 -0.15155029296875
11846868750.0 -0.8902587890625 0.548919677734375
11878090625.0 -0.391204833984375 0.907806396484375
11909312500.0 0.18701171875 0.983917236328125
11940534375.0 0.778472900390625 0.6947021484375
11971756250.0 1.0235595703125 0.04046630859375
12002978125.0 0.805389404296875 -0.53692626953125
12034200000.0 0.382904052734375 -0.88800048828125
12065421875.0 -0.21405029296875 -1.00927734375
12096643750.0 -0.84771728515625 -0.66583251953125
12127865625.0 -1.03271484375 0.01580810546875
12159087500.0 -0.814117431640625 0.57318115234375
12190309375.0 -0.37744140625 0.974639892578125
12221531250.0 0.33868408203125 1.08734130859375
12252753125.0 0.98077392578125 0.581085205078125
12283975000.0 1.05389404296875 -0.12713623046875
12315196875.0 0.799560546875 -0.674407958984375
12346418750.0 0.28265380859375 -1.089599609375
12377640625.0 -0.53594970703125 -1.0595703125
12408862500.0 -1.0321044921875 -0.420654296875
12440084375.0 -1.0072021484375 0.2242431640625
12471306250.0 -0.74127197265625 0.7354736328125
12502528125.0 -0.18035888671875 1.1182861328125
12533750000.0 0.6204833984375 0.99371337890625
12564971875.0 1.03985595703125 0.364013671875
12596193750.0 1.02923583984375 -0.263671875
12627415625.0 0.748077392578125 -0.825714111328125
12658637500.0 0.081787109375 -1.205322265625
12689859375.0 -0.733795166015625 -0.965789794921875
12721081250.0 -1.11669921875 -0.3057861328125
12752303125.0 -1.09698486328125 0.38031005859375
12783525000.0 -0.68701171875 1.02545166015625
12814746875.0 0.1634521484375 1.249267578125
12845968750.0 0.86181640625 0.811126708984375
12877190625.0 1.11541748046875 0.1732177734375
12908412500.0 1.05419921875 -0.49920654296875
12939634375.0 0.54412841796875 -1.114990234375
12970856250.0 -0.3197021484375 -1.17413330078125
13002078125.0 -0.893280029296875 -0.69354248046875
13033300000.0 -1.1048583984375 -0.08648681640625
13064521875.0 -1.00897216796875 0.5928955078125
13095743750.0 -0.4210205078125 1.1531982421875
13126965625.0 0.40863037109375 1.1204833984375
13158187500.0 0.94525146484375 0.6326904296875
13189409375.0 1.1484375 -0.02178955078125
13220631250.0 0.935882568359375 -0.747039794921875
13251853125.0 0.2347412109375 -1.170654296875
13283075000.0 -0.5062255859375 -1.0181884765625
13314296875.0 -0.987396240234375 -0.5289306640625
13345518750.0 -1.1339111328125 0.1759033203125
13376740625.0 -0.752532958984375 0.855682373046875
