!Created with skrf (http://scikit-rf.org).
# Hz S RI R 50.0 
!freq ReS11 ImS11
45000000.0 -0.0769805908203125 -0.09667205810546875
76221875.0 -0.1962127685546875 -0.04744720458984375
107443750.0 -0.2546844482421875 0.1195526123046875
138665625.0 -0.1478271484375 0.328125
169887500.0 0.1235809326171875 0.4170074462890625
201109375.0 0.4216156005859375 0.280731201171875
232331250.0 0.578460693359375 -0.05755615234375
263553125.0 0.488983154296875 -0.452484130859375
294775000.0 0.0982666015625 -0.731719970703125
325996875.0 -0.41497802734375 -0.679931640625
357218750.0 -0.8055419921875 -0.29681396484375
388440625.0 -0.884521484375 0.300384521484375
419662500.0 -0.51666259765625 0.865386962890625
450884375.0 0.17303466796875 1.02752685546875
482106250.0 0.797637939453125 0.711944580078125
513328125.0 1.1180419921875 0.0869140625
544550000.0 1.00299072265625 -0.67926025390625
575771875.0 0.3359375 -1.236572265625
606993750.0 -0.553466796875 -1.17584228515625
638215625.0 -1.16461181640625 -0.5894775390625
669437500.0 -1.338134765625 0.2333984375
700659375.0 -0.96990966796875 1.09539794921875
731881250.0 -0.00341796875 1.54150390625
763103125.0 1.00469970703125 1.1541748046875
794325000.0 1.467041015625 0.28143310546875
825546875.0 1.36553955078125 -0.65081787109375
856768750.0 0.79339599609375 -1.398193359375
887990625.0 -0.29217529296875 -1.64581298828125
919212500.0 -1.2862548828125 -1.0770263671875
950434375.0 -1.646240234375 -0.05902099609375
981656250.0 -1.38037109375 0.9443359375
1012878125.0 -0.52899169921875 1.66912841796875
1044100000.0 0.69549560546875 1.6591796875
1075321875.0 1.57208251953125 0.8109130859375
1106543750.0 1.701904296875 -0.312255859375
1137765625.0 1.18487548828125 -1.28192138671875
1168987500.0 0.1378173828125 -1.79461669921875
1200209375.0 -1.06005859375 -1.48126220703125
1231431250.0 -1.72442626953125 -0.45269775390625
1262653125.0 -1.5916748046875 0.68359375
1293875000.0 -0.85064697265625 1.48944091796875
1325096875.0 0.22808837890625 1.7041015625
1356318750.0 1.23358154296875 1.21453857421875
1387540625.0 1.73681640625 0.188232421875
1418762500.0 1.46710205078125 -0.9501953125
1449984375.0 0.52813720703125 -1.6231689453125
1481206250.0 -0.548583984375 -1.55352783203125
1512428125.0 -1.340087890625 -0.91845703125
1543650000.0 -1.6531982421875 0.0653076171875
1574871875.0 -1.27130126953125 1.10687255859375
1606093750.0 -0.27252197265625 1.62890625
1637315625.0 0.74066162109375 1.39837646484375
1668537500.0 1.39410400390625 0.69482421875
1699759375.0 1.570556640625 -0.27655029296875
1730981250.0 1.0623779296875 -1.22723388671875
1762203125.0 0.0421142578125 -1.5679931640625
1793425000.0 -0.85418701171875 -1.22442626953125
1824646875.0 -1.39178466796875 -0.5142822265625
1855868750.0 -1.47198486328125 0.431396484375
1887090625.0 -0.87384033203125 1.28289794921875
1918312500.0 0.11700439453125 1.4840087890625
1949534375.0 0.919921875 1.087158203125
1980756250.0 1.3729248046875 0.3697509765625
2011978125.0 1.3575439453125 -0.53070068359375
2043200000.0 0.74884033203125 -1.25958251953125
2074421875.0 -0.156982421875 -1.43109130859375
2105643750.0 -0.95892333984375 -1.071044921875
2136865625.0 -1.445068359375 -0.3043212890625
2168087500.0 -1.3548583984375 0.6700439453125
2199309375.0 -0.63812255859375 1.34893798828125
2230531250.0 0.28167724609375 1.43402099609375
2261753125.0 1.07073974609375 1.012451171875
2292975000.0 1.51202392578125 0.169921875
2324196875.0 1.30352783203125 -0.81768798828125
2355418750.0 0.52459716796875 -1.41754150390625
2386640625.0 -0.40386962890625 -1.44671630859375
2417862500.0 -1.1776123046875 -1.02252197265625
2449084375.0 -1.60223388671875 -0.0843505859375
2480306250.0 -1.30908203125 0.9234619140625
2511528125.0 -0.49273681640625 1.50567626953125
2542750000.0 0.487060546875 1.532958984375
2573971875.0 1.367919921875 0.9658203125
2605193750.0 1.71392822265625 -0.11248779296875
2636415625.0 1.2593994140625 -1.14910888671875
2667637500.0 0.3062744140625 -1.66363525390625
2698859375.0 -0.76715087890625 -1.5311279296875
2730081250.0 -1.56951904296875 -0.73931884765625
2761303125.0 -1.67724609375 0.3858642578125
2792525000.0 -1.09765625 1.30279541015625
2823746875.0 -0.1024169921875 1.72589111328125
2854968750.0 1.00885009765625 1.45245361328125
2886190625.0 1.687255859375 0.4908447265625
2917412500.0 1.59649658203125 -0.61541748046875
2948634375.0 0.93792724609375 -1.429931640625
2979856250.0 -0.1072998046875 -1.77203369140625
3011078125.0 -1.2454833984375 -1.3397216796875
3042300000.0 -1.77008056640625 -0.2352294921875
3073521875.0 -1.505615234375 0.83624267578125
3104743750.0 -0.76177978515625 1.56524658203125
3135965625.0 0.36199951171875 1.805908203125
3167187500.0 1.4954833984375 1.16217041015625
3198409375.0 1.812255859375 -0.07470703125
3229631250.0 1.34588623046875 -1.077880859375
3260853125.0 0.48822021484375 -1.6650390625
3292075000.0 -0.65411376953125 -1.69439697265625
3323296875.0 -1.61566162109375 -0.87774658203125
3354518750.0 -1.7264404296875 0.32769775390625
3385740625.0 -1.1534423828125 1.22760009765625
3416962500.0 -0.23065185546875 1.67901611328125
3448184375.0 0.85736083984375 1.5184326171875
3479406250.0 1.63128662109375 0.643310546875
3510628125.0 1.640869140625 -0.4940185546875
3541850000.0 0.99835205078125 -1.35137939453125
3573071875.0 -0.00775146484375 -1.6787109375
3604293750.0 -1.02593994140625 -1.33526611328125
3635515625.0 -1.625 -0.43743896484375
3666737500.0 -1.55816650390625 0.643798828125
3697959375.0 -0.8238525390625 1.47210693359375
3729181250.0 0.2666015625 1.6268310546875
3760403125.0 1.14959716796875 1.0960693359375
3791625000.0 1.54949951171875 0.21807861328125
3822846875.0 1.3984375 -0.7584228515625
3854068750.0 0.61968994140625 -1.4769287109375
3885290625.0 -0.4193115234375 -1.47772216796875
3916512500.0 -1.13861083984375 -0.9097900390625
3947734375.0 -1.444091796875 -0.119873046875
3978956250.0 -1.29498291015625 0.7767333984375
4010178125.0 -0.5306396484375 1.451171875
4041400000.0 0.47174072265625 1.4127197265625
4072621875.0 1.14892578125 0.8466796875
4103843750.0 1.44122314453125 0.06378173828125
4135065625.0 1.2650146484375 -0.843505859375
4166287500.0 0.45733642578125 -1.49285888671875
4197509375.0 -0.55596923828125 -1.4130859375
4228731250.0 -1.2449951171875 -0.80181884765625
4259953125.0 -1.50537109375 0.06927490234375
4291175000.0 -1.1864013671875 1.00885009765625
4322396875.0 -0.28924560546875 1.52392578125
4353618750.0 0.67169189453125 1.347412109375
4384840625.0 1.31927490234375 0.69610595703125
4416062500.0 1.49847412109375 -0.22686767578125
4447284375.0 1.0535888671875 -1.10028076171875
4478506250.0 0.1728515625 -1.491943359375
4509728125.0 -0.72991943359375 -1.30511474609375
4540950000.0 -1.3895263671875 -0.63568115234375
4572171875.0 -1.5201416015625 0.35870361328125
4603393750.0 -0.9713134765625 1.2093505859375
4634615625.0 -0.061767578125 1.5345458984375
4665837500.0 0.86773681640625 1.3018798828125
4697059375.0 1.5382080078125 0.514404296875
4728281250.0 1.52667236328125 -0.5814208984375
4759503125.0 0.822021484375 -1.36517333984375
4790725000.0 -0.14453125 -1.56951904296875
4821946875.0 -1.080322265625 -1.1923828125
4853168750.0 -1.60968017578125 -0.251708984375
4884390625.0 -1.3760986328125 0.79144287109375
4915612500.0 -0.6126708984375 1.41046142578125
4946834375.0 0.32696533203125 1.5064697265625
4978056250.0 1.2022705078125 1.01544189453125
5009278125.0 1.55810546875 0.040771484375
5040500000.0 1.226806640625 -0.87359619140625
5071721875.0 0.50140380859375 -1.41229248046875
5102943750.0 -0.4444580078125 -1.49444580078125
5134165625.0 -1.33282470703125 -0.90478515625
5165387500.0 -1.5655517578125 0.1453857421875
5196609375.0 -1.1343994140625 1.0074462890625
5227831250.0 -0.357421875 1.50433349609375
5259053125.0 0.685791015625 1.490234375
5290275000.0 1.51934814453125 0.66229248046875
5321496875.0 1.489990234375 -0.42962646484375
5352718750.0 0.91949462890625 -1.15081787109375
5383940625.0 0.0966796875 -1.4984130859375
5415162500.0 -0.89764404296875 -1.28228759765625
5446384375.0 -1.481689453125 -0.36993408203125
5477606250.0 -1.29754638671875 0.56488037109375
5508828125.0 -0.7301025390625 1.15045166015625
5540050000.0 0.05279541015625 1.39569091796875
5571271875.0 0.935302734375 1.1070556640625
5602493750.0 1.40576171875 0.2598876953125
5633715625.0 1.23095703125 -0.61126708984375
5664937500.0 0.64727783203125 -1.19952392578125
5696159375.0 -0.1966552734375 -1.38177490234375
5727381250.0 -1.0198974609375 -0.97705078125
5758603125.0 -1.38922119140625 -0.14581298828125
5789825000.0 -1.19293212890625 0.717529296875
5821046875.0 -0.5057373046875 1.30523681640625
5852268750.0 0.41046142578125 1.31103515625
5883490625.0 1.0699462890625 0.77099609375
5914712500.0 1.3004150390625 0.01995849609375
5945934375.0 1.09454345703125 -0.77294921875
5977156250.0 0.361083984375 -1.31005859375
6008378125.0 -0.50836181640625 -1.1807861328125
6039600000.0 -1.0208740234375 -0.64825439453125
6070821875.0 -1.2218017578125 -0.005615234375
6102043750.0 -1.08135986328125 0.76025390625
6133265625.0 -0.3419189453125 1.34228515625
6164487500.0 0.562255859375 1.18572998046875
6195709375.0 1.06866455078125 0.62969970703125
6226931250.0 1.2777099609375 -0.0419921875
6258153125.0 1.10272216796875 -0.86981201171875
6289375000.0 0.256103515625 -1.44451904296875
6320596875.0 -0.6878662109375 -1.20440673828125
6351818750.0 -1.1981201171875 -0.57171630859375
6383040625.0 -1.35302734375 0.2060546875
6414262500.0 -0.99853515625 1.0543212890625
6445484375.0 -0.07891845703125 1.45458984375
6476706250.0 0.79400634765625 1.1466064453125
6507928125.0 1.28753662109375 0.46978759765625
6539150000.0 1.34588623046875 -0.385498046875
6570371875.0 0.84039306640625 -1.14178466796875
6601593750.0 -0.0172119140625 -1.4033203125
6632815625.0 -0.83807373046875 -1.1348876953125
6664037500.0 -1.39849853515625 -0.4200439453125
6695259375.0 -1.37200927734375 0.56500244140625
6726481250.0 -0.70989990234375 1.2493896484375
6757703125.0 0.13043212890625 1.4051513671875
6788925000.0 0.9534912109375 1.12933349609375
6820146875.0 1.5576171875 0.2880859375
6851368750.0 1.32421875 -0.81927490234375
6882590625.0 0.505615234375 -1.33843994140625
6913812500.0 -0.29132080078125 -1.35418701171875
6945034375.0 -1.06707763671875 -1.0205078125
6976256250.0 -1.5906982421875 -0.09393310546875
7007478125.0 -1.23553466796875 0.9293212890625
7038700000.0 -0.40240478515625 1.34173583984375
7069921875.0 0.359130859375 1.322265625
7101143750.0 1.1138916015625 0.967529296875
7132365625.0 1.594970703125 0.0177001953125
7163587500.0 1.15582275390625 -1.016357421875
7194809375.0 0.302490234375 -1.39556884765625
7226031250.0 -0.5107421875 -1.323974609375
7257253125.0 -1.26446533203125 -0.8228759765625
7288475000.0 -1.55535888671875 0.1973876953125
7319696875.0 -1.02960205078125 1.1080322265625
7350918750.0 -0.1650390625 1.4410400390625
7382140625.0 0.715087890625 1.27508544921875
7413362500.0 1.3734130859375 0.5770263671875
7444584375.0 1.40924072265625 -0.405029296875
7475806250.0 0.8568115234375 -1.14227294921875
7507028125.0 0.006103515625 -1.4278564453125
7538250000.0 -0.88616943359375 -1.12188720703125
7569471875.0 -1.3349609375 -0.31109619140625
7600693750.0 -1.20098876953125 0.494873046875
7631915625.0 -0.71697998046875 1.08331298828125
7663137500.0 0.080322265625 1.35699462890625
7694359375.0 0.9368896484375 0.979949951171875
7725581250.0 1.242431640625 0.18017578125
7756803125.0 1.081298828125 -0.498291015625
7788025000.0 0.6695556640625 -1.0423583984375
7819246875.0 -0.11920166015625 -1.3447265625
7850468750.0 -0.992095947265625 -0.915374755859375
7881690625.0 -1.22918701171875 -0.10723876953125
7912912500.0 -1.05340576171875 0.55352783203125
7944134375.0 -0.60540771484375 1.1112060546875
7975356250.0 0.2708740234375 1.33355712890625
8006578125.0 1.044677734375 0.77899169921875
8037800000.0 1.19256591796875 0.01666259765625
8069021875.0 1.00592041015625 -0.6156005859375
8100243750.0 0.4989013671875 -1.1600341796875
8131465625.0 -0.38720703125 -1.25421142578125
8162687500.0 -1.030029296875 -0.6859130859375
8193909375.0 -1.1796875 0.009765625
8225131250.0 -1.017333984375 0.67779541015625
8256353125.0 -0.42193603515625 1.24688720703125
8287575000.0 0.49884033203125 1.22515869140625
8318796875.0 1.0797119140625 0.63555908203125
8350018750.0 1.24407958984375 -0.0758056640625
8381240625.0 1.029541015625 -0.83636474609375
8412462500.0 0.255126953125 -1.37054443359375
8443684375.0 -0.66632080078125 -1.16802978515625
8474906250.0 -1.17474365234375 -0.53179931640625
8506128125.0 -1.2974853515625 0.237060546875
8537350000.0 -0.92401123046875 1.04498291015625
8568571875.0 -0.01666259765625 1.3931884765625
8599793750.0 0.8001708984375 1.0533447265625
8631015625.0 1.23956298828125 0.39862060546875
8662237500.0 1.2847900390625 -0.42791748046875
8693459375.0 0.73565673828125 -1.17633056640625
8724681250.0 -0.16156005859375 -1.3306884765625
8755903125.0 -0.87762451171875 -0.95745849609375
8787125000.0 -1.303955078125 -0.2806396484375
8818346875.0 -1.2503662109375 0.61248779296875
8849568750.0 -0.556396484375 1.26025390625
8880790625.0 0.2965087890625 1.28375244140625
8912012500.0 0.977996826171875 0.891845703125
8943234375.0 1.39727783203125 0.1304931640625
8974456250.0 1.1658935546875 -0.8382568359375
9005678125.0 0.34796142578125 -1.31268310546875
9036900000.0 -0.44122314453125 -1.22265625
9068121875.0 -1.10003662109375 -0.7855224609375
9099343750.0 -1.4384765625 0.09576416015625
9130565625.0 -0.978515625 1.00946044921875
9161787500.0 -0.155029296875 1.2808837890625
9193009375.0 0.55462646484375 1.13299560546875
9224231250.0 1.17742919921875 0.655029296875
9255453125.0 1.396240234375 -0.29364013671875
9286675000.0 0.80706787109375 -1.0830078125
9317896875.0 0.02679443359375 -1.24700927734375
9349118750.0 -0.65264892578125 -1.0687255859375
9380340625.0 -1.25592041015625 -0.50970458984375
9411562500.0 -1.30938720703125 0.47503662109375
9442784375.0 -0.6480712890625 1.11468505859375
9474006250.0 0.08819580078125 1.20941162109375
9505228125.0 0.763519287109375 0.979248046875
9536450000.0 1.271728515625 0.31427001953125
9567671875.0 1.1434326171875 -0.57989501953125
9598893750.0 0.52899169921875 -1.0682373046875
9630115625.0 -0.1434326171875 -1.156494140625
9661337500.0 -0.817657470703125 -0.902099609375
9692559375.0 -1.23675537109375 -0.19171142578125
9723781250.0 -1.0428466796875 0.6025390625
9755003125.0 -0.48583984375 1.05010986328125
9786225000.0 0.197265625 1.158447265625
9817446875.0 0.894866943359375 0.827301025390625
9848668750.0 1.19598388671875 0.07904052734375
9879890625.0 0.9681396484375 -0.614959716796875
9911112500.0 0.45220947265625 -1.0494384765625
9942334375.0 -0.2662353515625 -1.1578369140625
9973556250.0 -0.9407958984375 -0.7386474609375
10004778125.0 -1.14495849609375 -0.018310546875
10036000000.0 -0.943328857421875 0.61480712890625
10067221875.0 -0.44097900390625 1.09564208984375
10098443750.0 0.3685302734375 1.1800537109375
10129665625.0 0.999267578125 0.64495849609375
10160887500.0 1.1190185546875 -0.05096435546875
10192109375.0 0.91668701171875 -0.660980224609375
10223331250.0 0.36114501953125 -1.15155029296875
10254553125.0 -0.48504638671875 -1.11334228515625
10285775000.0 -0.983673095703125 -0.535186767578125
10316996875.0 -1.06634521484375 0.0758056640625
10348218750.0 -0.8990478515625 0.667266845703125
10379440625.0 -0.321044921875 1.174560546875
10410662500.0 0.5244140625 1.08453369140625
10441884375.0 0.9913330078125 0.522216796875
10473106250.0 1.107177734375 -0.08331298828125
10504328125.0 0.94854736328125 -0.754302978515625
10535550000.0 0.2403564453125 -1.2921142578125
10566771875.0 -0.65704345703125 -1.0771484375
10597993750.0 -1.07843017578125 -0.4595947265625
10629215625.0 -1.174560546875 0.2056884765625
10660437500.0 -0.887725830078125 0.94818115234375
10691659375.0 -0.01104736328125 1.33514404296875
10722881250.0 0.78411865234375 0.952423095703125
10754103125.0 1.11712646484375 0.3251953125
10785325000.0 1.13812255859375 -0.36651611328125
10816546875.0 0.70013427734375 -1.04718017578125
10847768750.0 -0.14251708984375 -1.227783203125
10878990625.0 -0.8017578125 -0.84381103515625
10910212500.0 -1.1221923828125 -0.2454833984375
10941434375.0 -1.09722900390625 0.4764404296875
10972656250.0 -0.5692138671875 1.0836181640625
11003878125.0 0.21661376953125 1.17193603515625
11035100000.0 0.847503662109375 0.82073974609375
11066321875.0 1.21856689453125 0.175537109375
11097543750.0 1.09759521484375 -0.675537109375
11128765625.0 0.3870849609375 -1.196533203125
11159987500.0 -0.39532470703125 -1.13897705078125
11191209375.0 -0.9962158203125 -0.70208740234375
11222431250.0 -1.27215576171875 0.09381103515625
11253653125.0 -0.85845947265625 0.89312744140625
11284875000.0 -0.11480712890625 1.126220703125
11316096875.0 0.51116943359375 0.955596923828125
11347318750.0 0.999298095703125 0.501678466796875
11378540625.0 1.11553955078125 -0.2672119140625
11409762500.0 0.635040283203125 -0.858123779296875
11440984375.0 0.036956787109375 -0.976409912109375
11472206250.0 -0.48052978515625 -0.849609375
11503428125.0 -0.9510498046875 -0.456390380859375
11534650000.0 -1.067138671875 0.286865234375
11565871875.0 -0.60211181640625 0.852996826171875
11597093750.0 -0.0184326171875 0.990753173828125
11628315625.0 0.5430908203125 0.8743896484375
11659537500.0 1.05938720703125 0.39178466796875
11690759375.0 1.06427001953125 -0.43206787109375
11721981250.0 0.51690673828125 -0.939300537109375
11753203125.0 -0.103759765625 -1.03509521484375
11784425000.0 -0.72369384765625 -0.807830810546875
11815646875.0 -1.1009521484375 -0.15118408203125
11846868750.0 -0.8905029296875 0.5491943359375
11878090625.0 -0.391357421875 0.906951904296875
11909312500.0 0.186279296875 0.984100341796875
11940534375.0 0.779144287109375 0.69488525390625
11971756250.0 1.02362060546875 0.03997802734375
12002978125.0 0.805877685546875 -0.535064697265625
12034200000.0 0.382110595703125 -0.886749267578125
12065421875.0 -0.21466064453125 -1.00872802734375
12096643750.0 -0.8465576171875 -0.664947509765625
12127865625.0 -1.03338623046875 0.0166015625
12159087500.0 -0.815826416015625 0.574798583984375
12190309375.0 -0.377838134765625 0.974517822265625
12221531250.0 0.3394775390625 1.0877685546875
12252753125.0 0.9803466796875 0.5816650390625
12283975000.0 1.0531005859375 -0.1270751953125
12315196875.0 0.8001708984375 -0.676116943359375
12346418750.0 0.28179931640625 -1.08953857421875
12377640625.0 -0.53729248046875 -1.0601806640625
12408862500.0 -1.0321044921875 -0.42047119140625
12440084375.0 -1.00811767578125 0.22308349609375
12471306250.0 -0.742156982421875 0.73602294921875
12502528125.0 -0.17987060546875 1.11981201171875
12533750000.0 0.616790771484375 0.99261474609375
12564971875.0 1.03765869140625 0.36529541015625
12596193750.0 1.02880859375 -0.26446533203125
12627415625.0 0.747955322265625 -0.82928466796875
12658637500.0 0.0809326171875 -1.20648193359375
12689859375.0 -0.73297119140625 -0.967041015625
12721081250.0 -1.1141357421875 -0.30712890625
12752303125.0 -1.0966796875 0.38116455078125
12783525000.0 -0.68719482421875 1.024658203125
12814746875.0 0.1650390625 1.24981689453125
12845968750.0 0.862884521484375 0.811004638671875
12877190625.0 1.11602783203125 0.171630859375
12908412500.0 1.0545654296875 -0.500244140625
12939634375.0 0.54296875 -1.11541748046875
12970856250.0 -0.3203125 -1.1744384765625
13002078125.0 -0.893524169921875 -0.693878173828125
13033300000.0 -1.10498046875 -0.0872802734375
13064521875.0 -1.0081787109375 0.59197998046875
13095743750.0 -0.42169189453125 1.1512451171875
13126965625.0 0.40899658203125 1.12066650390625
13158187500.0 0.94580078125 0.632080078125
13189409375.0 1.1463623046875 -0.01953125
13220631250.0 0.935699462890625 -0.744476318359375
13251853125.0 0.23492431640625 -1.17010498046875
13283075000.0 -0.5059814453125 -1.01904296875
13314296875.0 -0.9849853515625 -0.529876708984375
13345518750.0 -1.1331787109375 0.1739501953125
13376740625.0 -0.752197265625 0.855712890625
