!Created with skrf (http://scikit-rf.org).
# Hz S RI R 50.0 
!freq ReS11 ImS11
45000000.0 -0.07706832885742188 -0.09696578979492188
76221875.0 -0.1962127685546875 -0.0475921630859375
107443750.0 -0.2546844482421875 0.1195831298828125
138665625.0 -0.148193359375 0.3282318115234375
169887500.0 0.1233673095703125 0.417205810546875
201109375.0 0.4215240478515625 0.280609130859375
232331250.0 0.578460693359375 -0.057342529296875
263553125.0 0.4893646240234375 -0.4523162841796875
294775000.0 0.098663330078125 -0.73162841796875
325996875.0 -0.4149169921875 -0.679931640625
357218750.0 -0.80535888671875 -0.296844482421875
388440625.0 -0.884857177734375 0.300048828125
419662500.0 -0.51690673828125 0.86566162109375
450884375.0 0.1729736328125 1.0277099609375
482106250.0 0.79766845703125 0.7120361328125
513328125.0 1.11822509765625 0.0872802734375
544550000.0 1.002685546875 -0.678955078125
575771875.0 0.3363037109375 -1.2369384765625
606993750.0 -0.55316162109375 -1.17626953125
638215625.0 -1.16448974609375 -0.5897216796875
669437500.0 -1.3385009765625 0.23321533203125
700659375.0 -0.969970703125 1.0948486328125
731881250.0 -0.00372314453125 1.5413818359375
763103125.0 1.00445556640625 1.15447998046875
794325000.0 1.46697998046875 0.28155517578125
825546875.0 1.36590576171875 -0.6505126953125
856768750.0 0.79376220703125 -1.3984375
887990625.0 -0.291748046875 -1.64630126953125
919212500.0 -1.285400390625 -1.07745361328125
950434375.0 -1.6463623046875 -0.0592041015625
981656250.0 -1.3804931640625 0.94415283203125
1012878125.0 -0.52972412109375 1.6688232421875
1044100000.0 0.6954345703125 1.6593017578125
1075321875.0 1.57244873046875 0.81121826171875
1106543750.0 1.70257568359375 -0.3121337890625
1137765625.0 1.18505859375 -1.28204345703125
1168987500.0 0.138427734375 -1.79443359375
1200209375.0 -1.06024169921875 -1.48162841796875
1231431250.0 -1.7244873046875 -0.453125
1262653125.0 -1.5919189453125 0.68328857421875
1293875000.0 -0.85113525390625 1.48907470703125
1325096875.0 0.22821044921875 1.70428466796875
1356318750.0 1.23284912109375 1.21514892578125
1387540625.0 1.73681640625 0.1890869140625
1418762500.0 1.4674072265625 -0.9500732421875
1449984375.0 0.52911376953125 -1.6226806640625
1481206250.0 -0.54852294921875 -1.55352783203125
1512428125.0 -1.33990478515625 -0.918212890625
1543650000.0 -1.6531982421875 0.06500244140625
1574871875.0 -1.271484375 1.1070556640625
1606093750.0 -0.27276611328125 1.6290283203125
1637315625.0 0.740966796875 1.39862060546875
1668537500.0 1.39404296875 0.69488525390625
1699759375.0 1.57098388671875 -0.27642822265625
1730981250.0 1.0628662109375 -1.22711181640625
1762203125.0 0.04229736328125 -1.56793212890625
1793425000.0 -0.8541259765625 -1.2249755859375
1824646875.0 -1.39129638671875 -0.514404296875
1855868750.0 -1.47210693359375 0.43170166015625
1887090625.0 -0.8739013671875 1.28326416015625
1918312500.0 0.11676025390625 1.48431396484375
1949534375.0 0.91961669921875 1.08746337890625
1980756250.0 1.37274169921875 0.36968994140625
2011978125.0 1.35760498046875 -0.53045654296875
2043200000.0 0.7491455078125 -1.25958251953125
2074421875.0 -0.15631103515625 -1.43096923828125
2105643750.0 -0.95806884765625 -1.07135009765625
2136865625.0 -1.44512939453125 -0.3046875
2168087500.0 -1.35546875 0.6697998046875
2199309375.0 -0.63836669921875 1.349365234375
2230531250.0 0.2811279296875 1.4342041015625
2261753125.0 1.07098388671875 1.01251220703125
2292975000.0 1.5120849609375 0.17034912109375
2324196875.0 1.30389404296875 -0.8179931640625
2355418750.0 0.52459716796875 -1.417724609375
2386640625.0 -0.403564453125 -1.44671630859375
2417862500.0 -1.17822265625 -1.0225830078125
2449084375.0 -1.60107421875 -0.08465576171875
2480306250.0 -1.30902099609375 0.9224853515625
2511528125.0 -0.4930419921875 1.50567626953125
2542750000.0 0.48699951171875 1.53369140625
2573971875.0 1.36737060546875 0.9658203125
2605193750.0 1.713623046875 -0.1112060546875
2636415625.0 1.25927734375 -1.14984130859375
2667637500.0 0.30657958984375 -1.66357421875
2698859375.0 -0.76727294921875 -1.5313720703125
2730081250.0 -1.5699462890625 -0.7392578125
2761303125.0 -1.677978515625 0.38714599609375
2792525000.0 -1.09783935546875 1.30401611328125
2823746875.0 -0.10308837890625 1.7254638671875
2854968750.0 1.01043701171875 1.45257568359375
2886190625.0 1.68804931640625 0.4913330078125
2917412500.0 1.59698486328125 -0.61639404296875
2948634375.0 0.9381103515625 -1.430908203125
2979856250.0 -0.1082763671875 -1.773681640625
3011078125.0 -1.24407958984375 -1.339599609375
3042300000.0 -1.77117919921875 -0.234375
3073521875.0 -1.50592041015625 0.836181640625
3104743750.0 -0.76220703125 1.56561279296875
3135965625.0 0.36102294921875 1.8056640625
3167187500.0 1.4959716796875 1.1617431640625
3198409375.0 1.8114013671875 -0.07403564453125
3229631250.0 1.34613037109375 -1.07952880859375
3260853125.0 0.488525390625 -1.66424560546875
3292075000.0 -0.65362548828125 -1.69464111328125
3323296875.0 -1.61614990234375 -0.87847900390625
3354518750.0 -1.7276611328125 0.3284912109375
3385740625.0 -1.15411376953125 1.22943115234375
3416962500.0 -0.23065185546875 1.6783447265625
3448184375.0 0.85797119140625 1.5185546875
3479406250.0 1.63262939453125 0.643310546875
3510628125.0 1.640869140625 -0.4932861328125
3541850000.0 0.9981689453125 -1.35089111328125
3573071875.0 -0.007080078125 -1.67938232421875
3604293750.0 -1.025146484375 -1.33477783203125
3635515625.0 -1.6240234375 -0.438232421875
3666737500.0 -1.55841064453125 0.6448974609375
3697959375.0 -0.8236083984375 1.47314453125
3729181250.0 0.26702880859375 1.6273193359375
3760403125.0 1.14923095703125 1.0958251953125
3791625000.0 1.5487060546875 0.21844482421875
3822846875.0 1.39886474609375 -0.75750732421875
3854068750.0 0.619873046875 -1.477783203125
3885290625.0 -0.41949462890625 -1.47821044921875
3916512500.0 -1.13934326171875 -0.90960693359375
3947734375.0 -1.444091796875 -0.1202392578125
3978956250.0 -1.2952880859375 0.7772216796875
4010178125.0 -0.53094482421875 1.45086669921875
4041400000.0 0.4716796875 1.4124755859375
4072621875.0 1.14947509765625 0.84674072265625
4103843750.0 1.44219970703125 0.063720703125
4135065625.0 1.2652587890625 -0.84381103515625
4166287500.0 0.457763671875 -1.492919921875
4197509375.0 -0.55572509765625 -1.41290283203125
4228731250.0 -1.2452392578125 -0.80206298828125
4259953125.0 -1.50592041015625 0.0693359375
4291175000.0 -1.1864013671875 1.008544921875
4322396875.0 -0.28936767578125 1.5238037109375
4353618750.0 0.67059326171875 1.34716796875
4384840625.0 1.31890869140625 0.6962890625
4416062500.0 1.4984130859375 -0.22650146484375
4447284375.0 1.053466796875 -1.10076904296875
4478506250.0 0.17279052734375 -1.4920654296875
4509728125.0 -0.73028564453125 -1.30548095703125
4540950000.0 -1.3907470703125 -0.63543701171875
4572171875.0 -1.5191650390625 0.3582763671875
4603393750.0 -0.971923828125 1.20941162109375
4634615625.0 -0.0614013671875 1.5347900390625
4665837500.0 0.86895751953125 1.3021240234375
4697059375.0 1.53857421875 0.51513671875
4728281250.0 1.5263671875 -0.58111572265625
4759503125.0 0.82275390625 -1.3643798828125
4790725000.0 -0.143310546875 -1.56866455078125
4821946875.0 -1.0809326171875 -1.19268798828125
4853168750.0 -1.610107421875 -0.251708984375
4884390625.0 -1.37567138671875 0.79071044921875
4915612500.0 -0.61273193359375 1.40936279296875
4946834375.0 0.3280029296875 1.50732421875
4978056250.0 1.20294189453125 1.016357421875
5009278125.0 1.55877685546875 0.04010009765625
5040500000.0 1.22723388671875 -0.8739013671875
5071721875.0 0.50140380859375 -1.41241455078125
5102943750.0 -0.44537353515625 -1.4945068359375
5134165625.0 -1.3328857421875 -0.9044189453125
5165387500.0 -1.56561279296875 0.14569091796875
5196609375.0 -1.1343994140625 1.00732421875
5227831250.0 -0.35760498046875 1.5035400390625
5259053125.0 0.68609619140625 1.489990234375
5290275000.0 1.5186767578125 0.66241455078125
5321496875.0 1.490234375 -0.4298095703125
5352718750.0 0.91973876953125 -1.15045166015625
5383940625.0 0.0966796875 -1.49761962890625
5415162500.0 -0.8980712890625 -1.28253173828125
5446384375.0 -1.48248291015625 -0.37042236328125
5477606250.0 -1.2969970703125 0.564208984375
5508828125.0 -0.7310791015625 1.1488037109375
5540050000.0 0.05291748046875 1.39599609375
5571271875.0 0.93768310546875 1.10772705078125
5602493750.0 1.40570068359375 0.26043701171875
5633715625.0 1.2301025390625 -0.61083984375
5664937500.0 0.64727783203125 -1.2000732421875
5696159375.0 -0.196533203125 -1.381591796875
5727381250.0 -1.01934814453125 -0.97735595703125
5758603125.0 -1.38873291015625 -0.14581298828125
5789825000.0 -1.192626953125 0.716552734375
5821046875.0 -0.50531005859375 1.305419921875
5852268750.0 0.41033935546875 1.31097412109375
5883490625.0 1.06842041015625 0.7713623046875
5914712500.0 1.301025390625 0.0201416015625
5945934375.0 1.09454345703125 -0.7735595703125
5977156250.0 0.3612060546875 -1.3099365234375
6008378125.0 -0.50823974609375 -1.180908203125
6039600000.0 -1.0201416015625 -0.64849853515625
6070821875.0 -1.22186279296875 -0.0050048828125
6102043750.0 -1.082275390625 0.7613525390625
6133265625.0 -0.342529296875 1.34161376953125
6164487500.0 0.5609130859375 1.18609619140625
6195709375.0 1.0694580078125 0.6292724609375
6226931250.0 1.27783203125 -0.04229736328125
6258153125.0 1.1033935546875 -0.86920166015625
6289375000.0 0.2568359375 -1.44390869140625
6320596875.0 -0.688720703125 -1.2049560546875
6351818750.0 -1.1978759765625 -0.57220458984375
6383040625.0 -1.3521728515625 0.2059326171875
6414262500.0 -0.9986572265625 1.05450439453125
6445484375.0 -0.0789794921875 1.45465087890625
6476706250.0 0.79443359375 1.1466064453125
6507928125.0 1.2891845703125 0.4693603515625
6539150000.0 1.34564208984375 -0.3858642578125
6570371875.0 0.8402099609375 -1.14080810546875
6601593750.0 -0.01654052734375 -1.403564453125
6632815625.0 -0.83905029296875 -1.135009765625
6664037500.0 -1.39892578125 -0.4200439453125
6695259375.0 -1.3717041015625 0.5645751953125
6726481250.0 -0.7098388671875 1.2490234375
6757703125.0 0.13006591796875 1.40521240234375
6788925000.0 0.95294189453125 1.12957763671875
6820146875.0 1.55859375 0.28753662109375
6851368750.0 1.32391357421875 -0.8172607421875
6882590625.0 0.50604248046875 -1.33636474609375
6913812500.0 -0.2913818359375 -1.35467529296875
6945034375.0 -1.06732177734375 -1.02032470703125
6976256250.0 -1.59027099609375 -0.09442138671875
7007478125.0 -1.2344970703125 0.930908203125
7038700000.0 -0.401611328125 1.34088134765625
7069921875.0 0.358154296875 1.32183837890625
7101143750.0 1.11737060546875 0.96856689453125
7132365625.0 1.59564208984375 0.014892578125
7163587500.0 1.1566162109375 -1.01824951171875
7194809375.0 0.3023681640625 -1.39471435546875
7226031250.0 -0.5107421875 -1.3238525390625
7257253125.0 -1.2650146484375 -0.82318115234375
7288475000.0 -1.55584716796875 0.197021484375
7319696875.0 -1.0284423828125 1.10772705078125
7350918750.0 -0.16339111328125 1.44427490234375
7382140625.0 0.71331787109375 1.2742919921875
7413362500.0 1.3743896484375 0.575927734375
7444584375.0 1.40948486328125 -0.40350341796875
7475806250.0 0.8568115234375 -1.14227294921875
7507028125.0 0.0052490234375 -1.427978515625
7538250000.0 -0.8839111328125 -1.12139892578125
7569471875.0 -1.33563232421875 -0.31036376953125
7600693750.0 -1.2012939453125 0.4949951171875
7631915625.0 -0.71649169921875 1.08294677734375
7663137500.0 0.07904052734375 1.354736328125
7694359375.0 0.93853759765625 0.97967529296875
7725581250.0 1.2423095703125 0.18133544921875
7756803125.0 1.082275390625 -0.49969482421875
7788025000.0 0.669677734375 -1.04315185546875
7819246875.0 -0.12030029296875 -1.34521484375
7850468750.0 -0.991180419921875 -0.915771484375
7881690625.0 -1.22998046875 -0.10662841796875
7912912500.0 -1.05316162109375 0.55181884765625
7944134375.0 -0.6058349609375 1.11041259765625
7975356250.0 0.27008056640625 1.33294677734375
8006578125.0 1.04620361328125 0.77783203125
8037800000.0 1.19207763671875 0.0159912109375
8069021875.0 1.00604248046875 -0.6173095703125
8100243750.0 0.499267578125 -1.16021728515625
8131465625.0 -0.385498046875 -1.2525634765625
8162687500.0 -1.030029296875 -0.68621826171875
8193909375.0 -1.17999267578125 0.0081787109375
8225131250.0 -1.017333984375 0.67791748046875
8256353125.0 -0.4210205078125 1.24725341796875
8287575000.0 0.49932861328125 1.2249755859375
8318796875.0 1.08056640625 0.6351318359375
8350018750.0 1.24334716796875 -0.0745849609375
8381240625.0 1.031494140625 -0.8375244140625
8412462500.0 0.25408935546875 -1.37066650390625
8443684375.0 -0.669189453125 -1.169677734375
8474906250.0 -1.1734619140625 -0.53155517578125
8506128125.0 -1.2957763671875 0.235595703125
8537350000.0 -0.9239501953125 1.04327392578125
8568571875.0 -0.017333984375 1.39324951171875
8599793750.0 0.80029296875 1.05181884765625
8631015625.0 1.2393798828125 0.39825439453125
8662237500.0 1.28363037109375 -0.4273681640625
8693459375.0 0.73602294921875 -1.17620849609375
8724681250.0 -0.1610107421875 -1.328857421875
8755903125.0 -0.8795166015625 -0.9569091796875
8787125000.0 -1.30059814453125 -0.28350830078125
8818346875.0 -1.2498779296875 0.61468505859375
8849568750.0 -0.55645751953125 1.258056640625
8880790625.0 0.29827880859375 1.2835693359375
8912012500.0 0.98046875 0.891693115234375
8943234375.0 1.39862060546875 0.12872314453125
8974456250.0 1.1658935546875 -0.83740234375
9005678125.0 0.350341796875 -1.310302734375
9036900000.0 -0.4449462890625 -1.2244873046875
9068121875.0 -1.10003662109375 -0.784912109375
9099343750.0 -1.439453125 0.09765625
9130565625.0 -0.9791259765625 1.00830078125
9161787500.0 -0.15484619140625 1.28167724609375
9193009375.0 0.55364990234375 1.13226318359375
9224231250.0 1.17730712890625 0.65435791015625
9255453125.0 1.39788818359375 -0.294189453125
9286675000.0 0.80712890625 -1.0821533203125
9317896875.0 0.02691650390625 -1.2457275390625
9349118750.0 -0.65264892578125 -1.06927490234375
9380340625.0 -1.25604248046875 -0.509033203125
9411562500.0 -1.310302734375 0.474365234375
9442784375.0 -0.64752197265625 1.11468505859375
9474006250.0 0.08892822265625 1.21044921875
9505228125.0 0.762237548828125 0.978179931640625
9536450000.0 1.2724609375 0.312744140625
9567671875.0 1.1436767578125 -0.57940673828125
9598893750.0 0.52972412109375 -1.06646728515625
9630115625.0 -0.14208984375 -1.15679931640625
9661337500.0 -0.8179931640625 -0.90185546875
9692559375.0 -1.23846435546875 -0.19024658203125
9723781250.0 -1.04345703125 0.60394287109375
9755003125.0 -0.48663330078125 1.048095703125
9786225000.0 0.1982421875 1.15802001953125
9817446875.0 0.893951416015625 0.827117919921875
9848668750.0 1.19708251953125 0.0787353515625
9879890625.0 0.968231201171875 -0.61639404296875
9911112500.0 0.45281982421875 -1.05120849609375
9942334375.0 -0.26727294921875 -1.1583251953125
9973556250.0 -0.93890380859375 -0.738006591796875
10004778125.0 -1.1455078125 -0.01800537109375
10036000000.0 -0.943817138671875 0.615142822265625
10067221875.0 -0.44232177734375 1.0953369140625
10098443750.0 0.36822509765625 1.1800537109375
10129665625.0 1.00128173828125 0.643798828125
10160887500.0 1.11865234375 -0.0517578125
10192109375.0 0.91619873046875 -0.66162109375
10223331250.0 0.36163330078125 -1.1505126953125
10254553125.0 -0.48419189453125 -1.1116943359375
10285775000.0 -0.98370361328125 -0.5355224609375
10316996875.0 -1.066162109375 0.07574462890625
10348218750.0 -0.899169921875 0.667633056640625
10379440625.0 -0.3221435546875 1.173583984375
10410662500.0 0.52569580078125 1.08428955078125
10441884375.0 0.990142822265625 0.52130126953125
10473106250.0 1.1080322265625 -0.08367919921875
10504328125.0 0.948150634765625 -0.756500244140625
10535550000.0 0.24041748046875 -1.29345703125
10566771875.0 -0.6561279296875 -1.07696533203125
10597993750.0 -1.07940673828125 -0.45941162109375
10629215625.0 -1.1732177734375 0.20458984375
10660437500.0 -0.88677978515625 0.949737548828125
10691659375.0 -0.00927734375 1.3341064453125
10722881250.0 0.78155517578125 0.952423095703125
10754103125.0 1.11822509765625 0.32489013671875
10785325000.0 1.13848876953125 -0.36572265625
10816546875.0 0.70050048828125 -1.04638671875
10847768750.0 -0.14300537109375 -1.226806640625
10878990625.0 -0.8021240234375 -0.84332275390625
10910212500.0 -1.1204833984375 -0.24560546875
10941434375.0 -1.09613037109375 0.47528076171875
10972656250.0 -0.568115234375 1.084716796875
11003878125.0 0.21649169921875 1.173095703125
11035100000.0 0.8460693359375 0.821380615234375
11066321875.0 1.22088623046875 0.17376708984375
11097543750.0 1.09710693359375 -0.67498779296875
11128765625.0 0.38580322265625 -1.19805908203125
11159987500.0 -0.39556884765625 -1.138671875
11191209375.0 -0.9991455078125 -0.7020263671875
11222431250.0 -1.27117919921875 0.09246826171875
11253653125.0 -0.857879638671875 0.893707275390625
11284875000.0 -0.114501953125 1.1258544921875
11316096875.0 0.50982666015625 0.95452880859375
11347318750.0 1.00128173828125 0.50274658203125
11378540625.0 1.1162109375 -0.26885986328125
11409762500.0 0.63427734375 -0.85870361328125
11440984375.0 0.036224365234375 -0.978271484375
11472206250.0 -0.4814453125 -0.850128173828125
11503428125.0 -0.94903564453125 -0.456817626953125
11534650000.0 -1.068359375 0.28863525390625
11565871875.0 -0.6021728515625 0.854034423828125
11597093750.0 -0.019256591796875 0.989898681640625
11628315625.0 0.542938232421875 0.873779296875
11659537500.0 1.05950927734375 0.3927001953125
11690759375.0 1.0634765625 -0.431640625
11721981250.0 0.5164794921875 -0.940582275390625
11753203125.0 -0.10455322265625 -1.0345458984375
11784425000.0 -0.722137451171875 -0.808074951171875
11815646875.0 -1.10015869140625 -0.15130615234375
11846868750.0 -0.89019775390625 0.549896240234375
11878090625.0 -0.39105224609375 0.90789794921875
11909312500.0 0.184814453125 0.9825439453125
11940534375.0 0.7777099609375 0.69403076171875
11971756250.0 1.0230712890625 0.04052734375
12002978125.0 0.805938720703125 -0.537017822265625
12034200000.0 0.38177490234375 -0.889892578125
12065421875.0 -0.21441650390625 -1.009521484375
12096643750.0 -0.845123291015625 -0.6649169921875
12127865625.0 -1.033935546875 0.016845703125
12159087500.0 -0.8140869140625 0.574462890625
12190309375.0 -0.377410888671875 0.973602294921875
12221531250.0 0.3387451171875 1.08673095703125
12252753125.0 0.98052978515625 0.581634521484375
12283975000.0 1.05328369140625 -0.12615966796875
12315196875.0 0.799896240234375 -0.675933837890625
12346418750.0 0.28082275390625 -1.09100341796875
12377640625.0 -0.53717041015625 -1.05963134765625
12408862500.0 -1.0311279296875 -0.42047119140625
12440084375.0 -1.00799560546875 0.22381591796875
12471306250.0 -0.742279052734375 0.7359619140625
12502528125.0 -0.1806640625 1.1182861328125
12533750000.0 0.617919921875 0.993072509765625
12564971875.0 1.03857421875 0.36468505859375
12596193750.0 1.0281982421875 -0.263671875
12627415625.0 0.747833251953125 -0.8277587890625
12658637500.0 0.0804443359375 -1.2047119140625
12689859375.0 -0.736175537109375 -0.966522216796875
12721081250.0 -1.115966796875 -0.30706787109375
12752303125.0 -1.0965576171875 0.38037109375
12783525000.0 -0.68621826171875 1.02801513671875
12814746875.0 0.163330078125 1.2484130859375
12845968750.0 0.861968994140625 0.809844970703125
12877190625.0 1.11431884765625 0.1734619140625
12908412500.0 1.05499267578125 -0.50250244140625
12939634375.0 0.54180908203125 -1.11712646484375
12970856250.0 -0.32025146484375 -1.17437744140625
13002078125.0 -0.89251708984375 -0.6942138671875
13033300000.0 -1.1048583984375 -0.08734130859375
13064521875.0 -1.00933837890625 0.592529296875
13095743750.0 -0.420654296875 1.152099609375
13126965625.0 0.40869140625 1.12078857421875
13158187500.0 0.947845458984375 0.6318359375
13189409375.0 1.14691162109375 -0.02032470703125
13220631250.0 0.936309814453125 -0.745941162109375
13251853125.0 0.23590087890625 -1.17095947265625
13283075000.0 -0.5068359375 -1.01837158203125
13314296875.0 -0.986602783203125 -0.528961181640625
13345518750.0 -1.135009765625 0.17584228515625
