!Created with skrf (http://scikit-rf.org).
# Hz S RI R 50.0 
!freq ReS11 ImS11
45000000.0 -0.0771636962890625 -0.09659957885742188
76221875.0 -0.19647979736328125 -0.0472259521484375
107443750.0 -0.25494384765625 0.11993408203125
138665625.0 -0.1477813720703125 0.3285675048828125
169887500.0 0.123992919921875 0.41729736328125
201109375.0 0.4221038818359375 0.2805633544921875
232331250.0 0.57879638671875 -0.05804443359375
263553125.0 0.4891357421875 -0.453399658203125
294775000.0 0.09771728515625 -0.73272705078125
325996875.0 -0.416229248046875 -0.680145263671875
357218750.0 -0.806640625 -0.296142578125
388440625.0 -0.885406494140625 0.301300048828125
419662500.0 -0.516204833984375 0.866973876953125
450884375.0 0.17431640625 1.028564453125
482106250.0 0.79901123046875 0.711761474609375
513328125.0 1.11932373046875 0.08587646484375
544550000.0 1.0029296875 -0.680908203125
575771875.0 0.335205078125 -1.2384033203125
606993750.0 -0.55462646484375 -1.17626953125
638215625.0 -1.1658935546875 -0.589111328125
669437500.0 -1.33929443359375 0.23486328125
700659375.0 -0.96966552734375 1.09661865234375
731881250.0 -0.00213623046875 1.54248046875
763103125.0 1.00628662109375 1.1544189453125
794325000.0 1.4686279296875 0.2802734375
825546875.0 1.366455078125 -0.65283203125
856768750.0 0.7928466796875 -1.40130615234375
887990625.0 -0.29443359375 -1.64752197265625
919212500.0 -1.2890625 -1.0767822265625
950434375.0 -1.64794921875 -0.05731201171875
981656250.0 -1.38128662109375 0.947265625
1012878125.0 -0.52764892578125 1.671630859375
1044100000.0 0.69842529296875 1.66070556640625
1075321875.0 1.57440185546875 0.80999755859375
1106543750.0 1.70404052734375 -0.31512451171875
1137765625.0 1.18450927734375 -1.2852783203125
1168987500.0 0.13616943359375 -1.79632568359375
1200209375.0 -1.06268310546875 -1.481689453125
1231431250.0 -1.72698974609375 -0.4515380859375
1262653125.0 -1.59271240234375 0.68603515625
1293875000.0 -0.84979248046875 1.49188232421875
1325096875.0 0.2301025390625 1.70550537109375
1356318750.0 1.23577880859375 1.21478271484375
1387540625.0 1.7388916015625 0.1865234375
1418762500.0 1.467529296875 -0.95257568359375
1449984375.0 0.52789306640625 -1.62548828125
1481206250.0 -0.551025390625 -1.5548095703125
1512428125.0 -1.342041015625 -0.9178466796875
1543650000.0 -1.65460205078125 0.06683349609375
1574871875.0 -1.27130126953125 1.10955810546875
1606093750.0 -0.27142333984375 1.63018798828125
1637315625.0 0.7427978515625 1.398681640625
1668537500.0 1.3956298828125 0.6939697265625
1699759375.0 1.57183837890625 -0.27874755859375
1730981250.0 1.06195068359375 -1.229736328125
1762203125.0 0.04052734375 -1.5694580078125
1793425000.0 -0.85565185546875 -1.22467041015625
1824646875.0 -1.3927001953125 -0.51385498046875
1855868750.0 -1.47259521484375 0.43310546875
1887090625.0 -0.87347412109375 1.2847900390625
1918312500.0 0.11822509765625 1.486083984375
1949534375.0 0.92156982421875 1.08770751953125
1980756250.0 1.37457275390625 0.3687744140625
2011978125.0 1.358154296875 -0.53271484375
2043200000.0 0.7484130859375 -1.2613525390625
2074421875.0 -0.15826416015625 -1.43218994140625
2105643750.0 -0.96026611328125 -1.07049560546875
2136865625.0 -1.44671630859375 -0.30328369140625
2168087500.0 -1.35552978515625 0.6717529296875
2199309375.0 -0.637451171875 1.35089111328125
2230531250.0 0.28277587890625 1.43463134765625
2261753125.0 1.0723876953125 1.0125732421875
2292975000.0 1.512939453125 0.16912841796875
2324196875.0 1.3040771484375 -0.8189697265625
2355418750.0 0.5238037109375 -1.419189453125
2386640625.0 -0.4053955078125 -1.4478759765625
2417862500.0 -1.180908203125 -1.02252197265625
2449084375.0 -1.60302734375 -0.083251953125
2480306250.0 -1.3094482421875 0.92535400390625
2511528125.0 -0.49176025390625 1.50799560546875
2542750000.0 0.489501953125 1.53466796875
2573971875.0 1.3699951171875 0.96624755859375
2605193750.0 1.71514892578125 -0.11395263671875
2636415625.0 1.25933837890625 -1.15191650390625
2667637500.0 0.30462646484375 -1.66619873046875
2698859375.0 -0.7701416015625 -1.53155517578125
2730081250.0 -1.57269287109375 -0.73846435546875
2761303125.0 -1.67913818359375 0.3885498046875
2792525000.0 -1.09735107421875 1.30718994140625
2823746875.0 -0.100341796875 1.7276611328125
2854968750.0 1.0118408203125 1.45294189453125
2886190625.0 1.689208984375 0.48980712890625
2917412500.0 1.5972900390625 -0.61773681640625
2948634375.0 0.937255859375 -1.43341064453125
2979856250.0 -0.1087646484375 -1.774658203125
3011078125.0 -1.24591064453125 -1.340087890625
3042300000.0 -1.773193359375 -0.23309326171875
3073521875.0 -1.5068359375 0.83843994140625
3104743750.0 -0.76116943359375 1.566162109375
3135965625.0 0.362548828125 1.80682373046875
3167187500.0 1.497314453125 1.16192626953125
3198409375.0 1.8135986328125 -0.0770263671875
3229631250.0 1.34613037109375 -1.08184814453125
3260853125.0 0.4873046875 -1.66778564453125
3292075000.0 -0.656494140625 -1.69635009765625
3323296875.0 -1.61810302734375 -0.8768310546875
3354518750.0 -1.72833251953125 0.329833984375
3385740625.0 -1.15362548828125 1.231201171875
3416962500.0 -0.2301025390625 1.6790771484375
3448184375.0 0.86041259765625 1.5196533203125
3479406250.0 1.635009765625 0.642333984375
3510628125.0 1.6414794921875 -0.49493408203125
3541850000.0 0.99853515625 -1.35516357421875
3573071875.0 -0.009033203125 -1.68096923828125
3604293750.0 -1.02850341796875 -1.3353271484375
3635515625.0 -1.6265869140625 -0.4366455078125
3666737500.0 -1.55999755859375 0.646728515625
3697959375.0 -0.82379150390625 1.47332763671875
3729181250.0 0.2691650390625 1.6287841796875
3760403125.0 1.15155029296875 1.0958251953125
3791625000.0 1.55035400390625 0.2174072265625
3822846875.0 1.39935302734375 -0.7613525390625
3854068750.0 0.6181640625 -1.480712890625
3885290625.0 -0.421875 -1.47918701171875
3916512500.0 -1.141357421875 -0.90936279296875
3947734375.0 -1.446044921875 -0.1181640625
3978956250.0 -1.295166015625 0.77862548828125
4010178125.0 -0.53033447265625 1.45294189453125
4041400000.0 0.47381591796875 1.41400146484375
4072621875.0 1.15093994140625 0.8466796875
4103843750.0 1.4425048828125 0.0631103515625
4135065625.0 1.265869140625 -0.8460693359375
4166287500.0 0.4561767578125 -1.4954833984375
4197509375.0 -0.55755615234375 -1.41351318359375
4228731250.0 -1.24755859375 -0.80096435546875
4259953125.0 -1.50732421875 0.07080078125
4291175000.0 -1.1871337890625 1.0107421875
4322396875.0 -0.28826904296875 1.525390625
4353618750.0 0.6727294921875 1.34783935546875
4384840625.0 1.321044921875 0.6956787109375
4416062500.0 1.49896240234375 -0.2279052734375
4447284375.0 1.05322265625 -1.10400390625
4478506250.0 0.17095947265625 -1.4942626953125
4509728125.0 -0.73187255859375 -1.30523681640625
4540950000.0 -1.39239501953125 -0.6341552734375
4572171875.0 -1.52001953125 0.35894775390625
4603393750.0 -0.97100830078125 1.212646484375
4634615625.0 -0.06109619140625 1.53558349609375
4665837500.0 0.87078857421875 1.30291748046875
4697059375.0 1.53973388671875 0.51434326171875
4728281250.0 1.5269775390625 -0.58209228515625
4759503125.0 0.82159423828125 -1.36651611328125
4790725000.0 -0.14642333984375 -1.5721435546875
4821946875.0 -1.083984375 -1.192626953125
4853168750.0 -1.6114501953125 -0.25067138671875
4884390625.0 -1.3759765625 0.79296875
4915612500.0 -0.61151123046875 1.4111328125
4946834375.0 0.3302001953125 1.50787353515625
4978056250.0 1.2039794921875 1.0155029296875
5009278125.0 1.5604248046875 0.03863525390625
5040500000.0 1.22760009765625 -0.8753662109375
5071721875.0 0.50048828125 -1.41375732421875
5102943750.0 -0.446533203125 -1.4947509765625
5134165625.0 -1.3338623046875 -0.90423583984375
5165387500.0 -1.56658935546875 0.14654541015625
5196609375.0 -1.13470458984375 1.0087890625
5227831250.0 -0.356689453125 1.50439453125
5259053125.0 0.686767578125 1.4903564453125
5290275000.0 1.51983642578125 0.66192626953125
5321496875.0 1.4912109375 -0.43121337890625
5352718750.0 0.91912841796875 -1.15264892578125
5383940625.0 0.0950927734375 -1.49945068359375
5415162500.0 -0.9000244140625 -1.28204345703125
5446384375.0 -1.48297119140625 -0.369140625
5477606250.0 -1.29736328125 0.5655517578125
5508828125.0 -0.7303466796875 1.15020751953125
5540050000.0 0.05462646484375 1.39691162109375
5571271875.0 0.93756103515625 1.10748291015625
5602493750.0 1.40704345703125 0.2591552734375
5633715625.0 1.23046875 -0.6123046875
5664937500.0 0.6470947265625 -1.19970703125
5696159375.0 -0.19744873046875 -1.3826904296875
5727381250.0 -1.021728515625 -0.97735595703125
5758603125.0 -1.39056396484375 -0.14495849609375
5789825000.0 -1.192626953125 0.7171630859375
5821046875.0 -0.5054931640625 1.30645751953125
5852268750.0 0.411865234375 1.3121337890625
5883490625.0 1.07147216796875 0.7708740234375
5914712500.0 1.30181884765625 0.01898193359375
5945934375.0 1.09527587890625 -0.776123046875
5977156250.0 0.36065673828125 -1.31146240234375
6008378125.0 -0.5093994140625 -1.181396484375
6039600000.0 -1.02130126953125 -0.64813232421875
6070821875.0 -1.22271728515625 -0.00360107421875
6102043750.0 -1.081787109375 0.76263427734375
6133265625.0 -0.34130859375 1.34381103515625
6164487500.0 0.5634765625 1.1868896484375
6195709375.0 1.07012939453125 0.6290283203125
6226931250.0 1.27862548828125 -0.04327392578125
6258153125.0 1.1031494140625 -0.87042236328125
6289375000.0 0.2557373046875 -1.44573974609375
6320596875.0 -0.68841552734375 -1.20489501953125
6351818750.0 -1.19854736328125 -0.57159423828125
6383040625.0 -1.35357666015625 0.20672607421875
6414262500.0 -0.998779296875 1.05657958984375
6445484375.0 -0.077880859375 1.4564208984375
6476706250.0 0.79632568359375 1.147216796875
6507928125.0 1.2889404296875 0.4693603515625
6539150000.0 1.3463134765625 -0.38677978515625
6570371875.0 0.8404541015625 -1.14337158203125
6601593750.0 -0.017333984375 -1.4033203125
6632815625.0 -0.83966064453125 -1.1348876953125
6664037500.0 -1.40093994140625 -0.41925048828125
6695259375.0 -1.3726806640625 0.56640625
6726481250.0 -0.70941162109375 1.25079345703125
6757703125.0 0.13055419921875 1.4051513671875
6788925000.0 0.954833984375 1.1295166015625
6820146875.0 1.55877685546875 0.28753662109375
6851368750.0 1.32525634765625 -0.81964111328125
6882590625.0 0.50604248046875 -1.3372802734375
6913812500.0 -0.29266357421875 -1.356201171875
6945034375.0 -1.070556640625 -1.02044677734375
6976256250.0 -1.5909423828125 -0.0933837890625
7007478125.0 -1.23590087890625 0.9346923828125
7038700000.0 -0.40167236328125 1.341064453125
7069921875.0 0.3592529296875 1.32208251953125
7101143750.0 1.1190185546875 0.9677734375
7132365625.0 1.5997314453125 0.01336669921875
7163587500.0 1.15728759765625 -1.02154541015625
7194809375.0 0.30157470703125 -1.39605712890625
7226031250.0 -0.511474609375 -1.3232421875
7257253125.0 -1.2662353515625 -0.82305908203125
7288475000.0 -1.556640625 0.19854736328125
7319696875.0 -1.02874755859375 1.1107177734375
7350918750.0 -0.16473388671875 1.44317626953125
7382140625.0 0.71539306640625 1.27532958984375
7413362500.0 1.37567138671875 0.575439453125
7444584375.0 1.4112548828125 -0.40789794921875
7475806250.0 0.85675048828125 -1.1429443359375
7507028125.0 0.00408935546875 -1.429443359375
7538250000.0 -0.88720703125 -1.12310791015625
7569471875.0 -1.3355712890625 -0.31109619140625
7600693750.0 -1.201171875 0.49609375
7631915625.0 -0.71673583984375 1.08447265625
7663137500.0 0.0809326171875 1.35711669921875
7694359375.0 0.94000244140625 0.9796142578125
7725581250.0 1.24322509765625 0.1798095703125
7756803125.0 1.081787109375 -0.5006103515625
7788025000.0 0.6689453125 -1.0426025390625
7819246875.0 -0.11907958984375 -1.344482421875
7850468750.0 -0.991912841796875 -0.915313720703125
7881690625.0 -1.23095703125 -0.10455322265625
7912912500.0 -1.0538330078125 0.55279541015625
7944134375.0 -0.60400390625 1.11328125
7975356250.0 0.271728515625 1.33551025390625
8006578125.0 1.04742431640625 0.77886962890625
8037800000.0 1.19439697265625 0.0157470703125
8069021875.0 1.00604248046875 -0.619384765625
8100243750.0 0.49908447265625 -1.162841796875
8131465625.0 -0.38824462890625 -1.25372314453125
8162687500.0 -1.0318603515625 -0.6854248046875
8193909375.0 -1.1805419921875 0.0089111328125
8225131250.0 -1.01812744140625 0.68121337890625
8256353125.0 -0.42010498046875 1.24871826171875
8287575000.0 0.50048828125 1.225341796875
8318796875.0 1.081787109375 0.63616943359375
8350018750.0 1.2440185546875 -0.07635498046875
8381240625.0 1.03118896484375 -0.83929443359375
8412462500.0 0.25347900390625 -1.3736572265625
8443684375.0 -0.66754150390625 -1.1688232421875
8474906250.0 -1.1763916015625 -0.53179931640625
8506128125.0 -1.29754638671875 0.2371826171875
8537350000.0 -0.9241943359375 1.045654296875
8568571875.0 -0.01605224609375 1.394287109375
8599793750.0 0.80133056640625 1.0528564453125
8631015625.0 1.24090576171875 0.397705078125
8662237500.0 1.28582763671875 -0.42864990234375
8693459375.0 0.73675537109375 -1.17742919921875
8724681250.0 -0.163330078125 -1.33184814453125
8755903125.0 -0.87921142578125 -0.9569091796875
8787125000.0 -1.302001953125 -0.2816162109375
8818346875.0 -1.25091552734375 0.61712646484375
8849568750.0 -0.5555419921875 1.26141357421875
8880790625.0 0.2999267578125 1.28350830078125
8912012500.0 0.98126220703125 0.8924560546875
8943234375.0 1.398681640625 0.12841796875
8974456250.0 1.1668701171875 -0.84161376953125
9005678125.0 0.3494873046875 -1.31231689453125
9036900000.0 -0.44451904296875 -1.22467041015625
9068121875.0 -1.1009521484375 -0.78533935546875
9099343750.0 -1.4407958984375 0.09844970703125
9130565625.0 -0.9796142578125 1.01153564453125
9161787500.0 -0.1534423828125 1.28302001953125
9193009375.0 0.55584716796875 1.13372802734375
9224231250.0 1.1785888671875 0.6541748046875
9255453125.0 1.39801025390625 -0.29583740234375
9286675000.0 0.807373046875 -1.08502197265625
9317896875.0 0.02593994140625 -1.24615478515625
9349118750.0 -0.653564453125 -1.06793212890625
9380340625.0 -1.257080078125 -0.50897216796875
9411562500.0 -1.31024169921875 0.47564697265625
9442784375.0 -0.64727783203125 1.11578369140625
9474006250.0 0.0889892578125 1.20989990234375
9505228125.0 0.764434814453125 0.979888916015625
9536450000.0 1.27362060546875 0.3135986328125
9567671875.0 1.14483642578125 -0.580322265625
9598893750.0 0.52947998046875 -1.069580078125
9630115625.0 -0.1436767578125 -1.15771484375
9661337500.0 -0.81817626953125 -0.9034423828125
9692559375.0 -1.2379150390625 -0.1907958984375
9723781250.0 -1.0430908203125 0.6036376953125
9755003125.0 -0.4853515625 1.04962158203125
9786225000.0 0.198974609375 1.15789794921875
9817446875.0 0.89520263671875 0.827606201171875
9848668750.0 1.1988525390625 0.077880859375
9879890625.0 0.968292236328125 -0.616607666015625
9911112500.0 0.45196533203125 -1.05120849609375
9942334375.0 -0.2674560546875 -1.159423828125
9973556250.0 -0.940521240234375 -0.73785400390625
10004778125.0 -1.145751953125 -0.017822265625
10036000000.0 -0.9439697265625 0.61614990234375
10067221875.0 -0.44110107421875 1.0958251953125
10098443750.0 0.36944580078125 1.18115234375
10129665625.0 1.0028076171875 0.6431884765625
10160887500.0 1.11968994140625 -0.05206298828125
10192109375.0 0.917266845703125 -0.6627197265625
10223331250.0 0.3607177734375 -1.15283203125
10254553125.0 -0.4842529296875 -1.11260986328125
10285775000.0 -0.984161376953125 -0.53485107421875
10316996875.0 -1.066162109375 0.07501220703125
10348218750.0 -0.900634765625 0.67132568359375
10379440625.0 -0.32122802734375 1.1746826171875
10410662500.0 0.52685546875 1.085205078125
10441884375.0 0.992279052734375 0.521484375
10473106250.0 1.10845947265625 -0.0841064453125
10504328125.0 0.948944091796875 -0.75653076171875
10535550000.0 0.240478515625 -1.29296875
10566771875.0 -0.65692138671875 -1.076904296875
10597993750.0 -1.0814208984375 -0.45880126953125
10629215625.0 -1.175048828125 0.20574951171875
10660437500.0 -0.88775634765625 0.94976806640625
10691659375.0 -0.00958251953125 1.33587646484375
10722881250.0 0.785064697265625 0.952239990234375
10754103125.0 1.11773681640625 0.3255615234375
10785325000.0 1.13818359375 -0.3668212890625
10816546875.0 0.7000732421875 -1.0504150390625
10847768750.0 -0.14532470703125 -1.229248046875
10878990625.0 -0.803436279296875 -0.84405517578125
10910212500.0 -1.12255859375 -0.2452392578125
10941434375.0 -1.09686279296875 0.47686767578125
10972656250.0 -0.5679931640625 1.08306884765625
11003878125.0 0.21563720703125 1.1732177734375
11035100000.0 0.844635009765625 0.821807861328125
11066321875.0 1.22210693359375 0.1734619140625
11097543750.0 1.09771728515625 -0.67645263671875
11128765625.0 0.38507080078125 -1.1993408203125
11159987500.0 -0.3953857421875 -1.1390380859375
11191209375.0 -0.99993896484375 -0.702178955078125
11222431250.0 -1.2730712890625 0.09515380859375
11253653125.0 -0.858978271484375 0.89422607421875
11284875000.0 -0.1136474609375 1.1275634765625
11316096875.0 0.51129150390625 0.956207275390625
11347318750.0 1.0045166015625 0.50213623046875
11378540625.0 1.11834716796875 -0.2701416015625
11409762500.0 0.63421630859375 -0.860565185546875
11440984375.0 0.03631591796875 -0.978057861328125
11472206250.0 -0.480865478515625 -0.850341796875
11503428125.0 -0.95281982421875 -0.455657958984375
11534650000.0 -1.0689697265625 0.28875732421875
11565871875.0 -0.6016845703125 0.853302001953125
11597093750.0 -0.017181396484375 0.992095947265625
11628315625.0 0.543426513671875 0.875396728515625
11659537500.0 1.06097412109375 0.39141845703125
11690759375.0 1.06390380859375 -0.43408203125
11721981250.0 0.517669677734375 -0.940521240234375
11753203125.0 -0.10504150390625 -1.03692626953125
11784425000.0 -0.724090576171875 -0.808349609375
11815646875.0 -1.0989990234375 -0.15234375
11846868750.0 -0.891693115234375 0.55133056640625
11878090625.0 -0.39044189453125 0.909576416015625
11909312500.0 0.18743896484375 0.984100341796875
11940534375.0 0.77978515625 0.695220947265625
11971756250.0 1.0240478515625 0.0399169921875
12002978125.0 0.806488037109375 -0.53857421875
12034200000.0 0.381011962890625 -0.89044189453125
12065421875.0 -0.2159423828125 -1.009765625
12096643750.0 -0.848236083984375 -0.665069580078125
12127865625.0 -1.0330810546875 0.01708984375
12159087500.0 -0.8150634765625 0.575836181640625
12190309375.0 -0.377288818359375 0.97418212890625
12221531250.0 0.339111328125 1.08917236328125
12252753125.0 0.9805908203125 0.581451416015625
12283975000.0 1.05596923828125 -0.1292724609375
12315196875.0 0.799591064453125 -0.67681884765625
12346418750.0 0.28155517578125 -1.0914306640625
12377640625.0 -0.5391845703125 -1.059326171875
12408862500.0 -1.03533935546875 -0.41943359375
12440084375.0 -1.00860595703125 0.22503662109375
12471306250.0 -0.7420654296875 0.737091064453125
12502528125.0 -0.17999267578125 1.11956787109375
12533750000.0 0.61968994140625 0.992767333984375
12564971875.0 1.04345703125 0.36328125
12596193750.0 1.02886962890625 -0.26361083984375
12627415625.0 0.7470703125 -0.82855224609375
12658637500.0 0.08013916015625 -1.20574951171875
12689859375.0 -0.732666015625 -0.96527099609375
12721081250.0 -1.11553955078125 -0.30615234375
12752303125.0 -1.09735107421875 0.382080078125
12783525000.0 -0.68743896484375 1.02691650390625
12814746875.0 0.1666259765625 1.25244140625
12845968750.0 0.86187744140625 0.811767578125
12877190625.0 1.1170654296875 0.17156982421875
12908412500.0 1.0552978515625 -0.50250244140625
12939634375.0 0.54339599609375 -1.11529541015625
12970856250.0 -0.32061767578125 -1.1756591796875
13002078125.0 -0.894256591796875 -0.693084716796875
13033300000.0 -1.10626220703125 -0.0869140625
13064521875.0 -1.0081787109375 0.59222412109375
13095743750.0 -0.41998291015625 1.15435791015625
13126965625.0 0.4110107421875 1.12200927734375
13158187500.0 0.947662353515625 0.631500244140625
13189409375.0 1.14862060546875 -0.022216796875
13220631250.0 0.9368896484375 -0.746673583984375
13251853125.0 0.23309326171875 -1.17327880859375
13283075000.0 -0.506103515625 -1.0198974609375
13314296875.0 -0.986724853515625 -0.52923583984375
13345518750.0 -1.13446044921875 0.1761474609375
