!Created with skrf (http://scikit-rf.org).
# Hz S RI R 50.0 
!freq ReS11 ImS11
45000000.0 -0.07695770263671875 -0.09685897827148438
76221875.0 -0.1963348388671875 -0.04754638671875
107443750.0 -0.2546539306640625 0.119537353515625
138665625.0 -0.147918701171875 0.32843017578125
169887500.0 0.1233978271484375 0.4171142578125
201109375.0 0.4215087890625 0.280670166015625
232331250.0 0.5784912109375 -0.05755615234375
263553125.0 0.4891204833984375 -0.4522552490234375
294775000.0 0.098419189453125 -0.7315673828125
325996875.0 -0.414825439453125 -0.679901123046875
357218750.0 -0.80535888671875 -0.296539306640625
388440625.0 -0.88482666015625 0.300048828125
419662500.0 -0.516754150390625 0.8653564453125
450884375.0 0.1729736328125 1.02764892578125
482106250.0 0.797698974609375 0.71185302734375
513328125.0 1.1181640625 0.08721923828125
544550000.0 1.00274658203125 -0.6790771484375
575771875.0 0.33612060546875 -1.23681640625
606993750.0 -0.55322265625 -1.17596435546875
638215625.0 -1.16455078125 -0.58978271484375
669437500.0 -1.33831787109375 0.2335205078125
700659375.0 -0.9698486328125 1.09503173828125
731881250.0 -0.00347900390625 1.54150390625
763103125.0 1.00445556640625 1.154541015625
794325000.0 1.467041015625 0.281494140625
825546875.0 1.36578369140625 -0.65069580078125
856768750.0 0.793701171875 -1.39862060546875
887990625.0 -0.29180908203125 -1.64593505859375
919212500.0 -1.28607177734375 -1.07696533203125
950434375.0 -1.64599609375 -0.05889892578125
981656250.0 -1.3804931640625 0.9437255859375
1012878125.0 -0.52886962890625 1.66900634765625
1044100000.0 0.69561767578125 1.65911865234375
1075321875.0 1.57220458984375 0.810791015625
1106543750.0 1.7021484375 -0.31231689453125
1137765625.0 1.1849365234375 -1.28155517578125
1168987500.0 0.13818359375 -1.79437255859375
1200209375.0 -1.06011962890625 -1.4813232421875
1231431250.0 -1.7242431640625 -0.45281982421875
1262653125.0 -1.5916748046875 0.6829833984375
1293875000.0 -0.850830078125 1.4892578125
1325096875.0 0.228271484375 1.7039794921875
1356318750.0 1.23321533203125 1.2147216796875
1387540625.0 1.7371826171875 0.1885986328125
1418762500.0 1.4669189453125 -0.95025634765625
1449984375.0 0.52880859375 -1.623046875
1481206250.0 -0.549072265625 -1.5535888671875
1512428125.0 -1.33917236328125 -0.91802978515625
1543650000.0 -1.6531982421875 0.0653076171875
1574871875.0 -1.27142333984375 1.107177734375
1606093750.0 -0.272705078125 1.629150390625
1637315625.0 0.74102783203125 1.3983154296875
1668537500.0 1.39404296875 0.69482421875
1699759375.0 1.57061767578125 -0.276611328125
1730981250.0 1.0626220703125 -1.22735595703125
1762203125.0 0.042236328125 -1.56793212890625
1793425000.0 -0.854248046875 -1.224609375
1824646875.0 -1.39111328125 -0.51416015625
1855868750.0 -1.47161865234375 0.43145751953125
1887090625.0 -0.873779296875 1.28302001953125
1918312500.0 0.1168212890625 1.484130859375
1949534375.0 0.919921875 1.08746337890625
1980756250.0 1.3731689453125 0.36968994140625
2011978125.0 1.35748291015625 -0.53021240234375
2043200000.0 0.7490234375 -1.2593994140625
2074421875.0 -0.156494140625 -1.43109130859375
2105643750.0 -0.9583740234375 -1.071044921875
2136865625.0 -1.44512939453125 -0.3046875
2168087500.0 -1.35498046875 0.6697998046875
2199309375.0 -0.6380615234375 1.34906005859375
2230531250.0 0.28131103515625 1.4337158203125
2261753125.0 1.07037353515625 1.01239013671875
2292975000.0 1.51177978515625 0.170654296875
2324196875.0 1.30364990234375 -0.81732177734375
2355418750.0 0.52447509765625 -1.41778564453125
2386640625.0 -0.40386962890625 -1.44671630859375
2417862500.0 -1.17828369140625 -1.02313232421875
2449084375.0 -1.60235595703125 -0.08367919921875
2480306250.0 -1.309326171875 0.923583984375
2511528125.0 -0.493408203125 1.50396728515625
2542750000.0 0.48779296875 1.53338623046875
2573971875.0 1.36822509765625 0.966552734375
2605193750.0 1.71380615234375 -0.1119384765625
2636415625.0 1.25921630859375 -1.14984130859375
2667637500.0 0.3062744140625 -1.66314697265625
2698859375.0 -0.768310546875 -1.5313720703125
2730081250.0 -1.57086181640625 -0.739501953125
2761303125.0 -1.67779541015625 0.38720703125
2792525000.0 -1.09747314453125 1.30328369140625
2823746875.0 -0.102294921875 1.7261962890625
2854968750.0 1.00860595703125 1.4522705078125
2886190625.0 1.6873779296875 0.49127197265625
2917412500.0 1.59674072265625 -0.61590576171875
2948634375.0 0.93792724609375 -1.43084716796875
2979856250.0 -0.10675048828125 -1.77142333984375
3011078125.0 -1.244384765625 -1.33978271484375
3042300000.0 -1.7705078125 -0.23516845703125
3073521875.0 -1.5062255859375 0.83544921875
3104743750.0 -0.76177978515625 1.56512451171875
3135965625.0 0.3607177734375 1.80523681640625
3167187500.0 1.4964599609375 1.1622314453125
3198409375.0 1.81182861328125 -0.073974609375
3229631250.0 1.34674072265625 -1.07818603515625
3260853125.0 0.48822021484375 -1.6646728515625
3292075000.0 -0.6527099609375 -1.6942138671875
3323296875.0 -1.61505126953125 -0.87835693359375
3354518750.0 -1.72625732421875 0.3271484375
3385740625.0 -1.1533203125 1.22833251953125
3416962500.0 -0.23114013671875 1.6783447265625
3448184375.0 0.8582763671875 1.518798828125
3479406250.0 1.63299560546875 0.6429443359375
3510628125.0 1.64093017578125 -0.4940185546875
3541850000.0 0.99847412109375 -1.3531494140625
3573071875.0 -0.00653076171875 -1.67913818359375
3604293750.0 -1.025146484375 -1.33441162109375
3635515625.0 -1.62481689453125 -0.43768310546875
3666737500.0 -1.558837890625 0.645263671875
3697959375.0 -0.8236083984375 1.47271728515625
3729181250.0 0.2677001953125 1.62762451171875
3760403125.0 1.14990234375 1.095947265625
3791625000.0 1.5489501953125 0.21746826171875
3822846875.0 1.3990478515625 -0.7596435546875
3854068750.0 0.61956787109375 -1.47735595703125
3885290625.0 -0.41925048828125 -1.47784423828125
3916512500.0 -1.1387939453125 -0.90960693359375
3947734375.0 -1.44488525390625 -0.119140625
3978956250.0 -1.294921875 0.776611328125
4010178125.0 -0.53082275390625 1.45135498046875
4041400000.0 0.47137451171875 1.41259765625
4072621875.0 1.14886474609375 0.84637451171875
4103843750.0 1.441162109375 0.064208984375
4135065625.0 1.2655029296875 -0.84332275390625
4166287500.0 0.45721435546875 -1.49273681640625
4197509375.0 -0.55645751953125 -1.41253662109375
4228731250.0 -1.244873046875 -0.8016357421875
4259953125.0 -1.5062255859375 0.070068359375
4291175000.0 -1.18646240234375 1.0072021484375
4322396875.0 -0.28936767578125 1.5234375
4353618750.0 0.6712646484375 1.3472900390625
4384840625.0 1.3199462890625 0.69573974609375
4416062500.0 1.498046875 -0.22576904296875
4447284375.0 1.05328369140625 -1.10223388671875
4478506250.0 0.17236328125 -1.49273681640625
4509728125.0 -0.73040771484375 -1.30535888671875
4540950000.0 -1.38958740234375 -0.63580322265625
4572171875.0 -1.51910400390625 0.3583984375
4603393750.0 -0.9708251953125 1.20989990234375
4634615625.0 -0.060791015625 1.53521728515625
4665837500.0 0.86822509765625 1.3023681640625
4697059375.0 1.537353515625 0.5150146484375
4728281250.0 1.527099609375 -0.581787109375
4759503125.0 0.822265625 -1.3636474609375
4790725000.0 -0.14508056640625 -1.56951904296875
4821946875.0 -1.08099365234375 -1.19195556640625
4853168750.0 -1.61004638671875 -0.25091552734375
4884390625.0 -1.3753662109375 0.79071044921875
4915612500.0 -0.613037109375 1.40924072265625
4946834375.0 0.3270263671875 1.50616455078125
4978056250.0 1.20269775390625 1.0157470703125
5009278125.0 1.558837890625 0.04022216796875
5040500000.0 1.2275390625 -0.87469482421875
5071721875.0 0.50152587890625 -1.41143798828125
5102943750.0 -0.44573974609375 -1.49505615234375
5134165625.0 -1.33380126953125 -0.904296875
5165387500.0 -1.56597900390625 0.14630126953125
5196609375.0 -1.1348876953125 1.00811767578125
5227831250.0 -0.35760498046875 1.5035400390625
5259053125.0 0.68621826171875 1.4898681640625
5290275000.0 1.519287109375 0.66259765625
5321496875.0 1.48974609375 -0.42926025390625
5352718750.0 0.91986083984375 -1.15118408203125
5383940625.0 0.09747314453125 -1.49725341796875
5415162500.0 -0.89849853515625 -1.281982421875
5446384375.0 -1.481689453125 -0.37066650390625
5477606250.0 -1.296875 0.564208984375
5508828125.0 -0.7308349609375 1.1488037109375
5540050000.0 0.05364990234375 1.396484375
5571271875.0 0.93707275390625 1.10711669921875
5602493750.0 1.405517578125 0.26055908203125
5633715625.0 1.2301025390625 -0.61151123046875
5664937500.0 0.6470947265625 -1.20001220703125
5696159375.0 -0.1956787109375 -1.38140869140625
5727381250.0 -1.01959228515625 -0.9774169921875
5758603125.0 -1.38909912109375 -0.14501953125
5789825000.0 -1.19287109375 0.71710205078125
5821046875.0 -0.50616455078125 1.30535888671875
5852268750.0 0.4102783203125 1.31072998046875
5883490625.0 1.0699462890625 0.7713623046875
5914712500.0 1.29974365234375 0.02044677734375
5945934375.0 1.0947265625 -0.77362060546875
5977156250.0 0.36163330078125 -1.30975341796875
6008378125.0 -0.507568359375 -1.1806640625
6039600000.0 -1.02001953125 -0.64862060546875
6070821875.0 -1.22137451171875 -0.00494384765625
6102043750.0 -1.081787109375 0.7613525390625
6133265625.0 -0.3419189453125 1.34234619140625
6164487500.0 0.56195068359375 1.185791015625
6195709375.0 1.0693359375 0.629638671875
6226931250.0 1.277587890625 -0.04180908203125
6258153125.0 1.103515625 -0.8697509765625
6289375000.0 0.25616455078125 -1.44427490234375
6320596875.0 -0.68798828125 -1.20489501953125
6351818750.0 -1.19781494140625 -0.57110595703125
6383040625.0 -1.35205078125 0.20587158203125
6414262500.0 -0.9989013671875 1.05426025390625
6445484375.0 -0.07891845703125 1.45465087890625
6476706250.0 0.79449462890625 1.14678955078125
6507928125.0 1.28765869140625 0.46990966796875
6539150000.0 1.34539794921875 -0.38525390625
6570371875.0 0.8406982421875 -1.1417236328125
6601593750.0 -0.016357421875 -1.40264892578125
6632815625.0 -0.8382568359375 -1.13494873046875
6664037500.0 -1.3983154296875 -0.4202880859375
6695259375.0 -1.371826171875 0.56512451171875
6726481250.0 -0.70965576171875 1.249755859375
6757703125.0 0.1300048828125 1.40545654296875
6788925000.0 0.95263671875 1.12939453125
6820146875.0 1.558837890625 0.2874755859375
6851368750.0 1.32470703125 -0.81829833984375
6882590625.0 0.5057373046875 -1.3375244140625
6913812500.0 -0.29107666015625 -1.35479736328125
6945034375.0 -1.06768798828125 -1.02056884765625
6976256250.0 -1.58966064453125 -0.09393310546875
7007478125.0 -1.2353515625 0.9307861328125
7038700000.0 -0.40191650390625 1.33941650390625
7069921875.0 0.3583984375 1.32305908203125
7101143750.0 1.11572265625 0.9674072265625
7132365625.0 1.597412109375 0.01593017578125
7163587500.0 1.15594482421875 -1.01898193359375
7194809375.0 0.30291748046875 -1.39398193359375
7226031250.0 -0.51104736328125 -1.32440185546875
7257253125.0 -1.26348876953125 -0.82354736328125
7288475000.0 -1.555419921875 0.19671630859375
7319696875.0 -1.02862548828125 1.10784912109375
7350918750.0 -0.1649169921875 1.44183349609375
7382140625.0 0.7120361328125 1.2734375
7413362500.0 1.37396240234375 0.57598876953125
7444584375.0 1.410400390625 -0.40545654296875
7475806250.0 0.8575439453125 -1.14111328125
7507028125.0 0.0067138671875 -1.4273681640625
7538250000.0 -0.88653564453125 -1.12274169921875
7569471875.0 -1.3326416015625 -0.3118896484375
7600693750.0 -1.201171875 0.49609375
7631915625.0 -0.71685791015625 1.083984375
7663137500.0 0.0806884765625 1.3568115234375
7694359375.0 0.9368896484375 0.979461669921875
7725581250.0 1.241455078125 0.1812744140625
7756803125.0 1.081787109375 -0.49884033203125
7788025000.0 0.6693115234375 -1.0411376953125
7819246875.0 -0.11962890625 -1.3443603515625
7850468750.0 -0.99188232421875 -0.9158935546875
7881690625.0 -1.22943115234375 -0.1064453125
7912912500.0 -1.05401611328125 0.55340576171875
7944134375.0 -0.60565185546875 1.1114501953125
7975356250.0 0.27001953125 1.33270263671875
8006578125.0 1.04473876953125 0.7786865234375
8037800000.0 1.190673828125 0.017822265625
8069021875.0 1.00616455078125 -0.6173095703125
8100243750.0 0.49951171875 -1.15997314453125
8131465625.0 -0.38592529296875 -1.25103759765625
8162687500.0 -1.0294189453125 -0.68511962890625
8193909375.0 -1.17950439453125 0.0081787109375
8225131250.0 -1.01690673828125 0.6763916015625
8256353125.0 -0.42169189453125 1.2490234375
8287575000.0 0.4984130859375 1.2239990234375
8318796875.0 1.081298828125 0.6357421875
8350018750.0 1.24371337890625 -0.074462890625
8381240625.0 1.0299072265625 -0.839599609375
8412462500.0 0.255126953125 -1.3712158203125
8443684375.0 -0.6683349609375 -1.1690673828125
8474906250.0 -1.17388916015625 -0.53216552734375
8506128125.0 -1.29583740234375 0.2359619140625
8537350000.0 -0.9234619140625 1.04547119140625
8568571875.0 -0.01605224609375 1.39385986328125
8599793750.0 0.8009033203125 1.05255126953125
8631015625.0 1.2393798828125 0.39935302734375
8662237500.0 1.2841796875 -0.42620849609375
8693459375.0 0.736083984375 -1.17633056640625
8724681250.0 -0.1611328125 -1.32879638671875
8755903125.0 -0.879180908203125 -0.9566650390625
8787125000.0 -1.3013916015625 -0.2818603515625
8818346875.0 -1.249267578125 0.61419677734375
8849568750.0 -0.55694580078125 1.25732421875
8880790625.0 0.2965087890625 1.28326416015625
8912012500.0 0.97882080078125 0.89117431640625
8943234375.0 1.39544677734375 0.13079833984375
8974456250.0 1.16522216796875 -0.836669921875
9005678125.0 0.34869384765625 -1.31378173828125
9036900000.0 -0.4437255859375 -1.224365234375
9068121875.0 -1.0999755859375 -0.7850341796875
9099343750.0 -1.44012451171875 0.09649658203125
9130565625.0 -0.978759765625 1.0126953125
9161787500.0 -0.15667724609375 1.2794189453125
9193009375.0 0.55389404296875 1.13323974609375
9224231250.0 1.177734375 0.65576171875
9255453125.0 1.39788818359375 -0.2939453125
9286675000.0 0.8067626953125 -1.0850830078125
9317896875.0 0.02862548828125 -1.24407958984375
9349118750.0 -0.652587890625 -1.0693359375
9380340625.0 -1.25653076171875 -0.5101318359375
9411562500.0 -1.30902099609375 0.4744873046875
9442784375.0 -0.64764404296875 1.114013671875
9474006250.0 0.0889892578125 1.21051025390625
9505228125.0 0.764068603515625 0.979278564453125
9536450000.0 1.27099609375 0.31414794921875
9567671875.0 1.14398193359375 -0.58038330078125
9598893750.0 0.52972412109375 -1.0673828125
9630115625.0 -0.14202880859375 -1.15582275390625
9661337500.0 -0.815277099609375 -0.901580810546875
9692559375.0 -1.2371826171875 -0.19049072265625
9723781250.0 -1.04302978515625 0.60284423828125
9755003125.0 -0.48577880859375 1.0489501953125
9786225000.0 0.1971435546875 1.15826416015625
9817446875.0 0.89447021484375 0.8275146484375
9848668750.0 1.19549560546875 0.08001708984375
9879890625.0 0.9678955078125 -0.616241455078125
9911112500.0 0.45147705078125 -1.0518798828125
9942334375.0 -0.267333984375 -1.1591796875
9973556250.0 -0.94134521484375 -0.73797607421875
10004778125.0 -1.14605712890625 -0.017578125
10036000000.0 -0.943695068359375 0.615325927734375
10067221875.0 -0.44219970703125 1.09521484375
10098443750.0 0.36767578125 1.18048095703125
10129665625.0 1.00225830078125 0.6429443359375
10160887500.0 1.118408203125 -0.05047607421875
10192109375.0 0.91705322265625 -0.663848876953125
10223331250.0 0.3626708984375 -1.149169921875
10254553125.0 -0.48577880859375 -1.1136474609375
10285775000.0 -0.9842529296875 -0.535064697265625
10316996875.0 -1.0660400390625 0.0758056640625
10348218750.0 -0.8997802734375 0.669281005859375
10379440625.0 -0.3211669921875 1.17425537109375
10410662500.0 0.52752685546875 1.084716796875
10441884375.0 0.989410400390625 0.52215576171875
10473106250.0 1.1072998046875 -0.0823974609375
10504328125.0 0.9482421875 -0.754547119140625
10535550000.0 0.24163818359375 -1.29205322265625
10566771875.0 -0.65582275390625 -1.0771484375
10597993750.0 -1.079345703125 -0.459228515625
10629215625.0 -1.1741943359375 0.2047119140625
10660437500.0 -0.88677978515625 0.950103759765625
10691659375.0 -0.01214599609375 1.33331298828125
10722881250.0 0.783203125 0.95245361328125
10754103125.0 1.1175537109375 0.3253173828125
10785325000.0 1.13848876953125 -0.36798095703125
10816546875.0 0.70037841796875 -1.04730224609375
10847768750.0 -0.14556884765625 -1.22900390625
10878990625.0 -0.802825927734375 -0.842864990234375
10910212500.0 -1.1209716796875 -0.24566650390625
10941434375.0 -1.09716796875 0.4765625
10972656250.0 -0.56866455078125 1.0845947265625
11003878125.0 0.2181396484375 1.1737060546875
11035100000.0 0.846282958984375 0.82183837890625
11066321875.0 1.22039794921875 0.173583984375
11097543750.0 1.09771728515625 -0.67578125
11128765625.0 0.3870849609375 -1.1956787109375
11159987500.0 -0.3958740234375 -1.138427734375
11191209375.0 -0.99920654296875 -0.70196533203125
11222431250.0 -1.27056884765625 0.092041015625
11253653125.0 -0.858428955078125 0.89117431640625
11284875000.0 -0.115234375 1.12322998046875
11316096875.0 0.50872802734375 0.954925537109375
11347318750.0 1.00225830078125 0.50177001953125
11378540625.0 1.1162109375 -0.26800537109375
11409762500.0 0.63531494140625 -0.857940673828125
11440984375.0 0.03582763671875 -0.978363037109375
11472206250.0 -0.4796142578125 -0.849639892578125
11503428125.0 -0.952423095703125 -0.455841064453125
11534650000.0 -1.06689453125 0.28607177734375
11565871875.0 -0.60235595703125 0.853912353515625
11597093750.0 -0.019012451171875 0.99102783203125
11628315625.0 0.5426025390625 0.874786376953125
11659537500.0 1.05889892578125 0.3919677734375
11690759375.0 1.0634765625 -0.43353271484375
11721981250.0 0.517333984375 -0.94000244140625
11753203125.0 -0.105712890625 -1.0360107421875
11784425000.0 -0.7252197265625 -0.808197021484375
11815646875.0 -1.09869384765625 -0.15142822265625
11846868750.0 -0.890960693359375 0.548980712890625
11878090625.0 -0.391021728515625 0.9090576171875
11909312500.0 0.18682861328125 0.9832763671875
11940534375.0 0.77752685546875 0.69451904296875
11971756250.0 1.0230712890625 0.041015625
12002978125.0 0.8062744140625 -0.537689208984375
12034200000.0 0.38214111328125 -0.88885498046875
12065421875.0 -0.21588134765625 -1.0103759765625
12096643750.0 -0.844573974609375 -0.66546630859375
12127865625.0 -1.033447265625 0.01580810546875
12159087500.0 -0.8143310546875 0.573760986328125
12190309375.0 -0.378143310546875 0.9735107421875
12221531250.0 0.3369140625 1.0863037109375
12252753125.0 0.979339599609375 0.581451416015625
12283975000.0 1.0546875 -0.12890625
12315196875.0 0.799896240234375 -0.675933837890625
12346418750.0 0.28167724609375 -1.0914306640625
12377640625.0 -0.536865234375 -1.0604248046875
12408862500.0 -1.0318603515625 -0.41986083984375
12440084375.0 -1.0078125 0.2237548828125
12471306250.0 -0.740692138671875 0.736053466796875
12502528125.0 -0.1815185546875 1.11846923828125
12533750000.0 0.61907958984375 0.993621826171875
12564971875.0 1.04046630859375 0.36431884765625
12596193750.0 1.02813720703125 -0.26324462890625
12627415625.0 0.74725341796875 -0.8267822265625
12658637500.0 0.08038330078125 -1.2069091796875
12689859375.0 -0.734344482421875 -0.96600341796875
12721081250.0 -1.114990234375 -0.30718994140625
12752303125.0 -1.097412109375 0.38238525390625
12783525000.0 -0.6865234375 1.0257568359375
12814746875.0 0.16339111328125 1.24969482421875
12845968750.0 0.86126708984375 0.811614990234375
12877190625.0 1.11773681640625 0.17193603515625
12908412500.0 1.05511474609375 -0.5013427734375
12939634375.0 0.54345703125 -1.11602783203125
12970856250.0 -0.32025146484375 -1.17401123046875
13002078125.0 -0.892608642578125 -0.694183349609375
13033300000.0 -1.10491943359375 -0.0877685546875
13064521875.0 -1.00860595703125 0.59228515625
13095743750.0 -0.42071533203125 1.1536865234375
13126965625.0 0.408935546875 1.121337890625
13158187500.0 0.94403076171875 0.631622314453125
13189409375.0 1.14794921875 -0.021240234375
13220631250.0 0.93585205078125 -0.746826171875
13251853125.0 0.23516845703125 -1.1700439453125
13283075000.0 -0.50677490234375 -1.01885986328125
13314296875.0 -0.986083984375 -0.52880859375
13345518750.0 -1.13372802734375 0.1759033203125
13376740625.0 -0.75250244140625 0.856353759765625
