!Created with skrf (http://scikit-rf.org).
# Hz S RI R 50.0 
!freq ReS11 ImS11
45000000.0 -0.07717132568359375 -0.09666061401367188
76221875.0 -0.19657135009765625 -0.04735565185546875
107443750.0 -0.2550506591796875 0.1202239990234375
138665625.0 -0.1479644775390625 0.3288726806640625
169887500.0 0.1239166259765625 0.4175567626953125
201109375.0 0.422088623046875 0.28070068359375
232331250.0 0.579010009765625 -0.057952880859375
263553125.0 0.489410400390625 -0.453216552734375
294775000.0 0.0980224609375 -0.732666015625
325996875.0 -0.416168212890625 -0.680511474609375
357218750.0 -0.806793212890625 -0.296478271484375
388440625.0 -0.88568115234375 0.30145263671875
419662500.0 -0.516876220703125 0.86700439453125
450884375.0 0.173828125 1.0286865234375
482106250.0 0.79901123046875 0.712158203125
513328125.0 1.11944580078125 0.0863037109375
544550000.0 1.0035400390625 -0.68035888671875
575771875.0 0.33575439453125 -1.23828125
606993750.0 -0.55450439453125 -1.1768798828125
638215625.0 -1.1661376953125 -0.58978271484375
669437500.0 -1.33953857421875 0.234375
700659375.0 -0.97052001953125 1.09686279296875
731881250.0 -0.00286865234375 1.54278564453125
763103125.0 1.005859375 1.1551513671875
794325000.0 1.46856689453125 0.281005859375
825546875.0 1.3668212890625 -0.6519775390625
856768750.0 0.7935791015625 -1.40118408203125
887990625.0 -0.29351806640625 -1.64788818359375
919212500.0 -1.28857421875 -1.07794189453125
950434375.0 -1.64849853515625 -0.0579833984375
981656250.0 -1.3818359375 0.946533203125
1012878125.0 -0.5289306640625 1.67205810546875
1044100000.0 0.69793701171875 1.66107177734375
1075321875.0 1.57501220703125 0.8109130859375
1106543750.0 1.70458984375 -0.31317138671875
1137765625.0 1.18560791015625 -1.2845458984375
1168987500.0 0.13714599609375 -1.79669189453125
1200209375.0 -1.06268310546875 -1.48284912109375
1231431250.0 -1.7274169921875 -0.45245361328125
1262653125.0 -1.59307861328125 0.6849365234375
1293875000.0 -0.8507080078125 1.4915771484375
1325096875.0 0.22894287109375 1.70562744140625
1356318750.0 1.2357177734375 1.2156982421875
1387540625.0 1.7391357421875 0.18817138671875
1418762500.0 1.46856689453125 -0.9517822265625
1449984375.0 0.52862548828125 -1.62567138671875
1481206250.0 -0.55078125 -1.55548095703125
1512428125.0 -1.3421630859375 -0.91876220703125
1543650000.0 -1.65557861328125 0.06640625
1574871875.0 -1.2725830078125 1.10980224609375
1606093750.0 -0.27191162109375 1.63104248046875
1637315625.0 0.743408203125 1.399658203125
1668537500.0 1.3956298828125 0.69488525390625
1699759375.0 1.57220458984375 -0.277587890625
1730981250.0 1.0626220703125 -1.228515625
1762203125.0 0.0413818359375 -1.56939697265625
1793425000.0 -0.85601806640625 -1.2255859375
1824646875.0 -1.39263916015625 -0.514404296875
1855868750.0 -1.4735107421875 0.4324951171875
1887090625.0 -0.874267578125 1.28509521484375
1918312500.0 0.117919921875 1.486328125
1949534375.0 0.9215087890625 1.0882568359375
1980756250.0 1.37518310546875 0.36932373046875
2011978125.0 1.35888671875 -0.532470703125
2043200000.0 0.74896240234375 -1.26141357421875
2074421875.0 -0.1572265625 -1.43218994140625
2105643750.0 -0.96038818359375 -1.071533203125
2136865625.0 -1.4464111328125 -0.30419921875
2168087500.0 -1.35614013671875 0.67144775390625
2199309375.0 -0.63818359375 1.35052490234375
2230531250.0 0.2822265625 1.43505859375
2261753125.0 1.0726318359375 1.01300048828125
2292975000.0 1.513671875 0.1695556640625
2324196875.0 1.3046875 -0.81903076171875
2355418750.0 0.5244140625 -1.41912841796875
2386640625.0 -0.405029296875 -1.44830322265625
2417862500.0 -1.18109130859375 -1.0235595703125
2449084375.0 -1.60516357421875 -0.08251953125
2480306250.0 -1.31072998046875 0.92547607421875
2511528125.0 -0.492431640625 1.50762939453125
2542750000.0 0.48956298828125 1.53509521484375
2573971875.0 1.3707275390625 0.96685791015625
2605193750.0 1.7154541015625 -0.11224365234375
2636415625.0 1.26025390625 -1.15240478515625
2667637500.0 0.30548095703125 -1.66656494140625
2698859375.0 -0.76959228515625 -1.533203125
2730081250.0 -1.5732421875 -0.73919677734375
2761303125.0 -1.679931640625 0.38861083984375
2792525000.0 -1.09808349609375 1.30712890625
2823746875.0 -0.101806640625 1.72821044921875
2854968750.0 1.01287841796875 1.45465087890625
2886190625.0 1.69134521484375 0.49041748046875
2917412500.0 1.59832763671875 -0.6171875
2948634375.0 0.9388427734375 -1.4320068359375
2979856250.0 -0.10858154296875 -1.77520751953125
3011078125.0 -1.24652099609375 -1.340576171875
3042300000.0 -1.77392578125 -0.233154296875
3073521875.0 -1.5072021484375 0.83740234375
3104743750.0 -0.76202392578125 1.56982421875
3135965625.0 0.3621826171875 1.80816650390625
3167187500.0 1.49761962890625 1.16302490234375
3198409375.0 1.8154296875 -0.07659912109375
3229631250.0 1.3472900390625 -1.081298828125
3260853125.0 0.4881591796875 -1.6671142578125
3292075000.0 -0.6549072265625 -1.69671630859375
3323296875.0 -1.61907958984375 -0.87774658203125
3354518750.0 -1.7283935546875 0.3289794921875
3385740625.0 -1.154541015625 1.2322998046875
3416962500.0 -0.23138427734375 1.67926025390625
3448184375.0 0.8614501953125 1.52056884765625
3479406250.0 1.6346435546875 0.6435546875
3510628125.0 1.64300537109375 -0.49554443359375
3541850000.0 0.99945068359375 -1.35430908203125
3573071875.0 -0.0084228515625 -1.68096923828125
3604293750.0 -1.0277099609375 -1.33642578125
3635515625.0 -1.6258544921875 -0.43841552734375
3666737500.0 -1.5596923828125 0.6455078125
3697959375.0 -0.82427978515625 1.4754638671875
3729181250.0 0.26837158203125 1.62921142578125
3760403125.0 1.15203857421875 1.09674072265625
3791625000.0 1.5517578125 0.21746826171875
3822846875.0 1.400146484375 -0.75982666015625
3854068750.0 0.6195068359375 -1.4796142578125
3885290625.0 -0.420166015625 -1.479248046875
3916512500.0 -1.14117431640625 -0.91021728515625
3947734375.0 -1.44659423828125 -0.11895751953125
3978956250.0 -1.29571533203125 0.77777099609375
4010178125.0 -0.5306396484375 1.452392578125
4041400000.0 0.4725341796875 1.41400146484375
4072621875.0 1.15093994140625 0.84710693359375
4103843750.0 1.4429931640625 0.0633544921875
4135065625.0 1.26641845703125 -0.844482421875
4166287500.0 0.4576416015625 -1.49395751953125
4197509375.0 -0.55731201171875 -1.41412353515625
4228731250.0 -1.24627685546875 -0.80255126953125
4259953125.0 -1.50848388671875 0.07098388671875
4291175000.0 -1.1873779296875 1.009765625
4322396875.0 -0.2891845703125 1.52508544921875
4353618750.0 0.67254638671875 1.34893798828125
4384840625.0 1.321533203125 0.69622802734375
4416062500.0 1.49981689453125 -0.2275390625
4447284375.0 1.0537109375 -1.102783203125
4478506250.0 0.17205810546875 -1.49365234375
4509728125.0 -0.7320556640625 -1.30731201171875
4540950000.0 -1.39239501953125 -0.63531494140625
4572171875.0 -1.521728515625 0.35968017578125
4603393750.0 -0.97174072265625 1.2120361328125
4634615625.0 -0.06158447265625 1.5362548828125
4665837500.0 0.8699951171875 1.3037109375
4697059375.0 1.54119873046875 0.51434326171875
4728281250.0 1.52789306640625 -0.5816650390625
4759503125.0 0.8221435546875 -1.366943359375
4790725000.0 -0.14501953125 -1.570556640625
4821946875.0 -1.0830078125 -1.19287109375
4853168750.0 -1.6124267578125 -0.25091552734375
4884390625.0 -1.377197265625 0.79315185546875
4915612500.0 -0.61297607421875 1.411865234375
4946834375.0 0.3280029296875 1.50762939453125
4978056250.0 1.2034912109375 1.01611328125
5009278125.0 1.560302734375 0.03973388671875
5040500000.0 1.22802734375 -0.8748779296875
5071721875.0 0.50128173828125 -1.4132080078125
5102943750.0 -0.44635009765625 -1.49560546875
5134165625.0 -1.33367919921875 -0.90521240234375
5165387500.0 -1.56732177734375 0.14569091796875
5196609375.0 -1.13531494140625 1.0086669921875
5227831250.0 -0.3575439453125 1.5045166015625
5259053125.0 0.68646240234375 1.4903564453125
5290275000.0 1.51904296875 0.66326904296875
5321496875.0 1.49139404296875 -0.4296875
5352718750.0 0.9202880859375 -1.15216064453125
5383940625.0 0.09686279296875 -1.4984130859375
5415162500.0 -0.89996337890625 -1.283203125
5446384375.0 -1.48358154296875 -0.3695068359375
5477606250.0 -1.29827880859375 0.56597900390625
5508828125.0 -0.7305908203125 1.14984130859375
5540050000.0 0.05352783203125 1.39776611328125
5571271875.0 0.93780517578125 1.108154296875
5602493750.0 1.40728759765625 0.260009765625
5633715625.0 1.2315673828125 -0.612060546875
5664937500.0 0.64794921875 -1.20074462890625
5696159375.0 -0.19671630859375 -1.38336181640625
5727381250.0 -1.0211181640625 -0.97802734375
5758603125.0 -1.39141845703125 -0.14495849609375
5789825000.0 -1.1937255859375 0.7176513671875
5821046875.0 -0.505615234375 1.30694580078125
5852268750.0 0.41082763671875 1.3123779296875
5883490625.0 1.07110595703125 0.7713623046875
5914712500.0 1.3017578125 0.01959228515625
5945934375.0 1.0955810546875 -0.774658203125
5977156250.0 0.36151123046875 -1.310546875
6008378125.0 -0.50909423828125 -1.18182373046875
6039600000.0 -1.0208740234375 -0.64892578125
6070821875.0 -1.22369384765625 -0.0040283203125
6102043750.0 -1.08245849609375 0.7623291015625
6133265625.0 -0.34197998046875 1.34405517578125
6164487500.0 0.5625 1.18731689453125
6195709375.0 1.07049560546875 0.6300048828125
6226931250.0 1.27850341796875 -0.04180908203125
6258153125.0 1.1041259765625 -0.86944580078125
6289375000.0 0.256591796875 -1.4449462890625
6320596875.0 -0.68896484375 -1.2060546875
6351818750.0 -1.198974609375 -0.5723876953125
6383040625.0 -1.3543701171875 0.20648193359375
6414262500.0 -0.999755859375 1.05718994140625
6445484375.0 -0.077880859375 1.45751953125
6476706250.0 0.79693603515625 1.1484375
6507928125.0 1.28948974609375 0.47039794921875
6539150000.0 1.34735107421875 -0.38726806640625
6570371875.0 0.84051513671875 -1.14404296875
6601593750.0 -0.01727294921875 -1.40447998046875
6632815625.0 -0.84002685546875 -1.1348876953125
6664037500.0 -1.4005126953125 -0.4205322265625
6695259375.0 -1.37322998046875 0.565673828125
6726481250.0 -0.71014404296875 1.25091552734375
6757703125.0 0.13031005859375 1.40606689453125
6788925000.0 0.95574951171875 1.130615234375
6820146875.0 1.55950927734375 0.28802490234375
6851368750.0 1.3260498046875 -0.8187255859375
6882590625.0 0.506591796875 -1.3380126953125
6913812500.0 -0.2923583984375 -1.35638427734375
6945034375.0 -1.06842041015625 -1.02197265625
6976256250.0 -1.5926513671875 -0.0928955078125
7007478125.0 -1.236572265625 0.9317626953125
7038700000.0 -0.40130615234375 1.343505859375
7069921875.0 0.358154296875 1.3218994140625
7101143750.0 1.1163330078125 0.96856689453125
7132365625.0 1.5986328125 0.0145263671875
7163587500.0 1.15704345703125 -1.02099609375
7194809375.0 0.30230712890625 -1.39556884765625
7226031250.0 -0.512451171875 -1.32501220703125
7257253125.0 -1.26605224609375 -0.822998046875
7288475000.0 -1.55743408203125 0.197509765625
7319696875.0 -1.0294189453125 1.10858154296875
7350918750.0 -0.16448974609375 1.442626953125
7382140625.0 0.714599609375 1.276611328125
7413362500.0 1.37567138671875 0.57635498046875
7444584375.0 1.41204833984375 -0.40679931640625
7475806250.0 0.8583984375 -1.141357421875
7507028125.0 0.00775146484375 -1.427734375
7538250000.0 -0.88812255859375 -1.123291015625
7569471875.0 -1.33599853515625 -0.31036376953125
7600693750.0 -1.201416015625 0.49627685546875
7631915625.0 -0.7178955078125 1.08642578125
7663137500.0 0.0811767578125 1.35955810546875
7694359375.0 0.9395751953125 0.980499267578125
7725581250.0 1.24365234375 0.1802978515625
7756803125.0 1.082763671875 -0.499755859375
7788025000.0 0.669921875 -1.04486083984375
7819246875.0 -0.119873046875 -1.34710693359375
7850468750.0 -0.99212646484375 -0.915924072265625
7881690625.0 -1.2308349609375 -0.105224609375
7912912500.0 -1.054443359375 0.55352783203125
7944134375.0 -0.60516357421875 1.11370849609375
7975356250.0 0.2708740234375 1.33551025390625
8006578125.0 1.0465087890625 0.7786865234375
8037800000.0 1.194091796875 0.015869140625
8069021875.0 1.00689697265625 -0.6175537109375
8100243750.0 0.49957275390625 -1.16326904296875
8131465625.0 -0.38824462890625 -1.25439453125
8162687500.0 -1.03076171875 -0.6865234375
8193909375.0 -1.18011474609375 0.00872802734375
8225131250.0 -1.01824951171875 0.6778564453125
8256353125.0 -0.4207763671875 1.250244140625
8287575000.0 0.5003662109375 1.2264404296875
8318796875.0 1.08270263671875 0.63616943359375
8350018750.0 1.243896484375 -0.07452392578125
8381240625.0 1.03057861328125 -0.8387451171875
8412462500.0 0.2545166015625 -1.3729248046875
8443684375.0 -0.670166015625 -1.17041015625
8474906250.0 -1.17376708984375 -0.5325927734375
8506128125.0 -1.2977294921875 0.23736572265625
8537350000.0 -0.9251708984375 1.0469970703125
8568571875.0 -0.01593017578125 1.395751953125
8599793750.0 0.8038330078125 1.05426025390625
8631015625.0 1.2420654296875 0.39776611328125
8662237500.0 1.285400390625 -0.42840576171875
8693459375.0 0.736083984375 -1.1763916015625
8724681250.0 -0.1634521484375 -1.3323974609375
8755903125.0 -0.880889892578125 -0.95782470703125
8787125000.0 -1.3050537109375 -0.2813720703125
8818346875.0 -1.24993896484375 0.61407470703125
8849568750.0 -0.5562744140625 1.26239013671875
8880790625.0 0.298583984375 1.28619384765625
8912012500.0 0.979400634765625 0.89178466796875
8943234375.0 1.3988037109375 0.1298828125
8974456250.0 1.16644287109375 -0.8377685546875
9005678125.0 0.34930419921875 -1.31402587890625
9036900000.0 -0.44488525390625 -1.22467041015625
9068121875.0 -1.10107421875 -0.78594970703125
9099343750.0 -1.44085693359375 0.09716796875
9130565625.0 -0.98004150390625 1.01263427734375
9161787500.0 -0.156005859375 1.28118896484375
9193009375.0 0.5548095703125 1.1341552734375
9224231250.0 1.17926025390625 0.65478515625
9255453125.0 1.39813232421875 -0.29461669921875
9286675000.0 0.80731201171875 -1.084228515625
9317896875.0 0.02728271484375 -1.24603271484375
9349118750.0 -0.653564453125 -1.069091796875
9380340625.0 -1.25579833984375 -0.51068115234375
9411562500.0 -1.3114013671875 0.47760009765625
9442784375.0 -0.6483154296875 1.1173095703125
9474006250.0 0.08929443359375 1.2120361328125
9505228125.0 0.764068603515625 0.980377197265625
9536450000.0 1.2725830078125 0.3135986328125
9567671875.0 1.1441650390625 -0.5804443359375
9598893750.0 0.5302734375 -1.06622314453125
9630115625.0 -0.14288330078125 -1.1568603515625
9661337500.0 -0.818115234375 -0.90380859375
9692559375.0 -1.2398681640625 -0.19024658203125
9723781250.0 -1.04425048828125 0.602783203125
9755003125.0 -0.48663330078125 1.05145263671875
9786225000.0 0.1986083984375 1.1590576171875
9817446875.0 0.894012451171875 0.82769775390625
9848668750.0 1.197021484375 0.07867431640625
9879890625.0 0.968536376953125 -0.615631103515625
9911112500.0 0.45220947265625 -1.05126953125
9942334375.0 -0.26788330078125 -1.1590576171875
9973556250.0 -0.94366455078125 -0.7384033203125
10004778125.0 -1.14593505859375 -0.01776123046875
10036000000.0 -0.945587158203125 0.616973876953125
10067221875.0 -0.4423828125 1.09832763671875
10098443750.0 0.36871337890625 1.1812744140625
10129665625.0 1.00299072265625 0.64447021484375
10160887500.0 1.12005615234375 -0.0516357421875
10192109375.0 0.91796875 -0.663330078125
10223331250.0 0.3616943359375 -1.15313720703125
10254553125.0 -0.48583984375 -1.1143798828125
10285775000.0 -0.98687744140625 -0.53497314453125
10316996875.0 -1.0670166015625 0.07598876953125
10348218750.0 -0.900604248046875 0.670135498046875
10379440625.0 -0.32183837890625 1.175048828125
10410662500.0 0.52593994140625 1.0853271484375
10441884375.0 0.9930419921875 0.5208740234375
10473106250.0 1.1077880859375 -0.08380126953125
10504328125.0 0.949127197265625 -0.757232666015625
10535550000.0 0.2396240234375 -1.296142578125
10566771875.0 -0.6566162109375 -1.07806396484375
10597993750.0 -1.082275390625 -0.458984375
10629215625.0 -1.17498779296875 0.20501708984375
10660437500.0 -0.888031005859375 0.95184326171875
10691659375.0 -0.0113525390625 1.3341064453125
10722881250.0 0.78582763671875 0.951568603515625
10754103125.0 1.11920166015625 0.32525634765625
10785325000.0 1.1400146484375 -0.36737060546875
10816546875.0 0.701416015625 -1.0478515625
10847768750.0 -0.143798828125 -1.2310791015625
10878990625.0 -0.802215576171875 -0.8448486328125
10910212500.0 -1.1241455078125 -0.24530029296875
10941434375.0 -1.09649658203125 0.47564697265625
10972656250.0 -0.56842041015625 1.08465576171875
11003878125.0 0.21728515625 1.1746826171875
11035100000.0 0.847412109375 0.82208251953125
11066321875.0 1.22137451171875 0.17431640625
11097543750.0 1.09893798828125 -0.67608642578125
11128765625.0 0.3876953125 -1.19775390625
11159987500.0 -0.39459228515625 -1.1390380859375
11191209375.0 -1.00030517578125 -0.70306396484375
11222431250.0 -1.272216796875 0.09259033203125
11253653125.0 -0.8603515625 0.894256591796875
11284875000.0 -0.11474609375 1.1265869140625
11316096875.0 0.51043701171875 0.957489013671875
11347318750.0 1.0030517578125 0.50311279296875
11378540625.0 1.1165771484375 -0.26849365234375
11409762500.0 0.635345458984375 -0.8602294921875
11440984375.0 0.036224365234375 -0.978302001953125
11472206250.0 -0.480987548828125 -0.8509521484375
11503428125.0 -0.953948974609375 -0.456695556640625
11534650000.0 -1.0677490234375 0.28790283203125
11565871875.0 -0.6021728515625 0.854583740234375
11597093750.0 -0.017791748046875 0.990936279296875
11628315625.0 0.5438232421875 0.87542724609375
11659537500.0 1.0611572265625 0.3924560546875
11690759375.0 1.06549072265625 -0.43377685546875
11721981250.0 0.51654052734375 -0.9403076171875
11753203125.0 -0.10528564453125 -1.03582763671875
11784425000.0 -0.7236328125 -0.809051513671875
11815646875.0 -1.10107421875 -0.1524658203125
11846868750.0 -0.891448974609375 0.55120849609375
11878090625.0 -0.391143798828125 0.909820556640625
11909312500.0 0.187225341796875 0.985809326171875
11940534375.0 0.78021240234375 0.695220947265625
11971756250.0 1.0252685546875 0.0396728515625
12002978125.0 0.80731201171875 -0.537689208984375
12034200000.0 0.382049560546875 -0.889007568359375
12065421875.0 -0.2142333984375 -1.01043701171875
12096643750.0 -0.84814453125 -0.665924072265625
12127865625.0 -1.034423828125 0.016357421875
12159087500.0 -0.81463623046875 0.574615478515625
12190309375.0 -0.378204345703125 0.974609375
12221531250.0 0.3394775390625 1.08843994140625
12252753125.0 0.979400634765625 0.58270263671875
12283975000.0 1.05419921875 -0.127197265625
12315196875.0 0.80047607421875 -0.675872802734375
12346418750.0 0.28155517578125 -1.091552734375
12377640625.0 -0.5377197265625 -1.06109619140625
12408862500.0 -1.03424072265625 -0.4202880859375
12440084375.0 -1.0086669921875 0.22406005859375
12471306250.0 -0.7420654296875 0.7379150390625
12502528125.0 -0.18115234375 1.11956787109375
12533750000.0 0.62103271484375 0.994537353515625
12564971875.0 1.04052734375 0.364990234375
12596193750.0 1.02874755859375 -0.26361083984375
12627415625.0 0.74822998046875 -0.82794189453125
12658637500.0 0.08001708984375 -1.20770263671875
12689859375.0 -0.734466552734375 -0.9659423828125
12721081250.0 -1.11822509765625 -0.30535888671875
12752303125.0 -1.09765625 0.3807373046875
12783525000.0 -0.68768310546875 1.02862548828125
12814746875.0 0.16448974609375 1.2520751953125
12845968750.0 0.863922119140625 0.811767578125
12877190625.0 1.115966796875 0.17236328125
12908412500.0 1.0562744140625 -0.50140380859375
12939634375.0 0.5440673828125 -1.1168212890625
12970856250.0 -0.32080078125 -1.17572021484375
13002078125.0 -0.895660400390625 -0.692657470703125
13033300000.0 -1.10687255859375 -0.08697509765625
13064521875.0 -1.009521484375 0.593017578125
13095743750.0 -0.4205322265625 1.1541748046875
13126965625.0 0.40875244140625 1.1217041015625
13158187500.0 0.946380615234375 0.631805419921875
13189409375.0 1.14849853515625 -0.02203369140625
13220631250.0 0.93572998046875 -0.74761962890625
13251853125.0 0.23553466796875 -1.17095947265625
13283075000.0 -0.5064697265625 -1.0191650390625
13314296875.0 -0.98876953125 -0.528839111328125
13345518750.0 -1.1351318359375 0.17620849609375
13376740625.0 -0.75299072265625 0.858306884765625
