!Created with skrf (http://scikit-rf.org).
# Hz S RI R 50.0 
!freq ReS11 ImS11
45000000.0 -0.0770416259765625 -0.09687423706054688
76221875.0 -0.19622802734375 -0.0474853515625
107443750.0 -0.25482177734375 0.1197357177734375
138665625.0 -0.14788818359375 0.328369140625
169887500.0 0.123504638671875 0.417144775390625
201109375.0 0.421539306640625 0.2805938720703125
232331250.0 0.578460693359375 -0.057586669921875
263553125.0 0.489227294921875 -0.4524078369140625
294775000.0 0.0982666015625 -0.731903076171875
325996875.0 -0.4151611328125 -0.679840087890625
357218750.0 -0.805511474609375 -0.296600341796875
388440625.0 -0.88494873046875 0.30059814453125
419662500.0 -0.516845703125 0.8653564453125
450884375.0 0.1732177734375 1.02777099609375
482106250.0 0.797698974609375 0.7119140625
513328125.0 1.1181640625 0.08685302734375
544550000.0 1.00250244140625 -0.67938232421875
575771875.0 0.33587646484375 -1.23724365234375
606993750.0 -0.55352783203125 -1.17608642578125
638215625.0 -1.1646728515625 -0.58941650390625
669437500.0 -1.33837890625 0.23358154296875
700659375.0 -0.9698486328125 1.09527587890625
731881250.0 -0.0032958984375 1.54144287109375
763103125.0 1.00482177734375 1.15460205078125
794325000.0 1.46710205078125 0.28106689453125
825546875.0 1.3656005859375 -0.65093994140625
856768750.0 0.793212890625 -1.39849853515625
887990625.0 -0.29248046875 -1.646240234375
919212500.0 -1.2867431640625 -1.0771484375
950434375.0 -1.6463623046875 -0.05877685546875
981656250.0 -1.38079833984375 0.94500732421875
1012878125.0 -0.52886962890625 1.6700439453125
1044100000.0 0.69622802734375 1.659423828125
1075321875.0 1.57281494140625 0.81048583984375
1106543750.0 1.7020263671875 -0.3128662109375
1137765625.0 1.18487548828125 -1.28216552734375
1168987500.0 0.1376953125 -1.79449462890625
1200209375.0 -1.060302734375 -1.48126220703125
1231431250.0 -1.72491455078125 -0.4525146484375
1262653125.0 -1.59161376953125 0.68341064453125
1293875000.0 -0.8499755859375 1.4893798828125
1325096875.0 0.22808837890625 1.703857421875
1356318750.0 1.23358154296875 1.21453857421875
1387540625.0 1.73724365234375 0.1884765625
1418762500.0 1.4666748046875 -0.95025634765625
1449984375.0 0.5283203125 -1.62335205078125
1481206250.0 -0.549560546875 -1.5535888671875
1512428125.0 -1.33984375 -0.91796875
1543650000.0 -1.65301513671875 0.0655517578125
1574871875.0 -1.2713623046875 1.10723876953125
1606093750.0 -0.2723388671875 1.62896728515625
1637315625.0 0.74114990234375 1.39825439453125
1668537500.0 1.39422607421875 0.6944580078125
1699759375.0 1.5709228515625 -0.27734375
1730981250.0 1.06231689453125 -1.2279052734375
1762203125.0 0.0419921875 -1.56829833984375
1793425000.0 -0.85467529296875 -1.2244873046875
1824646875.0 -1.3912353515625 -0.51422119140625
1855868750.0 -1.47198486328125 0.4320068359375
1887090625.0 -0.8736572265625 1.28338623046875
1918312500.0 0.116943359375 1.48431396484375
1949534375.0 0.92041015625 1.087646484375
1980756250.0 1.373291015625 0.36956787109375
2011978125.0 1.3575439453125 -0.53106689453125
2043200000.0 0.74884033203125 -1.25946044921875
2074421875.0 -0.1568603515625 -1.430908203125
2105643750.0 -0.95867919921875 -1.07080078125
2136865625.0 -1.4451904296875 -0.30438232421875
2168087500.0 -1.35498046875 0.6705322265625
2199309375.0 -0.63812255859375 1.34918212890625
2230531250.0 0.28167724609375 1.4339599609375
2261753125.0 1.07098388671875 1.01239013671875
2292975000.0 1.5118408203125 0.16986083984375
2324196875.0 1.30352783203125 -0.81793212890625
2355418750.0 0.5240478515625 -1.418212890625
2386640625.0 -0.4036865234375 -1.44647216796875
2417862500.0 -1.1798095703125 -1.02276611328125
2449084375.0 -1.60113525390625 -0.0843505859375
2480306250.0 -1.309326171875 0.9246826171875
2511528125.0 -0.4925537109375 1.50531005859375
2542750000.0 0.48736572265625 1.53338623046875
2573971875.0 1.3682861328125 0.96624755859375
2605193750.0 1.71380615234375 -0.1119384765625
2636415625.0 1.259521484375 -1.15057373046875
2667637500.0 0.305908203125 -1.6641845703125
2698859375.0 -0.76910400390625 -1.53131103515625
2730081250.0 -1.56988525390625 -0.7398681640625
2761303125.0 -1.677490234375 0.3857421875
2792525000.0 -1.09698486328125 1.3043212890625
2823746875.0 -0.10150146484375 1.726806640625
2854968750.0 1.0096435546875 1.45233154296875
2886190625.0 1.68804931640625 0.49066162109375
2917412500.0 1.59716796875 -0.616943359375
2948634375.0 0.9378662109375 -1.429443359375
2979856250.0 -0.10809326171875 -1.773193359375
3011078125.0 -1.244873046875 -1.33990478515625
3042300000.0 -1.7716064453125 -0.2342529296875
3073521875.0 -1.50531005859375 0.83612060546875
3104743750.0 -0.7618408203125 1.5643310546875
3135965625.0 0.3616943359375 1.8062744140625
3167187500.0 1.4940185546875 1.16192626953125
3198409375.0 1.812255859375 -0.0755615234375
3229631250.0 1.345703125 -1.0787353515625
3260853125.0 0.48846435546875 -1.6650390625
3292075000.0 -0.65338134765625 -1.6942138671875
3323296875.0 -1.61627197265625 -0.87860107421875
3354518750.0 -1.72723388671875 0.32891845703125
3385740625.0 -1.1533203125 1.22821044921875
3416962500.0 -0.23138427734375 1.6771240234375
3448184375.0 0.8590087890625 1.51904296875
3479406250.0 1.63287353515625 0.64337158203125
3510628125.0 1.640869140625 -0.49420166015625
3541850000.0 0.998779296875 -1.352783203125
3573071875.0 -0.00726318359375 -1.6783447265625
3604293750.0 -1.02606201171875 -1.3349609375
3635515625.0 -1.62371826171875 -0.43841552734375
3666737500.0 -1.558837890625 0.64501953125
3697959375.0 -0.82330322265625 1.47344970703125
3729181250.0 0.26617431640625 1.6263427734375
3760403125.0 1.15106201171875 1.09600830078125
3791625000.0 1.54913330078125 0.2176513671875
3822846875.0 1.39825439453125 -0.7581787109375
3854068750.0 0.61907958984375 -1.477783203125
3885290625.0 -0.41973876953125 -1.47808837890625
3916512500.0 -1.13818359375 -0.9091796875
3947734375.0 -1.44549560546875 -0.11956787109375
3978956250.0 -1.29443359375 0.77685546875
4010178125.0 -0.53076171875 1.450927734375
4041400000.0 0.47174072265625 1.41259765625
4072621875.0 1.14971923828125 0.84600830078125
4103843750.0 1.4420166015625 0.063720703125
4135065625.0 1.26513671875 -0.84381103515625
4166287500.0 0.45770263671875 -1.49188232421875
4197509375.0 -0.5555419921875 -1.41192626953125
4228731250.0 -1.2454833984375 -0.8018798828125
4259953125.0 -1.5072021484375 0.0703125
4291175000.0 -1.18658447265625 1.00823974609375
4322396875.0 -0.28900146484375 1.52362060546875
4353618750.0 0.671142578125 1.34747314453125
4384840625.0 1.31964111328125 0.696044921875
4416062500.0 1.4981689453125 -0.22698974609375
4447284375.0 1.05303955078125 -1.10137939453125
4478506250.0 0.17291259765625 -1.49224853515625
4509728125.0 -0.73138427734375 -1.30560302734375
4540950000.0 -1.39093017578125 -0.6351318359375
4572171875.0 -1.52069091796875 0.36016845703125
4603393750.0 -0.9710693359375 1.2105712890625
4634615625.0 -0.06109619140625 1.53466796875
4665837500.0 0.86865234375 1.302734375
4697059375.0 1.5390625 0.514404296875
4728281250.0 1.5263671875 -0.58074951171875
4759503125.0 0.82177734375 -1.36431884765625
4790725000.0 -0.1453857421875 -1.5699462890625
4821946875.0 -1.08111572265625 -1.19219970703125
4853168750.0 -1.610107421875 -0.25140380859375
4884390625.0 -1.3760986328125 0.79193115234375
4915612500.0 -0.61273193359375 1.40960693359375
4946834375.0 0.328369140625 1.50775146484375
4978056250.0 1.202392578125 1.01580810546875
5009278125.0 1.55853271484375 0.04052734375
5040500000.0 1.22723388671875 -0.87359619140625
5071721875.0 0.501220703125 -1.4117431640625
5102943750.0 -0.4466552734375 -1.4947509765625
5134165625.0 -1.33233642578125 -0.90460205078125
5165387500.0 -1.565185546875 0.1453857421875
5196609375.0 -1.134521484375 1.0078125
5227831250.0 -0.35784912109375 1.50262451171875
5259053125.0 0.6859130859375 1.4893798828125
5290275000.0 1.51934814453125 0.66259765625
5321496875.0 1.4896240234375 -0.4281005859375
5352718750.0 0.919677734375 -1.15057373046875
5383940625.0 0.09625244140625 -1.4981689453125
5415162500.0 -0.89898681640625 -1.2816162109375
5446384375.0 -1.48150634765625 -0.36968994140625
5477606250.0 -1.29705810546875 0.56427001953125
5508828125.0 -0.73016357421875 1.14935302734375
5540050000.0 0.05364990234375 1.39599609375
5571271875.0 0.93670654296875 1.10723876953125
5602493750.0 1.406005859375 0.26031494140625
5633715625.0 1.23004150390625 -0.6107177734375
5664937500.0 0.6473388671875 -1.19989013671875
5696159375.0 -0.1956787109375 -1.3814697265625
5727381250.0 -1.019775390625 -0.97705078125
5758603125.0 -1.38983154296875 -0.14495849609375
5789825000.0 -1.1925048828125 0.715576171875
5821046875.0 -0.50640869140625 1.30413818359375
5852268750.0 0.4102783203125 1.31085205078125
5883490625.0 1.069580078125 0.77154541015625
5914712500.0 1.3009033203125 0.01953125
5945934375.0 1.09515380859375 -0.7750244140625
5977156250.0 0.36065673828125 -1.3109130859375
6008378125.0 -0.50836181640625 -1.1810302734375
6039600000.0 -1.0203857421875 -0.64849853515625
6070821875.0 -1.22247314453125 -0.004150390625
6102043750.0 -1.0821533203125 0.76043701171875
6133265625.0 -0.342041015625 1.3421630859375
6164487500.0 0.5621337890625 1.1861572265625
6195709375.0 1.0693359375 0.62939453125
6226931250.0 1.27789306640625 -0.042236328125
6258153125.0 1.1033935546875 -0.8697509765625
6289375000.0 0.25628662109375 -1.44488525390625
6320596875.0 -0.6871337890625 -1.204345703125
6351818750.0 -1.19842529296875 -0.57171630859375
6383040625.0 -1.35296630859375 0.206298828125
6414262500.0 -0.99884033203125 1.05450439453125
6445484375.0 -0.07977294921875 1.4537353515625
6476706250.0 0.794677734375 1.146728515625
6507928125.0 1.28814697265625 0.4700927734375
6539150000.0 1.345947265625 -0.38623046875
6570371875.0 0.84051513671875 -1.141357421875
6601593750.0 -0.016357421875 -1.40264892578125
6632815625.0 -0.8372802734375 -1.13494873046875
6664037500.0 -1.39874267578125 -0.42034912109375
6695259375.0 -1.3714599609375 0.56365966796875
6726481250.0 -0.71014404296875 1.2493896484375
6757703125.0 0.13055419921875 1.4049072265625
6788925000.0 0.95196533203125 1.12945556640625
6820146875.0 1.5582275390625 0.2884521484375
6851368750.0 1.32464599609375 -0.81817626953125
6882590625.0 0.50616455078125 -1.3375244140625
6913812500.0 -0.29241943359375 -1.35498046875
6945034375.0 -1.06732177734375 -1.02056884765625
6976256250.0 -1.5906982421875 -0.0933837890625
7007478125.0 -1.23455810546875 0.9302978515625
7038700000.0 -0.402099609375 1.34033203125
7069921875.0 0.35589599609375 1.32000732421875
7101143750.0 1.116455078125 0.9674072265625
7132365625.0 1.59765625 0.01605224609375
7163587500.0 1.15667724609375 -1.01885986328125
7194809375.0 0.301025390625 -1.39581298828125
7226031250.0 -0.51153564453125 -1.3248291015625
7257253125.0 -1.26507568359375 -0.822509765625
7288475000.0 -1.5567626953125 0.196533203125
7319696875.0 -1.02923583984375 1.10723876953125
7350918750.0 -0.16412353515625 1.442626953125
7382140625.0 0.7132568359375 1.275146484375
7413362500.0 1.373046875 0.5755615234375
7444584375.0 1.4111328125 -0.4080810546875
7475806250.0 0.857421875 -1.14044189453125
7507028125.0 0.0057373046875 -1.42742919921875
7538250000.0 -0.8858642578125 -1.122314453125
7569471875.0 -1.3353271484375 -0.3109130859375
7600693750.0 -1.2017822265625 0.49700927734375
7631915625.0 -0.7159423828125 1.08538818359375
7663137500.0 0.07916259765625 1.35589599609375
7694359375.0 0.9375 0.9794921875
7725581250.0 1.24224853515625 0.1805419921875
7756803125.0 1.08074951171875 -0.49786376953125
7788025000.0 0.66925048828125 -1.04241943359375
7819246875.0 -0.11920166015625 -1.3448486328125
7850468750.0 -0.990753173828125 -0.915618896484375
7881690625.0 -1.230224609375 -0.10546875
7912912500.0 -1.0533447265625 0.55322265625
7944134375.0 -0.60577392578125 1.11016845703125
7975356250.0 0.2706298828125 1.334228515625
8006578125.0 1.04412841796875 0.77801513671875
8037800000.0 1.19287109375 0.0174560546875
8069021875.0 1.00537109375 -0.6175537109375
8100243750.0 0.50067138671875 -1.16015625
8131465625.0 -0.3873291015625 -1.25335693359375
8162687500.0 -1.02911376953125 -0.68670654296875
8193909375.0 -1.17938232421875 0.0087890625
8225131250.0 -1.01666259765625 0.67822265625
8256353125.0 -0.421875 1.24578857421875
8287575000.0 0.4989013671875 1.224853515625
8318796875.0 1.08111572265625 0.6351318359375
8350018750.0 1.24346923828125 -0.07550048828125
8381240625.0 1.0291748046875 -0.83514404296875
8412462500.0 0.2537841796875 -1.37261962890625
8443684375.0 -0.668212890625 -1.1690673828125
8474906250.0 -1.1746826171875 -0.53204345703125
8506128125.0 -1.29669189453125 0.2364501953125
8537350000.0 -0.9232177734375 1.04400634765625
8568571875.0 -0.01678466796875 1.3917236328125
8599793750.0 0.80023193359375 1.05230712890625
8631015625.0 1.2396240234375 0.39886474609375
8662237500.0 1.28375244140625 -0.427490234375
8693459375.0 0.73565673828125 -1.177490234375
8724681250.0 -0.16082763671875 -1.32965087890625
8755903125.0 -0.876953125 -0.95660400390625
8787125000.0 -1.302734375 -0.28204345703125
8818346875.0 -1.24951171875 0.61505126953125
8849568750.0 -0.556396484375 1.25830078125
8880790625.0 0.2979736328125 1.283935546875
8912012500.0 0.9813232421875 0.891082763671875
8943234375.0 1.395751953125 0.1307373046875
8974456250.0 1.166259765625 -0.83856201171875
9005678125.0 0.34857177734375 -1.311767578125
9036900000.0 -0.444091796875 -1.22314453125
9068121875.0 -1.09906005859375 -0.7864990234375
9099343750.0 -1.43878173828125 0.0963134765625
9130565625.0 -0.9786376953125 1.0101318359375
9161787500.0 -0.15533447265625 1.2808837890625
9193009375.0 0.5548095703125 1.13330078125
9224231250.0 1.17718505859375 0.65521240234375
9255453125.0 1.39801025390625 -0.2955322265625
9286675000.0 0.80706787109375 -1.0823974609375
9317896875.0 0.0260009765625 -1.2464599609375
9349118750.0 -0.65350341796875 -1.06890869140625
9380340625.0 -1.25616455078125 -0.50970458984375
9411562500.0 -1.30938720703125 0.47540283203125
9442784375.0 -0.64837646484375 1.11529541015625
9474006250.0 0.088134765625 1.20947265625
9505228125.0 0.764251708984375 0.97906494140625
9536450000.0 1.27252197265625 0.31298828125
9567671875.0 1.14385986328125 -0.58026123046875
9598893750.0 0.5301513671875 -1.06524658203125
9630115625.0 -0.14288330078125 -1.15625
9661337500.0 -0.817169189453125 -0.902008056640625
9692559375.0 -1.23809814453125 -0.190185546875
9723781250.0 -1.0435791015625 0.6025390625
9755003125.0 -0.48614501953125 1.04754638671875
9786225000.0 0.19732666015625 1.15826416015625
9817446875.0 0.893463134765625 0.826690673828125
9848668750.0 1.1973876953125 0.07904052734375
9879890625.0 0.96832275390625 -0.615997314453125
9911112500.0 0.45269775390625 -1.049560546875
9942334375.0 -0.265869140625 -1.15826416015625
9973556250.0 -0.94281005859375 -0.73870849609375
10004778125.0 -1.14495849609375 -0.019287109375
10036000000.0 -0.9437255859375 0.613555908203125
10067221875.0 -0.443115234375 1.0946044921875
10098443750.0 0.36968994140625 1.1807861328125
10129665625.0 1.0018310546875 0.64239501953125
10160887500.0 1.11962890625 -0.0511474609375
10192109375.0 0.9171142578125 -0.6614990234375
10223331250.0 0.36181640625 -1.15081787109375
10254553125.0 -0.48248291015625 -1.11236572265625
10285775000.0 -0.98260498046875 -0.535430908203125
10316996875.0 -1.06561279296875 0.0758056640625
10348218750.0 -0.899810791015625 0.668731689453125
10379440625.0 -0.32232666015625 1.17340087890625
10410662500.0 0.52520751953125 1.08416748046875
10441884375.0 0.9908447265625 0.522430419921875
10473106250.0 1.10748291015625 -0.0848388671875
10504328125.0 0.948760986328125 -0.7550048828125
10535550000.0 0.240478515625 -1.29266357421875
10566771875.0 -0.65545654296875 -1.07647705078125
10597993750.0 -1.0789794921875 -0.45880126953125
10629215625.0 -1.17376708984375 0.20404052734375
10660437500.0 -0.8865966796875 0.950775146484375
10691659375.0 -0.01104736328125 1.33465576171875
10722881250.0 0.783447265625 0.9520263671875
10754103125.0 1.11737060546875 0.324462890625
10785325000.0 1.138427734375 -0.366943359375
10816546875.0 0.70068359375 -1.0477294921875
10847768750.0 -0.14453125 -1.22796630859375
10878990625.0 -0.8016357421875 -0.844146728515625
10910212500.0 -1.12139892578125 -0.24560546875
10941434375.0 -1.0965576171875 0.475341796875
10972656250.0 -0.5677490234375 1.08392333984375
11003878125.0 0.216552734375 1.17254638671875
11035100000.0 0.84619140625 0.82196044921875
11066321875.0 1.22003173828125 0.174072265625
11097543750.0 1.09716796875 -0.67510986328125
11128765625.0 0.38653564453125 -1.19708251953125
11159987500.0 -0.3963623046875 -1.13800048828125
11191209375.0 -0.99932861328125 -0.703094482421875
11222431250.0 -1.27154541015625 0.09332275390625
11253653125.0 -0.85882568359375 0.8917236328125
11284875000.0 -0.11614990234375 1.125244140625
11316096875.0 0.508941650390625 0.95562744140625
11347318750.0 1.00177001953125 0.50225830078125
11378540625.0 1.114990234375 -0.267822265625
11409762500.0 0.6348876953125 -0.857574462890625
11440984375.0 0.03668212890625 -0.978118896484375
11472206250.0 -0.48089599609375 -0.849945068359375
11503428125.0 -0.951873779296875 -0.455902099609375
11534650000.0 -1.06744384765625 0.28643798828125
11565871875.0 -0.60357666015625 0.85198974609375
11597093750.0 -0.01910400390625 0.990142822265625
11628315625.0 0.5433349609375 0.87493896484375
11659537500.0 1.05865478515625 0.39251708984375
11690759375.0 1.06414794921875 -0.43170166015625
11721981250.0 0.5166015625 -0.938201904296875
11753203125.0 -0.1055908203125 -1.03582763671875
11784425000.0 -0.722808837890625 -0.808197021484375
11815646875.0 -1.0994873046875 -0.15216064453125
11846868750.0 -0.8900146484375 0.55010986328125
11878090625.0 -0.391754150390625 0.908599853515625
11909312500.0 0.186767578125 0.98419189453125
11940534375.0 0.77935791015625 0.694671630859375
11971756250.0 1.024169921875 0.0394287109375
12002978125.0 0.806396484375 -0.536285400390625
12034200000.0 0.381622314453125 -0.888671875
12065421875.0 -0.2144775390625 -1.00909423828125
12096643750.0 -0.845184326171875 -0.665618896484375
12127865625.0 -1.03302001953125 0.0159912109375
12159087500.0 -0.81427001953125 0.574310302734375
12190309375.0 -0.37860107421875 0.9739990234375
12221531250.0 0.3397216796875 1.08746337890625
12252753125.0 0.9798583984375 0.581787109375
12283975000.0 1.05316162109375 -0.12689208984375
12315196875.0 0.800506591796875 -0.6759033203125
12346418750.0 0.281494140625 -1.090087890625
12377640625.0 -0.53460693359375 -1.0599365234375
12408862500.0 -1.03363037109375 -0.420166015625
12440084375.0 -1.0072021484375 0.2225341796875
12471306250.0 -0.742034912109375 0.737396240234375
12502528125.0 -0.18072509765625 1.11865234375
12533750000.0 0.6180419921875 0.992767333984375
12564971875.0 1.03973388671875 0.36566162109375
12596193750.0 1.029296875 -0.2646484375
12627415625.0 0.747161865234375 -0.82830810546875
12658637500.0 0.0799560546875 -1.2066650390625
12689859375.0 -0.7366943359375 -0.966583251953125
12721081250.0 -1.11541748046875 -0.3060302734375
12752303125.0 -1.09625244140625 0.38031005859375
12783525000.0 -0.687255859375 1.02545166015625
12814746875.0 0.16534423828125 1.249755859375
12845968750.0 0.862213134765625 0.81103515625
12877190625.0 1.11651611328125 0.17218017578125
12908412500.0 1.0543212890625 -0.49908447265625
12939634375.0 0.54327392578125 -1.115966796875
12970856250.0 -0.3203125 -1.17498779296875
13002078125.0 -0.89459228515625 -0.69403076171875
13033300000.0 -1.10418701171875 -0.087890625
13064521875.0 -1.00787353515625 0.5921630859375
13095743750.0 -0.42108154296875 1.15411376953125
13126965625.0 0.408447265625 1.12030029296875
13158187500.0 0.947357177734375 0.63153076171875
13189409375.0 1.14752197265625 -0.02166748046875
13220631250.0 0.9356689453125 -0.748687744140625
13251853125.0 0.23455810546875 -1.17095947265625
13283075000.0 -0.5089111328125 -1.02008056640625
13314296875.0 -0.985992431640625 -0.5296630859375
13345518750.0 -1.13433837890625 0.1766357421875
13376740625.0 -0.753204345703125 0.856689453125
