!Created with skrf (http://scikit-rf.org).
# Hz S RI R 50.0 
!freq ReS11 ImS11
45000000.0 -0.0769805908203125 -0.09703445434570312
76221875.0 -0.19676971435546875 -0.04753875732421875
107443750.0 -0.2554473876953125 0.1201629638671875
138665625.0 -0.1483917236328125 0.32952880859375
169887500.0 0.1238250732421875 0.4182586669921875
201109375.0 0.422760009765625 0.2815093994140625
232331250.0 0.580047607421875 -0.0574951171875
263553125.0 0.49041748046875 -0.4537200927734375
294775000.0 0.098724365234375 -0.73394775390625
325996875.0 -0.416351318359375 -0.682220458984375
357218750.0 -0.808197021484375 -0.29766845703125
388440625.0 -0.887542724609375 0.30145263671875
419662500.0 -0.518402099609375 0.868072509765625
450884375.0 0.173583984375 1.03106689453125
482106250.0 0.79998779296875 0.7139892578125
513328125.0 1.121337890625 0.08740234375
544550000.0 1.0054931640625 -0.68072509765625
575771875.0 0.33685302734375 -1.24017333984375
606993750.0 -0.55474853515625 -1.1790771484375
638215625.0 -1.16778564453125 -0.59130859375
669437500.0 -1.34185791015625 0.23388671875
700659375.0 -0.97216796875 1.097900390625
731881250.0 -0.00384521484375 1.54541015625
763103125.0 1.00738525390625 1.1578369140625
794325000.0 1.47119140625 0.281982421875
825546875.0 1.3695068359375 -0.65283203125
856768750.0 0.795654296875 -1.40325927734375
887990625.0 -0.29339599609375 -1.65130615234375
919212500.0 -1.2906494140625 -1.08050537109375
950434375.0 -1.6517333984375 -0.05902099609375
981656250.0 -1.38507080078125 0.94793701171875
1012878125.0 -0.53033447265625 1.6751708984375
1044100000.0 0.6988525390625 1.6656494140625
1075321875.0 1.5780029296875 0.8135986328125
1106543750.0 1.70831298828125 -0.313720703125
1137765625.0 1.1893310546875 -1.28631591796875
1168987500.0 0.138427734375 -1.80035400390625
1200209375.0 -1.06390380859375 -1.4862060546875
1231431250.0 -1.73046875 -0.4541015625
1262653125.0 -1.59686279296875 0.68603515625
1293875000.0 -0.8533935546875 1.4942626953125
1325096875.0 0.22857666015625 1.70989990234375
1356318750.0 1.23712158203125 1.21868896484375
1387540625.0 1.7425537109375 0.18878173828125
1418762500.0 1.47137451171875 -0.95294189453125
1449984375.0 0.5303955078125 -1.62774658203125
1481206250.0 -0.551025390625 -1.5584716796875
1512428125.0 -1.34423828125 -0.92095947265625
1543650000.0 -1.65789794921875 0.06585693359375
1574871875.0 -1.2750244140625 1.11029052734375
1606093750.0 -0.27301025390625 1.63397216796875
1637315625.0 0.7430419921875 1.40240478515625
1668537500.0 1.39874267578125 0.69647216796875
1699759375.0 1.57537841796875 -0.27752685546875
1730981250.0 1.06549072265625 -1.2308349609375
1762203125.0 0.0418701171875 -1.57257080078125
1793425000.0 -0.857177734375 -1.2279052734375
1824646875.0 -1.39532470703125 -0.515869140625
1855868750.0 -1.475830078125 0.43328857421875
1887090625.0 -0.8758544921875 1.28741455078125
1918312500.0 0.117919921875 1.48858642578125
1949534375.0 0.92266845703125 1.09002685546875
1980756250.0 1.376708984375 0.37017822265625
2011978125.0 1.361083984375 -0.53240966796875
2043200000.0 0.75091552734375 -1.262939453125
2074421875.0 -0.15704345703125 -1.434814453125
2105643750.0 -0.96112060546875 -1.0733642578125
2136865625.0 -1.449462890625 -0.3048095703125
2168087500.0 -1.3585205078125 0.671875
2199309375.0 -0.63958740234375 1.35302734375
2230531250.0 0.28240966796875 1.43756103515625
2261753125.0 1.07470703125 1.01495361328125
2292975000.0 1.51580810546875 0.17071533203125
2324196875.0 1.30712890625 -0.82000732421875
2355418750.0 0.52532958984375 -1.42205810546875
2386640625.0 -0.405517578125 -1.4501953125
2417862500.0 -1.182373046875 -1.02520751953125
2449084375.0 -1.60723876953125 -0.083251953125
2480306250.0 -1.31317138671875 0.9263916015625
2511528125.0 -0.4949951171875 1.509521484375
2542750000.0 0.4891357421875 1.538330078125
2573971875.0 1.372802734375 0.96923828125
2605193750.0 1.71966552734375 -0.11285400390625
2636415625.0 1.2630615234375 -1.1533203125
2667637500.0 0.30633544921875 -1.670166015625
2698859375.0 -0.77166748046875 -1.5361328125
2730081250.0 -1.57562255859375 -0.7415771484375
2761303125.0 -1.684326171875 0.38958740234375
2792525000.0 -1.1011962890625 1.307861328125
2823746875.0 -0.1025390625 1.73162841796875
2854968750.0 1.01214599609375 1.45745849609375
2886190625.0 1.6939697265625 0.49237060546875
2917412500.0 1.60174560546875 -0.61865234375
2948634375.0 0.9404296875 -1.4359130859375
2979856250.0 -0.108642578125 -1.77813720703125
3011078125.0 -1.24896240234375 -1.3438720703125
3042300000.0 -1.77728271484375 -0.23486328125
3073521875.0 -1.51007080078125 0.8387451171875
3104743750.0 -0.7635498046875 1.57110595703125
3135965625.0 0.36163330078125 1.8106689453125
3167187500.0 1.501953125 1.16552734375
3198409375.0 1.81817626953125 -0.0755615234375
3229631250.0 1.35003662109375 -1.0830078125
3260853125.0 0.49017333984375 -1.669677734375
3292075000.0 -0.65655517578125 -1.7008056640625
3323296875.0 -1.62164306640625 -0.880615234375
3354518750.0 -1.7330322265625 0.329833984375
3385740625.0 -1.1568603515625 1.233154296875
3416962500.0 -0.2313232421875 1.68438720703125
3448184375.0 0.862548828125 1.52337646484375
3479406250.0 1.63909912109375 0.64483642578125
3510628125.0 1.6461181640625 -0.49591064453125
3541850000.0 1.00115966796875 -1.35675048828125
3573071875.0 -0.00750732421875 -1.683837890625
3604293750.0 -1.0283203125 -1.3388671875
3635515625.0 -1.6285400390625 -0.4390869140625
3666737500.0 -1.5635986328125 0.64874267578125
3697959375.0 -0.825927734375 1.4779052734375
3729181250.0 0.26849365234375 1.6326904296875
3760403125.0 1.15386962890625 1.09906005859375
3791625000.0 1.55352783203125 0.2186279296875
3822846875.0 1.40338134765625 -0.76177978515625
3854068750.0 0.62158203125 -1.48126220703125
3885290625.0 -0.42236328125 -1.48345947265625
3916512500.0 -1.14349365234375 -0.91168212890625
3947734375.0 -1.45025634765625 -0.1195068359375
3978956250.0 -1.29913330078125 0.78082275390625
4010178125.0 -0.5316162109375 1.456787109375
4041400000.0 0.47430419921875 1.416748046875
4072621875.0 1.15277099609375 0.84844970703125
4103843750.0 1.4466552734375 0.0628662109375
4135065625.0 1.26837158203125 -0.8466796875
4166287500.0 0.4583740234375 -1.4970703125
4197509375.0 -0.55804443359375 -1.4163818359375
4228731250.0 -1.2490234375 -0.80322265625
4259953125.0 -1.50994873046875 0.0703125
4291175000.0 -1.18902587890625 1.01104736328125
4322396875.0 -0.2891845703125 1.5283203125
4353618750.0 0.67437744140625 1.35137939453125
4384840625.0 1.32403564453125 0.6982421875
4416062500.0 1.50250244140625 -0.227294921875
4447284375.0 1.05670166015625 -1.104736328125
4478506250.0 0.17169189453125 -1.498046875
4509728125.0 -0.73394775390625 -1.3087158203125
4540950000.0 -1.39453125 -0.6365966796875
4572171875.0 -1.524169921875 0.36083984375
4603393750.0 -0.9732666015625 1.21466064453125
4634615625.0 -0.06072998046875 1.539306640625
4665837500.0 0.87164306640625 1.30560302734375
4697059375.0 1.542236328125 0.5157470703125
4728281250.0 1.53057861328125 -0.58416748046875
4759503125.0 0.82342529296875 -1.3687744140625
4790725000.0 -0.146728515625 -1.57440185546875
4821946875.0 -1.08526611328125 -1.1947021484375
4853168750.0 -1.6153564453125 -0.25103759765625
4884390625.0 -1.37939453125 0.7935791015625
4915612500.0 -0.61383056640625 1.41497802734375
4946834375.0 0.32958984375 1.511474609375
4978056250.0 1.2069091796875 1.0186767578125
5009278125.0 1.5640869140625 0.0391845703125
5040500000.0 1.2305908203125 -0.87677001953125
5071721875.0 0.50189208984375 -1.416259765625
5102943750.0 -0.44854736328125 -1.49853515625
5134165625.0 -1.33880615234375 -0.90521240234375
5165387500.0 -1.56988525390625 0.1474609375
5196609375.0 -1.13665771484375 1.0107421875
5227831250.0 -0.35736083984375 1.50775146484375
5259053125.0 0.69012451171875 1.49371337890625
5290275000.0 1.52392578125 0.6627197265625
5321496875.0 1.493408203125 -0.4317626953125
5352718750.0 0.921630859375 -1.15386962890625
5383940625.0 0.09637451171875 -1.50164794921875
5415162500.0 -0.90142822265625 -1.28472900390625
5446384375.0 -1.48699951171875 -0.37005615234375
5477606250.0 -1.29998779296875 0.56591796875
5508828125.0 -0.7315673828125 1.15325927734375
5540050000.0 0.05364990234375 1.4000244140625
5571271875.0 0.9398193359375 1.10980224609375
5602493750.0 1.41143798828125 0.25933837890625
5633715625.0 1.23370361328125 -0.61322021484375
5664937500.0 0.6485595703125 -1.20379638671875
5696159375.0 -0.19793701171875 -1.3846435546875
5727381250.0 -1.023193359375 -0.97906494140625
5758603125.0 -1.39324951171875 -0.144287109375
5789825000.0 -1.195556640625 0.7203369140625
5821046875.0 -0.50628662109375 1.30865478515625
5852268750.0 0.41290283203125 1.3143310546875
5883490625.0 1.0726318359375 0.77239990234375
5914712500.0 1.30462646484375 0.019775390625
5945934375.0 1.09716796875 -0.77728271484375
5977156250.0 0.3616943359375 -1.3135986328125
6008378125.0 -0.5103759765625 -1.18353271484375
6039600000.0 -1.02313232421875 -0.649658203125
6070821875.0 -1.22509765625 -0.0042724609375
6102043750.0 -1.08477783203125 0.76507568359375
6133265625.0 -0.34161376953125 1.34649658203125
6164487500.0 0.56475830078125 1.1888427734375
6195709375.0 1.072998046875 0.6302490234375
6226931250.0 1.2811279296875 -0.0433349609375
6258153125.0 1.10577392578125 -0.87237548828125
6289375000.0 0.25518798828125 -1.4481201171875
6320596875.0 -0.6917724609375 -1.2066650390625
6351818750.0 -1.20159912109375 -0.57196044921875
6383040625.0 -1.3565673828125 0.2091064453125
6414262500.0 -1.00042724609375 1.05865478515625
6445484375.0 -0.07696533203125 1.45892333984375
6476706250.0 0.796630859375 1.14874267578125
6507928125.0 1.2926025390625 0.46978759765625
6539150000.0 1.34918212890625 -0.38787841796875
6570371875.0 0.841796875 -1.1453857421875
6601593750.0 -0.01861572265625 -1.40704345703125
6632815625.0 -0.8416748046875 -1.13739013671875
6664037500.0 -1.4034423828125 -0.41973876953125
6695259375.0 -1.37567138671875 0.56817626953125
6726481250.0 -0.71099853515625 1.2515869140625
6757703125.0 0.13201904296875 1.40875244140625
6788925000.0 0.95654296875 1.13165283203125
6820146875.0 1.5621337890625 0.287841796875
6851368750.0 1.3272705078125 -0.82135009765625
6882590625.0 0.50628662109375 -1.34027099609375
6913812500.0 -0.2940673828125 -1.35791015625
6945034375.0 -1.07177734375 -1.0220947265625
6976256250.0 -1.59405517578125 -0.09228515625
7007478125.0 -1.23687744140625 0.93536376953125
7038700000.0 -0.40240478515625 1.34600830078125
7069921875.0 0.3594970703125 1.32525634765625
7101143750.0 1.12322998046875 0.97015380859375
7132365625.0 1.60150146484375 0.0145263671875
7163587500.0 1.15789794921875 -1.02435302734375
7194809375.0 0.301513671875 -1.399658203125
7226031250.0 -0.5130615234375 -1.32806396484375
7257253125.0 -1.26910400390625 -0.82568359375
7288475000.0 -1.5621337890625 0.19989013671875
7319696875.0 -1.03167724609375 1.11083984375
7350918750.0 -0.165283203125 1.44482421875
7382140625.0 0.71844482421875 1.27923583984375
7413362500.0 1.38153076171875 0.575927734375
7444584375.0 1.41351318359375 -0.408203125
7475806250.0 0.85833740234375 -1.14373779296875
7507028125.0 0.00360107421875 -1.4312744140625
7538250000.0 -0.88946533203125 -1.12451171875
7569471875.0 -1.337646484375 -0.3114013671875
7600693750.0 -1.20428466796875 0.49896240234375
7631915625.0 -0.71905517578125 1.087158203125
7663137500.0 0.0809326171875 1.36163330078125
7694359375.0 0.943023681640625 0.982208251953125
7725581250.0 1.24591064453125 0.180419921875
7756803125.0 1.0849609375 -0.4993896484375
7788025000.0 0.67120361328125 -1.0469970703125
7819246875.0 -0.1219482421875 -1.3504638671875
7850468750.0 -0.994659423828125 -0.916717529296875
7881690625.0 -1.2333984375 -0.1043701171875
7912912500.0 -1.05682373046875 0.55517578125
7944134375.0 -0.6053466796875 1.1162109375
7975356250.0 0.27447509765625 1.3365478515625
8006578125.0 1.04864501953125 0.77978515625
8037800000.0 1.195068359375 0.01519775390625
8069021875.0 1.007568359375 -0.6181640625
8100243750.0 0.49920654296875 -1.16351318359375
8131465625.0 -0.388671875 -1.25567626953125
8162687500.0 -1.03265380859375 -0.68682861328125
8193909375.0 -1.18310546875 0.009765625
8225131250.0 -1.01910400390625 0.678955078125
8256353125.0 -0.4215087890625 1.25189208984375
8287575000.0 0.501708984375 1.2281494140625
8318796875.0 1.08544921875 0.63623046875
8350018750.0 1.2471923828125 -0.07611083984375
8381240625.0 1.032958984375 -0.84222412109375
8412462500.0 0.25384521484375 -1.37615966796875
8443684375.0 -0.67236328125 -1.17132568359375
8474906250.0 -1.17626953125 -0.531494140625
8506128125.0 -1.30029296875 0.23895263671875
8537350000.0 -0.9241943359375 1.049560546875
8568571875.0 -0.01446533203125 1.3955078125
8599793750.0 0.80303955078125 1.05389404296875
8631015625.0 1.24310302734375 0.39886474609375
8662237500.0 1.287841796875 -0.43145751953125
8693459375.0 0.7373046875 -1.17999267578125
8724681250.0 -0.16387939453125 -1.3343505859375
8755903125.0 -0.88043212890625 -0.958465576171875
8787125000.0 -1.305908203125 -0.28277587890625
8818346875.0 -1.2537841796875 0.61822509765625
8849568750.0 -0.55621337890625 1.2626953125
8880790625.0 0.3001708984375 1.2864990234375
8912012500.0 0.98193359375 0.89373779296875
8943234375.0 1.4022216796875 0.127685546875
8974456250.0 1.16900634765625 -0.840576171875
9005678125.0 0.3468017578125 -1.31536865234375
9036900000.0 -0.44635009765625 -1.22625732421875
9068121875.0 -1.10394287109375 -0.7862548828125
9099343750.0 -1.4420166015625 0.09808349609375
9130565625.0 -0.97894287109375 1.01263427734375
9161787500.0 -0.154052734375 1.28546142578125
9193009375.0 0.5546875 1.1348876953125
9224231250.0 1.18035888671875 0.6561279296875
9255453125.0 1.40093994140625 -0.29541015625
9286675000.0 0.8079833984375 -1.0867919921875
9317896875.0 0.02618408203125 -1.24774169921875
9349118750.0 -0.6568603515625 -1.0709228515625
9380340625.0 -1.262939453125 -0.5101318359375
9411562500.0 -1.3140869140625 0.47808837890625
9442784375.0 -0.647705078125 1.12042236328125
9474006250.0 0.09014892578125 1.2125244140625
9505228125.0 0.768280029296875 0.981658935546875
9536450000.0 1.277099609375 0.3121337890625
9567671875.0 1.14556884765625 -0.58282470703125
9598893750.0 0.529052734375 -1.06976318359375
9630115625.0 -0.1446533203125 -1.15899658203125
9661337500.0 -0.82098388671875 -0.90277099609375
9692559375.0 -1.2403564453125 -0.18994140625
9723781250.0 -1.04461669921875 0.60479736328125
9755003125.0 -0.4862060546875 1.05126953125
9786225000.0 0.20013427734375 1.162109375
9817446875.0 0.8974609375 0.8287353515625
9848668750.0 1.20013427734375 0.07763671875
9879890625.0 0.969482421875 -0.6180419921875
9911112500.0 0.45343017578125 -1.05328369140625
9942334375.0 -0.26898193359375 -1.1614990234375
9973556250.0 -0.947021484375 -0.73809814453125
10004778125.0 -1.1490478515625 -0.014892578125
10036000000.0 -0.94537353515625 0.61785888671875
10067221875.0 -0.44134521484375 1.09832763671875
10098443750.0 0.3717041015625 1.1834716796875
10129665625.0 1.005859375 0.6431884765625
10160887500.0 1.120849609375 -0.05291748046875
10192109375.0 0.918548583984375 -0.664764404296875
10223331250.0 0.359619140625 -1.15484619140625
10254553125.0 -0.488037109375 -1.11505126953125
10285775000.0 -0.986968994140625 -0.53582763671875
10316996875.0 -1.06829833984375 0.076416015625
10348218750.0 -0.901336669921875 0.673095703125
10379440625.0 -0.32196044921875 1.17730712890625
10410662500.0 0.52935791015625 1.086669921875
10441884375.0 0.9951171875 0.5220947265625
10473106250.0 1.111328125 -0.086181640625
10504328125.0 0.9508056640625 -0.759796142578125
10535550000.0 0.23748779296875 -1.2978515625
10566771875.0 -0.66058349609375 -1.0782470703125
10597993750.0 -1.08258056640625 -0.45916748046875
10629215625.0 -1.17718505859375 0.2060546875
10660437500.0 -0.888092041015625 0.95263671875
10691659375.0 -0.00811767578125 1.3380126953125
10722881250.0 0.785919189453125 0.95245361328125
10754103125.0 1.12237548828125 0.3228759765625
10785325000.0 1.14056396484375 -0.36767578125
10816546875.0 0.70172119140625 -1.0513916015625
10847768750.0 -0.14776611328125 -1.23114013671875
10878990625.0 -0.8043212890625 -0.84423828125
10910212500.0 -1.12652587890625 -0.24395751953125
10941434375.0 -1.09942626953125 0.4783935546875
10972656250.0 -0.56744384765625 1.087890625
11003878125.0 0.21820068359375 1.17584228515625
11035100000.0 0.8494873046875 0.822540283203125
11066321875.0 1.22308349609375 0.17431640625
11097543750.0 1.099609375 -0.6788330078125
11128765625.0 0.3848876953125 -1.20208740234375
11159987500.0 -0.3955078125 -1.14044189453125
11191209375.0 -1.0040283203125 -0.7022705078125
11222431250.0 -1.2750244140625 0.09619140625
11253653125.0 -0.8592529296875 0.897003173828125
11284875000.0 -0.11309814453125 1.12872314453125
11316096875.0 0.51220703125 0.957122802734375
11347318750.0 1.00543212890625 0.501708984375
11378540625.0 1.11737060546875 -0.27032470703125
11409762500.0 0.63519287109375 -0.86224365234375
11440984375.0 0.035858154296875 -0.979644775390625
11472206250.0 -0.48248291015625 -0.850860595703125
11503428125.0 -0.956024169921875 -0.455841064453125
11534650000.0 -1.06988525390625 0.2896728515625
11565871875.0 -0.602447509765625 0.85662841796875
11597093750.0 -0.01739501953125 0.993560791015625
11628315625.0 0.54681396484375 0.876617431640625
11659537500.0 1.06427001953125 0.3912353515625
11690759375.0 1.066650390625 -0.43621826171875
11721981250.0 0.5172119140625 -0.9407958984375
11753203125.0 -0.10675048828125 -1.0367431640625
11784425000.0 -0.727569580078125 -0.80877685546875
11815646875.0 -1.101318359375 -0.150390625
11846868750.0 -0.892333984375 0.553558349609375
11878090625.0 -0.390472412109375 0.90997314453125
11909312500.0 0.187164306640625 0.985565185546875
11940534375.0 0.782623291015625 0.6959228515625
11971756250.0 1.02691650390625 0.0390625
12002978125.0 0.8076171875 -0.5396728515625
12034200000.0 0.3812255859375 -0.89044189453125
12065421875.0 -0.216796875 -1.0123291015625
12096643750.0 -0.84918212890625 -0.66583251953125
12127865625.0 -1.034423828125 0.017333984375
12159087500.0 -0.816162109375 0.577178955078125
12190309375.0 -0.376983642578125 0.978546142578125
12221531250.0 0.3394775390625 1.0888671875
12252753125.0 0.98272705078125 0.581390380859375
12283975000.0 1.0562744140625 -0.12908935546875
12315196875.0 0.800140380859375 -0.677032470703125
12346418750.0 0.27978515625 -1.09490966796875
12377640625.0 -0.53955078125 -1.06109619140625
12408862500.0 -1.03631591796875 -0.4183349609375
12440084375.0 -1.01080322265625 0.2274169921875
12471306250.0 -0.741607666015625 0.738250732421875
12502528125.0 -0.17919921875 1.1214599609375
12533750000.0 0.62152099609375 0.99517822265625
12564971875.0 1.04266357421875 0.36297607421875
12596193750.0 1.03076171875 -0.26513671875
12627415625.0 0.74822998046875 -0.830902099609375
12658637500.0 0.07781982421875 -1.209716796875
12689859375.0 -0.739898681640625 -0.96759033203125
12721081250.0 -1.1214599609375 -0.30511474609375
12752303125.0 -1.100341796875 0.384033203125
12783525000.0 -0.6871337890625 1.02947998046875
12814746875.0 0.1666259765625 1.25299072265625
12845968750.0 0.864990234375 0.810882568359375
12877190625.0 1.1199951171875 0.170654296875
12908412500.0 1.056884765625 -0.50250244140625
12939634375.0 0.5426025390625 -1.12030029296875
12970856250.0 -0.32366943359375 -1.17767333984375
13002078125.0 -0.89654541015625 -0.6932373046875
13033300000.0 -1.106689453125 -0.0858154296875
13064521875.0 -1.01007080078125 0.5950927734375
13095743750.0 -0.41912841796875 1.15899658203125
13126965625.0 0.4111328125 1.12158203125
13158187500.0 0.948883056640625 0.632293701171875
13189409375.0 1.15130615234375 -0.02288818359375
13220631250.0 0.936798095703125 -0.751068115234375
13251853125.0 0.23388671875 -1.1741943359375
13283075000.0 -0.51019287109375 -1.02081298828125
13314296875.0 -0.989013671875 -0.529022216796875
13345518750.0 -1.1361083984375 0.17864990234375
13376740625.0 -0.753662109375 0.86041259765625
