!Created with skrf (http://scikit-rf.org).
# Hz S RI R 50.0 
!freq ReS11 ImS11
45000000.0 -0.07711029052734375 -0.09675979614257812
76221875.0 -0.19646453857421875 -0.04746246337890625
107443750.0 -0.2548980712890625 0.1201019287109375
138665625.0 -0.1479644775390625 0.32843017578125
169887500.0 0.1238250732421875 0.417388916015625
201109375.0 0.421905517578125 0.28057861328125
232331250.0 0.578765869140625 -0.057861328125
263553125.0 0.4890594482421875 -0.4531707763671875
294775000.0 0.0980224609375 -0.73223876953125
325996875.0 -0.41571044921875 -0.680084228515625
357218750.0 -0.806365966796875 -0.296539306640625
388440625.0 -0.885101318359375 0.300994873046875
419662500.0 -0.51678466796875 0.866607666015625
450884375.0 0.173583984375 1.02838134765625
482106250.0 0.798583984375 0.711822509765625
513328125.0 1.1190185546875 0.086669921875
544550000.0 1.00299072265625 -0.68023681640625
575771875.0 0.33575439453125 -1.23797607421875
606993750.0 -0.5543212890625 -1.17669677734375
638215625.0 -1.1656494140625 -0.5894775390625
669437500.0 -1.339111328125 0.2344970703125
700659375.0 -0.9698486328125 1.0965576171875
731881250.0 -0.00274658203125 1.54205322265625
763103125.0 1.00567626953125 1.15472412109375
794325000.0 1.468017578125 0.281005859375
825546875.0 1.3662109375 -0.65203857421875
856768750.0 0.793212890625 -1.40020751953125
887990625.0 -0.2930908203125 -1.64715576171875
919212500.0 -1.288330078125 -1.0771484375
950434375.0 -1.64764404296875 -0.058349609375
981656250.0 -1.3814697265625 0.94622802734375
1012878125.0 -0.529052734375 1.67095947265625
1044100000.0 0.6976318359375 1.66021728515625
1075321875.0 1.5738525390625 0.8109130859375
1106543750.0 1.70281982421875 -0.3133544921875
1137765625.0 1.1851806640625 -1.2841796875
1168987500.0 0.1368408203125 -1.79541015625
1200209375.0 -1.0618896484375 -1.4818115234375
1231431250.0 -1.7259521484375 -0.45208740234375
1262653125.0 -1.59234619140625 0.68499755859375
1293875000.0 -0.85040283203125 1.49078369140625
1325096875.0 0.22857666015625 1.70458984375
1356318750.0 1.23492431640625 1.21514892578125
1387540625.0 1.73858642578125 0.187744140625
1418762500.0 1.46771240234375 -0.9515380859375
1449984375.0 0.5283203125 -1.62457275390625
1481206250.0 -0.5499267578125 -1.55426025390625
1512428125.0 -1.3414306640625 -0.91839599609375
1543650000.0 -1.65423583984375 0.06640625
1574871875.0 -1.2720947265625 1.108642578125
1606093750.0 -0.27166748046875 1.63037109375
1637315625.0 0.74212646484375 1.39886474609375
1668537500.0 1.39544677734375 0.6942138671875
1699759375.0 1.5714111328125 -0.2779541015625
1730981250.0 1.0626220703125 -1.22900390625
1762203125.0 0.04168701171875 -1.56890869140625
1793425000.0 -0.85565185546875 -1.2249755859375
1824646875.0 -1.39251708984375 -0.51422119140625
1855868750.0 -1.47271728515625 0.43255615234375
1887090625.0 -0.87384033203125 1.28424072265625
1918312500.0 0.11749267578125 1.4853515625
1949534375.0 0.92144775390625 1.087890625
1980756250.0 1.3741455078125 0.3692626953125
2011978125.0 1.358154296875 -0.53192138671875
2043200000.0 0.74871826171875 -1.2607421875
2074421875.0 -0.15716552734375 -1.43133544921875
2105643750.0 -0.95977783203125 -1.0711669921875
2136865625.0 -1.44610595703125 -0.30419921875
2168087500.0 -1.35565185546875 0.67108154296875
2199309375.0 -0.6380615234375 1.34954833984375
2230531250.0 0.28179931640625 1.4345703125
2261753125.0 1.0718994140625 1.01251220703125
2292975000.0 1.51287841796875 0.16943359375
2324196875.0 1.3038330078125 -0.81842041015625
2355418750.0 0.5242919921875 -1.4190673828125
2386640625.0 -0.4044189453125 -1.44744873046875
2417862500.0 -1.1805419921875 -1.02325439453125
2449084375.0 -1.603271484375 -0.08343505859375
2480306250.0 -1.31011962890625 0.92547607421875
2511528125.0 -0.4927978515625 1.5062255859375
2542750000.0 0.4893798828125 1.5350341796875
2573971875.0 1.36859130859375 0.96661376953125
2605193750.0 1.71453857421875 -0.1126708984375
2636415625.0 1.25970458984375 -1.150634765625
2667637500.0 0.30560302734375 -1.66485595703125
2698859375.0 -0.76824951171875 -1.5321044921875
2730081250.0 -1.57208251953125 -0.7388916015625
2761303125.0 -1.67938232421875 0.38836669921875
2792525000.0 -1.097900390625 1.30621337890625
2823746875.0 -0.10186767578125 1.72808837890625
2854968750.0 1.01171875 1.45281982421875
2886190625.0 1.68975830078125 0.49041748046875
2917412500.0 1.5980224609375 -0.61785888671875
2948634375.0 0.93780517578125 -1.43267822265625
2979856250.0 -0.1082763671875 -1.77484130859375
3011078125.0 -1.24615478515625 -1.3404541015625
3042300000.0 -1.7730712890625 -0.23333740234375
3073521875.0 -1.5064697265625 0.83721923828125
3104743750.0 -0.76226806640625 1.56707763671875
3135965625.0 0.36199951171875 1.806396484375
3167187500.0 1.49713134765625 1.161865234375
3198409375.0 1.81365966796875 -0.07598876953125
3229631250.0 1.346435546875 -1.08111572265625
3260853125.0 0.4879150390625 -1.6669921875
3292075000.0 -0.65472412109375 -1.69549560546875
3323296875.0 -1.6170654296875 -0.8778076171875
3354518750.0 -1.72723388671875 0.328857421875
3385740625.0 -1.153564453125 1.23052978515625
3416962500.0 -0.23077392578125 1.67852783203125
3448184375.0 0.8587646484375 1.51953125
3479406250.0 1.6331787109375 0.64337158203125
3510628125.0 1.6419677734375 -0.49432373046875
3541850000.0 0.9986572265625 -1.35467529296875
3573071875.0 -0.00775146484375 -1.68048095703125
3604293750.0 -1.0264892578125 -1.3350830078125
3635515625.0 -1.62548828125 -0.43731689453125
3666737500.0 -1.559814453125 0.64605712890625
3697959375.0 -0.82354736328125 1.47393798828125
3729181250.0 0.268798828125 1.6285400390625
3760403125.0 1.15191650390625 1.095947265625
3791625000.0 1.5509033203125 0.21722412109375
3822846875.0 1.39959716796875 -0.7598876953125
3854068750.0 0.61920166015625 -1.47894287109375
3885290625.0 -0.4197998046875 -1.47802734375
3916512500.0 -1.1400146484375 -0.90966796875
3947734375.0 -1.44476318359375 -0.11944580078125
3978956250.0 -1.29559326171875 0.77813720703125
4010178125.0 -0.53076171875 1.452392578125
4041400000.0 0.47296142578125 1.4139404296875
4072621875.0 1.15020751953125 0.846923828125
4103843750.0 1.44219970703125 0.0634765625
4135065625.0 1.2657470703125 -0.84490966796875
4166287500.0 0.45672607421875 -1.49444580078125
4197509375.0 -0.5574951171875 -1.41412353515625
4228731250.0 -1.2474365234375 -0.80157470703125
4259953125.0 -1.5067138671875 0.0699462890625
4291175000.0 -1.1868896484375 1.00982666015625
4322396875.0 -0.28857421875 1.52496337890625
4353618750.0 0.67242431640625 1.3480224609375
4384840625.0 1.3206787109375 0.696533203125
4416062500.0 1.4989013671875 -0.227294921875
4447284375.0 1.0535888671875 -1.10260009765625
4478506250.0 0.17144775390625 -1.49420166015625
4509728125.0 -0.7320556640625 -1.306640625
4540950000.0 -1.39215087890625 -0.63519287109375
4572171875.0 -1.52001953125 0.35870361328125
4603393750.0 -0.97119140625 1.2113037109375
4634615625.0 -0.0615234375 1.53485107421875
4665837500.0 0.86981201171875 1.30316162109375
4697059375.0 1.538330078125 0.51495361328125
4728281250.0 1.527587890625 -0.5823974609375
4759503125.0 0.8226318359375 -1.366455078125
4790725000.0 -0.14556884765625 -1.5714111328125
4821946875.0 -1.0816650390625 -1.1927490234375
4853168750.0 -1.6112060546875 -0.251220703125
4884390625.0 -1.37677001953125 0.79278564453125
4915612500.0 -0.6124267578125 1.41107177734375
4946834375.0 0.32757568359375 1.50653076171875
4978056250.0 1.20233154296875 1.01580810546875
5009278125.0 1.56036376953125 0.0394287109375
5040500000.0 1.2276611328125 -0.875
5071721875.0 0.5008544921875 -1.4127197265625
5102943750.0 -0.44537353515625 -1.4951171875
5134165625.0 -1.335205078125 -0.90411376953125
5165387500.0 -1.56597900390625 0.145263671875
5196609375.0 -1.1348876953125 1.00823974609375
5227831250.0 -0.35760498046875 1.50408935546875
5259053125.0 0.6864013671875 1.489990234375
5290275000.0 1.51922607421875 0.662841796875
5321496875.0 1.49072265625 -0.42938232421875
5352718750.0 0.91986083984375 -1.15301513671875
5383940625.0 0.09710693359375 -1.498779296875
5415162500.0 -0.89971923828125 -1.2822265625
5446384375.0 -1.4842529296875 -0.36920166015625
5477606250.0 -1.2978515625 0.56610107421875
5508828125.0 -0.73040771484375 1.150390625
5540050000.0 0.05401611328125 1.39703369140625
5571271875.0 0.9375 1.1075439453125
5602493750.0 1.4068603515625 0.2598876953125
5633715625.0 1.2308349609375 -0.61187744140625
5664937500.0 0.6474609375 -1.20062255859375
5696159375.0 -0.1961669921875 -1.3824462890625
5727381250.0 -1.021240234375 -0.97796630859375
5758603125.0 -1.39044189453125 -0.1451416015625
5789825000.0 -1.19317626953125 0.7161865234375
5821046875.0 -0.5062255859375 1.3060302734375
5852268750.0 0.41094970703125 1.3116455078125
5883490625.0 1.070068359375 0.77191162109375
5914712500.0 1.301513671875 0.0201416015625
5945934375.0 1.09552001953125 -0.77362060546875
5977156250.0 0.36083984375 -1.3114013671875
6008378125.0 -0.5089111328125 -1.181396484375
6039600000.0 -1.021240234375 -0.64849853515625
6070821875.0 -1.221923828125 -0.00482177734375
6102043750.0 -1.08251953125 0.76263427734375
6133265625.0 -0.34210205078125 1.343017578125
6164487500.0 0.5623779296875 1.1866455078125
6195709375.0 1.0697021484375 0.6295166015625
6226931250.0 1.278076171875 -0.0421142578125
6258153125.0 1.103759765625 -0.8701171875
6289375000.0 0.2567138671875 -1.44482421875
6320596875.0 -0.6888427734375 -1.20538330078125
6351818750.0 -1.19976806640625 -0.57159423828125
6383040625.0 -1.3531494140625 0.20587158203125
6414262500.0 -0.99920654296875 1.05670166015625
6445484375.0 -0.07916259765625 1.455078125
6476706250.0 0.795166015625 1.14703369140625
6507928125.0 1.2904052734375 0.46923828125
6539150000.0 1.3466796875 -0.38629150390625
6570371875.0 0.840576171875 -1.1414794921875
6601593750.0 -0.01776123046875 -1.4036865234375
6632815625.0 -0.83929443359375 -1.1351318359375
6664037500.0 -1.4007568359375 -0.41961669921875
6695259375.0 -1.372802734375 0.5657958984375
6726481250.0 -0.71044921875 1.2491455078125
6757703125.0 0.129638671875 1.40509033203125
6788925000.0 0.95367431640625 1.1300048828125
6820146875.0 1.559814453125 0.28741455078125
6851368750.0 1.3253173828125 -0.81903076171875
6882590625.0 0.505859375 -1.33843994140625
6913812500.0 -0.29168701171875 -1.35504150390625
6945034375.0 -1.06903076171875 -1.0208740234375
6976256250.0 -1.591796875 -0.093505859375
7007478125.0 -1.2359619140625 0.93133544921875
7038700000.0 -0.40179443359375 1.3424072265625
7069921875.0 0.35797119140625 1.32183837890625
7101143750.0 1.11785888671875 0.96746826171875
7132365625.0 1.59881591796875 0.01458740234375
7163587500.0 1.15655517578125 -1.021484375
7194809375.0 0.30230712890625 -1.39825439453125
7226031250.0 -0.51141357421875 -1.32379150390625
7257253125.0 -1.26300048828125 -0.8240966796875
7288475000.0 -1.55755615234375 0.19805908203125
7319696875.0 -1.02874755859375 1.10833740234375
7350918750.0 -0.16387939453125 1.44415283203125
7382140625.0 0.715087890625 1.27557373046875
7413362500.0 1.3740234375 0.57611083984375
7444584375.0 1.41021728515625 -0.4049072265625
7475806250.0 0.857177734375 -1.1429443359375
7507028125.0 0.00579833984375 -1.42877197265625
7538250000.0 -0.88787841796875 -1.123291015625
7569471875.0 -1.33514404296875 -0.31048583984375
7600693750.0 -1.2008056640625 0.49554443359375
7631915625.0 -0.717041015625 1.08502197265625
7663137500.0 0.08050537109375 1.35711669921875
7694359375.0 0.9393310546875 0.979461669921875
7725581250.0 1.24322509765625 0.1805419921875
7756803125.0 1.08160400390625 -0.49847412109375
7788025000.0 0.66961669921875 -1.04241943359375
7819246875.0 -0.1201171875 -1.344970703125
7850468750.0 -0.991119384765625 -0.915557861328125
7881690625.0 -1.23065185546875 -0.10498046875
7912912500.0 -1.05487060546875 0.5543212890625
7944134375.0 -0.60491943359375 1.111572265625
7975356250.0 0.27227783203125 1.33563232421875
8006578125.0 1.04681396484375 0.7779541015625
8037800000.0 1.1925048828125 0.0167236328125
8069021875.0 1.00543212890625 -0.6165771484375
8100243750.0 0.49951171875 -1.160888671875
8131465625.0 -0.38568115234375 -1.25372314453125
8162687500.0 -1.03143310546875 -0.68597412109375
8193909375.0 -1.17987060546875 0.008544921875
8225131250.0 -1.015869140625 0.67645263671875
8256353125.0 -0.42193603515625 1.24969482421875
8287575000.0 0.49981689453125 1.2254638671875
8318796875.0 1.07989501953125 0.635498046875
8350018750.0 1.24322509765625 -0.07403564453125
8381240625.0 1.0306396484375 -0.84002685546875
8412462500.0 0.25518798828125 -1.3721923828125
8443684375.0 -0.6693115234375 -1.17010498046875
8474906250.0 -1.17474365234375 -0.53228759765625
8506128125.0 -1.29632568359375 0.23553466796875
8537350000.0 -0.92510986328125 1.04693603515625
8568571875.0 -0.01605224609375 1.39532470703125
8599793750.0 0.80157470703125 1.05303955078125
8631015625.0 1.24066162109375 0.3988037109375
8662237500.0 1.28369140625 -0.42803955078125
8693459375.0 0.73602294921875 -1.17730712890625
8724681250.0 -0.16180419921875 -1.33056640625
8755903125.0 -0.87933349609375 -0.957183837890625
8787125000.0 -1.303955078125 -0.28131103515625
8818346875.0 -1.25067138671875 0.61492919921875
8849568750.0 -0.55560302734375 1.26104736328125
8880790625.0 0.29718017578125 1.283447265625
8912012500.0 0.979736328125 0.89276123046875
8943234375.0 1.39813232421875 0.12921142578125
8974456250.0 1.16644287109375 -0.83612060546875
9005678125.0 0.348876953125 -1.31207275390625
9036900000.0 -0.44342041015625 -1.2239990234375
9068121875.0 -1.101806640625 -0.7861328125
9099343750.0 -1.440673828125 0.09912109375
9130565625.0 -0.98052978515625 1.0118408203125
9161787500.0 -0.1527099609375 1.28350830078125
9193009375.0 0.55230712890625 1.1324462890625
9224231250.0 1.1787109375 0.65411376953125
9255453125.0 1.39788818359375 -0.2957763671875
9286675000.0 0.80645751953125 -1.0853271484375
9317896875.0 0.0272216796875 -1.24639892578125
9349118750.0 -0.65447998046875 -1.070068359375
9380340625.0 -1.25640869140625 -0.50946044921875
9411562500.0 -1.3111572265625 0.47576904296875
9442784375.0 -0.64739990234375 1.11468505859375
9474006250.0 0.0869140625 1.21002197265625
9505228125.0 0.763671875 0.98016357421875
9536450000.0 1.2730712890625 0.3138427734375
9567671875.0 1.14385986328125 -0.57818603515625
9598893750.0 0.52978515625 -1.06744384765625
9630115625.0 -0.14324951171875 -1.1583251953125
9661337500.0 -0.817840576171875 -0.9017333984375
9692559375.0 -1.23834228515625 -0.19085693359375
9723781250.0 -1.044189453125 0.60443115234375
9755003125.0 -0.4854736328125 1.05133056640625
9786225000.0 0.19732666015625 1.158203125
9817446875.0 0.895233154296875 0.828582763671875
9848668750.0 1.1993408203125 0.0771484375
9879890625.0 0.968414306640625 -0.615997314453125
9911112500.0 0.4521484375 -1.0516357421875
9942334375.0 -0.266845703125 -1.1585693359375
9973556250.0 -0.942626953125 -0.73870849609375
10004778125.0 -1.1458740234375 -0.01806640625
10036000000.0 -0.94439697265625 0.615478515625
10067221875.0 -0.442138671875 1.094970703125
10098443750.0 0.36810302734375 1.1802978515625
10129665625.0 0.99932861328125 0.6441650390625
10160887500.0 1.120361328125 -0.0517578125
10192109375.0 0.918121337890625 -0.663177490234375
10223331250.0 0.36090087890625 -1.15234375
10254553125.0 -0.48529052734375 -1.11370849609375
10285775000.0 -0.984710693359375 -0.53643798828125
10316996875.0 -1.0667724609375 0.076904296875
10348218750.0 -0.899444580078125 0.66943359375
10379440625.0 -0.32196044921875 1.17620849609375
10410662500.0 0.525634765625 1.0848388671875
10441884375.0 0.993621826171875 0.520965576171875
10473106250.0 1.10797119140625 -0.08197021484375
10504328125.0 0.948455810546875 -0.757293701171875
10535550000.0 0.23944091796875 -1.29522705078125
10566771875.0 -0.65576171875 -1.0775146484375
10597993750.0 -1.0814208984375 -0.46051025390625
10629215625.0 -1.1746826171875 0.20513916015625
10660437500.0 -0.88751220703125 0.951629638671875
10691659375.0 -0.01104736328125 1.33538818359375
10722881250.0 0.78466796875 0.95306396484375
10754103125.0 1.1177978515625 0.32568359375
10785325000.0 1.1385498046875 -0.3675537109375
10816546875.0 0.701171875 -1.04840087890625
10847768750.0 -0.1441650390625 -1.2283935546875
10878990625.0 -0.80419921875 -0.843994140625
10910212500.0 -1.123046875 -0.24505615234375
10941434375.0 -1.09832763671875 0.475830078125
10972656250.0 -0.56787109375 1.0848388671875
11003878125.0 0.217041015625 1.17303466796875
11035100000.0 0.846832275390625 0.82147216796875
11066321875.0 1.22125244140625 0.173828125
11097543750.0 1.0980224609375 -0.67608642578125
11128765625.0 0.3873291015625 -1.19635009765625
11159987500.0 -0.39501953125 -1.13983154296875
11191209375.0 -0.99835205078125 -0.702423095703125
11222431250.0 -1.2720947265625 0.09259033203125
11253653125.0 -0.858673095703125 0.89288330078125
11284875000.0 -0.11395263671875 1.1273193359375
11316096875.0 0.5107421875 0.956146240234375
11347318750.0 1.00262451171875 0.502197265625
11378540625.0 1.11578369140625 -0.26739501953125
11409762500.0 0.634521484375 -0.857391357421875
11440984375.0 0.03607177734375 -0.977569580078125
11472206250.0 -0.482696533203125 -0.849761962890625
11503428125.0 -0.95428466796875 -0.455352783203125
11534650000.0 -1.06854248046875 0.28790283203125
11565871875.0 -0.602691650390625 0.853607177734375
11597093750.0 -0.01885986328125 0.990875244140625
11628315625.0 0.5439453125 0.874725341796875
11659537500.0 1.05902099609375 0.392333984375
11690759375.0 1.06494140625 -0.43304443359375
11721981250.0 0.5172119140625 -0.93988037109375
11753203125.0 -0.10565185546875 -1.0361328125
11784425000.0 -0.723846435546875 -0.808319091796875
11815646875.0 -1.1004638671875 -0.1527099609375
11846868750.0 -0.891265869140625 0.5498046875
11878090625.0 -0.391265869140625 0.90875244140625
11909312500.0 0.1865234375 0.983673095703125
11940534375.0 0.7796630859375 0.6951904296875
11971756250.0 1.02459716796875 0.039794921875
12002978125.0 0.80706787109375 -0.53955078125
12034200000.0 0.3822021484375 -0.8876953125
12065421875.0 -0.2132568359375 -1.0093994140625
12096643750.0 -0.846435546875 -0.66552734375
12127865625.0 -1.0333251953125 0.01702880859375
12159087500.0 -0.81463623046875 0.575286865234375
12190309375.0 -0.37835693359375 0.975555419921875
12221531250.0 0.33831787109375 1.0880126953125
12252753125.0 0.978424072265625 0.582061767578125
12283975000.0 1.054443359375 -0.12786865234375
12315196875.0 0.8001708984375 -0.676483154296875
12346418750.0 0.2816162109375 -1.09173583984375
12377640625.0 -0.5380859375 -1.05950927734375
12408862500.0 -1.0335693359375 -0.41986083984375
12440084375.0 -1.00738525390625 0.2232666015625
12471306250.0 -0.74176025390625 0.737060546875
12502528125.0 -0.17950439453125 1.11883544921875
12533750000.0 0.618072509765625 0.99310302734375
12564971875.0 1.04180908203125 0.36468505859375
12596193750.0 1.02911376953125 -0.2640380859375
12627415625.0 0.747833251953125 -0.829193115234375
12658637500.0 0.080078125 -1.20672607421875
12689859375.0 -0.73553466796875 -0.9661865234375
12721081250.0 -1.11688232421875 -0.30657958984375
12752303125.0 -1.0982666015625 0.380859375
12783525000.0 -0.68890380859375 1.02423095703125
12814746875.0 0.1639404296875 1.25054931640625
12845968750.0 0.862548828125 0.811798095703125
12877190625.0 1.11627197265625 0.1728515625
12908412500.0 1.05584716796875 -0.5010986328125
12939634375.0 0.54345703125 -1.11676025390625
12970856250.0 -0.31939697265625 -1.1749267578125
13002078125.0 -0.894195556640625 -0.69384765625
13033300000.0 -1.10546875 -0.08709716796875
13064521875.0 -1.0084228515625 0.5914306640625
13095743750.0 -0.42083740234375 1.15631103515625
13126965625.0 0.40966796875 1.12017822265625
13158187500.0 0.9461669921875 0.632568359375
13189409375.0 1.1475830078125 -0.02081298828125
13220631250.0 0.936767578125 -0.746673583984375
13251853125.0 0.23406982421875 -1.1712646484375
13283075000.0 -0.5064697265625 -1.01898193359375
13314296875.0 -0.987762451171875 -0.52923583984375
13345518750.0 -1.13409423828125 0.17529296875
