!Created with skrf (http://scikit-rf.org).
# Hz S RI R 50.0 
!freq ReS11 ImS11
45000000.0 -0.07708358764648438 -0.09668350219726562
76221875.0 -0.19647216796875 -0.04753875732421875
107443750.0 -0.2548065185546875 0.1199798583984375
138665625.0 -0.148040771484375 0.3289031982421875
169887500.0 0.123931884765625 0.417510986328125
201109375.0 0.42218017578125 0.28070068359375
232331250.0 0.57904052734375 -0.05780029296875
263553125.0 0.489410400390625 -0.4535064697265625
294775000.0 0.098052978515625 -0.732574462890625
325996875.0 -0.41607666015625 -0.680511474609375
357218750.0 -0.806884765625 -0.296630859375
388440625.0 -0.885772705078125 0.301300048828125
419662500.0 -0.5167236328125 0.866851806640625
450884375.0 0.17401123046875 1.02886962890625
482106250.0 0.799163818359375 0.712249755859375
513328125.0 1.1195068359375 0.08648681640625
544550000.0 1.00341796875 -0.68060302734375
575771875.0 0.33544921875 -1.23834228515625
606993750.0 -0.5545654296875 -1.177001953125
638215625.0 -1.16619873046875 -0.58953857421875
669437500.0 -1.33953857421875 0.23431396484375
700659375.0 -0.97021484375 1.09710693359375
731881250.0 -0.00286865234375 1.54302978515625
763103125.0 1.0062255859375 1.15521240234375
794325000.0 1.46868896484375 0.28082275390625
825546875.0 1.36676025390625 -0.65234375
856768750.0 0.79345703125 -1.40185546875
887990625.0 -0.2938232421875 -1.64813232421875
919212500.0 -1.288818359375 -1.0777587890625
950434375.0 -1.6490478515625 -0.057861328125
981656250.0 -1.38189697265625 0.94708251953125
1012878125.0 -0.5281982421875 1.67279052734375
1044100000.0 0.69793701171875 1.6612548828125
1075321875.0 1.57525634765625 0.8109130859375
1106543750.0 1.704345703125 -0.31427001953125
1137765625.0 1.1854248046875 -1.28497314453125
1168987500.0 0.13702392578125 -1.79681396484375
1200209375.0 -1.062744140625 -1.4825439453125
1231431250.0 -1.7271728515625 -0.45233154296875
1262653125.0 -1.59356689453125 0.685791015625
1293875000.0 -0.8504638671875 1.4923095703125
1325096875.0 0.229248046875 1.705810546875
1356318750.0 1.2354736328125 1.21588134765625
1387540625.0 1.73944091796875 0.187744140625
1418762500.0 1.46826171875 -0.9521484375
1449984375.0 0.5283203125 -1.62554931640625
1481206250.0 -0.55078125 -1.55548095703125
1512428125.0 -1.3419189453125 -0.9183349609375
1543650000.0 -1.65496826171875 0.06634521484375
1574871875.0 -1.2720947265625 1.10955810546875
1606093750.0 -0.271484375 1.6312255859375
1637315625.0 0.74310302734375 1.3997802734375
1668537500.0 1.39605712890625 0.69488525390625
1699759375.0 1.572265625 -0.27789306640625
1730981250.0 1.062744140625 -1.229248046875
1762203125.0 0.041015625 -1.56982421875
1793425000.0 -0.85614013671875 -1.22528076171875
1824646875.0 -1.3931884765625 -0.51434326171875
1855868750.0 -1.47320556640625 0.43255615234375
1887090625.0 -0.87432861328125 1.28509521484375
1918312500.0 0.1175537109375 1.48614501953125
1949534375.0 0.92218017578125 1.08831787109375
1980756250.0 1.374755859375 0.36920166015625
2011978125.0 1.35888671875 -0.53240966796875
2043200000.0 0.74884033203125 -1.2611083984375
2074421875.0 -0.15771484375 -1.4324951171875
2105643750.0 -0.96051025390625 -1.0712890625
2136865625.0 -1.44683837890625 -0.30389404296875
2168087500.0 -1.35601806640625 0.67132568359375
2199309375.0 -0.63812255859375 1.3504638671875
2230531250.0 0.28228759765625 1.43511962890625
2261753125.0 1.07244873046875 1.01336669921875
2292975000.0 1.513671875 0.16943359375
2324196875.0 1.3045654296875 -0.8189697265625
2355418750.0 0.5245361328125 -1.41900634765625
2386640625.0 -0.404541015625 -1.44818115234375
2417862500.0 -1.181396484375 -1.02337646484375
2449084375.0 -1.6038818359375 -0.083251953125
2480306250.0 -1.31109619140625 0.92645263671875
2511528125.0 -0.49267578125 1.507568359375
2542750000.0 0.48944091796875 1.5350341796875
2573971875.0 1.3701171875 0.9666748046875
2605193750.0 1.716552734375 -0.114013671875
2636415625.0 1.26055908203125 -1.152099609375
2667637500.0 0.30474853515625 -1.66748046875
2698859375.0 -0.76959228515625 -1.5328369140625
2730081250.0 -1.57293701171875 -0.739501953125
2761303125.0 -1.680419921875 0.38916015625
2792525000.0 -1.09820556640625 1.30718994140625
2823746875.0 -0.1014404296875 1.72784423828125
2854968750.0 1.0120849609375 1.45428466796875
2886190625.0 1.69195556640625 0.48992919921875
2917412500.0 1.5980224609375 -0.61712646484375
2948634375.0 0.9383544921875 -1.4339599609375
2979856250.0 -0.10882568359375 -1.77459716796875
3011078125.0 -1.24761962890625 -1.34075927734375
3042300000.0 -1.77398681640625 -0.23388671875
3073521875.0 -1.50714111328125 0.83734130859375
3104743750.0 -0.76202392578125 1.56591796875
3135965625.0 0.36297607421875 1.80804443359375
3167187500.0 1.4993896484375 1.163818359375
3198409375.0 1.8154296875 -0.07745361328125
3229631250.0 1.34765625 -1.08172607421875
3260853125.0 0.48785400390625 -1.66802978515625
3292075000.0 -0.655517578125 -1.69598388671875
3323296875.0 -1.617919921875 -0.878173828125
3354518750.0 -1.72821044921875 0.328857421875
3385740625.0 -1.1544189453125 1.23065185546875
3416962500.0 -0.23095703125 1.67962646484375
3448184375.0 0.860107421875 1.52032470703125
3479406250.0 1.63543701171875 0.64276123046875
3510628125.0 1.642822265625 -0.49639892578125
3541850000.0 0.99884033203125 -1.35479736328125
3573071875.0 -0.008544921875 -1.681396484375
3604293750.0 -1.02716064453125 -1.33612060546875
3635515625.0 -1.62744140625 -0.43768310546875
3666737500.0 -1.560791015625 0.64727783203125
3697959375.0 -0.82342529296875 1.4754638671875
3729181250.0 0.26959228515625 1.62994384765625
3760403125.0 1.15118408203125 1.0963134765625
3791625000.0 1.55108642578125 0.2176513671875
3822846875.0 1.40045166015625 -0.7606201171875
3854068750.0 0.61962890625 -1.47991943359375
3885290625.0 -0.4207763671875 -1.47943115234375
3916512500.0 -1.14141845703125 -0.9100341796875
3947734375.0 -1.44573974609375 -0.119384765625
3978956250.0 -1.29656982421875 0.7796630859375
4010178125.0 -0.53070068359375 1.45343017578125
4041400000.0 0.4736328125 1.4144287109375
4072621875.0 1.150634765625 0.8468017578125
4103843750.0 1.443115234375 0.063232421875
4135065625.0 1.26666259765625 -0.8455810546875
4166287500.0 0.45697021484375 -1.49566650390625
4197509375.0 -0.5577392578125 -1.413818359375
4228731250.0 -1.24749755859375 -0.80157470703125
4259953125.0 -1.50823974609375 0.07147216796875
4291175000.0 -1.18756103515625 1.01080322265625
4322396875.0 -0.2889404296875 1.525390625
4353618750.0 0.6724853515625 1.34820556640625
4384840625.0 1.3211669921875 0.6961669921875
4416062500.0 1.49969482421875 -0.22784423828125
4447284375.0 1.05377197265625 -1.103271484375
4478506250.0 0.1715087890625 -1.49505615234375
4509728125.0 -0.73193359375 -1.30596923828125
4540950000.0 -1.3931884765625 -0.63543701171875
4572171875.0 -1.52093505859375 0.35980224609375
4603393750.0 -0.97186279296875 1.2103271484375
4634615625.0 -0.0609130859375 1.53607177734375
4665837500.0 0.8697509765625 1.30352783203125
4697059375.0 1.54010009765625 0.515380859375
4728281250.0 1.5274658203125 -0.5814208984375
4759503125.0 0.8226318359375 -1.365966796875
4790725000.0 -0.14520263671875 -1.57147216796875
4821946875.0 -1.08404541015625 -1.19281005859375
4853168750.0 -1.61212158203125 -0.25103759765625
4884390625.0 -1.37744140625 0.794189453125
4915612500.0 -0.61285400390625 1.41168212890625
4946834375.0 0.3291015625 1.50787353515625
4978056250.0 1.2052001953125 1.01654052734375
5009278125.0 1.56103515625 0.0394287109375
5040500000.0 1.22845458984375 -0.87567138671875
5071721875.0 0.5003662109375 -1.41357421875
5102943750.0 -0.44635009765625 -1.495361328125
5134165625.0 -1.3333740234375 -0.90460205078125
5165387500.0 -1.5675048828125 0.14581298828125
5196609375.0 -1.13568115234375 1.0093994140625
5227831250.0 -0.35772705078125 1.50445556640625
5259053125.0 0.68768310546875 1.49169921875
5290275000.0 1.52093505859375 0.661865234375
5321496875.0 1.49163818359375 -0.4307861328125
5352718750.0 0.9205322265625 -1.15277099609375
5383940625.0 0.0958251953125 -1.4998779296875
5415162500.0 -0.90118408203125 -1.28265380859375
5446384375.0 -1.4837646484375 -0.3695068359375
5477606250.0 -1.2978515625 0.5654296875
5508828125.0 -0.73028564453125 1.1513671875
5540050000.0 0.054443359375 1.39794921875
5571271875.0 0.9383544921875 1.10797119140625
5602493750.0 1.4075927734375 0.25982666015625
5633715625.0 1.23089599609375 -0.61187744140625
5664937500.0 0.64739990234375 -1.20123291015625
5696159375.0 -0.19769287109375 -1.38433837890625
5727381250.0 -1.021240234375 -0.97808837890625
5758603125.0 -1.39068603515625 -0.144775390625
5789825000.0 -1.193603515625 0.7166748046875
5821046875.0 -0.50616455078125 1.30706787109375
5852268750.0 0.4111328125 1.31256103515625
5883490625.0 1.07122802734375 0.77197265625
5914712500.0 1.30206298828125 0.01971435546875
5945934375.0 1.0958251953125 -0.77545166015625
5977156250.0 0.36090087890625 -1.31146240234375
6008378125.0 -0.509033203125 -1.1815185546875
6039600000.0 -1.02178955078125 -0.64874267578125
6070821875.0 -1.22344970703125 -0.0037841796875
6102043750.0 -1.08251953125 0.7618408203125
6133265625.0 -0.34149169921875 1.34527587890625
6164487500.0 0.56256103515625 1.1866455078125
6195709375.0 1.07037353515625 0.6300048828125
6226931250.0 1.27923583984375 -0.042724609375
6258153125.0 1.1038818359375 -0.870849609375
6289375000.0 0.256103515625 -1.4451904296875
6320596875.0 -0.68902587890625 -1.20599365234375
6351818750.0 -1.19989013671875 -0.5721435546875
6383040625.0 -1.354248046875 0.20703125
6414262500.0 -0.99920654296875 1.05596923828125
6445484375.0 -0.0780029296875 1.456787109375
6476706250.0 0.7955322265625 1.14715576171875
6507928125.0 1.29010009765625 0.47027587890625
6539150000.0 1.34735107421875 -0.38653564453125
6570371875.0 0.84088134765625 -1.14337158203125
6601593750.0 -0.01806640625 -1.4046630859375
6632815625.0 -0.83966064453125 -1.1357421875
6664037500.0 -1.4012451171875 -0.41937255859375
6695259375.0 -1.373046875 0.56591796875
6726481250.0 -0.7100830078125 1.25115966796875
6757703125.0 0.1307373046875 1.4063720703125
6788925000.0 0.954345703125 1.12982177734375
6820146875.0 1.5595703125 0.288330078125
6851368750.0 1.3258056640625 -0.81927490234375
6882590625.0 0.50592041015625 -1.3385009765625
6913812500.0 -0.29248046875 -1.35577392578125
6945034375.0 -1.07037353515625 -1.021728515625
6976256250.0 -1.592041015625 -0.09320068359375
7007478125.0 -1.23583984375 0.93389892578125
7038700000.0 -0.4013671875 1.34454345703125
7069921875.0 0.35821533203125 1.32257080078125
7101143750.0 1.1182861328125 0.96826171875
7132365625.0 1.60003662109375 0.0140380859375
7163587500.0 1.15625 -1.0203857421875
7194809375.0 0.30169677734375 -1.3970947265625
7226031250.0 -0.510498046875 -1.324951171875
7257253125.0 -1.26513671875 -0.823486328125
7288475000.0 -1.55780029296875 0.1998291015625
7319696875.0 -1.02996826171875 1.10906982421875
7350918750.0 -0.16461181640625 1.44317626953125
7382140625.0 0.71258544921875 1.2750244140625
7413362500.0 1.375732421875 0.5767822265625
7444584375.0 1.41070556640625 -0.40582275390625
7475806250.0 0.8570556640625 -1.1419677734375
7507028125.0 0.004638671875 -1.43060302734375
7538250000.0 -0.8895263671875 -1.12322998046875
7569471875.0 -1.33587646484375 -0.31060791015625
7600693750.0 -1.201171875 0.4969482421875
7631915625.0 -0.717041015625 1.08758544921875
7663137500.0 0.08258056640625 1.3590087890625
7694359375.0 0.939361572265625 0.979888916015625
7725581250.0 1.24151611328125 0.18072509765625
7756803125.0 1.0823974609375 -0.4996337890625
7788025000.0 0.6697998046875 -1.04376220703125
7819246875.0 -0.120849609375 -1.3472900390625
7850468750.0 -0.99102783203125 -0.916290283203125
7881690625.0 -1.23004150390625 -0.10601806640625
7912912500.0 -1.0540771484375 0.5537109375
7944134375.0 -0.60540771484375 1.11138916015625
7975356250.0 0.27215576171875 1.335693359375
8006578125.0 1.047119140625 0.7794189453125
8037800000.0 1.19390869140625 0.016845703125
8069021875.0 1.00640869140625 -0.6177978515625
8100243750.0 0.499755859375 -1.160400390625
8131465625.0 -0.3883056640625 -1.2550048828125
8162687500.0 -1.03076171875 -0.68682861328125
8193909375.0 -1.18048095703125 0.0089111328125
8225131250.0 -1.01702880859375 0.67510986328125
8256353125.0 -0.42132568359375 1.249755859375
8287575000.0 0.50201416015625 1.22698974609375
8318796875.0 1.08349609375 0.6353759765625
8350018750.0 1.24444580078125 -0.073974609375
8381240625.0 1.0303955078125 -0.83709716796875
8412462500.0 0.25408935546875 -1.3731689453125
8443684375.0 -0.66693115234375 -1.1695556640625
8474906250.0 -1.17584228515625 -0.53131103515625
8506128125.0 -1.29931640625 0.23736572265625
8537350000.0 -0.9246826171875 1.04541015625
8568571875.0 -0.016357421875 1.39453125
8599793750.0 0.8035888671875 1.05413818359375
8631015625.0 1.24249267578125 0.39813232421875
8662237500.0 1.28582763671875 -0.42889404296875
8693459375.0 0.7354736328125 -1.1785888671875
8724681250.0 -0.16156005859375 -1.3311767578125
8755903125.0 -0.879852294921875 -0.957275390625
8787125000.0 -1.30328369140625 -0.28204345703125
8818346875.0 -1.251220703125 0.61553955078125
8849568750.0 -0.55609130859375 1.26031494140625
8880790625.0 0.29888916015625 1.28460693359375
8912012500.0 0.979949951171875 0.891876220703125
8943234375.0 1.39849853515625 0.12945556640625
8974456250.0 1.16705322265625 -0.8389892578125
9005678125.0 0.34881591796875 -1.31390380859375
9036900000.0 -0.44580078125 -1.22552490234375
9068121875.0 -1.1019287109375 -0.78594970703125
9099343750.0 -1.4412841796875 0.0986328125
9130565625.0 -0.9793701171875 1.01080322265625
9161787500.0 -0.1539306640625 1.2835693359375
9193009375.0 0.5550537109375 1.1341552734375
9224231250.0 1.1788330078125 0.655029296875
9255453125.0 1.3985595703125 -0.29437255859375
9286675000.0 0.80712890625 -1.0848388671875
9317896875.0 0.02679443359375 -1.24658203125
9349118750.0 -0.6539306640625 -1.06878662109375
9380340625.0 -1.257080078125 -0.50933837890625
9411562500.0 -1.3109130859375 0.4752197265625
9442784375.0 -0.64825439453125 1.11590576171875
9474006250.0 0.08770751953125 1.21026611328125
9505228125.0 0.762481689453125 0.97998046875
9536450000.0 1.2734375 0.3138427734375
9567671875.0 1.14459228515625 -0.58172607421875
9598893750.0 0.529052734375 -1.0699462890625
9630115625.0 -0.143310546875 -1.1572265625
9661337500.0 -0.817718505859375 -0.902374267578125
9692559375.0 -1.23883056640625 -0.19146728515625
9723781250.0 -1.0440673828125 0.60516357421875
9755003125.0 -0.485595703125 1.05181884765625
9786225000.0 0.198974609375 1.1597900390625
9817446875.0 0.895782470703125 0.82769775390625
9848668750.0 1.1988525390625 0.078125
9879890625.0 0.968902587890625 -0.616973876953125
9911112500.0 0.45263671875 -1.05230712890625
9942334375.0 -0.26763916015625 -1.1590576171875
9973556250.0 -0.943115234375 -0.73858642578125
10004778125.0 -1.14532470703125 -0.01800537109375
10036000000.0 -0.94439697265625 0.615936279296875
10067221875.0 -0.44305419921875 1.09539794921875
10098443750.0 0.3702392578125 1.1822509765625
10129665625.0 1.001953125 0.64385986328125
10160887500.0 1.12115478515625 -0.05230712890625
10192109375.0 0.917449951171875 -0.663116455078125
10223331250.0 0.361328125 -1.15179443359375
10254553125.0 -0.485595703125 -1.113525390625
10285775000.0 -0.985809326171875 -0.535247802734375
10316996875.0 -1.06732177734375 0.0771484375
10348218750.0 -0.90020751953125 0.670501708984375
10379440625.0 -0.32171630859375 1.1766357421875
10410662500.0 0.52886962890625 1.08636474609375
10441884375.0 0.991119384765625 0.5230712890625
10473106250.0 1.10955810546875 -0.08355712890625
10504328125.0 0.948638916015625 -0.757171630859375
10535550000.0 0.2391357421875 -1.29541015625
10566771875.0 -0.65655517578125 -1.0771484375
10597993750.0 -1.081787109375 -0.45916748046875
10629215625.0 -1.17486572265625 0.20367431640625
10660437500.0 -0.887939453125 0.952178955078125
10691659375.0 -0.011474609375 1.33502197265625
10722881250.0 0.785614013671875 0.952606201171875
10754103125.0 1.1180419921875 0.32489013671875
10785325000.0 1.14019775390625 -0.3685302734375
10816546875.0 0.70196533203125 -1.04925537109375
10847768750.0 -0.145751953125 -1.23016357421875
10878990625.0 -0.804473876953125 -0.843963623046875
10910212500.0 -1.12176513671875 -0.246337890625
10941434375.0 -1.09735107421875 0.4774169921875
10972656250.0 -0.56732177734375 1.08673095703125
11003878125.0 0.21722412109375 1.1741943359375
11035100000.0 0.846527099609375 0.82122802734375
11066321875.0 1.2208251953125 0.17352294921875
11097543750.0 1.0987548828125 -0.6761474609375
11128765625.0 0.38751220703125 -1.19775390625
11159987500.0 -0.395263671875 -1.13824462890625
11191209375.0 -0.999725341796875 -0.703216552734375
11222431250.0 -1.27252197265625 0.091796875
11253653125.0 -0.859466552734375 0.89410400390625
11284875000.0 -0.114501953125 1.1282958984375
11316096875.0 0.5120849609375 0.956573486328125
11347318750.0 1.00262451171875 0.50189208984375
11378540625.0 1.11688232421875 -0.26953125
11409762500.0 0.63519287109375 -0.85986328125
11440984375.0 0.035308837890625 -0.978912353515625
11472206250.0 -0.481292724609375 -0.85064697265625
11503428125.0 -0.951629638671875 -0.456634521484375
11534650000.0 -1.06817626953125 0.2877197265625
11565871875.0 -0.6033935546875 0.85516357421875
11597093750.0 -0.0185546875 0.99169921875
11628315625.0 0.54327392578125 0.875518798828125
11659537500.0 1.06024169921875 0.3919677734375
11690759375.0 1.06585693359375 -0.43402099609375
11721981250.0 0.517578125 -0.9398193359375
11753203125.0 -0.10565185546875 -1.036865234375
11784425000.0 -0.723968505859375 -0.807952880859375
11815646875.0 -1.10113525390625 -0.15228271484375
11846868750.0 -0.891143798828125 0.550537109375
11878090625.0 -0.39013671875 0.909332275390625
11909312500.0 0.18695068359375 0.9849853515625
11940534375.0 0.781158447265625 0.69476318359375
11971756250.0 1.0244140625 0.03924560546875
12002978125.0 0.8067626953125 -0.53662109375
12034200000.0 0.3824462890625 -0.886932373046875
12065421875.0 -0.2147216796875 -1.0096435546875
12096643750.0 -0.846221923828125 -0.665985107421875
12127865625.0 -1.034423828125 0.0167236328125
12159087500.0 -0.816009521484375 0.57537841796875
12190309375.0 -0.37799072265625 0.975006103515625
12221531250.0 0.33953857421875 1.08831787109375
12252753125.0 0.979888916015625 0.58203125
12283975000.0 1.0548095703125 -0.12835693359375
12315196875.0 0.801116943359375 -0.6756591796875
12346418750.0 0.2816162109375 -1.09088134765625
12377640625.0 -0.53826904296875 -1.06048583984375
12408862500.0 -1.03436279296875 -0.4189453125
12440084375.0 -1.00897216796875 0.224365234375
12471306250.0 -0.741851806640625 0.736785888671875
12502528125.0 -0.1805419921875 1.1199951171875
12533750000.0 0.62078857421875 0.993194580078125
12564971875.0 1.04058837890625 0.364013671875
12596193750.0 1.02935791015625 -0.26580810546875
12627415625.0 0.748046875 -0.8277587890625
12658637500.0 0.080810546875 -1.20782470703125
12689859375.0 -0.73553466796875 -0.966552734375
12721081250.0 -1.11724853515625 -0.305908203125
12752303125.0 -1.0980224609375 0.38177490234375
12783525000.0 -0.68792724609375 1.02691650390625
12814746875.0 0.1639404296875 1.25140380859375
12845968750.0 0.863006591796875 0.811248779296875
12877190625.0 1.11785888671875 0.17193603515625
12908412500.0 1.0552978515625 -0.50146484375
12939634375.0 0.54339599609375 -1.11724853515625
12970856250.0 -0.32086181640625 -1.17669677734375
13002078125.0 -0.896636962890625 -0.693145751953125
13033300000.0 -1.10711669921875 -0.08563232421875
13064521875.0 -1.009033203125 0.5926513671875
13095743750.0 -0.420654296875 1.15643310546875
13126965625.0 0.40924072265625 1.12164306640625
13158187500.0 0.94580078125 0.633056640625
13189409375.0 1.1492919921875 -0.02197265625
13220631250.0 0.936187744140625 -0.74822998046875
13251853125.0 0.2349853515625 -1.172119140625
13283075000.0 -0.50732421875 -1.02020263671875
13314296875.0 -0.98651123046875 -0.52899169921875
13345518750.0 -1.13446044921875 0.17572021484375
