!Created with skrf (http://scikit-rf.org).
# Hz S RI R 50.0 
!freq ReS11 ImS11
45000000.0 -0.07721710205078125 -0.09677505493164062
76221875.0 -0.19654083251953125 -0.04727935791015625
107443750.0 -0.2549896240234375 0.120025634765625
138665625.0 -0.148101806640625 0.3288116455078125
169887500.0 0.1239013671875 0.4173736572265625
201109375.0 0.422027587890625 0.2807464599609375
232331250.0 0.578948974609375 -0.057830810546875
263553125.0 0.48919677734375 -0.452789306640625
294775000.0 0.098114013671875 -0.73297119140625
325996875.0 -0.4161376953125 -0.6805419921875
357218750.0 -0.80682373046875 -0.2965087890625
388440625.0 -0.88580322265625 0.30133056640625
419662500.0 -0.516571044921875 0.8670654296875
450884375.0 0.17413330078125 1.02874755859375
482106250.0 0.799163818359375 0.711944580078125
513328125.0 1.11962890625 0.08642578125
544550000.0 1.0035400390625 -0.68048095703125
575771875.0 0.3355712890625 -1.23846435546875
606993750.0 -0.5545654296875 -1.17694091796875
638215625.0 -1.166015625 -0.58978271484375
669437500.0 -1.3397216796875 0.2347412109375
700659375.0 -0.9703369140625 1.09710693359375
731881250.0 -0.002685546875 1.543212890625
763103125.0 1.00616455078125 1.15521240234375
794325000.0 1.46868896484375 0.2808837890625
825546875.0 1.366943359375 -0.65234375
856768750.0 0.79345703125 -1.401123046875
887990625.0 -0.293701171875 -1.64764404296875
919212500.0 -1.288818359375 -1.07769775390625
950434375.0 -1.64886474609375 -0.057861328125
981656250.0 -1.3818359375 0.94677734375
1012878125.0 -0.52874755859375 1.672119140625
1044100000.0 0.697998046875 1.6612548828125
1075321875.0 1.5750732421875 0.810791015625
1106543750.0 1.70440673828125 -0.31439208984375
1137765625.0 1.1854248046875 -1.284912109375
1168987500.0 0.13690185546875 -1.7974853515625
1200209375.0 -1.0626220703125 -1.482666015625
1231431250.0 -1.7274169921875 -0.4521484375
1262653125.0 -1.59344482421875 0.68585205078125
1293875000.0 -0.85052490234375 1.491943359375
1325096875.0 0.2291259765625 1.70587158203125
1356318750.0 1.2352294921875 1.21539306640625
1387540625.0 1.73956298828125 0.18792724609375
1418762500.0 1.468505859375 -0.9521484375
1449984375.0 0.5284423828125 -1.62615966796875
1481206250.0 -0.55035400390625 -1.5552978515625
1512428125.0 -1.3421630859375 -0.91851806640625
1543650000.0 -1.65570068359375 0.066650390625
1574871875.0 -1.27239990234375 1.1090087890625
1606093750.0 -0.2716064453125 1.63092041015625
1637315625.0 0.74273681640625 1.3994140625
1668537500.0 1.39593505859375 0.69476318359375
1699759375.0 1.5721435546875 -0.27764892578125
1730981250.0 1.062744140625 -1.2298583984375
1762203125.0 0.04150390625 -1.56964111328125
1793425000.0 -0.85614013671875 -1.225341796875
1824646875.0 -1.393310546875 -0.51397705078125
1855868750.0 -1.47332763671875 0.43280029296875
1887090625.0 -0.8743896484375 1.2847900390625
1918312500.0 0.11767578125 1.4862060546875
1949534375.0 0.92108154296875 1.088134765625
1980756250.0 1.37493896484375 0.369384765625
2011978125.0 1.35919189453125 -0.53265380859375
2043200000.0 0.7491455078125 -1.2611083984375
2074421875.0 -0.157470703125 -1.43218994140625
2105643750.0 -0.96051025390625 -1.07177734375
2136865625.0 -1.4471435546875 -0.30413818359375
2168087500.0 -1.3558349609375 0.67108154296875
2199309375.0 -0.6380615234375 1.3505859375
2230531250.0 0.281982421875 1.43536376953125
2261753125.0 1.07269287109375 1.0128173828125
2292975000.0 1.51361083984375 0.1695556640625
2324196875.0 1.3045654296875 -0.8189697265625
2355418750.0 0.5242919921875 -1.4190673828125
2386640625.0 -0.4044189453125 -1.44830322265625
2417862500.0 -1.18109130859375 -1.0234375
2449084375.0 -1.6043701171875 -0.083251953125
2480306250.0 -1.31048583984375 0.926025390625
2511528125.0 -0.492431640625 1.50732421875
2542750000.0 0.48956298828125 1.53564453125
2573971875.0 1.37042236328125 0.966552734375
2605193750.0 1.7161865234375 -0.1134033203125
2636415625.0 1.26019287109375 -1.152587890625
2667637500.0 0.30572509765625 -1.66650390625
2698859375.0 -0.7706298828125 -1.5328369140625
2730081250.0 -1.5718994140625 -0.739501953125
2761303125.0 -1.67938232421875 0.38861083984375
2792525000.0 -1.0977783203125 1.306396484375
2823746875.0 -0.10076904296875 1.72943115234375
2854968750.0 1.013671875 1.4539794921875
2886190625.0 1.69049072265625 0.490478515625
2917412500.0 1.59906005859375 -0.61871337890625
2948634375.0 0.93798828125 -1.43353271484375
2979856250.0 -0.10845947265625 -1.7745361328125
3011078125.0 -1.24652099609375 -1.3409423828125
3042300000.0 -1.77435302734375 -0.23309326171875
3073521875.0 -1.50799560546875 0.8388671875
3104743750.0 -0.7618408203125 1.56854248046875
3135965625.0 0.3621826171875 1.807861328125
3167187500.0 1.49859619140625 1.16290283203125
3198409375.0 1.81439208984375 -0.07611083984375
3229631250.0 1.3470458984375 -1.08148193359375
3260853125.0 0.48809814453125 -1.6676025390625
3292075000.0 -0.65582275390625 -1.6966552734375
3323296875.0 -1.61895751953125 -0.8778076171875
3354518750.0 -1.72808837890625 0.32861328125
3385740625.0 -1.15460205078125 1.2314453125
3416962500.0 -0.23046875 1.68048095703125
3448184375.0 0.86151123046875 1.52020263671875
3479406250.0 1.63482666015625 0.64385986328125
3510628125.0 1.6429443359375 -0.49542236328125
3541850000.0 0.998779296875 -1.35498046875
3573071875.0 -0.00836181640625 -1.68115234375
3604293750.0 -1.0277099609375 -1.33575439453125
3635515625.0 -1.626953125 -0.43768310546875
3666737500.0 -1.5601806640625 0.6466064453125
3697959375.0 -0.8240966796875 1.4744873046875
3729181250.0 0.26953125 1.62957763671875
3760403125.0 1.15185546875 1.0968017578125
3791625000.0 1.552490234375 0.21673583984375
3822846875.0 1.400146484375 -0.7603759765625
3854068750.0 0.61859130859375 -1.48089599609375
3885290625.0 -0.42218017578125 -1.47998046875
3916512500.0 -1.140869140625 -0.91033935546875
3947734375.0 -1.44677734375 -0.1192626953125
3978956250.0 -1.29632568359375 0.77911376953125
4010178125.0 -0.53057861328125 1.45355224609375
4041400000.0 0.4720458984375 1.41375732421875
4072621875.0 1.15191650390625 0.84661865234375
4103843750.0 1.44305419921875 0.06329345703125
4135065625.0 1.26654052734375 -0.84521484375
4166287500.0 0.45721435546875 -1.49462890625
4197509375.0 -0.55718994140625 -1.41400146484375
4228731250.0 -1.24810791015625 -0.80181884765625
4259953125.0 -1.5084228515625 0.0704345703125
4291175000.0 -1.1876220703125 1.01043701171875
4322396875.0 -0.28857421875 1.52532958984375
4353618750.0 0.67242431640625 1.34881591796875
4384840625.0 1.322021484375 0.69598388671875
4416062500.0 1.5001220703125 -0.22857666015625
4447284375.0 1.05401611328125 -1.10406494140625
4478506250.0 0.1717529296875 -1.49395751953125
4509728125.0 -0.73272705078125 -1.306396484375
4540950000.0 -1.3935546875 -0.63507080078125
4572171875.0 -1.521484375 0.3604736328125
4603393750.0 -0.9722900390625 1.21221923828125
4634615625.0 -0.0609130859375 1.53662109375
4665837500.0 0.86993408203125 1.30328369140625
4697059375.0 1.54168701171875 0.51416015625
4728281250.0 1.5283203125 -0.5819091796875
4759503125.0 0.82269287109375 -1.3658447265625
4790725000.0 -0.1456298828125 -1.5709228515625
4821946875.0 -1.0819091796875 -1.19268798828125
4853168750.0 -1.61236572265625 -0.250732421875
4884390625.0 -1.37689208984375 0.79229736328125
4915612500.0 -0.61224365234375 1.411865234375
4946834375.0 0.3289794921875 1.5089111328125
4978056250.0 1.2047119140625 1.01605224609375
5009278125.0 1.5614013671875 0.038330078125
5040500000.0 1.22857666015625 -0.875
5071721875.0 0.5010986328125 -1.414306640625
5102943750.0 -0.44580078125 -1.4952392578125
5134165625.0 -1.33447265625 -0.90484619140625
5165387500.0 -1.56781005859375 0.1468505859375
5196609375.0 -1.13543701171875 1.00775146484375
5227831250.0 -0.35662841796875 1.50616455078125
5259053125.0 0.6883544921875 1.492431640625
5290275000.0 1.52069091796875 0.6622314453125
5321496875.0 1.4912109375 -0.4295654296875
5352718750.0 0.9205322265625 -1.15277099609375
5383940625.0 0.09661865234375 -1.4990234375
5415162500.0 -0.90081787109375 -1.28277587890625
5446384375.0 -1.4837646484375 -0.369384765625
5477606250.0 -1.29864501953125 0.56646728515625
5508828125.0 -0.7310791015625 1.1494140625
5540050000.0 0.05389404296875 1.39801025390625
5571271875.0 0.93731689453125 1.1077880859375
5602493750.0 1.40753173828125 0.25994873046875
5633715625.0 1.2313232421875 -0.6129150390625
5664937500.0 0.64752197265625 -1.20068359375
5696159375.0 -0.19635009765625 -1.3828125
5727381250.0 -1.02105712890625 -0.97808837890625
5758603125.0 -1.3902587890625 -0.1451416015625
5789825000.0 -1.19354248046875 0.71759033203125
5821046875.0 -0.50640869140625 1.3062744140625
5852268750.0 0.4102783203125 1.311767578125
5883490625.0 1.0703125 0.77197265625
5914712500.0 1.3028564453125 0.0189208984375
5945934375.0 1.09564208984375 -0.77581787109375
5977156250.0 0.36114501953125 -1.3114013671875
6008378125.0 -0.5096435546875 -1.1815185546875
6039600000.0 -1.0216064453125 -0.64862060546875
6070821875.0 -1.2225341796875 -0.00445556640625
6102043750.0 -1.08221435546875 0.76202392578125
6133265625.0 -0.3421630859375 1.343994140625
6164487500.0 0.562255859375 1.187255859375
6195709375.0 1.07049560546875 0.62969970703125
6226931250.0 1.27947998046875 -0.042724609375
6258153125.0 1.10369873046875 -0.869873046875
6289375000.0 0.25604248046875 -1.446533203125
6320596875.0 -0.68939208984375 -1.20574951171875
6351818750.0 -1.2003173828125 -0.572265625
6383040625.0 -1.35479736328125 0.2071533203125
6414262500.0 -0.99969482421875 1.056396484375
6445484375.0 -0.07861328125 1.45635986328125
6476706250.0 0.79534912109375 1.14739990234375
6507928125.0 1.28997802734375 0.46978759765625
6539150000.0 1.3468017578125 -0.38592529296875
6570371875.0 0.8409423828125 -1.1434326171875
6601593750.0 -0.01739501953125 -1.404052734375
6632815625.0 -0.83917236328125 -1.1358642578125
6664037500.0 -1.39996337890625 -0.41998291015625
6695259375.0 -1.3731689453125 0.5660400390625
6726481250.0 -0.71014404296875 1.2508544921875
6757703125.0 0.129638671875 1.40521240234375
6788925000.0 0.954345703125 1.12994384765625
6820146875.0 1.55926513671875 0.288330078125
6851368750.0 1.3255615234375 -0.818359375
6882590625.0 0.5062255859375 -1.33935546875
6913812500.0 -0.2921142578125 -1.3564453125
6945034375.0 -1.0697021484375 -1.0216064453125
6976256250.0 -1.5926513671875 -0.093017578125
7007478125.0 -1.2357177734375 0.9344482421875
7038700000.0 -0.402099609375 1.3414306640625
7069921875.0 0.3577880859375 1.32354736328125
7101143750.0 1.11749267578125 0.96832275390625
7132365625.0 1.59722900390625 0.01507568359375
7163587500.0 1.15643310546875 -1.02215576171875
7194809375.0 0.30206298828125 -1.396240234375
7226031250.0 -0.51177978515625 -1.32489013671875
7257253125.0 -1.2652587890625 -0.82318115234375
7288475000.0 -1.5576171875 0.19879150390625
7319696875.0 -1.02862548828125 1.109619140625
7350918750.0 -0.16412353515625 1.44403076171875
7382140625.0 0.71551513671875 1.2760009765625
7413362500.0 1.3743896484375 0.5772705078125
7444584375.0 1.412109375 -0.406982421875
7475806250.0 0.85791015625 -1.142333984375
7507028125.0 0.00555419921875 -1.42877197265625
7538250000.0 -0.88916015625 -1.124267578125
7569471875.0 -1.33587646484375 -0.31121826171875
7600693750.0 -1.20220947265625 0.49688720703125
7631915625.0 -0.71759033203125 1.08551025390625
7663137500.0 0.08013916015625 1.3570556640625
7694359375.0 0.940765380859375 0.97991943359375
7725581250.0 1.24176025390625 0.18035888671875
7756803125.0 1.08203125 -0.49884033203125
7788025000.0 0.669677734375 -1.0440673828125
7819246875.0 -0.12152099609375 -1.3482666015625
7850468750.0 -0.99224853515625 -0.915802001953125
7881690625.0 -1.2310791015625 -0.10443115234375
7912912500.0 -1.05438232421875 0.55316162109375
7944134375.0 -0.605712890625 1.11126708984375
7975356250.0 0.2708740234375 1.33502197265625
8006578125.0 1.0479736328125 0.77923583984375
8037800000.0 1.1934814453125 0.01678466796875
8069021875.0 1.00653076171875 -0.6177978515625
8100243750.0 0.5003662109375 -1.16046142578125
8131465625.0 -0.38836669921875 -1.25439453125
8162687500.0 -1.0306396484375 -0.68621826171875
8193909375.0 -1.18060302734375 0.00897216796875
8225131250.0 -1.01788330078125 0.6788330078125
8256353125.0 -0.42193603515625 1.24755859375
8287575000.0 0.49993896484375 1.22613525390625
8318796875.0 1.0814208984375 0.6361083984375
8350018750.0 1.2459716796875 -0.0760498046875
8381240625.0 1.03131103515625 -0.83758544921875
8412462500.0 0.25347900390625 -1.37408447265625
8443684375.0 -0.6689453125 -1.17010498046875
8474906250.0 -1.17376708984375 -0.53375244140625
8506128125.0 -1.29937744140625 0.2386474609375
8537350000.0 -0.92535400390625 1.04638671875
8568571875.0 -0.016357421875 1.393798828125
8599793750.0 0.80517578125 1.05364990234375
8631015625.0 1.24053955078125 0.39923095703125
8662237500.0 1.28668212890625 -0.42901611328125
8693459375.0 0.73651123046875 -1.17822265625
8724681250.0 -0.1629638671875 -1.330810546875
8755903125.0 -0.88079833984375 -0.956512451171875
8787125000.0 -1.3031005859375 -0.28253173828125
8818346875.0 -1.2498779296875 0.61358642578125
8849568750.0 -0.55694580078125 1.260009765625
8880790625.0 0.297607421875 1.28466796875
8912012500.0 0.981414794921875 0.892120361328125
8943234375.0 1.3966064453125 0.1307373046875
8974456250.0 1.16705322265625 -0.83782958984375
9005678125.0 0.3489990234375 -1.31280517578125
9036900000.0 -0.4451904296875 -1.22552490234375
9068121875.0 -1.10260009765625 -0.7850341796875
9099343750.0 -1.4420166015625 0.09759521484375
9130565625.0 -0.981201171875 1.0123291015625
9161787500.0 -0.15447998046875 1.28265380859375
9193009375.0 0.5537109375 1.1337890625
9224231250.0 1.17919921875 0.6549072265625
9255453125.0 1.3992919921875 -0.295654296875
9286675000.0 0.80712890625 -1.0841064453125
9317896875.0 0.0269775390625 -1.24688720703125
9349118750.0 -0.65386962890625 -1.0703125
9380340625.0 -1.25836181640625 -0.509033203125
9411562500.0 -1.31121826171875 0.47613525390625
9442784375.0 -0.64849853515625 1.11712646484375
9474006250.0 0.0892333984375 1.21099853515625
9505228125.0 0.764556884765625 0.980377197265625
9536450000.0 1.27423095703125 0.31341552734375
9567671875.0 1.144775390625 -0.58123779296875
9598893750.0 0.52996826171875 -1.069091796875
9630115625.0 -0.14208984375 -1.15704345703125
9661337500.0 -0.81890869140625 -0.90338134765625
9692559375.0 -1.23846435546875 -0.190673828125
9723781250.0 -1.043701171875 0.6025390625
9755003125.0 -0.48590087890625 1.05072021484375
9786225000.0 0.1995849609375 1.15899658203125
9817446875.0 0.8958740234375 0.82720947265625
9848668750.0 1.197998046875 0.0784912109375
9879890625.0 0.968414306640625 -0.614776611328125
9911112500.0 0.45263671875 -1.0491943359375
9942334375.0 -0.2694091796875 -1.16009521484375
9973556250.0 -0.940155029296875 -0.738494873046875
10004778125.0 -1.14556884765625 -0.01776123046875
10036000000.0 -0.944305419921875 0.614776611328125
10067221875.0 -0.44244384765625 1.09588623046875
10098443750.0 0.3690185546875 1.18145751953125
10129665625.0 1.0018310546875 0.64385986328125
10160887500.0 1.11993408203125 -0.0513916015625
10192109375.0 0.917449951171875 -0.66302490234375
10223331250.0 0.36175537109375 -1.151123046875
10254553125.0 -0.48687744140625 -1.11395263671875
10285775000.0 -0.985748291015625 -0.53521728515625
10316996875.0 -1.06781005859375 0.07757568359375
10348218750.0 -0.90008544921875 0.66973876953125
10379440625.0 -0.32183837890625 1.175537109375
10410662500.0 0.5277099609375 1.08612060546875
10441884375.0 0.993133544921875 0.521209716796875
10473106250.0 1.10845947265625 -0.084716796875
10504328125.0 0.949493408203125 -0.755889892578125
10535550000.0 0.240478515625 -1.2945556640625
10566771875.0 -0.65618896484375 -1.07794189453125
10597993750.0 -1.08154296875 -0.4591064453125
10629215625.0 -1.17596435546875 0.2047119140625
10660437500.0 -0.888031005859375 0.949859619140625
10691659375.0 -0.01043701171875 1.33587646484375
10722881250.0 0.783935546875 0.953216552734375
10754103125.0 1.11993408203125 0.3248291015625
10785325000.0 1.1385498046875 -0.365478515625
10816546875.0 0.70111083984375 -1.05084228515625
10847768750.0 -0.14569091796875 -1.230712890625
10878990625.0 -0.801727294921875 -0.843414306640625
10910212500.0 -1.12384033203125 -0.24505615234375
10941434375.0 -1.0980224609375 0.47760009765625
10972656250.0 -0.568115234375 1.08404541015625
11003878125.0 0.21868896484375 1.174072265625
11035100000.0 0.8497314453125 0.821685791015625
11066321875.0 1.221923828125 0.17333984375
11097543750.0 1.09783935546875 -0.67681884765625
11128765625.0 0.3863525390625 -1.1998291015625
11159987500.0 -0.39617919921875 -1.14013671875
11191209375.0 -0.999664306640625 -0.703643798828125
11222431250.0 -1.27197265625 0.09283447265625
11253653125.0 -0.8594970703125 0.8941650390625
11284875000.0 -0.11444091796875 1.12835693359375
11316096875.0 0.510009765625 0.95611572265625
11347318750.0 1.00347900390625 0.5013427734375
11378540625.0 1.11688232421875 -0.26812744140625
11409762500.0 0.63482666015625 -0.859283447265625
11440984375.0 0.035919189453125 -0.979339599609375
11472206250.0 -0.481536865234375 -0.851226806640625
11503428125.0 -0.952484130859375 -0.456695556640625
11534650000.0 -1.06951904296875 0.28961181640625
11565871875.0 -0.603424072265625 0.8543701171875
11597093750.0 -0.019012451171875 0.991790771484375
11628315625.0 0.544281005859375 0.8758544921875
11659537500.0 1.0579833984375 0.39373779296875
11690759375.0 1.0654296875 -0.43365478515625
11721981250.0 0.517120361328125 -0.94091796875
11753203125.0 -0.1048583984375 -1.0355224609375
11784425000.0 -0.72412109375 -0.809112548828125
11815646875.0 -1.09967041015625 -0.15289306640625
11846868750.0 -0.891632080078125 0.55108642578125
11878090625.0 -0.392242431640625 0.908905029296875
11909312500.0 0.186614990234375 0.984771728515625
11940534375.0 0.779510498046875 0.695587158203125
11971756250.0 1.02459716796875 0.03948974609375
12002978125.0 0.8062744140625 -0.537017822265625
12034200000.0 0.381500244140625 -0.88861083984375
12065421875.0 -0.2152099609375 -1.01068115234375
12096643750.0 -0.847869873046875 -0.6646728515625
12127865625.0 -1.0340576171875 0.01629638671875
12159087500.0 -0.815093994140625 0.57391357421875
12190309375.0 -0.378204345703125 0.972320556640625
12221531250.0 0.34014892578125 1.0880126953125
12252753125.0 0.9805908203125 0.581390380859375
12283975000.0 1.05523681640625 -0.12725830078125
12315196875.0 0.80059814453125 -0.676422119140625
12346418750.0 0.28118896484375 -1.09136962890625
12377640625.0 -0.537841796875 -1.06182861328125
12408862500.0 -1.03326416015625 -0.42034912109375
12440084375.0 -1.0087890625 0.2255859375
12471306250.0 -0.742279052734375 0.73681640625
12502528125.0 -0.1806640625 1.11907958984375
12533750000.0 0.619140625 0.99346923828125
12564971875.0 1.039794921875 0.36370849609375
12596193750.0 1.02850341796875 -0.262939453125
12627415625.0 0.748321533203125 -0.830474853515625
12658637500.0 0.08050537109375 -1.20709228515625
12689859375.0 -0.7354736328125 -0.966522216796875
12721081250.0 -1.11798095703125 -0.30584716796875
12752303125.0 -1.09771728515625 0.38250732421875
12783525000.0 -0.68792724609375 1.02838134765625
12814746875.0 0.16461181640625 1.25152587890625
12845968750.0 0.8631591796875 0.8114013671875
12877190625.0 1.11737060546875 0.17218017578125
12908412500.0 1.05621337890625 -0.50250244140625
12939634375.0 0.54364013671875 -1.1163330078125
12970856250.0 -0.32122802734375 -1.1776123046875
13002078125.0 -0.894989013671875 -0.693084716796875
13033300000.0 -1.1048583984375 -0.0877685546875
13064521875.0 -1.010009765625 0.594970703125
13095743750.0 -0.42132568359375 1.15472412109375
13126965625.0 0.40838623046875 1.1201171875
13158187500.0 0.947174072265625 0.63348388671875
13189409375.0 1.14837646484375 -0.02166748046875
13220631250.0 0.9354248046875 -0.746124267578125
13251853125.0 0.23516845703125 -1.17193603515625
13283075000.0 -0.50604248046875 -1.020751953125
13314296875.0 -0.988128662109375 -0.52862548828125
