!Created with skrf (http://scikit-rf.org).
# Hz S RI R 50.0 
!freq ReS11 ImS11
45000000.0 -0.07689285278320312 -0.096832275390625
76221875.0 -0.1961822509765625 -0.04766845703125
107443750.0 -0.2547607421875 0.1194305419921875
138665625.0 -0.1482391357421875 0.3280487060546875
169887500.0 0.12335205078125 0.417144775390625
201109375.0 0.42144775390625 0.280914306640625
232331250.0 0.5784912109375 -0.057403564453125
263553125.0 0.4892730712890625 -0.4520721435546875
294775000.0 0.0987548828125 -0.73187255859375
325996875.0 -0.41473388671875 -0.68023681640625
357218750.0 -0.80535888671875 -0.29718017578125
388440625.0 -0.884918212890625 0.2998046875
419662500.0 -0.517303466796875 0.86505126953125
450884375.0 0.17242431640625 1.02777099609375
482106250.0 0.7974853515625 0.7122802734375
513328125.0 1.11822509765625 0.08758544921875
544550000.0 1.003173828125 -0.67889404296875
575771875.0 0.33660888671875 -1.23675537109375
606993750.0 -0.5528564453125 -1.17657470703125
638215625.0 -1.1644287109375 -0.59014892578125
669437500.0 -1.338623046875 0.23297119140625
700659375.0 -0.97064208984375 1.09454345703125
731881250.0 -0.00421142578125 1.54156494140625
763103125.0 1.00421142578125 1.1549072265625
794325000.0 1.466796875 0.2818603515625
825546875.0 1.36614990234375 -0.650146484375
856768750.0 0.794189453125 -1.39813232421875
887990625.0 -0.29156494140625 -1.64642333984375
919212500.0 -1.28570556640625 -1.07781982421875
950434375.0 -1.6466064453125 -0.059814453125
981656250.0 -1.38104248046875 0.94390869140625
1012878125.0 -0.53009033203125 1.668212890625
1044100000.0 0.69500732421875 1.65985107421875
1075321875.0 1.57159423828125 0.81195068359375
1106543750.0 1.70269775390625 -0.311767578125
1137765625.0 1.1856689453125 -1.28216552734375
1168987500.0 0.13873291015625 -1.79388427734375
1200209375.0 -1.0596923828125 -1.48199462890625
1231431250.0 -1.72418212890625 -0.453857421875
1262653125.0 -1.5927734375 0.6827392578125
1293875000.0 -0.851318359375 1.48919677734375
1325096875.0 0.22735595703125 1.7044677734375
1356318750.0 1.23272705078125 1.21533203125
1387540625.0 1.73663330078125 0.18988037109375
1418762500.0 1.4677734375 -0.94964599609375
1449984375.0 0.52911376953125 -1.62353515625
1481206250.0 -0.54815673828125 -1.55389404296875
1512428125.0 -1.3394775390625 -0.9188232421875
1543650000.0 -1.6527099609375 0.06402587890625
1574871875.0 -1.27252197265625 1.10693359375
1606093750.0 -0.27337646484375 1.6295166015625
1637315625.0 0.740478515625 1.39910888671875
1668537500.0 1.3939208984375 0.6954345703125
1699759375.0 1.5711669921875 -0.2760009765625
1730981250.0 1.06292724609375 -1.22747802734375
1762203125.0 0.04302978515625 -1.5682373046875
1793425000.0 -0.85394287109375 -1.22491455078125
1824646875.0 -1.3912353515625 -0.51507568359375
1855868750.0 -1.47198486328125 0.43115234375
1887090625.0 -0.87420654296875 1.28240966796875
1918312500.0 0.116455078125 1.48468017578125
1949534375.0 0.91943359375 1.087890625
1980756250.0 1.37286376953125 0.3699951171875
2011978125.0 1.3577880859375 -0.53021240234375
2043200000.0 0.74951171875 -1.25970458984375
2074421875.0 -0.1561279296875 -1.4312744140625
2105643750.0 -0.958740234375 -1.0714111328125
2136865625.0 -1.44500732421875 -0.30535888671875
2168087500.0 -1.355224609375 0.66925048828125
2199309375.0 -0.638671875 1.34930419921875
2230531250.0 0.28082275390625 1.43402099609375
2261753125.0 1.07061767578125 1.0125732421875
2292975000.0 1.5118408203125 0.17071533203125
2324196875.0 1.30401611328125 -0.81744384765625
2355418750.0 0.52496337890625 -1.41796875
2386640625.0 -0.40325927734375 -1.44720458984375
2417862500.0 -1.17828369140625 -1.02276611328125
2449084375.0 -1.60089111328125 -0.0855712890625
2480306250.0 -1.30950927734375 0.92327880859375
2511528125.0 -0.49432373046875 1.50408935546875
2542750000.0 0.48614501953125 1.53302001953125
2573971875.0 1.3682861328125 0.967041015625
2605193750.0 1.71429443359375 -0.11199951171875
2636415625.0 1.25958251953125 -1.14990234375
2667637500.0 0.30718994140625 -1.66326904296875
2698859375.0 -0.7666015625 -1.53125
2730081250.0 -1.5699462890625 -0.7403564453125
2761303125.0 -1.6781005859375 0.38641357421875
2792525000.0 -1.09783935546875 1.30340576171875
2823746875.0 -0.10272216796875 1.72698974609375
2854968750.0 1.0093994140625 1.45318603515625
2886190625.0 1.68792724609375 0.49127197265625
2917412500.0 1.59747314453125 -0.616455078125
2948634375.0 0.9383544921875 -1.42962646484375
2979856250.0 -0.106201171875 -1.77227783203125
3011078125.0 -1.24517822265625 -1.34039306640625
3042300000.0 -1.7713623046875 -0.23516845703125
3073521875.0 -1.50628662109375 0.8359375
3104743750.0 -0.76275634765625 1.56585693359375
3135965625.0 0.360595703125 1.8055419921875
3167187500.0 1.49456787109375 1.16314697265625
3198409375.0 1.81201171875 -0.0738525390625
3229631250.0 1.34722900390625 -1.07818603515625
3260853125.0 0.4896240234375 -1.66485595703125
3292075000.0 -0.65185546875 -1.69427490234375
3323296875.0 -1.6175537109375 -0.87823486328125
3354518750.0 -1.72613525390625 0.32568359375
3385740625.0 -1.154296875 1.22882080078125
3416962500.0 -0.23321533203125 1.67669677734375
3448184375.0 0.85736083984375 1.51910400390625
3479406250.0 1.6324462890625 0.64398193359375
3510628125.0 1.64129638671875 -0.4930419921875
3541850000.0 0.999267578125 -1.35150146484375
3573071875.0 -0.00604248046875 -1.678466796875
3604293750.0 -1.02410888671875 -1.335693359375
3635515625.0 -1.6236572265625 -0.438720703125
3666737500.0 -1.5592041015625 0.64471435546875
3697959375.0 -0.82403564453125 1.47265625
3729181250.0 0.2659912109375 1.62713623046875
3760403125.0 1.150146484375 1.0968017578125
3791625000.0 1.549560546875 0.21868896484375
3822846875.0 1.39935302734375 -0.75811767578125
3854068750.0 0.6197509765625 -1.47747802734375
3885290625.0 -0.41943359375 -1.4791259765625
3916512500.0 -1.1395263671875 -0.90997314453125
3947734375.0 -1.4437255859375 -0.1212158203125
3978956250.0 -1.294921875 0.77569580078125
4010178125.0 -0.5316162109375 1.451416015625
4041400000.0 0.47113037109375 1.4127197265625
4072621875.0 1.1497802734375 0.846923828125
4103843750.0 1.4415283203125 0.06451416015625
4135065625.0 1.26593017578125 -0.8428955078125
4166287500.0 0.45770263671875 -1.4931640625
4197509375.0 -0.5552978515625 -1.41278076171875
4228731250.0 -1.24517822265625 -0.8021240234375
4259953125.0 -1.506591796875 0.06976318359375
4291175000.0 -1.18701171875 1.0093994140625
4322396875.0 -0.2899169921875 1.5235595703125
4353618750.0 0.67138671875 1.34820556640625
4384840625.0 1.31964111328125 0.69683837890625
4416062500.0 1.49835205078125 -0.22637939453125
4447284375.0 1.05401611328125 -1.1015625
4478506250.0 0.1732177734375 -1.49298095703125
4509728125.0 -0.72991943359375 -1.3055419921875
4540950000.0 -1.39068603515625 -0.63592529296875
4572171875.0 -1.52093505859375 0.35882568359375
4603393750.0 -0.971923828125 1.21044921875
4634615625.0 -0.06170654296875 1.5350341796875
4665837500.0 0.8675537109375 1.30279541015625
4697059375.0 1.53912353515625 0.515380859375
4728281250.0 1.52679443359375 -0.5810546875
4759503125.0 0.82269287109375 -1.364501953125
4790725000.0 -0.1446533203125 -1.5704345703125
4821946875.0 -1.0809326171875 -1.19256591796875
4853168750.0 -1.61016845703125 -0.25152587890625
4884390625.0 -1.376220703125 0.79156494140625
4915612500.0 -0.613525390625 1.40911865234375
4946834375.0 0.3277587890625 1.508056640625
4978056250.0 1.20220947265625 1.016357421875
5009278125.0 1.55908203125 0.0396728515625
5040500000.0 1.2274169921875 -0.87322998046875
5071721875.0 0.5013427734375 -1.41253662109375
5102943750.0 -0.4449462890625 -1.4947509765625
5134165625.0 -1.3323974609375 -0.905029296875
5165387500.0 -1.56591796875 0.14532470703125
5196609375.0 -1.135009765625 1.00665283203125
5227831250.0 -0.35736083984375 1.50433349609375
5259053125.0 0.686279296875 1.489990234375
5290275000.0 1.51904296875 0.66314697265625
5321496875.0 1.49017333984375 -0.4288330078125
5352718750.0 0.92041015625 -1.15081787109375
5383940625.0 0.097900390625 -1.4976806640625
5415162500.0 -0.8973388671875 -1.282470703125
5446384375.0 -1.482666015625 -0.37060546875
5477606250.0 -1.29766845703125 0.56475830078125
5508828125.0 -0.7313232421875 1.1484375
5540050000.0 0.0533447265625 1.3963623046875
5571271875.0 0.9366455078125 1.10784912109375
5602493750.0 1.405517578125 0.26068115234375
5633715625.0 1.23114013671875 -0.61199951171875
5664937500.0 0.6480712890625 -1.1998291015625
5696159375.0 -0.196044921875 -1.3814697265625
5727381250.0 -1.0196533203125 -0.97723388671875
5758603125.0 -1.38897705078125 -0.14581298828125
5789825000.0 -1.19268798828125 0.716796875
5821046875.0 -0.5059814453125 1.30535888671875
5852268750.0 0.40899658203125 1.31085205078125
5883490625.0 1.0689697265625 0.771484375
5914712500.0 1.3009033203125 0.0198974609375
5945934375.0 1.095458984375 -0.7740478515625
5977156250.0 0.36163330078125 -1.31011962890625
6008378125.0 -0.50799560546875 -1.18109130859375
6039600000.0 -1.01971435546875 -0.64862060546875
6070821875.0 -1.2220458984375 -0.0052490234375
6102043750.0 -1.0821533203125 0.76031494140625
6133265625.0 -0.3424072265625 1.34259033203125
6164487500.0 0.56121826171875 1.1859130859375
6195709375.0 1.06915283203125 0.629638671875
6226931250.0 1.27752685546875 -0.0418701171875
6258153125.0 1.103759765625 -0.86956787109375
6289375000.0 0.25640869140625 -1.44525146484375
6320596875.0 -0.68743896484375 -1.20513916015625
6351818750.0 -1.197509765625 -0.5721435546875
6383040625.0 -1.3519287109375 0.20489501953125
6414262500.0 -0.9991455078125 1.0548095703125
6445484375.0 -0.07891845703125 1.45465087890625
6476706250.0 0.7933349609375 1.147216796875
6507928125.0 1.28826904296875 0.47015380859375
6539150000.0 1.3450927734375 -0.38446044921875
6570371875.0 0.84039306640625 -1.14141845703125
6601593750.0 -0.01629638671875 -1.4029541015625
6632815625.0 -0.83734130859375 -1.1348876953125
6664037500.0 -1.39935302734375 -0.42047119140625
6695259375.0 -1.3726806640625 0.56494140625
6726481250.0 -0.71014404296875 1.2486572265625
6757703125.0 0.1297607421875 1.40484619140625
6788925000.0 0.95306396484375 1.12957763671875
6820146875.0 1.5579833984375 0.2877197265625
6851368750.0 1.3248291015625 -0.81707763671875
6882590625.0 0.5064697265625 -1.3369140625
6913812500.0 -0.29132080078125 -1.35491943359375
6945034375.0 -1.0670166015625 -1.0211181640625
6976256250.0 -1.5906982421875 -0.0943603515625
7007478125.0 -1.23516845703125 0.93243408203125
7038700000.0 -0.40228271484375 1.3414306640625
7069921875.0 0.35650634765625 1.3214111328125
7101143750.0 1.11492919921875 0.967529296875
7132365625.0 1.5972900390625 0.01678466796875
7163587500.0 1.1566162109375 -1.01837158203125
7194809375.0 0.302490234375 -1.3953857421875
7226031250.0 -0.50787353515625 -1.3236083984375
7257253125.0 -1.26544189453125 -0.823974609375
7288475000.0 -1.556884765625 0.19769287109375
7319696875.0 -1.02935791015625 1.10662841796875
7350918750.0 -0.16534423828125 1.443359375
7382140625.0 0.7149658203125 1.27520751953125
7413362500.0 1.37359619140625 0.57623291015625
7444584375.0 1.41064453125 -0.4044189453125
7475806250.0 0.8572998046875 -1.14044189453125
7507028125.0 0.00701904296875 -1.42626953125
7538250000.0 -0.88494873046875 -1.12237548828125
7569471875.0 -1.33465576171875 -0.3114013671875
7600693750.0 -1.19989013671875 0.49554443359375
7631915625.0 -0.7171630859375 1.08477783203125
7663137500.0 0.078857421875 1.3570556640625
7694359375.0 0.937835693359375 0.9791259765625
7725581250.0 1.24224853515625 0.18145751953125
7756803125.0 1.081787109375 -0.49945068359375
7788025000.0 0.669677734375 -1.04052734375
7819246875.0 -0.1185302734375 -1.34417724609375
7850468750.0 -0.99090576171875 -0.915252685546875
7881690625.0 -1.22869873046875 -0.1065673828125
7912912500.0 -1.053955078125 0.552734375
7944134375.0 -0.60504150390625 1.11126708984375
7975356250.0 0.2684326171875 1.332763671875
8006578125.0 1.04461669921875 0.77874755859375
8037800000.0 1.1907958984375 0.018798828125
8069021875.0 1.00579833984375 -0.615234375
8100243750.0 0.5009765625 -1.158447265625
8131465625.0 -0.38507080078125 -1.2530517578125
8162687500.0 -1.0284423828125 -0.686279296875
8193909375.0 -1.1790771484375 0.00701904296875
8225131250.0 -1.01824951171875 0.677734375
8256353125.0 -0.421142578125 1.24578857421875
8287575000.0 0.4990234375 1.225341796875
8318796875.0 1.08111572265625 0.635498046875
8350018750.0 1.24371337890625 -0.07427978515625
8381240625.0 1.03076171875 -0.8375244140625
8412462500.0 0.25592041015625 -1.37030029296875
8443684375.0 -0.668701171875 -1.1697998046875
8474906250.0 -1.17291259765625 -0.53253173828125
8506128125.0 -1.29608154296875 0.23626708984375
8537350000.0 -0.9239501953125 1.045654296875
8568571875.0 -0.01727294921875 1.394287109375
8599793750.0 0.79925537109375 1.052001953125
8631015625.0 1.2401123046875 0.39892578125
8662237500.0 1.2852783203125 -0.4281005859375
8693459375.0 0.73681640625 -1.17462158203125
8724681250.0 -0.15875244140625 -1.32855224609375
8755903125.0 -0.877197265625 -0.957427978515625
8787125000.0 -1.30267333984375 -0.28314208984375
8818346875.0 -1.249755859375 0.61376953125
8849568750.0 -0.55645751953125 1.25762939453125
8880790625.0 0.2972412109375 1.2852783203125
8912012500.0 0.97918701171875 0.8924560546875
8943234375.0 1.39703369140625 0.12945556640625
8974456250.0 1.1669921875 -0.83941650390625
9005678125.0 0.34954833984375 -1.3118896484375
9036900000.0 -0.44287109375 -1.22332763671875
9068121875.0 -1.10064697265625 -0.78582763671875
9099343750.0 -1.4384765625 0.09478759765625
9130565625.0 -0.97900390625 1.010009765625
9161787500.0 -0.15521240234375 1.28118896484375
9193009375.0 0.55413818359375 1.13214111328125
9224231250.0 1.177734375 0.65484619140625
9255453125.0 1.39801025390625 -0.29461669921875
9286675000.0 0.8065185546875 -1.08349609375
9317896875.0 0.0277099609375 -1.24432373046875
9349118750.0 -0.6549072265625 -1.0693359375
9380340625.0 -1.254638671875 -0.5103759765625
9411562500.0 -1.30975341796875 0.4755859375
9442784375.0 -0.64862060546875 1.1143798828125
9474006250.0 0.0858154296875 1.20880126953125
9505228125.0 0.76318359375 0.979736328125
9536450000.0 1.27105712890625 0.31463623046875
9567671875.0 1.1441650390625 -0.58099365234375
9598893750.0 0.529541015625 -1.06671142578125
9630115625.0 -0.142578125 -1.15655517578125
9661337500.0 -0.816619873046875 -0.901824951171875
9692559375.0 -1.23760986328125 -0.1907958984375
9723781250.0 -1.042236328125 0.6019287109375
9755003125.0 -0.48565673828125 1.0496826171875
9786225000.0 0.19659423828125 1.15771484375
9817446875.0 0.89263916015625 0.827301025390625
9848668750.0 1.19671630859375 0.07904052734375
9879890625.0 0.967071533203125 -0.614166259765625
9911112500.0 0.4532470703125 -1.04986572265625
9942334375.0 -0.26531982421875 -1.1580810546875
9973556250.0 -0.942657470703125 -0.73809814453125
10004778125.0 -1.1436767578125 -0.01959228515625
10036000000.0 -0.943511962890625 0.614105224609375
10067221875.0 -0.44189453125 1.09613037109375
10098443750.0 0.3681640625 1.179931640625
10129665625.0 1.00146484375 0.64202880859375
10160887500.0 1.11907958984375 -0.05078125
10192109375.0 0.916259765625 -0.6624755859375
10223331250.0 0.36212158203125 -1.150146484375
10254553125.0 -0.48553466796875 -1.11346435546875
10285775000.0 -0.986083984375 -0.535430908203125
10316996875.0 -1.0665283203125 0.0753173828125
10348218750.0 -0.900054931640625 0.668792724609375
10379440625.0 -0.3221435546875 1.17425537109375
10410662500.0 0.52557373046875 1.08428955078125
10441884375.0 0.9913330078125 0.52166748046875
10473106250.0 1.1072998046875 -0.08245849609375
10504328125.0 0.94879150390625 -0.756988525390625
10535550000.0 0.2406005859375 -1.2947998046875
10566771875.0 -0.65771484375 -1.0767822265625
10597993750.0 -1.0799560546875 -0.45867919921875
10629215625.0 -1.1746826171875 0.20538330078125
10660437500.0 -0.887420654296875 0.951568603515625
10691659375.0 -0.0113525390625 1.33349609375
10722881250.0 0.781982421875 0.951904296875
10754103125.0 1.11871337890625 0.3248291015625
10785325000.0 1.13922119140625 -0.3671875
10816546875.0 0.7001953125 -1.046875
10847768750.0 -0.14410400390625 -1.22869873046875
10878990625.0 -0.80096435546875 -0.843597412109375
10910212500.0 -1.1221923828125 -0.2452392578125
10941434375.0 -1.09832763671875 0.47735595703125
10972656250.0 -0.5689697265625 1.08294677734375
11003878125.0 0.21673583984375 1.1741943359375
11035100000.0 0.84881591796875 0.82232666015625
11066321875.0 1.219970703125 0.17401123046875
11097543750.0 1.09710693359375 -0.67486572265625
11128765625.0 0.38653564453125 -1.1973876953125
11159987500.0 -0.39447021484375 -1.137939453125
11191209375.0 -0.997650146484375 -0.702362060546875
11222431250.0 -1.272216796875 0.0933837890625
11253653125.0 -0.8592529296875 0.892730712890625
11284875000.0 -0.11529541015625 1.1248779296875
11316096875.0 0.5081787109375 0.95574951171875
11347318750.0 1.00189208984375 0.50201416015625
11378540625.0 1.11456298828125 -0.26739501953125
11409762500.0 0.634796142578125 -0.85919189453125
11440984375.0 0.036834716796875 -0.976837158203125
11472206250.0 -0.4801025390625 -0.8487548828125
11503428125.0 -0.953643798828125 -0.455963134765625
11534650000.0 -1.0689697265625 0.28814697265625
11565871875.0 -0.602020263671875 0.85430908203125
11597093750.0 -0.018951416015625 0.990966796875
11628315625.0 0.541961669921875 0.874908447265625
11659537500.0 1.05914306640625 0.3924560546875
11690759375.0 1.06396484375 -0.4326171875
11721981250.0 0.517059326171875 -0.9393310546875
11753203125.0 -0.1058349609375 -1.03656005859375
11784425000.0 -0.721832275390625 -0.808837890625
11815646875.0 -1.099853515625 -0.1514892578125
11846868750.0 -0.89190673828125 0.55047607421875
11878090625.0 -0.390899658203125 0.9073486328125
11909312500.0 0.187103271484375 0.9842529296875
11940534375.0 0.779266357421875 0.695068359375
11971756250.0 1.0235595703125 0.04046630859375
12002978125.0 0.80615234375 -0.53564453125
12034200000.0 0.382659912109375 -0.887481689453125
12065421875.0 -0.2144775390625 -1.00994873046875
12096643750.0 -0.845489501953125 -0.665069580078125
12127865625.0 -1.03302001953125 0.01605224609375
12159087500.0 -0.81427001953125 0.573486328125
12190309375.0 -0.378082275390625 0.974517822265625
12221531250.0 0.33782958984375 1.087158203125
12252753125.0 0.979461669921875 0.5814208984375
12283975000.0 1.05364990234375 -0.12744140625
12315196875.0 0.7989501953125 -0.67657470703125
12346418750.0 0.28143310546875 -1.09161376953125
12377640625.0 -0.53656005859375 -1.0596923828125
12408862500.0 -1.03277587890625 -0.42034912109375
12440084375.0 -1.00775146484375 0.22467041015625
12471306250.0 -0.74169921875 0.735931396484375
12502528125.0 -0.180419921875 1.11871337890625
12533750000.0 0.6175537109375 0.993011474609375
12564971875.0 1.04010009765625 0.36431884765625
12596193750.0 1.0283203125 -0.2628173828125
12627415625.0 0.747406005859375 -0.828033447265625
12658637500.0 0.0814208984375 -1.20635986328125
12689859375.0 -0.733673095703125 -0.965850830078125
12721081250.0 -1.11669921875 -0.3056640625
12752303125.0 -1.09661865234375 0.38079833984375
12783525000.0 -0.6873779296875 1.02703857421875
12814746875.0 0.16412353515625 1.24951171875
12845968750.0 0.86077880859375 0.81109619140625
12877190625.0 1.11688232421875 0.17266845703125
12908412500.0 1.05413818359375 -0.50048828125
12939634375.0 0.54473876953125 -1.11358642578125
12970856250.0 -0.31927490234375 -1.17413330078125
13002078125.0 -0.89166259765625 -0.694122314453125
13033300000.0 -1.10479736328125 -0.0867919921875
13064521875.0 -1.0084228515625 0.59075927734375
13095743750.0 -0.42059326171875 1.152587890625
13126965625.0 0.406982421875 1.1192626953125
13158187500.0 0.945587158203125 0.63232421875
13189409375.0 1.14678955078125 -0.01910400390625
13220631250.0 0.935638427734375 -0.747039794921875
13251853125.0 0.23468017578125 -1.17034912109375
13283075000.0 -0.50701904296875 -1.0191650390625
13314296875.0 -0.98663330078125 -0.529266357421875
13345518750.0 -1.134033203125 0.17559814453125
