!Created with skrf (http://scikit-rf.org).
# Hz S RI R 50.0 
!freq ReS11 ImS11
45000000.0 -0.07720565795898438 -0.09672927856445312
76221875.0 -0.19664764404296875 -0.04718780517578125
107443750.0 -0.2550811767578125 0.120330810546875
138665625.0 -0.1478118896484375 0.3288116455078125
169887500.0 0.124114990234375 0.4175567626953125
201109375.0 0.4221954345703125 0.280548095703125
232331250.0 0.57904052734375 -0.058074951171875
263553125.0 0.4895782470703125 -0.4536285400390625
294775000.0 0.097900390625 -0.73321533203125
325996875.0 -0.41632080078125 -0.680694580078125
357218750.0 -0.807098388671875 -0.296539306640625
388440625.0 -0.886016845703125 0.30169677734375
419662500.0 -0.516815185546875 0.867156982421875
450884375.0 0.17431640625 1.02899169921875
482106250.0 0.79937744140625 0.712158203125
513328125.0 1.1197509765625 0.086181640625
544550000.0 1.0035400390625 -0.680908203125
575771875.0 0.33538818359375 -1.23870849609375
606993750.0 -0.5548095703125 -1.17718505859375
638215625.0 -1.16650390625 -0.58953857421875
669437500.0 -1.33984375 0.2347412109375
700659375.0 -0.97027587890625 1.09722900390625
731881250.0 -0.002685546875 1.5430908203125
763103125.0 1.006591796875 1.15545654296875
794325000.0 1.468994140625 0.281005859375
825546875.0 1.36688232421875 -0.6524658203125
856768750.0 0.7935791015625 -1.40155029296875
887990625.0 -0.29437255859375 -1.64825439453125
919212500.0 -1.28948974609375 -1.0777587890625
950434375.0 -1.64886474609375 -0.05792236328125
981656250.0 -1.38250732421875 0.9471435546875
1012878125.0 -0.528564453125 1.67242431640625
1044100000.0 0.6982421875 1.66168212890625
1075321875.0 1.5753173828125 0.8106689453125
1106543750.0 1.70452880859375 -0.314453125
1137765625.0 1.18572998046875 -1.28509521484375
1168987500.0 0.13702392578125 -1.79705810546875
1200209375.0 -1.06268310546875 -1.48291015625
1231431250.0 -1.7279052734375 -0.4521484375
1262653125.0 -1.59393310546875 0.68634033203125
1293875000.0 -0.8505859375 1.4923095703125
1325096875.0 0.22943115234375 1.706298828125
1356318750.0 1.23565673828125 1.21563720703125
1387540625.0 1.73992919921875 0.1873779296875
1418762500.0 1.4688720703125 -0.95220947265625
1449984375.0 0.52813720703125 -1.6263427734375
1481206250.0 -0.5506591796875 -1.5556640625
1512428125.0 -1.3421630859375 -0.91876220703125
1543650000.0 -1.65545654296875 0.06658935546875
1574871875.0 -1.2725830078125 1.1094970703125
1606093750.0 -0.2713623046875 1.63140869140625
1637315625.0 0.74322509765625 1.39990234375
1668537500.0 1.39666748046875 0.694580078125
1699759375.0 1.57293701171875 -0.27825927734375
1730981250.0 1.06280517578125 -1.2296142578125
1762203125.0 0.04083251953125 -1.57025146484375
1793425000.0 -0.8564453125 -1.22540283203125
1824646875.0 -1.3929443359375 -0.51458740234375
1855868750.0 -1.4737548828125 0.43304443359375
1887090625.0 -0.8743896484375 1.28564453125
1918312500.0 0.11785888671875 1.48651123046875
1949534375.0 0.92169189453125 1.08837890625
1980756250.0 1.375244140625 0.3692626953125
2011978125.0 1.3590087890625 -0.5328369140625
2043200000.0 0.74896240234375 -1.2613525390625
2074421875.0 -0.15765380859375 -1.432373046875
2105643750.0 -0.9609375 -1.0714111328125
2136865625.0 -1.447509765625 -0.3037109375
2168087500.0 -1.35614013671875 0.6717529296875
2199309375.0 -0.63812255859375 1.3511962890625
2230531250.0 0.28228759765625 1.43511962890625
2261753125.0 1.072509765625 1.0133056640625
2292975000.0 1.51373291015625 0.16943359375
2324196875.0 1.30438232421875 -0.81927490234375
2355418750.0 0.5242919921875 -1.41973876953125
2386640625.0 -0.40496826171875 -1.44805908203125
2417862500.0 -1.18121337890625 -1.02325439453125
2449084375.0 -1.604248046875 -0.08306884765625
2480306250.0 -1.310546875 0.9261474609375
2511528125.0 -0.4927978515625 1.50750732421875
2542750000.0 0.49005126953125 1.535400390625
2573971875.0 1.37078857421875 0.9666748046875
2605193750.0 1.71710205078125 -0.11370849609375
2636415625.0 1.26068115234375 -1.15203857421875
2667637500.0 0.30462646484375 -1.6671142578125
2698859375.0 -0.77001953125 -1.53302001953125
2730081250.0 -1.57464599609375 -0.73883056640625
2761303125.0 -1.679931640625 0.38800048828125
2792525000.0 -1.09820556640625 1.30792236328125
2823746875.0 -0.1004638671875 1.7293701171875
2854968750.0 1.01300048828125 1.45391845703125
2886190625.0 1.6927490234375 0.4898681640625
2917412500.0 1.5989990234375 -0.6181640625
2948634375.0 0.93890380859375 -1.43365478515625
2979856250.0 -0.10943603515625 -1.77490234375
3011078125.0 -1.24853515625 -1.34075927734375
3042300000.0 -1.77349853515625 -0.23358154296875
3073521875.0 -1.50762939453125 0.8385009765625
3104743750.0 -0.76220703125 1.56793212890625
3135965625.0 0.36285400390625 1.80767822265625
3167187500.0 1.49932861328125 1.1630859375
3198409375.0 1.81488037109375 -0.07623291015625
3229631250.0 1.34783935546875 -1.0819091796875
3260853125.0 0.48736572265625 -1.66876220703125
3292075000.0 -0.65509033203125 -1.6954345703125
3323296875.0 -1.6199951171875 -0.87762451171875
3354518750.0 -1.729248046875 0.329345703125
3385740625.0 -1.15460205078125 1.232666015625
3416962500.0 -0.230712890625 1.68011474609375
3448184375.0 0.86090087890625 1.52044677734375
3479406250.0 1.6358642578125 0.64312744140625
3510628125.0 1.64288330078125 -0.49456787109375
3541850000.0 0.9993896484375 -1.35552978515625
3573071875.0 -0.00933837890625 -1.68231201171875
3604293750.0 -1.028564453125 -1.33612060546875
3635515625.0 -1.627685546875 -0.4371337890625
3666737500.0 -1.56170654296875 0.6478271484375
3697959375.0 -0.82330322265625 1.4769287109375
3729181250.0 0.26898193359375 1.62939453125
3760403125.0 1.1524658203125 1.09637451171875
3791625000.0 1.55072021484375 0.21728515625
3822846875.0 1.40057373046875 -0.76116943359375
3854068750.0 0.61859130859375 -1.48040771484375
3885290625.0 -0.42230224609375 -1.48016357421875
3916512500.0 -1.141357421875 -0.90997314453125
3947734375.0 -1.44671630859375 -0.11920166015625
3978956250.0 -1.2965087890625 0.7796630859375
4010178125.0 -0.53131103515625 1.4534912109375
4041400000.0 0.47406005859375 1.41448974609375
4072621875.0 1.15283203125 0.84637451171875
4103843750.0 1.444091796875 0.06231689453125
4135065625.0 1.266845703125 -0.84625244140625
4166287500.0 0.45721435546875 -1.4951171875
4197509375.0 -0.55865478515625 -1.41473388671875
4228731250.0 -1.24713134765625 -0.80169677734375
4259953125.0 -1.50872802734375 0.0718994140625
4291175000.0 -1.18731689453125 1.0098876953125
4322396875.0 -0.28826904296875 1.52679443359375
4353618750.0 0.67352294921875 1.34893798828125
4384840625.0 1.3214111328125 0.6964111328125
4416062500.0 1.4993896484375 -0.22747802734375
4447284375.0 1.05419921875 -1.10491943359375
4478506250.0 0.17132568359375 -1.4951171875
4509728125.0 -0.732421875 -1.30633544921875
4540950000.0 -1.392578125 -0.63494873046875
4572171875.0 -1.521240234375 0.360595703125
4603393750.0 -0.971923828125 1.2119140625
4634615625.0 -0.06085205078125 1.53662109375
4665837500.0 0.8707275390625 1.303955078125
4697059375.0 1.5416259765625 0.51434326171875
4728281250.0 1.52825927734375 -0.58233642578125
4759503125.0 0.822998046875 -1.3653564453125
4790725000.0 -0.14569091796875 -1.57177734375
4821946875.0 -1.08319091796875 -1.19329833984375
4853168750.0 -1.612060546875 -0.2510986328125
4884390625.0 -1.37713623046875 0.79345703125
4915612500.0 -0.612548828125 1.411865234375
4946834375.0 0.32879638671875 1.50787353515625
4978056250.0 1.20562744140625 1.016845703125
5009278125.0 1.5609130859375 0.038818359375
5040500000.0 1.22882080078125 -0.87640380859375
5071721875.0 0.50067138671875 -1.4146728515625
5102943750.0 -0.44683837890625 -1.4952392578125
5134165625.0 -1.335693359375 -0.9051513671875
5165387500.0 -1.566650390625 0.14556884765625
5196609375.0 -1.13580322265625 1.00823974609375
5227831250.0 -0.35693359375 1.50640869140625
5259053125.0 0.68853759765625 1.4918212890625
5290275000.0 1.52044677734375 0.662841796875
5321496875.0 1.49169921875 -0.43060302734375
5352718750.0 0.92083740234375 -1.15362548828125
5383940625.0 0.0965576171875 -1.4993896484375
5415162500.0 -0.90130615234375 -1.28289794921875
5446384375.0 -1.4844970703125 -0.369384765625
5477606250.0 -1.29827880859375 0.56640625
5508828125.0 -0.730224609375 1.15216064453125
5540050000.0 0.0546875 1.3985595703125
5571271875.0 0.93865966796875 1.10784912109375
5602493750.0 1.40771484375 0.25958251953125
5633715625.0 1.231689453125 -0.6129150390625
5664937500.0 0.6478271484375 -1.200439453125
5696159375.0 -0.19732666015625 -1.38348388671875
5727381250.0 -1.0208740234375 -0.97869873046875
5758603125.0 -1.39093017578125 -0.14483642578125
5789825000.0 -1.19384765625 0.7181396484375
5821046875.0 -0.50653076171875 1.30645751953125
5852268750.0 0.411376953125 1.31243896484375
5883490625.0 1.0716552734375 0.77166748046875
5914712500.0 1.30169677734375 0.01953125
5945934375.0 1.09600830078125 -0.77655029296875
5977156250.0 0.36151123046875 -1.31243896484375
6008378125.0 -0.509033203125 -1.1815185546875
6039600000.0 -1.0225830078125 -0.64825439453125
6070821875.0 -1.22314453125 -0.00445556640625
6102043750.0 -1.08258056640625 0.761962890625
6133265625.0 -0.342041015625 1.34368896484375
6164487500.0 0.56304931640625 1.18695068359375
6195709375.0 1.0701904296875 0.629638671875
6226931250.0 1.27935791015625 -0.04302978515625
6258153125.0 1.104248046875 -0.87103271484375
6289375000.0 0.25592041015625 -1.44610595703125
6320596875.0 -0.689453125 -1.2054443359375
6351818750.0 -1.19915771484375 -0.5718994140625
6383040625.0 -1.35430908203125 0.20697021484375
6414262500.0 -0.999755859375 1.05706787109375
6445484375.0 -0.0784912109375 1.45623779296875
6476706250.0 0.796142578125 1.1478271484375
6507928125.0 1.29022216796875 0.4697265625
6539150000.0 1.34747314453125 -0.3875732421875
6570371875.0 0.84100341796875 -1.1434326171875
6601593750.0 -0.0179443359375 -1.4044189453125
6632815625.0 -0.8397216796875 -1.135986328125
6664037500.0 -1.40087890625 -0.41937255859375
6695259375.0 -1.373046875 0.56524658203125
6726481250.0 -0.709716796875 1.25164794921875
6757703125.0 0.13092041015625 1.40643310546875
6788925000.0 0.95538330078125 1.13037109375
6820146875.0 1.55999755859375 0.2877197265625
6851368750.0 1.3260498046875 -0.82000732421875
6882590625.0 0.50604248046875 -1.3397216796875
6913812500.0 -0.293212890625 -1.35699462890625
6945034375.0 -1.071533203125 -1.02178955078125
6976256250.0 -1.59228515625 -0.09307861328125
7007478125.0 -1.23614501953125 0.93212890625
7038700000.0 -0.40179443359375 1.3419189453125
7069921875.0 0.35894775390625 1.32257080078125
7101143750.0 1.11767578125 0.9678955078125
7132365625.0 1.59912109375 0.01458740234375
7163587500.0 1.15692138671875 -1.02191162109375
7194809375.0 0.3018798828125 -1.39654541015625
7226031250.0 -0.5111083984375 -1.3250732421875
7257253125.0 -1.268798828125 -0.82281494140625
7288475000.0 -1.55755615234375 0.19732666015625
7319696875.0 -1.02874755859375 1.108642578125
7350918750.0 -0.1644287109375 1.4429931640625
7382140625.0 0.71551513671875 1.275634765625
7413362500.0 1.37451171875 0.576904296875
7444584375.0 1.41143798828125 -0.406494140625
7475806250.0 0.85821533203125 -1.14202880859375
7507028125.0 0.006103515625 -1.429443359375
7538250000.0 -0.8870849609375 -1.12335205078125
7569471875.0 -1.33685302734375 -0.31072998046875
7600693750.0 -1.2030029296875 0.49725341796875
7631915625.0 -0.716796875 1.08514404296875
7663137500.0 0.081787109375 1.35906982421875
7694359375.0 0.940704345703125 0.97882080078125
7725581250.0 1.243896484375 0.17926025390625
7756803125.0 1.08209228515625 -0.499755859375
7788025000.0 0.66998291015625 -1.04351806640625
7819246875.0 -0.1185302734375 -1.3460693359375
7850468750.0 -0.99176025390625 -0.91522216796875
7881690625.0 -1.23284912109375 -0.103759765625
7912912500.0 -1.0537109375 0.5533447265625
7944134375.0 -0.6048583984375 1.11395263671875
7975356250.0 0.2728271484375 1.33642578125
8006578125.0 1.04644775390625 0.7791748046875
8037800000.0 1.1932373046875 0.0169677734375
8069021875.0 1.00653076171875 -0.61663818359375
8100243750.0 0.4991455078125 -1.16156005859375
8131465625.0 -0.388427734375 -1.25311279296875
8162687500.0 -1.03192138671875 -0.68609619140625
8193909375.0 -1.18109130859375 0.00921630859375
8225131250.0 -1.01763916015625 0.67926025390625
8256353125.0 -0.4215087890625 1.248291015625
8287575000.0 0.50079345703125 1.2264404296875
8318796875.0 1.083984375 0.63555908203125
8350018750.0 1.2442626953125 -0.07586669921875
8381240625.0 1.03125 -0.84063720703125
8412462500.0 0.2548828125 -1.3739013671875
8443684375.0 -0.66766357421875 -1.169921875
8474906250.0 -1.176025390625 -0.53167724609375
8506128125.0 -1.298095703125 0.23687744140625
8537350000.0 -0.9246826171875 1.046875
8568571875.0 -0.01483154296875 1.3955078125
8599793750.0 0.80291748046875 1.05316162109375
8631015625.0 1.24169921875 0.39898681640625
8662237500.0 1.28521728515625 -0.4293212890625
8693459375.0 0.7369384765625 -1.17791748046875
8724681250.0 -0.16253662109375 -1.331787109375
8755903125.0 -0.88092041015625 -0.958038330078125
8787125000.0 -1.3031005859375 -0.2823486328125
8818346875.0 -1.25054931640625 0.6153564453125
8849568750.0 -0.556884765625 1.25909423828125
8880790625.0 0.29876708984375 1.28466796875
8912012500.0 0.981903076171875 0.892852783203125
8943234375.0 1.39825439453125 0.13006591796875
8974456250.0 1.167236328125 -0.83917236328125
9005678125.0 0.3492431640625 -1.31427001953125
9036900000.0 -0.44476318359375 -1.22601318359375
9068121875.0 -1.10247802734375 -0.78515625
9099343750.0 -1.44024658203125 0.09600830078125
9130565625.0 -0.97979736328125 1.00982666015625
9161787500.0 -0.1549072265625 1.282958984375
9193009375.0 0.55450439453125 1.133544921875
9224231250.0 1.17919921875 0.65447998046875
9255453125.0 1.400146484375 -0.29791259765625
9286675000.0 0.80621337890625 -1.0849609375
9317896875.0 0.026123046875 -1.24566650390625
9349118750.0 -0.65496826171875 -1.06976318359375
9380340625.0 -1.2574462890625 -0.509521484375
9411562500.0 -1.310791015625 0.4764404296875
9442784375.0 -0.64849853515625 1.11553955078125
9474006250.0 0.08843994140625 1.2103271484375
9505228125.0 0.76422119140625 0.980560302734375
9536450000.0 1.27471923828125 0.31341552734375
9567671875.0 1.14483642578125 -0.58056640625
9598893750.0 0.531494140625 -1.0701904296875
9630115625.0 -0.14483642578125 -1.1585693359375
9661337500.0 -0.81884765625 -0.90283203125
9692559375.0 -1.23931884765625 -0.1910400390625
9723781250.0 -1.0438232421875 0.6043701171875
9755003125.0 -0.48614501953125 1.05120849609375
9786225000.0 0.19793701171875 1.15948486328125
9817446875.0 0.895355224609375 0.82781982421875
9848668750.0 1.1983642578125 0.07757568359375
9879890625.0 0.96893310546875 -0.617645263671875
9911112500.0 0.452392578125 -1.0511474609375
9942334375.0 -0.26629638671875 -1.1591796875
9973556250.0 -0.944183349609375 -0.737884521484375
10004778125.0 -1.14581298828125 -0.017333984375
10036000000.0 -0.944427490234375 0.61602783203125
10067221875.0 -0.441650390625 1.0985107421875
10098443750.0 0.3685302734375 1.18084716796875
10129665625.0 1.003662109375 0.64288330078125
10160887500.0 1.12109375 -0.05328369140625
10192109375.0 0.91748046875 -0.663360595703125
10223331250.0 0.361572265625 -1.1534423828125
10254553125.0 -0.48577880859375 -1.11407470703125
10285775000.0 -0.9864501953125 -0.534698486328125
10316996875.0 -1.06744384765625 0.077880859375
10348218750.0 -0.900360107421875 0.670166015625
10379440625.0 -0.32257080078125 1.1748046875
10410662500.0 0.52716064453125 1.08526611328125
10441884375.0 0.9925537109375 0.521148681640625
10473106250.0 1.10772705078125 -0.08349609375
10504328125.0 0.9488525390625 -0.756988525390625
10535550000.0 0.240966796875 -1.294189453125
10566771875.0 -0.6575927734375 -1.07733154296875
10597993750.0 -1.08172607421875 -0.45849609375
10629215625.0 -1.1756591796875 0.206298828125
10660437500.0 -0.888214111328125 0.95166015625
10691659375.0 -0.0115966796875 1.33587646484375
10722881250.0 0.78668212890625 0.952880859375
10754103125.0 1.1185302734375 0.32525634765625
10785325000.0 1.14007568359375 -0.3681640625
10816546875.0 0.70062255859375 -1.04901123046875
10847768750.0 -0.14642333984375 -1.2298583984375
10878990625.0 -0.8038330078125 -0.843963623046875
10910212500.0 -1.12255859375 -0.24560546875
10941434375.0 -1.09735107421875 0.4771728515625
10972656250.0 -0.5689697265625 1.08587646484375
11003878125.0 0.2183837890625 1.1754150390625
11035100000.0 0.84869384765625 0.822845458984375
11066321875.0 1.22003173828125 0.17474365234375
11097543750.0 1.09881591796875 -0.67633056640625
11128765625.0 0.3863525390625 -1.20001220703125
11159987500.0 -0.3958740234375 -1.13946533203125
11191209375.0 -0.9993896484375 -0.7032470703125
11222431250.0 -1.2730712890625 0.0943603515625
11253653125.0 -0.860015869140625 0.8961181640625
11284875000.0 -0.115478515625 1.1265869140625
11316096875.0 0.513092041015625 0.956451416015625
11347318750.0 1.0047607421875 0.50244140625
11378540625.0 1.11773681640625 -0.26995849609375
11409762500.0 0.634857177734375 -0.85955810546875
11440984375.0 0.034576416015625 -0.978302001953125
11472206250.0 -0.481109619140625 -0.85003662109375
11503428125.0 -0.95196533203125 -0.457061767578125
11534650000.0 -1.069091796875 0.28857421875
11565871875.0 -0.602294921875 0.8555908203125
11597093750.0 -0.019500732421875 0.99078369140625
11628315625.0 0.54522705078125 0.87591552734375
11659537500.0 1.0599365234375 0.39166259765625
11690759375.0 1.065185546875 -0.43304443359375
11721981250.0 0.516815185546875 -0.941650390625
11753203125.0 -0.1063232421875 -1.03680419921875
11784425000.0 -0.724822998046875 -0.80841064453125
11815646875.0 -1.10211181640625 -0.15057373046875
11846868750.0 -0.891845703125 0.551849365234375
11878090625.0 -0.3912353515625 0.9083251953125
11909312500.0 0.185333251953125 0.98406982421875
11940534375.0 0.780975341796875 0.69512939453125
11971756250.0 1.02532958984375 0.0400390625
12002978125.0 0.806671142578125 -0.537109375
12034200000.0 0.381805419921875 -0.88897705078125
12065421875.0 -0.21588134765625 -1.01055908203125
12096643750.0 -0.84893798828125 -0.665618896484375
12127865625.0 -1.033203125 0.01629638671875
12159087500.0 -0.814697265625 0.5745849609375
12190309375.0 -0.37811279296875 0.974456787109375
12221531250.0 0.3375244140625 1.088623046875
12252753125.0 0.979339599609375 0.582733154296875
12283975000.0 1.05462646484375 -0.1279296875
12315196875.0 0.801025390625 -0.676727294921875
12346418750.0 0.281005859375 -1.09259033203125
12377640625.0 -0.53875732421875 -1.06158447265625
12408862500.0 -1.03363037109375 -0.41973876953125
12440084375.0 -1.0087890625 0.22412109375
12471306250.0 -0.742401123046875 0.73876953125
12502528125.0 -0.1793212890625 1.1204833984375
12533750000.0 0.61859130859375 0.993072509765625
12564971875.0 1.0413818359375 0.36376953125
12596193750.0 1.02923583984375 -0.2637939453125
12627415625.0 0.747711181640625 -0.830352783203125
12658637500.0 0.07928466796875 -1.20843505859375
12689859375.0 -0.735595703125 -0.96588134765625
12721081250.0 -1.11767578125 -0.30633544921875
12752303125.0 -1.0977783203125 0.3814697265625
12783525000.0 -0.687255859375 1.02789306640625
12814746875.0 0.1630859375 1.2506103515625
12845968750.0 0.864654541015625 0.811004638671875
12877190625.0 1.1175537109375 0.17193603515625
12908412500.0 1.05706787109375 -0.50238037109375
12939634375.0 0.5439453125 -1.1146240234375
12970856250.0 -0.32159423828125 -1.17706298828125
13002078125.0 -0.894287109375 -0.694793701171875
13033300000.0 -1.1070556640625 -0.08538818359375
13064521875.0 -1.00994873046875 0.595458984375
13095743750.0 -0.4202880859375 1.15667724609375
13126965625.0 0.40972900390625 1.12115478515625
13158187500.0 0.9481201171875 0.63238525390625
13189409375.0 1.14605712890625 -0.0198974609375
13220631250.0 0.93695068359375 -0.74853515625
13251853125.0 0.23492431640625 -1.17181396484375
13283075000.0 -0.50714111328125 -1.01947021484375
13314296875.0 -0.9871826171875 -0.528900146484375
13345518750.0 -1.136474609375 0.17852783203125
