!Created with skrf (http://scikit-rf.org).
# Hz S RI R 50.0 
!freq ReS11 ImS11
45000000.0 -0.07671737670898438 -0.09704208374023438
76221875.0 -0.1968994140625 -0.0481109619140625
107443750.0 -0.2559814453125 0.1193389892578125
138665625.0 -0.1495819091796875 0.3291473388671875
169887500.0 0.1225128173828125 0.4188690185546875
201109375.0 0.4221038818359375 0.283111572265625
232331250.0 0.580657958984375 -0.05596923828125
263553125.0 0.492218017578125 -0.452880859375
294775000.0 0.100738525390625 -0.734527587890625
325996875.0 -0.414764404296875 -0.684112548828125
357218750.0 -0.808319091796875 -0.300384521484375
388440625.0 -0.889373779296875 0.29901123046875
419662500.0 -0.521392822265625 0.86749267578125
450884375.0 0.17034912109375 1.03240966796875
482106250.0 0.79876708984375 0.717529296875
513328125.0 1.12249755859375 0.0904541015625
544550000.0 1.00811767578125 -0.678955078125
575771875.0 0.34088134765625 -1.24005126953125
606993750.0 -0.55157470703125 -1.18206787109375
638215625.0 -1.1669921875 -0.5955810546875
669437500.0 -1.343994140625 0.23052978515625
700659375.0 -0.97625732421875 1.095947265625
731881250.0 -0.00885009765625 1.5469970703125
763103125.0 1.004638671875 1.16229248046875
794325000.0 1.4720458984375 0.2872314453125
825546875.0 1.37274169921875 -0.6492919921875
856768750.0 0.80047607421875 -1.40313720703125
887990625.0 -0.28961181640625 -1.65386962890625
919212500.0 -1.28924560546875 -1.08599853515625
950434375.0 -1.6541748046875 -0.063232421875
981656250.0 -1.38983154296875 0.94580078125
1012878125.0 -0.53594970703125 1.6759033203125
1044100000.0 0.69464111328125 1.6695556640625
1075321875.0 1.5782470703125 0.819091796875
1106543750.0 1.71148681640625 -0.30926513671875
1137765625.0 1.19390869140625 -1.284912109375
1168987500.0 0.14385986328125 -1.8028564453125
1200209375.0 -1.061279296875 -1.4918212890625
1231431250.0 -1.73193359375 -0.4595947265625
1262653125.0 -1.6007080078125 0.68255615234375
1293875000.0 -0.858642578125 1.49371337890625
1325096875.0 0.2239990234375 1.71246337890625
1356318750.0 1.2353515625 1.2244873046875
1387540625.0 1.74493408203125 0.194580078125
1418762500.0 1.47662353515625 -0.9500732421875
1449984375.0 0.53533935546875 -1.6297607421875
1481206250.0 -0.54681396484375 -1.56231689453125
1512428125.0 -1.3436279296875 -0.9259033203125
1543650000.0 -1.66046142578125 0.0615234375
1574871875.0 -1.27978515625 1.10870361328125
1606093750.0 -0.27777099609375 1.6353759765625
1637315625.0 0.74053955078125 1.40606689453125
1668537500.0 1.3984375 0.7015380859375
1699759375.0 1.57830810546875 -0.27398681640625
1730981250.0 1.07012939453125 -1.23004150390625
1762203125.0 0.0465087890625 -1.57470703125
1793425000.0 -0.85504150390625 -1.2315673828125
1824646875.0 -1.395751953125 -0.52008056640625
1855868750.0 -1.47906494140625 0.4290771484375
1887090625.0 -0.8807373046875 1.28704833984375
1918312500.0 0.11370849609375 1.4915771484375
1949534375.0 0.92138671875 1.0943603515625
1980756250.0 1.37835693359375 0.37445068359375
2011978125.0 1.3646240234375 -0.5294189453125
2043200000.0 0.75518798828125 -1.26312255859375
2074421875.0 -0.153564453125 -1.437255859375
2105643750.0 -0.96044921875 -1.07733154296875
2136865625.0 -1.450439453125 -0.30889892578125
2168087500.0 -1.362548828125 0.66949462890625
2199309375.0 -0.6439208984375 1.35394287109375
2230531250.0 0.27947998046875 1.4407958984375
2261753125.0 1.07342529296875 1.01861572265625
2292975000.0 1.51837158203125 0.173828125
2324196875.0 1.31072998046875 -0.81805419921875
2355418750.0 0.530029296875 -1.42218017578125
2386640625.0 -0.4022216796875 -1.45355224609375
2417862500.0 -1.18292236328125 -1.02984619140625
2449084375.0 -1.60955810546875 -0.08721923828125
2480306250.0 -1.3177490234375 0.92620849609375
2511528125.0 -0.49920654296875 1.51031494140625
2542750000.0 0.48626708984375 1.541748046875
2573971875.0 1.37445068359375 0.97369384765625
2605193750.0 1.72265625 -0.10888671875
2636415625.0 1.26788330078125 -1.15252685546875
2667637500.0 0.30987548828125 -1.67193603515625
2698859375.0 -0.7685546875 -1.53997802734375
2730081250.0 -1.57769775390625 -0.74578857421875
2761303125.0 -1.68707275390625 0.3858642578125
2792525000.0 -1.1051025390625 1.30975341796875
2823746875.0 -0.10595703125 1.7353515625
2854968750.0 1.0126953125 1.462158203125
2886190625.0 1.69580078125 0.4967041015625
2917412500.0 1.60601806640625 -0.61669921875
2948634375.0 0.9453125 -1.43560791015625
2979856250.0 -0.1048583984375 -1.78204345703125
3011078125.0 -1.24908447265625 -1.3482666015625
3042300000.0 -1.78021240234375 -0.23797607421875
3073521875.0 -1.514892578125 0.8380126953125
3104743750.0 -0.76837158203125 1.5723876953125
3135965625.0 0.35968017578125 1.8154296875
3167187500.0 1.50177001953125 1.17010498046875
3198409375.0 1.8212890625 -0.072265625
3229631250.0 1.3551025390625 -1.081787109375
3260853125.0 0.4940185546875 -1.67193603515625
3292075000.0 -0.65423583984375 -1.70477294921875
3323296875.0 -1.6229248046875 -0.88543701171875
3354518750.0 -1.7369384765625 0.32708740234375
3385740625.0 -1.16162109375 1.23291015625
3416962500.0 -0.23443603515625 1.6866455078125
3448184375.0 0.85943603515625 1.52703857421875
3479406250.0 1.640625 0.64874267578125
3510628125.0 1.649658203125 -0.49334716796875
3541850000.0 1.00537109375 -1.35675048828125
3573071875.0 -0.00543212890625 -1.6873779296875
3604293750.0 -1.02789306640625 -1.3426513671875
3635515625.0 -1.6319580078125 -0.44232177734375
3666737500.0 -1.5670166015625 0.64471435546875
3697959375.0 -0.829833984375 1.47900390625
3729181250.0 0.2669677734375 1.635986328125
3760403125.0 1.153076171875 1.1025390625
3791625000.0 1.55706787109375 0.22119140625
3822846875.0 1.4071044921875 -0.76068115234375
3854068750.0 0.6246337890625 -1.48370361328125
3885290625.0 -0.41949462890625 -1.48577880859375
3916512500.0 -1.14385986328125 -0.91552734375
3947734375.0 -1.45220947265625 -0.12200927734375
3978956250.0 -1.30291748046875 0.77874755859375
4010178125.0 -0.5345458984375 1.458251953125
4041400000.0 0.4736328125 1.41973876953125
4072621875.0 1.15472412109375 0.85089111328125
4103843750.0 1.44805908203125 0.06549072265625
4135065625.0 1.27203369140625 -0.845947265625
4166287500.0 0.46051025390625 -1.49896240234375
4197509375.0 -0.55804443359375 -1.41925048828125
4228731250.0 -1.24908447265625 -0.80615234375
4259953125.0 -1.51226806640625 0.068359375
4291175000.0 -1.193359375 1.01123046875
4322396875.0 -0.2921142578125 1.53076171875
4353618750.0 0.6739501953125 1.3548583984375
4384840625.0 1.32464599609375 0.70098876953125
4416062500.0 1.5050048828125 -0.22674560546875
4447284375.0 1.05908203125 -1.10693359375
4478506250.0 0.1749267578125 -1.49859619140625
4509728125.0 -0.73333740234375 -1.311767578125
4540950000.0 -1.3968505859375 -0.6387939453125
4572171875.0 -1.52728271484375 0.36016845703125
4603393750.0 -0.9761962890625 1.2147216796875
4634615625.0 -0.0626220703125 1.54156494140625
4665837500.0 0.871337890625 1.30865478515625
4697059375.0 1.54559326171875 0.5186767578125
4728281250.0 1.5338134765625 -0.58343505859375
4759503125.0 0.82623291015625 -1.369384765625
4790725000.0 -0.14385986328125 -1.57598876953125
4821946875.0 -1.086181640625 -1.19873046875
4853168750.0 -1.61883544921875 -0.2525634765625
4884390625.0 -1.38262939453125 0.79400634765625
4915612500.0 -0.61614990234375 1.41595458984375
4946834375.0 0.32720947265625 1.51287841796875
4978056250.0 1.20587158203125 1.02142333984375
5009278125.0 1.56658935546875 0.04095458984375
5040500000.0 1.233642578125 -0.87786865234375
5071721875.0 0.50445556640625 -1.41796875
5102943750.0 -0.447021484375 -1.50146484375
5134165625.0 -1.34002685546875 -0.90911865234375
5165387500.0 -1.5726318359375 0.145263671875
5196609375.0 -1.1395263671875 1.0106201171875
5227831250.0 -0.359375 1.509765625
5259053125.0 0.68902587890625 1.49676513671875
5290275000.0 1.52520751953125 0.6654052734375
5321496875.0 1.4962158203125 -0.4310302734375
5352718750.0 0.92425537109375 -1.155029296875
5383940625.0 0.09820556640625 -1.50421142578125
5415162500.0 -0.90203857421875 -1.2880859375
5446384375.0 -1.48907470703125 -0.37255859375
5477606250.0 -1.30322265625 0.56597900390625
5508828125.0 -0.73419189453125 1.15411376953125
5540050000.0 0.052734375 1.40289306640625
5571271875.0 0.940673828125 1.11260986328125
5602493750.0 1.4124755859375 0.26165771484375
5633715625.0 1.2357177734375 -0.61346435546875
5664937500.0 0.650390625 -1.20440673828125
5696159375.0 -0.1964111328125 -1.38739013671875
5727381250.0 -1.0245361328125 -0.9815673828125
5758603125.0 -1.39434814453125 -0.1466064453125
5789825000.0 -1.19830322265625 0.7183837890625
5821046875.0 -0.5079345703125 1.31011962890625
5852268750.0 0.411865234375 1.31634521484375
5883490625.0 1.0738525390625 0.77459716796875
5914712500.0 1.3065185546875 0.02056884765625
5945934375.0 1.09991455078125 -0.777099609375
5977156250.0 0.3629150390625 -1.3145751953125
6008378125.0 -0.51025390625 -1.1849365234375
6039600000.0 -1.02410888671875 -0.651123046875
6070821875.0 -1.2274169921875 -0.0052490234375
6102043750.0 -1.0869140625 0.76458740234375
6133265625.0 -0.34271240234375 1.349365234375
6164487500.0 0.564453125 1.19049072265625
6195709375.0 1.07275390625 0.63177490234375
6226931250.0 1.283935546875 -0.04248046875
6258153125.0 1.1077880859375 -0.87432861328125
6289375000.0 0.25567626953125 -1.4510498046875
6320596875.0 -0.69049072265625 -1.208251953125
6351818750.0 -1.2025146484375 -0.572998046875
6383040625.0 -1.35772705078125 0.20672607421875
6414262500.0 -1.002197265625 1.06060791015625
6445484375.0 -0.078125 1.460205078125
6476706250.0 0.796875 1.1505126953125
6507928125.0 1.2943115234375 0.47113037109375
6539150000.0 1.35101318359375 -0.38720703125
6570371875.0 0.84381103515625 -1.14599609375
6601593750.0 -0.01763916015625 -1.40924072265625
6632815625.0 -0.8414306640625 -1.13922119140625
6664037500.0 -1.40460205078125 -0.4215087890625
6695259375.0 -1.3775634765625 0.568115234375
6726481250.0 -0.71197509765625 1.25347900390625
6757703125.0 0.1312255859375 1.41070556640625
6788925000.0 0.95733642578125 1.134033203125
6820146875.0 1.56500244140625 0.28802490234375
6851368750.0 1.32891845703125 -0.82305908203125
6882590625.0 0.50732421875 -1.3424072265625
6913812500.0 -0.29345703125 -1.3607177734375
6945034375.0 -1.07373046875 -1.02484130859375
6976256250.0 -1.5970458984375 -0.09295654296875
7007478125.0 -1.23968505859375 0.93536376953125
7038700000.0 -0.40484619140625 1.34503173828125
7069921875.0 0.35821533203125 1.32672119140625
7101143750.0 1.12054443359375 0.97259521484375
7132365625.0 1.605224609375 0.014892578125
7163587500.0 1.16241455078125 -1.02459716796875
7194809375.0 0.30438232421875 -1.40142822265625
7226031250.0 -0.51361083984375 -1.32952880859375
7257253125.0 -1.271728515625 -0.8255615234375
7288475000.0 -1.5634765625 0.19927978515625
7319696875.0 -1.03326416015625 1.111572265625
7350918750.0 -0.16497802734375 1.45013427734375
7382140625.0 0.71856689453125 1.2806396484375
7413362500.0 1.380859375 0.5772705078125
7444584375.0 1.41448974609375 -0.40802001953125
7475806250.0 0.85980224609375 -1.14630126953125
7507028125.0 0.00592041015625 -1.4339599609375
7538250000.0 -0.89093017578125 -1.12677001953125
7569471875.0 -1.340087890625 -0.31158447265625
7600693750.0 -1.205078125 0.49639892578125
7631915625.0 -0.72027587890625 1.087890625
7663137500.0 0.08056640625 1.36297607421875
7694359375.0 0.94342041015625 0.983642578125
7725581250.0 1.24749755859375 0.18096923828125
7756803125.0 1.08636474609375 -0.4998779296875
7788025000.0 0.6727294921875 -1.04864501953125
7819246875.0 -0.1209716796875 -1.3529052734375
7850468750.0 -0.99652099609375 -0.919219970703125
7881690625.0 -1.236083984375 -0.1044921875
7912912500.0 -1.0587158203125 0.55853271484375
7944134375.0 -0.60601806640625 1.11737060546875
7975356250.0 0.27581787109375 1.34002685546875
8006578125.0 1.05059814453125 0.77984619140625
8037800000.0 1.19659423828125 0.0159912109375
8069021875.0 1.0101318359375 -0.61907958984375
8100243750.0 0.50054931640625 -1.16522216796875
8131465625.0 -0.38836669921875 -1.25714111328125
8162687500.0 -1.03460693359375 -0.68804931640625
8193909375.0 -1.18499755859375 0.010009765625
8225131250.0 -1.02154541015625 0.680908203125
8256353125.0 -0.42218017578125 1.25299072265625
8287575000.0 0.50274658203125 1.229248046875
8318796875.0 1.08709716796875 0.6361083984375
8350018750.0 1.24798583984375 -0.0743408203125
8381240625.0 1.0347900390625 -0.84356689453125
8412462500.0 0.253662109375 -1.37847900390625
8443684375.0 -0.67041015625 -1.17352294921875
8474906250.0 -1.18017578125 -0.53253173828125
8506128125.0 -1.30206298828125 0.23876953125
8537350000.0 -0.9259033203125 1.05078125
8568571875.0 -0.01495361328125 1.39862060546875
8599793750.0 0.8057861328125 1.05523681640625
8631015625.0 1.24554443359375 0.39935302734375
8662237500.0 1.2900390625 -0.43133544921875
8693459375.0 0.73870849609375 -1.18218994140625
8724681250.0 -0.1640625 -1.3359375
8755903125.0 -0.88311767578125 -0.96038818359375
8787125000.0 -1.30908203125 -0.282470703125
8818346875.0 -1.255615234375 0.6195068359375
8849568750.0 -0.55792236328125 1.26739501953125
8880790625.0 0.29840087890625 1.28985595703125
8912012500.0 0.9864501953125 0.8948974609375
8943234375.0 1.40618896484375 0.126708984375
8974456250.0 1.16888427734375 -0.84393310546875
9005678125.0 0.347412109375 -1.3172607421875
9036900000.0 -0.4476318359375 -1.22930908203125
9068121875.0 -1.106201171875 -0.7886962890625
9099343750.0 -1.4476318359375 0.101318359375
9130565625.0 -0.97998046875 1.01568603515625
9161787500.0 -0.15447998046875 1.28521728515625
9193009375.0 0.55615234375 1.13665771484375
9224231250.0 1.18450927734375 0.656494140625
9255453125.0 1.40576171875 -0.29949951171875
9286675000.0 0.8092041015625 -1.0892333984375
9317896875.0 0.02667236328125 -1.2518310546875
9349118750.0 -0.6580810546875 -1.07415771484375
9380340625.0 -1.26629638671875 -0.50927734375
9411562500.0 -1.31610107421875 0.48101806640625
9442784375.0 -0.6480712890625 1.12200927734375
9474006250.0 0.0888671875 1.21380615234375
9505228125.0 0.768463134765625 0.983245849609375
9536450000.0 1.281005859375 0.3115234375
9567671875.0 1.14691162109375 -0.58502197265625
9598893750.0 0.5299072265625 -1.072998046875
9630115625.0 -0.14532470703125 -1.161865234375
9661337500.0 -0.8223876953125 -0.90411376953125
9692559375.0 -1.24420166015625 -0.18829345703125
9723781250.0 -1.0447998046875 0.605224609375
9755003125.0 -0.48712158203125 1.05389404296875
9786225000.0 0.20068359375 1.1640625
9817446875.0 0.90020751953125 0.82952880859375
9848668750.0 1.201904296875 0.076904296875
9879890625.0 0.97149658203125 -0.620361328125
9911112500.0 0.45257568359375 -1.05670166015625
9942334375.0 -0.27032470703125 -1.1639404296875
9973556250.0 -0.949066162109375 -0.7386474609375
10004778125.0 -1.14971923828125 -0.014892578125
10036000000.0 -0.947052001953125 0.6190185546875
10067221875.0 -0.44085693359375 1.10272216796875
10098443750.0 0.3746337890625 1.18487548828125
10129665625.0 1.0089111328125 0.64190673828125
10160887500.0 1.121826171875 -0.0533447265625
10192109375.0 0.919189453125 -0.665863037109375
10223331250.0 0.359375 -1.1583251953125
10254553125.0 -0.48785400390625 -1.1158447265625
10285775000.0 -0.98895263671875 -0.534698486328125
10316996875.0 -1.06927490234375 0.077880859375
10348218750.0 -0.90252685546875 0.671722412109375
10379440625.0 -0.32135009765625 1.1805419921875
10410662500.0 0.53167724609375 1.0877685546875
10441884375.0 0.9951171875 0.522552490234375
10473106250.0 1.11346435546875 -0.08599853515625
10504328125.0 0.951751708984375 -0.76348876953125
10535550000.0 0.236572265625 -1.30096435546875
10566771875.0 -0.66192626953125 -1.07916259765625
10597993750.0 -1.08502197265625 -0.45928955078125
10629215625.0 -1.17864990234375 0.207275390625
10660437500.0 -0.88909912109375 0.957183837890625
10691659375.0 -0.00592041015625 1.341552734375
10722881250.0 0.78668212890625 0.953369140625
10754103125.0 1.1241455078125 0.32421875
10785325000.0 1.14166259765625 -0.3687744140625
10816546875.0 0.70086669921875 -1.05377197265625
10847768750.0 -0.14788818359375 -1.23260498046875
10878990625.0 -0.806182861328125 -0.84454345703125
10910212500.0 -1.12554931640625 -0.24383544921875
10941434375.0 -1.10137939453125 0.48187255859375
10972656250.0 -0.5682373046875 1.08966064453125
11003878125.0 0.22161865234375 1.177734375
11035100000.0 0.851531982421875 0.82220458984375
11066321875.0 1.22686767578125 0.17254638671875
11097543750.0 1.101318359375 -0.6806640625
11128765625.0 0.385498046875 -1.2021484375
11159987500.0 -0.3975830078125 -1.14166259765625
11191209375.0 -1.006591796875 -0.7025146484375
11222431250.0 -1.2757568359375 0.09515380859375
11253653125.0 -0.86004638671875 0.897247314453125
11284875000.0 -0.11260986328125 1.1309814453125
11316096875.0 0.5147705078125 0.958465576171875
11347318750.0 1.00689697265625 0.50250244140625
11378540625.0 1.12042236328125 -0.273193359375
11409762500.0 0.634033203125 -0.8646240234375
11440984375.0 0.03399658203125 -0.98193359375
11472206250.0 -0.484375 -0.85284423828125
11503428125.0 -0.956512451171875 -0.4561767578125
11534650000.0 -1.07220458984375 0.29217529296875
11565871875.0 -0.601959228515625 0.8587646484375
11597093750.0 -0.016571044921875 0.9947509765625
11628315625.0 0.54730224609375 0.8782958984375
11659537500.0 1.06427001953125 0.39105224609375
11690759375.0 1.06744384765625 -0.43841552734375
11721981250.0 0.516021728515625 -0.944122314453125
11753203125.0 -0.10821533203125 -1.0401611328125
11784425000.0 -0.728668212890625 -0.81036376953125
11815646875.0 -1.10467529296875 -0.14801025390625
11846868750.0 -0.891937255859375 0.55584716796875
11878090625.0 -0.39178466796875 0.91156005859375
11909312500.0 0.1904296875 0.987823486328125
11940534375.0 0.784820556640625 0.69549560546875
11971756250.0 1.02716064453125 0.03759765625
12002978125.0 0.8070068359375 -0.541107177734375
12034200000.0 0.380584716796875 -0.892486572265625
12065421875.0 -0.2176513671875 -1.01251220703125
12096643750.0 -0.853485107421875 -0.664337158203125
12127865625.0 -1.03704833984375 0.02032470703125
12159087500.0 -0.81591796875 0.57952880859375
12190309375.0 -0.3770751953125 0.97882080078125
12221531250.0 0.34442138671875 1.09130859375
12252753125.0 0.983673095703125 0.5809326171875
12283975000.0 1.0582275390625 -0.1309814453125
12315196875.0 0.801513671875 -0.679962158203125
12346418750.0 0.27996826171875 -1.096435546875
12377640625.0 -0.54443359375 -1.06292724609375
12408862500.0 -1.037109375 -0.41754150390625
12440084375.0 -1.01055908203125 0.2259521484375
12471306250.0 -0.7430419921875 0.74176025390625
12502528125.0 -0.177734375 1.125244140625
12533750000.0 0.625518798828125 0.99420166015625
12564971875.0 1.044921875 0.36358642578125
12596193750.0 1.03240966796875 -0.266357421875
12627415625.0 0.749176025390625 -0.833282470703125
12658637500.0 0.0758056640625 -1.21356201171875
12689859375.0 -0.741058349609375 -0.967529296875
12721081250.0 -1.12127685546875 -0.30450439453125
12752303125.0 -1.1009521484375 0.38751220703125
12783525000.0 -0.68634033203125 1.03399658203125
12814746875.0 0.17071533203125 1.25518798828125
12845968750.0 0.86767578125 0.8115234375
12877190625.0 1.122314453125 0.16986083984375
12908412500.0 1.0584716796875 -0.5059814453125
12939634375.0 0.54095458984375 -1.123291015625
12970856250.0 -0.32568359375 -1.176513671875
13002078125.0 -0.89862060546875 -0.693450927734375
13033300000.0 -1.10955810546875 -0.0833740234375
13064521875.0 -1.01177978515625 0.5997314453125
13095743750.0 -0.4168701171875 1.162109375
13126965625.0 0.413330078125 1.12249755859375
13158187500.0 0.952880859375 0.631683349609375
13189409375.0 1.15325927734375 -0.0242919921875
13220631250.0 0.937774658203125 -0.755523681640625
13251853125.0 0.2310791015625 -1.1778564453125
13283075000.0 -0.51092529296875 -1.02215576171875
13314296875.0 -0.993865966796875 -0.528594970703125
13345518750.0 -1.13983154296875 0.181640625
13376740625.0 -0.751708984375 0.865234375
