!Created with skrf (http://scikit-rf.org).
# Hz S RI R 50.0 
!freq ReS11 ImS11
45000000.0 -0.0769500732421875 -0.09691619873046875
76221875.0 -0.1962127685546875 -0.04753875732421875
107443750.0 -0.25469970703125 0.1196746826171875
138665625.0 -0.1480865478515625 0.3284912109375
169887500.0 0.1234893798828125 0.4171905517578125
201109375.0 0.4215545654296875 0.28070068359375
232331250.0 0.57843017578125 -0.057586669921875
263553125.0 0.4890594482421875 -0.4524383544921875
294775000.0 0.09832763671875 -0.731536865234375
325996875.0 -0.415130615234375 -0.6798095703125
357218750.0 -0.805572509765625 -0.296539306640625
388440625.0 -0.884735107421875 0.300323486328125
419662500.0 -0.516632080078125 0.865447998046875
450884375.0 0.17340087890625 1.0274658203125
482106250.0 0.797607421875 0.7117919921875
513328125.0 1.1182861328125 0.08697509765625
544550000.0 1.00262451171875 -0.67938232421875
575771875.0 0.33587646484375 -1.23663330078125
606993750.0 -0.553466796875 -1.17608642578125
638215625.0 -1.16461181640625 -0.58966064453125
669437500.0 -1.33837890625 0.233642578125
700659375.0 -0.96990966796875 1.09521484375
731881250.0 -0.0032958984375 1.5413818359375
763103125.0 1.00469970703125 1.15435791015625
794325000.0 1.46697998046875 0.28118896484375
825546875.0 1.3656005859375 -0.6505126953125
856768750.0 0.79339599609375 -1.39898681640625
887990625.0 -0.29193115234375 -1.64569091796875
919212500.0 -1.28662109375 -1.07684326171875
950434375.0 -1.64630126953125 -0.0589599609375
981656250.0 -1.380126953125 0.9442138671875
1012878125.0 -0.529296875 1.66943359375
1044100000.0 0.69580078125 1.6593017578125
1075321875.0 1.57275390625 0.8109130859375
1106543750.0 1.7021484375 -0.31292724609375
1137765625.0 1.184814453125 -1.28216552734375
1168987500.0 0.1378173828125 -1.79388427734375
1200209375.0 -1.06005859375 -1.4810791015625
1231431250.0 -1.7247314453125 -0.45263671875
1262653125.0 -1.59173583984375 0.68359375
1293875000.0 -0.850341796875 1.48944091796875
1325096875.0 0.22784423828125 1.7037353515625
1356318750.0 1.2335205078125 1.2144775390625
1387540625.0 1.73687744140625 0.18890380859375
1418762500.0 1.467041015625 -0.949951171875
1449984375.0 0.52825927734375 -1.6231689453125
1481206250.0 -0.54901123046875 -1.5533447265625
1512428125.0 -1.3399658203125 -0.91802978515625
1543650000.0 -1.65301513671875 0.06549072265625
1574871875.0 -1.27130126953125 1.1075439453125
1606093750.0 -0.27227783203125 1.62896728515625
1637315625.0 0.74102783203125 1.39794921875
1668537500.0 1.39404296875 0.69464111328125
1699759375.0 1.57061767578125 -0.27685546875
1730981250.0 1.06231689453125 -1.22698974609375
1762203125.0 0.041748046875 -1.568115234375
1793425000.0 -0.85430908203125 -1.22442626953125
1824646875.0 -1.39117431640625 -0.51416015625
1855868750.0 -1.47174072265625 0.43145751953125
1887090625.0 -0.873291015625 1.283447265625
1918312500.0 0.11700439453125 1.48431396484375
1949534375.0 0.91986083984375 1.08734130859375
1980756250.0 1.37261962890625 0.3697509765625
2011978125.0 1.35736083984375 -0.53045654296875
2043200000.0 0.748779296875 -1.25927734375
2074421875.0 -0.15667724609375 -1.43121337890625
2105643750.0 -0.9586181640625 -1.0709228515625
2136865625.0 -1.44525146484375 -0.304443359375
2168087500.0 -1.354736328125 0.669677734375
2199309375.0 -0.63800048828125 1.34912109375
2230531250.0 0.28143310546875 1.43402099609375
2261753125.0 1.0712890625 1.01220703125
2292975000.0 1.51190185546875 0.1700439453125
2324196875.0 1.3033447265625 -0.81732177734375
2355418750.0 0.5244140625 -1.4176025390625
2386640625.0 -0.40350341796875 -1.4462890625
2417862500.0 -1.177978515625 -1.02288818359375
2449084375.0 -1.602783203125 -0.083984375
2480306250.0 -1.309326171875 0.923095703125
2511528125.0 -0.49310302734375 1.50433349609375
2542750000.0 0.48681640625 1.53326416015625
2573971875.0 1.36724853515625 0.966064453125
2605193750.0 1.7139892578125 -0.1119384765625
2636415625.0 1.25872802734375 -1.149169921875
2667637500.0 0.30615234375 -1.66461181640625
2698859375.0 -0.7681884765625 -1.5313720703125
2730081250.0 -1.56939697265625 -0.73919677734375
2761303125.0 -1.677001953125 0.38623046875
2792525000.0 -1.09698486328125 1.305908203125
2823746875.0 -0.1024169921875 1.72576904296875
2854968750.0 1.01055908203125 1.4527587890625
2886190625.0 1.68792724609375 0.49114990234375
2917412500.0 1.59649658203125 -0.6163330078125
2948634375.0 0.9378662109375 -1.4300537109375
2979856250.0 -0.10723876953125 -1.77288818359375
3011078125.0 -1.24456787109375 -1.3394775390625
3042300000.0 -1.77130126953125 -0.234375
3073521875.0 -1.5052490234375 0.835693359375
3104743750.0 -0.7625732421875 1.56427001953125
3135965625.0 0.36053466796875 1.805419921875
3167187500.0 1.49505615234375 1.162109375
3198409375.0 1.81182861328125 -0.0745849609375
3229631250.0 1.34588623046875 -1.07958984375
3260853125.0 0.488525390625 -1.666259765625
3292075000.0 -0.65374755859375 -1.69500732421875
3323296875.0 -1.61553955078125 -0.8779296875
3354518750.0 -1.72686767578125 0.32794189453125
3385740625.0 -1.153564453125 1.22882080078125
3416962500.0 -0.2314453125 1.67755126953125
3448184375.0 0.85791015625 1.51904296875
3479406250.0 1.631591796875 0.6435546875
3510628125.0 1.64031982421875 -0.49322509765625
3541850000.0 0.9984130859375 -1.35198974609375
3573071875.0 -0.00775146484375 -1.67913818359375
3604293750.0 -1.026611328125 -1.3349609375
3635515625.0 -1.624267578125 -0.43792724609375
3666737500.0 -1.55841064453125 0.64459228515625
3697959375.0 -0.8228759765625 1.4737548828125
3729181250.0 0.26715087890625 1.62750244140625
3760403125.0 1.15008544921875 1.0960693359375
3791625000.0 1.54827880859375 0.21826171875
3822846875.0 1.39849853515625 -0.75848388671875
3854068750.0 0.6197509765625 -1.47821044921875
3885290625.0 -0.41998291015625 -1.47821044921875
3916512500.0 -1.13946533203125 -0.90936279296875
3947734375.0 -1.44500732421875 -0.1199951171875
3978956250.0 -1.29461669921875 0.77667236328125
4010178125.0 -0.53070068359375 1.4512939453125
4041400000.0 0.47125244140625 1.41253662109375
4072621875.0 1.14874267578125 0.84661865234375
4103843750.0 1.44232177734375 0.0635986328125
4135065625.0 1.2655029296875 -0.84375
4166287500.0 0.45721435546875 -1.49285888671875
4197509375.0 -0.555419921875 -1.41278076171875
4228731250.0 -1.244384765625 -0.80194091796875
4259953125.0 -1.506103515625 0.0693359375
4291175000.0 -1.1864013671875 1.00860595703125
4322396875.0 -0.2889404296875 1.52374267578125
4353618750.0 0.671142578125 1.34722900390625
4384840625.0 1.32098388671875 0.696044921875
4416062500.0 1.498291015625 -0.22735595703125
4447284375.0 1.05322265625 -1.10125732421875
4478506250.0 0.17333984375 -1.4913330078125
4509728125.0 -0.7303466796875 -1.30499267578125
4540950000.0 -1.3916015625 -0.634765625
4572171875.0 -1.51971435546875 0.3583984375
4603393750.0 -0.97100830078125 1.210693359375
4634615625.0 -0.0621337890625 1.53363037109375
4665837500.0 0.86810302734375 1.3021240234375
4697059375.0 1.53851318359375 0.5142822265625
4728281250.0 1.52557373046875 -0.57928466796875
4759503125.0 0.82208251953125 -1.36474609375
4790725000.0 -0.1451416015625 -1.5699462890625
4821946875.0 -1.0809326171875 -1.1922607421875
4853168750.0 -1.61041259765625 -0.25128173828125
4884390625.0 -1.3763427734375 0.79071044921875
4915612500.0 -0.61297607421875 1.4083251953125
4946834375.0 0.32781982421875 1.50665283203125
4978056250.0 1.201904296875 1.01593017578125
5009278125.0 1.5594482421875 0.03948974609375
5040500000.0 1.2269287109375 -0.873291015625
5071721875.0 0.50115966796875 -1.4117431640625
5102943750.0 -0.44500732421875 -1.4937744140625
5134165625.0 -1.3328857421875 -0.90460205078125
5165387500.0 -1.56549072265625 0.14532470703125
5196609375.0 -1.13470458984375 1.0081787109375
5227831250.0 -0.35638427734375 1.50396728515625
5259053125.0 0.6861572265625 1.489990234375
5290275000.0 1.51885986328125 0.66253662109375
5321496875.0 1.48974609375 -0.42877197265625
5352718750.0 0.9197998046875 -1.1510009765625
5383940625.0 0.0970458984375 -1.49786376953125
5415162500.0 -0.89862060546875 -1.28173828125
5446384375.0 -1.48114013671875 -0.3701171875
5477606250.0 -1.29718017578125 0.5657958984375
5508828125.0 -0.72991943359375 1.1485595703125
5540050000.0 0.05352783203125 1.3961181640625
5571271875.0 0.936767578125 1.10736083984375
5602493750.0 1.4061279296875 0.25982666015625
5633715625.0 1.23052978515625 -0.61102294921875
5664937500.0 0.6473388671875 -1.1998291015625
5696159375.0 -0.195556640625 -1.380859375
5727381250.0 -1.0196533203125 -0.97772216796875
5758603125.0 -1.38916015625 -0.14532470703125
5789825000.0 -1.1920166015625 0.7158203125
5821046875.0 -0.5062255859375 1.30548095703125
5852268750.0 0.4102783203125 1.3109130859375
5883490625.0 1.069091796875 0.7713623046875
5914712500.0 1.30084228515625 0.01983642578125
5945934375.0 1.094970703125 -0.7750244140625
5977156250.0 0.3612060546875 -1.30950927734375
6008378125.0 -0.5079345703125 -1.18060302734375
6039600000.0 -1.0201416015625 -0.6484375
6070821875.0 -1.22198486328125 -0.00494384765625
6102043750.0 -1.08184814453125 0.76123046875
6133265625.0 -0.3424072265625 1.3426513671875
6164487500.0 0.56134033203125 1.1859130859375
6195709375.0 1.0689697265625 0.629638671875
6226931250.0 1.2784423828125 -0.0421142578125
6258153125.0 1.10382080078125 -0.86859130859375
6289375000.0 0.257080078125 -1.44293212890625
6320596875.0 -0.68829345703125 -1.20489501953125
6351818750.0 -1.19830322265625 -0.57159423828125
6383040625.0 -1.3536376953125 0.20709228515625
6414262500.0 -0.9991455078125 1.0552978515625
6445484375.0 -0.07904052734375 1.45458984375
6476706250.0 0.79412841796875 1.14697265625
6507928125.0 1.287841796875 0.47027587890625
6539150000.0 1.34625244140625 -0.3865966796875
6570371875.0 0.84051513671875 -1.14141845703125
6601593750.0 -0.01666259765625 -1.40325927734375
6632815625.0 -0.83782958984375 -1.1348876953125
6664037500.0 -1.39837646484375 -0.420654296875
6695259375.0 -1.37213134765625 0.5650634765625
6726481250.0 -0.7100830078125 1.24945068359375
6757703125.0 0.1302490234375 1.40478515625
6788925000.0 0.9521484375 1.1292724609375
6820146875.0 1.5579833984375 0.28826904296875
6851368750.0 1.3240966796875 -0.8165283203125
6882590625.0 0.505859375 -1.3372802734375
6913812500.0 -0.29150390625 -1.3544921875
6945034375.0 -1.06787109375 -1.02069091796875
6976256250.0 -1.5894775390625 -0.09490966796875
7007478125.0 -1.2344970703125 0.93109130859375
7038700000.0 -0.402099609375 1.34033203125
7069921875.0 0.35675048828125 1.3209228515625
7101143750.0 1.11676025390625 0.96759033203125
7132365625.0 1.59649658203125 0.01507568359375
7163587500.0 1.15606689453125 -1.01953125
7194809375.0 0.30218505859375 -1.39508056640625
7226031250.0 -0.5084228515625 -1.32269287109375
7257253125.0 -1.263916015625 -0.8240966796875
7288475000.0 -1.55548095703125 0.19671630859375
7319696875.0 -1.02740478515625 1.1064453125
7350918750.0 -0.16424560546875 1.44189453125
7382140625.0 0.713134765625 1.2742919921875
7413362500.0 1.37518310546875 0.5767822265625
7444584375.0 1.40972900390625 -0.404296875
7475806250.0 0.85699462890625 -1.14068603515625
7507028125.0 0.0054931640625 -1.42840576171875
7538250000.0 -0.88568115234375 -1.12237548828125
7569471875.0 -1.33404541015625 -0.310546875
7600693750.0 -1.2010498046875 0.4952392578125
7631915625.0 -0.71746826171875 1.08441162109375
7663137500.0 0.080810546875 1.3565673828125
7694359375.0 0.939056396484375 0.978790283203125
7725581250.0 1.24114990234375 0.1800537109375
7756803125.0 1.08135986328125 -0.4970703125
7788025000.0 0.66986083984375 -1.0413818359375
7819246875.0 -0.11859130859375 -1.34454345703125
7850468750.0 -0.9918212890625 -0.915435791015625
7881690625.0 -1.230224609375 -0.105224609375
7912912500.0 -1.0537109375 0.55340576171875
7944134375.0 -0.60540771484375 1.111572265625
7975356250.0 0.27117919921875 1.33416748046875
8006578125.0 1.0458984375 0.77825927734375
8037800000.0 1.19140625 0.0177001953125
8069021875.0 1.0052490234375 -0.616455078125
8100243750.0 0.49951171875 -1.16009521484375
8131465625.0 -0.3865966796875 -1.253173828125
8162687500.0 -1.0296630859375 -0.68634033203125
8193909375.0 -1.179443359375 0.00836181640625
8225131250.0 -1.0167236328125 0.67608642578125
8256353125.0 -0.42156982421875 1.24603271484375
8287575000.0 0.49969482421875 1.22509765625
8318796875.0 1.08026123046875 0.6351318359375
8350018750.0 1.24383544921875 -0.07525634765625
8381240625.0 1.0302734375 -0.83935546875
8412462500.0 0.25531005859375 -1.370849609375
8443684375.0 -0.66864013671875 -1.16851806640625
8474906250.0 -1.17291259765625 -0.53289794921875
8506128125.0 -1.297119140625 0.23675537109375
8537350000.0 -0.9228515625 1.04461669921875
8568571875.0 -0.01593017578125 1.39306640625
8599793750.0 0.80023193359375 1.0516357421875
8631015625.0 1.24017333984375 0.39862060546875
8662237500.0 1.28472900390625 -0.4267578125
8693459375.0 0.73602294921875 -1.17474365234375
8724681250.0 -0.16119384765625 -1.330810546875
8755903125.0 -0.878875732421875 -0.956756591796875
8787125000.0 -1.30206298828125 -0.28271484375
8818346875.0 -1.24945068359375 0.6136474609375
8849568750.0 -0.55682373046875 1.2589111328125
8880790625.0 0.2974853515625 1.28369140625
8912012500.0 0.9791259765625 0.891632080078125
8943234375.0 1.39764404296875 0.12994384765625
8974456250.0 1.16558837890625 -0.8377685546875
9005678125.0 0.35003662109375 -1.312255859375
9036900000.0 -0.44317626953125 -1.22271728515625
9068121875.0 -1.099365234375 -0.7862548828125
9099343750.0 -1.43988037109375 0.09747314453125
9130565625.0 -0.97900390625 1.00927734375
9161787500.0 -0.1541748046875 1.28216552734375
9193009375.0 0.5537109375 1.13226318359375
9224231250.0 1.17779541015625 0.6546630859375
9255453125.0 1.3974609375 -0.29425048828125
9286675000.0 0.80694580078125 -1.0836181640625
9317896875.0 0.02740478515625 -1.244384765625
9349118750.0 -0.6529541015625 -1.068603515625
9380340625.0 -1.25372314453125 -0.51129150390625
9411562500.0 -1.30975341796875 0.4761962890625
9442784375.0 -0.64862060546875 1.11431884765625
9474006250.0 0.08709716796875 1.20892333984375
9505228125.0 0.76116943359375 0.979461669921875
9536450000.0 1.27191162109375 0.31304931640625
9567671875.0 1.14385986328125 -0.578125
9598893750.0 0.52923583984375 -1.06927490234375
9630115625.0 -0.14288330078125 -1.15692138671875
9661337500.0 -0.81646728515625 -0.9017333984375
9692559375.0 -1.23681640625 -0.19073486328125
9723781250.0 -1.04296875 0.60186767578125
9755003125.0 -0.4849853515625 1.0499267578125
9786225000.0 0.19744873046875 1.15777587890625
9817446875.0 0.893768310546875 0.827392578125
9848668750.0 1.19677734375 0.07855224609375
9879890625.0 0.967620849609375 -0.61529541015625
9911112500.0 0.4520263671875 -1.0506591796875
9942334375.0 -0.26641845703125 -1.15753173828125
9973556250.0 -0.940399169921875 -0.73785400390625
10004778125.0 -1.14459228515625 -0.0189208984375
10036000000.0 -0.943084716796875 0.615936279296875
10067221875.0 -0.44342041015625 1.09356689453125
10098443750.0 0.36773681640625 1.18011474609375
10129665625.0 0.99969482421875 0.6431884765625
10160887500.0 1.1201171875 -0.052001953125
10192109375.0 0.91729736328125 -0.661895751953125
10223331250.0 0.3619384765625 -1.149658203125
10254553125.0 -0.48345947265625 -1.11285400390625
10285775000.0 -0.986785888671875 -0.53515625
10316996875.0 -1.065673828125 0.07574462890625
10348218750.0 -0.8994140625 0.667022705078125
10379440625.0 -0.3223876953125 1.17327880859375
10410662500.0 0.52618408203125 1.08477783203125
10441884375.0 0.9881591796875 0.521484375
10473106250.0 1.107177734375 -0.08319091796875
10504328125.0 0.948516845703125 -0.75396728515625
10535550000.0 0.2392578125 -1.29351806640625
10566771875.0 -0.65509033203125 -1.0751953125
10597993750.0 -1.0802001953125 -0.45916748046875
10629215625.0 -1.174072265625 0.20501708984375
10660437500.0 -0.8873291015625 0.95166015625
10691659375.0 -0.01165771484375 1.33392333984375
10722881250.0 0.782745361328125 0.951629638671875
10754103125.0 1.11895751953125 0.323974609375
10785325000.0 1.13848876953125 -0.3660888671875
10816546875.0 0.70037841796875 -1.04766845703125
10847768750.0 -0.14453125 -1.22808837890625
10878990625.0 -0.801422119140625 -0.845062255859375
10910212500.0 -1.1219482421875 -0.2459716796875
10941434375.0 -1.0963134765625 0.47650146484375
10972656250.0 -0.567626953125 1.08551025390625
11003878125.0 0.216064453125 1.17236328125
11035100000.0 0.8446044921875 0.8211669921875
11066321875.0 1.21966552734375 0.17425537109375
11097543750.0 1.09674072265625 -0.67303466796875
11128765625.0 0.3865966796875 -1.1964111328125
11159987500.0 -0.39599609375 -1.1380615234375
11191209375.0 -0.99884033203125 -0.702484130859375
11222431250.0 -1.27117919921875 0.0926513671875
11253653125.0 -0.859039306640625 0.889862060546875
11284875000.0 -0.11407470703125 1.12615966796875
11316096875.0 0.508544921875 0.954803466796875
11347318750.0 1.00164794921875 0.50244140625
11378540625.0 1.1163330078125 -0.26812744140625
11409762500.0 0.6356201171875 -0.857635498046875
11440984375.0 0.0364990234375 -0.977447509765625
11472206250.0 -0.479949951171875 -0.84991455078125
11503428125.0 -0.95111083984375 -0.456512451171875
11534650000.0 -1.06549072265625 0.28509521484375
11565871875.0 -0.60308837890625 0.85064697265625
11597093750.0 -0.018524169921875 0.990997314453125
11628315625.0 0.54443359375 0.87469482421875
11659537500.0 1.0582275390625 0.39208984375
11690759375.0 1.06427001953125 -0.43389892578125
11721981250.0 0.51751708984375 -0.939453125
11753203125.0 -0.104736328125 -1.03472900390625
11784425000.0 -0.72344970703125 -0.8084716796875
11815646875.0 -1.09979248046875 -0.15142822265625
11846868750.0 -0.89056396484375 0.549346923828125
11878090625.0 -0.392242431640625 0.906341552734375
11909312500.0 0.186431884765625 0.9840087890625
11940534375.0 0.779510498046875 0.694580078125
11971756250.0 1.022705078125 0.04107666015625
12002978125.0 0.806427001953125 -0.535797119140625
12034200000.0 0.381927490234375 -0.88726806640625
12065421875.0 -0.21484375 -1.00909423828125
12096643750.0 -0.84716796875 -0.665863037109375
12127865625.0 -1.03289794921875 0.0162353515625
12159087500.0 -0.814544677734375 0.574737548828125
12190309375.0 -0.379150390625 0.973541259765625
12221531250.0 0.33709716796875 1.08673095703125
12252753125.0 0.97882080078125 0.581634521484375
12283975000.0 1.05377197265625 -0.12713623046875
12315196875.0 0.7996826171875 -0.67462158203125
12346418750.0 0.28204345703125 -1.08917236328125
12377640625.0 -0.53668212890625 -1.060546875
12408862500.0 -1.0313720703125 -0.4205322265625
12440084375.0 -1.00799560546875 0.2247314453125
12471306250.0 -0.74151611328125 0.735626220703125
12502528125.0 -0.17974853515625 1.119384765625
12533750000.0 0.6180419921875 0.992889404296875
12564971875.0 1.0399169921875 0.36456298828125
12596193750.0 1.02850341796875 -0.26373291015625
12627415625.0 0.74774169921875 -0.82855224609375
12658637500.0 0.08111572265625 -1.205810546875
12689859375.0 -0.733551025390625 -0.966064453125
12721081250.0 -1.11602783203125 -0.30523681640625
12752303125.0 -1.09637451171875 0.38177490234375
12783525000.0 -0.6873779296875 1.0269775390625
12814746875.0 0.16461181640625 1.24920654296875
12845968750.0 0.8599853515625 0.810516357421875
12877190625.0 1.1156005859375 0.17291259765625
12908412500.0 1.0560302734375 -0.50177001953125
12939634375.0 0.54376220703125 -1.11395263671875
12970856250.0 -0.31951904296875 -1.174072265625
13002078125.0 -0.89501953125 -0.6929931640625
13033300000.0 -1.1048583984375 -0.08697509765625
13064521875.0 -1.0081787109375 0.59088134765625
13095743750.0 -0.42047119140625 1.1517333984375
13126965625.0 0.4085693359375 1.12109375
13158187500.0 0.944732666015625 0.632659912109375
13189409375.0 1.14691162109375 -0.02105712890625
13220631250.0 0.936920166015625 -0.7459716796875
13251853125.0 0.234619140625 -1.17193603515625
13283075000.0 -0.50640869140625 -1.01934814453125
13314296875.0 -0.983306884765625 -0.529632568359375
13345518750.0 -1.13336181640625 0.1759033203125
