!Created with skrf (http://scikit-rf.org).
# Hz S RI R 50.0 
!freq ReS11 ImS11
45000000.0 -0.07674407958984375 -0.09716033935546875
76221875.0 -0.19686126708984375 -0.0481719970703125
107443750.0 -0.25604248046875 0.1194915771484375
138665625.0 -0.1495208740234375 0.3290252685546875
169887500.0 0.1226806640625 0.4186553955078125
201109375.0 0.4222412109375 0.282958984375
232331250.0 0.580810546875 -0.055755615234375
263553125.0 0.492156982421875 -0.4528045654296875
294775000.0 0.100799560546875 -0.734588623046875
325996875.0 -0.415008544921875 -0.684326171875
357218750.0 -0.8084716796875 -0.3004150390625
388440625.0 -0.889678955078125 0.29913330078125
419662500.0 -0.521484375 0.867584228515625
450884375.0 0.17041015625 1.0328369140625
482106250.0 0.79901123046875 0.717315673828125
513328125.0 1.122802734375 0.09033203125
544550000.0 1.00823974609375 -0.67913818359375
575771875.0 0.3406982421875 -1.2403564453125
606993750.0 -0.55169677734375 -1.18231201171875
638215625.0 -1.16766357421875 -0.5955810546875
669437500.0 -1.3441162109375 0.23065185546875
700659375.0 -0.976318359375 1.09613037109375
731881250.0 -0.0084228515625 1.54681396484375
763103125.0 1.0048828125 1.16217041015625
794325000.0 1.47235107421875 0.286865234375
825546875.0 1.3731689453125 -0.65020751953125
856768750.0 0.8004150390625 -1.40380859375
887990625.0 -0.2890625 -1.654296875
919212500.0 -1.289794921875 -1.08551025390625
950434375.0 -1.65484619140625 -0.063232421875
981656250.0 -1.3897705078125 0.94647216796875
1012878125.0 -0.5357666015625 1.67645263671875
1044100000.0 0.69500732421875 1.66961669921875
1075321875.0 1.57891845703125 0.8189697265625
1106543750.0 1.71209716796875 -0.3096923828125
1137765625.0 1.194091796875 -1.2857666015625
1168987500.0 0.14361572265625 -1.8031005859375
1200209375.0 -1.06170654296875 -1.49188232421875
1231431250.0 -1.7325439453125 -0.45947265625
1262653125.0 -1.60150146484375 0.6829833984375
1293875000.0 -0.858642578125 1.49407958984375
1325096875.0 0.2239990234375 1.7130126953125
1356318750.0 1.23577880859375 1.22454833984375
1387540625.0 1.74493408203125 0.1947021484375
1418762500.0 1.47711181640625 -0.95062255859375
1449984375.0 0.53546142578125 -1.6300048828125
1481206250.0 -0.547607421875 -1.56256103515625
1512428125.0 -1.34442138671875 -0.92596435546875
1543650000.0 -1.6610107421875 0.06170654296875
1574871875.0 -1.27972412109375 1.1092529296875
1606093750.0 -0.277587890625 1.6356201171875
1637315625.0 0.74090576171875 1.4063720703125
1668537500.0 1.39923095703125 0.70086669921875
1699759375.0 1.57818603515625 -0.27386474609375
1730981250.0 1.0703125 -1.23028564453125
1762203125.0 0.04620361328125 -1.574951171875
1793425000.0 -0.85498046875 -1.23211669921875
1824646875.0 -1.39605712890625 -0.52001953125
1855868750.0 -1.479736328125 0.4300537109375
1887090625.0 -0.880859375 1.28729248046875
1918312500.0 0.11376953125 1.49163818359375
1949534375.0 0.92193603515625 1.094482421875
1980756250.0 1.37847900390625 0.37445068359375
2011978125.0 1.3651123046875 -0.52978515625
2043200000.0 0.75518798828125 -1.26324462890625
2074421875.0 -0.15399169921875 -1.43792724609375
2105643750.0 -0.960693359375 -1.07757568359375
2136865625.0 -1.4508056640625 -0.30889892578125
2168087500.0 -1.36248779296875 0.670166015625
2199309375.0 -0.6436767578125 1.3541259765625
2230531250.0 0.280029296875 1.44110107421875
2261753125.0 1.07403564453125 1.01910400390625
2292975000.0 1.51849365234375 0.17401123046875
2324196875.0 1.310791015625 -0.818115234375
2355418750.0 0.52960205078125 -1.422607421875
2386640625.0 -0.402587890625 -1.45391845703125
2417862500.0 -1.1829833984375 -1.02923583984375
2449084375.0 -1.60943603515625 -0.087158203125
2480306250.0 -1.3172607421875 0.92510986328125
2511528125.0 -0.49822998046875 1.510986328125
2542750000.0 0.486572265625 1.5421142578125
2573971875.0 1.3731689453125 0.97418212890625
2605193750.0 1.7237548828125 -0.1102294921875
2636415625.0 1.267822265625 -1.1544189453125
2667637500.0 0.3106689453125 -1.67205810546875
2698859375.0 -0.76849365234375 -1.5406494140625
2730081250.0 -1.5770263671875 -0.74615478515625
2761303125.0 -1.68768310546875 0.3863525390625
2792525000.0 -1.10540771484375 1.3092041015625
2823746875.0 -0.10565185546875 1.735595703125
2854968750.0 1.01300048828125 1.4620361328125
2886190625.0 1.6966552734375 0.49652099609375
2917412500.0 1.6070556640625 -0.616943359375
2948634375.0 0.9451904296875 -1.435791015625
2979856250.0 -0.105224609375 -1.78192138671875
3011078125.0 -1.249755859375 -1.34832763671875
3042300000.0 -1.77996826171875 -0.23828125
3073521875.0 -1.51568603515625 0.83831787109375
3104743750.0 -0.76824951171875 1.572509765625
3135965625.0 0.36090087890625 1.81585693359375
3167187500.0 1.50177001953125 1.1707763671875
3198409375.0 1.82220458984375 -0.07281494140625
3229631250.0 1.35491943359375 -1.08294677734375
3260853125.0 0.49334716796875 -1.67364501953125
3292075000.0 -0.65460205078125 -1.705078125
3323296875.0 -1.623779296875 -0.8848876953125
3354518750.0 -1.736328125 0.3262939453125
3385740625.0 -1.16162109375 1.23443603515625
3416962500.0 -0.23486328125 1.686767578125
3448184375.0 0.860595703125 1.527587890625
3479406250.0 1.6405029296875 0.648681640625
3510628125.0 1.65020751953125 -0.4947509765625
3541850000.0 1.00537109375 -1.360107421875
3573071875.0 -0.00616455078125 -1.688720703125
3604293750.0 -1.029541015625 -1.3427734375
3635515625.0 -1.632568359375 -0.44183349609375
3666737500.0 -1.56768798828125 0.64605712890625
3697959375.0 -0.8299560546875 1.478759765625
3729181250.0 0.26824951171875 1.63702392578125
3760403125.0 1.1544189453125 1.10247802734375
3791625000.0 1.55694580078125 0.2210693359375
3822846875.0 1.40740966796875 -0.76055908203125
3854068750.0 0.62457275390625 -1.48590087890625
3885290625.0 -0.42022705078125 -1.486083984375
3916512500.0 -1.143310546875 -0.91522216796875
3947734375.0 -1.45220947265625 -0.1220703125
3978956250.0 -1.30291748046875 0.77972412109375
4010178125.0 -0.53460693359375 1.45867919921875
4041400000.0 0.4737548828125 1.419921875
4072621875.0 1.15484619140625 0.85052490234375
4103843750.0 1.44818115234375 0.06494140625
4135065625.0 1.27276611328125 -0.8475341796875
4166287500.0 0.460205078125 -1.50030517578125
4197509375.0 -0.558349609375 -1.4195556640625
4228731250.0 -1.2498779296875 -0.805908203125
4259953125.0 -1.51312255859375 0.06951904296875
4291175000.0 -1.1925048828125 1.01129150390625
4322396875.0 -0.29217529296875 1.52996826171875
4353618750.0 0.6737060546875 1.35394287109375
4384840625.0 1.32623291015625 0.7005615234375
4416062500.0 1.50543212890625 -0.22662353515625
4447284375.0 1.05914306640625 -1.1068115234375
4478506250.0 0.17431640625 -1.499755859375
4509728125.0 -0.734130859375 -1.3121337890625
4540950000.0 -1.39678955078125 -0.63916015625
4572171875.0 -1.52740478515625 0.36090087890625
4603393750.0 -0.97576904296875 1.21533203125
4634615625.0 -0.0621337890625 1.541259765625
4665837500.0 0.8719482421875 1.30902099609375
4697059375.0 1.54571533203125 0.51812744140625
4728281250.0 1.53375244140625 -0.5833740234375
4759503125.0 0.82635498046875 -1.369873046875
4790725000.0 -0.14471435546875 -1.5767822265625
4821946875.0 -1.08575439453125 -1.198486328125
4853168750.0 -1.61859130859375 -0.2530517578125
4884390625.0 -1.38287353515625 0.79412841796875
4915612500.0 -0.6162109375 1.415771484375
4946834375.0 0.32769775390625 1.51312255859375
4978056250.0 1.2081298828125 1.02166748046875
5009278125.0 1.5660400390625 0.0411376953125
5040500000.0 1.2330322265625 -0.8779296875
5071721875.0 0.50421142578125 -1.41845703125
5102943750.0 -0.4468994140625 -1.5013427734375
5134165625.0 -1.3389892578125 -0.9083251953125
5165387500.0 -1.5731201171875 0.14703369140625
5196609375.0 -1.13983154296875 1.01202392578125
5227831250.0 -0.35943603515625 1.50994873046875
5259053125.0 0.6883544921875 1.49627685546875
5290275000.0 1.52655029296875 0.66558837890625
5321496875.0 1.4967041015625 -0.43157958984375
5352718750.0 0.92413330078125 -1.15509033203125
5383940625.0 0.09808349609375 -1.5045166015625
5415162500.0 -0.9017333984375 -1.2882080078125
5446384375.0 -1.48748779296875 -0.3724365234375
5477606250.0 -1.30364990234375 0.56719970703125
5508828125.0 -0.7342529296875 1.15472412109375
5540050000.0 0.0526123046875 1.40252685546875
5571271875.0 0.94122314453125 1.11260986328125
5602493750.0 1.41363525390625 0.2611083984375
5633715625.0 1.2359619140625 -0.6131591796875
5664937500.0 0.65069580078125 -1.2042236328125
5696159375.0 -0.19659423828125 -1.3880615234375
5727381250.0 -1.02532958984375 -0.981201171875
5758603125.0 -1.394775390625 -0.146240234375
5789825000.0 -1.1981201171875 0.71929931640625
5821046875.0 -0.5074462890625 1.3116455078125
5852268750.0 0.4129638671875 1.31671142578125
5883490625.0 1.073974609375 0.7742919921875
5914712500.0 1.3070068359375 0.02044677734375
5945934375.0 1.09991455078125 -0.7784423828125
5977156250.0 0.36260986328125 -1.315673828125
6008378125.0 -0.511474609375 -1.1856689453125
6039600000.0 -1.02374267578125 -0.65106201171875
6070821875.0 -1.227783203125 -0.00506591796875
6102043750.0 -1.08709716796875 0.765869140625
6133265625.0 -0.34259033203125 1.349365234375
6164487500.0 0.56500244140625 1.1903076171875
6195709375.0 1.07330322265625 0.63165283203125
6226931250.0 1.28314208984375 -0.0421142578125
6258153125.0 1.1080322265625 -0.87469482421875
6289375000.0 0.25537109375 -1.45135498046875
6320596875.0 -0.6922607421875 -1.20892333984375
6351818750.0 -1.203125 -0.572998046875
6383040625.0 -1.3582763671875 0.20770263671875
6414262500.0 -1.00238037109375 1.06134033203125
6445484375.0 -0.0780029296875 1.46051025390625
6476706250.0 0.79754638671875 1.150390625
6507928125.0 1.29388427734375 0.470947265625
6539150000.0 1.35101318359375 -0.3868408203125
6570371875.0 0.84381103515625 -1.14666748046875
6601593750.0 -0.0177001953125 -1.40899658203125
6632815625.0 -0.8416748046875 -1.13983154296875
6664037500.0 -1.40582275390625 -0.42108154296875
6695259375.0 -1.37762451171875 0.56878662109375
6726481250.0 -0.7117919921875 1.254638671875
6757703125.0 0.13116455078125 1.411376953125
6788925000.0 0.958740234375 1.13397216796875
6820146875.0 1.56524658203125 0.28741455078125
6851368750.0 1.32861328125 -0.822021484375
6882590625.0 0.5064697265625 -1.3419189453125
6913812500.0 -0.29302978515625 -1.35986328125
6945034375.0 -1.07147216796875 -1.0245361328125
6976256250.0 -1.59759521484375 -0.09228515625
7007478125.0 -1.2412109375 0.93603515625
7038700000.0 -0.40283203125 1.3470458984375
7069921875.0 0.36065673828125 1.32794189453125
7101143750.0 1.12261962890625 0.97247314453125
7132365625.0 1.605224609375 0.012939453125
7163587500.0 1.15960693359375 -1.02392578125
7194809375.0 0.30401611328125 -1.40057373046875
7226031250.0 -0.513427734375 -1.3302001953125
7257253125.0 -1.27117919921875 -0.825439453125
7288475000.0 -1.5625 0.2000732421875
7319696875.0 -1.03228759765625 1.11474609375
7350918750.0 -0.16461181640625 1.45025634765625
7382140625.0 0.71746826171875 1.280517578125
7413362500.0 1.38067626953125 0.5771484375
7444584375.0 1.4136962890625 -0.40704345703125
7475806250.0 0.8597412109375 -1.14727783203125
7507028125.0 0.0069580078125 -1.43328857421875
7538250000.0 -0.8916015625 -1.12652587890625
7569471875.0 -1.34088134765625 -0.310302734375
7600693750.0 -1.20574951171875 0.50006103515625
7631915625.0 -0.72039794921875 1.088134765625
7663137500.0 0.08087158203125 1.3634033203125
7694359375.0 0.947021484375 0.984222412109375
7725581250.0 1.24847412109375 0.1805419921875
7756803125.0 1.08697509765625 -0.50152587890625
7788025000.0 0.67230224609375 -1.04840087890625
7819246875.0 -0.12188720703125 -1.3524169921875
7850468750.0 -0.9962158203125 -0.919097900390625
7881690625.0 -1.236083984375 -0.10418701171875
7912912500.0 -1.0582275390625 0.55718994140625
7944134375.0 -0.6060791015625 1.118408203125
7975356250.0 0.2752685546875 1.33953857421875
8006578125.0 1.05303955078125 0.77947998046875
8037800000.0 1.19683837890625 0.0150146484375
8069021875.0 1.01055908203125 -0.62158203125
8100243750.0 0.5 -1.16534423828125
8131465625.0 -0.3900146484375 -1.2579345703125
8162687500.0 -1.03564453125 -0.68829345703125
8193909375.0 -1.18609619140625 0.0093994140625
8225131250.0 -1.021484375 0.68115234375
8256353125.0 -0.4217529296875 1.25482177734375
8287575000.0 0.50274658203125 1.2293701171875
8318796875.0 1.08538818359375 0.63641357421875
8350018750.0 1.2509765625 -0.07708740234375
8381240625.0 1.03460693359375 -0.8441162109375
8412462500.0 0.25323486328125 -1.3790283203125
8443684375.0 -0.671630859375 -1.1717529296875
8474906250.0 -1.17877197265625 -0.53271484375
8506128125.0 -1.3016357421875 0.238525390625
8537350000.0 -0.92578125 1.05126953125
8568571875.0 -0.01519775390625 1.400146484375
8599793750.0 0.80517578125 1.05633544921875
8631015625.0 1.2449951171875 0.39984130859375
8662237500.0 1.29022216796875 -0.43218994140625
8693459375.0 0.7379150390625 -1.1826171875
8724681250.0 -0.1640625 -1.33612060546875
8755903125.0 -0.883575439453125 -0.9603271484375
8787125000.0 -1.310546875 -0.28131103515625
8818346875.0 -1.25469970703125 0.61968994140625
8849568750.0 -0.5562744140625 1.2667236328125
8880790625.0 0.3018798828125 1.28973388671875
8912012500.0 0.98626708984375 0.89459228515625
8943234375.0 1.40728759765625 0.1248779296875
8974456250.0 1.1697998046875 -0.8465576171875
9005678125.0 0.346923828125 -1.31927490234375
9036900000.0 -0.44854736328125 -1.227783203125
9068121875.0 -1.10723876953125 -0.787353515625
9099343750.0 -1.44580078125 0.100830078125
9130565625.0 -0.980224609375 1.01702880859375
9161787500.0 -0.153564453125 1.28472900390625
9193009375.0 0.55706787109375 1.13714599609375
9224231250.0 1.18353271484375 0.658203125
9255453125.0 1.4053955078125 -0.29937744140625
9286675000.0 0.80902099609375 -1.08935546875
9317896875.0 0.0267333984375 -1.2506103515625
9349118750.0 -0.65771484375 -1.07293701171875
9380340625.0 -1.26422119140625 -0.50994873046875
9411562500.0 -1.3150634765625 0.48077392578125
9442784375.0 -0.64794921875 1.12139892578125
9474006250.0 0.0916748046875 1.21636962890625
9505228125.0 0.77020263671875 0.983062744140625
9536450000.0 1.28082275390625 0.31024169921875
9567671875.0 1.14697265625 -0.58526611328125
9598893750.0 0.53033447265625 -1.07330322265625
9630115625.0 -0.1456298828125 -1.16119384765625
9661337500.0 -0.82171630859375 -0.904388427734375
9692559375.0 -1.2430419921875 -0.18719482421875
9723781250.0 -1.04522705078125 0.60687255859375
9755003125.0 -0.4862060546875 1.05377197265625
9786225000.0 0.202392578125 1.16455078125
9817446875.0 0.90087890625 0.829681396484375
9848668750.0 1.201171875 0.076904296875
9879890625.0 0.970611572265625 -0.621124267578125
9911112500.0 0.45281982421875 -1.0557861328125
9942334375.0 -0.27288818359375 -1.16351318359375
9973556250.0 -0.94952392578125 -0.73876953125
10004778125.0 -1.1500244140625 -0.01513671875
10036000000.0 -0.946746826171875 0.619720458984375
10067221875.0 -0.44024658203125 1.10382080078125
10098443750.0 0.376220703125 1.18487548828125
10129665625.0 1.00860595703125 0.6416015625
10160887500.0 1.12457275390625 -0.0557861328125
10192109375.0 0.918853759765625 -0.66796875
10223331250.0 0.36102294921875 -1.15570068359375
10254553125.0 -0.4893798828125 -1.11572265625
10285775000.0 -0.988861083984375 -0.53460693359375
10316996875.0 -1.06976318359375 0.07916259765625
10348218750.0 -0.901611328125 0.673370361328125
10379440625.0 -0.320068359375 1.18133544921875
10410662500.0 0.531982421875 1.08831787109375
10441884375.0 0.996429443359375 0.520843505859375
10473106250.0 1.11358642578125 -0.085693359375
10504328125.0 0.951812744140625 -0.76287841796875
10535550000.0 0.23699951171875 -1.3001708984375
10566771875.0 -0.662109375 -1.07830810546875
10597993750.0 -1.08489990234375 -0.45831298828125
10629215625.0 -1.17901611328125 0.20794677734375
10660437500.0 -0.888214111328125 0.9591064453125
10691659375.0 -0.0069580078125 1.33905029296875
10722881250.0 0.7882080078125 0.9530029296875
10754103125.0 1.123291015625 0.322998046875
10785325000.0 1.14215087890625 -0.3697509765625
10816546875.0 0.70074462890625 -1.0543212890625
10847768750.0 -0.14947509765625 -1.23260498046875
10878990625.0 -0.805694580078125 -0.8438720703125
10910212500.0 -1.12762451171875 -0.2432861328125
10941434375.0 -1.1005859375 0.47998046875
10972656250.0 -0.56732177734375 1.091796875
11003878125.0 0.21807861328125 1.1763916015625
11035100000.0 0.8519287109375 0.82342529296875
11066321875.0 1.226806640625 0.1708984375
11097543750.0 1.10125732421875 -0.68109130859375
11128765625.0 0.38427734375 -1.20391845703125
11159987500.0 -0.4005126953125 -1.14288330078125
11191209375.0 -1.00640869140625 -0.7027587890625
11222431250.0 -1.27642822265625 0.095703125
11253653125.0 -0.858612060546875 0.90118408203125
11284875000.0 -0.1129150390625 1.13067626953125
11316096875.0 0.515411376953125 0.958709716796875
11347318750.0 1.008056640625 0.5015869140625
11378540625.0 1.1204833984375 -0.27435302734375
11409762500.0 0.634246826171875 -0.86492919921875
11440984375.0 0.03436279296875 -0.9805908203125
11472206250.0 -0.483154296875 -0.85235595703125
11503428125.0 -0.95855712890625 -0.455657958984375
11534650000.0 -1.07244873046875 0.2923583984375
11565871875.0 -0.60211181640625 0.857696533203125
11597093750.0 -0.016754150390625 0.9949951171875
11628315625.0 0.54827880859375 0.877166748046875
11659537500.0 1.066162109375 0.39056396484375
11690759375.0 1.067138671875 -0.4385986328125
11721981250.0 0.5167236328125 -0.94549560546875
11753203125.0 -0.10650634765625 -1.0396728515625
11784425000.0 -0.72833251953125 -0.810089111328125
11815646875.0 -1.10595703125 -0.14764404296875
11846868750.0 -0.892608642578125 0.55731201171875
11878090625.0 -0.39044189453125 0.912811279296875
11909312500.0 0.189605712890625 0.987335205078125
11940534375.0 0.785369873046875 0.695068359375
11971756250.0 1.0281982421875 0.03619384765625
12002978125.0 0.80755615234375 -0.54217529296875
12034200000.0 0.380859375 -0.893463134765625
12065421875.0 -0.2196044921875 -1.0137939453125
12096643750.0 -0.8521728515625 -0.6651611328125
12127865625.0 -1.037109375 0.0203857421875
12159087500.0 -0.8160400390625 0.579132080078125
12190309375.0 -0.376556396484375 0.97991943359375
12221531250.0 0.3441162109375 1.09197998046875
12252753125.0 0.984893798828125 0.580322265625
12283975000.0 1.05621337890625 -0.13079833984375
12315196875.0 0.8013916015625 -0.680389404296875
12346418750.0 0.28021240234375 -1.09576416015625
12377640625.0 -0.54388427734375 -1.062744140625
12408862500.0 -1.03851318359375 -0.41717529296875
12440084375.0 -1.01141357421875 0.2271728515625
12471306250.0 -0.742706298828125 0.74261474609375
12502528125.0 -0.17779541015625 1.12359619140625
12533750000.0 0.62628173828125 0.994781494140625
12564971875.0 1.04583740234375 0.36151123046875
12596193750.0 1.03265380859375 -0.2691650390625
12627415625.0 0.749481201171875 -0.83197021484375
12658637500.0 0.07598876953125 -1.21380615234375
12689859375.0 -0.7427978515625 -0.967254638671875
12721081250.0 -1.12237548828125 -0.30303955078125
12752303125.0 -1.10101318359375 0.38720703125
12783525000.0 -0.6856689453125 1.0350341796875
12814746875.0 0.17144775390625 1.255615234375
12845968750.0 0.8697509765625 0.811187744140625
12877190625.0 1.12432861328125 0.16845703125
12908412500.0 1.05950927734375 -0.5072021484375
12939634375.0 0.5399169921875 -1.124755859375
12970856250.0 -0.32476806640625 -1.17694091796875
13002078125.0 -0.89996337890625 -0.692718505859375
13033300000.0 -1.11041259765625 -0.08380126953125
13064521875.0 -1.0128173828125 0.6021728515625
13095743750.0 -0.417724609375 1.1605224609375
13126965625.0 0.41290283203125 1.1219482421875
13158187500.0 0.95263671875 0.63116455078125
13189409375.0 1.15472412109375 -0.025634765625
13220631250.0 0.938018798828125 -0.75616455078125
13251853125.0 0.23089599609375 -1.17877197265625
13283075000.0 -0.511962890625 -1.02081298828125
13314296875.0 -0.99468994140625 -0.5269775390625
13345518750.0 -1.140625 0.1837158203125
