!Created with skrf (http://scikit-rf.org).
# Hz S RI R 50.0 
!freq ReS11 ImS11
45000000.0 -0.07720565795898438 -0.096893310546875
76221875.0 -0.197418212890625 -0.0473175048828125
107443750.0 -0.2559967041015625 0.120819091796875
138665625.0 -0.148468017578125 0.3303070068359375
169887500.0 0.1243896484375 0.418853759765625
201109375.0 0.42352294921875 0.2818756103515625
232331250.0 0.581146240234375 -0.057952880859375
263553125.0 0.491424560546875 -0.45538330078125
294775000.0 0.0982666015625 -0.735687255859375
325996875.0 -0.41815185546875 -0.6839599609375
357218750.0 -0.81085205078125 -0.297943115234375
388440625.0 -0.88995361328125 0.303192138671875
419662500.0 -0.51904296875 0.870941162109375
450884375.0 0.17437744140625 1.033447265625
482106250.0 0.802398681640625 0.715240478515625
513328125.0 1.1243896484375 0.08660888671875
544550000.0 1.0068359375 -0.68316650390625
575771875.0 0.33673095703125 -1.24298095703125
606993750.0 -0.556640625 -1.18145751953125
638215625.0 -1.17059326171875 -0.592041015625
669437500.0 -1.34478759765625 0.23516845703125
700659375.0 -0.9739990234375 1.1005859375
731881250.0 -0.00335693359375 1.54864501953125
763103125.0 1.00958251953125 1.16009521484375
794325000.0 1.47454833984375 0.28271484375
825546875.0 1.372314453125 -0.6549072265625
856768750.0 0.79656982421875 -1.408203125
887990625.0 -0.2958984375 -1.6553955078125
919212500.0 -1.29534912109375 -1.08282470703125
950434375.0 -1.6571044921875 -0.05755615234375
981656250.0 -1.3885498046875 0.9525146484375
1012878125.0 -0.5303955078125 1.68109130859375
1044100000.0 0.70233154296875 1.66961669921875
1075321875.0 1.58404541015625 0.814208984375
1106543750.0 1.713134765625 -0.316650390625
1137765625.0 1.19110107421875 -1.29095458984375
1168987500.0 0.137451171875 -1.8055419921875
1200209375.0 -1.06854248046875 -1.489990234375
1231431250.0 -1.73675537109375 -0.45404052734375
1262653125.0 -1.6005859375 0.689453125
1293875000.0 -0.85418701171875 1.49920654296875
1325096875.0 0.22991943359375 1.71380615234375
1356318750.0 1.24102783203125 1.2215576171875
1387540625.0 1.74755859375 0.18890380859375
1418762500.0 1.47528076171875 -0.956787109375
1449984375.0 0.53094482421875 -1.63287353515625
1481206250.0 -0.55328369140625 -1.56231689453125
1512428125.0 -1.34881591796875 -0.92279052734375
1543650000.0 -1.662841796875 0.06732177734375
1574871875.0 -1.27740478515625 1.11505126953125
1606093750.0 -0.2723388671875 1.63824462890625
1637315625.0 0.74609375 1.4051513671875
1668537500.0 1.40240478515625 0.697265625
1699759375.0 1.57879638671875 -0.27972412109375
1730981250.0 1.0670166015625 -1.2352294921875
1762203125.0 0.041015625 -1.5765380859375
1793425000.0 -0.85986328125 -1.23052978515625
1824646875.0 -1.3988037109375 -0.5166015625
1855868750.0 -1.4793701171875 0.434326171875
1887090625.0 -0.8780517578125 1.29095458984375
1918312500.0 0.11871337890625 1.49298095703125
1949534375.0 0.92620849609375 1.09283447265625
1980756250.0 1.3809814453125 0.370361328125
2011978125.0 1.36444091796875 -0.5347900390625
2043200000.0 0.75164794921875 -1.267333984375
2074421875.0 -0.158935546875 -1.43865966796875
2105643750.0 -0.96514892578125 -1.07537841796875
2136865625.0 -1.45355224609375 -0.3043212890625
2168087500.0 -1.361328125 0.674560546875
2199309375.0 -0.64019775390625 1.35699462890625
2230531250.0 0.28424072265625 1.44097900390625
2261753125.0 1.07763671875 1.016357421875
2292975000.0 1.52020263671875 0.16943359375
2324196875.0 1.309326171875 -0.82281494140625
2355418750.0 0.526123046875 -1.42510986328125
2386640625.0 -0.4072265625 -1.453857421875
2417862500.0 -1.188232421875 -1.027587890625
2449084375.0 -1.6123046875 -0.08258056640625
2480306250.0 -1.3155517578125 0.93121337890625
2511528125.0 -0.49334716796875 1.51580810546875
2542750000.0 0.49371337890625 1.5426025390625
2573971875.0 1.37860107421875 0.97027587890625
2605193750.0 1.72613525390625 -0.11614990234375
2636415625.0 1.26531982421875 -1.1585693359375
2667637500.0 0.3056640625 -1.6746826171875
2698859375.0 -0.7760009765625 -1.5401611328125
2730081250.0 -1.58203125 -0.74200439453125
2761303125.0 -1.68890380859375 0.3927001953125
2792525000.0 -1.1026611328125 1.315673828125
2823746875.0 -0.1005859375 1.73773193359375
2854968750.0 1.01898193359375 1.4603271484375
2886190625.0 1.70025634765625 0.49151611328125
2917412500.0 1.6068115234375 -0.62298583984375
2948634375.0 0.9420166015625 -1.44122314453125
2979856250.0 -0.11138916015625 -1.78436279296875
3011078125.0 -1.25604248046875 -1.34613037109375
3042300000.0 -1.78326416015625 -0.232666015625
3073521875.0 -1.51397705078125 0.843505859375
3104743750.0 -0.76416015625 1.57659912109375
3135965625.0 0.36651611328125 1.81756591796875
3167187500.0 1.50726318359375 1.1671142578125
3198409375.0 1.8243408203125 -0.07904052734375
3229631250.0 1.35345458984375 -1.08905029296875
3260853125.0 0.48919677734375 -1.6771240234375
3292075000.0 -0.66229248046875 -1.7054443359375
3323296875.0 -1.6282958984375 -0.8809814453125
3354518750.0 -1.73590087890625 0.33123779296875
3385740625.0 -1.15875244140625 1.23931884765625
3416962500.0 -0.2298583984375 1.68878173828125
3448184375.0 0.86614990234375 1.52716064453125
3479406250.0 1.64495849609375 0.64459228515625
3510628125.0 1.64996337890625 -0.4998779296875
3541850000.0 1.00225830078125 -1.36279296875
3573071875.0 -0.0106201171875 -1.689697265625
3604293750.0 -1.03314208984375 -1.34124755859375
3635515625.0 -1.63409423828125 -0.43768310546875
3666737500.0 -1.5667724609375 0.65106201171875
3697959375.0 -0.82635498046875 1.483642578125
3729181250.0 0.27178955078125 1.63677978515625
3760403125.0 1.158935546875 1.10009765625
3791625000.0 1.55902099609375 0.21685791015625
3822846875.0 1.406494140625 -0.76690673828125
3854068750.0 0.62030029296875 -1.49017333984375
3885290625.0 -0.42529296875 -1.48626708984375
3916512500.0 -1.1480712890625 -0.912841796875
3947734375.0 -1.45281982421875 -0.11865234375
3978956250.0 -1.3018798828125 0.7850341796875
4010178125.0 -0.53143310546875 1.46087646484375
4041400000.0 0.47772216796875 1.4197998046875
4072621875.0 1.15771484375 0.84893798828125
4103843750.0 1.45068359375 0.060302734375
4135065625.0 1.271484375 -0.8514404296875
4166287500.0 0.45587158203125 -1.503662109375
4197509375.0 -0.5628662109375 -1.41973876953125
4228731250.0 -1.25372314453125 -0.80340576171875
4259953125.0 -1.51422119140625 0.07318115234375
4291175000.0 -1.19097900390625 1.0162353515625
4322396875.0 -0.2879638671875 1.532958984375
4353618750.0 0.67816162109375 1.35406494140625
4384840625.0 1.3275146484375 0.69769287109375
4416062500.0 1.50592041015625 -0.23126220703125
4447284375.0 1.0567626953125 -1.11053466796875
4478506250.0 0.1700439453125 -1.50128173828125
4509728125.0 -0.73785400390625 -1.3111572265625
4540950000.0 -1.40032958984375 -0.63580322265625
4572171875.0 -1.52740478515625 0.36419677734375
4603393750.0 -0.9736328125 1.21875
4634615625.0 -0.05816650390625 1.5433349609375
4665837500.0 0.87493896484375 1.30755615234375
4697059375.0 1.5479736328125 0.51470947265625
4728281250.0 1.53369140625 -0.5880126953125
4759503125.0 0.82379150390625 -1.3740234375
4790725000.0 -0.14825439453125 -1.5780029296875
4821946875.0 -1.08837890625 -1.19677734375
4853168750.0 -1.62030029296875 -0.2498779296875
4884390625.0 -1.38226318359375 0.79974365234375
4915612500.0 -0.6121826171875 1.4200439453125
4946834375.0 0.332763671875 1.51385498046875
4978056250.0 1.21099853515625 1.0191650390625
5009278125.0 1.56787109375 0.0362548828125
5040500000.0 1.23223876953125 -0.880126953125
5071721875.0 0.500732421875 -1.42095947265625
5102943750.0 -0.451171875 -1.5015869140625
5134165625.0 -1.34210205078125 -0.906494140625
5165387500.0 -1.573486328125 0.1490478515625
5196609375.0 -1.13885498046875 1.0150146484375
5227831250.0 -0.35693359375 1.5118408203125
5259053125.0 0.6934814453125 1.49688720703125
5290275000.0 1.52978515625 0.66241455078125
5321496875.0 1.4970703125 -0.435302734375
5352718750.0 0.92218017578125 -1.1595458984375
5383940625.0 0.09405517578125 -1.50616455078125
5415162500.0 -0.90771484375 -1.286865234375
5446384375.0 -1.49041748046875 -0.368408203125
5477606250.0 -1.30267333984375 0.5706787109375
5508828125.0 -0.73199462890625 1.15643310546875
5540050000.0 0.0567626953125 1.40380859375
5571271875.0 0.94451904296875 1.11151123046875
5602493750.0 1.41448974609375 0.25799560546875
5633715625.0 1.2357177734375 -0.617431640625
5664937500.0 0.6483154296875 -1.20709228515625
5696159375.0 -0.20037841796875 -1.38946533203125
5727381250.0 -1.02825927734375 -0.98046875
5758603125.0 -1.39715576171875 -0.1431884765625
5789825000.0 -1.19805908203125 0.72344970703125
5821046875.0 -0.50555419921875 1.31396484375
5852268750.0 0.41571044921875 1.31732177734375
5883490625.0 1.07708740234375 0.77325439453125
5914712500.0 1.3084716796875 0.016845703125
5945934375.0 1.099365234375 -0.7813720703125
5977156250.0 0.35986328125 -1.31805419921875
6008378125.0 -0.514404296875 -1.18536376953125
6039600000.0 -1.02642822265625 -0.649169921875
6070821875.0 -1.22894287109375 -0.00177001953125
6102043750.0 -1.08575439453125 0.76800537109375
6133265625.0 -0.33990478515625 1.35137939453125
6164487500.0 0.568115234375 1.1904296875
6195709375.0 1.076171875 0.63043212890625
6226931250.0 1.2845458984375 -0.045166015625
6258153125.0 1.10711669921875 -0.87615966796875
6289375000.0 0.2535400390625 -1.45281982421875
6320596875.0 -0.6953125 -1.20916748046875
6351818750.0 -1.20452880859375 -0.57183837890625
6383040625.0 -1.35882568359375 0.20989990234375
6414262500.0 -1.0015869140625 1.0631103515625
6445484375.0 -0.07464599609375 1.4630126953125
6476706250.0 0.80108642578125 1.1502685546875
6507928125.0 1.29638671875 0.46856689453125
6539150000.0 1.35101318359375 -0.39019775390625
6570371875.0 0.8416748046875 -1.14910888671875
6601593750.0 -0.02081298828125 -1.41021728515625
6632815625.0 -0.84466552734375 -1.138671875
6664037500.0 -1.40753173828125 -0.41790771484375
6695259375.0 -1.37744140625 0.57073974609375
6726481250.0 -0.71075439453125 1.25653076171875
6757703125.0 0.1343994140625 1.41180419921875
6788925000.0 0.96136474609375 1.13330078125
6820146875.0 1.56597900390625 0.28509521484375
6851368750.0 1.3289794921875 -0.82513427734375
6882590625.0 0.50543212890625 -1.34552001953125
6913812500.0 -0.2952880859375 -1.360107421875
6945034375.0 -1.07666015625 -1.0230712890625
6976256250.0 -1.598876953125 -0.0904541015625
7007478125.0 -1.23931884765625 0.9390869140625
7038700000.0 -0.40087890625 1.3505859375
7069921875.0 0.36370849609375 1.329345703125
7101143750.0 1.12738037109375 0.97015380859375
7132365625.0 1.6077880859375 0.009033203125
7163587500.0 1.16009521484375 -1.0289306640625
7194809375.0 0.2998046875 -1.40423583984375
7226031250.0 -0.51751708984375 -1.330322265625
7257253125.0 -1.27484130859375 -0.8238525390625
7288475000.0 -1.564697265625 0.2034912109375
7319696875.0 -1.03167724609375 1.11700439453125
7350918750.0 -0.16131591796875 1.451416015625
7382140625.0 0.72052001953125 1.27984619140625
7413362500.0 1.38311767578125 0.5755615234375
7444584375.0 1.4158935546875 -0.41192626953125
7475806250.0 0.858154296875 -1.15283203125
7507028125.0 0.00091552734375 -1.43609619140625
7538250000.0 -0.89727783203125 -1.1263427734375
7569471875.0 -1.341064453125 -0.30963134765625
7600693750.0 -1.20660400390625 0.50238037109375
7631915625.0 -0.7177734375 1.09295654296875
7663137500.0 0.084228515625 1.3646240234375
7694359375.0 0.946319580078125 0.9827880859375
7725581250.0 1.25018310546875 0.1783447265625
7756803125.0 1.086669921875 -0.50372314453125
7788025000.0 0.6705322265625 -1.05029296875
7819246875.0 -0.12322998046875 -1.3529052734375
7850468750.0 -1.0 -0.9168701171875
7881690625.0 -1.2376708984375 -0.101806640625
7912912500.0 -1.05804443359375 0.5599365234375
7944134375.0 -0.60540771484375 1.1201171875
7975356250.0 0.27642822265625 1.3404541015625
8006578125.0 1.05511474609375 0.7781982421875
8037800000.0 1.1983642578125 0.01251220703125
8069021875.0 1.009765625 -0.62408447265625
8100243750.0 0.49853515625 -1.17022705078125
8131465625.0 -0.39453125 -1.259521484375
8162687500.0 -1.0391845703125 -0.6861572265625
8193909375.0 -1.1861572265625 0.01287841796875
8225131250.0 -1.02166748046875 0.68389892578125
8256353125.0 -0.4188232421875 1.25506591796875
8287575000.0 0.50738525390625 1.22998046875
8318796875.0 1.0880126953125 0.6351318359375
8350018750.0 1.25091552734375 -0.080078125
8381240625.0 1.03338623046875 -0.84588623046875
8412462500.0 0.251953125 -1.38043212890625
8443684375.0 -0.67486572265625 -1.172607421875
8474906250.0 -1.182861328125 -0.5316162109375
8506128125.0 -1.3045654296875 0.2425537109375
8537350000.0 -0.92596435546875 1.052978515625
8568571875.0 -0.0120849609375 1.400146484375
8599793750.0 0.80908203125 1.05548095703125
8631015625.0 1.24945068359375 0.39642333984375
8662237500.0 1.29168701171875 -0.43572998046875
8693459375.0 0.735107421875 -1.18475341796875
8724681250.0 -0.1669921875 -1.33636474609375
8755903125.0 -0.88720703125 -0.959716796875
8787125000.0 -1.31097412109375 -0.28033447265625
8818346875.0 -1.2540283203125 0.62188720703125
8849568750.0 -0.553955078125 1.26995849609375
8880790625.0 0.30474853515625 1.2900390625
8912012500.0 0.98785400390625 0.893707275390625
8943234375.0 1.40704345703125 0.12457275390625
8974456250.0 1.1695556640625 -0.84844970703125
9005678125.0 0.34515380859375 -1.319091796875
9036900000.0 -0.45159912109375 -1.22943115234375
9068121875.0 -1.10980224609375 -0.78631591796875
9099343750.0 -1.4483642578125 0.10455322265625
9130565625.0 -0.98046875 1.02044677734375
9161787500.0 -0.151123046875 1.28857421875
9193009375.0 0.5606689453125 1.13720703125
9224231250.0 1.18634033203125 0.65484619140625
9255453125.0 1.40447998046875 -0.3018798828125
9286675000.0 0.8070068359375 -1.09320068359375
9317896875.0 0.02276611328125 -1.25250244140625
9349118750.0 -0.659912109375 -1.07318115234375
9380340625.0 -1.26531982421875 -0.507568359375
9411562500.0 -1.3157958984375 0.48431396484375
9442784375.0 -0.647705078125 1.12347412109375
9474006250.0 0.09210205078125 1.2169189453125
9505228125.0 0.772552490234375 0.98291015625
9536450000.0 1.28082275390625 0.3106689453125
9567671875.0 1.14697265625 -0.58624267578125
9598893750.0 0.52874755859375 -1.0760498046875
9630115625.0 -0.14837646484375 -1.162841796875
9661337500.0 -0.824462890625 -0.90496826171875
9692559375.0 -1.24542236328125 -0.1856689453125
9723781250.0 -1.04547119140625 0.60888671875
9755003125.0 -0.4842529296875 1.05718994140625
9786225000.0 0.20361328125 1.1640625
9817446875.0 0.9027099609375 0.827972412109375
9848668750.0 1.20501708984375 0.07354736328125
9879890625.0 0.970489501953125 -0.6229248046875
9911112500.0 0.4501953125 -1.058349609375
9942334375.0 -0.272705078125 -1.1636962890625
9973556250.0 -0.95111083984375 -0.737518310546875
10004778125.0 -1.15069580078125 -0.0142822265625
10036000000.0 -0.946624755859375 0.62152099609375
10067221875.0 -0.43927001953125 1.103515625
10098443750.0 0.37567138671875 1.185302734375
10129665625.0 1.00946044921875 0.64178466796875
10160887500.0 1.124755859375 -0.0556640625
10192109375.0 0.91912841796875 -0.669525146484375
10223331250.0 0.3582763671875 -1.15985107421875
10254553125.0 -0.492919921875 -1.11590576171875
10285775000.0 -0.991790771484375 -0.53387451171875
10316996875.0 -1.07049560546875 0.08062744140625
10348218750.0 -0.9010009765625 0.675201416015625
10379440625.0 -0.3199462890625 1.18170166015625
10410662500.0 0.5335693359375 1.08740234375
10441884375.0 0.998291015625 0.520233154296875
10473106250.0 1.1124267578125 -0.08740234375
10504328125.0 0.951446533203125 -0.76397705078125
10535550000.0 0.2359619140625 -1.301025390625
10566771875.0 -0.6651611328125 -1.0792236328125
10597993750.0 -1.086669921875 -0.45697021484375
10629215625.0 -1.17938232421875 0.2105712890625
10660437500.0 -0.888092041015625 0.95867919921875
10691659375.0 -0.00518798828125 1.34088134765625
10722881250.0 0.789886474609375 0.95330810546875
10754103125.0 1.1253662109375 0.322021484375
10785325000.0 1.14434814453125 -0.374755859375
10816546875.0 0.69927978515625 -1.05810546875
10847768750.0 -0.1513671875 -1.2342529296875
10878990625.0 -0.809600830078125 -0.844818115234375
10910212500.0 -1.128662109375 -0.24273681640625
10941434375.0 -1.10052490234375 0.4832763671875
10972656250.0 -0.56585693359375 1.0919189453125
11003878125.0 0.2236328125 1.17913818359375
11035100000.0 0.852630615234375 0.82220458984375
11066321875.0 1.2269287109375 0.17010498046875
11097543750.0 1.10101318359375 -0.68304443359375
11128765625.0 0.38311767578125 -1.2059326171875
11159987500.0 -0.4012451171875 -1.143310546875
11191209375.0 -1.0069580078125 -0.70208740234375
11222431250.0 -1.27740478515625 0.09619140625
11253653125.0 -0.859375 0.9000244140625
11284875000.0 -0.1104736328125 1.1322021484375
11316096875.0 0.51641845703125 0.958740234375
11347318750.0 1.01104736328125 0.5001220703125
11378540625.0 1.11956787109375 -0.27313232421875
11409762500.0 0.63397216796875 -0.865478515625
11440984375.0 0.032989501953125 -0.981903076171875
11472206250.0 -0.4866943359375 -0.852325439453125
11503428125.0 -0.95947265625 -0.454742431640625
11534650000.0 -1.07177734375 0.2943115234375
11565871875.0 -0.601318359375 0.859893798828125
11597093750.0 -0.01507568359375 0.99609375
11628315625.0 0.548797607421875 0.87725830078125
11659537500.0 1.06683349609375 0.38916015625
11690759375.0 1.0670166015625 -0.439208984375
11721981250.0 0.516082763671875 -0.9468994140625
11753203125.0 -0.11151123046875 -1.041748046875
11784425000.0 -0.73260498046875 -0.81134033203125
11815646875.0 -1.1077880859375 -0.14727783203125
11846868750.0 -0.892974853515625 0.556732177734375
11878090625.0 -0.389617919921875 0.91497802734375
11909312500.0 0.191741943359375 0.98870849609375
11940534375.0 0.787109375 0.695068359375
11971756250.0 1.02899169921875 0.0361328125
12002978125.0 0.807403564453125 -0.5426025390625
12034200000.0 0.379119873046875 -0.894378662109375
12065421875.0 -0.2213134765625 -1.01446533203125
12096643750.0 -0.854766845703125 -0.6640625
12127865625.0 -1.0377197265625 0.02081298828125
12159087500.0 -0.8165283203125 0.581878662109375
12190309375.0 -0.375244140625 0.98114013671875
12221531250.0 0.34564208984375 1.09185791015625
12252753125.0 0.987548828125 0.580169677734375
12283975000.0 1.0584716796875 -0.13275146484375
12315196875.0 0.801483154296875 -0.68182373046875
12346418750.0 0.2786865234375 -1.09674072265625
12377640625.0 -0.54620361328125 -1.06402587890625
12408862500.0 -1.0413818359375 -0.4173583984375
12440084375.0 -1.0123291015625 0.23052978515625
12471306250.0 -0.74249267578125 0.742889404296875
12502528125.0 -0.17584228515625 1.1260986328125
12533750000.0 0.628204345703125 0.9947509765625
12564971875.0 1.04656982421875 0.3612060546875
12596193750.0 1.0321044921875 -0.26861572265625
12627415625.0 0.748046875 -0.83697509765625
12658637500.0 0.07373046875 -1.21466064453125
12689859375.0 -0.742523193359375 -0.9674072265625
12721081250.0 -1.1219482421875 -0.3031005859375
12752303125.0 -1.1014404296875 0.3885498046875
12783525000.0 -0.68609619140625 1.0352783203125
12814746875.0 0.1702880859375 1.25469970703125
12845968750.0 0.870880126953125 0.809173583984375
12877190625.0 1.12451171875 0.167236328125
12908412500.0 1.0595703125 -0.50885009765625
12939634375.0 0.54010009765625 -1.1243896484375
12970856250.0 -0.32769775390625 -1.17926025390625
13002078125.0 -0.90234375 -0.692108154296875
13033300000.0 -1.11114501953125 -0.08282470703125
13064521875.0 -1.01165771484375 0.60137939453125
13095743750.0 -0.41748046875 1.1627197265625
13126965625.0 0.41680908203125 1.12322998046875
13158187500.0 0.954437255859375 0.63067626953125
13189409375.0 1.15423583984375 -0.0260009765625
13220631250.0 0.938934326171875 -0.756988525390625
13251853125.0 0.228515625 -1.17938232421875
13283075000.0 -0.51470947265625 -1.02252197265625
13314296875.0 -0.9945068359375 -0.527618408203125
13345518750.0 -1.14068603515625 0.18548583984375
13376740625.0 -0.752105712890625 0.865264892578125
