!Created with skrf (http://scikit-rf.org).
# Hz S RI R 50.0 
!freq ReS11 ImS11
45000000.0 -0.0767669677734375 -0.09705352783203125
76221875.0 -0.1967315673828125 -0.04785919189453125
107443750.0 -0.255645751953125 0.1195526123046875
138665625.0 -0.1490325927734375 0.32904052734375
169887500.0 0.122802734375 0.4184112548828125
201109375.0 0.422149658203125 0.282318115234375
232331250.0 0.580291748046875 -0.05670166015625
263553125.0 0.4911346435546875 -0.452972412109375
294775000.0 0.09967041015625 -0.73394775390625
325996875.0 -0.41522216796875 -0.682891845703125
357218750.0 -0.807830810546875 -0.2991943359375
388440625.0 -0.888458251953125 0.300018310546875
419662500.0 -0.519866943359375 0.86676025390625
450884375.0 0.171630859375 1.0313720703125
482106250.0 0.79913330078125 0.7159423828125
513328125.0 1.121826171875 0.08905029296875
544550000.0 1.0067138671875 -0.6795654296875
575771875.0 0.33917236328125 -1.2393798828125
606993750.0 -0.5526123046875 -1.180419921875
638215625.0 -1.16729736328125 -0.59381103515625
669437500.0 -1.34271240234375 0.23211669921875
700659375.0 -0.97442626953125 1.0963134765625
731881250.0 -0.00665283203125 1.5458984375
763103125.0 1.00555419921875 1.16009521484375
794325000.0 1.471435546875 0.28509521484375
825546875.0 1.37091064453125 -0.65057373046875
856768750.0 0.79827880859375 -1.40252685546875
887990625.0 -0.29095458984375 -1.65228271484375
919212500.0 -1.28955078125 -1.08258056640625
950434375.0 -1.65264892578125 -0.0611572265625
981656250.0 -1.386962890625 0.94635009765625
1012878125.0 -0.532958984375 1.6754150390625
1044100000.0 0.69659423828125 1.66717529296875
1075321875.0 1.577880859375 0.81610107421875
1106543750.0 1.7093505859375 -0.31134033203125
1137765625.0 1.19134521484375 -1.2852783203125
1168987500.0 0.14129638671875 -1.80108642578125
1200209375.0 -1.06207275390625 -1.4888916015625
1231431250.0 -1.73101806640625 -0.4564208984375
1262653125.0 -1.598388671875 0.68438720703125
1293875000.0 -0.85638427734375 1.4932861328125
1325096875.0 0.22601318359375 1.71136474609375
1356318750.0 1.23675537109375 1.22137451171875
1387540625.0 1.74383544921875 0.191650390625
1418762500.0 1.4736328125 -0.9521484375
1449984375.0 0.5325927734375 -1.62872314453125
1481206250.0 -0.549072265625 -1.56024169921875
1512428125.0 -1.34429931640625 -0.92327880859375
1543650000.0 -1.659423828125 0.06365966796875
1574871875.0 -1.27716064453125 1.109375
1606093750.0 -0.27557373046875 1.6346435546875
1637315625.0 0.74212646484375 1.404052734375
1668537500.0 1.3980712890625 0.69903564453125
1699759375.0 1.5770263671875 -0.275634765625
1730981250.0 1.06787109375 -1.23077392578125
1762203125.0 0.044189453125 -1.57379150390625
1793425000.0 -0.85650634765625 -1.22967529296875
1824646875.0 -1.39593505859375 -0.517333984375
1855868750.0 -1.4776611328125 0.43115234375
1887090625.0 -0.87835693359375 1.28741455078125
1918312500.0 0.11614990234375 1.48992919921875
1949534375.0 0.922119140625 1.09197998046875
1980756250.0 1.37750244140625 0.3721923828125
2011978125.0 1.36273193359375 -0.5306396484375
2043200000.0 0.75335693359375 -1.2630615234375
2074421875.0 -0.15576171875 -1.43658447265625
2105643750.0 -0.96124267578125 -1.07550048828125
2136865625.0 -1.44989013671875 -0.306884765625
2168087500.0 -1.360595703125 0.6707763671875
2199309375.0 -0.6417236328125 1.353515625
2230531250.0 0.28125 1.43927001953125
2261753125.0 1.07427978515625 1.016845703125
2292975000.0 1.51751708984375 0.17169189453125
2324196875.0 1.3089599609375 -0.81939697265625
2355418750.0 0.527099609375 -1.4222412109375
2386640625.0 -0.4041748046875 -1.451171875
2417862500.0 -1.18182373046875 -1.02630615234375
2449084375.0 -1.60736083984375 -0.08502197265625
2480306250.0 -1.31439208984375 0.92706298828125
2511528125.0 -0.4957275390625 1.51123046875
2542750000.0 0.48883056640625 1.5399169921875
2573971875.0 1.37298583984375 0.97064208984375
2605193750.0 1.72125244140625 -0.11224365234375
2636415625.0 1.26434326171875 -1.154052734375
2667637500.0 0.307861328125 -1.66888427734375
2698859375.0 -0.77001953125 -1.53759765625
2730081250.0 -1.5760498046875 -0.74298095703125
2761303125.0 -1.6851806640625 0.3876953125
2792525000.0 -1.10198974609375 1.30999755859375
2823746875.0 -0.10418701171875 1.732177734375
2854968750.0 1.01373291015625 1.45904541015625
2886190625.0 1.695068359375 0.4935302734375
2917412500.0 1.603759765625 -0.61932373046875
2948634375.0 0.94195556640625 -1.43572998046875
2979856250.0 -0.1082763671875 -1.780029296875
3011078125.0 -1.25091552734375 -1.34564208984375
3042300000.0 -1.7789306640625 -0.23577880859375
3073521875.0 -1.51202392578125 0.83880615234375
3104743750.0 -0.76568603515625 1.57122802734375
3135965625.0 0.36181640625 1.81365966796875
3167187500.0 1.5025634765625 1.16729736328125
3198409375.0 1.81927490234375 -0.07452392578125
3229631250.0 1.35260009765625 -1.08331298828125
3260853125.0 0.49139404296875 -1.67156982421875
3292075000.0 -0.6552734375 -1.701416015625
3323296875.0 -1.6240234375 -0.882568359375
3354518750.0 -1.734130859375 0.32879638671875
3385740625.0 -1.1590576171875 1.23382568359375
3416962500.0 -0.23223876953125 1.68585205078125
3448184375.0 0.86248779296875 1.5255126953125
3479406250.0 1.64080810546875 0.64508056640625
3510628125.0 1.647216796875 -0.495361328125
3541850000.0 1.00250244140625 -1.35858154296875
3573071875.0 -0.00701904296875 -1.684814453125
3604293750.0 -1.02947998046875 -1.33966064453125
3635515625.0 -1.6302490234375 -0.4398193359375
3666737500.0 -1.56536865234375 0.64727783203125
3697959375.0 -0.82733154296875 1.47796630859375
3729181250.0 0.26788330078125 1.63311767578125
3760403125.0 1.15411376953125 1.10040283203125
3791625000.0 1.55511474609375 0.219482421875
3822846875.0 1.405029296875 -0.76177978515625
3854068750.0 0.62298583984375 -1.48382568359375
3885290625.0 -0.42254638671875 -1.484619140625
3916512500.0 -1.14373779296875 -0.91375732421875
3947734375.0 -1.4503173828125 -0.12078857421875
3978956250.0 -1.3009033203125 0.78192138671875
4010178125.0 -0.53265380859375 1.4583740234375
4041400000.0 0.47564697265625 1.41815185546875
4072621875.0 1.1546630859375 0.84844970703125
4103843750.0 1.447021484375 0.06292724609375
4135065625.0 1.26983642578125 -0.84796142578125
4166287500.0 0.4580078125 -1.4986572265625
4197509375.0 -0.55908203125 -1.4163818359375
4228731250.0 -1.25006103515625 -0.80303955078125
4259953125.0 -1.510986328125 0.07086181640625
4291175000.0 -1.190185546875 1.0118408203125
4322396875.0 -0.2899169921875 1.52886962890625
4353618750.0 0.67388916015625 1.35211181640625
4384840625.0 1.32440185546875 0.69891357421875
4416062500.0 1.50396728515625 -0.22821044921875
4447284375.0 1.05657958984375 -1.10711669921875
4478506250.0 0.171630859375 -1.49920654296875
4509728125.0 -0.73388671875 -1.3096923828125
4540950000.0 -1.39801025390625 -0.63629150390625
4572171875.0 -1.52520751953125 0.36175537109375
4603393750.0 -0.97265625 1.2164306640625
4634615625.0 -0.05926513671875 1.54071044921875
4665837500.0 0.8731689453125 1.306640625
4697059375.0 1.5440673828125 0.51544189453125
4728281250.0 1.5316162109375 -0.5843505859375
4759503125.0 0.8233642578125 -1.3695068359375
4790725000.0 -0.146484375 -1.5755615234375
4821946875.0 -1.0865478515625 -1.19573974609375
4853168750.0 -1.6163330078125 -0.25079345703125
4884390625.0 -1.38006591796875 0.7955322265625
4915612500.0 -0.61395263671875 1.41571044921875
4946834375.0 0.33026123046875 1.51190185546875
4978056250.0 1.207763671875 1.01910400390625
5009278125.0 1.56561279296875 0.037841796875
5040500000.0 1.23126220703125 -0.8787841796875
5071721875.0 0.50152587890625 -1.41815185546875
5102943750.0 -0.44854736328125 -1.49969482421875
5134165625.0 -1.33892822265625 -0.90631103515625
5165387500.0 -1.57098388671875 0.14794921875
5196609375.0 -1.13720703125 1.01123046875
5227831250.0 -0.35687255859375 1.50958251953125
5259053125.0 0.6910400390625 1.4947509765625
5290275000.0 1.52557373046875 0.66229248046875
5321496875.0 1.493896484375 -0.43304443359375
5352718750.0 0.92193603515625 -1.15582275390625
5383940625.0 0.09600830078125 -1.50286865234375
5415162500.0 -0.90289306640625 -1.2860107421875
5446384375.0 -1.4874267578125 -0.3702392578125
5477606250.0 -1.30120849609375 0.56854248046875
5508828125.0 -0.732177734375 1.1546630859375
5540050000.0 0.0552978515625 1.40185546875
5571271875.0 0.94097900390625 1.11053466796875
5602493750.0 1.4134521484375 0.2584228515625
5633715625.0 1.23406982421875 -0.614501953125
5664937500.0 0.6484375 -1.2056884765625
5696159375.0 -0.198974609375 -1.38641357421875
5727381250.0 -1.02447509765625 -0.97900390625
5758603125.0 -1.393798828125 -0.144287109375
5789825000.0 -1.19561767578125 0.720947265625
5821046875.0 -0.50531005859375 1.3109130859375
5852268750.0 0.41412353515625 1.314697265625
5883490625.0 1.07421875 0.771728515625
5914712500.0 1.30462646484375 0.01885986328125
5945934375.0 1.09820556640625 -0.778564453125
5977156250.0 0.36016845703125 -1.3153076171875
6008378125.0 -0.5115966796875 -1.18341064453125
6039600000.0 -1.02520751953125 -0.6488037109375
6070821875.0 -1.2265625 -0.00311279296875
6102043750.0 -1.08563232421875 0.7664794921875
6133265625.0 -0.34027099609375 1.3489990234375
6164487500.0 0.56622314453125 1.188720703125
6195709375.0 1.07354736328125 0.629638671875
6226931250.0 1.2828369140625 -0.04461669921875
6258153125.0 1.1058349609375 -0.87469482421875
6289375000.0 0.2525634765625 -1.450439453125
6320596875.0 -0.693603515625 -1.20703125
6351818750.0 -1.2034912109375 -0.57049560546875
6383040625.0 -1.3560791015625 0.20849609375
6414262500.0 -1.0001220703125 1.06085205078125
6445484375.0 -0.0760498046875 1.4588623046875
6476706250.0 0.79888916015625 1.14837646484375
6507928125.0 1.29296875 0.4693603515625
6539150000.0 1.34979248046875 -0.388671875
6570371875.0 0.84112548828125 -1.14776611328125
6601593750.0 -0.0196533203125 -1.4078369140625
6632815625.0 -0.8433837890625 -1.13775634765625
6664037500.0 -1.40594482421875 -0.41815185546875
6695259375.0 -1.37591552734375 0.56939697265625
6726481250.0 -0.70989990234375 1.25506591796875
6757703125.0 0.13360595703125 1.41009521484375
6788925000.0 0.95965576171875 1.13165283203125
6820146875.0 1.563720703125 0.285400390625
6851368750.0 1.32598876953125 -0.82196044921875
6882590625.0 0.50494384765625 -1.3419189453125
6913812500.0 -0.2945556640625 -1.35791015625
6945034375.0 -1.074951171875 -1.021728515625
6976256250.0 -1.59735107421875 -0.08917236328125
7007478125.0 -1.2374267578125 0.9375
7038700000.0 -0.4005126953125 1.34613037109375
7069921875.0 0.3614501953125 1.32659912109375
7101143750.0 1.121337890625 0.97027587890625
7132365625.0 1.6033935546875 0.01251220703125
7163587500.0 1.1588134765625 -1.025146484375
7194809375.0 0.30108642578125 -1.4019775390625
7226031250.0 -0.5152587890625 -1.328125
7257253125.0 -1.27264404296875 -0.82476806640625
7288475000.0 -1.561767578125 0.203125
7319696875.0 -1.03057861328125 1.114990234375
7350918750.0 -0.1617431640625 1.4478759765625
7382140625.0 0.71893310546875 1.27783203125
7413362500.0 1.37957763671875 0.573486328125
7444584375.0 1.41265869140625 -0.40960693359375
7475806250.0 0.8572998046875 -1.1455078125
7507028125.0 0.00323486328125 -1.43218994140625
7538250000.0 -0.8931884765625 -1.12506103515625
7569471875.0 -1.33856201171875 -0.30902099609375
7600693750.0 -1.2041015625 0.50067138671875
7631915625.0 -0.7183837890625 1.08697509765625
7663137500.0 0.083251953125 1.36181640625
7694359375.0 0.9427490234375 0.9820556640625
7725581250.0 1.24822998046875 0.17852783203125
7756803125.0 1.0849609375 -0.50238037109375
7788025000.0 0.67047119140625 -1.04974365234375
7819246875.0 -0.12353515625 -1.3507080078125
7850468750.0 -0.999114990234375 -0.916046142578125
7881690625.0 -1.23529052734375 -0.10205078125
7912912500.0 -1.0565185546875 0.55853271484375
7944134375.0 -0.604248046875 1.1181640625
7975356250.0 0.27935791015625 1.33892822265625
8006578125.0 1.051513671875 0.77716064453125
8037800000.0 1.1962890625 0.0140380859375
8069021875.0 1.00732421875 -0.619873046875
8100243750.0 0.497802734375 -1.1649169921875
8131465625.0 -0.3934326171875 -1.2567138671875
8162687500.0 -1.03570556640625 -0.68597412109375
8193909375.0 -1.183349609375 0.01043701171875
8225131250.0 -1.02044677734375 0.68365478515625
8256353125.0 -0.4193115234375 1.25408935546875
8287575000.0 0.505126953125 1.22760009765625
8318796875.0 1.0858154296875 0.6351318359375
8350018750.0 1.2484130859375 -0.078369140625
8381240625.0 1.03338623046875 -0.8431396484375
8412462500.0 0.2491455078125 -1.37860107421875
8443684375.0 -0.67529296875 -1.171142578125
8474906250.0 -1.17889404296875 -0.5306396484375
8506128125.0 -1.299560546875 0.2396240234375
8537350000.0 -0.92388916015625 1.05108642578125
8568571875.0 -0.01251220703125 1.39666748046875
8599793750.0 0.8072509765625 1.05389404296875
8631015625.0 1.24517822265625 0.39630126953125
8662237500.0 1.28851318359375 -0.4334716796875
8693459375.0 0.7359619140625 -1.18096923828125
8724681250.0 -0.1630859375 -1.33392333984375
8755903125.0 -0.8826904296875 -0.958526611328125
8787125000.0 -1.3095703125 -0.28094482421875
8818346875.0 -1.25421142578125 0.6212158203125
8849568750.0 -0.55535888671875 1.2655029296875
8880790625.0 0.30230712890625 1.2886962890625
8912012500.0 0.986907958984375 0.8927001953125
8943234375.0 1.4044189453125 0.12567138671875
8974456250.0 1.16656494140625 -0.8480224609375
9005678125.0 0.34454345703125 -1.31793212890625
9036900000.0 -0.44879150390625 -1.22589111328125
9068121875.0 -1.10784912109375 -0.7850341796875
9099343750.0 -1.44189453125 0.10101318359375
9130565625.0 -0.978271484375 1.01513671875
9161787500.0 -0.15087890625 1.28619384765625
9193009375.0 0.5582275390625 1.1351318359375
9224231250.0 1.1817626953125 0.654541015625
9255453125.0 1.40283203125 -0.2994384765625
9286675000.0 0.80560302734375 -1.090576171875
9317896875.0 0.02471923828125 -1.250732421875
9349118750.0 -0.6611328125 -1.07275390625
9380340625.0 -1.26641845703125 -0.5074462890625
9411562500.0 -1.31591796875 0.484130859375
9442784375.0 -0.64599609375 1.12255859375
9474006250.0 0.0914306640625 1.2144775390625
9505228125.0 0.77313232421875 0.98052978515625
9536450000.0 1.28057861328125 0.30877685546875
9567671875.0 1.14422607421875 -0.5859375
9598893750.0 0.52655029296875 -1.07403564453125
9630115625.0 -0.14697265625 -1.15972900390625
9661337500.0 -0.82427978515625 -0.901519775390625
9692559375.0 -1.2432861328125 -0.18524169921875
9723781250.0 -1.04315185546875 0.6064453125
9755003125.0 -0.48480224609375 1.0531005859375
9786225000.0 0.201904296875 1.162353515625
9817446875.0 0.900909423828125 0.826904296875
9848668750.0 1.20245361328125 0.073974609375
9879890625.0 0.968109130859375 -0.6187744140625
9911112500.0 0.45074462890625 -1.05609130859375
9942334375.0 -0.273193359375 -1.1629638671875
9973556250.0 -0.948760986328125 -0.736846923828125
10004778125.0 -1.1495361328125 -0.01263427734375
10036000000.0 -0.945281982421875 0.620880126953125
10067221875.0 -0.43878173828125 1.10272216796875
10098443750.0 0.376708984375 1.182861328125
10129665625.0 1.00689697265625 0.639892578125
10160887500.0 1.12261962890625 -0.05615234375
10192109375.0 0.91766357421875 -0.669586181640625
10223331250.0 0.3575439453125 -1.1571044921875
10254553125.0 -0.492431640625 -1.114013671875
10285775000.0 -0.988861083984375 -0.532440185546875
10316996875.0 -1.06866455078125 0.08026123046875
10348218750.0 -0.900543212890625 0.674468994140625
10379440625.0 -0.31854248046875 1.18011474609375
10410662500.0 0.53192138671875 1.08599853515625
10441884375.0 0.99737548828125 0.520233154296875
10473106250.0 1.11175537109375 -0.0872802734375
10504328125.0 0.94854736328125 -0.763092041015625
10535550000.0 0.2364501953125 -1.299560546875
10566771875.0 -0.66583251953125 -1.076904296875
10597993750.0 -1.08551025390625 -0.4560546875
10629215625.0 -1.17840576171875 0.2108154296875
10660437500.0 -0.88580322265625 0.95672607421875
10691659375.0 -0.00360107421875 1.33782958984375
10722881250.0 0.79052734375 0.95111083984375
10754103125.0 1.122314453125 0.3214111328125
10785325000.0 1.14239501953125 -0.3726806640625
10816546875.0 0.69842529296875 -1.05487060546875
10847768750.0 -0.1507568359375 -1.2314453125
10878990625.0 -0.808837890625 -0.84228515625
10910212500.0 -1.12567138671875 -0.2430419921875
10941434375.0 -1.0994873046875 0.48114013671875
10972656250.0 -0.56573486328125 1.09307861328125
11003878125.0 0.22198486328125 1.17608642578125
11035100000.0 0.852294921875 0.822021484375
11066321875.0 1.224365234375 0.1708984375
11097543750.0 1.09942626953125 -0.6820068359375
11128765625.0 0.3809814453125 -1.205810546875
11159987500.0 -0.4010009765625 -1.140625
11191209375.0 -1.00714111328125 -0.701171875
11222431250.0 -1.27545166015625 0.099853515625
11253653125.0 -0.8565673828125 0.901031494140625
11284875000.0 -0.1124267578125 1.12957763671875
11316096875.0 0.51593017578125 0.9561767578125
11347318750.0 1.00653076171875 0.49981689453125
11378540625.0 1.1181640625 -0.27484130859375
11409762500.0 0.633697509765625 -0.862884521484375
11440984375.0 0.034393310546875 -0.97955322265625
11472206250.0 -0.484832763671875 -0.85174560546875
11503428125.0 -0.957672119140625 -0.453857421875
11534650000.0 -1.07135009765625 0.2947998046875
11565871875.0 -0.5999755859375 0.858917236328125
11597093750.0 -0.0152587890625 0.99456787109375
11628315625.0 0.548858642578125 0.876434326171875
11659537500.0 1.06536865234375 0.38873291015625
11690759375.0 1.06597900390625 -0.4407958984375
11721981250.0 0.514312744140625 -0.943817138671875
11753203125.0 -0.11065673828125 -1.03851318359375
11784425000.0 -0.730377197265625 -0.808868408203125
11815646875.0 -1.10443115234375 -0.146728515625
11846868750.0 -0.890716552734375 0.55743408203125
11878090625.0 -0.38885498046875 0.911712646484375
11909312500.0 0.19195556640625 0.987060546875
11940534375.0 0.7862548828125 0.693145751953125
11971756250.0 1.02838134765625 0.03424072265625
12002978125.0 0.805389404296875 -0.542877197265625
12034200000.0 0.3800048828125 -0.893310546875
12065421875.0 -0.22015380859375 -1.01251220703125
12096643750.0 -0.854522705078125 -0.6627197265625
12127865625.0 -1.03515625 0.02069091796875
12159087500.0 -0.81494140625 0.57977294921875
12190309375.0 -0.376068115234375 0.9805908203125
12221531250.0 0.346923828125 1.09014892578125
12252753125.0 0.985931396484375 0.57757568359375
12283975000.0 1.0560302734375 -0.13226318359375
12315196875.0 0.800079345703125 -0.68115234375
12346418750.0 0.27734375 -1.095703125
12377640625.0 -0.5462646484375 -1.06085205078125
12408862500.0 -1.0391845703125 -0.4139404296875
12440084375.0 -1.0103759765625 0.229248046875
12471306250.0 -0.74090576171875 0.743316650390625
12502528125.0 -0.17669677734375 1.1240234375
12533750000.0 0.628204345703125 0.9935302734375
12564971875.0 1.04547119140625 0.36004638671875
12596193750.0 1.03192138671875 -0.26947021484375
12627415625.0 0.747955322265625 -0.835052490234375
12658637500.0 0.0740966796875 -1.212646484375
12689859375.0 -0.743621826171875 -0.96527099609375
12721081250.0 -1.12139892578125 -0.3031005859375
12752303125.0 -1.09930419921875 0.38818359375
12783525000.0 -0.6842041015625 1.03497314453125
12814746875.0 0.17364501953125 1.25311279296875
12845968750.0 0.868896484375 0.80853271484375
12877190625.0 1.1209716796875 0.16790771484375
12908412500.0 1.05810546875 -0.5103759765625
12939634375.0 0.53704833984375 -1.1240234375
12970856250.0 -0.3270263671875 -1.17626953125
13002078125.0 -0.9007568359375 -0.6900634765625
13033300000.0 -1.109375 -0.0821533203125
13064521875.0 -1.00933837890625 0.60101318359375
13095743750.0 -0.4149169921875 1.16015625
13126965625.0 0.4163818359375 1.12115478515625
13158187500.0 0.952178955078125 0.629638671875
13189409375.0 1.15093994140625 -0.0257568359375
13220631250.0 0.936126708984375 -0.755279541015625
13251853125.0 0.228515625 -1.17578125
13283075000.0 -0.51446533203125 -1.02008056640625
13314296875.0 -0.992645263671875 -0.5257568359375
13345518750.0 -1.13775634765625 0.18304443359375
13376740625.0 -0.749755859375 0.865966796875
