!Created with skrf (http://scikit-rf.org).
# Hz S RI R 50.0 
!freq ReS11 ImS11
45000000.0 -0.07714462280273438 -0.09682846069335938
76221875.0 -0.196380615234375 -0.0473480224609375
107443750.0 -0.2548980712890625 0.1198272705078125
138665625.0 -0.147979736328125 0.328338623046875
169887500.0 0.1238250732421875 0.417266845703125
201109375.0 0.421844482421875 0.280548095703125
232331250.0 0.57867431640625 -0.057708740234375
263553125.0 0.4890899658203125 -0.452545166015625
294775000.0 0.0980224609375 -0.732269287109375
325996875.0 -0.415618896484375 -0.679901123046875
357218750.0 -0.806060791015625 -0.296295166015625
388440625.0 -0.88519287109375 0.301025390625
419662500.0 -0.516632080078125 0.866180419921875
450884375.0 0.1737060546875 1.02813720703125
482106250.0 0.798553466796875 0.711822509765625
513328125.0 1.1187744140625 0.08642578125
544550000.0 1.0029296875 -0.6798095703125
575771875.0 0.33544921875 -1.23809814453125
606993750.0 -0.554443359375 -1.1766357421875
638215625.0 -1.16546630859375 -0.58941650390625
669437500.0 -1.33892822265625 0.2342529296875
700659375.0 -0.96990966796875 1.09619140625
731881250.0 -0.0029296875 1.5418701171875
763103125.0 1.00555419921875 1.15435791015625
794325000.0 1.46783447265625 0.28076171875
825546875.0 1.36578369140625 -0.65179443359375
856768750.0 0.793212890625 -1.4002685546875
887990625.0 -0.29364013671875 -1.64703369140625
919212500.0 -1.28729248046875 -1.07696533203125
950434375.0 -1.64727783203125 -0.05828857421875
981656250.0 -1.380859375 0.94635009765625
1012878125.0 -0.52850341796875 1.67071533203125
1044100000.0 0.69677734375 1.65972900390625
1075321875.0 1.57354736328125 0.810302734375
1106543750.0 1.702880859375 -0.3138427734375
1137765625.0 1.18475341796875 -1.28387451171875
1168987500.0 0.13714599609375 -1.79522705078125
1200209375.0 -1.061767578125 -1.48150634765625
1231431250.0 -1.7259521484375 -0.45220947265625
1262653125.0 -1.59210205078125 0.6844482421875
1293875000.0 -0.850341796875 1.4908447265625
1325096875.0 0.22930908203125 1.70465087890625
1356318750.0 1.23443603515625 1.214599609375
1387540625.0 1.7379150390625 0.1881103515625
1418762500.0 1.46746826171875 -0.95208740234375
1449984375.0 0.52801513671875 -1.6241455078125
1481206250.0 -0.55023193359375 -1.5540771484375
1512428125.0 -1.34088134765625 -0.91778564453125
1543650000.0 -1.654052734375 0.0662841796875
1574871875.0 -1.27166748046875 1.1083984375
1606093750.0 -0.27178955078125 1.62994384765625
1637315625.0 0.74200439453125 1.3984375
1668537500.0 1.3948974609375 0.6944580078125
1699759375.0 1.5711669921875 -0.2774658203125
1730981250.0 1.06243896484375 -1.22833251953125
1762203125.0 0.041259765625 -1.56878662109375
1793425000.0 -0.8555908203125 -1.22479248046875
1824646875.0 -1.3919677734375 -0.51397705078125
1855868750.0 -1.47222900390625 0.43255615234375
1887090625.0 -0.8736572265625 1.28375244140625
1918312500.0 0.11712646484375 1.48504638671875
1949534375.0 0.92095947265625 1.08740234375
1980756250.0 1.37396240234375 0.36920166015625
2011978125.0 1.357666015625 -0.5318603515625
2043200000.0 0.7486572265625 -1.2606201171875
2074421875.0 -0.15716552734375 -1.43157958984375
2105643750.0 -0.959228515625 -1.07086181640625
2136865625.0 -1.4459228515625 -0.303955078125
2168087500.0 -1.3555908203125 0.67083740234375
2199309375.0 -0.63787841796875 1.34991455078125
2230531250.0 0.28228759765625 1.434326171875
2261753125.0 1.0718994140625 1.0120849609375
2292975000.0 1.51275634765625 0.1695556640625
2324196875.0 1.30401611328125 -0.81842041015625
2355418750.0 0.52410888671875 -1.41851806640625
2386640625.0 -0.4044189453125 -1.447265625
2417862500.0 -1.17840576171875 -1.02313232421875
2449084375.0 -1.60345458984375 -0.0831298828125
2480306250.0 -1.3095703125 0.9251708984375
2511528125.0 -0.49249267578125 1.50579833984375
2542750000.0 0.4881591796875 1.5330810546875
2573971875.0 1.36944580078125 0.96612548828125
2605193750.0 1.71435546875 -0.11175537109375
2636415625.0 1.25921630859375 -1.15167236328125
2667637500.0 0.3056640625 -1.66510009765625
2698859375.0 -0.7679443359375 -1.5318603515625
2730081250.0 -1.5709228515625 -0.739013671875
2761303125.0 -1.6781005859375 0.3873291015625
2792525000.0 -1.0975341796875 1.30523681640625
2823746875.0 -0.10223388671875 1.7259521484375
2854968750.0 1.01043701171875 1.45281982421875
2886190625.0 1.68841552734375 0.490478515625
2917412500.0 1.59771728515625 -0.617919921875
2948634375.0 0.9378662109375 -1.43072509765625
2979856250.0 -0.10845947265625 -1.77410888671875
3011078125.0 -1.2469482421875 -1.34014892578125
3042300000.0 -1.77191162109375 -0.23504638671875
3073521875.0 -1.5062255859375 0.837646484375
3104743750.0 -0.761474609375 1.566162109375
3135965625.0 0.36199951171875 1.806640625
3167187500.0 1.49755859375 1.16229248046875
3198409375.0 1.81292724609375 -0.07537841796875
3229631250.0 1.3458251953125 -1.08038330078125
3260853125.0 0.48736572265625 -1.6663818359375
3292075000.0 -0.6549072265625 -1.69537353515625
3323296875.0 -1.61773681640625 -0.87725830078125
3354518750.0 -1.72705078125 0.328125
3385740625.0 -1.1534423828125 1.22998046875
3416962500.0 -0.230224609375 1.67852783203125
3448184375.0 0.85760498046875 1.5179443359375
3479406250.0 1.6334228515625 0.6429443359375
3510628125.0 1.64056396484375 -0.49395751953125
3541850000.0 0.9981689453125 -1.352783203125
3573071875.0 -0.00823974609375 -1.68023681640625
3604293750.0 -1.02618408203125 -1.3349609375
3635515625.0 -1.62432861328125 -0.43798828125
3666737500.0 -1.5584716796875 0.64520263671875
3697959375.0 -0.82373046875 1.47314453125
3729181250.0 0.26806640625 1.6278076171875
3760403125.0 1.15191650390625 1.095947265625
3791625000.0 1.55023193359375 0.21746826171875
3822846875.0 1.39892578125 -0.7603759765625
3854068750.0 0.619384765625 -1.478271484375
3885290625.0 -0.42059326171875 -1.478515625
3916512500.0 -1.1397705078125 -0.90966796875
3947734375.0 -1.44549560546875 -0.11920166015625
3978956250.0 -1.29559326171875 0.77874755859375
4010178125.0 -0.53021240234375 1.45330810546875
4041400000.0 0.472900390625 1.4139404296875
4072621875.0 1.149169921875 0.8465576171875
4103843750.0 1.44305419921875 0.0623779296875
4135065625.0 1.26593017578125 -0.84417724609375
4166287500.0 0.4569091796875 -1.49383544921875
4197509375.0 -0.5560302734375 -1.412841796875
4228731250.0 -1.24664306640625 -0.80157470703125
4259953125.0 -1.50665283203125 0.070556640625
4291175000.0 -1.18646240234375 1.0089111328125
4322396875.0 -0.28839111328125 1.52520751953125
4353618750.0 0.671875 1.347412109375
4384840625.0 1.32122802734375 0.696044921875
4416062500.0 1.49859619140625 -0.22723388671875
4447284375.0 1.05389404296875 -1.1025390625
4478506250.0 0.17193603515625 -1.49310302734375
4509728125.0 -0.73065185546875 -1.30523681640625
4540950000.0 -1.3916015625 -0.635498046875
4572171875.0 -1.5205078125 0.3592529296875
4603393750.0 -0.97119140625 1.2100830078125
4634615625.0 -0.06134033203125 1.5355224609375
4665837500.0 0.86962890625 1.3031005859375
4697059375.0 1.5399169921875 0.51416015625
4728281250.0 1.52716064453125 -0.582275390625
4759503125.0 0.822021484375 -1.365234375
4790725000.0 -0.145263671875 -1.57080078125
4821946875.0 -1.08233642578125 -1.19244384765625
4853168750.0 -1.61102294921875 -0.25079345703125
4884390625.0 -1.37591552734375 0.79205322265625
4915612500.0 -0.61236572265625 1.4100341796875
4946834375.0 0.3291015625 1.50689697265625
4978056250.0 1.20263671875 1.01513671875
5009278125.0 1.5599365234375 0.0391845703125
5040500000.0 1.22760009765625 -0.87451171875
5071721875.0 0.50115966796875 -1.41217041015625
5102943750.0 -0.44610595703125 -1.49462890625
5134165625.0 -1.333740234375 -0.90478515625
5165387500.0 -1.5655517578125 0.14532470703125
5196609375.0 -1.13458251953125 1.0074462890625
5227831250.0 -0.35791015625 1.50372314453125
5259053125.0 0.686767578125 1.49017333984375
5290275000.0 1.5191650390625 0.66265869140625
5321496875.0 1.49053955078125 -0.42987060546875
5352718750.0 0.91949462890625 -1.15234375
5383940625.0 0.09637451171875 -1.49835205078125
5415162500.0 -0.8985595703125 -1.28204345703125
5446384375.0 -1.48211669921875 -0.36962890625
5477606250.0 -1.2978515625 0.56512451171875
5508828125.0 -0.730224609375 1.14990234375
5540050000.0 0.053466796875 1.3963623046875
5571271875.0 0.93707275390625 1.107421875
5602493750.0 1.406982421875 0.2593994140625
5633715625.0 1.23065185546875 -0.6121826171875
5664937500.0 0.64752197265625 -1.19952392578125
5696159375.0 -0.19647216796875 -1.3818359375
5727381250.0 -1.02099609375 -0.9774169921875
5758603125.0 -1.38983154296875 -0.1456298828125
5789825000.0 -1.19293212890625 0.71759033203125
5821046875.0 -0.505859375 1.305419921875
5852268750.0 0.4107666015625 1.3116455078125
5883490625.0 1.069091796875 0.77142333984375
5914712500.0 1.3009033203125 0.0201416015625
5945934375.0 1.09521484375 -0.7752685546875
5977156250.0 0.36083984375 -1.31121826171875
6008378125.0 -0.50799560546875 -1.1806640625
6039600000.0 -1.02008056640625 -0.648193359375
6070821875.0 -1.22265625 -0.00482177734375
6102043750.0 -1.0821533203125 0.7607421875
6133265625.0 -0.34130859375 1.34320068359375
6164487500.0 0.56256103515625 1.18621826171875
6195709375.0 1.06951904296875 0.629638671875
6226931250.0 1.2777099609375 -0.0421142578125
6258153125.0 1.10345458984375 -0.8692626953125
6289375000.0 0.2559814453125 -1.4454345703125
6320596875.0 -0.68798828125 -1.205078125
6351818750.0 -1.199951171875 -0.57147216796875
6383040625.0 -1.35345458984375 0.20684814453125
6414262500.0 -0.9990234375 1.0552978515625
6445484375.0 -0.07830810546875 1.4554443359375
6476706250.0 0.79534912109375 1.1474609375
6507928125.0 1.28912353515625 0.46990966796875
6539150000.0 1.3458251953125 -0.38543701171875
6570371875.0 0.84027099609375 -1.14263916015625
6601593750.0 -0.0174560546875 -1.40374755859375
6632815625.0 -0.83807373046875 -1.13494873046875
6664037500.0 -1.400390625 -0.4190673828125
6695259375.0 -1.37237548828125 0.56500244140625
6726481250.0 -0.70941162109375 1.25067138671875
6757703125.0 0.1307373046875 1.40509033203125
6788925000.0 0.95367431640625 1.1297607421875
6820146875.0 1.557373046875 0.2886962890625
6851368750.0 1.32513427734375 -0.81781005859375
6882590625.0 0.506103515625 -1.33648681640625
6913812500.0 -0.29180908203125 -1.3548583984375
6945034375.0 -1.06939697265625 -1.0206298828125
6976256250.0 -1.591064453125 -0.09417724609375
7007478125.0 -1.23565673828125 0.93060302734375
7038700000.0 -0.4010009765625 1.34210205078125
7069921875.0 0.3577880859375 1.32147216796875
7101143750.0 1.1175537109375 0.9671630859375
7132365625.0 1.5972900390625 0.01593017578125
7163587500.0 1.15618896484375 -1.01922607421875
7194809375.0 0.302734375 -1.3961181640625
7226031250.0 -0.51153564453125 -1.32427978515625
7257253125.0 -1.2640380859375 -0.822998046875
7288475000.0 -1.5556640625 0.19635009765625
7319696875.0 -1.02923583984375 1.10931396484375
7350918750.0 -0.16552734375 1.44207763671875
7382140625.0 0.71343994140625 1.27435302734375
7413362500.0 1.37420654296875 0.57568359375
7444584375.0 1.41131591796875 -0.40643310546875
7475806250.0 0.856689453125 -1.14483642578125
7507028125.0 0.0054931640625 -1.42840576171875
7538250000.0 -0.88720703125 -1.123291015625
7569471875.0 -1.33416748046875 -0.31158447265625
7600693750.0 -1.20086669921875 0.49591064453125
7631915625.0 -0.71759033203125 1.08343505859375
7663137500.0 0.08050537109375 1.3563232421875
7694359375.0 0.94024658203125 0.979736328125
7725581250.0 1.2418212890625 0.18072509765625
7756803125.0 1.08111572265625 -0.49798583984375
7788025000.0 0.6690673828125 -1.04217529296875
7819246875.0 -0.11907958984375 -1.3450927734375
7850468750.0 -0.99066162109375 -0.9151611328125
7881690625.0 -1.2303466796875 -0.10516357421875
7912912500.0 -1.05389404296875 0.55438232421875
7944134375.0 -0.60552978515625 1.11138916015625
7975356250.0 0.2716064453125 1.33428955078125
8006578125.0 1.046630859375 0.77825927734375
8037800000.0 1.19293212890625 0.0164794921875
8069021875.0 1.0059814453125 -0.61737060546875
8100243750.0 0.49908447265625 -1.16180419921875
8131465625.0 -0.38677978515625 -1.253173828125
8162687500.0 -1.031005859375 -0.68634033203125
8193909375.0 -1.18017578125 0.0096435546875
8225131250.0 -1.0167236328125 0.6776123046875
8256353125.0 -0.4210205078125 1.24871826171875
8287575000.0 0.50030517578125 1.22454833984375
8318796875.0 1.08251953125 0.6353759765625
8350018750.0 1.24310302734375 -0.07525634765625
8381240625.0 1.03076171875 -0.8370361328125
8412462500.0 0.2547607421875 -1.37103271484375
8443684375.0 -0.6678466796875 -1.1702880859375
8474906250.0 -1.17333984375 -0.53204345703125
8506128125.0 -1.2958984375 0.23626708984375
8537350000.0 -0.92462158203125 1.044189453125
8568571875.0 -0.0162353515625 1.3939208984375
8599793750.0 0.8016357421875 1.052978515625
8631015625.0 1.2410888671875 0.39910888671875
8662237500.0 1.2841796875 -0.42950439453125
8693459375.0 0.73602294921875 -1.1766357421875
8724681250.0 -0.16162109375 -1.33013916015625
8755903125.0 -0.877532958984375 -0.95599365234375
8787125000.0 -1.3011474609375 -0.283447265625
8818346875.0 -1.2501220703125 0.61376953125
8849568750.0 -0.55560302734375 1.26226806640625
8880790625.0 0.29766845703125 1.2838134765625
8912012500.0 0.979888916015625 0.891571044921875
8943234375.0 1.39739990234375 0.1300048828125
8974456250.0 1.16668701171875 -0.83831787109375
9005678125.0 0.3487548828125 -1.31268310546875
9036900000.0 -0.444091796875 -1.2249755859375
9068121875.0 -1.10107421875 -0.7860107421875
9099343750.0 -1.438720703125 0.09637451171875
9130565625.0 -0.9783935546875 1.01129150390625
9161787500.0 -0.1541748046875 1.281494140625
9193009375.0 0.55328369140625 1.132080078125
9224231250.0 1.18017578125 0.65338134765625
9255453125.0 1.39837646484375 -0.29400634765625
9286675000.0 0.80731201171875 -1.08282470703125
9317896875.0 0.02764892578125 -1.2454833984375
9349118750.0 -0.65155029296875 -1.06866455078125
9380340625.0 -1.257568359375 -0.5091552734375
9411562500.0 -1.31024169921875 0.4747314453125
9442784375.0 -0.64813232421875 1.11474609375
9474006250.0 0.0875244140625 1.209716796875
9505228125.0 0.763641357421875 0.979827880859375
9536450000.0 1.273193359375 0.313720703125
9567671875.0 1.1436767578125 -0.581787109375
9598893750.0 0.5296630859375 -1.06866455078125
9630115625.0 -0.14361572265625 -1.15692138671875
9661337500.0 -0.817840576171875 -0.902252197265625
9692559375.0 -1.23828125 -0.1903076171875
9723781250.0 -1.0438232421875 0.60284423828125
9755003125.0 -0.48443603515625 1.05108642578125
9786225000.0 0.19915771484375 1.1600341796875
9817446875.0 0.894256591796875 0.82708740234375
9848668750.0 1.19622802734375 0.07891845703125
9879890625.0 0.96771240234375 -0.614837646484375
9911112500.0 0.451904296875 -1.05047607421875
9942334375.0 -0.26617431640625 -1.1572265625
9973556250.0 -0.941986083984375 -0.7381591796875
10004778125.0 -1.1446533203125 -0.0196533203125
10036000000.0 -0.943572998046875 0.615692138671875
10067221875.0 -0.44140625 1.09600830078125
10098443750.0 0.36798095703125 1.181396484375
10129665625.0 1.00146484375 0.64276123046875
10160887500.0 1.119873046875 -0.0506591796875
10192109375.0 0.917449951171875 -0.66253662109375
10223331250.0 0.36151123046875 -1.15106201171875
10254553125.0 -0.484130859375 -1.112548828125
10285775000.0 -0.9852294921875 -0.535400390625
10316996875.0 -1.06683349609375 0.07562255859375
10348218750.0 -0.8994140625 0.67034912109375
10379440625.0 -0.32232666015625 1.173095703125
10410662500.0 0.52667236328125 1.08465576171875
10441884375.0 0.991363525390625 0.521820068359375
10473106250.0 1.1087646484375 -0.08502197265625
10504328125.0 0.9486083984375 -0.757843017578125
10535550000.0 0.24017333984375 -1.292724609375
10566771875.0 -0.655029296875 -1.07696533203125
10597993750.0 -1.07977294921875 -0.459228515625
10629215625.0 -1.17486572265625 0.20465087890625
10660437500.0 -0.88714599609375 0.9520263671875
10691659375.0 -0.010986328125 1.3341064453125
10722881250.0 0.782012939453125 0.951385498046875
10754103125.0 1.1195068359375 0.323974609375
10785325000.0 1.138427734375 -0.3668212890625
10816546875.0 0.7008056640625 -1.04736328125
10847768750.0 -0.14361572265625 -1.2279052734375
10878990625.0 -0.802520751953125 -0.8436279296875
10910212500.0 -1.122802734375 -0.24493408203125
10941434375.0 -1.09686279296875 0.4765625
10972656250.0 -0.56915283203125 1.08538818359375
11003878125.0 0.217529296875 1.1737060546875
11035100000.0 0.84674072265625 0.82122802734375
11066321875.0 1.219970703125 0.17523193359375
11097543750.0 1.0986328125 -0.67523193359375
11128765625.0 0.38568115234375 -1.1995849609375
11159987500.0 -0.39544677734375 -1.13800048828125
11191209375.0 -0.999237060546875 -0.7017822265625
11222431250.0 -1.27081298828125 0.09161376953125
11253653125.0 -0.85833740234375 0.891876220703125
11284875000.0 -0.11456298828125 1.12640380859375
11316096875.0 0.509246826171875 0.955810546875
11347318750.0 1.00213623046875 0.50225830078125
11378540625.0 1.11492919921875 -0.267578125
11409762500.0 0.633880615234375 -0.858856201171875
11440984375.0 0.0352783203125 -0.978424072265625
11472206250.0 -0.480987548828125 -0.849151611328125
11503428125.0 -0.951080322265625 -0.457183837890625
11534650000.0 -1.06805419921875 0.28851318359375
11565871875.0 -0.6036376953125 0.852447509765625
11597093750.0 -0.01849365234375 0.991241455078125
11628315625.0 0.544647216796875 0.874298095703125
11659537500.0 1.0582275390625 0.39300537109375
11690759375.0 1.064453125 -0.43096923828125
11721981250.0 0.517425537109375 -0.94024658203125
11753203125.0 -0.10626220703125 -1.03594970703125
11784425000.0 -0.7236328125 -0.808929443359375
11815646875.0 -1.0992431640625 -0.15087890625
11846868750.0 -0.891204833984375 0.549957275390625
11878090625.0 -0.3907470703125 0.907958984375
11909312500.0 0.185211181640625 0.983642578125
11940534375.0 0.77850341796875 0.695343017578125
11971756250.0 1.0234375 0.04052734375
12002978125.0 0.806121826171875 -0.536376953125
12034200000.0 0.382110595703125 -0.88787841796875
12065421875.0 -0.21429443359375 -1.0091552734375
12096643750.0 -0.845367431640625 -0.66485595703125
12127865625.0 -1.03350830078125 0.01593017578125
12159087500.0 -0.815093994140625 0.57623291015625
12190309375.0 -0.376800537109375 0.97540283203125
12221531250.0 0.3380126953125 1.08709716796875
12252753125.0 0.97967529296875 0.5816650390625
12283975000.0 1.05462646484375 -0.12811279296875
12315196875.0 0.800140380859375 -0.677001953125
12346418750.0 0.2813720703125 -1.09210205078125
12377640625.0 -0.53594970703125 -1.0601806640625
12408862500.0 -1.03289794921875 -0.42047119140625
12440084375.0 -1.00799560546875 0.22430419921875
12471306250.0 -0.74163818359375 0.735565185546875
12502528125.0 -0.17889404296875 1.12091064453125
12533750000.0 0.619110107421875 0.993133544921875
12564971875.0 1.0418701171875 0.36334228515625
12596193750.0 1.02935791015625 -0.2642822265625
12627415625.0 0.748138427734375 -0.827239990234375
12658637500.0 0.08148193359375 -1.205810546875
12689859375.0 -0.7353515625 -0.965667724609375
12721081250.0 -1.11456298828125 -0.307373046875
12752303125.0 -1.09686279296875 0.38043212890625
12783525000.0 -0.68743896484375 1.0286865234375
12814746875.0 0.16363525390625 1.24981689453125
12845968750.0 0.862274169921875 0.812347412109375
12877190625.0 1.1168212890625 0.1724853515625
12908412500.0 1.05572509765625 -0.50152587890625
12939634375.0 0.543212890625 -1.11492919921875
12970856250.0 -0.31964111328125 -1.1744384765625
13002078125.0 -0.893218994140625 -0.6932373046875
13033300000.0 -1.10546875 -0.08697509765625
13064521875.0 -1.009765625 0.5928955078125
13095743750.0 -0.4210205078125 1.15435791015625
13126965625.0 0.40765380859375 1.1207275390625
13158187500.0 0.947021484375 0.632110595703125
13189409375.0 1.145751953125 -0.020263671875
13220631250.0 0.936248779296875 -0.74822998046875
13251853125.0 0.234130859375 -1.17193603515625
13283075000.0 -0.50616455078125 -1.0196533203125
13314296875.0 -0.98492431640625 -0.530120849609375
13345518750.0 -1.13507080078125 0.17626953125
