!Created with skrf (http://scikit-rf.org).
# Hz S RI R 50.0 
!freq ReS11 ImS11
45000000.0 -0.0771484375 -0.09686660766601562
76221875.0 -0.1974639892578125 -0.0473175048828125
107443750.0 -0.2559661865234375 0.120880126953125
138665625.0 -0.148193359375 0.33026123046875
169887500.0 0.124755859375 0.4189605712890625
201109375.0 0.424163818359375 0.281585693359375
232331250.0 0.581268310546875 -0.05865478515625
263553125.0 0.49072265625 -0.4559173583984375
294775000.0 0.097381591796875 -0.73602294921875
325996875.0 -0.418792724609375 -0.6832275390625
357218750.0 -0.811370849609375 -0.297149658203125
388440625.0 -0.8897705078125 0.303985595703125
419662500.0 -0.518310546875 0.87139892578125
450884375.0 0.1756591796875 1.0335693359375
482106250.0 0.803375244140625 0.71478271484375
513328125.0 1.124755859375 0.08551025390625
544550000.0 1.00665283203125 -0.6846923828125
575771875.0 0.33551025390625 -1.2437744140625
606993750.0 -0.5579833984375 -1.181396484375
638215625.0 -1.17230224609375 -0.5908203125
669437500.0 -1.34527587890625 0.2374267578125
700659375.0 -0.97271728515625 1.10272216796875
731881250.0 -0.00115966796875 1.54962158203125
763103125.0 1.0118408203125 1.15966796875
794325000.0 1.475830078125 0.28033447265625
825546875.0 1.371826171875 -0.65704345703125
856768750.0 0.794677734375 -1.4095458984375
887990625.0 -0.2977294921875 -1.6553955078125
919212500.0 -1.29736328125 -1.08135986328125
950434375.0 -1.65771484375 -0.05517578125
981656250.0 -1.38720703125 0.9544677734375
1012878125.0 -0.528564453125 1.682373046875
1044100000.0 0.7052001953125 1.6695556640625
1075321875.0 1.58526611328125 0.81280517578125
1106543750.0 1.7130126953125 -0.3187255859375
1137765625.0 1.1903076171875 -1.2943115234375
1168987500.0 0.13494873046875 -1.80718994140625
1200209375.0 -1.07061767578125 -1.48919677734375
1231431250.0 -1.7373046875 -0.45135498046875
1262653125.0 -1.6005859375 0.691650390625
1293875000.0 -0.85369873046875 1.50067138671875
1325096875.0 0.2327880859375 1.71551513671875
1356318750.0 1.24456787109375 1.22052001953125
1387540625.0 1.7493896484375 0.1859130859375
1418762500.0 1.47442626953125 -0.959716796875
1449984375.0 0.52801513671875 -1.635009765625
1481206250.0 -0.5560302734375 -1.56201171875
1512428125.0 -1.35089111328125 -0.9208984375
1543650000.0 -1.6630859375 0.06988525390625
1574871875.0 -1.276611328125 1.1168212890625
1606093750.0 -0.2703857421875 1.63946533203125
1637315625.0 0.7491455078125 1.40533447265625
1668537500.0 1.40399169921875 0.69573974609375
1699759375.0 1.57989501953125 -0.28192138671875
1730981250.0 1.066162109375 -1.238037109375
1762203125.0 0.0386962890625 -1.57818603515625
1793425000.0 -0.86309814453125 -1.230224609375
1824646875.0 -1.40167236328125 -0.513916015625
1855868750.0 -1.47998046875 0.4381103515625
1887090625.0 -0.87554931640625 1.293701171875
1918312500.0 0.12237548828125 1.49371337890625
1949534375.0 0.9287109375 1.09088134765625
1980756250.0 1.38189697265625 0.3681640625
2011978125.0 1.3643798828125 -0.53692626953125
2043200000.0 0.7506103515625 -1.26922607421875
2074421875.0 -0.161376953125 -1.440185546875
2105643750.0 -0.96771240234375 -1.0750732421875
2136865625.0 -1.45465087890625 -0.302490234375
2168087500.0 -1.3614501953125 0.67791748046875
2199309375.0 -0.63824462890625 1.35931396484375
2230531250.0 0.28729248046875 1.4425048828125
2261753125.0 1.08099365234375 1.01519775390625
2292975000.0 1.521728515625 0.16656494140625
2324196875.0 1.3087158203125 -0.826171875
2355418750.0 0.52313232421875 -1.42779541015625
2386640625.0 -0.4105224609375 -1.45318603515625
2417862500.0 -1.1888427734375 -1.02447509765625
2449084375.0 -1.6124267578125 -0.07916259765625
2480306250.0 -1.3148193359375 0.93389892578125
2511528125.0 -0.49188232421875 1.51605224609375
2542750000.0 0.4974365234375 1.543212890625
2573971875.0 1.38323974609375 0.96783447265625
2605193750.0 1.7254638671875 -0.11968994140625
2636415625.0 1.263427734375 -1.1624755859375
2667637500.0 0.30279541015625 -1.676025390625
2698859375.0 -0.77935791015625 -1.5399169921875
2730081250.0 -1.5828857421875 -0.73919677734375
2761303125.0 -1.688232421875 0.39593505859375
2792525000.0 -1.10101318359375 1.31884765625
2823746875.0 -0.09661865234375 1.7392578125
2854968750.0 1.0233154296875 1.45989990234375
2886190625.0 1.70245361328125 0.48760986328125
2917412500.0 1.60601806640625 -0.62774658203125
2948634375.0 0.9390869140625 -1.44415283203125
2979856250.0 -0.11541748046875 -1.78515625
3011078125.0 -1.25787353515625 -1.3446044921875
3042300000.0 -1.7843017578125 -0.22967529296875
3073521875.0 -1.51336669921875 0.84710693359375
3104743750.0 -0.7618408203125 1.5792236328125
3135965625.0 0.3701171875 1.817626953125
3167187500.0 1.5108642578125 1.164794921875
3198409375.0 1.82452392578125 -0.08197021484375
3229631250.0 1.35174560546875 -1.0908203125
3260853125.0 0.48541259765625 -1.67889404296875
3292075000.0 -0.66473388671875 -1.70513916015625
3323296875.0 -1.631591796875 -0.87841796875
3354518750.0 -1.73822021484375 0.33660888671875
3385740625.0 -1.157470703125 1.24285888671875
3416962500.0 -0.2261962890625 1.69134521484375
3448184375.0 0.87103271484375 1.52618408203125
3479406250.0 1.64788818359375 0.640380859375
3510628125.0 1.650634765625 -0.50482177734375
3541850000.0 0.99951171875 -1.36590576171875
3573071875.0 -0.01416015625 -1.6895751953125
3604293750.0 -1.03814697265625 -1.33984375
3635515625.0 -1.63677978515625 -0.43408203125
3666737500.0 -1.56732177734375 0.65594482421875
3697959375.0 -0.8232421875 1.48773193359375
3729181250.0 0.27569580078125 1.637451171875
3760403125.0 1.1612548828125 1.09912109375
3791625000.0 1.56072998046875 0.21380615234375
3822846875.0 1.40655517578125 -0.76904296875
3854068750.0 0.61859130859375 -1.4910888671875
3885290625.0 -0.428955078125 -1.48712158203125
3916512500.0 -1.1517333984375 -0.91107177734375
3947734375.0 -1.4561767578125 -0.1141357421875
3978956250.0 -1.30157470703125 0.788330078125
4010178125.0 -0.52740478515625 1.466064453125
4041400000.0 0.48260498046875 1.41949462890625
4072621875.0 1.16204833984375 0.84588623046875
4103843750.0 1.45147705078125 0.0574951171875
4135065625.0 1.270263671875 -0.85577392578125
4166287500.0 0.4530029296875 -1.504150390625
4197509375.0 -0.5665283203125 -1.418212890625
4228731250.0 -1.25762939453125 -0.7998046875
4259953125.0 -1.514404296875 0.07720947265625
4291175000.0 -1.189208984375 1.01910400390625
4322396875.0 -0.2841796875 1.53485107421875
4353618750.0 0.68115234375 1.3538818359375
4384840625.0 1.3310546875 0.69476318359375
4416062500.0 1.50738525390625 -0.2354736328125
4447284375.0 1.05535888671875 -1.11492919921875
4478506250.0 0.16650390625 -1.503173828125
4509728125.0 -0.7423095703125 -1.3101806640625
4540950000.0 -1.404296875 -0.63250732421875
4572171875.0 -1.529052734375 0.3701171875
4603393750.0 -0.9705810546875 1.2227783203125
4634615625.0 -0.05438232421875 1.54296875
4665837500.0 0.87939453125 1.30657958984375
4697059375.0 1.5504150390625 0.5101318359375
4728281250.0 1.53271484375 -0.59228515625
4759503125.0 0.81927490234375 -1.37713623046875
4790725000.0 -0.1534423828125 -1.57855224609375
4821946875.0 -1.09356689453125 -1.19427490234375
4853168750.0 -1.6217041015625 -0.24444580078125
4884390625.0 -1.38067626953125 0.8037109375
4915612500.0 -0.610107421875 1.4228515625
4946834375.0 0.33648681640625 1.51556396484375
4978056250.0 1.21630859375 1.0166015625
5009278125.0 1.56951904296875 0.03240966796875
5040500000.0 1.2308349609375 -0.88616943359375
5071721875.0 0.4967041015625 -1.42431640625
5102943750.0 -0.45672607421875 -1.50225830078125
5134165625.0 -1.34796142578125 -0.90252685546875
5165387500.0 -1.5740966796875 0.15496826171875
5196609375.0 -1.13580322265625 1.02081298828125
5227831250.0 -0.35162353515625 1.5145263671875
5259053125.0 0.7000732421875 1.495849609375
5290275000.0 1.53228759765625 0.65704345703125
5321496875.0 1.49627685546875 -0.44110107421875
5352718750.0 0.91888427734375 -1.1619873046875
5383940625.0 0.09033203125 -1.50750732421875
5415162500.0 -0.9102783203125 -1.28546142578125
5446384375.0 -1.49334716796875 -0.36431884765625
5477606250.0 -1.30291748046875 0.57550048828125
5508828125.0 -0.7294921875 1.1595458984375
5540050000.0 0.0611572265625 1.4063720703125
5571271875.0 0.9501953125 1.10986328125
5602493750.0 1.41748046875 0.25335693359375
5633715625.0 1.23492431640625 -0.62213134765625
5664937500.0 0.64471435546875 -1.21099853515625
5696159375.0 -0.20684814453125 -1.38995361328125
5727381250.0 -1.03228759765625 -0.97686767578125
5758603125.0 -1.3994140625 -0.13714599609375
5789825000.0 -1.195556640625 0.7281494140625
5821046875.0 -0.50128173828125 1.316650390625
5852268750.0 0.42095947265625 1.3167724609375
5883490625.0 1.07958984375 0.76922607421875
5914712500.0 1.3087158203125 0.01312255859375
5945934375.0 1.0972900390625 -0.78436279296875
5977156250.0 0.35498046875 -1.320556640625
6008378125.0 -0.5189208984375 -1.18487548828125
6039600000.0 -1.029541015625 -0.64654541015625
6070821875.0 -1.2305908203125 0.0023193359375
6102043750.0 -1.0850830078125 0.7730712890625
6133265625.0 -0.33551025390625 1.3533935546875
6164487500.0 0.5736083984375 1.1893310546875
6195709375.0 1.0787353515625 0.626708984375
6226931250.0 1.285400390625 -0.0491943359375
6258153125.0 1.104736328125 -0.88250732421875
6289375000.0 0.2469482421875 -1.45416259765625
6320596875.0 -0.7010498046875 -1.20623779296875
6351818750.0 -1.208251953125 -0.56658935546875
6383040625.0 -1.35919189453125 0.2164306640625
6414262500.0 -0.99725341796875 1.067626953125
6445484375.0 -0.06866455078125 1.46405029296875
6476706250.0 0.804931640625 1.1475830078125
6507928125.0 1.2987060546875 0.46417236328125
6539150000.0 1.35076904296875 -0.39569091796875
6570371875.0 0.838134765625 -1.15374755859375
6601593750.0 -0.02532958984375 -1.41094970703125
6632815625.0 -0.85089111328125 -1.13653564453125
6664037500.0 -1.41046142578125 -0.413818359375
6695259375.0 -1.37689208984375 0.57763671875
6726481250.0 -0.70550537109375 1.26116943359375
6757703125.0 0.13970947265625 1.41241455078125
6788925000.0 0.96734619140625 1.12994384765625
6820146875.0 1.570068359375 0.27764892578125
6851368750.0 1.32537841796875 -0.83221435546875
6882590625.0 0.49957275390625 -1.34674072265625
6913812500.0 -0.30120849609375 -1.36053466796875
6945034375.0 -1.08074951171875 -1.0194091796875
6976256250.0 -1.59893798828125 -0.08380126953125
7007478125.0 -1.2366943359375 0.9443359375
7038700000.0 -0.39678955078125 1.35137939453125
7069921875.0 0.36883544921875 1.32928466796875
7101143750.0 1.13134765625 0.9666748046875
7132365625.0 1.61083984375 0.0020751953125
7163587500.0 1.15704345703125 -1.03167724609375
7194809375.0 0.2957763671875 -1.4071044921875
7226031250.0 -0.522216796875 -1.33099365234375
7257253125.0 -1.28033447265625 -0.8211669921875
7288475000.0 -1.5650634765625 0.21173095703125
7319696875.0 -1.02813720703125 1.12152099609375
7350918750.0 -0.15509033203125 1.4544677734375
7382140625.0 0.72906494140625 1.2791748046875
7413362500.0 1.387451171875 0.5701904296875
7444584375.0 1.41595458984375 -0.41900634765625
7475806250.0 0.85369873046875 -1.15435791015625
7507028125.0 -0.00238037109375 -1.43658447265625
7538250000.0 -0.90118408203125 -1.123046875
7569471875.0 -1.34295654296875 -0.30413818359375
7600693750.0 -1.204833984375 0.50726318359375
7631915625.0 -0.71539306640625 1.09515380859375
7663137500.0 0.08880615234375 1.3651123046875
7694359375.0 0.951019287109375 0.980712890625
7725581250.0 1.2515869140625 0.17498779296875
7756803125.0 1.08612060546875 -0.50689697265625
7788025000.0 0.66778564453125 -1.05560302734375
7819246875.0 -0.130615234375 -1.354736328125
7850468750.0 -1.00634765625 -0.9136962890625
7881690625.0 -1.2401123046875 -0.095703125
7912912500.0 -1.05633544921875 0.5634765625
7944134375.0 -0.60052490234375 1.1240234375
7975356250.0 0.2847900390625 1.34002685546875
8006578125.0 1.05804443359375 0.7738037109375
8037800000.0 1.1986083984375 0.0084228515625
8069021875.0 1.00787353515625 -0.6251220703125
8100243750.0 0.49334716796875 -1.1724853515625
8131465625.0 -0.3974609375 -1.2564697265625
8162687500.0 -1.04254150390625 -0.68212890625
8193909375.0 -1.18768310546875 0.01617431640625
8225131250.0 -1.01922607421875 0.6884765625
8256353125.0 -0.4151611328125 1.2586669921875
8287575000.0 0.51123046875 1.22882080078125
8318796875.0 1.09271240234375 0.63079833984375
8350018750.0 1.25262451171875 -0.085205078125
8381240625.0 1.03173828125 -0.85345458984375
8412462500.0 0.24420166015625 -1.38421630859375
8443684375.0 -0.68292236328125 -1.17138671875
8474906250.0 -1.18536376953125 -0.5262451171875
8506128125.0 -1.3028564453125 0.24822998046875
8537350000.0 -0.920654296875 1.05712890625
8568571875.0 -0.0040283203125 1.401611328125
8599793750.0 0.81402587890625 1.0523681640625
8631015625.0 1.2493896484375 0.3919677734375
8662237500.0 1.2891845703125 -0.43890380859375
8693459375.0 0.73291015625 -1.18890380859375
8724681250.0 -0.17181396484375 -1.3370361328125
8755903125.0 -0.8887939453125 -0.9576416015625
8787125000.0 -1.3153076171875 -0.27496337890625
8818346875.0 -1.2547607421875 0.63043212890625
8849568750.0 -0.5504150390625 1.2734375
8880790625.0 0.30987548828125 1.29144287109375
8912012500.0 0.993072509765625 0.890106201171875
8943234375.0 1.409423828125 0.1175537109375
8974456250.0 1.16668701171875 -0.85736083984375
9005678125.0 0.3385009765625 -1.3221435546875
9036900000.0 -0.45703125 -1.22650146484375
9068121875.0 -1.11248779296875 -0.78070068359375
9099343750.0 -1.44708251953125 0.1094970703125
9130565625.0 -0.9744873046875 1.0252685546875
9161787500.0 -0.145751953125 1.2882080078125
9193009375.0 0.56488037109375 1.1348876953125
9224231250.0 1.189697265625 0.6505126953125
9255453125.0 1.40570068359375 -0.30731201171875
9286675000.0 0.80352783203125 -1.09613037109375
9317896875.0 0.017333984375 -1.25531005859375
9349118750.0 -0.66632080078125 -1.072265625
9380340625.0 -1.2711181640625 -0.50213623046875
9411562500.0 -1.31524658203125 0.49005126953125
9442784375.0 -0.6417236328125 1.12884521484375
9474006250.0 0.0992431640625 1.21746826171875
9505228125.0 0.780364990234375 0.98004150390625
9536450000.0 1.28497314453125 0.30279541015625
9567671875.0 1.14404296875 -0.59173583984375
9598893750.0 0.5228271484375 -1.07879638671875
9630115625.0 -0.15386962890625 -1.1640625
9661337500.0 -0.830047607421875 -0.899810791015625
9692559375.0 -1.24609375 -0.1800537109375
9723781250.0 -1.04254150390625 0.6138916015625
9755003125.0 -0.47991943359375 1.05804443359375
9786225000.0 0.20794677734375 1.1639404296875
9817446875.0 0.90850830078125 0.825592041015625
9848668750.0 1.2032470703125 0.0697021484375
9879890625.0 0.9696044921875 -0.6292724609375
9911112500.0 0.44683837890625 -1.06231689453125
9942334375.0 -0.280029296875 -1.1654052734375
9973556250.0 -0.956390380859375 -0.733734130859375
10004778125.0 -1.15338134765625 -0.00634765625
10036000000.0 -0.943359375 0.627044677734375
10067221875.0 -0.43426513671875 1.107177734375
10098443750.0 0.384033203125 1.18414306640625
10129665625.0 1.013427734375 0.635498046875
10160887500.0 1.1246337890625 -0.06256103515625
10192109375.0 0.9166259765625 -0.67523193359375
10223331250.0 0.3521728515625 -1.16131591796875
10254553125.0 -0.49884033203125 -1.11444091796875
10285775000.0 -0.993682861328125 -0.5283203125
10316996875.0 -1.07171630859375 0.08575439453125
10348218750.0 -0.899810791015625 0.682037353515625
10379440625.0 -0.313720703125 1.1845703125
10410662500.0 0.5391845703125 1.08624267578125
10441884375.0 1.0008544921875 0.5167236328125
10473106250.0 1.115234375 -0.09368896484375
10504328125.0 0.9488525390625 -0.77105712890625
10535550000.0 0.228759765625 -1.30316162109375
10566771875.0 -0.67041015625 -1.07525634765625
10597993750.0 -1.08807373046875 -0.4522705078125
10629215625.0 -1.1812744140625 0.21673583984375
10660437500.0 -0.882781982421875 0.9674072265625
10691659375.0 0.0050048828125 1.34228515625
10722881250.0 0.796783447265625 0.948699951171875
10754103125.0 1.1258544921875 0.31634521484375
10785325000.0 1.142578125 -0.3797607421875
10816546875.0 0.69525146484375 -1.06170654296875
10847768750.0 -0.1573486328125 -1.23321533203125
10878990625.0 -0.813079833984375 -0.84075927734375
10910212500.0 -1.12957763671875 -0.23809814453125
10941434375.0 -1.09967041015625 0.4873046875
10972656250.0 -0.5628662109375 1.0977783203125
11003878125.0 0.2281494140625 1.17901611328125
11035100000.0 0.860076904296875 0.819580078125
11066321875.0 1.23016357421875 0.1641845703125
11097543750.0 1.0997314453125 -0.69195556640625
11128765625.0 0.3768310546875 -1.20953369140625
11159987500.0 -0.40911865234375 -1.14129638671875
11191209375.0 -1.01123046875 -0.6973876953125
11222431250.0 -1.278564453125 0.10693359375
11253653125.0 -0.85418701171875 0.905731201171875
11284875000.0 -0.10546875 1.1318359375
11316096875.0 0.5216064453125 0.956939697265625
11347318750.0 1.01336669921875 0.4971923828125
11378540625.0 1.12005615234375 -0.28094482421875
11409762500.0 0.629791259765625 -0.869598388671875
11440984375.0 0.0279541015625 -0.9840087890625
11472206250.0 -0.490234375 -0.850982666015625
11503428125.0 -0.963104248046875 -0.450042724609375
11534650000.0 -1.072265625 0.3017578125
11565871875.0 -0.5982666015625 0.864105224609375
11597093750.0 -0.01141357421875 0.995849609375
11628315625.0 0.555389404296875 0.875823974609375
11659537500.0 1.070556640625 0.3846435546875
11690759375.0 1.06671142578125 -0.449462890625
11721981250.0 0.510833740234375 -0.95062255859375
11753203125.0 -0.11529541015625 -1.04150390625
11784425000.0 -0.735321044921875 -0.807586669921875
11815646875.0 -1.10894775390625 -0.13946533203125
11846868750.0 -0.88970947265625 0.560943603515625
11878090625.0 -0.38494873046875 0.917236328125
11909312500.0 0.197235107421875 0.98834228515625
11940534375.0 0.791412353515625 0.692047119140625
11971756250.0 1.03070068359375 0.02984619140625
12002978125.0 0.805572509765625 -0.545989990234375
12034200000.0 0.376129150390625 -0.897247314453125
12065421875.0 -0.2265625 -1.0147705078125
12096643750.0 -0.85791015625 -0.66033935546875
12127865625.0 -1.03955078125 0.02801513671875
12159087500.0 -0.813812255859375 0.58587646484375
12190309375.0 -0.370574951171875 0.984771728515625
12221531250.0 0.3524169921875 1.0911865234375
12252753125.0 0.9915771484375 0.57305908203125
12283975000.0 1.0574951171875 -0.137939453125
12315196875.0 0.797943115234375 -0.685760498046875
12346418750.0 0.2725830078125 -1.09991455078125
12377640625.0 -0.5526123046875 -1.0599365234375
12408862500.0 -1.04168701171875 -0.4110107421875
12440084375.0 -1.01043701171875 0.234375
12471306250.0 -0.738800048828125 0.746673583984375
12502528125.0 -0.1707763671875 1.128173828125
12533750000.0 0.634765625 0.99176025390625
12564971875.0 1.04962158203125 0.35577392578125
12596193750.0 1.0322265625 -0.27508544921875
12627415625.0 0.745635986328125 -0.8416748046875
12658637500.0 0.0682373046875 -1.21533203125
12689859375.0 -0.74859619140625 -0.963409423828125
12721081250.0 -1.12677001953125 -0.29742431640625
12752303125.0 -1.0999755859375 0.39605712890625
12783525000.0 -0.6796875 1.04229736328125
12814746875.0 0.1800537109375 1.2562255859375
12845968750.0 0.875396728515625 0.80596923828125
12877190625.0 1.125732421875 0.16094970703125
12908412500.0 1.056884765625 -0.5157470703125
12939634375.0 0.5343017578125 -1.1287841796875
12970856250.0 -0.33648681640625 -1.1773681640625
13002078125.0 -0.90386962890625 -0.687591552734375
13033300000.0 -1.1129150390625 -0.07733154296875
13064521875.0 -1.00970458984375 0.6085205078125
13095743750.0 -0.40911865234375 1.16650390625
13126965625.0 0.42181396484375 1.12066650390625
13158187500.0 0.957366943359375 0.6265869140625
13189409375.0 1.15509033203125 -0.0322265625
13220631250.0 0.933746337890625 -0.76220703125
13251853125.0 0.22161865234375 -1.181884765625
13283075000.0 -0.5225830078125 -1.01910400390625
13314296875.0 -0.999420166015625 -0.521209716796875
13345518750.0 -1.140869140625 0.19183349609375
13376740625.0 -0.7467041015625 0.872039794921875
