!Created with skrf (http://scikit-rf.org).
# Hz S RI R 50.0 
!freq ReS11 ImS11
45000000.0 -0.07670211791992188 -0.09709930419921875
76221875.0 -0.19675445556640625 -0.0480804443359375
107443750.0 -0.2559661865234375 0.1193389892578125
138665625.0 -0.1494293212890625 0.3290252685546875
169887500.0 0.12249755859375 0.4186859130859375
201109375.0 0.421966552734375 0.2830047607421875
232331250.0 0.58038330078125 -0.055908203125
263553125.0 0.4917755126953125 -0.452728271484375
294775000.0 0.10089111328125 -0.73388671875
325996875.0 -0.414459228515625 -0.683807373046875
357218750.0 -0.807891845703125 -0.3004150390625
388440625.0 -0.889251708984375 0.298980712890625
419662500.0 -0.521240234375 0.866912841796875
450884375.0 0.1702880859375 1.0321044921875
482106250.0 0.798492431640625 0.71685791015625
513328125.0 1.1219482421875 0.09075927734375
544550000.0 1.00787353515625 -0.67828369140625
575771875.0 0.34075927734375 -1.239501953125
606993750.0 -0.5511474609375 -1.18170166015625
638215625.0 -1.16668701171875 -0.595458984375
669437500.0 -1.3433837890625 0.23052978515625
700659375.0 -0.97576904296875 1.0955810546875
731881250.0 -0.0086669921875 1.5465087890625
763103125.0 1.00439453125 1.16180419921875
794325000.0 1.47161865234375 0.28680419921875
825546875.0 1.3724365234375 -0.64935302734375
856768750.0 0.80010986328125 -1.40228271484375
887990625.0 -0.288818359375 -1.6533203125
919212500.0 -1.2886962890625 -1.08538818359375
950434375.0 -1.653076171875 -0.06341552734375
981656250.0 -1.3890380859375 0.94500732421875
1012878125.0 -0.53558349609375 1.67510986328125
1044100000.0 0.694580078125 1.66876220703125
1075321875.0 1.5772705078125 0.8187255859375
1106543750.0 1.7105712890625 -0.3094482421875
1137765625.0 1.193359375 -1.283935546875
1168987500.0 0.1436767578125 -1.8018798828125
1200209375.0 -1.0604248046875 -1.490966796875
1231431250.0 -1.73126220703125 -0.458984375
1262653125.0 -1.59991455078125 0.68194580078125
1293875000.0 -0.8582763671875 1.4925537109375
1325096875.0 0.223876953125 1.7119140625
1356318750.0 1.23504638671875 1.2237548828125
1387540625.0 1.743896484375 0.19378662109375
1418762500.0 1.47589111328125 -0.94989013671875
1449984375.0 0.53564453125 -1.62860107421875
1481206250.0 -0.54705810546875 -1.56146240234375
1512428125.0 -1.3431396484375 -0.92547607421875
1543650000.0 -1.659423828125 0.06134033203125
1574871875.0 -1.279052734375 1.10870361328125
1606093750.0 -0.278076171875 1.63446044921875
1637315625.0 0.740234375 1.4056396484375
1668537500.0 1.39794921875 0.70098876953125
1699759375.0 1.5772705078125 -0.27374267578125
1730981250.0 1.06982421875 -1.2298583984375
1762203125.0 0.0465087890625 -1.573974609375
1793425000.0 -0.85455322265625 -1.23150634765625
1824646875.0 -1.3955078125 -0.51953125
1855868750.0 -1.478759765625 0.43011474609375
1887090625.0 -0.88031005859375 1.2861328125
1918312500.0 0.11383056640625 1.4906005859375
1949534375.0 0.9212646484375 1.09381103515625
1980756250.0 1.3770751953125 0.3743896484375
2011978125.0 1.36383056640625 -0.529296875
2043200000.0 0.7550048828125 -1.262451171875
2074421875.0 -0.15399169921875 -1.43719482421875
2105643750.0 -0.9599609375 -1.07720947265625
2136865625.0 -1.45013427734375 -0.308837890625
2168087500.0 -1.361572265625 0.669189453125
2199309375.0 -0.6435546875 1.35302734375
2230531250.0 0.279541015625 1.439697265625
2261753125.0 1.07269287109375 1.018798828125
2292975000.0 1.517333984375 0.17364501953125
2324196875.0 1.31024169921875 -0.817626953125
2355418750.0 0.5294189453125 -1.42144775390625
2386640625.0 -0.402099609375 -1.45281982421875
2417862500.0 -1.1822509765625 -1.028564453125
2449084375.0 -1.6087646484375 -0.08709716796875
2480306250.0 -1.31658935546875 0.92529296875
2511528125.0 -0.4981689453125 1.5107421875
2542750000.0 0.486083984375 1.54071044921875
2573971875.0 1.37286376953125 0.9737548828125
2605193750.0 1.721435546875 -0.10870361328125
2636415625.0 1.2666015625 -1.152587890625
2667637500.0 0.31103515625 -1.67022705078125
2698859375.0 -0.7679443359375 -1.5394287109375
2730081250.0 -1.57635498046875 -0.74530029296875
2761303125.0 -1.68634033203125 0.38531494140625
2792525000.0 -1.1046142578125 1.3089599609375
2823746875.0 -0.10662841796875 1.7335205078125
2854968750.0 1.01153564453125 1.46099853515625
2886190625.0 1.69647216796875 0.4951171875
2917412500.0 1.6063232421875 -0.6177978515625
2948634375.0 0.9447021484375 -1.43450927734375
2979856250.0 -0.1046142578125 -1.7803955078125
3011078125.0 -1.24761962890625 -1.3480224609375
3042300000.0 -1.77911376953125 -0.23809814453125
3073521875.0 -1.5140380859375 0.83831787109375
3104743750.0 -0.76739501953125 1.57086181640625
3135965625.0 0.35986328125 1.81402587890625
3167187500.0 1.5010986328125 1.1702880859375
3198409375.0 1.82049560546875 -0.0718994140625
3229631250.0 1.35516357421875 -1.08258056640625
3260853125.0 0.49359130859375 -1.67193603515625
3292075000.0 -0.6531982421875 -1.7037353515625
3323296875.0 -1.62237548828125 -0.8853759765625
3354518750.0 -1.7359619140625 0.32708740234375
3385740625.0 -1.16058349609375 1.231689453125
3416962500.0 -0.23516845703125 1.68621826171875
3448184375.0 0.85870361328125 1.5263671875
3479406250.0 1.63885498046875 0.648681640625
3510628125.0 1.6488037109375 -0.49298095703125
3541850000.0 1.00482177734375 -1.35699462890625
3573071875.0 -0.0050048828125 -1.6871337890625
3604293750.0 -1.02813720703125 -1.34271240234375
3635515625.0 -1.62939453125 -0.44287109375
3666737500.0 -1.5660400390625 0.64471435546875
3697959375.0 -0.82965087890625 1.47796630859375
3729181250.0 0.2659912109375 1.635009765625
3760403125.0 1.15283203125 1.1026611328125
3791625000.0 1.5548095703125 0.22174072265625
3822846875.0 1.4066162109375 -0.759033203125
3854068750.0 0.62493896484375 -1.48370361328125
3885290625.0 -0.42071533203125 -1.48590087890625
3916512500.0 -1.14398193359375 -0.91497802734375
3947734375.0 -1.45062255859375 -0.12261962890625
3978956250.0 -1.30242919921875 0.780517578125
4010178125.0 -0.534912109375 1.4578857421875
4041400000.0 0.47265625 1.419189453125
4072621875.0 1.15374755859375 0.850830078125
4103843750.0 1.44744873046875 0.06585693359375
4135065625.0 1.27142333984375 -0.8465576171875
4166287500.0 0.460693359375 -1.4990234375
4197509375.0 -0.5567626953125 -1.4180908203125
4228731250.0 -1.24884033203125 -0.805908203125
4259953125.0 -1.512451171875 0.06884765625
4291175000.0 -1.19219970703125 1.010009765625
4322396875.0 -0.29193115234375 1.52972412109375
4353618750.0 0.6729736328125 1.35394287109375
4384840625.0 1.3238525390625 0.7005615234375
4416062500.0 1.50482177734375 -0.2261962890625
4447284375.0 1.0589599609375 -1.104736328125
4478506250.0 0.1741943359375 -1.498779296875
4509728125.0 -0.733154296875 -1.31158447265625
4540950000.0 -1.39642333984375 -0.639404296875
4572171875.0 -1.526611328125 0.35986328125
4603393750.0 -0.975341796875 1.21514892578125
4634615625.0 -0.06304931640625 1.53973388671875
4665837500.0 0.87060546875 1.30828857421875
4697059375.0 1.54510498046875 0.5179443359375
4728281250.0 1.5323486328125 -0.581787109375
4759503125.0 0.8258056640625 -1.3685302734375
4790725000.0 -0.14422607421875 -1.575927734375
4821946875.0 -1.0845947265625 -1.19818115234375
4853168750.0 -1.61737060546875 -0.25311279296875
4884390625.0 -1.38201904296875 0.7938232421875
4915612500.0 -0.6163330078125 1.4149169921875
4946834375.0 0.32763671875 1.5133056640625
4978056250.0 1.20703125 1.0213623046875
5009278125.0 1.5650634765625 0.0416259765625
5040500000.0 1.2327880859375 -0.87646484375
5071721875.0 0.5042724609375 -1.417236328125
5102943750.0 -0.4466552734375 -1.500732421875
5134165625.0 -1.33819580078125 -0.90887451171875
5165387500.0 -1.5723876953125 0.14703369140625
5196609375.0 -1.13922119140625 1.0106201171875
5227831250.0 -0.359375 1.509033203125
5259053125.0 0.6883544921875 1.49591064453125
5290275000.0 1.52520751953125 0.6651611328125
5321496875.0 1.49566650390625 -0.43115234375
5352718750.0 0.92401123046875 -1.154541015625
5383940625.0 0.0986328125 -1.50347900390625
5415162500.0 -0.90093994140625 -1.2872314453125
5446384375.0 -1.48785400390625 -0.37255859375
5477606250.0 -1.302490234375 0.56683349609375
5508828125.0 -0.73443603515625 1.153076171875
5540050000.0 0.05316162109375 1.40228271484375
5571271875.0 0.9400634765625 1.11285400390625
5602493750.0 1.41180419921875 0.2618408203125
5633715625.0 1.2352294921875 -0.61383056640625
5664937500.0 0.650634765625 -1.2042236328125
5696159375.0 -0.1976318359375 -1.3875732421875
5727381250.0 -1.02471923828125 -0.9808349609375
5758603125.0 -1.39495849609375 -0.145263671875
5789825000.0 -1.1973876953125 0.71807861328125
5821046875.0 -0.5076904296875 1.31097412109375
5852268750.0 0.41204833984375 1.315673828125
5883490625.0 1.07318115234375 0.7740478515625
5914712500.0 1.30609130859375 0.02020263671875
5945934375.0 1.099853515625 -0.77703857421875
5977156250.0 0.36273193359375 -1.3157958984375
6008378125.0 -0.5103759765625 -1.18524169921875
6039600000.0 -1.0230712890625 -0.65118408203125
6070821875.0 -1.22747802734375 -0.00494384765625
6102043750.0 -1.0865478515625 0.76458740234375
6133265625.0 -0.343017578125 1.348388671875
6164487500.0 0.56524658203125 1.19036865234375
6195709375.0 1.0733642578125 0.63165283203125
6226931250.0 1.28326416015625 -0.0419921875
6258153125.0 1.1072998046875 -0.8740234375
6289375000.0 0.2559814453125 -1.4501953125
6320596875.0 -0.69061279296875 -1.20806884765625
6351818750.0 -1.20245361328125 -0.5731201171875
6383040625.0 -1.35723876953125 0.2073974609375
6414262500.0 -1.0020751953125 1.0589599609375
6445484375.0 -0.07745361328125 1.46075439453125
6476706250.0 0.7972412109375 1.15032958984375
6507928125.0 1.2916259765625 0.47198486328125
6539150000.0 1.35009765625 -0.3865966796875
6570371875.0 0.84307861328125 -1.1463623046875
6601593750.0 -0.01629638671875 -1.407958984375
6632815625.0 -0.841552734375 -1.139404296875
6664037500.0 -1.40655517578125 -0.420166015625
6695259375.0 -1.37738037109375 0.56805419921875
6726481250.0 -0.711669921875 1.25408935546875
6757703125.0 0.13092041015625 1.41082763671875
6788925000.0 0.9573974609375 1.1339111328125
6820146875.0 1.56378173828125 0.28814697265625
6851368750.0 1.3280029296875 -0.821044921875
6882590625.0 0.50738525390625 -1.34228515625
6913812500.0 -0.29241943359375 -1.359375
6945034375.0 -1.07281494140625 -1.0240478515625
6976256250.0 -1.5975341796875 -0.09228515625
7007478125.0 -1.23956298828125 0.93365478515625
7038700000.0 -0.40264892578125 1.34649658203125
7069921875.0 0.3587646484375 1.32696533203125
7101143750.0 1.12310791015625 0.97119140625
7132365625.0 1.603515625 0.0140380859375
7163587500.0 1.16143798828125 -1.0216064453125
7194809375.0 0.30352783203125 -1.40093994140625
7226031250.0 -0.51373291015625 -1.33062744140625
7257253125.0 -1.26873779296875 -0.82708740234375
7288475000.0 -1.564208984375 0.2017822265625
7319696875.0 -1.031982421875 1.112548828125
7350918750.0 -0.16455078125 1.44781494140625
7382140625.0 0.71661376953125 1.27996826171875
7413362500.0 1.38201904296875 0.57672119140625
7444584375.0 1.41619873046875 -0.40875244140625
7475806250.0 0.86065673828125 -1.14556884765625
7507028125.0 0.00537109375 -1.43359375
7538250000.0 -0.88946533203125 -1.12713623046875
7569471875.0 -1.3392333984375 -0.311279296875
7600693750.0 -1.20458984375 0.4976806640625
7631915625.0 -0.7203369140625 1.08819580078125
7663137500.0 0.0806884765625 1.362548828125
7694359375.0 0.942626953125 0.983489990234375
7725581250.0 1.24432373046875 0.182373046875
7756803125.0 1.08587646484375 -0.4996337890625
7788025000.0 0.672119140625 -1.04718017578125
7819246875.0 -0.1190185546875 -1.34942626953125
7850468750.0 -0.997161865234375 -0.91864013671875
7881690625.0 -1.23504638671875 -0.10455322265625
7912912500.0 -1.057373046875 0.5567626953125
7944134375.0 -0.60638427734375 1.1171875
7975356250.0 0.2740478515625 1.33770751953125
8006578125.0 1.05059814453125 0.78021240234375
8037800000.0 1.19622802734375 0.015380859375
8069021875.0 1.0096435546875 -0.6182861328125
8100243750.0 0.50054931640625 -1.16546630859375
8131465625.0 -0.38897705078125 -1.25738525390625
8162687500.0 -1.03424072265625 -0.6883544921875
8193909375.0 -1.18389892578125 0.0091552734375
8225131250.0 -1.02178955078125 0.67864990234375
8256353125.0 -0.42047119140625 1.2554931640625
8287575000.0 0.5042724609375 1.22967529296875
8318796875.0 1.0841064453125 0.6376953125
8350018750.0 1.24853515625 -0.07586669921875
8381240625.0 1.0341796875 -0.8455810546875
8412462500.0 0.25262451171875 -1.378173828125
8443684375.0 -0.67230224609375 -1.17169189453125
8474906250.0 -1.1793212890625 -0.53179931640625
8506128125.0 -1.30206298828125 0.23944091796875
8537350000.0 -0.92510986328125 1.050537109375
8568571875.0 -0.014892578125 1.39697265625
8599793750.0 0.8046875 1.055419921875
8631015625.0 1.2437744140625 0.3994140625
8662237500.0 1.28863525390625 -0.429931640625
8693459375.0 0.73760986328125 -1.18212890625
8724681250.0 -0.1627197265625 -1.33575439453125
8755903125.0 -0.88201904296875 -0.960418701171875
8787125000.0 -1.30828857421875 -0.2838134765625
8818346875.0 -1.25506591796875 0.619384765625
8849568750.0 -0.55780029296875 1.26422119140625
8880790625.0 0.3001708984375 1.28851318359375
8912012500.0 0.985595703125 0.8951416015625
8943234375.0 1.40576171875 0.1256103515625
8974456250.0 1.169189453125 -0.84490966796875
9005678125.0 0.34832763671875 -1.31427001953125
9036900000.0 -0.4478759765625 -1.2271728515625
9068121875.0 -1.10491943359375 -0.785888671875
9099343750.0 -1.44427490234375 0.10137939453125
9130565625.0 -0.980224609375 1.014892578125
9161787500.0 -0.15447998046875 1.28546142578125
9193009375.0 0.55718994140625 1.13751220703125
9224231250.0 1.18609619140625 0.656982421875
9255453125.0 1.40386962890625 -0.29833984375
9286675000.0 0.80853271484375 -1.08880615234375
9317896875.0 0.0257568359375 -1.25164794921875
9349118750.0 -0.65643310546875 -1.0736083984375
9380340625.0 -1.2633056640625 -0.51031494140625
9411562500.0 -1.31536865234375 0.48150634765625
9442784375.0 -0.6480712890625 1.12103271484375
9474006250.0 0.09088134765625 1.216064453125
9505228125.0 0.76922607421875 0.98291015625
9536450000.0 1.27947998046875 0.3118896484375
9567671875.0 1.1461181640625 -0.58538818359375
9598893750.0 0.52972412109375 -1.07220458984375
9630115625.0 -0.1451416015625 -1.1607666015625
9661337500.0 -0.821502685546875 -0.903900146484375
9692559375.0 -1.2425537109375 -0.18865966796875
9723781250.0 -1.0445556640625 0.60546875
9755003125.0 -0.48651123046875 1.05377197265625
9786225000.0 0.201416015625 1.164306640625
9817446875.0 0.9017333984375 0.828857421875
9848668750.0 1.20111083984375 0.077392578125
9879890625.0 0.9705810546875 -0.61968994140625
9911112500.0 0.45306396484375 -1.056396484375
9942334375.0 -0.26971435546875 -1.1629638671875
9973556250.0 -0.9503173828125 -0.738494873046875
10004778125.0 -1.15057373046875 -0.01385498046875
10036000000.0 -0.94610595703125 0.620758056640625
10067221875.0 -0.4417724609375 1.10009765625
10098443750.0 0.37451171875 1.18511962890625
10129665625.0 1.005859375 0.64215087890625
10160887500.0 1.12200927734375 -0.05438232421875
10192109375.0 0.91864013671875 -0.66619873046875
10223331250.0 0.360107421875 -1.15673828125
10254553125.0 -0.48883056640625 -1.115478515625
10285775000.0 -0.98773193359375 -0.53472900390625
10316996875.0 -1.06781005859375 0.07763671875
10348218750.0 -0.90252685546875 0.67364501953125
10379440625.0 -0.32244873046875 1.17938232421875
10410662500.0 0.52984619140625 1.08740234375
10441884375.0 0.995574951171875 0.5216064453125
10473106250.0 1.11273193359375 -0.086181640625
10504328125.0 0.952056884765625 -0.761993408203125
10535550000.0 0.23760986328125 -1.29840087890625
10566771875.0 -0.6602783203125 -1.07806396484375
10597993750.0 -1.08447265625 -0.458251953125
10629215625.0 -1.177978515625 0.20892333984375
10660437500.0 -0.8896484375 0.955841064453125
10691659375.0 -0.00567626953125 1.33953857421875
10722881250.0 0.788360595703125 0.9534912109375
10754103125.0 1.1214599609375 0.32464599609375
10785325000.0 1.14117431640625 -0.36810302734375
10816546875.0 0.7012939453125 -1.0535888671875
10847768750.0 -0.14764404296875 -1.2318115234375
10878990625.0 -0.8070068359375 -0.845306396484375
10910212500.0 -1.12603759765625 -0.24481201171875
10941434375.0 -1.09979248046875 0.4796142578125
10972656250.0 -0.56793212890625 1.090576171875
11003878125.0 0.218994140625 1.17620849609375
11035100000.0 0.85247802734375 0.82305908203125
11066321875.0 1.225341796875 0.173828125
11097543750.0 1.10040283203125 -0.67938232421875
11128765625.0 0.3843994140625 -1.2041015625
11159987500.0 -0.40045166015625 -1.14239501953125
11191209375.0 -1.00579833984375 -0.70306396484375
11222431250.0 -1.27569580078125 0.09613037109375
11253653125.0 -0.859039306640625 0.89935302734375
11284875000.0 -0.11309814453125 1.1297607421875
11316096875.0 0.5123291015625 0.95794677734375
11347318750.0 1.00726318359375 0.50152587890625
11378540625.0 1.11822509765625 -0.27130126953125
11409762500.0 0.634857177734375 -0.86376953125
11440984375.0 0.03497314453125 -0.981353759765625
11472206250.0 -0.48455810546875 -0.852630615234375
11503428125.0 -0.958221435546875 -0.4559326171875
11534650000.0 -1.07135009765625 0.29266357421875
11565871875.0 -0.601959228515625 0.857086181640625
11597093750.0 -0.017547607421875 0.9940185546875
11628315625.0 0.547149658203125 0.87860107421875
11659537500.0 1.065185546875 0.3917236328125
11690759375.0 1.067138671875 -0.4388427734375
11721981250.0 0.5159912109375 -0.944580078125
11753203125.0 -0.10577392578125 -1.04034423828125
11784425000.0 -0.728485107421875 -0.810272216796875
11815646875.0 -1.103759765625 -0.14874267578125
11846868750.0 -0.891632080078125 0.5548095703125
11878090625.0 -0.390289306640625 0.912872314453125
11909312500.0 0.189971923828125 0.98858642578125
11940534375.0 0.78515625 0.696502685546875
11971756250.0 1.02752685546875 0.0374755859375
12002978125.0 0.807403564453125 -0.5404052734375
12034200000.0 0.380828857421875 -0.89373779296875
12065421875.0 -0.219482421875 -1.013427734375
12096643750.0 -0.850921630859375 -0.6646728515625
12127865625.0 -1.03564453125 0.01971435546875
12159087500.0 -0.815643310546875 0.579345703125
12190309375.0 -0.375885009765625 0.980865478515625
12221531250.0 0.3428955078125 1.0908203125
12252753125.0 0.986724853515625 0.579833984375
12283975000.0 1.05694580078125 -0.13006591796875
12315196875.0 0.8016357421875 -0.68060302734375
12346418750.0 0.280029296875 -1.09619140625
12377640625.0 -0.54278564453125 -1.062744140625
12408862500.0 -1.03619384765625 -0.41790771484375
12440084375.0 -1.01025390625 0.22747802734375
12471306250.0 -0.742889404296875 0.74066162109375
12502528125.0 -0.17755126953125 1.1263427734375
12533750000.0 0.624755859375 0.99456787109375
12564971875.0 1.04388427734375 0.362548828125
12596193750.0 1.03192138671875 -0.2677001953125
12627415625.0 0.750152587890625 -0.834320068359375
12658637500.0 0.077392578125 -1.21112060546875
12689859375.0 -0.741943359375 -0.967437744140625
12721081250.0 -1.12005615234375 -0.30474853515625
12752303125.0 -1.09991455078125 0.38427734375
12783525000.0 -0.686279296875 1.03302001953125
12814746875.0 0.1688232421875 1.254638671875
12845968750.0 0.865570068359375 0.811798095703125
12877190625.0 1.12176513671875 0.16961669921875
12908412500.0 1.0584716796875 -0.50579833984375
12939634375.0 0.54010009765625 -1.12469482421875
12970856250.0 -0.325439453125 -1.177978515625
13002078125.0 -0.899383544921875 -0.69354248046875
13033300000.0 -1.11016845703125 -0.0859375
13064521875.0 -1.01019287109375 0.59808349609375
13095743750.0 -0.41741943359375 1.1610107421875
13126965625.0 0.413818359375 1.1221923828125
13158187500.0 0.949249267578125 0.632415771484375
13189409375.0 1.15228271484375 -0.02374267578125
13220631250.0 0.93731689453125 -0.75396728515625
13251853125.0 0.23046875 -1.17791748046875
13283075000.0 -0.510986328125 -1.0211181640625
13314296875.0 -0.99163818359375 -0.52801513671875
13345518750.0 -1.13958740234375 0.18255615234375
