!Created with skrf (http://scikit-rf.org).
# Hz S RI R 50.0 
!freq ReS11 ImS11
45000000.0 -0.07674026489257812 -0.09711074829101562
76221875.0 -0.19678497314453125 -0.04810333251953125
107443750.0 -0.255828857421875 0.1193389892578125
138665625.0 -0.1494140625 0.3289947509765625
169887500.0 0.1225128173828125 0.4186553955078125
201109375.0 0.422088623046875 0.2830657958984375
232331250.0 0.58056640625 -0.05584716796875
263553125.0 0.4920654296875 -0.4525604248046875
294775000.0 0.1007080078125 -0.733917236328125
325996875.0 -0.41461181640625 -0.683868408203125
357218750.0 -0.8079833984375 -0.300079345703125
388440625.0 -0.8892822265625 0.2991943359375
419662500.0 -0.521209716796875 0.86749267578125
450884375.0 0.17034912109375 1.03216552734375
482106250.0 0.798431396484375 0.71710205078125
513328125.0 1.12213134765625 0.09063720703125
544550000.0 1.00787353515625 -0.67840576171875
575771875.0 0.3406982421875 -1.23968505859375
606993750.0 -0.55133056640625 -1.18182373046875
638215625.0 -1.16693115234375 -0.59521484375
669437500.0 -1.34356689453125 0.23052978515625
700659375.0 -0.97607421875 1.09576416015625
731881250.0 -0.00872802734375 1.54632568359375
763103125.0 1.004150390625 1.16192626953125
794325000.0 1.471435546875 0.2869873046875
825546875.0 1.37261962890625 -0.64898681640625
856768750.0 0.80029296875 -1.40234375
887990625.0 -0.28887939453125 -1.653564453125
919212500.0 -1.2890625 -1.08544921875
950434375.0 -1.6531982421875 -0.063232421875
981656250.0 -1.38897705078125 0.94610595703125
1012878125.0 -0.535400390625 1.6759033203125
1044100000.0 0.69476318359375 1.66900634765625
1075321875.0 1.57745361328125 0.81878662109375
1106543750.0 1.710693359375 -0.3089599609375
1137765625.0 1.193359375 -1.2845458984375
1168987500.0 0.1439208984375 -1.802001953125
1200209375.0 -1.0615234375 -1.49090576171875
1231431250.0 -1.73150634765625 -0.45928955078125
1262653125.0 -1.60040283203125 0.6827392578125
1293875000.0 -0.8582763671875 1.49273681640625
1325096875.0 0.22314453125 1.7119140625
1356318750.0 1.23492431640625 1.22369384765625
1387540625.0 1.74444580078125 0.194580078125
1418762500.0 1.4755859375 -0.94970703125
1449984375.0 0.53509521484375 -1.6287841796875
1481206250.0 -0.5469970703125 -1.56170654296875
1512428125.0 -1.34295654296875 -0.9251708984375
1543650000.0 -1.66015625 0.0616455078125
1574871875.0 -1.279052734375 1.10882568359375
1606093750.0 -0.2777099609375 1.634521484375
1637315625.0 0.74017333984375 1.40557861328125
1668537500.0 1.39764404296875 0.70098876953125
1699759375.0 1.57763671875 -0.27374267578125
1730981250.0 1.06988525390625 -1.22955322265625
1762203125.0 0.04644775390625 -1.57427978515625
1793425000.0 -0.85455322265625 -1.23150634765625
1824646875.0 -1.39532470703125 -0.51959228515625
1855868750.0 -1.478515625 0.42938232421875
1887090625.0 -0.8804931640625 1.286376953125
1918312500.0 0.11383056640625 1.49090576171875
1949534375.0 0.9212646484375 1.093994140625
1980756250.0 1.3775634765625 0.37457275390625
2011978125.0 1.3642578125 -0.529296875
2043200000.0 0.75506591796875 -1.26251220703125
2074421875.0 -0.15386962890625 -1.437255859375
2105643750.0 -0.95989990234375 -1.0770263671875
2136865625.0 -1.45013427734375 -0.30865478515625
2168087500.0 -1.3619384765625 0.66986083984375
2199309375.0 -0.6434326171875 1.35333251953125
2230531250.0 0.27911376953125 1.440185546875
2261753125.0 1.07318115234375 1.0186767578125
2292975000.0 1.51739501953125 0.173828125
2324196875.0 1.31036376953125 -0.81805419921875
2355418750.0 0.52935791015625 -1.422119140625
2386640625.0 -0.4019775390625 -1.45263671875
2417862500.0 -1.18084716796875 -1.02947998046875
2449084375.0 -1.6090087890625 -0.0869140625
2480306250.0 -1.31640625 0.92425537109375
2511528125.0 -0.4984130859375 1.51043701171875
2542750000.0 0.4871826171875 1.54205322265625
2573971875.0 1.37164306640625 0.97381591796875
2605193750.0 1.7215576171875 -0.10888671875
2636415625.0 1.26708984375 -1.1533203125
2667637500.0 0.3104248046875 -1.6708984375
2698859375.0 -0.76934814453125 -1.54010009765625
2730081250.0 -1.5758056640625 -0.7457275390625
2761303125.0 -1.68682861328125 0.3863525390625
2792525000.0 -1.10498046875 1.30938720703125
2823746875.0 -0.10595703125 1.73382568359375
2854968750.0 1.01300048828125 1.46173095703125
2886190625.0 1.69677734375 0.4959716796875
2917412500.0 1.6055908203125 -0.6165771484375
2948634375.0 0.94464111328125 -1.43658447265625
2979856250.0 -0.1048583984375 -1.7811279296875
3011078125.0 -1.24761962890625 -1.3477783203125
3042300000.0 -1.77862548828125 -0.23858642578125
3073521875.0 -1.51409912109375 0.83721923828125
3104743750.0 -0.76800537109375 1.5709228515625
3135965625.0 0.359375 1.8145751953125
3167187500.0 1.5003662109375 1.1708984375
3198409375.0 1.8209228515625 -0.07171630859375
3229631250.0 1.35443115234375 -1.083251953125
3260853125.0 0.4947509765625 -1.6708984375
3292075000.0 -0.65478515625 -1.70428466796875
3323296875.0 -1.62139892578125 -0.88482666015625
3354518750.0 -1.73486328125 0.326416015625
3385740625.0 -1.1611328125 1.2335205078125
3416962500.0 -0.2349853515625 1.68634033203125
3448184375.0 0.86029052734375 1.52703857421875
3479406250.0 1.63922119140625 0.64898681640625
3510628125.0 1.64971923828125 -0.4942626953125
3541850000.0 1.00482177734375 -1.35601806640625
3573071875.0 -0.00506591796875 -1.68621826171875
3604293750.0 -1.0294189453125 -1.3424072265625
3635515625.0 -1.63177490234375 -0.44140625
3666737500.0 -1.5670166015625 0.6458740234375
3697959375.0 -0.82891845703125 1.4786376953125
3729181250.0 0.266357421875 1.63519287109375
3760403125.0 1.15264892578125 1.10260009765625
3791625000.0 1.5560302734375 0.22174072265625
3822846875.0 1.40771484375 -0.76141357421875
3854068750.0 0.6248779296875 -1.48358154296875
3885290625.0 -0.4200439453125 -1.4853515625
3916512500.0 -1.1434326171875 -0.9151611328125
3947734375.0 -1.45172119140625 -0.12213134765625
3978956250.0 -1.30206298828125 0.77801513671875
4010178125.0 -0.53509521484375 1.4571533203125
4041400000.0 0.4732666015625 1.4197998046875
4072621875.0 1.15411376953125 0.8505859375
4103843750.0 1.4473876953125 0.0657958984375
4135065625.0 1.271728515625 -0.84576416015625
4166287500.0 0.4600830078125 -1.499267578125
4197509375.0 -0.5562744140625 -1.4180908203125
4228731250.0 -1.24969482421875 -0.80548095703125
4259953125.0 -1.51251220703125 0.06878662109375
4291175000.0 -1.192626953125 1.0106201171875
4322396875.0 -0.29248046875 1.52886962890625
4353618750.0 0.67291259765625 1.35430908203125
4384840625.0 1.32470703125 0.70001220703125
4416062500.0 1.5048828125 -0.2255859375
4447284375.0 1.058837890625 -1.10546875
4478506250.0 0.17449951171875 -1.49908447265625
4509728125.0 -0.73272705078125 -1.311279296875
4540950000.0 -1.39605712890625 -0.6390380859375
4572171875.0 -1.5264892578125 0.3592529296875
4603393750.0 -0.97607421875 1.2144775390625
4634615625.0 -0.0633544921875 1.54034423828125
4665837500.0 0.87078857421875 1.3084716796875
4697059375.0 1.5457763671875 0.517333984375
4728281250.0 1.53277587890625 -0.58209228515625
4759503125.0 0.82647705078125 -1.3699951171875
4790725000.0 -0.14459228515625 -1.576171875
4821946875.0 -1.08551025390625 -1.1981201171875
4853168750.0 -1.6165771484375 -0.25323486328125
4884390625.0 -1.3822021484375 0.79412841796875
4915612500.0 -0.61663818359375 1.414306640625
4946834375.0 0.3271484375 1.5123291015625
4978056250.0 1.206787109375 1.02130126953125
5009278125.0 1.566162109375 0.04119873046875
5040500000.0 1.23358154296875 -0.87744140625
5071721875.0 0.50439453125 -1.4185791015625
5102943750.0 -0.44549560546875 -1.500732421875
5134165625.0 -1.33941650390625 -0.9088134765625
5165387500.0 -1.57171630859375 0.14544677734375
5196609375.0 -1.13983154296875 1.0111083984375
5227831250.0 -0.35919189453125 1.5101318359375
5259053125.0 0.68829345703125 1.49609375
5290275000.0 1.52508544921875 0.6649169921875
5321496875.0 1.49560546875 -0.43096923828125
5352718750.0 0.92413330078125 -1.15509033203125
5383940625.0 0.097900390625 -1.50445556640625
5415162500.0 -0.90203857421875 -1.2872314453125
5446384375.0 -1.48773193359375 -0.37261962890625
5477606250.0 -1.3026123046875 0.565673828125
5508828125.0 -0.73406982421875 1.15380859375
5540050000.0 0.05303955078125 1.40216064453125
5571271875.0 0.9404296875 1.11273193359375
5602493750.0 1.4119873046875 0.2615966796875
5633715625.0 1.23614501953125 -0.61407470703125
5664937500.0 0.6510009765625 -1.20306396484375
5696159375.0 -0.1973876953125 -1.38751220703125
5727381250.0 -1.0234375 -0.98114013671875
5758603125.0 -1.3941650390625 -0.1463623046875
5789825000.0 -1.19732666015625 0.71844482421875
5821046875.0 -0.508056640625 1.3099365234375
5852268750.0 0.4117431640625 1.31640625
5883490625.0 1.07318115234375 0.7744140625
5914712500.0 1.30633544921875 0.0201416015625
5945934375.0 1.0992431640625 -0.77716064453125
5977156250.0 0.36279296875 -1.31512451171875
6008378125.0 -0.5096435546875 -1.1845703125
6039600000.0 -1.02294921875 -0.65142822265625
6070821875.0 -1.2266845703125 -0.0057373046875
6102043750.0 -1.0869140625 0.76470947265625
6133265625.0 -0.34271240234375 1.34881591796875
6164487500.0 0.56402587890625 1.19000244140625
6195709375.0 1.072998046875 0.63214111328125
6226931250.0 1.28350830078125 -0.042724609375
6258153125.0 1.10784912109375 -0.87384033203125
6289375000.0 0.2552490234375 -1.45068359375
6320596875.0 -0.69049072265625 -1.208251953125
6351818750.0 -1.20330810546875 -0.5726318359375
6383040625.0 -1.3575439453125 0.2064208984375
6414262500.0 -1.001708984375 1.05987548828125
6445484375.0 -0.0780029296875 1.46026611328125
6476706250.0 0.7969970703125 1.1505126953125
6507928125.0 1.29278564453125 0.47113037109375
6539150000.0 1.35125732421875 -0.3870849609375
6570371875.0 0.8436279296875 -1.14630126953125
6601593750.0 -0.01678466796875 -1.4075927734375
6632815625.0 -0.8409423828125 -1.1392822265625
6664037500.0 -1.4052734375 -0.42022705078125
6695259375.0 -1.37713623046875 0.56817626953125
6726481250.0 -0.71185302734375 1.25390625
6757703125.0 0.13140869140625 1.41082763671875
6788925000.0 0.9580078125 1.13427734375
6820146875.0 1.5645751953125 0.28802490234375
6851368750.0 1.32781982421875 -0.82110595703125
6882590625.0 0.50750732421875 -1.34149169921875
6913812500.0 -0.2919921875 -1.35870361328125
6945034375.0 -1.07269287109375 -1.024169921875
6976256250.0 -1.59674072265625 -0.093017578125
7007478125.0 -1.239990234375 0.9342041015625
7038700000.0 -0.40435791015625 1.345947265625
7069921875.0 0.36090087890625 1.32843017578125
7101143750.0 1.121826171875 0.9716796875
7132365625.0 1.60357666015625 0.01483154296875
7163587500.0 1.1614990234375 -1.02508544921875
7194809375.0 0.3033447265625 -1.4013671875
7226031250.0 -0.5137939453125 -1.33038330078125
7257253125.0 -1.271240234375 -0.826416015625
7288475000.0 -1.5625 0.20025634765625
7319696875.0 -1.033203125 1.11138916015625
7350918750.0 -0.1646728515625 1.44781494140625
7382140625.0 0.71734619140625 1.2808837890625
7413362500.0 1.37945556640625 0.5771484375
7444584375.0 1.4151611328125 -0.4078369140625
7475806250.0 0.86016845703125 -1.145263671875
7507028125.0 0.0054931640625 -1.432373046875
7538250000.0 -0.888427734375 -1.12689208984375
7569471875.0 -1.34051513671875 -0.31036376953125
7600693750.0 -1.205078125 0.49835205078125
7631915625.0 -0.72015380859375 1.0899658203125
7663137500.0 0.08062744140625 1.3636474609375
7694359375.0 0.9442138671875 0.984405517578125
7725581250.0 1.24798583984375 0.1800537109375
7756803125.0 1.08624267578125 -0.49993896484375
7788025000.0 0.67242431640625 -1.04638671875
7819246875.0 -0.1221923828125 -1.3529052734375
7850468750.0 -0.997283935546875 -0.918548583984375
7881690625.0 -1.235595703125 -0.10430908203125
7912912500.0 -1.05755615234375 0.55609130859375
7944134375.0 -0.6064453125 1.1182861328125
7975356250.0 0.27569580078125 1.33941650390625
8006578125.0 1.0496826171875 0.7796630859375
8037800000.0 1.1951904296875 0.01690673828125
8069021875.0 1.00982666015625 -0.61883544921875
8100243750.0 0.50091552734375 -1.165283203125
8131465625.0 -0.388916015625 -1.25604248046875
8162687500.0 -1.03594970703125 -0.68695068359375
8193909375.0 -1.183837890625 0.0078125
8225131250.0 -1.02056884765625 0.68109130859375
8256353125.0 -0.42120361328125 1.25390625
8287575000.0 0.50347900390625 1.2293701171875
8318796875.0 1.08294677734375 0.636962890625
8350018750.0 1.24884033203125 -0.07550048828125
8381240625.0 1.03460693359375 -0.84429931640625
8412462500.0 0.25396728515625 -1.3773193359375
8443684375.0 -0.67333984375 -1.17327880859375
8474906250.0 -1.177001953125 -0.5323486328125
8506128125.0 -1.301513671875 0.2379150390625
8537350000.0 -0.92608642578125 1.0498046875
8568571875.0 -0.01458740234375 1.39837646484375
8599793750.0 0.8043212890625 1.0560302734375
8631015625.0 1.24493408203125 0.40008544921875
8662237500.0 1.2886962890625 -0.4302978515625
8693459375.0 0.7371826171875 -1.1817626953125
8724681250.0 -0.16290283203125 -1.33441162109375
8755903125.0 -0.883331298828125 -0.96002197265625
8787125000.0 -1.30908203125 -0.2828369140625
8818346875.0 -1.2548828125 0.61846923828125
8849568750.0 -0.55712890625 1.26519775390625
8880790625.0 0.299560546875 1.28875732421875
8912012500.0 0.985076904296875 0.89508056640625
8943234375.0 1.40509033203125 0.12811279296875
8974456250.0 1.1689453125 -0.84417724609375
9005678125.0 0.34649658203125 -1.3173828125
9036900000.0 -0.447021484375 -1.22723388671875
9068121875.0 -1.10491943359375 -0.78717041015625
9099343750.0 -1.4449462890625 0.1005859375
9130565625.0 -0.98065185546875 1.0142822265625
9161787500.0 -0.1527099609375 1.287109375
9193009375.0 0.5577392578125 1.135986328125
9224231250.0 1.1829833984375 0.65667724609375
9255453125.0 1.40374755859375 -0.2969970703125
9286675000.0 0.80859375 -1.0894775390625
9317896875.0 0.02740478515625 -1.2503662109375
9349118750.0 -0.6578369140625 -1.07244873046875
9380340625.0 -1.26336669921875 -0.5106201171875
9411562500.0 -1.314453125 0.4801025390625
9442784375.0 -0.64898681640625 1.12017822265625
9474006250.0 0.09051513671875 1.2152099609375
9505228125.0 0.767608642578125 0.982879638671875
9536450000.0 1.27984619140625 0.31201171875
9567671875.0 1.146728515625 -0.583740234375
9598893750.0 0.52972412109375 -1.072998046875
9630115625.0 -0.14385986328125 -1.16064453125
9661337500.0 -0.820098876953125 -0.9027099609375
9692559375.0 -1.24310302734375 -0.1885986328125
9723781250.0 -1.04473876953125 0.606201171875
9755003125.0 -0.486572265625 1.0535888671875
9786225000.0 0.199462890625 1.16253662109375
9817446875.0 0.900146484375 0.8299560546875
9848668750.0 1.20343017578125 0.07574462890625
9879890625.0 0.970855712890625 -0.618560791015625
9911112500.0 0.453369140625 -1.05584716796875
9942334375.0 -0.27105712890625 -1.16375732421875
9973556250.0 -0.950103759765625 -0.73883056640625
10004778125.0 -1.14910888671875 -0.01513671875
10036000000.0 -0.945526123046875 0.61956787109375
10067221875.0 -0.442626953125 1.10009765625
10098443750.0 0.37396240234375 1.18408203125
10129665625.0 1.00689697265625 0.64190673828125
10160887500.0 1.122314453125 -0.05389404296875
10192109375.0 0.918304443359375 -0.6661376953125
10223331250.0 0.36053466796875 -1.15545654296875
10254553125.0 -0.4898681640625 -1.1151123046875
10285775000.0 -0.989044189453125 -0.53521728515625
10316996875.0 -1.06951904296875 0.078125
10348218750.0 -0.901275634765625 0.67181396484375
10379440625.0 -0.320556640625 1.17919921875
10410662500.0 0.5322265625 1.08868408203125
10441884375.0 0.995452880859375 0.521697998046875
10473106250.0 1.11236572265625 -0.085205078125
10504328125.0 0.951812744140625 -0.76104736328125
10535550000.0 0.23822021484375 -1.2987060546875
10566771875.0 -0.66180419921875 -1.0791015625
10597993750.0 -1.0830078125 -0.458251953125
10629215625.0 -1.178955078125 0.20953369140625
10660437500.0 -0.888458251953125 0.95703125
10691659375.0 -0.00732421875 1.3369140625
10722881250.0 0.788482666015625 0.9525146484375
10754103125.0 1.1221923828125 0.32379150390625
10785325000.0 1.14178466796875 -0.36859130859375
10816546875.0 0.701171875 -1.052001953125
10847768750.0 -0.1480712890625 -1.2320556640625
10878990625.0 -0.8070068359375 -0.84429931640625
10910212500.0 -1.12664794921875 -0.24407958984375
10941434375.0 -1.10113525390625 0.479736328125
10972656250.0 -0.5682373046875 1.08856201171875
11003878125.0 0.21978759765625 1.177978515625
11035100000.0 0.85174560546875 0.82379150390625
11066321875.0 1.22503662109375 0.17327880859375
11097543750.0 1.10089111328125 -0.68096923828125
11128765625.0 0.3846435546875 -1.20245361328125
11159987500.0 -0.39801025390625 -1.1412353515625
11191209375.0 -1.0032958984375 -0.70367431640625
11222431250.0 -1.27691650390625 0.097412109375
11253653125.0 -0.85882568359375 0.899993896484375
11284875000.0 -0.11370849609375 1.12890625
11316096875.0 0.51568603515625 0.959747314453125
11347318750.0 1.00677490234375 0.50164794921875
11378540625.0 1.120361328125 -0.2734375
11409762500.0 0.6343994140625 -0.863250732421875
11440984375.0 0.035003662109375 -0.981292724609375
11472206250.0 -0.482940673828125 -0.85223388671875
11503428125.0 -0.958160400390625 -0.45574951171875
11534650000.0 -1.072265625 0.29339599609375
11565871875.0 -0.601593017578125 0.8587646484375
11597093750.0 -0.01654052734375 0.99505615234375
11628315625.0 0.54608154296875 0.87689208984375
11659537500.0 1.06610107421875 0.39117431640625
11690759375.0 1.067626953125 -0.43878173828125
11721981250.0 0.516510009765625 -0.94403076171875
11753203125.0 -0.10784912109375 -1.03948974609375
11784425000.0 -0.728057861328125 -0.80999755859375
11815646875.0 -1.1065673828125 -0.14715576171875
11846868750.0 -0.892333984375 0.554412841796875
11878090625.0 -0.39056396484375 0.912628173828125
11909312500.0 0.189666748046875 0.988037109375
11940534375.0 0.785064697265625 0.695343017578125
11971756250.0 1.02752685546875 0.03717041015625
12002978125.0 0.80767822265625 -0.540130615234375
12034200000.0 0.381805419921875 -0.891845703125
12065421875.0 -0.21844482421875 -1.01312255859375
12096643750.0 -0.853057861328125 -0.664215087890625
12127865625.0 -1.036376953125 0.020263671875
12159087500.0 -0.8160400390625 0.579132080078125
12190309375.0 -0.3765869140625 0.980133056640625
12221531250.0 0.343505859375 1.09100341796875
12252753125.0 0.986785888671875 0.579986572265625
12283975000.0 1.05621337890625 -0.130126953125
12315196875.0 0.80206298828125 -0.6793212890625
12346418750.0 0.27899169921875 -1.09600830078125
12377640625.0 -0.54345703125 -1.0621337890625
12408862500.0 -1.03778076171875 -0.41778564453125
12440084375.0 -1.0096435546875 0.22760009765625
12471306250.0 -0.7423095703125 0.7420654296875
12502528125.0 -0.17803955078125 1.12396240234375
12533750000.0 0.625823974609375 0.994537353515625
12564971875.0 1.0458984375 0.36334228515625
12596193750.0 1.0322265625 -0.2669677734375
12627415625.0 0.750091552734375 -0.834228515625
12658637500.0 0.07586669921875 -1.21221923828125
12689859375.0 -0.7406005859375 -0.96697998046875
12721081250.0 -1.12030029296875 -0.3038330078125
12752303125.0 -1.10003662109375 0.38629150390625
12783525000.0 -0.68701171875 1.03265380859375
12814746875.0 0.17059326171875 1.25372314453125
12845968750.0 0.867645263671875 0.811309814453125
12877190625.0 1.1229248046875 0.1690673828125
12908412500.0 1.058349609375 -0.50762939453125
12939634375.0 0.54046630859375 -1.122314453125
12970856250.0 -0.32647705078125 -1.1773681640625
13002078125.0 -0.897705078125 -0.692535400390625
13033300000.0 -1.10882568359375 -0.084716796875
13064521875.0 -1.01177978515625 0.59820556640625
13095743750.0 -0.41693115234375 1.16021728515625
13126965625.0 0.41314697265625 1.122802734375
13158187500.0 0.951416015625 0.631256103515625
13189409375.0 1.152099609375 -0.02313232421875
13220631250.0 0.937957763671875 -0.753204345703125
13251853125.0 0.2305908203125 -1.17608642578125
13283075000.0 -0.51202392578125 -1.01995849609375
13314296875.0 -0.9920654296875 -0.528350830078125
13345518750.0 -1.13751220703125 0.18072509765625
13376740625.0 -0.75250244140625 0.863677978515625
