!Created with skrf (http://scikit-rf.org).
# Hz S RI R 50.0 
!freq ReS11 ImS11
45000000.0 -0.07661819458007812 -0.09696578979492188
76221875.0 -0.196807861328125 -0.04811859130859375
107443750.0 -0.2559967041015625 0.1194000244140625
138665625.0 -0.1491851806640625 0.3289642333984375
169887500.0 0.1226806640625 0.4185791015625
201109375.0 0.4220733642578125 0.282989501953125
232331250.0 0.580413818359375 -0.056060791015625
263553125.0 0.491790771484375 -0.45269775390625
294775000.0 0.100677490234375 -0.7342529296875
325996875.0 -0.414764404296875 -0.683807373046875
357218750.0 -0.807830810546875 -0.300140380859375
388440625.0 -0.888824462890625 0.29925537109375
419662500.0 -0.52081298828125 0.867156982421875
450884375.0 0.17047119140625 1.03192138671875
482106250.0 0.798614501953125 0.7169189453125
513328125.0 1.1219482421875 0.09014892578125
544550000.0 1.007568359375 -0.67889404296875
575771875.0 0.34027099609375 -1.23974609375
606993750.0 -0.5517578125 -1.18133544921875
638215625.0 -1.1668701171875 -0.5948486328125
669437500.0 -1.3433837890625 0.23089599609375
700659375.0 -0.9754638671875 1.0958251953125
731881250.0 -0.0079345703125 1.54638671875
763103125.0 1.00457763671875 1.161376953125
794325000.0 1.47161865234375 0.28643798828125
825546875.0 1.3720703125 -0.64990234375
856768750.0 0.79937744140625 -1.4027099609375
887990625.0 -0.289306640625 -1.65313720703125
919212500.0 -1.28851318359375 -1.0849609375
950434375.0 -1.65338134765625 -0.06280517578125
981656250.0 -1.38836669921875 0.94537353515625
1012878125.0 -0.53472900390625 1.6756591796875
1044100000.0 0.69537353515625 1.66864013671875
1075321875.0 1.577392578125 0.81842041015625
1106543750.0 1.71044921875 -0.309326171875
1137765625.0 1.1929931640625 -1.28472900390625
1168987500.0 0.1431884765625 -1.8016357421875
1200209375.0 -1.06109619140625 -1.49041748046875
1231431250.0 -1.73126220703125 -0.45843505859375
1262653125.0 -1.5999755859375 0.6834716796875
1293875000.0 -0.8580322265625 1.49285888671875
1325096875.0 0.2242431640625 1.7122802734375
1356318750.0 1.23516845703125 1.22314453125
1387540625.0 1.74407958984375 0.19366455078125
1418762500.0 1.475341796875 -0.9503173828125
1449984375.0 0.53472900390625 -1.62811279296875
1481206250.0 -0.54766845703125 -1.561279296875
1512428125.0 -1.34356689453125 -0.92474365234375
1543650000.0 -1.65985107421875 0.06219482421875
1574871875.0 -1.2786865234375 1.10882568359375
1606093750.0 -0.27691650390625 1.634765625
1637315625.0 0.7408447265625 1.4056396484375
1668537500.0 1.3975830078125 0.70062255859375
1699759375.0 1.57733154296875 -0.27410888671875
1730981250.0 1.0692138671875 -1.23004150390625
1762203125.0 0.0457763671875 -1.57427978515625
1793425000.0 -0.85528564453125 -1.2313232421875
1824646875.0 -1.3955078125 -0.5194091796875
1855868750.0 -1.4783935546875 0.42987060546875
1887090625.0 -0.880126953125 1.2867431640625
1918312500.0 0.1143798828125 1.49053955078125
1949534375.0 0.92181396484375 1.09326171875
1980756250.0 1.377685546875 0.37420654296875
2011978125.0 1.36376953125 -0.53045654296875
2043200000.0 0.754638671875 -1.26287841796875
2074421875.0 -0.15460205078125 -1.437255859375
2105643750.0 -0.960693359375 -1.07666015625
2136865625.0 -1.4500732421875 -0.308349609375
2168087500.0 -1.36138916015625 0.669921875
2199309375.0 -0.64324951171875 1.3536376953125
2230531250.0 0.28021240234375 1.44012451171875
2261753125.0 1.07354736328125 1.018310546875
2292975000.0 1.5174560546875 0.17315673828125
2324196875.0 1.3099365234375 -0.818603515625
2355418750.0 0.5289306640625 -1.42230224609375
2386640625.0 -0.4033203125 -1.45294189453125
2417862500.0 -1.18292236328125 -1.02813720703125
2449084375.0 -1.6094970703125 -0.08636474609375
2480306250.0 -1.3155517578125 0.925537109375
2511528125.0 -0.49761962890625 1.50994873046875
2542750000.0 0.48736572265625 1.54083251953125
2573971875.0 1.373291015625 0.972900390625
2605193750.0 1.72216796875 -0.11053466796875
2636415625.0 1.265869140625 -1.15362548828125
2667637500.0 0.3099365234375 -1.67010498046875
2698859375.0 -0.76800537109375 -1.53839111328125
2730081250.0 -1.57666015625 -0.7449951171875
2761303125.0 -1.68658447265625 0.386474609375
2792525000.0 -1.10400390625 1.3104248046875
2823746875.0 -0.10479736328125 1.73370361328125
2854968750.0 1.0120849609375 1.4605712890625
2886190625.0 1.6954345703125 0.4952392578125
2917412500.0 1.60516357421875 -0.61669921875
2948634375.0 0.9442138671875 -1.435791015625
2979856250.0 -0.106689453125 -1.78204345703125
3011078125.0 -1.24822998046875 -1.34765625
3042300000.0 -1.77886962890625 -0.23773193359375
3073521875.0 -1.5137939453125 0.8375244140625
3104743750.0 -0.76702880859375 1.57037353515625
3135965625.0 0.3603515625 1.81427001953125
3167187500.0 1.50091552734375 1.1693115234375
3198409375.0 1.8209228515625 -0.07342529296875
3229631250.0 1.35418701171875 -1.082275390625
3260853125.0 0.49322509765625 -1.6715087890625
3292075000.0 -0.65374755859375 -1.70294189453125
3323296875.0 -1.62261962890625 -0.8846435546875
3354518750.0 -1.734619140625 0.32745361328125
3385740625.0 -1.16021728515625 1.233154296875
3416962500.0 -0.23406982421875 1.6864013671875
3448184375.0 0.86077880859375 1.5263671875
3479406250.0 1.63922119140625 0.647705078125
3510628125.0 1.64813232421875 -0.49365234375
3541850000.0 1.004150390625 -1.35723876953125
3573071875.0 -0.00555419921875 -1.68621826171875
3604293750.0 -1.0294189453125 -1.3416748046875
3635515625.0 -1.6309814453125 -0.44140625
3666737500.0 -1.56597900390625 0.64453125
3697959375.0 -0.82861328125 1.4791259765625
3729181250.0 0.267578125 1.63470458984375
3760403125.0 1.1533203125 1.10198974609375
3791625000.0 1.55596923828125 0.2203369140625
3822846875.0 1.4061279296875 -0.7601318359375
3854068750.0 0.62457275390625 -1.48358154296875
3885290625.0 -0.42132568359375 -1.4857177734375
3916512500.0 -1.14312744140625 -0.914794921875
3947734375.0 -1.45098876953125 -0.1219482421875
3978956250.0 -1.30169677734375 0.7791748046875
4010178125.0 -0.53314208984375 1.45928955078125
4041400000.0 0.4744873046875 1.41839599609375
4072621875.0 1.15386962890625 0.85015869140625
4103843750.0 1.44830322265625 0.06414794921875
4135065625.0 1.27093505859375 -0.84716796875
4166287500.0 0.45953369140625 -1.4993896484375
4197509375.0 -0.55810546875 -1.41851806640625
4228731250.0 -1.24932861328125 -0.8043212890625
4259953125.0 -1.51287841796875 0.0699462890625
4291175000.0 -1.1917724609375 1.0106201171875
4322396875.0 -0.290771484375 1.53045654296875
4353618750.0 0.67376708984375 1.35333251953125
4384840625.0 1.324462890625 0.69970703125
4416062500.0 1.50439453125 -0.227294921875
4447284375.0 1.05780029296875 -1.10638427734375
4478506250.0 0.173828125 -1.498779296875
4509728125.0 -0.7335205078125 -1.31103515625
4540950000.0 -1.39703369140625 -0.637939453125
4572171875.0 -1.52606201171875 0.3607177734375
4603393750.0 -0.97412109375 1.21527099609375
4634615625.0 -0.0615234375 1.54052734375
4665837500.0 0.87078857421875 1.30767822265625
4697059375.0 1.54412841796875 0.517578125
4728281250.0 1.5328369140625 -0.5833740234375
4759503125.0 0.82513427734375 -1.3697509765625
4790725000.0 -0.14495849609375 -1.575927734375
4821946875.0 -1.0848388671875 -1.19683837890625
4853168750.0 -1.61737060546875 -0.2523193359375
4884390625.0 -1.38177490234375 0.79437255859375
4915612500.0 -0.615234375 1.41558837890625
4946834375.0 0.32769775390625 1.51251220703125
4978056250.0 1.2080078125 1.019775390625
5009278125.0 1.56500244140625 0.0404052734375
5040500000.0 1.23223876953125 -0.87744140625
5071721875.0 0.50335693359375 -1.41827392578125
5102943750.0 -0.4464111328125 -1.5008544921875
5134165625.0 -1.3394775390625 -0.9078369140625
5165387500.0 -1.57159423828125 0.14697265625
5196609375.0 -1.13885498046875 1.01141357421875
5227831250.0 -0.35888671875 1.509033203125
5259053125.0 0.69024658203125 1.49609375
5290275000.0 1.52532958984375 0.66424560546875
5321496875.0 1.495361328125 -0.43170166015625
5352718750.0 0.92291259765625 -1.1556396484375
5383940625.0 0.09771728515625 -1.5037841796875
5415162500.0 -0.90185546875 -1.28692626953125
5446384375.0 -1.48736572265625 -0.37176513671875
5477606250.0 -1.30206298828125 0.567138671875
5508828125.0 -0.7335205078125 1.15325927734375
5540050000.0 0.053466796875 1.40203857421875
5571271875.0 0.94134521484375 1.1114501953125
5602493750.0 1.4124755859375 0.26031494140625
5633715625.0 1.23541259765625 -0.61419677734375
5664937500.0 0.64959716796875 -1.204345703125
5696159375.0 -0.19891357421875 -1.3875732421875
5727381250.0 -1.02423095703125 -0.98040771484375
5758603125.0 -1.39483642578125 -0.14501953125
5789825000.0 -1.1971435546875 0.7198486328125
5821046875.0 -0.5069580078125 1.31103515625
5852268750.0 0.41259765625 1.31573486328125
5883490625.0 1.07330322265625 0.7734375
5914712500.0 1.3055419921875 0.02008056640625
5945934375.0 1.09893798828125 -0.778076171875
5977156250.0 0.3612060546875 -1.31597900390625
6008378125.0 -0.5123291015625 -1.18536376953125
6039600000.0 -1.0238037109375 -0.6507568359375
6070821875.0 -1.22711181640625 -0.0042724609375
6102043750.0 -1.08575439453125 0.76556396484375
6133265625.0 -0.3421630859375 1.34857177734375
6164487500.0 0.565673828125 1.1895751953125
6195709375.0 1.07354736328125 0.63140869140625
6226931250.0 1.28277587890625 -0.04241943359375
6258153125.0 1.106689453125 -0.87493896484375
6289375000.0 0.25494384765625 -1.4510498046875
6320596875.0 -0.6923828125 -1.2076416015625
6351818750.0 -1.203369140625 -0.5721435546875
6383040625.0 -1.35662841796875 0.207763671875
6414262500.0 -1.00115966796875 1.060302734375
6445484375.0 -0.0770263671875 1.46002197265625
6476706250.0 0.79803466796875 1.14959716796875
6507928125.0 1.29486083984375 0.46966552734375
6539150000.0 1.35003662109375 -0.3870849609375
6570371875.0 0.84222412109375 -1.14752197265625
6601593750.0 -0.01824951171875 -1.40838623046875
6632815625.0 -0.84185791015625 -1.1385498046875
6664037500.0 -1.40435791015625 -0.4202880859375
6695259375.0 -1.376708984375 0.5693359375
6726481250.0 -0.7113037109375 1.25469970703125
6757703125.0 0.13299560546875 1.4111328125
6788925000.0 0.95928955078125 1.13323974609375
6820146875.0 1.5643310546875 0.28643798828125
6851368750.0 1.3271484375 -0.8216552734375
6882590625.0 0.506591796875 -1.34100341796875
6913812500.0 -0.29437255859375 -1.35980224609375
6945034375.0 -1.07293701171875 -1.02337646484375
6976256250.0 -1.59625244140625 -0.0919189453125
7007478125.0 -1.23828125 0.9364013671875
7038700000.0 -0.40203857421875 1.34722900390625
7069921875.0 0.358642578125 1.326904296875
7101143750.0 1.12457275390625 0.97100830078125
7132365625.0 1.602783203125 0.01318359375
7163587500.0 1.1595458984375 -1.025390625
7194809375.0 0.300048828125 -1.40399169921875
7226031250.0 -0.51312255859375 -1.329345703125
7257253125.0 -1.2738037109375 -0.8251953125
7288475000.0 -1.56439208984375 0.20172119140625
7319696875.0 -1.03167724609375 1.1143798828125
7350918750.0 -0.16387939453125 1.44903564453125
7382140625.0 0.72100830078125 1.27960205078125
7413362500.0 1.380126953125 0.57598876953125
7444584375.0 1.4140625 -0.407958984375
7475806250.0 0.85894775390625 -1.146484375
7507028125.0 0.0067138671875 -1.43212890625
7538250000.0 -0.89178466796875 -1.1253662109375
7569471875.0 -1.33953857421875 -0.3095703125
7600693750.0 -1.20513916015625 0.5001220703125
7631915625.0 -0.719970703125 1.0882568359375
7663137500.0 0.08160400390625 1.3616943359375
7694359375.0 0.943267822265625 0.9835205078125
7725581250.0 1.24810791015625 0.1795654296875
7756803125.0 1.0858154296875 -0.501953125
7788025000.0 0.67181396484375 -1.0484619140625
7819246875.0 -0.12255859375 -1.3524169921875
7850468750.0 -0.996734619140625 -0.91650390625
7881690625.0 -1.2342529296875 -0.10357666015625
7912912500.0 -1.0582275390625 0.5587158203125
7944134375.0 -0.605712890625 1.11907958984375
7975356250.0 0.27593994140625 1.33843994140625
8006578125.0 1.0506591796875 0.778076171875
8037800000.0 1.1961669921875 0.0155029296875
8069021875.0 1.00897216796875 -0.6224365234375
8100243750.0 0.49847412109375 -1.16619873046875
8131465625.0 -0.389892578125 -1.2564697265625
8162687500.0 -1.03289794921875 -0.6866455078125
8193909375.0 -1.18243408203125 0.008544921875
8225131250.0 -1.020263671875 0.68096923828125
8256353125.0 -0.421875 1.25299072265625
8287575000.0 0.50421142578125 1.22979736328125
8318796875.0 1.0849609375 0.63616943359375
8350018750.0 1.24932861328125 -0.0775146484375
8381240625.0 1.03399658203125 -0.84478759765625
8412462500.0 0.252197265625 -1.3778076171875
8443684375.0 -0.673583984375 -1.17138671875
8474906250.0 -1.178466796875 -0.53216552734375
8506128125.0 -1.30206298828125 0.23944091796875
8537350000.0 -0.9254150390625 1.05169677734375
8568571875.0 -0.0126953125 1.399658203125
8599793750.0 0.80670166015625 1.0557861328125
8631015625.0 1.24334716796875 0.39959716796875
8662237500.0 1.28875732421875 -0.4327392578125
8693459375.0 0.73712158203125 -1.180419921875
8724681250.0 -0.164306640625 -1.33538818359375
8755903125.0 -0.883209228515625 -0.959442138671875
8787125000.0 -1.3082275390625 -0.28125
8818346875.0 -1.2545166015625 0.61883544921875
8849568750.0 -0.55767822265625 1.26495361328125
8880790625.0 0.302490234375 1.2904052734375
8912012500.0 0.98736572265625 0.89422607421875
8943234375.0 1.40380859375 0.12762451171875
8974456250.0 1.16729736328125 -0.844482421875
9005678125.0 0.34637451171875 -1.31768798828125
9036900000.0 -0.44744873046875 -1.22686767578125
9068121875.0 -1.1063232421875 -0.78631591796875
9099343750.0 -1.44415283203125 0.100341796875
9130565625.0 -0.97882080078125 1.01458740234375
9161787500.0 -0.1529541015625 1.28399658203125
9193009375.0 0.55572509765625 1.1353759765625
9224231250.0 1.18328857421875 0.65606689453125
9255453125.0 1.40252685546875 -0.29718017578125
9286675000.0 0.80792236328125 -1.09027099609375
9317896875.0 0.02825927734375 -1.24774169921875
9349118750.0 -0.6572265625 -1.07293701171875
9380340625.0 -1.26483154296875 -0.50897216796875
9411562500.0 -1.3150634765625 0.48114013671875
9442784375.0 -0.6468505859375 1.1221923828125
9474006250.0 0.0931396484375 1.21636962890625
9505228125.0 0.77032470703125 0.98187255859375
9536450000.0 1.27813720703125 0.3106689453125
9567671875.0 1.14605712890625 -0.58563232421875
9598893750.0 0.52825927734375 -1.07196044921875
9630115625.0 -0.1473388671875 -1.1610107421875
9661337500.0 -0.8228759765625 -0.903106689453125
9692559375.0 -1.24383544921875 -0.1865234375
9723781250.0 -1.04461669921875 0.60565185546875
9755003125.0 -0.4854736328125 1.05426025390625
9786225000.0 0.20147705078125 1.1614990234375
9817446875.0 0.899658203125 0.8282470703125
9848668750.0 1.20269775390625 0.0748291015625
9879890625.0 0.970672607421875 -0.62109375
9911112500.0 0.45263671875 -1.05535888671875
9942334375.0 -0.271728515625 -1.16278076171875
9973556250.0 -0.949981689453125 -0.737579345703125
10004778125.0 -1.14892578125 -0.01397705078125
10036000000.0 -0.945770263671875 0.619873046875
10067221875.0 -0.44012451171875 1.10223388671875
10098443750.0 0.37579345703125 1.184326171875
10129665625.0 1.0084228515625 0.6409912109375
10160887500.0 1.1214599609375 -0.05413818359375
10192109375.0 0.91851806640625 -0.668426513671875
10223331250.0 0.3597412109375 -1.1546630859375
10254553125.0 -0.48828125 -1.11444091796875
10285775000.0 -0.9876708984375 -0.534332275390625
10316996875.0 -1.06884765625 0.07879638671875
10348218750.0 -0.9014892578125 0.6734619140625
10379440625.0 -0.31976318359375 1.1805419921875
10410662500.0 0.5313720703125 1.08673095703125
10441884375.0 0.99603271484375 0.52069091796875
10473106250.0 1.114501953125 -0.08740234375
10504328125.0 0.951141357421875 -0.76190185546875
10535550000.0 0.2362060546875 -1.29962158203125
10566771875.0 -0.66253662109375 -1.0777587890625
10597993750.0 -1.085693359375 -0.45703125
10629215625.0 -1.1776123046875 0.20806884765625
10660437500.0 -0.887298583984375 0.95745849609375
10691659375.0 -0.0052490234375 1.3377685546875
10722881250.0 0.78973388671875 0.951934814453125
10754103125.0 1.12109375 0.3248291015625
10785325000.0 1.14178466796875 -0.370361328125
10816546875.0 0.70050048828125 -1.053955078125
10847768750.0 -0.1492919921875 -1.23150634765625
10878990625.0 -0.80645751953125 -0.843597412109375
10910212500.0 -1.12567138671875 -0.2437744140625
10941434375.0 -1.0994873046875 0.4820556640625
10972656250.0 -0.56689453125 1.0902099609375
11003878125.0 0.22088623046875 1.17694091796875
11035100000.0 0.85260009765625 0.822357177734375
11066321875.0 1.22430419921875 0.17236328125
11097543750.0 1.09930419921875 -0.681396484375
11128765625.0 0.3819580078125 -1.2037353515625
11159987500.0 -0.40118408203125 -1.14154052734375
11191209375.0 -1.0052490234375 -0.70098876953125
11222431250.0 -1.27587890625 0.0972900390625
11253653125.0 -0.8580322265625 0.90069580078125
11284875000.0 -0.1123046875 1.12982177734375
11316096875.0 0.514434814453125 0.95745849609375
11347318750.0 1.00811767578125 0.500244140625
11378540625.0 1.1190185546875 -0.273681640625
11409762500.0 0.633941650390625 -0.863189697265625
11440984375.0 0.034210205078125 -0.98065185546875
11472206250.0 -0.4847412109375 -0.852203369140625
11503428125.0 -0.958160400390625 -0.454376220703125
11534650000.0 -1.071044921875 0.29302978515625
11565871875.0 -0.601348876953125 0.858245849609375
11597093750.0 -0.016815185546875 0.994354248046875
11628315625.0 0.55096435546875 0.878173828125
11659537500.0 1.0657958984375 0.39031982421875
11690759375.0 1.06646728515625 -0.4381103515625
11721981250.0 0.515289306640625 -0.94451904296875
11753203125.0 -0.10791015625 -1.0389404296875
11784425000.0 -0.727691650390625 -0.80975341796875
11815646875.0 -1.1065673828125 -0.1474609375
11846868750.0 -0.890960693359375 0.555419921875
11878090625.0 -0.38983154296875 0.912506103515625
11909312500.0 0.191192626953125 0.987701416015625
11940534375.0 0.785797119140625 0.694854736328125
11971756250.0 1.02947998046875 0.035888671875
12002978125.0 0.806976318359375 -0.541259765625
12034200000.0 0.38134765625 -0.892791748046875
12065421875.0 -0.2198486328125 -1.011962890625
12096643750.0 -0.85260009765625 -0.663726806640625
12127865625.0 -1.0361328125 0.020751953125
12159087500.0 -0.815399169921875 0.580718994140625
12190309375.0 -0.375732421875 0.98016357421875
12221531250.0 0.34442138671875 1.0908203125
12252753125.0 0.98614501953125 0.578399658203125
12283975000.0 1.0567626953125 -0.1328125
12315196875.0 0.800567626953125 -0.68035888671875
12346418750.0 0.2784423828125 -1.0960693359375
12377640625.0 -0.54229736328125 -1.061279296875
12408862500.0 -1.03759765625 -0.41644287109375
12440084375.0 -1.0101318359375 0.2281494140625
12471306250.0 -0.742462158203125 0.74310302734375
12502528125.0 -0.177490234375 1.12432861328125
12533750000.0 0.62420654296875 0.993560791015625
12564971875.0 1.0447998046875 0.36138916015625
12596193750.0 1.031494140625 -0.2685546875
12627415625.0 0.747894287109375 -0.8349609375
12658637500.0 0.07550048828125 -1.21209716796875
12689859375.0 -0.741729736328125 -0.9671630859375
12721081250.0 -1.1219482421875 -0.3026123046875
12752303125.0 -1.10052490234375 0.3875732421875
12783525000.0 -0.6859130859375 1.0345458984375
12814746875.0 0.17120361328125 1.25360107421875
12845968750.0 0.866424560546875 0.81048583984375
12877190625.0 1.121337890625 0.16925048828125
12908412500.0 1.05828857421875 -0.5108642578125
12939634375.0 0.5391845703125 -1.12432861328125
12970856250.0 -0.32733154296875 -1.1767578125
13002078125.0 -0.8984375 -0.692413330078125
13033300000.0 -1.1090087890625 -0.0843505859375
13064521875.0 -1.0106201171875 0.5985107421875
13095743750.0 -0.41436767578125 1.16131591796875
13126965625.0 0.41607666015625 1.12213134765625
13158187500.0 0.950225830078125 0.63067626953125
13189409375.0 1.1505126953125 -0.024169921875
13220631250.0 0.93585205078125 -0.756195068359375
13251853125.0 0.22918701171875 -1.17724609375
13283075000.0 -0.51434326171875 -1.0205078125
13314296875.0 -0.994598388671875 -0.52642822265625
13345518750.0 -1.13946533203125 0.18414306640625
13376740625.0 -0.750640869140625 0.862762451171875
