!Created with skrf (http://scikit-rf.org).
# Hz S RI R 50.0 
!freq ReS11 ImS11
45000000.0 -0.0767364501953125 -0.097076416015625
76221875.0 -0.19666290283203125 -0.04770660400390625
107443750.0 -0.255523681640625 0.119964599609375
138665625.0 -0.148712158203125 0.3289794921875
169887500.0 0.123321533203125 0.4184417724609375
201109375.0 0.4224090576171875 0.281951904296875
232331250.0 0.580108642578125 -0.0570068359375
263553125.0 0.4906158447265625 -0.4532623291015625
294775000.0 0.09930419921875 -0.733551025390625
325996875.0 -0.41558837890625 -0.68243408203125
357218750.0 -0.80780029296875 -0.2984619140625
388440625.0 -0.88775634765625 0.30078125
419662500.0 -0.51904296875 0.867584228515625
450884375.0 0.17218017578125 1.03131103515625
482106250.0 0.799285888671875 0.7149658203125
513328125.0 1.1214599609375 0.08837890625
544550000.0 1.006103515625 -0.68011474609375
575771875.0 0.33837890625 -1.23968505859375
606993750.0 -0.553466796875 -1.17962646484375
638215625.0 -1.16741943359375 -0.59271240234375
669437500.0 -1.34222412109375 0.23291015625
700659375.0 -0.97332763671875 1.09698486328125
731881250.0 -0.00537109375 1.54559326171875
763103125.0 1.006103515625 1.15899658203125
794325000.0 1.471435546875 0.28350830078125
825546875.0 1.37030029296875 -0.651611328125
856768750.0 0.79681396484375 -1.40234375
887990625.0 -0.29193115234375 -1.65142822265625
919212500.0 -1.2899169921875 -1.08160400390625
950434375.0 -1.65216064453125 -0.06005859375
981656250.0 -1.385986328125 0.9473876953125
1012878125.0 -0.53192138671875 1.675048828125
1044100000.0 0.69732666015625 1.6661376953125
1075321875.0 1.578125 0.8148193359375
1106543750.0 1.70831298828125 -0.31256103515625
1137765625.0 1.19061279296875 -1.2857666015625
1168987500.0 0.13970947265625 -1.801025390625
1200209375.0 -1.06243896484375 -1.4874267578125
1231431250.0 -1.73095703125 -0.45526123046875
1262653125.0 -1.59783935546875 0.68475341796875
1293875000.0 -0.85491943359375 1.4937744140625
1325096875.0 0.2271728515625 1.7108154296875
1356318750.0 1.2366943359375 1.22015380859375
1387540625.0 1.74310302734375 0.18988037109375
1418762500.0 1.47271728515625 -0.95196533203125
1449984375.0 0.53131103515625 -1.6287841796875
1481206250.0 -0.5498046875 -1.55926513671875
1512428125.0 -1.3438720703125 -0.92205810546875
1543650000.0 -1.658447265625 0.06475830078125
1574871875.0 -1.2760009765625 1.109375
1606093750.0 -0.2742919921875 1.63433837890625
1637315625.0 0.74273681640625 1.40338134765625
1668537500.0 1.398193359375 0.69781494140625
1699759375.0 1.57598876953125 -0.2763671875
1730981250.0 1.06671142578125 -1.23101806640625
1762203125.0 0.04296875 -1.57354736328125
1793425000.0 -0.8565673828125 -1.22900390625
1824646875.0 -1.3958740234375 -0.51666259765625
1855868750.0 -1.47674560546875 0.43243408203125
1887090625.0 -0.87689208984375 1.2879638671875
1918312500.0 0.11737060546875 1.48968505859375
1949534375.0 0.9228515625 1.09100341796875
1980756250.0 1.3773193359375 0.37115478515625
2011978125.0 1.36212158203125 -0.53173828125
2043200000.0 0.7520751953125 -1.26348876953125
2074421875.0 -0.1561279296875 -1.43597412109375
2105643750.0 -0.9617919921875 -1.0745849609375
2136865625.0 -1.44970703125 -0.30572509765625
2168087500.0 -1.35931396484375 0.671630859375
2199309375.0 -0.6405029296875 1.35382080078125
2230531250.0 0.28216552734375 1.43902587890625
2261753125.0 1.07452392578125 1.015869140625
2292975000.0 1.5167236328125 0.17083740234375
2324196875.0 1.30767822265625 -0.820068359375
2355418750.0 0.5262451171875 -1.4219970703125
2386640625.0 -0.40484619140625 -1.45062255859375
2417862500.0 -1.18304443359375 -1.025634765625
2449084375.0 -1.60675048828125 -0.08404541015625
2480306250.0 -1.31365966796875 0.92626953125
2511528125.0 -0.4947509765625 1.51104736328125
2542750000.0 0.4891357421875 1.53857421875
2573971875.0 1.37310791015625 0.9698486328125
2605193750.0 1.7205810546875 -0.1138916015625
2636415625.0 1.2635498046875 -1.15496826171875
2667637500.0 0.30731201171875 -1.66949462890625
2698859375.0 -0.77154541015625 -1.5367431640625
2730081250.0 -1.57623291015625 -0.7412109375
2761303125.0 -1.68402099609375 0.389404296875
2792525000.0 -1.10137939453125 1.30999755859375
2823746875.0 -0.1033935546875 1.7327880859375
2854968750.0 1.014892578125 1.45794677734375
2886190625.0 1.69451904296875 0.49200439453125
2917412500.0 1.60235595703125 -0.61895751953125
2948634375.0 0.94073486328125 -1.43646240234375
2979856250.0 -0.10772705078125 -1.77947998046875
3011078125.0 -1.25079345703125 -1.34423828125
3042300000.0 -1.77874755859375 -0.234375
3073521875.0 -1.51123046875 0.8394775390625
3104743750.0 -0.76446533203125 1.571044921875
3135965625.0 0.3623046875 1.8115234375
3167187500.0 1.50323486328125 1.165771484375
3198409375.0 1.81884765625 -0.076171875
3229631250.0 1.3509521484375 -1.0823974609375
3260853125.0 0.49066162109375 -1.67059326171875
3292075000.0 -0.65655517578125 -1.70166015625
3323296875.0 -1.622314453125 -0.880615234375
3354518750.0 -1.73260498046875 0.3291015625
3385740625.0 -1.15771484375 1.234619140625
3416962500.0 -0.23089599609375 1.68548583984375
3448184375.0 0.8629150390625 1.5242919921875
3479406250.0 1.6395263671875 0.64453125
3510628125.0 1.6466064453125 -0.49639892578125
3541850000.0 1.001220703125 -1.35723876953125
3573071875.0 -0.008544921875 -1.68408203125
3604293750.0 -1.02996826171875 -1.3388671875
3635515625.0 -1.6302490234375 -0.43792724609375
3666737500.0 -1.563720703125 0.64617919921875
3697959375.0 -0.825927734375 1.47869873046875
3729181250.0 0.27001953125 1.633544921875
3760403125.0 1.1544189453125 1.099609375
3791625000.0 1.554931640625 0.21844482421875
3822846875.0 1.40478515625 -0.7630615234375
3854068750.0 0.6219482421875 -1.483154296875
3885290625.0 -0.42303466796875 -1.4837646484375
3916512500.0 -1.14459228515625 -0.91180419921875
3947734375.0 -1.449951171875 -0.119384765625
3978956250.0 -1.2999267578125 0.782470703125
4010178125.0 -0.53106689453125 1.45745849609375
4041400000.0 0.474853515625 1.4171142578125
4072621875.0 1.155029296875 0.847900390625
4103843750.0 1.4476318359375 0.06195068359375
4135065625.0 1.269287109375 -0.8489990234375
4166287500.0 0.45709228515625 -1.49884033203125
4197509375.0 -0.55999755859375 -1.41619873046875
4228731250.0 -1.24981689453125 -0.8026123046875
4259953125.0 -1.51190185546875 0.07305908203125
4291175000.0 -1.1895751953125 1.0126953125
4322396875.0 -0.2891845703125 1.52911376953125
4353618750.0 0.6746826171875 1.3515625
4384840625.0 1.3253173828125 0.69744873046875
4416062500.0 1.5037841796875 -0.229736328125
4447284375.0 1.05633544921875 -1.10589599609375
4478506250.0 0.17193603515625 -1.49755859375
4509728125.0 -0.7344970703125 -1.30914306640625
4540950000.0 -1.39715576171875 -0.635498046875
4572171875.0 -1.52532958984375 0.36322021484375
4603393750.0 -0.97271728515625 1.21630859375
4634615625.0 -0.05859375 1.54022216796875
4665837500.0 0.87225341796875 1.30548095703125
4697059375.0 1.545166015625 0.513916015625
4728281250.0 1.5302734375 -0.58465576171875
4759503125.0 0.82281494140625 -1.36871337890625
4790725000.0 -0.14715576171875 -1.5745849609375
4821946875.0 -1.08624267578125 -1.19561767578125
4853168750.0 -1.61651611328125 -0.2496337890625
4884390625.0 -1.37939453125 0.79534912109375
4915612500.0 -0.61248779296875 1.4151611328125
4946834375.0 0.33056640625 1.5118408203125
4978056250.0 1.208251953125 1.0181884765625
5009278125.0 1.5645751953125 0.038330078125
5040500000.0 1.23065185546875 -0.878662109375
5071721875.0 0.50146484375 -1.41754150390625
5102943750.0 -0.44989013671875 -1.4990234375
5134165625.0 -1.33978271484375 -0.90447998046875
5165387500.0 -1.57086181640625 0.1497802734375
5196609375.0 -1.13677978515625 1.01300048828125
5227831250.0 -0.3555908203125 1.5098876953125
5259053125.0 0.69207763671875 1.494384765625
5290275000.0 1.52569580078125 0.66094970703125
5321496875.0 1.49334716796875 -0.43304443359375
5352718750.0 0.920654296875 -1.15496826171875
5383940625.0 0.09521484375 -1.50274658203125
5415162500.0 -0.90338134765625 -1.28497314453125
5446384375.0 -1.4873046875 -0.369384765625
5477606250.0 -1.3011474609375 0.56878662109375
5508828125.0 -0.73187255859375 1.1539306640625
5540050000.0 0.0555419921875 1.401611328125
5571271875.0 0.9423828125 1.1099853515625
5602493750.0 1.41094970703125 0.258544921875
5633715625.0 1.23370361328125 -0.615966796875
5664937500.0 0.6475830078125 -1.20538330078125
5696159375.0 -0.19927978515625 -1.38580322265625
5727381250.0 -1.0252685546875 -0.97808837890625
5758603125.0 -1.3934326171875 -0.14306640625
5789825000.0 -1.19482421875 0.7205810546875
5821046875.0 -0.504638671875 1.311279296875
5852268750.0 0.415283203125 1.314697265625
5883490625.0 1.07379150390625 0.771728515625
5914712500.0 1.30499267578125 0.01806640625
5945934375.0 1.09759521484375 -0.77911376953125
5977156250.0 0.35955810546875 -1.31494140625
6008378125.0 -0.5133056640625 -1.18402099609375
6039600000.0 -1.02398681640625 -0.64849853515625
6070821875.0 -1.22601318359375 -0.00299072265625
6102043750.0 -1.08447265625 0.76666259765625
6133265625.0 -0.33966064453125 1.348388671875
6164487500.0 0.56732177734375 1.18817138671875
6195709375.0 1.07440185546875 0.62939453125
6226931250.0 1.2828369140625 -0.04547119140625
6258153125.0 1.10491943359375 -0.8768310546875
6289375000.0 0.25250244140625 -1.4501953125
6320596875.0 -0.69281005859375 -1.20538330078125
6351818750.0 -1.2030029296875 -0.56988525390625
6383040625.0 -1.35626220703125 0.21026611328125
6414262500.0 -0.9991455078125 1.06134033203125
6445484375.0 -0.07537841796875 1.45880126953125
6476706250.0 0.79827880859375 1.1475830078125
6507928125.0 1.29376220703125 0.4683837890625
6539150000.0 1.3494873046875 -0.389404296875
6570371875.0 0.84033203125 -1.14666748046875
6601593750.0 -0.01971435546875 -1.4071044921875
6632815625.0 -0.84283447265625 -1.13714599609375
6664037500.0 -1.40521240234375 -0.417724609375
6695259375.0 -1.375244140625 0.57012939453125
6726481250.0 -0.7086181640625 1.2564697265625
6757703125.0 0.13385009765625 1.4093017578125
6788925000.0 0.96014404296875 1.13067626953125
6820146875.0 1.5635986328125 0.28424072265625
6851368750.0 1.32574462890625 -0.82501220703125
6882590625.0 0.50433349609375 -1.3419189453125
6913812500.0 -0.295166015625 -1.35791015625
6945034375.0 -1.0731201171875 -1.021484375
6976256250.0 -1.59466552734375 -0.0892333984375
7007478125.0 -1.23614501953125 0.93853759765625
7038700000.0 -0.4005126953125 1.3460693359375
7069921875.0 0.36181640625 1.325927734375
7101143750.0 1.12188720703125 0.96820068359375
7132365625.0 1.60333251953125 0.0107421875
7163587500.0 1.15863037109375 -1.02239990234375
7194809375.0 0.30029296875 -1.40277099609375
7226031250.0 -0.51593017578125 -1.32781982421875
7257253125.0 -1.27093505859375 -0.82281494140625
7288475000.0 -1.56085205078125 0.203857421875
7319696875.0 -1.0286865234375 1.1138916015625
7350918750.0 -0.1622314453125 1.44659423828125
7382140625.0 0.72332763671875 1.27825927734375
7413362500.0 1.380859375 0.57269287109375
7444584375.0 1.4132080078125 -0.41094970703125
7475806250.0 0.85662841796875 -1.1483154296875
7507028125.0 0.00347900390625 -1.4310302734375
7538250000.0 -0.8916015625 -1.1240234375
7569471875.0 -1.3392333984375 -0.30816650390625
7600693750.0 -1.20294189453125 0.4986572265625
7631915625.0 -0.717041015625 1.08905029296875
7663137500.0 0.0836181640625 1.36175537109375
7694359375.0 0.943878173828125 0.981414794921875
7725581250.0 1.24591064453125 0.17999267578125
7756803125.0 1.08392333984375 -0.5018310546875
7788025000.0 0.66949462890625 -1.048583984375
7819246875.0 -0.12579345703125 -1.35198974609375
7850468750.0 -0.997833251953125 -0.914154052734375
7881690625.0 -1.23468017578125 -0.10186767578125
7912912500.0 -1.05657958984375 0.5595703125
7944134375.0 -0.60308837890625 1.11859130859375
7975356250.0 0.2777099609375 1.33697509765625
8006578125.0 1.04925537109375 0.77734375
8037800000.0 1.19561767578125 0.01263427734375
8069021875.0 1.0076904296875 -0.62213134765625
8100243750.0 0.49737548828125 -1.1639404296875
8131465625.0 -0.39178466796875 -1.25531005859375
8162687500.0 -1.03515625 -0.684326171875
8193909375.0 -1.1832275390625 0.0103759765625
8225131250.0 -1.02001953125 0.6834716796875
8256353125.0 -0.4197998046875 1.25250244140625
8287575000.0 0.50701904296875 1.22906494140625
8318796875.0 1.08612060546875 0.634033203125
8350018750.0 1.24761962890625 -0.07733154296875
8381240625.0 1.031982421875 -0.845947265625
8412462500.0 0.252197265625 -1.3765869140625
8443684375.0 -0.67498779296875 -1.169189453125
8474906250.0 -1.17852783203125 -0.52899169921875
8506128125.0 -1.299072265625 0.240478515625
8537350000.0 -0.92266845703125 1.05224609375
8568571875.0 -0.01226806640625 1.3963623046875
8599793750.0 0.80718994140625 1.05322265625
8631015625.0 1.2442626953125 0.396240234375
8662237500.0 1.28802490234375 -0.43377685546875
8693459375.0 0.73602294921875 -1.180908203125
8724681250.0 -0.16595458984375 -1.3343505859375
8755903125.0 -0.886260986328125 -0.95843505859375
8787125000.0 -1.30743408203125 -0.2799072265625
8818346875.0 -1.25360107421875 0.62200927734375
8849568750.0 -0.55413818359375 1.26727294921875
8880790625.0 0.30364990234375 1.28778076171875
8912012500.0 0.986053466796875 0.89215087890625
8943234375.0 1.40380859375 0.12396240234375
8974456250.0 1.16448974609375 -0.8460693359375
9005678125.0 0.34368896484375 -1.3170166015625
9036900000.0 -0.44970703125 -1.22564697265625
9068121875.0 -1.10687255859375 -0.7833251953125
9099343750.0 -1.44354248046875 0.10302734375
9130565625.0 -0.97637939453125 1.01727294921875
9161787500.0 -0.1513671875 1.2835693359375
9193009375.0 0.55841064453125 1.1343994140625
9224231250.0 1.181640625 0.65472412109375
9255453125.0 1.40252685546875 -0.30023193359375
9286675000.0 0.8052978515625 -1.09173583984375
9317896875.0 0.0244140625 -1.24969482421875
9349118750.0 -0.65838623046875 -1.07208251953125
9380340625.0 -1.26318359375 -0.50872802734375
9411562500.0 -1.31341552734375 0.48297119140625
9442784375.0 -0.6456298828125 1.1226806640625
9474006250.0 0.09356689453125 1.2149658203125
9505228125.0 0.770355224609375 0.980499267578125
9536450000.0 1.27972412109375 0.30859375
9567671875.0 1.1435546875 -0.5863037109375
9598893750.0 0.52728271484375 -1.071044921875
9630115625.0 -0.146484375 -1.1590576171875
9661337500.0 -0.8223876953125 -0.901580810546875
9692559375.0 -1.24163818359375 -0.18475341796875
9723781250.0 -1.04290771484375 0.6082763671875
9755003125.0 -0.48394775390625 1.052978515625
9786225000.0 0.20269775390625 1.16094970703125
9817446875.0 0.900390625 0.827545166015625
9848668750.0 1.2015380859375 0.0726318359375
9879890625.0 0.96807861328125 -0.6212158203125
9911112500.0 0.45025634765625 -1.056396484375
9942334375.0 -0.27239990234375 -1.16217041015625
9973556250.0 -0.950927734375 -0.73626708984375
10004778125.0 -1.14837646484375 -0.01239013671875
10036000000.0 -0.94451904296875 0.621307373046875
10067221875.0 -0.43939208984375 1.1024169921875
10098443750.0 0.37567138671875 1.18145751953125
10129665625.0 1.00823974609375 0.6396484375
10160887500.0 1.121826171875 -0.05792236328125
10192109375.0 0.916107177734375 -0.667877197265625
10223331250.0 0.3580322265625 -1.15478515625
10254553125.0 -0.491455078125 -1.11395263671875
10285775000.0 -0.988189697265625 -0.532318115234375
10316996875.0 -1.0679931640625 0.0792236328125
10348218750.0 -0.90020751953125 0.67449951171875
10379440625.0 -0.31829833984375 1.17950439453125
10410662500.0 0.531982421875 1.08538818359375
10441884375.0 0.996063232421875 0.51959228515625
10473106250.0 1.1121826171875 -0.0877685546875
10504328125.0 0.949920654296875 -0.763763427734375
10535550000.0 0.23406982421875 -1.29913330078125
10566771875.0 -0.66253662109375 -1.07659912109375
10597993750.0 -1.08624267578125 -0.4547119140625
10629215625.0 -1.1787109375 0.21063232421875
10660437500.0 -0.885528564453125 0.959014892578125
10691659375.0 -0.00244140625 1.33892822265625
10722881250.0 0.791412353515625 0.950653076171875
10754103125.0 1.1221923828125 0.32159423828125
10785325000.0 1.1412353515625 -0.3719482421875
10816546875.0 0.69854736328125 -1.053955078125
10847768750.0 -0.1517333984375 -1.23199462890625
10878990625.0 -0.8076171875 -0.84246826171875
10910212500.0 -1.1256103515625 -0.2420654296875
10941434375.0 -1.0987548828125 0.48193359375
10972656250.0 -0.56475830078125 1.09039306640625
11003878125.0 0.221923828125 1.1759033203125
11035100000.0 0.853912353515625 0.82147216796875
11066321875.0 1.22412109375 0.17059326171875
11097543750.0 1.09814453125 -0.6827392578125
11128765625.0 0.3826904296875 -1.20294189453125
11159987500.0 -0.40155029296875 -1.14044189453125
11191209375.0 -1.00506591796875 -0.69952392578125
11222431250.0 -1.27581787109375 0.10028076171875
11253653125.0 -0.85693359375 0.900848388671875
11284875000.0 -0.11083984375 1.12860107421875
11316096875.0 0.5147705078125 0.956329345703125
11347318750.0 1.00799560546875 0.5001220703125
11378540625.0 1.118896484375 -0.27685546875
11409762500.0 0.6319580078125 -0.86541748046875
11440984375.0 0.03125 -0.980499267578125
11472206250.0 -0.48358154296875 -0.8504638671875
11503428125.0 -0.9583740234375 -0.45355224609375
11534650000.0 -1.0704345703125 0.29345703125
11565871875.0 -0.600250244140625 0.859466552734375
11597093750.0 -0.0169677734375 0.993560791015625
11628315625.0 0.5494384765625 0.87567138671875
11659537500.0 1.06561279296875 0.3880615234375
11690759375.0 1.06561279296875 -0.44140625
11721981250.0 0.51373291015625 -0.945098876953125
11753203125.0 -0.11029052734375 -1.03857421875
11784425000.0 -0.72955322265625 -0.8077392578125
11815646875.0 -1.105224609375 -0.14556884765625
11846868750.0 -0.891204833984375 0.556304931640625
11878090625.0 -0.388275146484375 0.91204833984375
11909312500.0 0.19219970703125 0.985931396484375
11940534375.0 0.78546142578125 0.69281005859375
11971756250.0 1.02642822265625 0.03546142578125
12002978125.0 0.80596923828125 -0.541961669921875
12034200000.0 0.37884521484375 -0.89337158203125
12065421875.0 -0.2227783203125 -1.0125732421875
12096643750.0 -0.852386474609375 -0.66241455078125
12127865625.0 -1.03570556640625 0.022216796875
12159087500.0 -0.81439208984375 0.58050537109375
12190309375.0 -0.3746337890625 0.98052978515625
12221531250.0 0.34552001953125 1.08880615234375
12252753125.0 0.986114501953125 0.5767822265625
12283975000.0 1.0546875 -0.13165283203125
12315196875.0 0.79901123046875 -0.68048095703125
12346418750.0 0.27630615234375 -1.09527587890625
12377640625.0 -0.54345703125 -1.05963134765625
12408862500.0 -1.03564453125 -0.41656494140625
12440084375.0 -1.00885009765625 0.2286376953125
12471306250.0 -0.741668701171875 0.741546630859375
12502528125.0 -0.17535400390625 1.1243896484375
12533750000.0 0.6278076171875 0.993743896484375
12564971875.0 1.0455322265625 0.35968017578125
12596193750.0 1.0306396484375 -0.26934814453125
12627415625.0 0.74658203125 -0.835052490234375
12658637500.0 0.07525634765625 -1.210693359375
12689859375.0 -0.742919921875 -0.96453857421875
12721081250.0 -1.12115478515625 -0.30108642578125
12752303125.0 -1.09930419921875 0.38873291015625
12783525000.0 -0.68414306640625 1.03521728515625
12814746875.0 0.17340087890625 1.25421142578125
12845968750.0 0.86688232421875 0.808074951171875
12877190625.0 1.12139892578125 0.16680908203125
12908412500.0 1.05694580078125 -0.5086669921875
12939634375.0 0.5364990234375 -1.126220703125
12970856250.0 -0.3277587890625 -1.175048828125
13002078125.0 -0.899200439453125 -0.690460205078125
13033300000.0 -1.1104736328125 -0.08197021484375
13064521875.0 -1.0096435546875 0.60015869140625
13095743750.0 -0.41448974609375 1.16107177734375
13126965625.0 0.41650390625 1.120849609375
13158187500.0 0.952545166015625 0.6285400390625
13189409375.0 1.15252685546875 -0.02703857421875
13220631250.0 0.934814453125 -0.7574462890625
13251853125.0 0.22802734375 -1.17645263671875
13283075000.0 -0.5140380859375 -1.0198974609375
13314296875.0 -0.994659423828125 -0.5255126953125
13345518750.0 -1.13690185546875 0.182861328125
