!Created with skrf (http://scikit-rf.org).
# Hz S RI R 50.0 
!freq ReS11 ImS11
45000000.0 -0.07728195190429688 -0.09702682495117188
76221875.0 -0.19818115234375 -0.04720306396484375
107443750.0 -0.2566986083984375 0.121551513671875
138665625.0 -0.1483917236328125 0.33160400390625
169887500.0 0.125213623046875 0.4203948974609375
201109375.0 0.425537109375 0.2825469970703125
232331250.0 0.58306884765625 -0.05926513671875
263553125.0 0.4922637939453125 -0.457916259765625
294775000.0 0.097137451171875 -0.739044189453125
325996875.0 -0.421051025390625 -0.685577392578125
357218750.0 -0.81488037109375 -0.2979736328125
388440625.0 -0.892669677734375 0.305908203125
419662500.0 -0.519561767578125 0.87506103515625
450884375.0 0.1763916015625 1.037109375
482106250.0 0.806915283203125 0.717132568359375
513328125.0 1.1287841796875 0.0853271484375
544550000.0 1.00946044921875 -0.68756103515625
575771875.0 0.33612060546875 -1.24786376953125
606993750.0 -0.56005859375 -1.18499755859375
638215625.0 -1.1763916015625 -0.59246826171875
669437500.0 -1.34954833984375 0.23883056640625
700659375.0 -0.97528076171875 1.10662841796875
731881250.0 -0.000732421875 1.554443359375
763103125.0 1.01556396484375 1.16302490234375
794325000.0 1.4810791015625 0.28057861328125
825546875.0 1.3760986328125 -0.65948486328125
856768750.0 0.79656982421875 -1.4156494140625
887990625.0 -0.30029296875 -1.66192626953125
919212500.0 -1.3035888671875 -1.0849609375
950434375.0 -1.6646728515625 -0.0537109375
981656250.0 -1.392333984375 0.95965576171875
1012878125.0 -0.5294189453125 1.689697265625
1044100000.0 0.709228515625 1.67620849609375
1075321875.0 1.593017578125 0.81488037109375
1106543750.0 1.72015380859375 -0.32080078125
1137765625.0 1.19366455078125 -1.30010986328125
1168987500.0 0.13446044921875 -1.814453125
1200209375.0 -1.0760498046875 -1.49481201171875
1231431250.0 -1.7447509765625 -0.4517822265625
1262653125.0 -1.6064453125 0.69586181640625
1293875000.0 -0.855712890625 1.507080078125
1325096875.0 0.23406982421875 1.72210693359375
1356318750.0 1.2501220703125 1.22491455078125
1387540625.0 1.75634765625 0.18548583984375
1418762500.0 1.47967529296875 -0.96392822265625
1449984375.0 0.52923583984375 -1.64154052734375
1481206250.0 -0.55926513671875 -1.5677490234375
1512428125.0 -1.3564453125 -0.92303466796875
1543650000.0 -1.66943359375 0.07159423828125
1574871875.0 -1.28033447265625 1.12225341796875
1606093750.0 -0.27008056640625 1.64630126953125
1637315625.0 0.7528076171875 1.4100341796875
1668537500.0 1.4100341796875 0.697265625
1699759375.0 1.58563232421875 -0.283935546875
1730981250.0 1.06939697265625 -1.242919921875
1762203125.0 0.0377197265625 -1.58367919921875
1793425000.0 -0.8673095703125 -1.23388671875
1824646875.0 -1.40655517578125 -0.5150146484375
1855868750.0 -1.48486328125 0.4407958984375
1887090625.0 -0.87774658203125 1.298828125
1918312500.0 0.1234130859375 1.4986572265625
1949534375.0 0.93280029296875 1.0948486328125
1980756250.0 1.38739013671875 0.36859130859375
2011978125.0 1.36920166015625 -0.53955078125
2043200000.0 0.7523193359375 -1.27386474609375
2074421875.0 -0.162109375 -1.44427490234375
2105643750.0 -0.97222900390625 -1.07757568359375
2136865625.0 -1.459716796875 -0.30218505859375
2168087500.0 -1.3658447265625 0.68096923828125
2199309375.0 -0.639404296875 1.36431884765625
2230531250.0 0.28900146484375 1.4473876953125
2261753125.0 1.08514404296875 1.01812744140625
2292975000.0 1.527099609375 0.16632080078125
2324196875.0 1.31280517578125 -0.83013916015625
2355418750.0 0.5238037109375 -1.43280029296875
2386640625.0 -0.41339111328125 -1.4586181640625
2417862500.0 -1.1961669921875 -1.02752685546875
2449084375.0 -1.619140625 -0.0770263671875
2480306250.0 -1.31854248046875 0.9388427734375
2511528125.0 -0.49163818359375 1.524658203125
2542750000.0 0.4993896484375 1.5479736328125
2573971875.0 1.38836669921875 0.9710693359375
2605193750.0 1.73272705078125 -0.120849609375
2636415625.0 1.2679443359375 -1.1688232421875
2667637500.0 0.30194091796875 -1.68377685546875
2698859375.0 -0.78436279296875 -1.54620361328125
2730081250.0 -1.5914306640625 -0.740478515625
2761303125.0 -1.6951904296875 0.39892578125
2792525000.0 -1.104248046875 1.3238525390625
2823746875.0 -0.095947265625 1.74688720703125
2854968750.0 1.02874755859375 1.465087890625
2886190625.0 1.71160888671875 0.48846435546875
2917412500.0 1.612548828125 -0.630615234375
2948634375.0 0.9417724609375 -1.45135498046875
2979856250.0 -0.11639404296875 -1.79144287109375
3011078125.0 -1.26611328125 -1.34832763671875
3042300000.0 -1.7926025390625 -0.22802734375
3073521875.0 -1.51898193359375 0.852783203125
3104743750.0 -0.76312255859375 1.58770751953125
3135965625.0 0.37310791015625 1.82379150390625
3167187500.0 1.51953125 1.1683349609375
3198409375.0 1.83209228515625 -0.08367919921875
3229631250.0 1.35711669921875 -1.09765625
3260853125.0 0.48638916015625 -1.6875
3292075000.0 -0.66790771484375 -1.71197509765625
3323296875.0 -1.639404296875 -0.8807373046875
3354518750.0 -1.74615478515625 0.3397216796875
3385740625.0 -1.16156005859375 1.248291015625
3416962500.0 -0.2254638671875 1.6988525390625
3448184375.0 0.875732421875 1.53228759765625
3479406250.0 1.65325927734375 0.642822265625
3510628125.0 1.656982421875 -0.5079345703125
3541850000.0 1.00286865234375 -1.3709716796875
3573071875.0 -0.01617431640625 -1.69769287109375
3604293750.0 -1.04296875 -1.34405517578125
3635515625.0 -1.64447021484375 -0.43450927734375
3666737500.0 -1.57275390625 0.6595458984375
3697959375.0 -0.82562255859375 1.4921875
3729181250.0 0.27850341796875 1.64422607421875
3760403125.0 1.1669921875 1.1026611328125
3791625000.0 1.566162109375 0.21429443359375
3822846875.0 1.41180419921875 -0.77301025390625
3854068750.0 0.6201171875 -1.49798583984375
3885290625.0 -0.43133544921875 -1.49273681640625
3916512500.0 -1.15753173828125 -0.91363525390625
3947734375.0 -1.46258544921875 -0.1131591796875
3978956250.0 -1.30615234375 0.79339599609375
4010178125.0 -0.5272216796875 1.4722900390625
4041400000.0 0.4854736328125 1.4248046875
4072621875.0 1.1669921875 0.84820556640625
4103843750.0 1.45709228515625 0.0557861328125
4135065625.0 1.27410888671875 -0.8603515625
4166287500.0 0.45257568359375 -1.51123046875
4197509375.0 -0.57122802734375 -1.4227294921875
4228731250.0 -1.2615966796875 -0.80126953125
4259953125.0 -1.5208740234375 0.07904052734375
4291175000.0 -1.1929931640625 1.0245361328125
4322396875.0 -0.283935546875 1.5404052734375
4353618750.0 0.6861572265625 1.3582763671875
4384840625.0 1.33843994140625 0.69622802734375
4416062500.0 1.51263427734375 -0.2371826171875
4447284375.0 1.05828857421875 -1.1192626953125
4478506250.0 0.166015625 -1.5081787109375
4509728125.0 -0.7471923828125 -1.3150634765625
4540950000.0 -1.40966796875 -0.63330078125
4572171875.0 -1.53271484375 0.3720703125
4603393750.0 -0.97247314453125 1.22802734375
4634615625.0 -0.05279541015625 1.549560546875
4665837500.0 0.8851318359375 1.3101806640625
4697059375.0 1.55755615234375 0.51031494140625
4728281250.0 1.537353515625 -0.596435546875
4759503125.0 0.82098388671875 -1.382080078125
4790725000.0 -0.15631103515625 -1.58441162109375
4821946875.0 -1.09881591796875 -1.197021484375
4853168750.0 -1.62860107421875 -0.24371337890625
4884390625.0 -1.3843994140625 0.80670166015625
4915612500.0 -0.6104736328125 1.4273681640625
4946834375.0 0.33953857421875 1.5205078125
4978056250.0 1.22137451171875 1.01910400390625
5009278125.0 1.57476806640625 0.031494140625
5040500000.0 1.234375 -0.8916015625
5071721875.0 0.4970703125 -1.43084716796875
5102943750.0 -0.458251953125 -1.5067138671875
5134165625.0 -1.3536376953125 -0.90411376953125
5165387500.0 -1.57989501953125 0.15789794921875
5196609375.0 -1.1385498046875 1.02490234375
5227831250.0 -0.35076904296875 1.52081298828125
5259053125.0 0.704345703125 1.5009765625
5290275000.0 1.5380859375 0.65753173828125
5321496875.0 1.500244140625 -0.44329833984375
5352718750.0 0.92144775390625 -1.16754150390625
5383940625.0 0.08935546875 -1.5128173828125
5415162500.0 -0.9146728515625 -1.2896728515625
5446384375.0 -1.49871826171875 -0.36517333984375
5477606250.0 -1.306884765625 0.57891845703125
5508828125.0 -0.7308349609375 1.1658935546875
5540050000.0 0.06231689453125 1.41094970703125
5571271875.0 0.9542236328125 1.113037109375
5602493750.0 1.422119140625 0.25341796875
5633715625.0 1.23919677734375 -0.6260986328125
5664937500.0 0.6448974609375 -1.217041015625
5696159375.0 -0.20855712890625 -1.393798828125
5727381250.0 -1.037353515625 -0.97894287109375
5758603125.0 -1.4033203125 -0.13641357421875
5789825000.0 -1.19927978515625 0.73199462890625
5821046875.0 -0.50067138671875 1.32232666015625
5852268750.0 0.42364501953125 1.3199462890625
5883490625.0 1.083740234375 0.77069091796875
5914712500.0 1.31353759765625 0.01141357421875
5945934375.0 1.100830078125 -0.78948974609375
5977156250.0 0.3551025390625 -1.3260498046875
6008378125.0 -0.52239990234375 -1.18853759765625
6039600000.0 -1.03424072265625 -0.6473388671875
6070821875.0 -1.23504638671875 0.00372314453125
6102043750.0 -1.08807373046875 0.77740478515625
6133265625.0 -0.3350830078125 1.35845947265625
6164487500.0 0.57745361328125 1.1927490234375
6195709375.0 1.0841064453125 0.62786865234375
6226931250.0 1.2908935546875 -0.0518798828125
6258153125.0 1.1075439453125 -0.8878173828125
6289375000.0 0.24560546875 -1.45989990234375
6320596875.0 -0.7049560546875 -1.2091064453125
6351818750.0 -1.21282958984375 -0.56732177734375
6383040625.0 -1.36309814453125 0.21826171875
6414262500.0 -0.99945068359375 1.0721435546875
6445484375.0 -0.0675048828125 1.46868896484375
6476706250.0 0.8096923828125 1.1500244140625
6507928125.0 1.30267333984375 0.4649658203125
6539150000.0 1.3555908203125 -0.398193359375
6570371875.0 0.8399658203125 -1.15771484375
6601593750.0 -0.027099609375 -1.41546630859375
6632815625.0 -0.85400390625 -1.13995361328125
6664037500.0 -1.4166259765625 -0.41290283203125
6695259375.0 -1.38055419921875 0.58074951171875
6726481250.0 -0.70611572265625 1.2666015625
6757703125.0 0.14227294921875 1.417236328125
6788925000.0 0.97137451171875 1.133056640625
6820146875.0 1.57623291015625 0.277099609375
6851368750.0 1.3287353515625 -0.8355712890625
6882590625.0 0.4993896484375 -1.3516845703125
6913812500.0 -0.30364990234375 -1.3641357421875
6945034375.0 -1.08587646484375 -1.022216796875
6976256250.0 -1.60589599609375 -0.0814208984375
7007478125.0 -1.239990234375 0.94805908203125
7038700000.0 -0.3955078125 1.360107421875
7069921875.0 0.369873046875 1.33294677734375
7101143750.0 1.13800048828125 0.970947265625
7132365625.0 1.6146240234375 0.00213623046875
7163587500.0 1.15997314453125 -1.0379638671875
7194809375.0 0.2945556640625 -1.41265869140625
7226031250.0 -0.527099609375 -1.33544921875
7257253125.0 -1.2862548828125 -0.8216552734375
7288475000.0 -1.56988525390625 0.21209716796875
7319696875.0 -1.030029296875 1.12762451171875
7350918750.0 -0.15277099609375 1.46051025390625
7382140625.0 0.73284912109375 1.28265380859375
7413362500.0 1.39422607421875 0.56976318359375
7444584375.0 1.41986083984375 -0.42156982421875
7475806250.0 0.8570556640625 -1.1593017578125
7507028125.0 -0.00469970703125 -1.44232177734375
7538250000.0 -0.90472412109375 -1.12640380859375
7569471875.0 -1.34967041015625 -0.30328369140625
7600693750.0 -1.20880126953125 0.5098876953125
7631915625.0 -0.71563720703125 1.099365234375
7663137500.0 0.08917236328125 1.37091064453125
7694359375.0 0.95513916015625 0.983306884765625
7725581250.0 1.2576904296875 0.1734619140625
7756803125.0 1.09063720703125 -0.510986328125
7788025000.0 0.669677734375 -1.059814453125
7819246875.0 -0.13330078125 -1.359619140625
7850468750.0 -1.011962890625 -0.91558837890625
7881690625.0 -1.24493408203125 -0.0947265625
7912912500.0 -1.060546875 0.5675048828125
7944134375.0 -0.60052490234375 1.130126953125
7975356250.0 0.2847900390625 1.3438720703125
8006578125.0 1.06195068359375 0.77508544921875
8037800000.0 1.2032470703125 0.0068359375
8069021875.0 1.01019287109375 -0.6307373046875
8100243750.0 0.494873046875 -1.1751708984375
8131465625.0 -0.40087890625 -1.26123046875
8162687500.0 -1.04583740234375 -0.6842041015625
8193909375.0 -1.190673828125 0.0179443359375
8225131250.0 -1.02301025390625 0.69415283203125
8256353125.0 -0.41534423828125 1.2647705078125
8287575000.0 0.51556396484375 1.233154296875
8318796875.0 1.0985107421875 0.6318359375
8350018750.0 1.2572021484375 -0.0867919921875
8381240625.0 1.034912109375 -0.85809326171875
8412462500.0 0.2440185546875 -1.38818359375
8443684375.0 -0.68719482421875 -1.17376708984375
8474906250.0 -1.19049072265625 -0.5252685546875
8506128125.0 -1.30645751953125 0.24847412109375
8537350000.0 -0.9222412109375 1.06317138671875
8568571875.0 -0.00396728515625 1.4052734375
8599793750.0 0.8148193359375 1.05389404296875
8631015625.0 1.25506591796875 0.3919677734375
8662237500.0 1.2945556640625 -0.444091796875
8693459375.0 0.73345947265625 -1.19427490234375
8724681250.0 -0.17315673828125 -1.34161376953125
8755903125.0 -0.8941650390625 -0.960205078125
8787125000.0 -1.31939697265625 -0.2742919921875
8818346875.0 -1.25897216796875 0.63311767578125
8849568750.0 -0.55194091796875 1.278564453125
8880790625.0 0.31195068359375 1.2955322265625
8912012500.0 0.99859619140625 0.893096923828125
8943234375.0 1.4173583984375 0.11688232421875
8974456250.0 1.16827392578125 -0.86126708984375
9005678125.0 0.33660888671875 -1.3292236328125
9036900000.0 -0.4613037109375 -1.23095703125
9068121875.0 -1.118896484375 -0.78143310546875
9099343750.0 -1.45281982421875 0.11419677734375
9130565625.0 -0.9761962890625 1.02764892578125
9161787500.0 -0.14373779296875 1.29473876953125
9193009375.0 0.56817626953125 1.13824462890625
9224231250.0 1.19500732421875 0.65216064453125
9255453125.0 1.40966796875 -0.31072998046875
9286675000.0 0.8048095703125 -1.100830078125
9317896875.0 0.0174560546875 -1.25885009765625
9349118750.0 -0.670654296875 -1.07574462890625
9380340625.0 -1.27728271484375 -0.50396728515625
9411562500.0 -1.321044921875 0.497314453125
9442784375.0 -0.64263916015625 1.1337890625
9474006250.0 0.10125732421875 1.22247314453125
9505228125.0 0.782745361328125 0.982421875
9536450000.0 1.29290771484375 0.3009033203125
9567671875.0 1.14715576171875 -0.59814453125
9598893750.0 0.52325439453125 -1.0830078125
9630115625.0 -0.15557861328125 -1.166015625
9661337500.0 -0.83428955078125 -0.9013671875
9692559375.0 -1.25115966796875 -0.17822265625
9723781250.0 -1.04522705078125 0.61798095703125
9755003125.0 -0.4805908203125 1.06365966796875
9786225000.0 0.2108154296875 1.1683349609375
9817446875.0 0.912811279296875 0.827056884765625
9848668750.0 1.20941162109375 0.06719970703125
9879890625.0 0.970916748046875 -0.62982177734375
9911112500.0 0.4468994140625 -1.0673828125
9942334375.0 -0.28271484375 -1.16876220703125
9973556250.0 -0.963470458984375 -0.7340087890625
10004778125.0 -1.1580810546875 -0.00408935546875
10036000000.0 -0.9461669921875 0.63262939453125
10067221875.0 -0.4337158203125 1.1121826171875
10098443750.0 0.3883056640625 1.18841552734375
10129665625.0 1.020263671875 0.63531494140625
10160887500.0 1.1275634765625 -0.06317138671875
10192109375.0 0.91802978515625 -0.67803955078125
10223331250.0 0.3507080078125 -1.1671142578125
10254553125.0 -0.50146484375 -1.1158447265625
10285775000.0 -0.99755859375 -0.528717041015625
10316996875.0 -1.0736083984375 0.087158203125
10348218750.0 -0.9010009765625 0.68310546875
10379440625.0 -0.31280517578125 1.19049072265625
10410662500.0 0.5423583984375 1.09002685546875
10441884375.0 1.005859375 0.51641845703125
10473106250.0 1.1185302734375 -0.09423828125
10504328125.0 0.9515380859375 -0.774444580078125
10535550000.0 0.2261962890625 -1.3116455078125
10566771875.0 -0.6751708984375 -1.0782470703125
10597993750.0 -1.09429931640625 -0.450439453125
10629215625.0 -1.18365478515625 0.21875
10660437500.0 -0.88568115234375 0.97265625
10691659375.0 0.00677490234375 1.3465576171875
10722881250.0 0.80133056640625 0.950286865234375
10754103125.0 1.1322021484375 0.3154296875
10785325000.0 1.1456298828125 -0.38201904296875
10816546875.0 0.69512939453125 -1.0677490234375
10847768750.0 -0.15936279296875 -1.2376708984375
10878990625.0 -0.819091796875 -0.842620849609375
10910212500.0 -1.13446044921875 -0.23681640625
10941434375.0 -1.1041259765625 0.49151611328125
10972656250.0 -0.56219482421875 1.10174560546875
11003878125.0 0.232666015625 1.18328857421875
11035100000.0 0.86370849609375 0.821929931640625
11066321875.0 1.2342529296875 0.16363525390625
11097543750.0 1.10198974609375 -0.695068359375
11128765625.0 0.3775634765625 -1.21331787109375
11159987500.0 -0.41156005859375 -1.14532470703125
11191209375.0 -1.01611328125 -0.69866943359375
11222431250.0 -1.2823486328125 0.10845947265625
11253653125.0 -0.855255126953125 0.9119873046875
11284875000.0 -0.10498046875 1.13665771484375
11316096875.0 0.526092529296875 0.960113525390625
11347318750.0 1.0169677734375 0.496826171875
11378540625.0 1.1240234375 -0.28399658203125
11409762500.0 0.63079833984375 -0.87127685546875
11440984375.0 0.0267333984375 -0.98663330078125
11472206250.0 -0.49298095703125 -0.85369873046875
11503428125.0 -0.967559814453125 -0.450836181640625
11534650000.0 -1.075439453125 0.30194091796875
11565871875.0 -0.597869873046875 0.867645263671875
11597093750.0 -0.00958251953125 1.00042724609375
11628315625.0 0.560333251953125 0.879425048828125
11659537500.0 1.07623291015625 0.38470458984375
11690759375.0 1.068603515625 -0.4498291015625
11721981250.0 0.510589599609375 -0.953887939453125
11753203125.0 -0.11773681640625 -1.0447998046875
11784425000.0 -0.74005126953125 -0.8076171875
11815646875.0 -1.1129150390625 -0.13983154296875
11846868750.0 -0.89227294921875 0.565032958984375
11878090625.0 -0.385345458984375 0.919525146484375
11909312500.0 0.19921875 0.991729736328125
11940534375.0 0.796478271484375 0.69256591796875
11971756250.0 1.03369140625 0.02825927734375
12002978125.0 0.806884765625 -0.551361083984375
12034200000.0 0.376190185546875 -0.90069580078125
12065421875.0 -0.2296142578125 -1.01751708984375
12096643750.0 -0.863494873046875 -0.660980224609375
12127865625.0 -1.04168701171875 0.0294189453125
12159087500.0 -0.815826416015625 0.5885009765625
12190309375.0 -0.3707275390625 0.987548828125
12221531250.0 0.355224609375 1.09442138671875
12252753125.0 0.996185302734375 0.57318115234375
12283975000.0 1.06109619140625 -0.14007568359375
12315196875.0 0.800048828125 -0.69097900390625
12346418750.0 0.2730712890625 -1.10284423828125
12377640625.0 -0.5570068359375 -1.06304931640625
12408862500.0 -1.04736328125 -0.40911865234375
12440084375.0 -1.01318359375 0.23779296875
12471306250.0 -0.740966796875 0.75177001953125
12502528125.0 -0.16925048828125 1.13299560546875
12533750000.0 0.63604736328125 0.994598388671875
12564971875.0 1.05328369140625 0.355224609375
12596193750.0 1.03546142578125 -0.2767333984375
12627415625.0 0.74737548828125 -0.845428466796875
12658637500.0 0.06689453125 -1.22125244140625
12689859375.0 -0.753387451171875 -0.965576171875
12721081250.0 -1.130859375 -0.29522705078125
12752303125.0 -1.10400390625 0.39971923828125
12783525000.0 -0.68060302734375 1.04913330078125
12814746875.0 0.18341064453125 1.25933837890625
12845968750.0 0.880462646484375 0.80694580078125
12877190625.0 1.13006591796875 0.16015625
12908412500.0 1.061279296875 -0.52142333984375
12939634375.0 0.5322265625 -1.13458251953125
12970856250.0 -0.33856201171875 -1.17962646484375
13002078125.0 -0.90692138671875 -0.688751220703125
13033300000.0 -1.11785888671875 -0.0751953125
13064521875.0 -1.011962890625 0.61138916015625
13095743750.0 -0.4095458984375 1.17120361328125
13126965625.0 0.4251708984375 1.1241455078125
13158187500.0 0.961639404296875 0.626678466796875
13189409375.0 1.1590576171875 -0.03375244140625
13220631250.0 0.93603515625 -0.767425537109375
13251853125.0 0.22064208984375 -1.1866455078125
13283075000.0 -0.52667236328125 -1.02239990234375
13314296875.0 -1.00439453125 -0.52166748046875
13345518750.0 -1.144775390625 0.194580078125
13376740625.0 -0.74749755859375 0.875396728515625
