!Created with skrf (http://scikit-rf.org).
# Hz S RI R 50.0 
!freq ReS11 ImS11
45000000.0 -0.07688140869140625 -0.09685516357421875
76221875.0 -0.196258544921875 -0.0477752685546875
107443750.0 -0.25494384765625 0.119232177734375
138665625.0 -0.1485748291015625 0.32818603515625
169887500.0 0.123046875 0.4174346923828125
201109375.0 0.421356201171875 0.2813262939453125
232331250.0 0.57861328125 -0.057098388671875
263553125.0 0.4895782470703125 -0.452117919921875
294775000.0 0.09912109375 -0.73175048828125
325996875.0 -0.41455078125 -0.6805419921875
357218750.0 -0.805419921875 -0.29742431640625
388440625.0 -0.88519287109375 0.299560546875
419662500.0 -0.517578125 0.865020751953125
450884375.0 0.17193603515625 1.028076171875
482106250.0 0.797332763671875 0.712890625
513328125.0 1.118408203125 0.0882568359375
544550000.0 1.00341796875 -0.678466796875
575771875.0 0.33721923828125 -1.2369384765625
606993750.0 -0.5523681640625 -1.177001953125
638215625.0 -1.16448974609375 -0.59088134765625
669437500.0 -1.339111328125 0.23223876953125
700659375.0 -0.97088623046875 1.09454345703125
731881250.0 -0.00506591796875 1.541748046875
763103125.0 1.00390625 1.15582275390625
794325000.0 1.46728515625 0.28277587890625
825546875.0 1.3665771484375 -0.64959716796875
856768750.0 0.7950439453125 -1.39813232421875
887990625.0 -0.29058837890625 -1.64715576171875
919212500.0 -1.285888671875 -1.07867431640625
950434375.0 -1.64654541015625 -0.0604248046875
981656250.0 -1.38189697265625 0.943603515625
1012878125.0 -0.53082275390625 1.66876220703125
1044100000.0 0.694091796875 1.66033935546875
1075321875.0 1.5716552734375 0.8123779296875
1106543750.0 1.7032470703125 -0.31109619140625
1137765625.0 1.18670654296875 -1.28192138671875
1168987500.0 0.13983154296875 -1.7947998046875
1200209375.0 -1.05902099609375 -1.4827880859375
1231431250.0 -1.72467041015625 -0.4544677734375
1262653125.0 -1.59283447265625 0.68206787109375
1293875000.0 -0.852294921875 1.4891357421875
1325096875.0 0.2261962890625 1.70452880859375
1356318750.0 1.2330322265625 1.21612548828125
1387540625.0 1.7376708984375 0.19012451171875
1418762500.0 1.46807861328125 -0.949462890625
1449984375.0 0.52996826171875 -1.62322998046875
1481206250.0 -0.54779052734375 -1.5543212890625
1512428125.0 -1.3394775390625 -0.9197998046875
1543650000.0 -1.65362548828125 0.06365966796875
1574871875.0 -1.27301025390625 1.1063232421875
1606093750.0 -0.27392578125 1.62908935546875
1637315625.0 0.7398681640625 1.3992919921875
1668537500.0 1.39361572265625 0.6964111328125
1699759375.0 1.5716552734375 -0.2755126953125
1730981250.0 1.06378173828125 -1.22735595703125
1762203125.0 0.04345703125 -1.56890869140625
1793425000.0 -0.85418701171875 -1.22576904296875
1824646875.0 -1.39129638671875 -0.51593017578125
1855868750.0 -1.47265625 0.43060302734375
1887090625.0 -0.874755859375 1.28289794921875
1918312500.0 0.11614990234375 1.48492431640625
1949534375.0 0.91925048828125 1.08831787109375
1980756250.0 1.3729248046875 0.37066650390625
2011978125.0 1.3582763671875 -0.53021240234375
2043200000.0 0.75042724609375 -1.259521484375
2074421875.0 -0.1552734375 -1.431640625
2105643750.0 -0.95831298828125 -1.0718994140625
2136865625.0 -1.44537353515625 -0.3056640625
2168087500.0 -1.35601806640625 0.6693115234375
2199309375.0 -0.6392822265625 1.349365234375
2230531250.0 0.2806396484375 1.43475341796875
2261753125.0 1.07080078125 1.0135498046875
2292975000.0 1.5123291015625 0.17132568359375
2324196875.0 1.3045654296875 -0.81689453125
2355418750.0 0.52557373046875 -1.41778564453125
2386640625.0 -0.4027099609375 -1.44757080078125
2417862500.0 -1.1778564453125 -1.02325439453125
2449084375.0 -1.60198974609375 -0.085693359375
2480306250.0 -1.31036376953125 0.92205810546875
2511528125.0 -0.4945068359375 1.50494384765625
2542750000.0 0.4874267578125 1.53509521484375
2573971875.0 1.36834716796875 0.96771240234375
2605193750.0 1.71502685546875 -0.11102294921875
2636415625.0 1.26055908203125 -1.14971923828125
2667637500.0 0.3077392578125 -1.663818359375
2698859375.0 -0.767578125 -1.5322265625
2730081250.0 -1.57012939453125 -0.74090576171875
2761303125.0 -1.6788330078125 0.38604736328125
2792525000.0 -1.0987548828125 1.30279541015625
2823746875.0 -0.10400390625 1.7266845703125
2854968750.0 1.00946044921875 1.45367431640625
2886190625.0 1.68878173828125 0.49249267578125
2917412500.0 1.59771728515625 -0.614501953125
2948634375.0 0.93890380859375 -1.4296875
2979856250.0 -0.10595703125 -1.77374267578125
3011078125.0 -1.24468994140625 -1.34124755859375
3042300000.0 -1.77197265625 -0.23553466796875
3073521875.0 -1.5074462890625 0.8363037109375
3104743750.0 -0.76348876953125 1.56396484375
3135965625.0 0.359375 1.805908203125
3167187500.0 1.495849609375 1.1640625
3198409375.0 1.812255859375 -0.07342529296875
3229631250.0 1.3475341796875 -1.07830810546875
3260853125.0 0.4910888671875 -1.66265869140625
3292075000.0 -0.6510009765625 -1.694580078125
3323296875.0 -1.616455078125 -0.87957763671875
3354518750.0 -1.727783203125 0.326171875
3385740625.0 -1.1553955078125 1.22930908203125
3416962500.0 -0.23150634765625 1.67913818359375
3448184375.0 0.858154296875 1.5203857421875
3479406250.0 1.6337890625 0.644287109375
3510628125.0 1.641357421875 -0.4925537109375
3541850000.0 0.99969482421875 -1.3507080078125
3573071875.0 -0.00567626953125 -1.678466796875
3604293750.0 -1.02398681640625 -1.33599853515625
3635515625.0 -1.625 -0.43927001953125
3666737500.0 -1.559814453125 0.64404296875
3697959375.0 -0.82537841796875 1.47186279296875
3729181250.0 0.265380859375 1.6278076171875
3760403125.0 1.150146484375 1.0972900390625
3791625000.0 1.54974365234375 0.218994140625
3822846875.0 1.39990234375 -0.75836181640625
3854068750.0 0.6207275390625 -1.478271484375
3885290625.0 -0.41845703125 -1.478759765625
3916512500.0 -1.13885498046875 -0.91119384765625
3947734375.0 -1.4456787109375 -0.12030029296875
3978956250.0 -1.296142578125 0.77587890625
4010178125.0 -0.53192138671875 1.451416015625
4041400000.0 0.47210693359375 1.41375732421875
4072621875.0 1.1492919921875 0.8475341796875
4103843750.0 1.4425048828125 0.0648193359375
4135065625.0 1.26641845703125 -0.843505859375
4166287500.0 0.45794677734375 -1.49334716796875
4197509375.0 -0.5557861328125 -1.413330078125
4228731250.0 -1.2449951171875 -0.80316162109375
4259953125.0 -1.5067138671875 0.06927490234375
4291175000.0 -1.1873779296875 1.0068359375
4322396875.0 -0.29052734375 1.5234375
4353618750.0 0.671142578125 1.34857177734375
4384840625.0 1.3192138671875 0.6973876953125
4416062500.0 1.498046875 -0.2254638671875
4447284375.0 1.05462646484375 -1.1014404296875
4478506250.0 0.17388916015625 -1.49261474609375
4509728125.0 -0.730712890625 -1.30670166015625
4540950000.0 -1.39056396484375 -0.63616943359375
4572171875.0 -1.520263671875 0.357666015625
4603393750.0 -0.97198486328125 1.2109375
4634615625.0 -0.0623779296875 1.5343017578125
4665837500.0 0.86798095703125 1.30291748046875
4697059375.0 1.5386962890625 0.515625
4728281250.0 1.5263671875 -0.57977294921875
4759503125.0 0.82342529296875 -1.363037109375
4790725000.0 -0.144287109375 -1.570556640625
4821946875.0 -1.08038330078125 -1.19305419921875
4853168750.0 -1.6116943359375 -0.2515869140625
4884390625.0 -1.3765869140625 0.79046630859375
4915612500.0 -0.61383056640625 1.4095458984375
4946834375.0 0.32684326171875 1.507080078125
4978056250.0 1.2022705078125 1.01678466796875
5009278125.0 1.5596923828125 0.04071044921875
5040500000.0 1.228271484375 -0.8739013671875
5071721875.0 0.501708984375 -1.41259765625
5102943750.0 -0.44476318359375 -1.4952392578125
5134165625.0 -1.33349609375 -0.90472412109375
5165387500.0 -1.5653076171875 0.14385986328125
5196609375.0 -1.13525390625 1.00701904296875
5227831250.0 -0.3577880859375 1.50433349609375
5259053125.0 0.6851806640625 1.49053955078125
5290275000.0 1.51959228515625 0.6630859375
5321496875.0 1.49017333984375 -0.4283447265625
5352718750.0 0.9205322265625 -1.15087890625
5383940625.0 0.0975341796875 -1.49859619140625
5415162500.0 -0.89837646484375 -1.282958984375
5446384375.0 -1.482666015625 -0.37103271484375
5477606250.0 -1.2974853515625 0.563232421875
5508828125.0 -0.731201171875 1.14801025390625
5540050000.0 0.052490234375 1.39678955078125
5571271875.0 0.93505859375 1.10772705078125
5602493750.0 1.406982421875 0.26055908203125
5633715625.0 1.23114013671875 -0.610595703125
5664937500.0 0.64794921875 -1.20074462890625
5696159375.0 -0.19573974609375 -1.3819580078125
5727381250.0 -1.02008056640625 -0.9779052734375
5758603125.0 -1.3897705078125 -0.1456298828125
5789825000.0 -1.1934814453125 0.7164306640625
5821046875.0 -0.50628662109375 1.30584716796875
5852268750.0 0.4100341796875 1.3115234375
5883490625.0 1.069580078125 0.7716064453125
5914712500.0 1.30029296875 0.02069091796875
5945934375.0 1.09576416015625 -0.774169921875
5977156250.0 0.36151123046875 -1.3106689453125
6008378125.0 -0.50750732421875 -1.1812744140625
6039600000.0 -1.02044677734375 -0.64910888671875
6070821875.0 -1.22308349609375 -0.00506591796875
6102043750.0 -1.08270263671875 0.76116943359375
6133265625.0 -0.34246826171875 1.34307861328125
6164487500.0 0.56256103515625 1.18682861328125
6195709375.0 1.06842041015625 0.630126953125
6226931250.0 1.2777099609375 -0.04156494140625
6258153125.0 1.1033935546875 -0.86962890625
6289375000.0 0.2568359375 -1.4437255859375
6320596875.0 -0.6873779296875 -1.20452880859375
6351818750.0 -1.1983642578125 -0.57177734375
6383040625.0 -1.3525390625 0.20538330078125
6414262500.0 -0.99908447265625 1.0555419921875
6445484375.0 -0.0799560546875 1.4544677734375
6476706250.0 0.79425048828125 1.147705078125
6507928125.0 1.28839111328125 0.47039794921875
6539150000.0 1.34503173828125 -0.38336181640625
6570371875.0 0.84033203125 -1.1424560546875
6601593750.0 -0.01666259765625 -1.40380859375
6632815625.0 -0.83795166015625 -1.13568115234375
6664037500.0 -1.39959716796875 -0.4207763671875
6695259375.0 -1.37249755859375 0.5645751953125
6726481250.0 -0.71044921875 1.2491455078125
6757703125.0 0.1307373046875 1.40631103515625
6788925000.0 0.954345703125 1.13006591796875
6820146875.0 1.5572509765625 0.288818359375
6851368750.0 1.324462890625 -0.818115234375
6882590625.0 0.50616455078125 -1.336669921875
6913812500.0 -0.2911376953125 -1.3548583984375
6945034375.0 -1.06805419921875 -1.02099609375
6976256250.0 -1.591796875 -0.09405517578125
7007478125.0 -1.23382568359375 0.93011474609375
7038700000.0 -0.4027099609375 1.341796875
7069921875.0 0.356201171875 1.322021484375
7101143750.0 1.11334228515625 0.96844482421875
7132365625.0 1.59588623046875 0.0164794921875
7163587500.0 1.15582275390625 -1.0177001953125
7194809375.0 0.30218505859375 -1.39434814453125
7226031250.0 -0.50860595703125 -1.32366943359375
7257253125.0 -1.264892578125 -0.82464599609375
7288475000.0 -1.5582275390625 0.19720458984375
7319696875.0 -1.02972412109375 1.10736083984375
7350918750.0 -0.16558837890625 1.44207763671875
7382140625.0 0.71295166015625 1.2757568359375
7413362500.0 1.373046875 0.5770263671875
7444584375.0 1.410888671875 -0.40679931640625
7475806250.0 0.85760498046875 -1.14031982421875
7507028125.0 0.0069580078125 -1.4273681640625
7538250000.0 -0.88427734375 -1.1239013671875
7569471875.0 -1.33465576171875 -0.31182861328125
7600693750.0 -1.2015380859375 0.49658203125
7631915625.0 -0.7186279296875 1.08306884765625
7663137500.0 0.07696533203125 1.35589599609375
7694359375.0 0.93896484375 0.979644775390625
7725581250.0 1.24261474609375 0.18109130859375
7756803125.0 1.08184814453125 -0.497802734375
7788025000.0 0.67022705078125 -1.0413818359375
7819246875.0 -0.12017822265625 -1.3466796875
7850468750.0 -0.990234375 -0.91552734375
7881690625.0 -1.230224609375 -0.10626220703125
7912912500.0 -1.05426025390625 0.551513671875
7944134375.0 -0.60565185546875 1.11041259765625
7975356250.0 0.2698974609375 1.33251953125
8006578125.0 1.04571533203125 0.7783203125
8037800000.0 1.19134521484375 0.0179443359375
8069021875.0 1.00579833984375 -0.61627197265625
8100243750.0 0.50006103515625 -1.1595458984375
8131465625.0 -0.3846435546875 -1.2529296875
8162687500.0 -1.0303955078125 -0.68609619140625
8193909375.0 -1.17913818359375 0.0068359375
8225131250.0 -1.01751708984375 0.6766357421875
8256353125.0 -0.42279052734375 1.24737548828125
8287575000.0 0.49945068359375 1.225830078125
8318796875.0 1.08233642578125 0.63592529296875
8350018750.0 1.24359130859375 -0.07403564453125
8381240625.0 1.03118896484375 -0.83807373046875
8412462500.0 0.253662109375 -1.37261962890625
8443684375.0 -0.6669921875 -1.16796875
8474906250.0 -1.17279052734375 -0.53240966796875
8506128125.0 -1.29815673828125 0.23712158203125
8537350000.0 -0.9241943359375 1.04327392578125
8568571875.0 -0.0159912109375 1.393798828125
8599793750.0 0.79986572265625 1.05230712890625
8631015625.0 1.240478515625 0.3985595703125
8662237500.0 1.28411865234375 -0.427490234375
8693459375.0 0.73675537109375 -1.173095703125
8724681250.0 -0.1610107421875 -1.33148193359375
8755903125.0 -0.878997802734375 -0.9578857421875
8787125000.0 -1.30279541015625 -0.28216552734375
8818346875.0 -1.25006103515625 0.6143798828125
8849568750.0 -0.55694580078125 1.26031494140625
8880790625.0 0.296142578125 1.28448486328125
8912012500.0 0.981597900390625 0.892181396484375
8943234375.0 1.39776611328125 0.1297607421875
8974456250.0 1.16668701171875 -0.83685302734375
9005678125.0 0.34893798828125 -1.3121337890625
9036900000.0 -0.4459228515625 -1.2244873046875
9068121875.0 -1.099609375 -0.78582763671875
9099343750.0 -1.439697265625 0.09600830078125
9130565625.0 -0.97955322265625 1.01080322265625
9161787500.0 -0.1541748046875 1.28265380859375
9193009375.0 0.552001953125 1.13238525390625
9224231250.0 1.1771240234375 0.655029296875
9255453125.0 1.39739990234375 -0.29376220703125
9286675000.0 0.80694580078125 -1.08306884765625
9317896875.0 0.02825927734375 -1.2454833984375
9349118750.0 -0.65386962890625 -1.06964111328125
9380340625.0 -1.25701904296875 -0.50946044921875
9411562500.0 -1.310302734375 0.474853515625
9442784375.0 -0.64825439453125 1.1153564453125
9474006250.0 0.08831787109375 1.2108154296875
9505228125.0 0.764892578125 0.979034423828125
9536450000.0 1.27191162109375 0.31427001953125
9567671875.0 1.14306640625 -0.57794189453125
9598893750.0 0.52984619140625 -1.06829833984375
9630115625.0 -0.1441650390625 -1.157470703125
9661337500.0 -0.81561279296875 -0.901153564453125
9692559375.0 -1.23699951171875 -0.19097900390625
9723781250.0 -1.04229736328125 0.602294921875
9755003125.0 -0.486083984375 1.04913330078125
9786225000.0 0.1976318359375 1.1583251953125
9817446875.0 0.894256591796875 0.82855224609375
9848668750.0 1.19610595703125 0.07940673828125
9879890625.0 0.967987060546875 -0.61761474609375
9911112500.0 0.45318603515625 -1.050048828125
9942334375.0 -0.266845703125 -1.1593017578125
9973556250.0 -0.941802978515625 -0.73785400390625
10004778125.0 -1.1455078125 -0.018798828125
10036000000.0 -0.9437255859375 0.615203857421875
10067221875.0 -0.44244384765625 1.09503173828125
10098443750.0 0.36798095703125 1.179443359375
10129665625.0 1.00201416015625 0.6431884765625
10160887500.0 1.11907958984375 -0.0517578125
10192109375.0 0.917327880859375 -0.6624755859375
10223331250.0 0.36053466796875 -1.15179443359375
10254553125.0 -0.48541259765625 -1.11273193359375
10285775000.0 -0.98260498046875 -0.535308837890625
10316996875.0 -1.06524658203125 0.07513427734375
10348218750.0 -0.89990234375 0.6700439453125
10379440625.0 -0.3233642578125 1.17364501953125
10410662500.0 0.52764892578125 1.08648681640625
10441884375.0 0.990478515625 0.52294921875
10473106250.0 1.1083984375 -0.08258056640625
10504328125.0 0.94903564453125 -0.756927490234375
10535550000.0 0.23968505859375 -1.29449462890625
10566771875.0 -0.6566162109375 -1.07623291015625
10597993750.0 -1.0792236328125 -0.46002197265625
10629215625.0 -1.173828125 0.2039794921875
10660437500.0 -0.88641357421875 0.951934814453125
10691659375.0 -0.01190185546875 1.333740234375
10722881250.0 0.78204345703125 0.952667236328125
10754103125.0 1.1177978515625 0.32476806640625
10785325000.0 1.138427734375 -0.36737060546875
10816546875.0 0.70062255859375 -1.04949951171875
10847768750.0 -0.1448974609375 -1.2279052734375
10878990625.0 -0.801483154296875 -0.84295654296875
10910212500.0 -1.1219482421875 -0.2462158203125
10941434375.0 -1.09796142578125 0.476806640625
10972656250.0 -0.56890869140625 1.08111572265625
11003878125.0 0.215087890625 1.1722412109375
11035100000.0 0.846466064453125 0.82196044921875
11066321875.0 1.2197265625 0.17523193359375
11097543750.0 1.097900390625 -0.675537109375
11128765625.0 0.38604736328125 -1.1973876953125
11159987500.0 -0.39398193359375 -1.13818359375
11191209375.0 -0.998260498046875 -0.70245361328125
11222431250.0 -1.2701416015625 0.0909423828125
11253653125.0 -0.85858154296875 0.891845703125
11284875000.0 -0.1148681640625 1.1256103515625
11316096875.0 0.51092529296875 0.956573486328125
11347318750.0 1.002197265625 0.5023193359375
11378540625.0 1.115234375 -0.2674560546875
11409762500.0 0.635650634765625 -0.859283447265625
11440984375.0 0.036956787109375 -0.97686767578125
11472206250.0 -0.481201171875 -0.849609375
11503428125.0 -0.9527587890625 -0.45599365234375
11534650000.0 -1.06854248046875 0.28741455078125
11565871875.0 -0.602142333984375 0.85247802734375
11597093750.0 -0.019805908203125 0.990509033203125
11628315625.0 0.54290771484375 0.8748779296875
11659537500.0 1.05987548828125 0.392333984375
11690759375.0 1.06463623046875 -0.43377685546875
11721981250.0 0.517120361328125 -0.93927001953125
11753203125.0 -0.10577392578125 -1.03656005859375
11784425000.0 -0.723388671875 -0.807281494140625
11815646875.0 -1.09808349609375 -0.15252685546875
11846868750.0 -0.88970947265625 0.549407958984375
11878090625.0 -0.39093017578125 0.9085693359375
11909312500.0 0.18707275390625 0.98358154296875
11940534375.0 0.778900146484375 0.694915771484375
11971756250.0 1.02398681640625 0.0401611328125
12002978125.0 0.805694580078125 -0.53564453125
12034200000.0 0.38250732421875 -0.888397216796875
12065421875.0 -0.215087890625 -1.00970458984375
12096643750.0 -0.84674072265625 -0.665008544921875
12127865625.0 -1.033203125 0.01611328125
12159087500.0 -0.81536865234375 0.57611083984375
12190309375.0 -0.378173828125 0.9742431640625
12221531250.0 0.33685302734375 1.08648681640625
12252753125.0 0.9793701171875 0.58013916015625
12283975000.0 1.05316162109375 -0.1268310546875
12315196875.0 0.799774169921875 -0.674072265625
12346418750.0 0.2808837890625 -1.09063720703125
12377640625.0 -0.5377197265625 -1.06011962890625
12408862500.0 -1.031982421875 -0.42083740234375
12440084375.0 -1.00787353515625 0.22357177734375
12471306250.0 -0.741790771484375 0.735260009765625
12502528125.0 -0.18023681640625 1.11871337890625
12533750000.0 0.618804931640625 0.9923095703125
12564971875.0 1.0404052734375 0.3636474609375
12596193750.0 1.02899169921875 -0.2647705078125
12627415625.0 0.74859619140625 -0.828704833984375
12658637500.0 0.07916259765625 -1.20703125
12689859375.0 -0.735137939453125 -0.96551513671875
12721081250.0 -1.11566162109375 -0.30755615234375
12752303125.0 -1.0982666015625 0.38177490234375
12783525000.0 -0.6865234375 1.02691650390625
12814746875.0 0.1640625 1.2498779296875
12845968750.0 0.86187744140625 0.81085205078125
12877190625.0 1.1177978515625 0.1710205078125
12908412500.0 1.05389404296875 -0.4996337890625
12939634375.0 0.54248046875 -1.1182861328125
12970856250.0 -0.31988525390625 -1.17431640625
13002078125.0 -0.89306640625 -0.692840576171875
13033300000.0 -1.1041259765625 -0.087158203125
13064521875.0 -1.00836181640625 0.592041015625
13095743750.0 -0.41986083984375 1.15277099609375
13126965625.0 0.40814208984375 1.12078857421875
13158187500.0 0.94549560546875 0.632537841796875
13189409375.0 1.14599609375 -0.0203857421875
13220631250.0 0.935638427734375 -0.7489013671875
13251853125.0 0.23358154296875 -1.17266845703125
13283075000.0 -0.50665283203125 -1.01910400390625
13314296875.0 -0.98651123046875 -0.5286865234375
13345518750.0 -1.13433837890625 0.1768798828125
13376740625.0 -0.752899169921875 0.857147216796875
