!Created with skrf (http://scikit-rf.org).
# Hz S RI R 50.0 
!freq ReS11 ImS11
45000000.0 -0.07709121704101562 -0.09685134887695312
76221875.0 -0.19622802734375 -0.0475616455078125
107443750.0 -0.2548370361328125 0.1196136474609375
138665625.0 -0.148040771484375 0.328155517578125
169887500.0 0.1234283447265625 0.417144775390625
201109375.0 0.42156982421875 0.2807464599609375
232331250.0 0.578582763671875 -0.057586669921875
263553125.0 0.489044189453125 -0.45245361328125
294775000.0 0.098297119140625 -0.731658935546875
325996875.0 -0.414886474609375 -0.679779052734375
357218750.0 -0.8052978515625 -0.29669189453125
388440625.0 -0.884735107421875 0.30029296875
419662500.0 -0.516693115234375 0.8653564453125
450884375.0 0.17303466796875 1.02783203125
482106250.0 0.797760009765625 0.71185302734375
513328125.0 1.1181640625 0.0870361328125
544550000.0 1.002685546875 -0.6793212890625
575771875.0 0.33612060546875 -1.237060546875
606993750.0 -0.5533447265625 -1.176025390625
638215625.0 -1.1646728515625 -0.589599609375
669437500.0 -1.33831787109375 0.233642578125
700659375.0 -0.9697265625 1.0950927734375
731881250.0 -0.0032958984375 1.54156494140625
763103125.0 1.00469970703125 1.15435791015625
794325000.0 1.46697998046875 0.28125
825546875.0 1.36553955078125 -0.6507568359375
856768750.0 0.7935791015625 -1.3990478515625
887990625.0 -0.2926025390625 -1.64642333984375
919212500.0 -1.28607177734375 -1.07745361328125
950434375.0 -1.64630126953125 -0.0589599609375
981656250.0 -1.38092041015625 0.94415283203125
1012878125.0 -0.52886962890625 1.66900634765625
1044100000.0 0.696044921875 1.659423828125
1075321875.0 1.57220458984375 0.81072998046875
1106543750.0 1.70245361328125 -0.31256103515625
1137765625.0 1.18524169921875 -1.2823486328125
1168987500.0 0.13800048828125 -1.79400634765625
1200209375.0 -1.0599365234375 -1.48095703125
1231431250.0 -1.72491455078125 -0.45269775390625
1262653125.0 -1.59234619140625 0.68414306640625
1293875000.0 -0.850830078125 1.48956298828125
1325096875.0 0.2279052734375 1.70391845703125
1356318750.0 1.23309326171875 1.21484375
1387540625.0 1.737060546875 0.18878173828125
1418762500.0 1.46685791015625 -0.94989013671875
1449984375.0 0.5286865234375 -1.62310791015625
1481206250.0 -0.54925537109375 -1.55377197265625
1512428125.0 -1.339599609375 -0.9180908203125
1543650000.0 -1.65283203125 0.06475830078125
1574871875.0 -1.27154541015625 1.10748291015625
1606093750.0 -0.27227783203125 1.62921142578125
1637315625.0 0.7412109375 1.3985595703125
1668537500.0 1.39373779296875 0.69476318359375
1699759375.0 1.57098388671875 -0.277099609375
1730981250.0 1.06268310546875 -1.2274169921875
1762203125.0 0.0421142578125 -1.5679931640625
1793425000.0 -0.854736328125 -1.224853515625
1824646875.0 -1.391357421875 -0.51434326171875
1855868750.0 -1.4718017578125 0.4317626953125
1887090625.0 -0.87359619140625 1.28369140625
1918312500.0 0.11724853515625 1.48455810546875
1949534375.0 0.91986083984375 1.08734130859375
1980756250.0 1.37310791015625 0.3695068359375
2011978125.0 1.3575439453125 -0.53070068359375
2043200000.0 0.7489013671875 -1.2593994140625
2074421875.0 -0.15643310546875 -1.43084716796875
2105643750.0 -0.9586181640625 -1.07080078125
2136865625.0 -1.4451904296875 -0.3043212890625
2168087500.0 -1.35498046875 0.66998291015625
2199309375.0 -0.63800048828125 1.34912109375
2230531250.0 0.28155517578125 1.434326171875
2261753125.0 1.071044921875 1.01239013671875
2292975000.0 1.51214599609375 0.17022705078125
2324196875.0 1.303466796875 -0.8173828125
2355418750.0 0.5247802734375 -1.41778564453125
2386640625.0 -0.4039306640625 -1.44635009765625
2417862500.0 -1.1798095703125 -1.02276611328125
2449084375.0 -1.60198974609375 -0.0841064453125
2480306250.0 -1.308837890625 0.9239501953125
2511528125.0 -0.49310302734375 1.50531005859375
2542750000.0 0.487060546875 1.53289794921875
2573971875.0 1.3675537109375 0.966064453125
2605193750.0 1.713623046875 -0.1112060546875
2636415625.0 1.2591552734375 -1.15081787109375
2667637500.0 0.306396484375 -1.6636962890625
2698859375.0 -0.76788330078125 -1.531494140625
2730081250.0 -1.57037353515625 -0.7396240234375
2761303125.0 -1.67828369140625 0.38726806640625
2792525000.0 -1.0972900390625 1.3040771484375
2823746875.0 -0.10174560546875 1.72650146484375
2854968750.0 1.0087890625 1.452392578125
2886190625.0 1.6884765625 0.4903564453125
2917412500.0 1.59722900390625 -0.61676025390625
2948634375.0 0.937744140625 -1.43060302734375
2979856250.0 -0.10650634765625 -1.77154541015625
3011078125.0 -1.24542236328125 -1.34002685546875
3042300000.0 -1.771728515625 -0.23443603515625
3073521875.0 -1.505615234375 0.8360595703125
3104743750.0 -0.76171875 1.56585693359375
3135965625.0 0.3603515625 1.80511474609375
3167187500.0 1.4957275390625 1.1622314453125
3198409375.0 1.81170654296875 -0.0745849609375
3229631250.0 1.34625244140625 -1.0789794921875
3260853125.0 0.48876953125 -1.6646728515625
3292075000.0 -0.65411376953125 -1.69476318359375
3323296875.0 -1.6153564453125 -0.87835693359375
3354518750.0 -1.727783203125 0.32855224609375
3385740625.0 -1.15350341796875 1.22955322265625
3416962500.0 -0.23114013671875 1.67822265625
3448184375.0 0.8572998046875 1.5186767578125
3479406250.0 1.6322021484375 0.6436767578125
3510628125.0 1.64111328125 -0.49407958984375
3541850000.0 0.9989013671875 -1.3515625
3573071875.0 -0.0072021484375 -1.6785888671875
3604293750.0 -1.02587890625 -1.33489990234375
3635515625.0 -1.62457275390625 -0.4384765625
3666737500.0 -1.55841064453125 0.64404296875
3697959375.0 -0.8240966796875 1.47222900390625
3729181250.0 0.26739501953125 1.6279296875
3760403125.0 1.15081787109375 1.09625244140625
3791625000.0 1.548583984375 0.21832275390625
3822846875.0 1.39898681640625 -0.75994873046875
3854068750.0 0.619140625 -1.47796630859375
3885290625.0 -0.42010498046875 -1.47808837890625
3916512500.0 -1.13885498046875 -0.90948486328125
3947734375.0 -1.444580078125 -0.1201171875
3978956250.0 -1.29510498046875 0.77789306640625
4010178125.0 -0.53070068359375 1.45098876953125
4041400000.0 0.47198486328125 1.4129638671875
4072621875.0 1.14910888671875 0.84637451171875
4103843750.0 1.44207763671875 0.06317138671875
4135065625.0 1.26519775390625 -0.84332275390625
4166287500.0 0.45733642578125 -1.492431640625
4197509375.0 -0.55572509765625 -1.4124755859375
4228731250.0 -1.24456787109375 -0.80181884765625
4259953125.0 -1.50689697265625 0.0703125
4291175000.0 -1.1866455078125 1.0076904296875
4322396875.0 -0.28973388671875 1.52313232421875
4353618750.0 0.6702880859375 1.3475341796875
4384840625.0 1.32025146484375 0.69598388671875
4416062500.0 1.4981689453125 -0.2265625
4447284375.0 1.0535888671875 -1.10205078125
4478506250.0 0.17254638671875 -1.49267578125
4509728125.0 -0.73126220703125 -1.3046875
4540950000.0 -1.39154052734375 -0.63519287109375
4572171875.0 -1.52001953125 0.3587646484375
4603393750.0 -0.9716796875 1.20989990234375
4634615625.0 -0.06182861328125 1.534423828125
4665837500.0 0.86895751953125 1.30279541015625
4697059375.0 1.53857421875 0.51458740234375
4728281250.0 1.52679443359375 -0.58074951171875
4759503125.0 0.822021484375 -1.3648681640625
4790725000.0 -0.14520263671875 -1.5697021484375
4821946875.0 -1.08184814453125 -1.1923828125
4853168750.0 -1.61041259765625 -0.25115966796875
4884390625.0 -1.37628173828125 0.79266357421875
4915612500.0 -0.613037109375 1.4095458984375
4946834375.0 0.32781982421875 1.50616455078125
4978056250.0 1.2025146484375 1.01556396484375
5009278125.0 1.55938720703125 0.039306640625
5040500000.0 1.2269287109375 -0.8731689453125
5071721875.0 0.5006103515625 -1.41217041015625
5102943750.0 -0.446044921875 -1.495361328125
5134165625.0 -1.33245849609375 -0.9041748046875
5165387500.0 -1.56512451171875 0.14556884765625
5196609375.0 -1.1346435546875 1.0087890625
5227831250.0 -0.3565673828125 1.50433349609375
5259053125.0 0.6859130859375 1.48956298828125
5290275000.0 1.51885986328125 0.6619873046875
5321496875.0 1.49017333984375 -0.42938232421875
5352718750.0 0.91961669921875 -1.15087890625
5383940625.0 0.0970458984375 -1.49798583984375
5415162500.0 -0.89874267578125 -1.28143310546875
5446384375.0 -1.48187255859375 -0.3702392578125
5477606250.0 -1.29754638671875 0.5657958984375
5508828125.0 -0.7303466796875 1.1494140625
5540050000.0 0.05340576171875 1.3963623046875
5571271875.0 0.936279296875 1.107421875
5602493750.0 1.4061279296875 0.259765625
5633715625.0 1.23028564453125 -0.61083984375
5664937500.0 0.6478271484375 -1.19781494140625
5696159375.0 -0.1964111328125 -1.38153076171875
5727381250.0 -1.01898193359375 -0.97723388671875
5758603125.0 -1.389404296875 -0.1451416015625
5789825000.0 -1.19268798828125 0.716552734375
5821046875.0 -0.50653076171875 1.3040771484375
5852268750.0 0.409912109375 1.310791015625
5883490625.0 1.068359375 0.77099609375
5914712500.0 1.3009033203125 0.01947021484375
5945934375.0 1.09454345703125 -0.7738037109375
5977156250.0 0.36151123046875 -1.30999755859375
6008378125.0 -0.5086669921875 -1.1810302734375
6039600000.0 -1.01971435546875 -0.64837646484375
6070821875.0 -1.221923828125 -0.005126953125
6102043750.0 -1.08123779296875 0.76019287109375
6133265625.0 -0.34185791015625 1.34222412109375
6164487500.0 0.56134033203125 1.18572998046875
6195709375.0 1.06793212890625 0.62982177734375
6226931250.0 1.27667236328125 -0.04144287109375
6258153125.0 1.10302734375 -0.86968994140625
6289375000.0 0.256591796875 -1.44366455078125
6320596875.0 -0.68841552734375 -1.20465087890625
6351818750.0 -1.1976318359375 -0.57220458984375
6383040625.0 -1.35272216796875 0.20635986328125
6414262500.0 -0.99884033203125 1.05615234375
6445484375.0 -0.07855224609375 1.4547119140625
6476706250.0 0.7940673828125 1.14697265625
6507928125.0 1.28973388671875 0.4697265625
6539150000.0 1.34576416015625 -0.3857421875
6570371875.0 0.84014892578125 -1.14166259765625
6601593750.0 -0.0167236328125 -1.403564453125
6632815625.0 -0.8387451171875 -1.13519287109375
6664037500.0 -1.39923095703125 -0.41961669921875
6695259375.0 -1.3717041015625 0.56378173828125
6726481250.0 -0.70953369140625 1.250244140625
6757703125.0 0.1302490234375 1.4049072265625
6788925000.0 0.9527587890625 1.12884521484375
6820146875.0 1.557861328125 0.2874755859375
6851368750.0 1.32464599609375 -0.81787109375
6882590625.0 0.5068359375 -1.3365478515625
6913812500.0 -0.29132080078125 -1.3543701171875
6945034375.0 -1.0682373046875 -1.02081298828125
6976256250.0 -1.58984375 -0.09442138671875
7007478125.0 -1.23431396484375 0.92938232421875
7038700000.0 -0.40093994140625 1.34259033203125
7069921875.0 0.3575439453125 1.32122802734375
7101143750.0 1.1148681640625 0.96783447265625
7132365625.0 1.59686279296875 0.0142822265625
7163587500.0 1.15655517578125 -1.02044677734375
7194809375.0 0.30194091796875 -1.39556884765625
7226031250.0 -0.50799560546875 -1.32318115234375
7257253125.0 -1.26251220703125 -0.82391357421875
7288475000.0 -1.55596923828125 0.1983642578125
7319696875.0 -1.02960205078125 1.10748291015625
7350918750.0 -0.16326904296875 1.44219970703125
7382140625.0 0.71514892578125 1.275146484375
7413362500.0 1.37506103515625 0.57537841796875
7444584375.0 1.41058349609375 -0.40594482421875
7475806250.0 0.85699462890625 -1.14044189453125
7507028125.0 0.00653076171875 -1.4276123046875
7538250000.0 -0.88531494140625 -1.12200927734375
7569471875.0 -1.33294677734375 -0.31158447265625
7600693750.0 -1.20123291015625 0.4971923828125
7631915625.0 -0.71685791015625 1.0841064453125
7663137500.0 0.08001708984375 1.35797119140625
7694359375.0 0.937774658203125 0.979949951171875
7725581250.0 1.24114990234375 0.18115234375
7756803125.0 1.081298828125 -0.4986572265625
7788025000.0 0.669189453125 -1.0418701171875
7819246875.0 -0.12060546875 -1.34686279296875
7850468750.0 -0.992645263671875 -0.914886474609375
7881690625.0 -1.230712890625 -0.10540771484375
7912912500.0 -1.05352783203125 0.552978515625
7944134375.0 -0.60479736328125 1.11090087890625
7975356250.0 0.26953125 1.3321533203125
8006578125.0 1.04498291015625 0.77734375
8037800000.0 1.19110107421875 0.01702880859375
8069021875.0 1.00567626953125 -0.61663818359375
8100243750.0 0.4996337890625 -1.1605224609375
8131465625.0 -0.38763427734375 -1.254150390625
8162687500.0 -1.03033447265625 -0.68597412109375
8193909375.0 -1.179443359375 0.007568359375
8225131250.0 -1.0164794921875 0.67474365234375
8256353125.0 -0.42144775390625 1.24700927734375
8287575000.0 0.50018310546875 1.22515869140625
8318796875.0 1.08111572265625 0.6351318359375
8350018750.0 1.24420166015625 -0.0760498046875
8381240625.0 1.03076171875 -0.83905029296875
8412462500.0 0.254150390625 -1.3709716796875
8443684375.0 -0.66796875 -1.168212890625
8474906250.0 -1.1737060546875 -0.53155517578125
8506128125.0 -1.297119140625 0.23760986328125
8537350000.0 -0.9222412109375 1.04541015625
8568571875.0 -0.01617431640625 1.39190673828125
8599793750.0 0.8006591796875 1.05267333984375
8631015625.0 1.24090576171875 0.39752197265625
8662237500.0 1.28399658203125 -0.427978515625
8693459375.0 0.73541259765625 -1.1751708984375
8724681250.0 -0.162841796875 -1.33203125
8755903125.0 -0.880767822265625 -0.956939697265625
8787125000.0 -1.30279541015625 -0.2828369140625
8818346875.0 -1.2490234375 0.61328125
8849568750.0 -0.55621337890625 1.25830078125
8880790625.0 0.29742431640625 1.2830810546875
8912012500.0 0.9781494140625 0.8914794921875
8943234375.0 1.3978271484375 0.129638671875
8974456250.0 1.16607666015625 -0.83782958984375
9005678125.0 0.34783935546875 -1.31256103515625
9036900000.0 -0.444091796875 -1.2242431640625
9068121875.0 -1.098876953125 -0.7847900390625
9099343750.0 -1.437255859375 0.09576416015625
9130565625.0 -0.9798583984375 1.01141357421875
9161787500.0 -0.15484619140625 1.28289794921875
9193009375.0 0.553466796875 1.13226318359375
9224231250.0 1.17572021484375 0.65533447265625
9255453125.0 1.39691162109375 -0.29425048828125
9286675000.0 0.8067626953125 -1.08203125
9317896875.0 0.02685546875 -1.2457275390625
9349118750.0 -0.65203857421875 -1.06927490234375
9380340625.0 -1.25567626953125 -0.51055908203125
9411562500.0 -1.31005859375 0.47503662109375
9442784375.0 -0.6474609375 1.115478515625
9474006250.0 0.08807373046875 1.21026611328125
9505228125.0 0.762603759765625 0.97967529296875
9536450000.0 1.2711181640625 0.314208984375
9567671875.0 1.1441650390625 -0.5811767578125
9598893750.0 0.5294189453125 -1.06842041015625
9630115625.0 -0.1424560546875 -1.1572265625
9661337500.0 -0.81732177734375 -0.902099609375
9692559375.0 -1.23699951171875 -0.19122314453125
9723781250.0 -1.04351806640625 0.60321044921875
9755003125.0 -0.48541259765625 1.05108642578125
9786225000.0 0.19879150390625 1.15771484375
9817446875.0 0.892852783203125 0.827423095703125
9848668750.0 1.19696044921875 0.07940673828125
9879890625.0 0.96771240234375 -0.61614990234375
9911112500.0 0.45159912109375 -1.05096435546875
9942334375.0 -0.2674560546875 -1.1590576171875
9973556250.0 -0.940643310546875 -0.73883056640625
10004778125.0 -1.14373779296875 -0.0186767578125
10036000000.0 -0.94342041015625 0.6156005859375
10067221875.0 -0.44317626953125 1.093994140625
10098443750.0 0.36810302734375 1.179443359375
10129665625.0 1.002197265625 0.642822265625
10160887500.0 1.1170654296875 -0.05010986328125
10192109375.0 0.91766357421875 -0.66326904296875
10223331250.0 0.3619384765625 -1.14984130859375
10254553125.0 -0.484619140625 -1.11334228515625
10285775000.0 -0.983184814453125 -0.53558349609375
10316996875.0 -1.0655517578125 0.07586669921875
10348218750.0 -0.899658203125 0.668182373046875
10379440625.0 -0.3233642578125 1.17236328125
10410662500.0 0.5262451171875 1.08551025390625
10441884375.0 0.989898681640625 0.52197265625
10473106250.0 1.10638427734375 -0.082275390625
10504328125.0 0.94866943359375 -0.756439208984375
10535550000.0 0.240966796875 -1.29327392578125
10566771875.0 -0.65460205078125 -1.07647705078125
10597993750.0 -1.07904052734375 -0.45928955078125
10629215625.0 -1.17462158203125 0.20501708984375
10660437500.0 -0.886993408203125 0.94842529296875
10691659375.0 -0.0101318359375 1.3353271484375
10722881250.0 0.783355712890625 0.95257568359375
10754103125.0 1.11871337890625 0.32440185546875
10785325000.0 1.138427734375 -0.36724853515625
10816546875.0 0.70062255859375 -1.0469970703125
10847768750.0 -0.14349365234375 -1.22747802734375
10878990625.0 -0.80230712890625 -0.844482421875
10910212500.0 -1.12103271484375 -0.24560546875
10941434375.0 -1.09649658203125 0.47601318359375
10972656250.0 -0.5677490234375 1.0831298828125
11003878125.0 0.2169189453125 1.17340087890625
11035100000.0 0.846282958984375 0.8218994140625
11066321875.0 1.22027587890625 0.174072265625
11097543750.0 1.09771728515625 -0.67681884765625
11128765625.0 0.38629150390625 -1.19842529296875
11159987500.0 -0.39361572265625 -1.13812255859375
11191209375.0 -0.9993896484375 -0.70123291015625
11222431250.0 -1.27117919921875 0.09161376953125
11253653125.0 -0.8583984375 0.892852783203125
11284875000.0 -0.11492919921875 1.126220703125
11316096875.0 0.51171875 0.95611572265625
11347318750.0 1.00238037109375 0.501953125
11378540625.0 1.11505126953125 -0.2679443359375
11409762500.0 0.63482666015625 -0.85931396484375
11440984375.0 0.035980224609375 -0.97808837890625
11472206250.0 -0.480194091796875 -0.850006103515625
11503428125.0 -0.9522705078125 -0.456451416015625
11534650000.0 -1.0679931640625 0.28717041015625
11565871875.0 -0.60198974609375 0.853515625
11597093750.0 -0.01959228515625 0.99041748046875
11628315625.0 0.543121337890625 0.8740234375
11659537500.0 1.0584716796875 0.392822265625
11690759375.0 1.0650634765625 -0.4329833984375
11721981250.0 0.517486572265625 -0.938568115234375
11753203125.0 -0.104248046875 -1.034912109375
11784425000.0 -0.722900390625 -0.80816650390625
11815646875.0 -1.09967041015625 -0.151123046875
11846868750.0 -0.8907470703125 0.54864501953125
11878090625.0 -0.39111328125 0.907562255859375
11909312500.0 0.185638427734375 0.983856201171875
11940534375.0 0.779266357421875 0.694793701171875
11971756250.0 1.02362060546875 0.04022216796875
12002978125.0 0.80645751953125 -0.5369873046875
12034200000.0 0.382904052734375 -0.887054443359375
12065421875.0 -0.2137451171875 -1.00927734375
12096643750.0 -0.846099853515625 -0.66510009765625
12127865625.0 -1.033935546875 0.01617431640625
12159087500.0 -0.81463623046875 0.574951171875
12190309375.0 -0.378021240234375 0.973846435546875
12221531250.0 0.33770751953125 1.0880126953125
12252753125.0 0.97821044921875 0.581634521484375
12283975000.0 1.05426025390625 -0.12652587890625
12315196875.0 0.7998046875 -0.675323486328125
12346418750.0 0.2818603515625 -1.0899658203125
12377640625.0 -0.53558349609375 -1.0595703125
12408862500.0 -1.03167724609375 -0.42041015625
12440084375.0 -1.00732421875 0.2235107421875
12471306250.0 -0.74261474609375 0.734954833984375
12502528125.0 -0.1805419921875 1.1187744140625
12533750000.0 0.619171142578125 0.993499755859375
12564971875.0 1.03955078125 0.36456298828125
12596193750.0 1.02886962890625 -0.26416015625
12627415625.0 0.748291015625 -0.827484130859375
12658637500.0 0.08148193359375 -1.20452880859375
12689859375.0 -0.733673095703125 -0.965484619140625
12721081250.0 -1.11553955078125 -0.30670166015625
12752303125.0 -1.09759521484375 0.3804931640625
12783525000.0 -0.6866455078125 1.02593994140625
12814746875.0 0.16510009765625 1.2506103515625
12845968750.0 0.86236572265625 0.811065673828125
12877190625.0 1.11669921875 0.17291259765625
12908412500.0 1.05499267578125 -0.5008544921875
12939634375.0 0.54302978515625 -1.1156005859375
12970856250.0 -0.32049560546875 -1.17413330078125
13002078125.0 -0.892486572265625 -0.693878173828125
13033300000.0 -1.1048583984375 -0.08782958984375
13064521875.0 -1.00933837890625 0.592041015625
13095743750.0 -0.41961669921875 1.1536865234375
13126965625.0 0.40728759765625 1.12109375
13158187500.0 0.9444580078125 0.632659912109375
13189409375.0 1.14666748046875 -0.01953125
13220631250.0 0.936309814453125 -0.7459716796875
13251853125.0 0.23486328125 -1.17041015625
13283075000.0 -0.505859375 -1.018798828125
13314296875.0 -0.985443115234375 -0.528564453125
13345518750.0 -1.13433837890625 0.1763916015625
