!Created with skrf (http://scikit-rf.org).
# Hz S RI R 50.0 
!freq ReS11 ImS11
45000000.0 -0.07691192626953125 -0.09680557250976562
76221875.0 -0.19611358642578125 -0.047637939453125
107443750.0 -0.254730224609375 0.119415283203125
138665625.0 -0.1483917236328125 0.328216552734375
169887500.0 0.12335205078125 0.4171142578125
201109375.0 0.42138671875 0.2808380126953125
232331250.0 0.578582763671875 -0.057220458984375
263553125.0 0.489349365234375 -0.4518585205078125
294775000.0 0.098724365234375 -0.73162841796875
325996875.0 -0.414703369140625 -0.68017578125
357218750.0 -0.805206298828125 -0.297210693359375
388440625.0 -0.884918212890625 0.2998046875
419662500.0 -0.517181396484375 0.8651123046875
450884375.0 0.17254638671875 1.02783203125
482106250.0 0.79736328125 0.7125244140625
513328125.0 1.11822509765625 0.0877685546875
544550000.0 1.0030517578125 -0.6785888671875
575771875.0 0.3367919921875 -1.2366943359375
606993750.0 -0.55267333984375 -1.17645263671875
638215625.0 -1.164306640625 -0.59033203125
669437500.0 -1.33856201171875 0.23272705078125
700659375.0 -0.97039794921875 1.0948486328125
731881250.0 -0.00433349609375 1.54144287109375
763103125.0 1.00433349609375 1.15496826171875
794325000.0 1.46685791015625 0.28204345703125
825546875.0 1.36602783203125 -0.65008544921875
856768750.0 0.79449462890625 -1.3983154296875
887990625.0 -0.29132080078125 -1.646728515625
919212500.0 -1.28558349609375 -1.0777587890625
950434375.0 -1.64654541015625 -0.05987548828125
981656250.0 -1.38116455078125 0.94342041015625
1012878125.0 -0.52996826171875 1.66912841796875
1044100000.0 0.6951904296875 1.65997314453125
1075321875.0 1.57171630859375 0.81219482421875
1106543750.0 1.70233154296875 -0.3115234375
1137765625.0 1.18536376953125 -1.28143310546875
1168987500.0 0.138916015625 -1.79425048828125
1200209375.0 -1.05889892578125 -1.48187255859375
1231431250.0 -1.7244873046875 -0.45367431640625
1262653125.0 -1.59234619140625 0.68231201171875
1293875000.0 -0.8516845703125 1.48876953125
1325096875.0 0.2271728515625 1.70428466796875
1356318750.0 1.23272705078125 1.2154541015625
1387540625.0 1.73712158203125 0.189453125
1418762500.0 1.4671630859375 -0.949462890625
1449984375.0 0.52923583984375 -1.6231689453125
1481206250.0 -0.54766845703125 -1.5535888671875
1512428125.0 -1.33941650390625 -0.91888427734375
1543650000.0 -1.65313720703125 0.0643310546875
1574871875.0 -1.2718505859375 1.10638427734375
1606093750.0 -0.27349853515625 1.6285400390625
1637315625.0 0.7406005859375 1.3990478515625
1668537500.0 1.3936767578125 0.69561767578125
1699759375.0 1.57098388671875 -0.2760009765625
1730981250.0 1.0631103515625 -1.22723388671875
1762203125.0 0.04278564453125 -1.5679931640625
1793425000.0 -0.85382080078125 -1.224853515625
1824646875.0 -1.39129638671875 -0.51495361328125
1855868750.0 -1.47198486328125 0.43109130859375
1887090625.0 -0.87396240234375 1.2830810546875
1918312500.0 0.11639404296875 1.484619140625
1949534375.0 0.91949462890625 1.087646484375
1980756250.0 1.3726806640625 0.3701171875
2011978125.0 1.35772705078125 -0.53021240234375
2043200000.0 0.74969482421875 -1.2591552734375
2074421875.0 -0.15582275390625 -1.43121337890625
2105643750.0 -0.95819091796875 -1.07147216796875
2136865625.0 -1.4449462890625 -0.3050537109375
2168087500.0 -1.3555908203125 0.6695556640625
2199309375.0 -0.63873291015625 1.34893798828125
2230531250.0 0.28070068359375 1.4342041015625
2261753125.0 1.0704345703125 1.01300048828125
2292975000.0 1.5120849609375 0.17083740234375
2324196875.0 1.303955078125 -0.816650390625
2355418750.0 0.5250244140625 -1.41766357421875
2386640625.0 -0.4029541015625 -1.44677734375
2417862500.0 -1.17767333984375 -1.02288818359375
2449084375.0 -1.60137939453125 -0.08538818359375
2480306250.0 -1.3096923828125 0.92340087890625
2511528125.0 -0.49420166015625 1.50372314453125
2542750000.0 0.485595703125 1.53387451171875
2573971875.0 1.3675537109375 0.96697998046875
2605193750.0 1.7132568359375 -0.1112060546875
2636415625.0 1.2596435546875 -1.14935302734375
2667637500.0 0.30621337890625 -1.66375732421875
2698859375.0 -0.76739501953125 -1.531494140625
2730081250.0 -1.5689697265625 -0.7403564453125
2761303125.0 -1.677490234375 0.38568115234375
2792525000.0 -1.09808349609375 1.30419921875
2823746875.0 -0.1036376953125 1.72576904296875
2854968750.0 1.01019287109375 1.453125
2886190625.0 1.68902587890625 0.4910888671875
2917412500.0 1.59661865234375 -0.61474609375
2948634375.0 0.93768310546875 -1.42974853515625
2979856250.0 -0.10662841796875 -1.77264404296875
3011078125.0 -1.24481201171875 -1.34027099609375
3042300000.0 -1.7698974609375 -0.235595703125
3073521875.0 -1.5068359375 0.83477783203125
3104743750.0 -0.7625732421875 1.56561279296875
3135965625.0 0.35931396484375 1.80499267578125
3167187500.0 1.4931640625 1.16326904296875
3198409375.0 1.811767578125 -0.0733642578125
3229631250.0 1.34661865234375 -1.07818603515625
3260853125.0 0.48883056640625 -1.66510009765625
3292075000.0 -0.65185546875 -1.6944580078125
3323296875.0 -1.6148681640625 -0.87884521484375
3354518750.0 -1.727783203125 0.3272705078125
3385740625.0 -1.15435791015625 1.22772216796875
3416962500.0 -0.231201171875 1.6787109375
3448184375.0 0.85784912109375 1.519287109375
3479406250.0 1.6322021484375 0.6439208984375
3510628125.0 1.64093017578125 -0.4935302734375
3541850000.0 0.9989013671875 -1.35162353515625
3573071875.0 -0.00640869140625 -1.679931640625
3604293750.0 -1.025634765625 -1.33563232421875
3635515625.0 -1.62384033203125 -0.43890380859375
3666737500.0 -1.55877685546875 0.64300537109375
3697959375.0 -0.8240966796875 1.47247314453125
3729181250.0 0.26806640625 1.62835693359375
3760403125.0 1.15069580078125 1.09661865234375
3791625000.0 1.5494384765625 0.2183837890625
3822846875.0 1.399658203125 -0.76043701171875
3854068750.0 0.62030029296875 -1.478515625
3885290625.0 -0.41937255859375 -1.4783935546875
3916512500.0 -1.13861083984375 -0.9102783203125
3947734375.0 -1.44537353515625 -0.119873046875
3978956250.0 -1.2955322265625 0.776123046875
4010178125.0 -0.53179931640625 1.451171875
4041400000.0 0.47088623046875 1.4124755859375
4072621875.0 1.1484375 0.8468017578125
4103843750.0 1.44207763671875 0.063232421875
4135065625.0 1.2664794921875 -0.84375
4166287500.0 0.45819091796875 -1.49127197265625
4197509375.0 -0.5555419921875 -1.4129638671875
4228731250.0 -1.24493408203125 -0.80218505859375
4259953125.0 -1.50555419921875 0.0689697265625
4291175000.0 -1.1866455078125 1.0072021484375
4322396875.0 -0.28973388671875 1.5238037109375
4353618750.0 0.670166015625 1.3475341796875
4384840625.0 1.31878662109375 0.69671630859375
4416062500.0 1.498291015625 -0.22589111328125
4447284375.0 1.053955078125 -1.10186767578125
4478506250.0 0.17376708984375 -1.4920654296875
4509728125.0 -0.72979736328125 -1.30535888671875
4540950000.0 -1.390380859375 -0.6361083984375
4572171875.0 -1.519775390625 0.35809326171875
4603393750.0 -0.971923828125 1.20867919921875
4634615625.0 -0.061767578125 1.53466796875
4665837500.0 0.86798095703125 1.302490234375
4697059375.0 1.53839111328125 0.51513671875
4728281250.0 1.5262451171875 -0.57958984375
4759503125.0 0.82257080078125 -1.36419677734375
4790725000.0 -0.14447021484375 -1.570068359375
4821946875.0 -1.08038330078125 -1.191650390625
4853168750.0 -1.61004638671875 -0.25201416015625
4884390625.0 -1.3758544921875 0.79058837890625
4915612500.0 -0.61334228515625 1.40826416015625
4946834375.0 0.327880859375 1.50738525390625
4978056250.0 1.202392578125 1.016357421875
5009278125.0 1.5579833984375 0.04144287109375
5040500000.0 1.22784423828125 -0.87298583984375
5071721875.0 0.50201416015625 -1.4119873046875
5102943750.0 -0.44537353515625 -1.49505615234375
5134165625.0 -1.33282470703125 -0.905029296875
5165387500.0 -1.56512451171875 0.14471435546875
5196609375.0 -1.1346435546875 1.00750732421875
5227831250.0 -0.35845947265625 1.5030517578125
5259053125.0 0.68475341796875 1.48919677734375
5290275000.0 1.518310546875 0.66302490234375
5321496875.0 1.4903564453125 -0.4288330078125
5352718750.0 0.92010498046875 -1.15167236328125
5383940625.0 0.0966796875 -1.4981689453125
5415162500.0 -0.8970947265625 -1.28192138671875
5446384375.0 -1.4805908203125 -0.3712158203125
5477606250.0 -1.29742431640625 0.564453125
5508828125.0 -0.73101806640625 1.14898681640625
5540050000.0 0.0518798828125 1.39593505859375
5571271875.0 0.935546875 1.1072998046875
5602493750.0 1.406005859375 0.2607421875
5633715625.0 1.23028564453125 -0.61041259765625
5664937500.0 0.64752197265625 -1.19927978515625
5696159375.0 -0.19573974609375 -1.3809814453125
5727381250.0 -1.02069091796875 -0.97760009765625
5758603125.0 -1.389404296875 -0.145751953125
5789825000.0 -1.19219970703125 0.71563720703125
5821046875.0 -0.50592041015625 1.30584716796875
5852268750.0 0.4102783203125 1.3114013671875
5883490625.0 1.0687255859375 0.7713623046875
5914712500.0 1.30029296875 0.0206298828125
5945934375.0 1.095458984375 -0.77447509765625
5977156250.0 0.36181640625 -1.3096923828125
6008378125.0 -0.5079345703125 -1.18133544921875
6039600000.0 -1.01947021484375 -0.64886474609375
6070821875.0 -1.2225341796875 -0.00518798828125
6102043750.0 -1.08209228515625 0.7607421875
6133265625.0 -0.34185791015625 1.34295654296875
6164487500.0 0.5618896484375 1.18621826171875
6195709375.0 1.06854248046875 0.62982177734375
6226931250.0 1.27703857421875 -0.04156494140625
6258153125.0 1.10357666015625 -0.86993408203125
6289375000.0 0.256591796875 -1.4443359375
6320596875.0 -0.68804931640625 -1.2052001953125
6351818750.0 -1.1990966796875 -0.57147216796875
6383040625.0 -1.35284423828125 0.2060546875
6414262500.0 -0.99920654296875 1.05419921875
6445484375.0 -0.07904052734375 1.45526123046875
6476706250.0 0.79364013671875 1.1463623046875
6507928125.0 1.28887939453125 0.469970703125
6539150000.0 1.345947265625 -0.38519287109375
6570371875.0 0.84088134765625 -1.14178466796875
6601593750.0 -0.01641845703125 -1.4031982421875
6632815625.0 -0.8377685546875 -1.13519287109375
6664037500.0 -1.397705078125 -0.42071533203125
6695259375.0 -1.37225341796875 0.56463623046875
6726481250.0 -0.710205078125 1.249267578125
6757703125.0 0.1298828125 1.40496826171875
6788925000.0 0.9532470703125 1.12957763671875
6820146875.0 1.55816650390625 0.28839111328125
6851368750.0 1.32452392578125 -0.81756591796875
6882590625.0 0.50567626953125 -1.33770751953125
6913812500.0 -0.29058837890625 -1.35418701171875
6945034375.0 -1.06756591796875 -1.0211181640625
6976256250.0 -1.58978271484375 -0.0947265625
7007478125.0 -1.23541259765625 0.93072509765625
7038700000.0 -0.40313720703125 1.34051513671875
7069921875.0 0.35662841796875 1.320556640625
7101143750.0 1.114501953125 0.96728515625
7132365625.0 1.59619140625 0.01678466796875
7163587500.0 1.1566162109375 -1.0181884765625
7194809375.0 0.30389404296875 -1.39404296875
7226031250.0 -0.50836181640625 -1.32318115234375
7257253125.0 -1.26275634765625 -0.82568359375
7288475000.0 -1.55706787109375 0.1981201171875
7319696875.0 -1.02935791015625 1.10540771484375
7350918750.0 -0.166015625 1.44146728515625
7382140625.0 0.71466064453125 1.27447509765625
7413362500.0 1.373779296875 0.57647705078125
7444584375.0 1.41070556640625 -0.40765380859375
7475806250.0 0.85784912109375 -1.13885498046875
7507028125.0 0.00732421875 -1.42669677734375
7538250000.0 -0.8834228515625 -1.12200927734375
7569471875.0 -1.33282470703125 -0.3123779296875
7600693750.0 -1.20123291015625 0.49566650390625
7631915625.0 -0.71783447265625 1.083740234375
7663137500.0 0.079833984375 1.35711669921875
7694359375.0 0.93658447265625 0.979736328125
7725581250.0 1.2420654296875 0.1807861328125
7756803125.0 1.081787109375 -0.49835205078125
7788025000.0 0.6700439453125 -1.041015625
7819246875.0 -0.11956787109375 -1.34503173828125
7850468750.0 -0.990020751953125 -0.91510009765625
7881690625.0 -1.22894287109375 -0.10614013671875
7912912500.0 -1.05352783203125 0.55194091796875
7944134375.0 -0.60565185546875 1.110107421875
7975356250.0 0.2696533203125 1.3328857421875
8006578125.0 1.045166015625 0.7783203125
8037800000.0 1.19317626953125 0.01715087890625
8069021875.0 1.00567626953125 -0.61492919921875
8100243750.0 0.50067138671875 -1.158447265625
8131465625.0 -0.386474609375 -1.25274658203125
8162687500.0 -1.03057861328125 -0.6864013671875
8193909375.0 -1.1790771484375 0.0076904296875
8225131250.0 -1.01727294921875 0.67669677734375
8256353125.0 -0.4229736328125 1.2451171875
8287575000.0 0.49835205078125 1.224853515625
8318796875.0 1.081298828125 0.63568115234375
8350018750.0 1.24346923828125 -0.07421875
8381240625.0 1.0306396484375 -0.83837890625
8412462500.0 0.2548828125 -1.37322998046875
8443684375.0 -0.66741943359375 -1.168701171875
8474906250.0 -1.1748046875 -0.53143310546875
8506128125.0 -1.29595947265625 0.23602294921875
8537350000.0 -0.92388916015625 1.04296875
8568571875.0 -0.01507568359375 1.39508056640625
8599793750.0 0.80126953125 1.0526123046875
8631015625.0 1.23876953125 0.39886474609375
8662237500.0 1.28350830078125 -0.4267578125
8693459375.0 0.73626708984375 -1.17620849609375
8724681250.0 -0.1600341796875 -1.32940673828125
8755903125.0 -0.877777099609375 -0.956329345703125
8787125000.0 -1.30084228515625 -0.282958984375
8818346875.0 -1.24945068359375 0.6141357421875
8849568750.0 -0.55657958984375 1.25677490234375
8880790625.0 0.2969970703125 1.28326416015625
8912012500.0 0.9796142578125 0.891693115234375
8943234375.0 1.39691162109375 0.129638671875
8974456250.0 1.1651611328125 -0.838134765625
9005678125.0 0.3487548828125 -1.3111572265625
9036900000.0 -0.4442138671875 -1.224365234375
9068121875.0 -1.10015869140625 -0.78436279296875
9099343750.0 -1.439453125 0.09649658203125
9130565625.0 -0.97882080078125 1.0115966796875
9161787500.0 -0.15484619140625 1.2816162109375
9193009375.0 0.55389404296875 1.1336669921875
9224231250.0 1.1778564453125 0.6552734375
9255453125.0 1.39697265625 -0.29364013671875
9286675000.0 0.807861328125 -1.08282470703125
9317896875.0 0.0284423828125 -1.243896484375
9349118750.0 -0.65252685546875 -1.0689697265625
9380340625.0 -1.25421142578125 -0.510498046875
9411562500.0 -1.3114013671875 0.47528076171875
9442784375.0 -0.6483154296875 1.115234375
9474006250.0 0.0887451171875 1.2093505859375
9505228125.0 0.76251220703125 0.979583740234375
9536450000.0 1.271484375 0.31402587890625
9567671875.0 1.14239501953125 -0.578369140625
9598893750.0 0.52972412109375 -1.06671142578125
9630115625.0 -0.142822265625 -1.1568603515625
9661337500.0 -0.81658935546875 -0.90155029296875
9692559375.0 -1.2379150390625 -0.1903076171875
9723781250.0 -1.0438232421875 0.60302734375
9755003125.0 -0.48651123046875 1.04693603515625
9786225000.0 0.19647216796875 1.1572265625
9817446875.0 0.89239501953125 0.82708740234375
9848668750.0 1.19683837890625 0.0806884765625
9879890625.0 0.9676513671875 -0.615264892578125
9911112500.0 0.45233154296875 -1.04962158203125
9942334375.0 -0.2672119140625 -1.15887451171875
9973556250.0 -0.942657470703125 -0.73870849609375
10004778125.0 -1.14501953125 -0.0174560546875
10036000000.0 -0.944122314453125 0.61572265625
10067221875.0 -0.442138671875 1.0948486328125
10098443750.0 0.36968994140625 1.17999267578125
10129665625.0 1.001220703125 0.64312744140625
10160887500.0 1.11895751953125 -0.05084228515625
10192109375.0 0.916961669921875 -0.660980224609375
10223331250.0 0.36126708984375 -1.151123046875
10254553125.0 -0.48388671875 -1.11322021484375
10285775000.0 -0.9847412109375 -0.5347900390625
10316996875.0 -1.066162109375 0.07586669921875
10348218750.0 -0.90032958984375 0.668426513671875
10379440625.0 -0.323486328125 1.1734619140625
10410662500.0 0.52545166015625 1.08392333984375
10441884375.0 0.990814208984375 0.521820068359375
10473106250.0 1.10888671875 -0.08380126953125
10504328125.0 0.94866943359375 -0.757293701171875
10535550000.0 0.2403564453125 -1.29364013671875
10566771875.0 -0.65509033203125 -1.07666015625
10597993750.0 -1.0799560546875 -0.459228515625
10629215625.0 -1.174560546875 0.2044677734375
10660437500.0 -0.886810302734375 0.95013427734375
10691659375.0 -0.0118408203125 1.333984375
10722881250.0 0.78179931640625 0.951751708984375
10754103125.0 1.1171875 0.32501220703125
10785325000.0 1.138671875 -0.36627197265625
10816546875.0 0.7008056640625 -1.04681396484375
10847768750.0 -0.145263671875 -1.22900390625
10878990625.0 -0.802337646484375 -0.843170166015625
10910212500.0 -1.11981201171875 -0.246826171875
10941434375.0 -1.0972900390625 0.474853515625
10972656250.0 -0.56805419921875 1.0849609375
11003878125.0 0.21527099609375 1.17266845703125
11035100000.0 0.8463134765625 0.821746826171875
11066321875.0 1.21978759765625 0.17431640625
11097543750.0 1.09735107421875 -0.6749267578125
11128765625.0 0.385498046875 -1.1982421875
11159987500.0 -0.396240234375 -1.138671875
11191209375.0 -0.998016357421875 -0.70269775390625
11222431250.0 -1.27130126953125 0.093017578125
11253653125.0 -0.858306884765625 0.89300537109375
11284875000.0 -0.1156005859375 1.1253662109375
11316096875.0 0.510650634765625 0.95611572265625
11347318750.0 1.00115966796875 0.502197265625
11378540625.0 1.11578369140625 -0.26776123046875
11409762500.0 0.63494873046875 -0.858306884765625
11440984375.0 0.037200927734375 -0.9771728515625
11472206250.0 -0.478668212890625 -0.849365234375
11503428125.0 -0.95123291015625 -0.45672607421875
11534650000.0 -1.06854248046875 0.28839111328125
11565871875.0 -0.603302001953125 0.85211181640625
11597093750.0 -0.018890380859375 0.990234375
11628315625.0 0.543975830078125 0.875274658203125
11659537500.0 1.05859375 0.392822265625
11690759375.0 1.0638427734375 -0.4327392578125
11721981250.0 0.517608642578125 -0.939453125
11753203125.0 -0.104736328125 -1.0341796875
11784425000.0 -0.72235107421875 -0.80828857421875
11815646875.0 -1.099609375 -0.15167236328125
11846868750.0 -0.89056396484375 0.549591064453125
11878090625.0 -0.3912353515625 0.90740966796875
11909312500.0 0.1859130859375 0.983184814453125
11940534375.0 0.779022216796875 0.695037841796875
11971756250.0 1.024169921875 0.04052734375
12002978125.0 0.80615234375 -0.5369873046875
12034200000.0 0.3819580078125 -0.887451171875
12065421875.0 -0.21429443359375 -1.0087890625
12096643750.0 -0.84613037109375 -0.665924072265625
12127865625.0 -1.032470703125 0.016357421875
12159087500.0 -0.81475830078125 0.57550048828125
12190309375.0 -0.37811279296875 0.975006103515625
12221531250.0 0.33770751953125 1.0870361328125
12252753125.0 0.978729248046875 0.58203125
12283975000.0 1.05364990234375 -0.1280517578125
12315196875.0 0.80047607421875 -0.675689697265625
12346418750.0 0.2813720703125 -1.08880615234375
12377640625.0 -0.5350341796875 -1.05938720703125
12408862500.0 -1.0338134765625 -0.41943359375
12440084375.0 -1.00738525390625 0.223388671875
12471306250.0 -0.7412109375 0.737091064453125
12502528125.0 -0.1798095703125 1.11944580078125
12533750000.0 0.61932373046875 0.993316650390625
12564971875.0 1.039794921875 0.364013671875
12596193750.0 1.0283203125 -0.26385498046875
12627415625.0 0.747650146484375 -0.827911376953125
12658637500.0 0.0799560546875 -1.20672607421875
12689859375.0 -0.735260009765625 -0.966156005859375
12721081250.0 -1.11627197265625 -0.3062744140625
12752303125.0 -1.09674072265625 0.38238525390625
12783525000.0 -0.68670654296875 1.02642822265625
12814746875.0 0.16357421875 1.250244140625
12845968750.0 0.861358642578125 0.811065673828125
12877190625.0 1.117431640625 0.17266845703125
12908412500.0 1.05535888671875 -0.5013427734375
12939634375.0 0.5428466796875 -1.1148681640625
12970856250.0 -0.31866455078125 -1.17425537109375
13002078125.0 -0.893341064453125 -0.693023681640625
13033300000.0 -1.1046142578125 -0.08831787109375
13064521875.0 -1.00860595703125 0.5911865234375
13095743750.0 -0.421142578125 1.15325927734375
13126965625.0 0.40753173828125 1.11993408203125
13158187500.0 0.94720458984375 0.631622314453125
13189409375.0 1.14874267578125 -0.02178955078125
13220631250.0 0.9361572265625 -0.74847412109375
13251853125.0 0.236328125 -1.16949462890625
13283075000.0 -0.505859375 -1.01837158203125
13314296875.0 -0.986724853515625 -0.529144287109375
13345518750.0 -1.13385009765625 0.17510986328125
