!Created with skrf (http://scikit-rf.org).
# Hz S RI R 50.0 
!freq ReS11 ImS11
45000000.0 -0.077056884765625 -0.09667587280273438
76221875.0 -0.196319580078125 -0.0475616455078125
107443750.0 -0.254791259765625 0.1195220947265625
138665625.0 -0.148223876953125 0.3281402587890625
169887500.0 0.1235504150390625 0.4172821044921875
201109375.0 0.421539306640625 0.28070068359375
232331250.0 0.57843017578125 -0.057525634765625
263553125.0 0.48931884765625 -0.452392578125
294775000.0 0.098480224609375 -0.73193359375
325996875.0 -0.415130615234375 -0.67987060546875
357218750.0 -0.805511474609375 -0.296844482421875
388440625.0 -0.884765625 0.30035400390625
419662500.0 -0.516845703125 0.865814208984375
450884375.0 0.1729736328125 1.02764892578125
482106250.0 0.7977294921875 0.71185302734375
513328125.0 1.118408203125 0.0870361328125
544550000.0 1.002685546875 -0.6790771484375
575771875.0 0.33612060546875 -1.237060546875
606993750.0 -0.55340576171875 -1.17596435546875
638215625.0 -1.16473388671875 -0.5897216796875
669437500.0 -1.33856201171875 0.23333740234375
700659375.0 -0.969970703125 1.09527587890625
731881250.0 -0.00384521484375 1.54132080078125
763103125.0 1.0047607421875 1.154296875
794325000.0 1.4671630859375 0.28118896484375
825546875.0 1.36566162109375 -0.65069580078125
856768750.0 0.79388427734375 -1.39892578125
887990625.0 -0.2921142578125 -1.64630126953125
919212500.0 -1.2867431640625 -1.0772705078125
950434375.0 -1.64642333984375 -0.05914306640625
981656250.0 -1.3807373046875 0.94427490234375
1012878125.0 -0.529052734375 1.669189453125
1044100000.0 0.69586181640625 1.65997314453125
1075321875.0 1.572021484375 0.811279296875
1106543750.0 1.70208740234375 -0.31201171875
1137765625.0 1.18499755859375 -1.2825927734375
1168987500.0 0.1378173828125 -1.79461669921875
1200209375.0 -1.06011962890625 -1.48162841796875
1231431250.0 -1.7247314453125 -0.45318603515625
1262653125.0 -1.5921630859375 0.6837158203125
1293875000.0 -0.850830078125 1.48944091796875
1325096875.0 0.22772216796875 1.7042236328125
1356318750.0 1.23297119140625 1.21478271484375
1387540625.0 1.73760986328125 0.18865966796875
1418762500.0 1.46722412109375 -0.949951171875
1449984375.0 0.528564453125 -1.62347412109375
1481206250.0 -0.5491943359375 -1.55377197265625
1512428125.0 -1.340087890625 -0.91839599609375
1543650000.0 -1.653564453125 0.06475830078125
1574871875.0 -1.271728515625 1.10699462890625
1606093750.0 -0.27264404296875 1.62896728515625
1637315625.0 0.7410888671875 1.3983154296875
1668537500.0 1.39404296875 0.695068359375
1699759375.0 1.5706787109375 -0.276611328125
1730981250.0 1.0626220703125 -1.22735595703125
1762203125.0 0.04205322265625 -1.56854248046875
1793425000.0 -0.85443115234375 -1.2247314453125
1824646875.0 -1.39105224609375 -0.51458740234375
1855868750.0 -1.4718017578125 0.43133544921875
1887090625.0 -0.87353515625 1.28326416015625
1918312500.0 0.11688232421875 1.484375
1949534375.0 0.92010498046875 1.08746337890625
1980756250.0 1.3731689453125 0.3697509765625
2011978125.0 1.35748291015625 -0.53057861328125
2043200000.0 0.74871826171875 -1.25927734375
2074421875.0 -0.1561279296875 -1.43096923828125
2105643750.0 -0.95867919921875 -1.07098388671875
2136865625.0 -1.4454345703125 -0.30450439453125
2168087500.0 -1.355224609375 0.669921875
2199309375.0 -0.63836669921875 1.34942626953125
2230531250.0 0.2811279296875 1.4337158203125
2261753125.0 1.07073974609375 1.0125732421875
2292975000.0 1.51190185546875 0.17047119140625
2324196875.0 1.30328369140625 -0.8172607421875
2355418750.0 0.524658203125 -1.41778564453125
2386640625.0 -0.40380859375 -1.44671630859375
2417862500.0 -1.17919921875 -1.02264404296875
2449084375.0 -1.60186767578125 -0.08441162109375
2480306250.0 -1.3095703125 0.92230224609375
2511528125.0 -0.49365234375 1.5059814453125
2542750000.0 0.486572265625 1.5328369140625
2573971875.0 1.3681640625 0.96685791015625
2605193750.0 1.71429443359375 -0.11181640625
2636415625.0 1.25927734375 -1.1495361328125
2667637500.0 0.30621337890625 -1.66455078125
2698859375.0 -0.7686767578125 -1.53125
2730081250.0 -1.5709228515625 -0.73980712890625
2761303125.0 -1.67767333984375 0.38702392578125
2792525000.0 -1.0977783203125 1.3048095703125
2823746875.0 -0.10260009765625 1.72698974609375
2854968750.0 1.0096435546875 1.45281982421875
2886190625.0 1.688720703125 0.49102783203125
2917412500.0 1.596923828125 -0.616943359375
2948634375.0 0.93731689453125 -1.430908203125
2979856250.0 -0.107421875 -1.773193359375
3011078125.0 -1.24462890625 -1.3399658203125
3042300000.0 -1.77166748046875 -0.2340087890625
3073521875.0 -1.5064697265625 0.83660888671875
3104743750.0 -0.76220703125 1.5643310546875
3135965625.0 0.36053466796875 1.8055419921875
3167187500.0 1.49615478515625 1.16241455078125
3198409375.0 1.8121337890625 -0.07415771484375
3229631250.0 1.34674072265625 -1.07952880859375
3260853125.0 0.48822021484375 -1.6651611328125
3292075000.0 -0.65325927734375 -1.6953125
3323296875.0 -1.61627197265625 -0.87835693359375
3354518750.0 -1.726318359375 0.3271484375
3385740625.0 -1.15386962890625 1.22900390625
3416962500.0 -0.23248291015625 1.67633056640625
3448184375.0 0.8575439453125 1.5189208984375
3479406250.0 1.633544921875 0.64300537109375
3510628125.0 1.64093017578125 -0.49359130859375
3541850000.0 0.99847412109375 -1.35296630859375
3573071875.0 -0.0072021484375 -1.67889404296875
3604293750.0 -1.025390625 -1.33514404296875
3635515625.0 -1.6243896484375 -0.4383544921875
3666737500.0 -1.55877685546875 0.644287109375
3697959375.0 -0.8232421875 1.4737548828125
3729181250.0 0.2672119140625 1.62725830078125
3760403125.0 1.14959716796875 1.0963134765625
3791625000.0 1.54949951171875 0.21856689453125
3822846875.0 1.39923095703125 -0.7581787109375
3854068750.0 0.619873046875 -1.47760009765625
3885290625.0 -0.418701171875 -1.47796630859375
3916512500.0 -1.13922119140625 -0.90924072265625
3947734375.0 -1.44451904296875 -0.1202392578125
3978956250.0 -1.29559326171875 0.77740478515625
4010178125.0 -0.5311279296875 1.45166015625
4041400000.0 0.47100830078125 1.41204833984375
4072621875.0 1.1494140625 0.84674072265625
4103843750.0 1.442138671875 0.06396484375
4135065625.0 1.2655029296875 -0.84320068359375
4166287500.0 0.4578857421875 -1.49224853515625
4197509375.0 -0.55615234375 -1.41259765625
4228731250.0 -1.245361328125 -0.80181884765625
4259953125.0 -1.5064697265625 0.07012939453125
4291175000.0 -1.1865234375 1.00823974609375
4322396875.0 -0.28955078125 1.52264404296875
4353618750.0 0.67059326171875 1.34771728515625
4384840625.0 1.32025146484375 0.69635009765625
4416062500.0 1.49835205078125 -0.22705078125
4447284375.0 1.0537109375 -1.101318359375
4478506250.0 0.1732177734375 -1.49212646484375
4509728125.0 -0.7303466796875 -1.30596923828125
4540950000.0 -1.39068603515625 -0.6361083984375
4572171875.0 -1.51953125 0.35784912109375
4603393750.0 -0.97174072265625 1.2100830078125
4634615625.0 -0.06207275390625 1.53485107421875
4665837500.0 0.8681640625 1.302734375
4697059375.0 1.53814697265625 0.514892578125
4728281250.0 1.526611328125 -0.581298828125
4759503125.0 0.82220458984375 -1.36407470703125
4790725000.0 -0.144775390625 -1.57049560546875
4821946875.0 -1.08050537109375 -1.1922607421875
4853168750.0 -1.6107177734375 -0.25115966796875
4884390625.0 -1.3760986328125 0.7916259765625
4915612500.0 -0.61297607421875 1.410888671875
4946834375.0 0.32672119140625 1.50628662109375
4978056250.0 1.20281982421875 1.01690673828125
5009278125.0 1.55889892578125 0.04022216796875
5040500000.0 1.22760009765625 -0.87396240234375
5071721875.0 0.50152587890625 -1.411865234375
5102943750.0 -0.44561767578125 -1.49481201171875
5134165625.0 -1.33343505859375 -0.904541015625
5165387500.0 -1.56512451171875 0.144775390625
5196609375.0 -1.134765625 1.00775146484375
5227831250.0 -0.357666015625 1.50311279296875
5259053125.0 0.68572998046875 1.48992919921875
5290275000.0 1.51898193359375 0.66241455078125
5321496875.0 1.49053955078125 -0.43023681640625
5352718750.0 0.919921875 -1.15087890625
5383940625.0 0.09625244140625 -1.49798583984375
5415162500.0 -0.8975830078125 -1.2818603515625
5446384375.0 -1.48175048828125 -0.37054443359375
5477606250.0 -1.297119140625 0.56414794921875
5508828125.0 -0.7301025390625 1.149169921875
5540050000.0 0.05322265625 1.39697265625
5571271875.0 0.9373779296875 1.107421875
5602493750.0 1.40631103515625 0.2603759765625
5633715625.0 1.2303466796875 -0.611083984375
5664937500.0 0.64764404296875 -1.19952392578125
5696159375.0 -0.1961669921875 -1.3822021484375
5727381250.0 -1.0191650390625 -0.97772216796875
5758603125.0 -1.389892578125 -0.14532470703125
5789825000.0 -1.1927490234375 0.7156982421875
5821046875.0 -0.50640869140625 1.30426025390625
5852268750.0 0.40966796875 1.311279296875
5883490625.0 1.0703125 0.771484375
5914712500.0 1.3001708984375 0.02069091796875
5945934375.0 1.09490966796875 -0.77374267578125
5977156250.0 0.36181640625 -1.3095703125
6008378125.0 -0.50799560546875 -1.18084716796875
6039600000.0 -1.019775390625 -0.6488037109375
6070821875.0 -1.22149658203125 -0.0052490234375
6102043750.0 -1.08221435546875 0.76068115234375
6133265625.0 -0.34283447265625 1.342041015625
6164487500.0 0.56201171875 1.18634033203125
6195709375.0 1.0694580078125 0.63006591796875
6226931250.0 1.27777099609375 -0.042236328125
6258153125.0 1.10333251953125 -0.8697509765625
6289375000.0 0.25677490234375 -1.44354248046875
6320596875.0 -0.6884765625 -1.20501708984375
6351818750.0 -1.19775390625 -0.57208251953125
6383040625.0 -1.35302734375 0.2060546875
6414262500.0 -0.9996337890625 1.0556640625
6445484375.0 -0.0787353515625 1.455322265625
6476706250.0 0.79437255859375 1.147216796875
6507928125.0 1.2889404296875 0.4698486328125
6539150000.0 1.3455810546875 -0.38494873046875
6570371875.0 0.84039306640625 -1.14239501953125
6601593750.0 -0.01629638671875 -1.40264892578125
6632815625.0 -0.83758544921875 -1.13555908203125
6664037500.0 -1.3995361328125 -0.42022705078125
6695259375.0 -1.37213134765625 0.56329345703125
6726481250.0 -0.70989990234375 1.24945068359375
6757703125.0 0.12921142578125 1.40435791015625
6788925000.0 0.953125 1.12939453125
6820146875.0 1.5584716796875 0.28851318359375
6851368750.0 1.32470703125 -0.81768798828125
6882590625.0 0.506591796875 -1.3372802734375
6913812500.0 -0.29052734375 -1.3546142578125
6945034375.0 -1.06915283203125 -1.02117919921875
6976256250.0 -1.58953857421875 -0.09454345703125
7007478125.0 -1.23565673828125 0.93035888671875
7038700000.0 -0.4024658203125 1.341552734375
7069921875.0 0.35565185546875 1.32025146484375
7101143750.0 1.1160888671875 0.96783447265625
7132365625.0 1.59783935546875 0.0140380859375
7163587500.0 1.15545654296875 -1.01715087890625
7194809375.0 0.30224609375 -1.3946533203125
7226031250.0 -0.51104736328125 -1.32427978515625
7257253125.0 -1.26446533203125 -0.8233642578125
7288475000.0 -1.5576171875 0.19677734375
7319696875.0 -1.02972412109375 1.10748291015625
7350918750.0 -0.16546630859375 1.44183349609375
7382140625.0 0.7139892578125 1.2755126953125
7413362500.0 1.37322998046875 0.57666015625
7444584375.0 1.4107666015625 -0.40594482421875
7475806250.0 0.857421875 -1.14166259765625
7507028125.0 0.0059814453125 -1.42718505859375
7538250000.0 -0.88494873046875 -1.12274169921875
7569471875.0 -1.33453369140625 -0.3118896484375
7600693750.0 -1.20123291015625 0.496826171875
7631915625.0 -0.71759033203125 1.082763671875
7663137500.0 0.07940673828125 1.3570556640625
7694359375.0 0.939971923828125 0.97900390625
7725581250.0 1.24224853515625 0.18157958984375
7756803125.0 1.0821533203125 -0.49847412109375
7788025000.0 0.67022705078125 -1.04248046875
7819246875.0 -0.120849609375 -1.34600830078125
7850468750.0 -0.992889404296875 -0.915069580078125
7881690625.0 -1.22930908203125 -0.10699462890625
7912912500.0 -1.05413818359375 0.55181884765625
7944134375.0 -0.60595703125 1.1119384765625
7975356250.0 0.269775390625 1.33294677734375
8006578125.0 1.04412841796875 0.77874755859375
8037800000.0 1.1927490234375 0.017333984375
8069021875.0 1.00579833984375 -0.6162109375
8100243750.0 0.50054931640625 -1.15789794921875
8131465625.0 -0.3856201171875 -1.252197265625
8162687500.0 -1.030029296875 -0.68603515625
8193909375.0 -1.17950439453125 0.008056640625
8225131250.0 -1.01629638671875 0.67657470703125
8256353125.0 -0.4217529296875 1.2486572265625
8287575000.0 0.49810791015625 1.2242431640625
8318796875.0 1.07928466796875 0.6343994140625
8350018750.0 1.2427978515625 -0.0738525390625
8381240625.0 1.030517578125 -0.8370361328125
8412462500.0 0.2557373046875 -1.3714599609375
8443684375.0 -0.66845703125 -1.1693115234375
8474906250.0 -1.17431640625 -0.5322265625
8506128125.0 -1.2965087890625 0.23455810546875
8537350000.0 -0.9232177734375 1.04473876953125
8568571875.0 -0.017578125 1.3917236328125
8599793750.0 0.79931640625 1.0528564453125
8631015625.0 1.24029541015625 0.3985595703125
8662237500.0 1.28411865234375 -0.4263916015625
8693459375.0 0.73516845703125 -1.17620849609375
8724681250.0 -0.16143798828125 -1.32989501953125
8755903125.0 -0.87939453125 -0.9576416015625
8787125000.0 -1.30108642578125 -0.283447265625
8818346875.0 -1.24822998046875 0.6136474609375
8849568750.0 -0.55731201171875 1.2578125
8880790625.0 0.298095703125 1.284423828125
8912012500.0 0.9788818359375 0.89227294921875
8943234375.0 1.3956298828125 0.13079833984375
8974456250.0 1.16497802734375 -0.83599853515625
9005678125.0 0.34869384765625 -1.31134033203125
9036900000.0 -0.44482421875 -1.2239990234375
9068121875.0 -1.10003662109375 -0.7861328125
9099343750.0 -1.44036865234375 0.096923828125
9130565625.0 -0.97967529296875 1.01055908203125
9161787500.0 -0.15478515625 1.28265380859375
9193009375.0 0.5528564453125 1.13226318359375
9224231250.0 1.177978515625 0.65496826171875
9255453125.0 1.39764404296875 -0.2935791015625
9286675000.0 0.8074951171875 -1.081787109375
9317896875.0 0.0274658203125 -1.2449951171875
9349118750.0 -0.654541015625 -1.0692138671875
9380340625.0 -1.255859375 -0.51031494140625
9411562500.0 -1.3101806640625 0.475341796875
9442784375.0 -0.648681640625 1.11468505859375
9474006250.0 0.08709716796875 1.20849609375
9505228125.0 0.76116943359375 0.979705810546875
9536450000.0 1.2720947265625 0.314453125
9567671875.0 1.14251708984375 -0.57794189453125
9598893750.0 0.5301513671875 -1.0675048828125
9630115625.0 -0.143798828125 -1.15692138671875
9661337500.0 -0.816375732421875 -0.902740478515625
9692559375.0 -1.23687744140625 -0.1920166015625
9723781250.0 -1.04351806640625 0.60150146484375
9755003125.0 -0.486572265625 1.04803466796875
9786225000.0 0.197265625 1.15802001953125
9817446875.0 0.892730712890625 0.82666015625
9848668750.0 1.19598388671875 0.07940673828125
9879890625.0 0.967376708984375 -0.614501953125
9911112500.0 0.4522705078125 -1.05133056640625
9942334375.0 -0.26434326171875 -1.15728759765625
9973556250.0 -0.94287109375 -0.73834228515625
10004778125.0 -1.14569091796875 -0.017578125
10036000000.0 -0.943511962890625 0.614959716796875
10067221875.0 -0.4423828125 1.09503173828125
10098443750.0 0.36883544921875 1.179931640625
10129665625.0 1.00042724609375 0.64385986328125
10160887500.0 1.119873046875 -0.0511474609375
10192109375.0 0.9168701171875 -0.663177490234375
10223331250.0 0.3614501953125 -1.151123046875
10254553125.0 -0.4853515625 -1.11279296875
10285775000.0 -0.984344482421875 -0.5350341796875
10316996875.0 -1.06695556640625 0.07708740234375
10348218750.0 -0.89910888671875 0.669097900390625
10379440625.0 -0.3223876953125 1.173828125
10410662500.0 0.52685546875 1.08563232421875
10441884375.0 0.989501953125 0.52239990234375
10473106250.0 1.1075439453125 -0.08282470703125
10504328125.0 0.948760986328125 -0.756378173828125
10535550000.0 0.2392578125 -1.2935791015625
10566771875.0 -0.65740966796875 -1.0767822265625
10597993750.0 -1.08038330078125 -0.45965576171875
10629215625.0 -1.17352294921875 0.2032470703125
10660437500.0 -0.88751220703125 0.9490966796875
10691659375.0 -0.010498046875 1.3348388671875
10722881250.0 0.7835693359375 0.9525146484375
10754103125.0 1.117431640625 0.32525634765625
10785325000.0 1.13818359375 -0.36492919921875
10816546875.0 0.70068359375 -1.04736328125
10847768750.0 -0.14447021484375 -1.22833251953125
10878990625.0 -0.801788330078125 -0.843536376953125
10910212500.0 -1.12200927734375 -0.24554443359375
10941434375.0 -1.09625244140625 0.47515869140625
10972656250.0 -0.56805419921875 1.083740234375
11003878125.0 0.21624755859375 1.17230224609375
11035100000.0 0.845977783203125 0.82220458984375
11066321875.0 1.21893310546875 0.1754150390625
11097543750.0 1.097900390625 -0.6754150390625
11128765625.0 0.386962890625 -1.19757080078125
11159987500.0 -0.39739990234375 -1.139404296875
11191209375.0 -0.99786376953125 -0.70208740234375
11222431250.0 -1.27142333984375 0.0931396484375
11253653125.0 -0.85870361328125 0.89239501953125
11284875000.0 -0.11444091796875 1.12542724609375
11316096875.0 0.509033203125 0.95550537109375
11347318750.0 1.00079345703125 0.5030517578125
11378540625.0 1.11663818359375 -0.26763916015625
11409762500.0 0.63494873046875 -0.858184814453125
11440984375.0 0.0360107421875 -0.97784423828125
11472206250.0 -0.4801025390625 -0.85064697265625
11503428125.0 -0.951263427734375 -0.457122802734375
11534650000.0 -1.06793212890625 0.28656005859375
11565871875.0 -0.602630615234375 0.85205078125
11597093750.0 -0.02001953125 0.989105224609375
11628315625.0 0.543243408203125 0.8751220703125
11659537500.0 1.05853271484375 0.392822265625
11690759375.0 1.06378173828125 -0.4315185546875
11721981250.0 0.516998291015625 -0.94049072265625
11753203125.0 -0.10528564453125 -1.036376953125
11784425000.0 -0.722930908203125 -0.8084716796875
11815646875.0 -1.09814453125 -0.15191650390625
11846868750.0 -0.890838623046875 0.54913330078125
11878090625.0 -0.39129638671875 0.908538818359375
11909312500.0 0.186767578125 0.984588623046875
11940534375.0 0.779388427734375 0.69464111328125
11971756250.0 1.02471923828125 0.04071044921875
12002978125.0 0.805694580078125 -0.535430908203125
12034200000.0 0.3819580078125 -0.887542724609375
12065421875.0 -0.21478271484375 -1.00933837890625
12096643750.0 -0.84747314453125 -0.6651611328125
12127865625.0 -1.03228759765625 0.01531982421875
12159087500.0 -0.8143310546875 0.57440185546875
12190309375.0 -0.377685546875 0.973968505859375
12221531250.0 0.33734130859375 1.087158203125
12252753125.0 0.97857666015625 0.581787109375
12283975000.0 1.05462646484375 -0.1275634765625
12315196875.0 0.800140380859375 -0.67578125
12346418750.0 0.2821044921875 -1.08770751953125
12377640625.0 -0.537109375 -1.060302734375
12408862500.0 -1.03253173828125 -0.42041015625
12440084375.0 -1.00726318359375 0.224609375
12471306250.0 -0.741607666015625 0.736236572265625
12502528125.0 -0.17974853515625 1.11895751953125
12533750000.0 0.618682861328125 0.9931640625
12564971875.0 1.04119873046875 0.36358642578125
12596193750.0 1.02880859375 -0.26336669921875
12627415625.0 0.748046875 -0.828369140625
12658637500.0 0.080078125 -1.2064208984375
12689859375.0 -0.731964111328125 -0.965545654296875
12721081250.0 -1.11627197265625 -0.306640625
12752303125.0 -1.096435546875 0.38043212890625
12783525000.0 -0.6881103515625 1.02618408203125
12814746875.0 0.16387939453125 1.24945068359375
12845968750.0 0.862152099609375 0.811859130859375
12877190625.0 1.1171875 0.17236328125
12908412500.0 1.05523681640625 -0.50091552734375
12939634375.0 0.54388427734375 -1.11456298828125
12970856250.0 -0.32061767578125 -1.17376708984375
13002078125.0 -0.89239501953125 -0.694427490234375
13033300000.0 -1.105712890625 -0.08685302734375
13064521875.0 -1.00787353515625 0.5911865234375
13095743750.0 -0.421630859375 1.154052734375
13126965625.0 0.408935546875 1.1204833984375
13158187500.0 0.944671630859375 0.632720947265625
13189409375.0 1.14752197265625 -0.021240234375
13220631250.0 0.93548583984375 -0.7474365234375
13251853125.0 0.2352294921875 -1.172119140625
13283075000.0 -0.50482177734375 -1.019287109375
13314296875.0 -0.98358154296875 -0.52972412109375
13345518750.0 -1.1351318359375 0.178466796875
13376740625.0 -0.75323486328125 0.855743408203125
