!Created with skrf (http://scikit-rf.org).
# Hz S RI R 50.0 
!freq ReS11 ImS11
45000000.0 -0.07703399658203125 -0.09662628173828125
76221875.0 -0.19628143310546875 -0.0473785400390625
107443750.0 -0.25469970703125 0.1198577880859375
138665625.0 -0.1477508544921875 0.328399658203125
169887500.0 0.123779296875 0.417144775390625
201109375.0 0.4218292236328125 0.280609130859375
232331250.0 0.578704833984375 -0.057891845703125
263553125.0 0.4890289306640625 -0.4526824951171875
294775000.0 0.098114013671875 -0.73223876953125
325996875.0 -0.415740966796875 -0.67999267578125
357218750.0 -0.806060791015625 -0.296539306640625
388440625.0 -0.885101318359375 0.3009033203125
419662500.0 -0.516632080078125 0.8660888671875
450884375.0 0.17364501953125 1.02813720703125
482106250.0 0.798492431640625 0.711639404296875
513328125.0 1.118896484375 0.08648681640625
544550000.0 1.00262451171875 -0.67974853515625
575771875.0 0.33563232421875 -1.23760986328125
606993750.0 -0.55413818359375 -1.17633056640625
638215625.0 -1.1651611328125 -0.58941650390625
669437500.0 -1.3388671875 0.23419189453125
700659375.0 -0.9700927734375 1.09625244140625
731881250.0 -0.00299072265625 1.5419921875
763103125.0 1.00531005859375 1.15460205078125
794325000.0 1.46771240234375 0.2806396484375
825546875.0 1.3660888671875 -0.65167236328125
856768750.0 0.79339599609375 -1.39971923828125
887990625.0 -0.29315185546875 -1.64715576171875
919212500.0 -1.287109375 -1.0771484375
950434375.0 -1.64727783203125 -0.05810546875
981656250.0 -1.380859375 0.9456787109375
1012878125.0 -0.5284423828125 1.67010498046875
1044100000.0 0.697265625 1.659912109375
1075321875.0 1.573974609375 0.8104248046875
1106543750.0 1.70281982421875 -0.31304931640625
1137765625.0 1.18475341796875 -1.28369140625
1168987500.0 0.1368408203125 -1.7952880859375
1200209375.0 -1.06134033203125 -1.4815673828125
1231431250.0 -1.72637939453125 -0.45220947265625
1262653125.0 -1.59259033203125 0.6851806640625
1293875000.0 -0.850341796875 1.49041748046875
1325096875.0 0.2286376953125 1.70465087890625
1356318750.0 1.234375 1.21478271484375
1387540625.0 1.73809814453125 0.18768310546875
1418762500.0 1.46710205078125 -0.95123291015625
1449984375.0 0.52825927734375 -1.62420654296875
1481206250.0 -0.55010986328125 -1.55413818359375
1512428125.0 -1.3409423828125 -0.9178466796875
1543650000.0 -1.65380859375 0.0662841796875
1574871875.0 -1.27130126953125 1.10809326171875
1606093750.0 -0.271728515625 1.6298828125
1637315625.0 0.7421875 1.3985595703125
1668537500.0 1.3953857421875 0.6942138671875
1699759375.0 1.57110595703125 -0.27740478515625
1730981250.0 1.06219482421875 -1.22808837890625
1762203125.0 0.0413818359375 -1.56884765625
1793425000.0 -0.85528564453125 -1.22479248046875
1824646875.0 -1.392333984375 -0.51397705078125
1855868750.0 -1.472412109375 0.43212890625
1887090625.0 -0.8736572265625 1.28375244140625
1918312500.0 0.11785888671875 1.4853515625
1949534375.0 0.92071533203125 1.08758544921875
1980756250.0 1.3740234375 0.36932373046875
2011978125.0 1.35791015625 -0.53125
2043200000.0 0.74847412109375 -1.2603759765625
2074421875.0 -0.1573486328125 -1.4315185546875
2105643750.0 -0.95947265625 -1.071044921875
2136865625.0 -1.4461669921875 -0.30419921875
2168087500.0 -1.355224609375 0.67083740234375
2199309375.0 -0.6376953125 1.35040283203125
2230531250.0 0.28216552734375 1.4342041015625
2261753125.0 1.07183837890625 1.012451171875
2292975000.0 1.512939453125 0.1695556640625
2324196875.0 1.3038330078125 -0.8175048828125
2355418750.0 0.5242919921875 -1.41845703125
2386640625.0 -0.4041748046875 -1.447265625
2417862500.0 -1.18048095703125 -1.0228271484375
2449084375.0 -1.6021728515625 -0.08416748046875
2480306250.0 -1.3094482421875 0.92529296875
2511528125.0 -0.4923095703125 1.50555419921875
2542750000.0 0.4876708984375 1.53326416015625
2573971875.0 1.36981201171875 0.96636962890625
2605193750.0 1.71490478515625 -0.113037109375
2636415625.0 1.259521484375 -1.15069580078125
2667637500.0 0.30560302734375 -1.66485595703125
2698859375.0 -0.768798828125 -1.531005859375
2730081250.0 -1.57147216796875 -0.7384033203125
2761303125.0 -1.67822265625 0.38763427734375
2792525000.0 -1.09747314453125 1.30596923828125
2823746875.0 -0.10089111328125 1.72686767578125
2854968750.0 1.011474609375 1.45269775390625
2886190625.0 1.69012451171875 0.48956298828125
2917412500.0 1.59735107421875 -0.6175537109375
2948634375.0 0.93719482421875 -1.4312744140625
2979856250.0 -0.10888671875 -1.7742919921875
3011078125.0 -1.24652099609375 -1.33966064453125
3042300000.0 -1.77337646484375 -0.2333984375
3073521875.0 -1.50604248046875 0.8382568359375
3104743750.0 -0.76177978515625 1.56610107421875
3135965625.0 0.36199951171875 1.80615234375
3167187500.0 1.49908447265625 1.1617431640625
3198409375.0 1.81243896484375 -0.0751953125
3229631250.0 1.3466796875 -1.079833984375
3260853125.0 0.48828125 -1.66510009765625
3292075000.0 -0.65399169921875 -1.695068359375
3323296875.0 -1.61724853515625 -0.8779296875
3354518750.0 -1.72698974609375 0.3277587890625
3385740625.0 -1.1534423828125 1.22930908203125
3416962500.0 -0.23052978515625 1.67889404296875
3448184375.0 0.85968017578125 1.51934814453125
3479406250.0 1.6328125 0.6436767578125
3510628125.0 1.641357421875 -0.4945068359375
3541850000.0 0.99859619140625 -1.3533935546875
3573071875.0 -0.00799560546875 -1.67913818359375
3604293750.0 -1.02606201171875 -1.33477783203125
3635515625.0 -1.62646484375 -0.43695068359375
3666737500.0 -1.55841064453125 0.6441650390625
3697959375.0 -0.82354736328125 1.47442626953125
3729181250.0 0.26861572265625 1.62799072265625
3760403125.0 1.1507568359375 1.09619140625
3791625000.0 1.5498046875 0.2174072265625
3822846875.0 1.399169921875 -0.76043701171875
3854068750.0 0.619384765625 -1.47747802734375
3885290625.0 -0.42071533203125 -1.478515625
3916512500.0 -1.140380859375 -0.9095458984375
3947734375.0 -1.4443359375 -0.1199951171875
3978956250.0 -1.29486083984375 0.7772216796875
4010178125.0 -0.53009033203125 1.452392578125
4041400000.0 0.47210693359375 1.4127197265625
4072621875.0 1.15130615234375 0.84649658203125
4103843750.0 1.4432373046875 0.06219482421875
4135065625.0 1.26568603515625 -0.8453369140625
4166287500.0 0.45703125 -1.49346923828125
4197509375.0 -0.556396484375 -1.41326904296875
4228731250.0 -1.24542236328125 -0.8018798828125
4259953125.0 -1.5064697265625 0.06982421875
4291175000.0 -1.186767578125 1.0081787109375
4322396875.0 -0.2889404296875 1.523681640625
4353618750.0 0.6719970703125 1.3477783203125
4384840625.0 1.3197021484375 0.6961669921875
4416062500.0 1.49798583984375 -0.22723388671875
4447284375.0 1.05364990234375 -1.1021728515625
4478506250.0 0.1719970703125 -1.49346923828125
4509728125.0 -0.73126220703125 -1.30572509765625
4540950000.0 -1.3924560546875 -0.635009765625
4572171875.0 -1.52008056640625 0.35906982421875
4603393750.0 -0.97100830078125 1.21112060546875
4634615625.0 -0.061279296875 1.5347900390625
4665837500.0 0.8704833984375 1.30267333984375
4697059375.0 1.53936767578125 0.51495361328125
4728281250.0 1.52728271484375 -0.5819091796875
4759503125.0 0.82244873046875 -1.36505126953125
4790725000.0 -0.14569091796875 -1.571044921875
4821946875.0 -1.08233642578125 -1.19219970703125
4853168750.0 -1.61065673828125 -0.25128173828125
4884390625.0 -1.37652587890625 0.79290771484375
4915612500.0 -0.61236572265625 1.41021728515625
4946834375.0 0.32794189453125 1.50689697265625
4978056250.0 1.20269775390625 1.01544189453125
5009278125.0 1.55938720703125 0.0389404296875
5040500000.0 1.2276611328125 -0.87469482421875
5071721875.0 0.5008544921875 -1.41229248046875
5102943750.0 -0.44610595703125 -1.494384765625
5134165625.0 -1.33380126953125 -0.90472412109375
5165387500.0 -1.56610107421875 0.14599609375
5196609375.0 -1.135009765625 1.00909423828125
5227831250.0 -0.3577880859375 1.5032958984375
5259053125.0 0.687744140625 1.49041748046875
5290275000.0 1.51995849609375 0.66180419921875
5321496875.0 1.49078369140625 -0.43048095703125
5352718750.0 0.9202880859375 -1.15142822265625
5383940625.0 0.0966796875 -1.4981689453125
5415162500.0 -0.9002685546875 -1.282958984375
5446384375.0 -1.48162841796875 -0.3699951171875
5477606250.0 -1.2977294921875 0.5657958984375
5508828125.0 -0.7301025390625 1.149658203125
5540050000.0 0.05364990234375 1.39654541015625
5571271875.0 0.9371337890625 1.10736083984375
5602493750.0 1.4066162109375 0.25982666015625
5633715625.0 1.23114013671875 -0.61187744140625
5664937500.0 0.6473388671875 -1.19989013671875
5696159375.0 -0.19586181640625 -1.38134765625
5727381250.0 -1.02142333984375 -0.97784423828125
5758603125.0 -1.38873291015625 -0.14544677734375
5789825000.0 -1.192626953125 0.71673583984375
5821046875.0 -0.5057373046875 1.30560302734375
5852268750.0 0.41070556640625 1.311279296875
5883490625.0 1.07025146484375 0.771240234375
5914712500.0 1.3016357421875 0.01922607421875
5945934375.0 1.0953369140625 -0.77490234375
5977156250.0 0.36114501953125 -1.31036376953125
6008378125.0 -0.50799560546875 -1.1807861328125
6039600000.0 -1.0198974609375 -0.6484375
6070821875.0 -1.22186279296875 -0.00482177734375
6102043750.0 -1.08154296875 0.7603759765625
6133265625.0 -0.3416748046875 1.3431396484375
6164487500.0 0.56292724609375 1.18646240234375
6195709375.0 1.069580078125 0.62939453125
6226931250.0 1.27783203125 -0.04217529296875
6258153125.0 1.10357666015625 -0.86956787109375
6289375000.0 0.256103515625 -1.4447021484375
6320596875.0 -0.68817138671875 -1.2052001953125
6351818750.0 -1.2001953125 -0.5712890625
6383040625.0 -1.353759765625 0.20703125
6414262500.0 -0.9991455078125 1.0562744140625
6445484375.0 -0.07830810546875 1.4560546875
6476706250.0 0.79510498046875 1.14691162109375
6507928125.0 1.2886962890625 0.4697265625
6539150000.0 1.34649658203125 -0.38641357421875
6570371875.0 0.84033203125 -1.14239501953125
6601593750.0 -0.01708984375 -1.4034423828125
6632815625.0 -0.8388671875 -1.13543701171875
6664037500.0 -1.3990478515625 -0.4200439453125
6695259375.0 -1.37298583984375 0.56610107421875
6726481250.0 -0.70989990234375 1.24951171875
6757703125.0 0.129638671875 1.40460205078125
6788925000.0 0.95379638671875 1.12957763671875
6820146875.0 1.55859375 0.28765869140625
6851368750.0 1.32452392578125 -0.818359375
6882590625.0 0.50579833984375 -1.3382568359375
6913812500.0 -0.29150390625 -1.35565185546875
6945034375.0 -1.06915283203125 -1.02044677734375
6976256250.0 -1.59130859375 -0.09307861328125
7007478125.0 -1.23419189453125 0.930908203125
7038700000.0 -0.40087890625 1.3426513671875
7069921875.0 0.3580322265625 1.32183837890625
7101143750.0 1.11688232421875 0.9677734375
7132365625.0 1.59759521484375 0.01580810546875
7163587500.0 1.15679931640625 -1.02032470703125
7194809375.0 0.30242919921875 -1.39520263671875
7226031250.0 -0.5128173828125 -1.3255615234375
7257253125.0 -1.2606201171875 -0.82427978515625
7288475000.0 -1.55731201171875 0.1995849609375
7319696875.0 -1.02923583984375 1.107421875
7350918750.0 -0.1639404296875 1.44244384765625
7382140625.0 0.71282958984375 1.27496337890625
7413362500.0 1.37567138671875 0.5753173828125
7444584375.0 1.41033935546875 -0.4061279296875
7475806250.0 0.858154296875 -1.140869140625
7507028125.0 0.006591796875 -1.427734375
7538250000.0 -0.88775634765625 -1.1234130859375
7569471875.0 -1.3348388671875 -0.31121826171875
7600693750.0 -1.201171875 0.49676513671875
7631915625.0 -0.716552734375 1.084716796875
7663137500.0 0.07965087890625 1.35650634765625
7694359375.0 0.9383544921875 0.98016357421875
7725581250.0 1.2412109375 0.1800537109375
7756803125.0 1.082275390625 -0.50006103515625
7788025000.0 0.66973876953125 -1.04241943359375
7819246875.0 -0.12115478515625 -1.34710693359375
7850468750.0 -0.9920654296875 -0.914642333984375
7881690625.0 -1.2296142578125 -0.105712890625
7912912500.0 -1.0537109375 0.552734375
7944134375.0 -0.605224609375 1.11236572265625
7975356250.0 0.27056884765625 1.334228515625
8006578125.0 1.045654296875 0.77862548828125
8037800000.0 1.19427490234375 0.01580810546875
8069021875.0 1.00634765625 -0.61602783203125
8100243750.0 0.50018310546875 -1.15869140625
8131465625.0 -0.38641357421875 -1.25274658203125
8162687500.0 -1.03369140625 -0.6856689453125
8193909375.0 -1.17974853515625 0.0086669921875
8225131250.0 -1.01776123046875 0.67706298828125
8256353125.0 -0.4205322265625 1.24896240234375
8287575000.0 0.49969482421875 1.22509765625
8318796875.0 1.08074951171875 0.63458251953125
8350018750.0 1.2435302734375 -0.07470703125
8381240625.0 1.03070068359375 -0.83819580078125
8412462500.0 0.255126953125 -1.37158203125
8443684375.0 -0.66845703125 -1.169189453125
8474906250.0 -1.17291259765625 -0.53265380859375
8506128125.0 -1.2977294921875 0.2369384765625
8537350000.0 -0.92364501953125 1.04632568359375
8568571875.0 -0.01617431640625 1.39434814453125
8599793750.0 0.8013916015625 1.05267333984375
8631015625.0 1.2418212890625 0.39727783203125
8662237500.0 1.28521728515625 -0.42889404296875
8693459375.0 0.73541259765625 -1.17578125
8724681250.0 -0.1634521484375 -1.33099365234375
8755903125.0 -0.879119873046875 -0.957183837890625
8787125000.0 -1.30145263671875 -0.28375244140625
8818346875.0 -1.2501220703125 0.6136474609375
8849568750.0 -0.5562744140625 1.2589111328125
8880790625.0 0.298095703125 1.28350830078125
8912012500.0 0.980194091796875 0.89202880859375
8943234375.0 1.39752197265625 0.1298828125
8974456250.0 1.16632080078125 -0.83831787109375
9005678125.0 0.34954833984375 -1.311279296875
9036900000.0 -0.4456787109375 -1.22467041015625
9068121875.0 -1.09967041015625 -0.78497314453125
9099343750.0 -1.4403076171875 0.0965576171875
9130565625.0 -0.9803466796875 1.0107421875
9161787500.0 -0.1541748046875 1.2825927734375
9193009375.0 0.55572509765625 1.1334228515625
9224231250.0 1.1763916015625 0.65509033203125
9255453125.0 1.398681640625 -0.29547119140625
9286675000.0 0.80670166015625 -1.0849609375
9317896875.0 0.0283203125 -1.24468994140625
9349118750.0 -0.65496826171875 -1.070068359375
9380340625.0 -1.25616455078125 -0.51007080078125
9411562500.0 -1.31048583984375 0.4749755859375
9442784375.0 -0.6483154296875 1.11590576171875
9474006250.0 0.088134765625 1.20928955078125
9505228125.0 0.761444091796875 0.979400634765625
9536450000.0 1.27264404296875 0.314697265625
9567671875.0 1.14324951171875 -0.57855224609375
9598893750.0 0.529541015625 -1.068359375
9630115625.0 -0.14215087890625 -1.15643310546875
9661337500.0 -0.817779541015625 -0.902557373046875
9692559375.0 -1.23846435546875 -0.18975830078125
9723781250.0 -1.04254150390625 0.60125732421875
9755003125.0 -0.48663330078125 1.048095703125
9786225000.0 0.19769287109375 1.15948486328125
9817446875.0 0.89520263671875 0.828033447265625
9848668750.0 1.19781494140625 0.07745361328125
9879890625.0 0.96771240234375 -0.616424560546875
9911112500.0 0.45233154296875 -1.05108642578125
9942334375.0 -0.2674560546875 -1.15869140625
9973556250.0 -0.94097900390625 -0.738037109375
10004778125.0 -1.1453857421875 -0.0174560546875
10036000000.0 -0.943634033203125 0.614990234375
10067221875.0 -0.44146728515625 1.09661865234375
10098443750.0 0.3699951171875 1.1812744140625
10129665625.0 1.001708984375 0.64300537109375
10160887500.0 1.11907958984375 -0.0511474609375
10192109375.0 0.91790771484375 -0.66424560546875
10223331250.0 0.36248779296875 -1.1517333984375
10254553125.0 -0.48419189453125 -1.1131591796875
10285775000.0 -0.9847412109375 -0.53594970703125
10316996875.0 -1.067138671875 0.07708740234375
10348218750.0 -0.899200439453125 0.6707763671875
10379440625.0 -0.322998046875 1.1739501953125
10410662500.0 0.52642822265625 1.0858154296875
10441884375.0 0.992523193359375 0.521087646484375
10473106250.0 1.108154296875 -0.08428955078125
10504328125.0 0.948211669921875 -0.756072998046875
10535550000.0 0.2408447265625 -1.29254150390625
10566771875.0 -0.65789794921875 -1.0772705078125
10597993750.0 -1.07806396484375 -0.45794677734375
10629215625.0 -1.17401123046875 0.20391845703125
10660437500.0 -0.887939453125 0.949493408203125
10691659375.0 -0.01055908203125 1.33489990234375
10722881250.0 0.784576416015625 0.952362060546875
10754103125.0 1.118408203125 0.32513427734375
10785325000.0 1.13848876953125 -0.36663818359375
10816546875.0 0.70068359375 -1.0482177734375
10847768750.0 -0.14361572265625 -1.22808837890625
10878990625.0 -0.802886962890625 -0.84381103515625
10910212500.0 -1.1219482421875 -0.24578857421875
10941434375.0 -1.09637451171875 0.47601318359375
10972656250.0 -0.568115234375 1.08465576171875
11003878125.0 0.2166748046875 1.17333984375
11035100000.0 0.84747314453125 0.821319580078125
11066321875.0 1.2197265625 0.1744384765625
11097543750.0 1.0975341796875 -0.676025390625
11128765625.0 0.3861083984375 -1.198486328125
11159987500.0 -0.39630126953125 -1.1396484375
11191209375.0 -0.998382568359375 -0.702728271484375
11222431250.0 -1.27197265625 0.09234619140625
11253653125.0 -0.859130859375 0.8924560546875
11284875000.0 -0.11590576171875 1.12506103515625
11316096875.0 0.5103759765625 0.955322265625
11347318750.0 1.0013427734375 0.50262451171875
11378540625.0 1.11651611328125 -0.2685546875
11409762500.0 0.63458251953125 -0.860076904296875
11440984375.0 0.037017822265625 -0.976806640625
11472206250.0 -0.478851318359375 -0.8494873046875
11503428125.0 -0.952667236328125 -0.4569091796875
11534650000.0 -1.0677490234375 0.28778076171875
11565871875.0 -0.6021728515625 0.85186767578125
11597093750.0 -0.0191650390625 0.990264892578125
11628315625.0 0.542938232421875 0.87481689453125
11659537500.0 1.0592041015625 0.3919677734375
11690759375.0 1.06396484375 -0.4320068359375
11721981250.0 0.516998291015625 -0.940185546875
11753203125.0 -0.1046142578125 -1.03643798828125
11784425000.0 -0.72308349609375 -0.808624267578125
11815646875.0 -1.0994873046875 -0.15118408203125
11846868750.0 -0.891845703125 0.55120849609375
11878090625.0 -0.391082763671875 0.908935546875
11909312500.0 0.187835693359375 0.984771728515625
11940534375.0 0.779144287109375 0.695953369140625
11971756250.0 1.02410888671875 0.04132080078125
12002978125.0 0.805877685546875 -0.536895751953125
12034200000.0 0.382049560546875 -0.888763427734375
12065421875.0 -0.21484375 -1.00885009765625
12096643750.0 -0.8475341796875 -0.6651611328125
12127865625.0 -1.034423828125 0.01751708984375
12159087500.0 -0.814727783203125 0.574005126953125
12190309375.0 -0.376953125 0.975372314453125
12221531250.0 0.33868408203125 1.087890625
12252753125.0 0.979736328125 0.58148193359375
12283975000.0 1.05340576171875 -0.12603759765625
12315196875.0 0.800323486328125 -0.675567626953125
12346418750.0 0.281005859375 -1.09173583984375
12377640625.0 -0.53802490234375 -1.06085205078125
12408862500.0 -1.03302001953125 -0.4200439453125
12440084375.0 -1.0081787109375 0.22454833984375
12471306250.0 -0.741668701171875 0.736968994140625
12502528125.0 -0.1807861328125 1.11834716796875
12533750000.0 0.61962890625 0.9932861328125
12564971875.0 1.04052734375 0.36407470703125
12596193750.0 1.02886962890625 -0.2635498046875
12627415625.0 0.747955322265625 -0.826324462890625
12658637500.0 0.08123779296875 -1.2066650390625
12689859375.0 -0.733154296875 -0.965301513671875
12721081250.0 -1.1146240234375 -0.30792236328125
12752303125.0 -1.09735107421875 0.38177490234375
12783525000.0 -0.6875 1.02667236328125
12814746875.0 0.16455078125 1.25042724609375
12845968750.0 0.862335205078125 0.810577392578125
12877190625.0 1.115234375 0.17230224609375
12908412500.0 1.05462646484375 -0.499267578125
12939634375.0 0.5430908203125 -1.1148681640625
12970856250.0 -0.31884765625 -1.1748046875
13002078125.0 -0.8951416015625 -0.69366455078125
13033300000.0 -1.1046142578125 -0.0882568359375
13064521875.0 -1.008544921875 0.59295654296875
13095743750.0 -0.42144775390625 1.15338134765625
13126965625.0 0.40777587890625 1.1207275390625
13158187500.0 0.9456787109375 0.632232666015625
13189409375.0 1.14739990234375 -0.0205078125
13220631250.0 0.9354248046875 -0.74542236328125
13251853125.0 0.2347412109375 -1.17047119140625
13283075000.0 -0.5059814453125 -1.019775390625
13314296875.0 -0.987640380859375 -0.529510498046875
13345518750.0 -1.1346435546875 0.1766357421875
