!Created with skrf (http://scikit-rf.org).
# Hz S RI R 50.0 
!freq ReS11 ImS11
45000000.0 -0.0773162841796875 -0.09658050537109375
76221875.0 -0.19667816162109375 -0.047332763671875
107443750.0 -0.2551116943359375 0.1201934814453125
138665625.0 -0.1478424072265625 0.3289031982421875
169887500.0 0.12408447265625 0.417449951171875
201109375.0 0.422271728515625 0.28076171875
232331250.0 0.5791015625 -0.05828857421875
263553125.0 0.489410400390625 -0.4536590576171875
294775000.0 0.09765625 -0.7327880859375
325996875.0 -0.416351318359375 -0.6805419921875
357218750.0 -0.80706787109375 -0.2962646484375
388440625.0 -0.8858642578125 0.301666259765625
419662500.0 -0.516571044921875 0.867279052734375
450884375.0 0.17413330078125 1.02935791015625
482106250.0 0.79962158203125 0.712127685546875
513328125.0 1.12005615234375 0.0859375
544550000.0 1.00341796875 -0.6812744140625
575771875.0 0.3353271484375 -1.23919677734375
606993750.0 -0.5550537109375 -1.17681884765625
638215625.0 -1.16668701171875 -0.58935546875
669437500.0 -1.33984375 0.2349853515625
700659375.0 -0.9703369140625 1.09722900390625
731881250.0 -0.0023193359375 1.543212890625
763103125.0 1.0068359375 1.15496826171875
794325000.0 1.46905517578125 0.28045654296875
825546875.0 1.36700439453125 -0.65277099609375
856768750.0 0.79327392578125 -1.4019775390625
887990625.0 -0.2940673828125 -1.6480712890625
919212500.0 -1.289794921875 -1.0775146484375
950434375.0 -1.648681640625 -0.0574951171875
981656250.0 -1.38165283203125 0.94744873046875
1012878125.0 -0.5283203125 1.67291259765625
1044100000.0 0.699462890625 1.6619873046875
1075321875.0 1.57574462890625 0.810546875
1106543750.0 1.70489501953125 -0.31494140625
1137765625.0 1.1856689453125 -1.285400390625
1168987500.0 0.13616943359375 -1.797607421875
1200209375.0 -1.06341552734375 -1.48272705078125
1231431250.0 -1.7281494140625 -0.4515380859375
1262653125.0 -1.59375 0.686279296875
1293875000.0 -0.85028076171875 1.49224853515625
1325096875.0 0.2298583984375 1.70654296875
1356318750.0 1.23590087890625 1.21533203125
1387540625.0 1.73968505859375 0.1875
1418762500.0 1.46844482421875 -0.95281982421875
1449984375.0 0.527587890625 -1.62628173828125
1481206250.0 -0.5511474609375 -1.5555419921875
1512428125.0 -1.3428955078125 -0.9185791015625
1543650000.0 -1.65533447265625 0.06689453125
1574871875.0 -1.2724609375 1.10980224609375
1606093750.0 -0.27117919921875 1.632080078125
1637315625.0 0.74371337890625 1.3995361328125
1668537500.0 1.396484375 0.69439697265625
1699759375.0 1.57269287109375 -0.27880859375
1730981250.0 1.0625 -1.22998046875
1762203125.0 0.04046630859375 -1.5701904296875
1793425000.0 -0.8563232421875 -1.225341796875
1824646875.0 -1.39312744140625 -0.5140380859375
1855868750.0 -1.47357177734375 0.43359375
1887090625.0 -0.87408447265625 1.28582763671875
1918312500.0 0.11810302734375 1.486328125
1949534375.0 0.9222412109375 1.0885009765625
1980756250.0 1.37567138671875 0.36907958984375
2011978125.0 1.35894775390625 -0.5333251953125
2043200000.0 0.74847412109375 -1.26171875
2074421875.0 -0.15802001953125 -1.4327392578125
2105643750.0 -0.961181640625 -1.07098388671875
2136865625.0 -1.447265625 -0.3033447265625
2168087500.0 -1.35577392578125 0.671875
2199309375.0 -0.6376953125 1.35137939453125
2230531250.0 0.2833251953125 1.435302734375
2261753125.0 1.0728759765625 1.0126953125
2292975000.0 1.513671875 0.1695556640625
2324196875.0 1.3045654296875 -0.8194580078125
2355418750.0 0.5240478515625 -1.42010498046875
2386640625.0 -0.405517578125 -1.44830322265625
2417862500.0 -1.18255615234375 -1.02239990234375
2449084375.0 -1.6046142578125 -0.08294677734375
2480306250.0 -1.3106689453125 0.925537109375
2511528125.0 -0.49285888671875 1.50762939453125
2542750000.0 0.489990234375 1.53546142578125
2573971875.0 1.37127685546875 0.9664306640625
2605193750.0 1.716796875 -0.11334228515625
2636415625.0 1.2606201171875 -1.1533203125
2667637500.0 0.30499267578125 -1.6673583984375
2698859375.0 -0.77069091796875 -1.5333251953125
2730081250.0 -1.57275390625 -0.73968505859375
2761303125.0 -1.6800537109375 0.389404296875
2792525000.0 -1.0977783203125 1.30780029296875
2823746875.0 -0.10064697265625 1.72869873046875
2854968750.0 1.01251220703125 1.4544677734375
2886190625.0 1.6915283203125 0.49005126953125
2917412500.0 1.59906005859375 -0.6192626953125
2948634375.0 0.9376220703125 -1.43359375
2979856250.0 -0.1082763671875 -1.77496337890625
3011078125.0 -1.25042724609375 -1.34088134765625
3042300000.0 -1.77459716796875 -0.23291015625
3073521875.0 -1.50714111328125 0.83868408203125
3104743750.0 -0.7620849609375 1.56878662109375
3135965625.0 0.36279296875 1.8076171875
3167187500.0 1.4981689453125 1.162353515625
3198409375.0 1.81640625 -0.0780029296875
3229631250.0 1.34722900390625 -1.08203125
3260853125.0 0.48809814453125 -1.667724609375
3292075000.0 -0.6561279296875 -1.69696044921875
3323296875.0 -1.6197509765625 -0.878173828125
3354518750.0 -1.72918701171875 0.3297119140625
3385740625.0 -1.154296875 1.23193359375
3416962500.0 -0.22967529296875 1.68084716796875
3448184375.0 0.860595703125 1.52081298828125
3479406250.0 1.63519287109375 0.643310546875
3510628125.0 1.64349365234375 -0.4964599609375
3541850000.0 0.9986572265625 -1.35406494140625
3573071875.0 -0.00897216796875 -1.68121337890625
3604293750.0 -1.02838134765625 -1.3363037109375
3635515625.0 -1.62725830078125 -0.4366455078125
3666737500.0 -1.56085205078125 0.64788818359375
3697959375.0 -0.823974609375 1.47491455078125
3729181250.0 0.26898193359375 1.62945556640625
3760403125.0 1.15252685546875 1.09698486328125
3791625000.0 1.55157470703125 0.21685791015625
3822846875.0 1.400634765625 -0.7635498046875
3854068750.0 0.61883544921875 -1.480712890625
3885290625.0 -0.42205810546875 -1.4798583984375
3916512500.0 -1.1422119140625 -0.90936279296875
3947734375.0 -1.4478759765625 -0.1181640625
3978956250.0 -1.2960205078125 0.77911376953125
4010178125.0 -0.53009033203125 1.454345703125
4041400000.0 0.47320556640625 1.41424560546875
4072621875.0 1.15155029296875 0.84661865234375
4103843750.0 1.4443359375 0.0625
4135065625.0 1.26654052734375 -0.847900390625
4166287500.0 0.4564208984375 -1.49591064453125
4197509375.0 -0.5579833984375 -1.414306640625
4228731250.0 -1.2489013671875 -0.80157470703125
4259953125.0 -1.5091552734375 0.07220458984375
4291175000.0 -1.18707275390625 1.0118408203125
4322396875.0 -0.2880859375 1.5260009765625
4353618750.0 0.67303466796875 1.34930419921875
4384840625.0 1.32220458984375 0.69525146484375
4416062500.0 1.4998779296875 -0.22772216796875
4447284375.0 1.05340576171875 -1.10418701171875
4478506250.0 0.17193603515625 -1.494384765625
4509728125.0 -0.7322998046875 -1.3060302734375
4540950000.0 -1.39422607421875 -0.6351318359375
4572171875.0 -1.521240234375 0.35986328125
4603393750.0 -0.9713134765625 1.21337890625
4634615625.0 -0.06048583984375 1.53704833984375
4665837500.0 0.8701171875 1.303466796875
4697059375.0 1.5401611328125 0.5147705078125
4728281250.0 1.52838134765625 -0.58392333984375
4759503125.0 0.822265625 -1.36737060546875
4790725000.0 -0.146240234375 -1.57177734375
4821946875.0 -1.08416748046875 -1.1929931640625
4853168750.0 -1.6126708984375 -0.25
4884390625.0 -1.37664794921875 0.7935791015625
4915612500.0 -0.612548828125 1.41241455078125
4946834375.0 0.32989501953125 1.50830078125
4978056250.0 1.204345703125 1.0167236328125
5009278125.0 1.56109619140625 0.03839111328125
5040500000.0 1.2281494140625 -0.87579345703125
5071721875.0 0.50054931640625 -1.41448974609375
5102943750.0 -0.44683837890625 -1.49542236328125
5134165625.0 -1.3350830078125 -0.905029296875
5165387500.0 -1.56756591796875 0.1463623046875
5196609375.0 -1.1356201171875 1.00927734375
5227831250.0 -0.35711669921875 1.50616455078125
5259053125.0 0.68865966796875 1.49151611328125
5290275000.0 1.5216064453125 0.6624755859375
5321496875.0 1.4920654296875 -0.4312744140625
5352718750.0 0.920166015625 -1.15289306640625
5383940625.0 0.09539794921875 -1.50030517578125
5415162500.0 -0.90069580078125 -1.28289794921875
5446384375.0 -1.48388671875 -0.369873046875
5477606250.0 -1.29827880859375 0.56622314453125
5508828125.0 -0.73114013671875 1.1502685546875
5540050000.0 0.054931640625 1.3984375
5571271875.0 0.93878173828125 1.10791015625
5602493750.0 1.408935546875 0.25830078125
5633715625.0 1.23126220703125 -0.61285400390625
5664937500.0 0.64776611328125 -1.201416015625
5696159375.0 -0.1966552734375 -1.38348388671875
5727381250.0 -1.02178955078125 -0.978271484375
5758603125.0 -1.39044189453125 -0.14471435546875
5789825000.0 -1.1939697265625 0.71917724609375
5821046875.0 -0.5057373046875 1.30828857421875
5852268750.0 0.4124755859375 1.313232421875
5883490625.0 1.07122802734375 0.7716064453125
5914712500.0 1.3033447265625 0.018798828125
5945934375.0 1.09552001953125 -0.775634765625
5977156250.0 0.3612060546875 -1.312255859375
6008378125.0 -0.50933837890625 -1.18206787109375
6039600000.0 -1.02227783203125 -0.64837646484375
6070821875.0 -1.22320556640625 -0.00421142578125
6102043750.0 -1.0823974609375 0.76220703125
6133265625.0 -0.34185791015625 1.34368896484375
6164487500.0 0.56390380859375 1.187255859375
6195709375.0 1.07122802734375 0.6297607421875
6226931250.0 1.27972412109375 -0.04327392578125
6258153125.0 1.10394287109375 -0.87200927734375
6289375000.0 0.25628662109375 -1.4462890625
6320596875.0 -0.68914794921875 -1.205810546875
6351818750.0 -1.2003173828125 -0.57208251953125
6383040625.0 -1.3548583984375 0.20745849609375
6414262500.0 -0.99957275390625 1.0572509765625
6445484375.0 -0.0780029296875 1.45684814453125
6476706250.0 0.79656982421875 1.14813232421875
6507928125.0 1.29107666015625 0.46966552734375
6539150000.0 1.34759521484375 -0.38665771484375
6570371875.0 0.84039306640625 -1.144775390625
6601593750.0 -0.01873779296875 -1.40582275390625
6632815625.0 -0.83929443359375 -1.1353759765625
6664037500.0 -1.400634765625 -0.41973876953125
6695259375.0 -1.37384033203125 0.56689453125
6726481250.0 -0.70941162109375 1.2510986328125
6757703125.0 0.131103515625 1.40631103515625
6788925000.0 0.95428466796875 1.13037109375
6820146875.0 1.55950927734375 0.28802490234375
6851368750.0 1.32562255859375 -0.8197021484375
6882590625.0 0.50628662109375 -1.3382568359375
6913812500.0 -0.292724609375 -1.35626220703125
6945034375.0 -1.07037353515625 -1.02081298828125
6976256250.0 -1.59326171875 -0.09259033203125
7007478125.0 -1.23577880859375 0.9346923828125
7038700000.0 -0.40203857421875 1.3428955078125
7069921875.0 0.3599853515625 1.32244873046875
7101143750.0 1.117431640625 0.96820068359375
7132365625.0 1.6005859375 0.012939453125
7163587500.0 1.156982421875 -1.0206298828125
7194809375.0 0.30126953125 -1.39837646484375
7226031250.0 -0.51287841796875 -1.32501220703125
7257253125.0 -1.267578125 -0.82415771484375
7288475000.0 -1.5582275390625 0.1983642578125
7319696875.0 -1.02978515625 1.1107177734375
7350918750.0 -0.1630859375 1.44586181640625
7382140625.0 0.7154541015625 1.27496337890625
7413362500.0 1.377197265625 0.57574462890625
7444584375.0 1.4122314453125 -0.4073486328125
7475806250.0 0.85693359375 -1.14349365234375
7507028125.0 0.0052490234375 -1.430419921875
7538250000.0 -0.8883056640625 -1.122802734375
7569471875.0 -1.3377685546875 -0.31024169921875
7600693750.0 -1.2015380859375 0.498291015625
7631915625.0 -0.71734619140625 1.083984375
7663137500.0 0.08056640625 1.35699462890625
7694359375.0 0.94061279296875 0.98040771484375
7725581250.0 1.24395751953125 0.17919921875
7756803125.0 1.08209228515625 -0.5001220703125
7788025000.0 0.66912841796875 -1.04498291015625
7819246875.0 -0.1192626953125 -1.34552001953125
7850468750.0 -0.99261474609375 -0.915802001953125
7881690625.0 -1.232421875 -0.1046142578125
7912912500.0 -1.05474853515625 0.55487060546875
7944134375.0 -0.6051025390625 1.1141357421875
7975356250.0 0.2694091796875 1.33441162109375
8006578125.0 1.04656982421875 0.77825927734375
8037800000.0 1.1947021484375 0.01495361328125
8069021875.0 1.00677490234375 -0.61810302734375
8100243750.0 0.498779296875 -1.16326904296875
8131465625.0 -0.38751220703125 -1.25360107421875
8162687500.0 -1.033447265625 -0.68524169921875
8193909375.0 -1.18157958984375 0.0101318359375
8225131250.0 -1.01800537109375 0.67840576171875
8256353125.0 -0.4205322265625 1.2501220703125
8287575000.0 0.5003662109375 1.22515869140625
8318796875.0 1.08251953125 0.6358642578125
8350018750.0 1.24432373046875 -0.07513427734375
8381240625.0 1.03082275390625 -0.83929443359375
8412462500.0 0.2548828125 -1.37353515625
8443684375.0 -0.6697998046875 -1.17041015625
8474906250.0 -1.1739501953125 -0.53240966796875
8506128125.0 -1.2979736328125 0.23712158203125
8537350000.0 -0.9249267578125 1.0477294921875
8568571875.0 -0.015380859375 1.39544677734375
8599793750.0 0.8021240234375 1.05377197265625
8631015625.0 1.2421875 0.39697265625
8662237500.0 1.2857666015625 -0.4285888671875
8693459375.0 0.73565673828125 -1.176513671875
8724681250.0 -0.1641845703125 -1.3326416015625
8755903125.0 -0.880096435546875 -0.95770263671875
8787125000.0 -1.304443359375 -0.281494140625
8818346875.0 -1.25042724609375 0.61590576171875
8849568750.0 -0.55645751953125 1.26007080078125
8880790625.0 0.29937744140625 1.28466796875
8912012500.0 0.980438232421875 0.892303466796875
8943234375.0 1.39837646484375 0.129150390625
8974456250.0 1.16650390625 -0.8404541015625
9005678125.0 0.34832763671875 -1.3135986328125
9036900000.0 -0.4471435546875 -1.225830078125
9068121875.0 -1.1015625 -0.78558349609375
9099343750.0 -1.4385986328125 0.09619140625
9130565625.0 -0.98016357421875 1.011962890625
9161787500.0 -0.15447998046875 1.28289794921875
9193009375.0 0.55572509765625 1.1348876953125
9224231250.0 1.17864990234375 0.65496826171875
9255453125.0 1.4005126953125 -0.29693603515625
9286675000.0 0.8067626953125 -1.08331298828125
9317896875.0 0.0257568359375 -1.246826171875
9349118750.0 -0.65557861328125 -1.06964111328125
9380340625.0 -1.25689697265625 -0.509765625
9411562500.0 -1.3106689453125 0.474609375
9442784375.0 -0.64678955078125 1.1168212890625
9474006250.0 0.0897216796875 1.21136474609375
9505228125.0 0.763458251953125 0.9793701171875
9536450000.0 1.2745361328125 0.31402587890625
9567671875.0 1.14532470703125 -0.58111572265625
9598893750.0 0.5296630859375 -1.0679931640625
9630115625.0 -0.14373779296875 -1.159423828125
9661337500.0 -0.81854248046875 -0.903045654296875
9692559375.0 -1.240478515625 -0.1898193359375
9723781250.0 -1.043701171875 0.60247802734375
9755003125.0 -0.4852294921875 1.052001953125
9786225000.0 0.19866943359375 1.1593017578125
9817446875.0 0.8948974609375 0.827301025390625
9848668750.0 1.1978759765625 0.07818603515625
9879890625.0 0.968353271484375 -0.616485595703125
9911112500.0 0.451416015625 -1.051513671875
9942334375.0 -0.26617431640625 -1.15875244140625
9973556250.0 -0.941680908203125 -0.738311767578125
10004778125.0 -1.146484375 -0.01751708984375
10036000000.0 -0.9444580078125 0.617156982421875
10067221875.0 -0.44158935546875 1.0982666015625
10098443750.0 0.37060546875 1.18206787109375
10129665625.0 1.0023193359375 0.64404296875
10160887500.0 1.11981201171875 -0.0513916015625
10192109375.0 0.91790771484375 -0.6632080078125
10223331250.0 0.36199951171875 -1.15264892578125
10254553125.0 -0.48663330078125 -1.11456298828125
10285775000.0 -0.984222412109375 -0.535888671875
10316996875.0 -1.067626953125 0.07574462890625
10348218750.0 -0.9002685546875 0.67108154296875
10379440625.0 -0.3211669921875 1.1766357421875
10410662500.0 0.527099609375 1.08587646484375
10441884375.0 0.992523193359375 0.52203369140625
10473106250.0 1.10906982421875 -0.08502197265625
10504328125.0 0.949188232421875 -0.758453369140625
10535550000.0 0.23944091796875 -1.29486083984375
10566771875.0 -0.6573486328125 -1.0770263671875
10597993750.0 -1.08331298828125 -0.45867919921875
10629215625.0 -1.1759033203125 0.20599365234375
10660437500.0 -0.888336181640625 0.952392578125
10691659375.0 -0.01025390625 1.33673095703125
10722881250.0 0.784393310546875 0.9530029296875
10754103125.0 1.12060546875 0.32415771484375
10785325000.0 1.13983154296875 -0.36865234375
10816546875.0 0.70025634765625 -1.05023193359375
10847768750.0 -0.1453857421875 -1.23046875
10878990625.0 -0.80328369140625 -0.843170166015625
10910212500.0 -1.12237548828125 -0.245849609375
10941434375.0 -1.0985107421875 0.47900390625
10972656250.0 -0.5675048828125 1.08599853515625
11003878125.0 0.21807861328125 1.174072265625
11035100000.0 0.8485107421875 0.8223876953125
11066321875.0 1.220947265625 0.17431640625
11097543750.0 1.09893798828125 -0.676513671875
11128765625.0 0.38623046875 -1.19793701171875
11159987500.0 -0.39471435546875 -1.1392822265625
11191209375.0 -1.0015869140625 -0.7020263671875
11222431250.0 -1.27423095703125 0.0941162109375
11253653125.0 -0.859588623046875 0.894683837890625
11284875000.0 -0.11480712890625 1.1263427734375
11316096875.0 0.51092529296875 0.95660400390625
11347318750.0 1.00384521484375 0.50146484375
11378540625.0 1.11700439453125 -0.26947021484375
11409762500.0 0.634063720703125 -0.859283447265625
11440984375.0 0.035125732421875 -0.979156494140625
11472206250.0 -0.48095703125 -0.850616455078125
11503428125.0 -0.95184326171875 -0.455657958984375
11534650000.0 -1.06781005859375 0.2877197265625
11565871875.0 -0.60302734375 0.854095458984375
11597093750.0 -0.01824951171875 0.99298095703125
11628315625.0 0.54583740234375 0.875091552734375
11659537500.0 1.06182861328125 0.39154052734375
11690759375.0 1.06488037109375 -0.4329833984375
11721981250.0 0.516754150390625 -0.941925048828125
11753203125.0 -0.1064453125 -1.0384521484375
11784425000.0 -0.724761962890625 -0.8092041015625
11815646875.0 -1.10198974609375 -0.15045166015625
11846868750.0 -0.891204833984375 0.552764892578125
11878090625.0 -0.390899658203125 0.909393310546875
11909312500.0 0.187286376953125 0.985504150390625
11940534375.0 0.7791748046875 0.695465087890625
11971756250.0 1.025390625 0.0391845703125
12002978125.0 0.806182861328125 -0.5367431640625
12034200000.0 0.3812255859375 -0.889495849609375
12065421875.0 -0.21478271484375 -1.010009765625
12096643750.0 -0.846466064453125 -0.666107177734375
12127865625.0 -1.034423828125 0.01593017578125
12159087500.0 -0.81488037109375 0.575714111328125
12190309375.0 -0.378326416015625 0.974456787109375
12221531250.0 0.33734130859375 1.0869140625
12252753125.0 0.980743408203125 0.581756591796875
12283975000.0 1.0556640625 -0.12738037109375
12315196875.0 0.80072021484375 -0.676727294921875
12346418750.0 0.28118896484375 -1.0921630859375
12377640625.0 -0.53802490234375 -1.0604248046875
12408862500.0 -1.03424072265625 -0.42034912109375
12440084375.0 -1.0087890625 0.2236328125
12471306250.0 -0.7425537109375 0.73675537109375
12502528125.0 -0.18017578125 1.1202392578125
12533750000.0 0.619171142578125 0.993499755859375
12564971875.0 1.0413818359375 0.36395263671875
12596193750.0 1.030029296875 -0.2637939453125
12627415625.0 0.74822998046875 -0.828704833984375
12658637500.0 0.07952880859375 -1.20721435546875
12689859375.0 -0.736236572265625 -0.96630859375
12721081250.0 -1.116943359375 -0.306640625
12752303125.0 -1.09796142578125 0.3812255859375
12783525000.0 -0.68817138671875 1.02642822265625
12814746875.0 0.163818359375 1.2518310546875
12845968750.0 0.863037109375 0.8121337890625
12877190625.0 1.11767578125 0.17193603515625
12908412500.0 1.056884765625 -0.50299072265625
12939634375.0 0.54266357421875 -1.1177978515625
12970856250.0 -0.32183837890625 -1.1761474609375
13002078125.0 -0.894287109375 -0.69403076171875
13033300000.0 -1.10601806640625 -0.08648681640625
13064521875.0 -1.0089111328125 0.5936279296875
13095743750.0 -0.419921875 1.15484619140625
13126965625.0 0.408447265625 1.12115478515625
13158187500.0 0.946990966796875 0.6322021484375
13189409375.0 1.1470947265625 -0.02001953125
13220631250.0 0.936248779296875 -0.750579833984375
13251853125.0 0.2353515625 -1.1717529296875
13283075000.0 -0.5087890625 -1.020751953125
13314296875.0 -0.987701416015625 -0.5296630859375
13345518750.0 -1.134765625 0.175537109375
13376740625.0 -0.7535400390625 0.858734130859375
13407962500.0 -0.05816650390625 1.0675048828125
