!Created with skrf (http://scikit-rf.org).
# Hz S RI R 50.0 
!freq ReS11 ImS11
45000000.0 -0.07703781127929688 -0.09670257568359375
76221875.0 -0.19647979736328125 -0.04744720458984375
107443750.0 -0.254913330078125 0.1197052001953125
138665625.0 -0.147979736328125 0.3282318115234375
169887500.0 0.1236114501953125 0.41717529296875
201109375.0 0.4218597412109375 0.2806549072265625
232331250.0 0.5787353515625 -0.057830810546875
263553125.0 0.4892425537109375 -0.452545166015625
294775000.0 0.09808349609375 -0.732391357421875
325996875.0 -0.415496826171875 -0.680023193359375
357218750.0 -0.806365966796875 -0.2965087890625
388440625.0 -0.8853759765625 0.30072021484375
419662500.0 -0.51678466796875 0.8662109375
450884375.0 0.17352294921875 1.0283203125
482106250.0 0.79827880859375 0.71185302734375
513328125.0 1.1187744140625 0.08660888671875
544550000.0 1.0029296875 -0.67987060546875
575771875.0 0.3358154296875 -1.23779296875
606993750.0 -0.55413818359375 -1.17633056640625
638215625.0 -1.16546630859375 -0.589599609375
669437500.0 -1.33880615234375 0.23431396484375
700659375.0 -0.9700927734375 1.09576416015625
731881250.0 -0.00323486328125 1.54217529296875
763103125.0 1.00543212890625 1.15460205078125
794325000.0 1.4678955078125 0.2808837890625
825546875.0 1.3663330078125 -0.65142822265625
856768750.0 0.79351806640625 -1.39996337890625
887990625.0 -0.292724609375 -1.6466064453125
919212500.0 -1.2872314453125 -1.07763671875
950434375.0 -1.6474609375 -0.05841064453125
981656250.0 -1.38134765625 0.94573974609375
1012878125.0 -0.528564453125 1.67132568359375
1044100000.0 0.69647216796875 1.65985107421875
1075321875.0 1.5732421875 0.81060791015625
1106543750.0 1.70355224609375 -0.31304931640625
1137765625.0 1.1849365234375 -1.2838134765625
1168987500.0 0.13739013671875 -1.79547119140625
1200209375.0 -1.0615234375 -1.4818115234375
1231431250.0 -1.7255859375 -0.45263671875
1262653125.0 -1.59246826171875 0.68438720703125
1293875000.0 -0.85076904296875 1.49041748046875
1325096875.0 0.2283935546875 1.70477294921875
1356318750.0 1.234375 1.21478271484375
1387540625.0 1.7386474609375 0.18798828125
1418762500.0 1.46746826171875 -0.95098876953125
1449984375.0 0.52801513671875 -1.62481689453125
1481206250.0 -0.55035400390625 -1.554443359375
1512428125.0 -1.3409423828125 -0.9185791015625
1543650000.0 -1.65423583984375 0.066162109375
1574871875.0 -1.27191162109375 1.107666015625
1606093750.0 -0.2720947265625 1.63031005859375
1637315625.0 0.741943359375 1.39886474609375
1668537500.0 1.3951416015625 0.694580078125
1699759375.0 1.5718994140625 -0.27752685546875
1730981250.0 1.0625 -1.228271484375
1762203125.0 0.04180908203125 -1.56884765625
1793425000.0 -0.8553466796875 -1.22503662109375
1824646875.0 -1.3919677734375 -0.51416015625
1855868750.0 -1.47222900390625 0.43194580078125
1887090625.0 -0.873779296875 1.28399658203125
1918312500.0 0.1173095703125 1.48516845703125
1949534375.0 0.920654296875 1.08770751953125
1980756250.0 1.37420654296875 0.3695068359375
2011978125.0 1.358154296875 -0.53155517578125
2043200000.0 0.7489013671875 -1.26025390625
2074421875.0 -0.1573486328125 -1.4317626953125
2105643750.0 -0.9595947265625 -1.07122802734375
2136865625.0 -1.44598388671875 -0.30426025390625
2168087500.0 -1.355712890625 0.6708984375
2199309375.0 -0.63787841796875 1.35052490234375
2230531250.0 0.28192138671875 1.4345703125
2261753125.0 1.071533203125 1.01263427734375
2292975000.0 1.512939453125 0.1695556640625
2324196875.0 1.30401611328125 -0.81817626953125
2355418750.0 0.52435302734375 -1.4185791015625
2386640625.0 -0.40374755859375 -1.44732666015625
2417862500.0 -1.1802978515625 -1.02313232421875
2449084375.0 -1.603515625 -0.08319091796875
2480306250.0 -1.309814453125 0.92498779296875
2511528125.0 -0.4927978515625 1.50604248046875
2542750000.0 0.4881591796875 1.53387451171875
2573971875.0 1.368896484375 0.9664306640625
2605193750.0 1.71490478515625 -0.1126708984375
2636415625.0 1.2596435546875 -1.15167236328125
2667637500.0 0.305908203125 -1.66552734375
2698859375.0 -0.76947021484375 -1.53179931640625
2730081250.0 -1.5706787109375 -0.73907470703125
2761303125.0 -1.67926025390625 0.388427734375
2792525000.0 -1.09747314453125 1.30609130859375
2823746875.0 -0.10174560546875 1.7276611328125
2854968750.0 1.01104736328125 1.4534912109375
2886190625.0 1.6888427734375 0.49114990234375
2917412500.0 1.59783935546875 -0.61712646484375
2948634375.0 0.93743896484375 -1.4312744140625
2979856250.0 -0.1070556640625 -1.77294921875
3011078125.0 -1.24530029296875 -1.34039306640625
3042300000.0 -1.77239990234375 -0.23358154296875
3073521875.0 -1.50653076171875 0.83697509765625
3104743750.0 -0.7618408203125 1.56671142578125
3135965625.0 0.36175537109375 1.80633544921875
3167187500.0 1.4957275390625 1.16253662109375
3198409375.0 1.8140869140625 -0.075927734375
3229631250.0 1.34674072265625 -1.08038330078125
3260853125.0 0.48809814453125 -1.66558837890625
3292075000.0 -0.65283203125 -1.6942138671875
3323296875.0 -1.617919921875 -0.87811279296875
3354518750.0 -1.72735595703125 0.32830810546875
3385740625.0 -1.1534423828125 1.229248046875
3416962500.0 -0.23095703125 1.67840576171875
3448184375.0 0.858642578125 1.51947021484375
3479406250.0 1.63360595703125 0.643310546875
3510628125.0 1.64190673828125 -0.49468994140625
3541850000.0 0.99884033203125 -1.35357666015625
3573071875.0 -0.0076904296875 -1.68035888671875
3604293750.0 -1.02581787109375 -1.33538818359375
3635515625.0 -1.6260986328125 -0.437255859375
3666737500.0 -1.55938720703125 0.64495849609375
3697959375.0 -0.82415771484375 1.47406005859375
3729181250.0 0.2686767578125 1.62884521484375
3760403125.0 1.151123046875 1.09588623046875
3791625000.0 1.55059814453125 0.21746826171875
3822846875.0 1.39935302734375 -0.7601318359375
3854068750.0 0.6192626953125 -1.4781494140625
3885290625.0 -0.4202880859375 -1.4783935546875
3916512500.0 -1.1405029296875 -0.90960693359375
3947734375.0 -1.445068359375 -0.1201171875
3978956250.0 -1.29510498046875 0.77801513671875
4010178125.0 -0.53082275390625 1.45245361328125
4041400000.0 0.47216796875 1.413818359375
4072621875.0 1.14984130859375 0.84722900390625
4103843750.0 1.44256591796875 0.0635986328125
4135065625.0 1.26568603515625 -0.84454345703125
4166287500.0 0.45697021484375 -1.494140625
4197509375.0 -0.55535888671875 -1.41259765625
4228731250.0 -1.2470703125 -0.8017578125
4259953125.0 -1.50689697265625 0.0703125
4291175000.0 -1.1868896484375 1.00848388671875
4322396875.0 -0.28912353515625 1.52423095703125
4353618750.0 0.6717529296875 1.34814453125
4384840625.0 1.3203125 0.6964111328125
4416062500.0 1.49932861328125 -0.22845458984375
4447284375.0 1.05352783203125 -1.10284423828125
4478506250.0 0.172119140625 -1.49359130859375
4509728125.0 -0.731689453125 -1.306396484375
4540950000.0 -1.391845703125 -0.63494873046875
4572171875.0 -1.51995849609375 0.35833740234375
4603393750.0 -0.97174072265625 1.21148681640625
4634615625.0 -0.06201171875 1.5343017578125
4665837500.0 0.8687744140625 1.30291748046875
4697059375.0 1.53948974609375 0.5145263671875
4728281250.0 1.52716064453125 -0.5819091796875
4759503125.0 0.82208251953125 -1.3662109375
4790725000.0 -0.14501953125 -1.5711669921875
4821946875.0 -1.08184814453125 -1.192626953125
4853168750.0 -1.6107177734375 -0.25091552734375
4884390625.0 -1.3763427734375 0.792236328125
4915612500.0 -0.61346435546875 1.4100341796875
4946834375.0 0.3297119140625 1.50811767578125
4978056250.0 1.20361328125 1.0162353515625
5009278125.0 1.559814453125 0.039306640625
5040500000.0 1.2281494140625 -0.87542724609375
5071721875.0 0.5008544921875 -1.41314697265625
5102943750.0 -0.44580078125 -1.49517822265625
5134165625.0 -1.33428955078125 -0.90435791015625
5165387500.0 -1.56695556640625 0.14617919921875
5196609375.0 -1.13507080078125 1.0079345703125
5227831250.0 -0.35797119140625 1.5035400390625
5259053125.0 0.68719482421875 1.49127197265625
5290275000.0 1.5191650390625 0.66253662109375
5321496875.0 1.4901123046875 -0.4290771484375
5352718750.0 0.91973876953125 -1.15216064453125
5383940625.0 0.0963134765625 -1.49896240234375
5415162500.0 -0.89935302734375 -1.2822265625
5446384375.0 -1.48187255859375 -0.3702392578125
5477606250.0 -1.29827880859375 0.56622314453125
5508828125.0 -0.73052978515625 1.14996337890625
5540050000.0 0.05352783203125 1.3968505859375
5571271875.0 0.936767578125 1.107421875
5602493750.0 1.40655517578125 0.25982666015625
5633715625.0 1.23040771484375 -0.6114501953125
5664937500.0 0.64794921875 -1.19976806640625
5696159375.0 -0.19635009765625 -1.38275146484375
5727381250.0 -1.02130126953125 -0.97723388671875
5758603125.0 -1.39117431640625 -0.144775390625
5789825000.0 -1.19256591796875 0.7159423828125
5821046875.0 -0.50653076171875 1.30596923828125
5852268750.0 0.4105224609375 1.31158447265625
5883490625.0 1.06951904296875 0.7716064453125
5914712500.0 1.301025390625 0.020263671875
5945934375.0 1.09490966796875 -0.7742919921875
5977156250.0 0.3612060546875 -1.31085205078125
6008378125.0 -0.50811767578125 -1.1810302734375
6039600000.0 -1.02154541015625 -0.6483154296875
6070821875.0 -1.22296142578125 -0.0045166015625
6102043750.0 -1.082275390625 0.76116943359375
6133265625.0 -0.3419189453125 1.34326171875
6164487500.0 0.56207275390625 1.18609619140625
6195709375.0 1.069091796875 0.6295166015625
6226931250.0 1.2781982421875 -0.04205322265625
6258153125.0 1.1033935546875 -0.87030029296875
6289375000.0 0.25634765625 -1.4451904296875
6320596875.0 -0.688720703125 -1.205810546875
6351818750.0 -1.1981201171875 -0.57232666015625
6383040625.0 -1.353759765625 0.20660400390625
6414262500.0 -0.99951171875 1.05584716796875
6445484375.0 -0.07855224609375 1.455810546875
6476706250.0 0.79437255859375 1.146728515625
6507928125.0 1.28955078125 0.46990966796875
6539150000.0 1.3465576171875 -0.38702392578125
6570371875.0 0.8409423828125 -1.1422119140625
6601593750.0 -0.01708984375 -1.40374755859375
6632815625.0 -0.83905029296875 -1.13482666015625
6664037500.0 -1.40057373046875 -0.4197998046875
6695259375.0 -1.37255859375 0.56414794921875
6726481250.0 -0.71026611328125 1.249267578125
6757703125.0 0.13018798828125 1.4056396484375
6788925000.0 0.955078125 1.13067626953125
6820146875.0 1.5589599609375 0.288330078125
6851368750.0 1.32513427734375 -0.81793212890625
6882590625.0 0.506591796875 -1.3377685546875
6913812500.0 -0.2918701171875 -1.3553466796875
6945034375.0 -1.0684814453125 -1.02105712890625
6976256250.0 -1.59130859375 -0.09368896484375
7007478125.0 -1.234130859375 0.9310302734375
7038700000.0 -0.40228271484375 1.341064453125
7069921875.0 0.356689453125 1.32220458984375
7101143750.0 1.11517333984375 0.96832275390625
7132365625.0 1.59722900390625 0.015380859375
7163587500.0 1.15740966796875 -1.02117919921875
7194809375.0 0.3031005859375 -1.3941650390625
7226031250.0 -0.5115966796875 -1.3238525390625
7257253125.0 -1.26495361328125 -0.82470703125
7288475000.0 -1.55804443359375 0.19775390625
7319696875.0 -1.0296630859375 1.10882568359375
7350918750.0 -0.16455078125 1.44268798828125
7382140625.0 0.71405029296875 1.2750244140625
7413362500.0 1.3736572265625 0.57684326171875
7444584375.0 1.4111328125 -0.40533447265625
7475806250.0 0.85772705078125 -1.1405029296875
7507028125.0 0.0064697265625 -1.42718505859375
7538250000.0 -0.88482666015625 -1.122802734375
7569471875.0 -1.3348388671875 -0.3106689453125
7600693750.0 -1.20172119140625 0.4967041015625
7631915625.0 -0.71893310546875 1.08343505859375
7663137500.0 0.0810546875 1.358154296875
7694359375.0 0.93994140625 0.980010986328125
7725581250.0 1.241943359375 0.18048095703125
7756803125.0 1.08123779296875 -0.49951171875
7788025000.0 0.66961669921875 -1.0426025390625
7819246875.0 -0.11981201171875 -1.34588623046875
7850468750.0 -0.990631103515625 -0.91558837890625
7881690625.0 -1.23114013671875 -0.10516357421875
7912912500.0 -1.05352783203125 0.5523681640625
7944134375.0 -0.6048583984375 1.11224365234375
7975356250.0 0.2706298828125 1.33502197265625
8006578125.0 1.044921875 0.7789306640625
8037800000.0 1.1925048828125 0.016845703125
8069021875.0 1.00579833984375 -0.61639404296875
8100243750.0 0.49969482421875 -1.16015625
8131465625.0 -0.38616943359375 -1.2528076171875
8162687500.0 -1.03253173828125 -0.68572998046875
8193909375.0 -1.17962646484375 0.00836181640625
8225131250.0 -1.016845703125 0.67901611328125
8256353125.0 -0.42144775390625 1.24761962890625
8287575000.0 0.49871826171875 1.22528076171875
8318796875.0 1.08135986328125 0.6361083984375
8350018750.0 1.24298095703125 -0.07427978515625
8381240625.0 1.0308837890625 -0.837158203125
8412462500.0 0.25439453125 -1.37237548828125
8443684375.0 -0.66900634765625 -1.1702880859375
8474906250.0 -1.17498779296875 -0.53173828125
8506128125.0 -1.296875 0.23614501953125
8537350000.0 -0.92474365234375 1.04412841796875
8568571875.0 -0.0169677734375 1.39306640625
8599793750.0 0.80224609375 1.05340576171875
8631015625.0 1.238525390625 0.39923095703125
8662237500.0 1.28570556640625 -0.429443359375
8693459375.0 0.73712158203125 -1.17584228515625
8724681250.0 -0.1619873046875 -1.33099365234375
8755903125.0 -0.878570556640625 -0.95703125
8787125000.0 -1.30047607421875 -0.283447265625
8818346875.0 -1.25030517578125 0.61492919921875
8849568750.0 -0.557373046875 1.25811767578125
8880790625.0 0.29730224609375 1.28338623046875
8912012500.0 0.97882080078125 0.892608642578125
8943234375.0 1.39813232421875 0.1302490234375
8974456250.0 1.166015625 -0.83685302734375
9005678125.0 0.3492431640625 -1.31219482421875
9036900000.0 -0.443359375 -1.22357177734375
9068121875.0 -1.100830078125 -0.78546142578125
9099343750.0 -1.44000244140625 0.09686279296875
9130565625.0 -0.97955322265625 1.01141357421875
9161787500.0 -0.155517578125 1.28131103515625
9193009375.0 0.553955078125 1.1331787109375
9224231250.0 1.17694091796875 0.6549072265625
9255453125.0 1.3983154296875 -0.2958984375
9286675000.0 0.80718994140625 -1.084228515625
9317896875.0 0.026123046875 -1.245849609375
9349118750.0 -0.6529541015625 -1.06939697265625
9380340625.0 -1.25628662109375 -0.5084228515625
9411562500.0 -1.31011962890625 0.47589111328125
9442784375.0 -0.64764404296875 1.116455078125
9474006250.0 0.0870361328125 1.210205078125
9505228125.0 0.763031005859375 0.98016357421875
9536450000.0 1.27276611328125 0.3143310546875
9567671875.0 1.143310546875 -0.578125
9598893750.0 0.52960205078125 -1.06695556640625
9630115625.0 -0.1435546875 -1.15789794921875
9661337500.0 -0.8170166015625 -0.902069091796875
9692559375.0 -1.23876953125 -0.1893310546875
9723781250.0 -1.0440673828125 0.60211181640625
9755003125.0 -0.48553466796875 1.0498046875
9786225000.0 0.19732666015625 1.15850830078125
9817446875.0 0.893951416015625 0.8287353515625
9848668750.0 1.19732666015625 0.0782470703125
9879890625.0 0.968109130859375 -0.6136474609375
9911112500.0 0.4521484375 -1.05157470703125
9942334375.0 -0.26702880859375 -1.158935546875
9973556250.0 -0.941497802734375 -0.737884521484375
10004778125.0 -1.1458740234375 -0.01800537109375
10036000000.0 -0.9437255859375 0.614532470703125
10067221875.0 -0.4425048828125 1.0963134765625
10098443750.0 0.36810302734375 1.179443359375
10129665625.0 1.0025634765625 0.6436767578125
10160887500.0 1.11932373046875 -0.0504150390625
10192109375.0 0.917633056640625 -0.662994384765625
10223331250.0 0.3614501953125 -1.15167236328125
10254553125.0 -0.484130859375 -1.113525390625
10285775000.0 -0.984039306640625 -0.535675048828125
10316996875.0 -1.065185546875 0.07366943359375
10348218750.0 -0.899749755859375 0.668853759765625
10379440625.0 -0.322509765625 1.1759033203125
10410662500.0 0.52716064453125 1.0849609375
10441884375.0 0.990631103515625 0.521728515625
10473106250.0 1.1082763671875 -0.08453369140625
10504328125.0 0.9488525390625 -0.753448486328125
10535550000.0 0.2406005859375 -1.29388427734375
10566771875.0 -0.65582275390625 -1.0770263671875
10597993750.0 -1.07940673828125 -0.45989990234375
10629215625.0 -1.1746826171875 0.2049560546875
10660437500.0 -0.8876953125 0.950164794921875
10691659375.0 -0.01080322265625 1.3358154296875
10722881250.0 0.7840576171875 0.953033447265625
10754103125.0 1.1199951171875 0.3243408203125
10785325000.0 1.13787841796875 -0.36602783203125
10816546875.0 0.70013427734375 -1.0482177734375
10847768750.0 -0.144287109375 -1.22869873046875
10878990625.0 -0.80133056640625 -0.84375
10910212500.0 -1.123779296875 -0.24444580078125
10941434375.0 -1.09637451171875 0.47430419921875
10972656250.0 -0.568359375 1.08404541015625
11003878125.0 0.216552734375 1.17413330078125
11035100000.0 0.84735107421875 0.822052001953125
11066321875.0 1.22015380859375 0.1737060546875
11097543750.0 1.0987548828125 -0.6756591796875
11128765625.0 0.386474609375 -1.1981201171875
11159987500.0 -0.3955078125 -1.138671875
11191209375.0 -0.997955322265625 -0.70355224609375
11222431250.0 -1.2728271484375 0.09307861328125
11253653125.0 -0.859649658203125 0.893768310546875
11284875000.0 -0.11395263671875 1.1270751953125
11316096875.0 0.511810302734375 0.95648193359375
11347318750.0 1.0029296875 0.502197265625
11378540625.0 1.11676025390625 -0.26873779296875
11409762500.0 0.63421630859375 -0.8582763671875
11440984375.0 0.03515625 -0.97918701171875
11472206250.0 -0.48040771484375 -0.849578857421875
11503428125.0 -0.952392578125 -0.456390380859375
11534650000.0 -1.0679931640625 0.28582763671875
11565871875.0 -0.602813720703125 0.853973388671875
11597093750.0 -0.018798828125 0.990997314453125
11628315625.0 0.543212890625 0.875823974609375
11659537500.0 1.0594482421875 0.3919677734375
11690759375.0 1.06494140625 -0.43292236328125
11721981250.0 0.51702880859375 -0.940826416015625
11753203125.0 -0.10809326171875 -1.03778076171875
11784425000.0 -0.7235107421875 -0.80914306640625
11815646875.0 -1.0999755859375 -0.1512451171875
11846868750.0 -0.89154052734375 0.5506591796875
11878090625.0 -0.390472412109375 0.908477783203125
11909312500.0 0.18548583984375 0.98431396484375
11940534375.0 0.779876708984375 0.694671630859375
11971756250.0 1.02362060546875 0.03997802734375
12002978125.0 0.806121826171875 -0.536163330078125
12034200000.0 0.382171630859375 -0.887969970703125
12065421875.0 -0.2144775390625 -1.00933837890625
12096643750.0 -0.845794677734375 -0.665771484375
12127865625.0 -1.0345458984375 0.01800537109375
12159087500.0 -0.8145751953125 0.574462890625
12190309375.0 -0.378265380859375 0.973785400390625
12221531250.0 0.3385009765625 1.08770751953125
12252753125.0 0.978118896484375 0.581817626953125
12283975000.0 1.05474853515625 -0.128173828125
12315196875.0 0.80047607421875 -0.67633056640625
12346418750.0 0.281494140625 -1.0914306640625
12377640625.0 -0.537353515625 -1.0606689453125
12408862500.0 -1.03369140625 -0.4202880859375
12440084375.0 -1.00811767578125 0.22454833984375
12471306250.0 -0.741485595703125 0.735382080078125
12502528125.0 -0.17919921875 1.1201171875
12533750000.0 0.619354248046875 0.993408203125
12564971875.0 1.04022216796875 0.3646240234375
12596193750.0 1.02947998046875 -0.26275634765625
12627415625.0 0.747833251953125 -0.828948974609375
12658637500.0 0.08026123046875 -1.20703125
12689859375.0 -0.736083984375 -0.965667724609375
12721081250.0 -1.11700439453125 -0.3060302734375
12752303125.0 -1.09674072265625 0.3802490234375
12783525000.0 -0.6876220703125 1.02618408203125
12814746875.0 0.16326904296875 1.25030517578125
12845968750.0 0.863922119140625 0.81158447265625
12877190625.0 1.1162109375 0.1722412109375
12908412500.0 1.05584716796875 -0.5013427734375
12939634375.0 0.54364013671875 -1.11517333984375
12970856250.0 -0.3197021484375 -1.17462158203125
13002078125.0 -0.89447021484375 -0.693359375
13033300000.0 -1.10491943359375 -0.088134765625
13064521875.0 -1.00970458984375 0.59332275390625
13095743750.0 -0.42022705078125 1.1541748046875
13126965625.0 0.40771484375 1.12042236328125
13158187500.0 0.94744873046875 0.632476806640625
13189409375.0 1.14703369140625 -0.02056884765625
13220631250.0 0.935577392578125 -0.74688720703125
13251853125.0 0.23516845703125 -1.172119140625
13283075000.0 -0.50543212890625 -1.02044677734375
13314296875.0 -0.985260009765625 -0.529876708984375
13345518750.0 -1.13427734375 0.17626953125
