!Created with skrf (http://scikit-rf.org).
# Hz S RI R 50.0 
!freq ReS11 ImS11
45000000.0 -0.07722091674804688 -0.09673690795898438
76221875.0 -0.196624755859375 -0.04730987548828125
107443750.0 -0.2550201416015625 0.120147705078125
138665625.0 -0.147735595703125 0.3288726806640625
169887500.0 0.1239166259765625 0.4177398681640625
201109375.0 0.4222259521484375 0.2808074951171875
232331250.0 0.5792236328125 -0.05810546875
263553125.0 0.4896087646484375 -0.453369140625
294775000.0 0.09783935546875 -0.73260498046875
325996875.0 -0.416412353515625 -0.6807861328125
357218750.0 -0.80731201171875 -0.2965087890625
388440625.0 -0.886077880859375 0.301849365234375
419662500.0 -0.516876220703125 0.867431640625
450884375.0 0.1741943359375 1.0291748046875
482106250.0 0.799468994140625 0.712310791015625
513328125.0 1.1197509765625 0.0860595703125
544550000.0 1.0035400390625 -0.68072509765625
575771875.0 0.33544921875 -1.2386474609375
606993750.0 -0.5548095703125 -1.1768798828125
638215625.0 -1.16644287109375 -0.5897216796875
669437500.0 -1.340087890625 0.23468017578125
700659375.0 -0.97027587890625 1.09710693359375
731881250.0 -0.00250244140625 1.54339599609375
763103125.0 1.006591796875 1.15521240234375
794325000.0 1.46923828125 0.2808837890625
825546875.0 1.36712646484375 -0.65240478515625
856768750.0 0.79345703125 -1.401611328125
887990625.0 -0.2940673828125 -1.64874267578125
919212500.0 -1.289306640625 -1.07794189453125
950434375.0 -1.6492919921875 -0.0577392578125
981656250.0 -1.38226318359375 0.9473876953125
1012878125.0 -0.528564453125 1.67279052734375
1044100000.0 0.69842529296875 1.6614990234375
1075321875.0 1.5755615234375 0.8109130859375
1106543750.0 1.70452880859375 -0.31451416015625
1137765625.0 1.18572998046875 -1.28564453125
1168987500.0 0.13702392578125 -1.79718017578125
1200209375.0 -1.0625 -1.4827880859375
1231431250.0 -1.7281494140625 -0.4520263671875
1262653125.0 -1.59356689453125 0.68634033203125
1293875000.0 -0.85052490234375 1.49249267578125
1325096875.0 0.22955322265625 1.70611572265625
1356318750.0 1.23553466796875 1.2156982421875
1387540625.0 1.7398681640625 0.18804931640625
1418762500.0 1.46875 -0.95233154296875
1449984375.0 0.52813720703125 -1.6260986328125
1481206250.0 -0.5509033203125 -1.55560302734375
1512428125.0 -1.3424072265625 -0.91851806640625
1543650000.0 -1.6556396484375 0.06683349609375
1574871875.0 -1.27276611328125 1.1097412109375
1606093750.0 -0.2713623046875 1.6312255859375
1637315625.0 0.74310302734375 1.39947509765625
1668537500.0 1.39654541015625 0.69451904296875
1699759375.0 1.5726318359375 -0.27838134765625
1730981250.0 1.0631103515625 -1.23016357421875
1762203125.0 0.04095458984375 -1.57025146484375
1793425000.0 -0.85552978515625 -1.22552490234375
1824646875.0 -1.393310546875 -0.5140380859375
1855868750.0 -1.47332763671875 0.4332275390625
1887090625.0 -0.87445068359375 1.28509521484375
1918312500.0 0.117919921875 1.48681640625
1949534375.0 0.92169189453125 1.08856201171875
1980756250.0 1.37506103515625 0.36895751953125
2011978125.0 1.35888671875 -0.53265380859375
2043200000.0 0.74896240234375 -1.261474609375
2074421875.0 -0.15771484375 -1.4327392578125
2105643750.0 -0.960693359375 -1.071533203125
2136865625.0 -1.447265625 -0.3040771484375
2168087500.0 -1.35650634765625 0.671875
2199309375.0 -0.63818359375 1.35150146484375
2230531250.0 0.2825927734375 1.435546875
2261753125.0 1.07257080078125 1.01312255859375
2292975000.0 1.5145263671875 0.1690673828125
2324196875.0 1.30474853515625 -0.8189697265625
2355418750.0 0.5245361328125 -1.41986083984375
2386640625.0 -0.40533447265625 -1.44873046875
2417862500.0 -1.181884765625 -1.0225830078125
2449084375.0 -1.60504150390625 -0.08306884765625
2480306250.0 -1.3111572265625 0.92620849609375
2511528125.0 -0.49237060546875 1.50787353515625
2542750000.0 0.489013671875 1.53515625
2573971875.0 1.37103271484375 0.96728515625
2605193750.0 1.71673583984375 -0.1138916015625
2636415625.0 1.26043701171875 -1.15301513671875
2667637500.0 0.3045654296875 -1.66802978515625
2698859375.0 -0.77142333984375 -1.533447265625
2730081250.0 -1.5738525390625 -0.73919677734375
2761303125.0 -1.68084716796875 0.38983154296875
2792525000.0 -1.09808349609375 1.30841064453125
2823746875.0 -0.10162353515625 1.72808837890625
2854968750.0 1.012939453125 1.45465087890625
2886190625.0 1.6907958984375 0.49102783203125
2917412500.0 1.59912109375 -0.6187744140625
2948634375.0 0.93865966796875 -1.4324951171875
2979856250.0 -0.10931396484375 -1.77581787109375
3011078125.0 -1.24761962890625 -1.341064453125
3042300000.0 -1.773681640625 -0.23345947265625
3073521875.0 -1.50775146484375 0.83929443359375
3104743750.0 -0.7620849609375 1.56787109375
3135965625.0 0.3629150390625 1.8077392578125
3167187500.0 1.4990234375 1.16259765625
3198409375.0 1.81500244140625 -0.07635498046875
3229631250.0 1.34735107421875 -1.08197021484375
3260853125.0 0.48797607421875 -1.66845703125
3292075000.0 -0.65673828125 -1.697509765625
3323296875.0 -1.62066650390625 -0.87799072265625
3354518750.0 -1.72918701171875 0.32989501953125
3385740625.0 -1.1544189453125 1.23126220703125
3416962500.0 -0.2303466796875 1.68072509765625
3448184375.0 0.85968017578125 1.52020263671875
3479406250.0 1.635009765625 0.643310546875
3510628125.0 1.6431884765625 -0.49542236328125
3541850000.0 0.99908447265625 -1.35577392578125
3573071875.0 -0.0081787109375 -1.68145751953125
3604293750.0 -1.0277099609375 -1.3358154296875
3635515625.0 -1.626708984375 -0.43780517578125
3666737500.0 -1.56134033203125 0.646728515625
3697959375.0 -0.823486328125 1.475830078125
3729181250.0 0.26849365234375 1.62945556640625
3760403125.0 1.1522216796875 1.0966796875
3791625000.0 1.5513916015625 0.2169189453125
3822846875.0 1.40020751953125 -0.76080322265625
3854068750.0 0.6197509765625 -1.480224609375
3885290625.0 -0.42156982421875 -1.48004150390625
3916512500.0 -1.14263916015625 -0.909912109375
3947734375.0 -1.44573974609375 -0.11956787109375
3978956250.0 -1.29656982421875 0.77923583984375
4010178125.0 -0.530517578125 1.45416259765625
4041400000.0 0.47442626953125 1.41522216796875
4072621875.0 1.1513671875 0.8466796875
4103843750.0 1.4437255859375 0.0625
4135065625.0 1.26654052734375 -0.84521484375
4166287500.0 0.457275390625 -1.4954833984375
4197509375.0 -0.55706787109375 -1.41424560546875
4228731250.0 -1.2491455078125 -0.80181884765625
4259953125.0 -1.50848388671875 0.07073974609375
4291175000.0 -1.1873779296875 1.00970458984375
4322396875.0 -0.288330078125 1.52587890625
4353618750.0 0.67437744140625 1.34954833984375
4384840625.0 1.321533203125 0.696044921875
4416062500.0 1.49945068359375 -0.2275390625
4447284375.0 1.0538330078125 -1.10400390625
4478506250.0 0.1724853515625 -1.4940185546875
4509728125.0 -0.7327880859375 -1.30712890625
4540950000.0 -1.39361572265625 -0.635498046875
4572171875.0 -1.52093505859375 0.35870361328125
4603393750.0 -0.9715576171875 1.21240234375
4634615625.0 -0.060546875 1.5367431640625
4665837500.0 0.87017822265625 1.30364990234375
4697059375.0 1.54156494140625 0.51458740234375
4728281250.0 1.5281982421875 -0.58282470703125
4759503125.0 0.822509765625 -1.36712646484375
4790725000.0 -0.146484375 -1.57232666015625
4821946875.0 -1.08380126953125 -1.19354248046875
4853168750.0 -1.611572265625 -0.2515869140625
4884390625.0 -1.3770751953125 0.79290771484375
4915612500.0 -0.6121826171875 1.41351318359375
4946834375.0 0.33038330078125 1.509765625
4978056250.0 1.2047119140625 1.01617431640625
5009278125.0 1.56121826171875 0.038818359375
5040500000.0 1.22821044921875 -0.87646484375
5071721875.0 0.500732421875 -1.4144287109375
5102943750.0 -0.44720458984375 -1.4964599609375
5134165625.0 -1.33538818359375 -0.9051513671875
5165387500.0 -1.5677490234375 0.14593505859375
5196609375.0 -1.135498046875 1.00897216796875
5227831250.0 -0.35723876953125 1.505859375
5259053125.0 0.6885986328125 1.49176025390625
5290275000.0 1.52081298828125 0.66278076171875
5321496875.0 1.4925537109375 -0.4317626953125
5352718750.0 0.92022705078125 -1.15399169921875
5383940625.0 0.0960693359375 -1.5
5415162500.0 -0.900390625 -1.2833251953125
5446384375.0 -1.48443603515625 -0.36956787109375
5477606250.0 -1.2982177734375 0.5660400390625
5508828125.0 -0.73095703125 1.15087890625
5540050000.0 0.0535888671875 1.3974609375
5571271875.0 0.9388427734375 1.108154296875
5602493750.0 1.40740966796875 0.2596435546875
5633715625.0 1.23199462890625 -0.6124267578125
5664937500.0 0.6483154296875 -1.20062255859375
5696159375.0 -0.19683837890625 -1.38330078125
5727381250.0 -1.0220947265625 -0.97857666015625
5758603125.0 -1.39093017578125 -0.14544677734375
5789825000.0 -1.1939697265625 0.71734619140625
5821046875.0 -0.5062255859375 1.306884765625
5852268750.0 0.41180419921875 1.31317138671875
5883490625.0 1.071044921875 0.77203369140625
5914712500.0 1.3026123046875 0.01904296875
5945934375.0 1.09576416015625 -0.7757568359375
5977156250.0 0.3609619140625 -1.312255859375
6008378125.0 -0.509521484375 -1.18194580078125
6039600000.0 -1.02117919921875 -0.6490478515625
6070821875.0 -1.22369384765625 -0.00372314453125
6102043750.0 -1.082763671875 0.7623291015625
6133265625.0 -0.3414306640625 1.34515380859375
6164487500.0 0.56341552734375 1.18701171875
6195709375.0 1.070556640625 0.629638671875
6226931250.0 1.27960205078125 -0.04345703125
6258153125.0 1.10394287109375 -0.870849609375
6289375000.0 0.2562255859375 -1.44573974609375
6320596875.0 -0.68890380859375 -1.2059326171875
6351818750.0 -1.19915771484375 -0.5723876953125
6383040625.0 -1.35430908203125 0.206787109375
6414262500.0 -0.9998779296875 1.05743408203125
6445484375.0 -0.078125 1.45709228515625
6476706250.0 0.79608154296875 1.14776611328125
6507928125.0 1.29052734375 0.46978759765625
6539150000.0 1.34710693359375 -0.3870849609375
6570371875.0 0.8408203125 -1.14398193359375
6601593750.0 -0.017333984375 -1.4041748046875
6632815625.0 -0.839599609375 -1.13568115234375
6664037500.0 -1.4005126953125 -0.41986083984375
6695259375.0 -1.37286376953125 0.5657958984375
6726481250.0 -0.70965576171875 1.25164794921875
6757703125.0 0.1317138671875 1.4071044921875
6788925000.0 0.9549560546875 1.13055419921875
6820146875.0 1.55902099609375 0.2884521484375
6851368750.0 1.32574462890625 -0.8197021484375
6882590625.0 0.50665283203125 -1.33746337890625
6913812500.0 -0.29217529296875 -1.356201171875
6945034375.0 -1.07012939453125 -1.0216064453125
6976256250.0 -1.59259033203125 -0.09295654296875
7007478125.0 -1.23529052734375 0.9327392578125
7038700000.0 -0.40185546875 1.3427734375
7069921875.0 0.359619140625 1.3236083984375
7101143750.0 1.11761474609375 0.9677734375
7132365625.0 1.59942626953125 0.0125732421875
7163587500.0 1.1568603515625 -1.02178955078125
7194809375.0 0.30047607421875 -1.3984375
7226031250.0 -0.51275634765625 -1.32513427734375
7257253125.0 -1.26611328125 -0.82391357421875
7288475000.0 -1.5587158203125 0.19818115234375
7319696875.0 -1.02960205078125 1.11029052734375
7350918750.0 -0.16326904296875 1.4451904296875
7382140625.0 0.71514892578125 1.2762451171875
7413362500.0 1.3782958984375 0.57598876953125
7444584375.0 1.41162109375 -0.40643310546875
7475806250.0 0.8590087890625 -1.14422607421875
7507028125.0 0.00360107421875 -1.43157958984375
7538250000.0 -0.8878173828125 -1.12384033203125
7569471875.0 -1.3370361328125 -0.31097412109375
7600693750.0 -1.20123291015625 0.496337890625
7631915625.0 -0.71728515625 1.08502197265625
7663137500.0 0.0802001953125 1.35791015625
7694359375.0 0.94232177734375 0.9808349609375
7725581250.0 1.243896484375 0.179931640625
7756803125.0 1.08251953125 -0.49871826171875
7788025000.0 0.669921875 -1.04412841796875
7819246875.0 -0.12030029296875 -1.34759521484375
7850468750.0 -0.994354248046875 -0.91571044921875
7881690625.0 -1.23248291015625 -0.10369873046875
7912912500.0 -1.0548095703125 0.554931640625
7944134375.0 -0.60504150390625 1.11395263671875
7975356250.0 0.27215576171875 1.33575439453125
8006578125.0 1.04791259765625 0.7789306640625
8037800000.0 1.19384765625 0.01641845703125
8069021875.0 1.00677490234375 -0.6173095703125
8100243750.0 0.49981689453125 -1.1630859375
8131465625.0 -0.388916015625 -1.2542724609375
8162687500.0 -1.03271484375 -0.68585205078125
8193909375.0 -1.1827392578125 0.0098876953125
8225131250.0 -1.01806640625 0.67803955078125
8256353125.0 -0.4208984375 1.24871826171875
8287575000.0 0.50140380859375 1.22564697265625
8318796875.0 1.08447265625 0.63446044921875
8350018750.0 1.24560546875 -0.0765380859375
8381240625.0 1.031005859375 -0.83831787109375
8412462500.0 0.25537109375 -1.37261962890625
8443684375.0 -0.669677734375 -1.170166015625
8474906250.0 -1.1754150390625 -0.53155517578125
8506128125.0 -1.29931640625 0.2373046875
8537350000.0 -0.9237060546875 1.04669189453125
8568571875.0 -0.01422119140625 1.39617919921875
8599793750.0 0.802001953125 1.05340576171875
8631015625.0 1.24188232421875 0.3984375
8662237500.0 1.285400390625 -0.4305419921875
8693459375.0 0.73577880859375 -1.1778564453125
8724681250.0 -0.16217041015625 -1.33111572265625
8755903125.0 -0.880218505859375 -0.95782470703125
8787125000.0 -1.302978515625 -0.282958984375
8818346875.0 -1.25152587890625 0.61614990234375
8849568750.0 -0.55645751953125 1.25958251953125
8880790625.0 0.299072265625 1.2850341796875
8912012500.0 0.98193359375 0.8929443359375
8943234375.0 1.399658203125 0.1290283203125
8974456250.0 1.1668701171875 -0.84088134765625
9005678125.0 0.348876953125 -1.31396484375
9036900000.0 -0.4456787109375 -1.22607421875
9068121875.0 -1.1025390625 -0.78619384765625
9099343750.0 -1.442138671875 0.0975341796875
9130565625.0 -0.9801025390625 1.01239013671875
9161787500.0 -0.15362548828125 1.2850341796875
9193009375.0 0.5550537109375 1.1341552734375
9224231250.0 1.1817626953125 0.655029296875
9255453125.0 1.39923095703125 -0.29510498046875
9286675000.0 0.8076171875 -1.08563232421875
9317896875.0 0.0264892578125 -1.24652099609375
9349118750.0 -0.654296875 -1.06988525390625
9380340625.0 -1.25787353515625 -0.51007080078125
9411562500.0 -1.3125 0.47711181640625
9442784375.0 -0.64837646484375 1.11602783203125
9474006250.0 0.08892822265625 1.21099853515625
9505228125.0 0.7652587890625 0.98004150390625
9536450000.0 1.27496337890625 0.31353759765625
9567671875.0 1.1455078125 -0.58221435546875
9598893750.0 0.52978515625 -1.06939697265625
9630115625.0 -0.14453125 -1.15887451171875
9661337500.0 -0.81878662109375 -0.903076171875
9692559375.0 -1.2369384765625 -0.1910400390625
9723781250.0 -1.04425048828125 0.603271484375
9755003125.0 -0.48480224609375 1.05035400390625
9786225000.0 0.198486328125 1.1602783203125
9817446875.0 0.896331787109375 0.8277587890625
9848668750.0 1.19903564453125 0.078125
9879890625.0 0.96875 -0.616119384765625
9911112500.0 0.45294189453125 -1.05047607421875
9942334375.0 -0.266845703125 -1.1585693359375
9973556250.0 -0.941436767578125 -0.73907470703125
10004778125.0 -1.14617919921875 -0.01824951171875
10036000000.0 -0.944000244140625 0.616729736328125
10067221875.0 -0.4417724609375 1.09613037109375
10098443750.0 0.3690185546875 1.1807861328125
10129665625.0 1.00494384765625 0.6434326171875
10160887500.0 1.12078857421875 -0.051513671875
10192109375.0 0.9178466796875 -0.665252685546875
10223331250.0 0.3612060546875 -1.153076171875
10254553125.0 -0.48541259765625 -1.11376953125
10285775000.0 -0.985748291015625 -0.5345458984375
10316996875.0 -1.06744384765625 0.07733154296875
10348218750.0 -0.899627685546875 0.6700439453125
10379440625.0 -0.321533203125 1.17559814453125
10410662500.0 0.52642822265625 1.08502197265625
10441884375.0 0.991455078125 0.521331787109375
10473106250.0 1.109375 -0.0841064453125
10504328125.0 0.949981689453125 -0.756927490234375
10535550000.0 0.2392578125 -1.2957763671875
10566771875.0 -0.6563720703125 -1.07733154296875
10597993750.0 -1.0819091796875 -0.45855712890625
10629215625.0 -1.1751708984375 0.20574951171875
10660437500.0 -0.88836669921875 0.95263671875
10691659375.0 -0.01068115234375 1.33538818359375
10722881250.0 0.78570556640625 0.952362060546875
10754103125.0 1.1209716796875 0.32415771484375
10785325000.0 1.13848876953125 -0.36822509765625
10816546875.0 0.7015380859375 -1.0484619140625
10847768750.0 -0.14599609375 -1.23004150390625
10878990625.0 -0.8035888671875 -0.844390869140625
10910212500.0 -1.12347412109375 -0.24468994140625
10941434375.0 -1.0980224609375 0.4771728515625
10972656250.0 -0.5687255859375 1.08526611328125
11003878125.0 0.21630859375 1.17303466796875
11035100000.0 0.848480224609375 0.8216552734375
11066321875.0 1.21990966796875 0.1744384765625
11097543750.0 1.098388671875 -0.67657470703125
11128765625.0 0.3868408203125 -1.19921875
11159987500.0 -0.3958740234375 -1.13946533203125
11191209375.0 -0.99951171875 -0.702606201171875
11222431250.0 -1.27203369140625 0.0928955078125
11253653125.0 -0.860137939453125 0.893524169921875
11284875000.0 -0.11480712890625 1.12689208984375
11316096875.0 0.510955810546875 0.956573486328125
11347318750.0 1.00274658203125 0.50201416015625
11378540625.0 1.1163330078125 -0.26812744140625
11409762500.0 0.635009765625 -0.86029052734375
11440984375.0 0.035064697265625 -0.97943115234375
11472206250.0 -0.480438232421875 -0.849517822265625
11503428125.0 -0.953643798828125 -0.455780029296875
11534650000.0 -1.0692138671875 0.2882080078125
11565871875.0 -0.60247802734375 0.85546875
11597093750.0 -0.018707275390625 0.992431640625
11628315625.0 0.544921875 0.875244140625
11659537500.0 1.06060791015625 0.39208984375
11690759375.0 1.064208984375 -0.43408203125
11721981250.0 0.517730712890625 -0.9400634765625
11753203125.0 -0.10528564453125 -1.03717041015625
11784425000.0 -0.722900390625 -0.80975341796875
11815646875.0 -1.1019287109375 -0.15045166015625
11846868750.0 -0.892059326171875 0.55206298828125
11878090625.0 -0.391265869140625 0.909088134765625
11909312500.0 0.1873779296875 0.98529052734375
11940534375.0 0.78033447265625 0.695037841796875
11971756250.0 1.02435302734375 0.03973388671875
12002978125.0 0.8067626953125 -0.538177490234375
12034200000.0 0.381439208984375 -0.8890380859375
12065421875.0 -0.21490478515625 -1.01068115234375
12096643750.0 -0.8466796875 -0.66668701171875
12127865625.0 -1.03399658203125 0.01641845703125
12159087500.0 -0.815399169921875 0.57574462890625
12190309375.0 -0.377838134765625 0.97491455078125
12221531250.0 0.339111328125 1.08782958984375
12252753125.0 0.980224609375 0.582244873046875
12283975000.0 1.05474853515625 -0.12774658203125
12315196875.0 0.79986572265625 -0.6756591796875
12346418750.0 0.28125 -1.09234619140625
12377640625.0 -0.539306640625 -1.060791015625
12408862500.0 -1.034912109375 -0.4202880859375
12440084375.0 -1.00872802734375 0.22509765625
12471306250.0 -0.742462158203125 0.73773193359375
12502528125.0 -0.1798095703125 1.1202392578125
12533750000.0 0.620880126953125 0.9927978515625
12564971875.0 1.04266357421875 0.36456298828125
12596193750.0 1.03009033203125 -0.2657470703125
12627415625.0 0.748138427734375 -0.82928466796875
12658637500.0 0.0799560546875 -1.20819091796875
12689859375.0 -0.73663330078125 -0.966644287109375
12721081250.0 -1.11724853515625 -0.3057861328125
12752303125.0 -1.09698486328125 0.3812255859375
12783525000.0 -0.68798828125 1.028076171875
12814746875.0 0.16412353515625 1.25030517578125
12845968750.0 0.862274169921875 0.81158447265625
12877190625.0 1.11749267578125 0.17230224609375
12908412500.0 1.05645751953125 -0.50250244140625
12939634375.0 0.54266357421875 -1.11895751953125
12970856250.0 -0.31976318359375 -1.1754150390625
13002078125.0 -0.89501953125 -0.693359375
13033300000.0 -1.106201171875 -0.0863037109375
13064521875.0 -1.0093994140625 0.59295654296875
13095743750.0 -0.42169189453125 1.15570068359375
13126965625.0 0.40869140625 1.1207275390625
13158187500.0 0.947540283203125 0.632232666015625
13189409375.0 1.14862060546875 -0.02154541015625
13220631250.0 0.9364013671875 -0.74932861328125
13251853125.0 0.234619140625 -1.17333984375
13283075000.0 -0.50714111328125 -1.02032470703125
13314296875.0 -0.9896240234375 -0.528778076171875
13345518750.0 -1.13525390625 0.1768798828125
13376740625.0 -0.7532958984375 0.858673095703125
13407962500.0 -0.0587158203125 1.0684814453125
