!Created with skrf (http://scikit-rf.org).
# Hz S RI R 50.0 
!freq ReS11 ImS11
45000000.0 -0.07658004760742188 -0.09709548950195312
76221875.0 -0.19683074951171875 -0.0481414794921875
107443750.0 -0.255859375 0.1193695068359375
138665625.0 -0.1493988037109375 0.32891845703125
169887500.0 0.1226959228515625 0.418548583984375
201109375.0 0.421966552734375 0.28265380859375
232331250.0 0.580291748046875 -0.056243896484375
263553125.0 0.4916229248046875 -0.4524688720703125
294775000.0 0.1004638671875 -0.734100341796875
325996875.0 -0.4146728515625 -0.683349609375
357218750.0 -0.807586669921875 -0.300048828125
388440625.0 -0.88848876953125 0.299102783203125
419662500.0 -0.52056884765625 0.8668212890625
450884375.0 0.170654296875 1.0316162109375
482106250.0 0.798370361328125 0.71636962890625
513328125.0 1.12164306640625 0.090087890625
544550000.0 1.00714111328125 -0.67877197265625
575771875.0 0.340087890625 -1.2393798828125
606993750.0 -0.5517578125 -1.18084716796875
638215625.0 -1.16656494140625 -0.5946044921875
669437500.0 -1.34283447265625 0.23095703125
700659375.0 -0.97509765625 1.09552001953125
731881250.0 -0.0079345703125 1.546142578125
763103125.0 1.00433349609375 1.1611328125
794325000.0 1.47119140625 0.28582763671875
825546875.0 1.3714599609375 -0.64947509765625
856768750.0 0.799072265625 -1.40191650390625
887990625.0 -0.2891845703125 -1.652587890625
919212500.0 -1.288818359375 -1.08416748046875
950434375.0 -1.652587890625 -0.0628662109375
981656250.0 -1.3880615234375 0.9453125
1012878125.0 -0.5350341796875 1.674560546875
1044100000.0 0.6951904296875 1.66790771484375
1075321875.0 1.57672119140625 0.81781005859375
1106543750.0 1.709716796875 -0.309814453125
1137765625.0 1.1923828125 -1.28466796875
1168987500.0 0.1429443359375 -1.8013916015625
1200209375.0 -1.06072998046875 -1.48956298828125
1231431250.0 -1.7305908203125 -0.45794677734375
1262653125.0 -1.59893798828125 0.6827392578125
1293875000.0 -0.85711669921875 1.49273681640625
1325096875.0 0.22454833984375 1.71136474609375
1356318750.0 1.235107421875 1.22247314453125
1387540625.0 1.74298095703125 0.1932373046875
1418762500.0 1.47442626953125 -0.9501953125
1449984375.0 0.53424072265625 -1.628173828125
1481206250.0 -0.54766845703125 -1.560791015625
1512428125.0 -1.34307861328125 -0.92474365234375
1543650000.0 -1.6590576171875 0.06243896484375
1574871875.0 -1.27783203125 1.1080322265625
1606093750.0 -0.2772216796875 1.6337890625
1637315625.0 0.74066162109375 1.4049072265625
1668537500.0 1.39697265625 0.70025634765625
1699759375.0 1.57684326171875 -0.2745361328125
1730981250.0 1.06878662109375 -1.2296142578125
1762203125.0 0.04547119140625 -1.573486328125
1793425000.0 -0.85504150390625 -1.23077392578125
1824646875.0 -1.39501953125 -0.51885986328125
1855868750.0 -1.47772216796875 0.4300537109375
1887090625.0 -0.87945556640625 1.28607177734375
1918312500.0 0.11474609375 1.489990234375
1949534375.0 0.92120361328125 1.09307861328125
1980756250.0 1.3773193359375 0.3734130859375
2011978125.0 1.3634033203125 -0.52960205078125
2043200000.0 0.75408935546875 -1.2623291015625
2074421875.0 -0.15411376953125 -1.43634033203125
2105643750.0 -0.96002197265625 -1.0762939453125
2136865625.0 -1.44921875 -0.30841064453125
2168087500.0 -1.3609619140625 0.6702880859375
2199309375.0 -0.6429443359375 1.352783203125
2230531250.0 0.2799072265625 1.43963623046875
2261753125.0 1.0731201171875 1.017578125
2292975000.0 1.51690673828125 0.17327880859375
2324196875.0 1.3094482421875 -0.8179931640625
2355418750.0 0.52862548828125 -1.42205810546875
2386640625.0 -0.4022216796875 -1.451904296875
2417862500.0 -1.180419921875 -1.02838134765625
2449084375.0 -1.60821533203125 -0.0863037109375
2480306250.0 -1.3148193359375 0.9244384765625
2511528125.0 -0.49755859375 1.5093994140625
2542750000.0 0.4864501953125 1.53948974609375
2573971875.0 1.37286376953125 0.97198486328125
2605193750.0 1.72149658203125 -0.11041259765625
2636415625.0 1.265380859375 -1.152587890625
2667637500.0 0.3095703125 -1.670166015625
2698859375.0 -0.76861572265625 -1.5390625
2730081250.0 -1.5751953125 -0.74456787109375
2761303125.0 -1.68585205078125 0.3873291015625
2792525000.0 -1.10333251953125 1.30853271484375
2823746875.0 -0.10400390625 1.734375
2854968750.0 1.01220703125 1.46044921875
2886190625.0 1.695068359375 0.4957275390625
2917412500.0 1.6043701171875 -0.6165771484375
2948634375.0 0.94378662109375 -1.43560791015625
2979856250.0 -0.10650634765625 -1.7811279296875
3011078125.0 -1.2474365234375 -1.34710693359375
3042300000.0 -1.77813720703125 -0.23785400390625
3073521875.0 -1.5133056640625 0.83734130859375
3104743750.0 -0.7669677734375 1.5706787109375
3135965625.0 0.36029052734375 1.813720703125
3167187500.0 1.50067138671875 1.16864013671875
3198409375.0 1.818603515625 -0.07183837890625
3229631250.0 1.35345458984375 -1.08148193359375
3260853125.0 0.49371337890625 -1.67022705078125
3292075000.0 -0.65423583984375 -1.7034912109375
3323296875.0 -1.62286376953125 -0.88385009765625
3354518750.0 -1.7344970703125 0.3270263671875
3385740625.0 -1.16009521484375 1.23309326171875
3416962500.0 -0.2349853515625 1.68408203125
3448184375.0 0.85992431640625 1.52630615234375
3479406250.0 1.63861083984375 0.64727783203125
3510628125.0 1.64862060546875 -0.49462890625
3541850000.0 1.0040283203125 -1.35699462890625
3573071875.0 -0.00457763671875 -1.6854248046875
3604293750.0 -1.02783203125 -1.3414306640625
3635515625.0 -1.63006591796875 -0.44110107421875
3666737500.0 -1.56500244140625 0.6448974609375
3697959375.0 -0.82879638671875 1.4771728515625
3729181250.0 0.26690673828125 1.63409423828125
3760403125.0 1.15301513671875 1.10211181640625
3791625000.0 1.55511474609375 0.22119140625
3822846875.0 1.4056396484375 -0.75921630859375
3854068750.0 0.62420654296875 -1.484130859375
3885290625.0 -0.41937255859375 -1.484130859375
3916512500.0 -1.1424560546875 -0.9146728515625
3947734375.0 -1.4503173828125 -0.12225341796875
3978956250.0 -1.3018798828125 0.7806396484375
4010178125.0 -0.533447265625 1.45782470703125
4041400000.0 0.47467041015625 1.4193115234375
4072621875.0 1.1533203125 0.8504638671875
4103843750.0 1.44744873046875 0.06451416015625
4135065625.0 1.27099609375 -0.84637451171875
4166287500.0 0.4600830078125 -1.4974365234375
4197509375.0 -0.55657958984375 -1.417236328125
4228731250.0 -1.24920654296875 -0.80450439453125
4259953125.0 -1.51153564453125 0.06884765625
4291175000.0 -1.19183349609375 1.01104736328125
4322396875.0 -0.2916259765625 1.52862548828125
4353618750.0 0.6729736328125 1.3526611328125
4384840625.0 1.32379150390625 0.70013427734375
4416062500.0 1.5048828125 -0.2275390625
4447284375.0 1.05853271484375 -1.1064453125
4478506250.0 0.17425537109375 -1.49810791015625
4509728125.0 -0.733154296875 -1.31103515625
4540950000.0 -1.3953857421875 -0.637939453125
4572171875.0 -1.52630615234375 0.3597412109375
4603393750.0 -0.97528076171875 1.213623046875
4634615625.0 -0.0628662109375 1.5394287109375
4665837500.0 0.87127685546875 1.307373046875
4697059375.0 1.54327392578125 0.5177001953125
4728281250.0 1.53192138671875 -0.58270263671875
4759503125.0 0.82501220703125 -1.36895751953125
4790725000.0 -0.14404296875 -1.57574462890625
4821946875.0 -1.08453369140625 -1.19677734375
4853168750.0 -1.61651611328125 -0.25262451171875
4884390625.0 -1.38104248046875 0.7938232421875
4915612500.0 -0.615966796875 1.4144287109375
4946834375.0 0.32867431640625 1.51239013671875
4978056250.0 1.2071533203125 1.02001953125
5009278125.0 1.56475830078125 0.04052734375
5040500000.0 1.23248291015625 -0.87744140625
5071721875.0 0.50341796875 -1.41717529296875
5102943750.0 -0.44635009765625 -1.5001220703125
5134165625.0 -1.33892822265625 -0.908203125
5165387500.0 -1.57110595703125 0.14617919921875
5196609375.0 -1.13861083984375 1.009521484375
5227831250.0 -0.3582763671875 1.51025390625
5259053125.0 0.68902587890625 1.49542236328125
5290275000.0 1.5242919921875 0.66461181640625
5321496875.0 1.4957275390625 -0.43218994140625
5352718750.0 0.92303466796875 -1.15423583984375
5383940625.0 0.09783935546875 -1.50262451171875
5415162500.0 -0.90106201171875 -1.28717041015625
5446384375.0 -1.48687744140625 -0.37274169921875
5477606250.0 -1.30224609375 0.56634521484375
5508828125.0 -0.73358154296875 1.15283203125
5540050000.0 0.05291748046875 1.40191650390625
5571271875.0 0.94000244140625 1.1116943359375
5602493750.0 1.4119873046875 0.2608642578125
5633715625.0 1.2349853515625 -0.61279296875
5664937500.0 0.64959716796875 -1.203125
5696159375.0 -0.19696044921875 -1.385986328125
5727381250.0 -1.0240478515625 -0.9803466796875
5758603125.0 -1.3936767578125 -0.145751953125
5789825000.0 -1.19677734375 0.71917724609375
5821046875.0 -0.50750732421875 1.3099365234375
5852268750.0 0.4132080078125 1.315673828125
5883490625.0 1.07244873046875 0.77374267578125
5914712500.0 1.30523681640625 0.0206298828125
5945934375.0 1.09906005859375 -0.77752685546875
5977156250.0 0.3624267578125 -1.31512451171875
6008378125.0 -0.5106201171875 -1.18499755859375
6039600000.0 -1.02337646484375 -0.650634765625
6070821875.0 -1.22637939453125 -0.00537109375
6102043750.0 -1.0859375 0.76422119140625
6133265625.0 -0.34210205078125 1.34869384765625
6164487500.0 0.56524658203125 1.189697265625
6195709375.0 1.07244873046875 0.63153076171875
6226931250.0 1.28192138671875 -0.042236328125
6258153125.0 1.106689453125 -0.87371826171875
6289375000.0 0.25506591796875 -1.44940185546875
6320596875.0 -0.69110107421875 -1.20721435546875
6351818750.0 -1.20184326171875 -0.57269287109375
6383040625.0 -1.35662841796875 0.20721435546875
6414262500.0 -1.0013427734375 1.0584716796875
6445484375.0 -0.07769775390625 1.46002197265625
6476706250.0 0.79644775390625 1.14959716796875
6507928125.0 1.29248046875 0.47076416015625
6539150000.0 1.35003662109375 -0.38702392578125
6570371875.0 0.8427734375 -1.146484375
6601593750.0 -0.01702880859375 -1.407470703125
6632815625.0 -0.84027099609375 -1.13873291015625
6664037500.0 -1.405029296875 -0.4205322265625
6695259375.0 -1.37615966796875 0.56719970703125
6726481250.0 -0.7108154296875 1.254638671875
6757703125.0 0.13104248046875 1.40972900390625
6788925000.0 0.95697021484375 1.13299560546875
6820146875.0 1.56463623046875 0.287353515625
6851368750.0 1.32745361328125 -0.821533203125
6882590625.0 0.50689697265625 -1.34130859375
6913812500.0 -0.29339599609375 -1.35882568359375
6945034375.0 -1.07275390625 -1.0233154296875
6976256250.0 -1.59564208984375 -0.0924072265625
7007478125.0 -1.2381591796875 0.9354248046875
7038700000.0 -0.40277099609375 1.345458984375
7069921875.0 0.3614501953125 1.32763671875
7101143750.0 1.12188720703125 0.97161865234375
7132365625.0 1.60308837890625 0.013671875
7163587500.0 1.15960693359375 -1.0218505859375
7194809375.0 0.30352783203125 -1.399169921875
7226031250.0 -0.51202392578125 -1.32928466796875
7257253125.0 -1.27130126953125 -0.82623291015625
7288475000.0 -1.56134033203125 0.20068359375
7319696875.0 -1.03216552734375 1.1129150390625
7350918750.0 -0.16558837890625 1.4468994140625
7382140625.0 0.7178955078125 1.27984619140625
7413362500.0 1.37823486328125 0.576171875
7444584375.0 1.41424560546875 -0.40826416015625
7475806250.0 0.859130859375 -1.146484375
7507028125.0 0.0062255859375 -1.43157958984375
7538250000.0 -0.89031982421875 -1.12640380859375
7569471875.0 -1.338623046875 -0.31060791015625
7600693750.0 -1.20330810546875 0.49725341796875
7631915625.0 -0.7200927734375 1.08709716796875
7663137500.0 0.07958984375 1.36151123046875
7694359375.0 0.94171142578125 0.983673095703125
7725581250.0 1.24542236328125 0.18218994140625
7756803125.0 1.08599853515625 -0.50006103515625
7788025000.0 0.67236328125 -1.04449462890625
7819246875.0 -0.1220703125 -1.350341796875
7850468750.0 -0.996978759765625 -0.917083740234375
7881690625.0 -1.23583984375 -0.10467529296875
7912912500.0 -1.05706787109375 0.55609130859375
7944134375.0 -0.60546875 1.116943359375
7975356250.0 0.273681640625 1.33831787109375
8006578125.0 1.04852294921875 0.7789306640625
8037800000.0 1.194091796875 0.016845703125
8069021875.0 1.0089111328125 -0.6177978515625
8100243750.0 0.50018310546875 -1.16436767578125
8131465625.0 -0.39019775390625 -1.25653076171875
8162687500.0 -1.03594970703125 -0.687255859375
8193909375.0 -1.1829833984375 0.00775146484375
8225131250.0 -1.02032470703125 0.6822509765625
8256353125.0 -0.42169189453125 1.25213623046875
8287575000.0 0.50396728515625 1.22894287109375
8318796875.0 1.0843505859375 0.6363525390625
8350018750.0 1.24884033203125 -0.076416015625
8381240625.0 1.0345458984375 -0.84271240234375
8412462500.0 0.25311279296875 -1.3780517578125
8443684375.0 -0.67242431640625 -1.17193603515625
8474906250.0 -1.178955078125 -0.53192138671875
8506128125.0 -1.300537109375 0.23858642578125
8537350000.0 -0.92474365234375 1.04998779296875
8568571875.0 -0.01544189453125 1.39691162109375
8599793750.0 0.80279541015625 1.05560302734375
8631015625.0 1.244140625 0.39898681640625
8662237500.0 1.2889404296875 -0.42987060546875
8693459375.0 0.73809814453125 -1.18060302734375
8724681250.0 -0.16265869140625 -1.33563232421875
8755903125.0 -0.881378173828125 -0.96026611328125
8787125000.0 -1.3092041015625 -0.28070068359375
8818346875.0 -1.25421142578125 0.6177978515625
8849568750.0 -0.556640625 1.26519775390625
8880790625.0 0.2998046875 1.288330078125
8912012500.0 0.98291015625 0.894866943359375
8943234375.0 1.40576171875 0.126220703125
8974456250.0 1.1683349609375 -0.84478759765625
9005678125.0 0.34765625 -1.31536865234375
9036900000.0 -0.44683837890625 -1.2269287109375
9068121875.0 -1.1064453125 -0.78668212890625
9099343750.0 -1.44476318359375 0.10101318359375
9130565625.0 -0.97906494140625 1.012939453125
9161787500.0 -0.15435791015625 1.28472900390625
9193009375.0 0.5570068359375 1.13623046875
9224231250.0 1.180419921875 0.65643310546875
9255453125.0 1.40338134765625 -0.29827880859375
9286675000.0 0.80755615234375 -1.09033203125
9317896875.0 0.025146484375 -1.251220703125
9349118750.0 -0.65692138671875 -1.07318115234375
9380340625.0 -1.2645263671875 -0.50946044921875
9411562500.0 -1.31494140625 0.48095703125
9442784375.0 -0.64801025390625 1.12152099609375
9474006250.0 0.09002685546875 1.215576171875
9505228125.0 0.768768310546875 0.981842041015625
9536450000.0 1.2786865234375 0.311767578125
9567671875.0 1.1458740234375 -0.58404541015625
9598893750.0 0.52880859375 -1.07257080078125
9630115625.0 -0.14727783203125 -1.1605224609375
9661337500.0 -0.82135009765625 -0.90277099609375
9692559375.0 -1.24169921875 -0.18817138671875
9723781250.0 -1.04443359375 0.60577392578125
9755003125.0 -0.4866943359375 1.05267333984375
9786225000.0 0.19903564453125 1.16217041015625
9817446875.0 0.8990478515625 0.827850341796875
9848668750.0 1.20166015625 0.076416015625
9879890625.0 0.969482421875 -0.6187744140625
9911112500.0 0.45263671875 -1.0556640625
9942334375.0 -0.27191162109375 -1.16326904296875
9973556250.0 -0.94720458984375 -0.739471435546875
10004778125.0 -1.1490478515625 -0.0155029296875
10036000000.0 -0.9449462890625 0.618988037109375
10067221875.0 -0.44085693359375 1.101318359375
10098443750.0 0.374755859375 1.18359375
10129665625.0 1.007080078125 0.64141845703125
10160887500.0 1.1207275390625 -0.052978515625
10192109375.0 0.91888427734375 -0.6676025390625
10223331250.0 0.359130859375 -1.1561279296875
10254553125.0 -0.48895263671875 -1.115478515625
10285775000.0 -0.98779296875 -0.535003662109375
10316996875.0 -1.07073974609375 0.078857421875
10348218750.0 -0.901519775390625 0.674407958984375
10379440625.0 -0.3218994140625 1.17864990234375
10410662500.0 0.530517578125 1.08721923828125
10441884375.0 0.995697021484375 0.522186279296875
10473106250.0 1.11163330078125 -0.08441162109375
10504328125.0 0.951080322265625 -0.76019287109375
10535550000.0 0.23748779296875 -1.29931640625
10566771875.0 -0.66156005859375 -1.07855224609375
10597993750.0 -1.0845947265625 -0.4581298828125
10629215625.0 -1.1787109375 0.208251953125
10660437500.0 -0.88775634765625 0.955963134765625
10691659375.0 -0.0074462890625 1.3370361328125
10722881250.0 0.789215087890625 0.9527587890625
10754103125.0 1.12066650390625 0.32464599609375
10785325000.0 1.141357421875 -0.36968994140625
10816546875.0 0.70025634765625 -1.05419921875
10847768750.0 -0.14892578125 -1.23211669921875
10878990625.0 -0.808807373046875 -0.84344482421875
10910212500.0 -1.12548828125 -0.24456787109375
10941434375.0 -1.1011962890625 0.480712890625
10972656250.0 -0.56829833984375 1.089111328125
11003878125.0 0.219482421875 1.1766357421875
11035100000.0 0.8521728515625 0.823089599609375
11066321875.0 1.22540283203125 0.17193603515625
11097543750.0 1.0999755859375 -0.680419921875
11128765625.0 0.384033203125 -1.202880859375
11159987500.0 -0.39984130859375 -1.14105224609375
11191209375.0 -1.00360107421875 -0.70263671875
11222431250.0 -1.27423095703125 0.09649658203125
11253653125.0 -0.858551025390625 0.898834228515625
11284875000.0 -0.1114501953125 1.12994384765625
11316096875.0 0.5126953125 0.957550048828125
11347318750.0 1.0059814453125 0.50177001953125
11378540625.0 1.11865234375 -0.273193359375
11409762500.0 0.63482666015625 -0.86358642578125
11440984375.0 0.034515380859375 -0.981292724609375
11472206250.0 -0.482879638671875 -0.85150146484375
11503428125.0 -0.9576416015625 -0.456207275390625
11534650000.0 -1.0712890625 0.291015625
11565871875.0 -0.602142333984375 0.857330322265625
11597093750.0 -0.017059326171875 0.994415283203125
11628315625.0 0.5484619140625 0.877044677734375
11659537500.0 1.064208984375 0.39178466796875
11690759375.0 1.0665283203125 -0.43743896484375
11721981250.0 0.516204833984375 -0.943511962890625
11753203125.0 -0.107421875 -1.03973388671875
11784425000.0 -0.728668212890625 -0.80950927734375
11815646875.0 -1.10467529296875 -0.14794921875
11846868750.0 -0.8912353515625 0.555206298828125
11878090625.0 -0.390289306640625 0.912200927734375
11909312500.0 0.189239501953125 0.986663818359375
11940534375.0 0.783233642578125 0.6949462890625
11971756250.0 1.02825927734375 0.03619384765625
12002978125.0 0.806793212890625 -0.5401611328125
12034200000.0 0.380615234375 -0.893096923828125
12065421875.0 -0.2186279296875 -1.0118408203125
12096643750.0 -0.85162353515625 -0.66522216796875
12127865625.0 -1.03570556640625 0.02044677734375
12159087500.0 -0.81646728515625 0.57958984375
12190309375.0 -0.3759765625 0.979827880859375
12221531250.0 0.3419189453125 1.0892333984375
12252753125.0 0.984649658203125 0.57977294921875
12283975000.0 1.0557861328125 -0.1304931640625
12315196875.0 0.800567626953125 -0.680450439453125
12346418750.0 0.27886962890625 -1.0963134765625
12377640625.0 -0.54241943359375 -1.06146240234375
12408862500.0 -1.0355224609375 -0.41790771484375
12440084375.0 -1.0098876953125 0.22796630859375
12471306250.0 -0.743133544921875 0.740386962890625
12502528125.0 -0.17657470703125 1.12451171875
12533750000.0 0.62542724609375 0.994842529296875
12564971875.0 1.04486083984375 0.36224365234375
12596193750.0 1.03057861328125 -0.26556396484375
12627415625.0 0.74932861328125 -0.83343505859375
12658637500.0 0.07708740234375 -1.21112060546875
12689859375.0 -0.740386962890625 -0.96630859375
12721081250.0 -1.12066650390625 -0.303466796875
12752303125.0 -1.09942626953125 0.3857421875
12783525000.0 -0.68560791015625 1.03326416015625
12814746875.0 0.170654296875 1.25408935546875
12845968750.0 0.8662109375 0.810211181640625
12877190625.0 1.12353515625 0.16790771484375
12908412500.0 1.05877685546875 -0.50640869140625
12939634375.0 0.54071044921875 -1.12127685546875
12970856250.0 -0.3262939453125 -1.176513671875
13002078125.0 -0.896575927734375 -0.692047119140625
13033300000.0 -1.10797119140625 -0.08538818359375
13064521875.0 -1.0113525390625 0.59759521484375
13095743750.0 -0.41754150390625 1.1593017578125
13126965625.0 0.4134521484375 1.12213134765625
13158187500.0 0.9501953125 0.63226318359375
13189409375.0 1.1514892578125 -0.0244140625
13220631250.0 0.93756103515625 -0.75286865234375
13251853125.0 0.23114013671875 -1.1751708984375
13283075000.0 -0.51171875 -1.02203369140625
13314296875.0 -0.99365234375 -0.527252197265625
13345518750.0 -1.13946533203125 0.1832275390625
