!Created with skrf (http://scikit-rf.org).
# Hz S RI R 50.0 
!freq ReS11 ImS11
45000000.0 -0.07694625854492188 -0.0968017578125
76221875.0 -0.19659423828125 -0.04742431640625
107443750.0 -0.2552032470703125 0.1200408935546875
138665625.0 -0.1481475830078125 0.32928466796875
169887500.0 0.1239013671875 0.4179229736328125
201109375.0 0.42242431640625 0.2810516357421875
232331250.0 0.57952880859375 -0.05780029296875
263553125.0 0.4899444580078125 -0.453369140625
294775000.0 0.0982666015625 -0.733245849609375
325996875.0 -0.41619873046875 -0.681121826171875
357218750.0 -0.80731201171875 -0.2969970703125
388440625.0 -0.886566162109375 0.30126953125
419662500.0 -0.517364501953125 0.8673095703125
450884375.0 0.1739501953125 1.0299072265625
482106250.0 0.799530029296875 0.712982177734375
513328125.0 1.1204833984375 0.0870361328125
544550000.0 1.00433349609375 -0.680908203125
575771875.0 0.33636474609375 -1.2391357421875
606993750.0 -0.55487060546875 -1.1781005859375
638215625.0 -1.16717529296875 -0.59039306640625
669437500.0 -1.34100341796875 0.23468017578125
700659375.0 -0.97125244140625 1.0975341796875
731881250.0 -0.0028076171875 1.54443359375
763103125.0 1.007080078125 1.15625
794325000.0 1.469970703125 0.28125
825546875.0 1.36810302734375 -0.65264892578125
856768750.0 0.79473876953125 -1.40283203125
887990625.0 -0.29351806640625 -1.6494140625
919212500.0 -1.2899169921875 -1.07879638671875
950434375.0 -1.65020751953125 -0.05841064453125
981656250.0 -1.383544921875 0.94744873046875
1012878125.0 -0.52960205078125 1.67364501953125
1044100000.0 0.6982421875 1.66326904296875
1075321875.0 1.576171875 0.81243896484375
1106543750.0 1.70611572265625 -0.3138427734375
1137765625.0 1.1873779296875 -1.28594970703125
1168987500.0 0.13775634765625 -1.798583984375
1200209375.0 -1.06390380859375 -1.48431396484375
1231431250.0 -1.7288818359375 -0.45281982421875
1262653125.0 -1.59527587890625 0.68621826171875
1293875000.0 -0.85205078125 1.49346923828125
1325096875.0 0.2291259765625 1.7080078125
1356318750.0 1.23699951171875 1.21722412109375
1387540625.0 1.74114990234375 0.1881103515625
1418762500.0 1.46966552734375 -0.952880859375
1449984375.0 0.52850341796875 -1.626953125
1481206250.0 -0.551025390625 -1.55657958984375
1512428125.0 -1.34295654296875 -0.91949462890625
1543650000.0 -1.6563720703125 0.06646728515625
1574871875.0 -1.27325439453125 1.1102294921875
1606093750.0 -0.27215576171875 1.63250732421875
1637315625.0 0.74359130859375 1.40106201171875
1668537500.0 1.397216796875 0.695556640625
1699759375.0 1.573974609375 -0.2781982421875
1730981250.0 1.06414794921875 -1.2308349609375
1762203125.0 0.04156494140625 -1.57122802734375
1793425000.0 -0.85693359375 -1.22674560546875
1824646875.0 -1.394775390625 -0.51416015625
1855868750.0 -1.474609375 0.4337158203125
1887090625.0 -0.8746337890625 1.286376953125
1918312500.0 0.1181640625 1.4871826171875
1949534375.0 0.92230224609375 1.08917236328125
1980756250.0 1.3760986328125 0.36956787109375
2011978125.0 1.35968017578125 -0.53253173828125
2043200000.0 0.74969482421875 -1.26239013671875
2074421875.0 -0.157470703125 -1.4337158203125
2105643750.0 -0.96136474609375 -1.07220458984375
2136865625.0 -1.4483642578125 -0.303955078125
2168087500.0 -1.35760498046875 0.67236328125
2199309375.0 -0.638427734375 1.3521728515625
2230531250.0 0.283203125 1.43658447265625
2261753125.0 1.07421875 1.01409912109375
2292975000.0 1.51483154296875 0.16949462890625
2324196875.0 1.30560302734375 -0.819580078125
2355418750.0 0.5244140625 -1.4208984375
2386640625.0 -0.40576171875 -1.44891357421875
2417862500.0 -1.18157958984375 -1.02374267578125
2449084375.0 -1.6043701171875 -0.08331298828125
2480306250.0 -1.3116455078125 0.92626953125
2511528125.0 -0.49365234375 1.50897216796875
2542750000.0 0.490478515625 1.53692626953125
2573971875.0 1.3719482421875 0.967529296875
2605193750.0 1.71826171875 -0.11328125
2636415625.0 1.2613525390625 -1.15411376953125
2667637500.0 0.3050537109375 -1.66845703125
2698859375.0 -0.77081298828125 -1.5345458984375
2730081250.0 -1.572998046875 -0.74029541015625
2761303125.0 -1.6822509765625 0.3895263671875
2792525000.0 -1.09906005859375 1.3076171875
2823746875.0 -0.101806640625 1.7296142578125
2854968750.0 1.01318359375 1.45574951171875
2886190625.0 1.69329833984375 0.49053955078125
2917412500.0 1.59991455078125 -0.618896484375
2948634375.0 0.93902587890625 -1.43438720703125
2979856250.0 -0.1094970703125 -1.77581787109375
3011078125.0 -1.2489013671875 -1.34161376953125
3042300000.0 -1.77630615234375 -0.2333984375
3073521875.0 -1.509033203125 0.839599609375
3104743750.0 -0.762451171875 1.56878662109375
3135965625.0 0.3626708984375 1.80908203125
3167187500.0 1.50177001953125 1.1641845703125
3198409375.0 1.8150634765625 -0.07489013671875
3229631250.0 1.34857177734375 -1.0816650390625
3260853125.0 0.4886474609375 -1.66943359375
3292075000.0 -0.6556396484375 -1.69781494140625
3323296875.0 -1.619873046875 -0.87933349609375
3354518750.0 -1.7320556640625 0.33099365234375
3385740625.0 -1.15557861328125 1.23388671875
3416962500.0 -0.23016357421875 1.6832275390625
3448184375.0 0.86212158203125 1.5216064453125
3479406250.0 1.63677978515625 0.64361572265625
3510628125.0 1.64453125 -0.49676513671875
3541850000.0 0.999755859375 -1.3553466796875
3573071875.0 -0.00860595703125 -1.68243408203125
3604293750.0 -1.02960205078125 -1.337646484375
3635515625.0 -1.628173828125 -0.4376220703125
3666737500.0 -1.561767578125 0.64752197265625
3697959375.0 -0.82373046875 1.47698974609375
3729181250.0 0.26953125 1.63116455078125
3760403125.0 1.15289306640625 1.09747314453125
3791625000.0 1.55340576171875 0.21697998046875
3822846875.0 1.40185546875 -0.76129150390625
3854068750.0 0.619873046875 -1.48248291015625
3885290625.0 -0.42364501953125 -1.48236083984375
3916512500.0 -1.142578125 -0.91064453125
3947734375.0 -1.44769287109375 -0.1192626953125
3978956250.0 -1.2967529296875 0.77978515625
4010178125.0 -0.53094482421875 1.454833984375
4041400000.0 0.47442626953125 1.4154052734375
4072621875.0 1.15325927734375 0.846923828125
4103843750.0 1.44500732421875 0.0618896484375
4135065625.0 1.2674560546875 -0.84637451171875
4166287500.0 0.45660400390625 -1.4969482421875
4197509375.0 -0.55877685546875 -1.4154052734375
4228731250.0 -1.248046875 -0.8013916015625
4259953125.0 -1.5084228515625 0.07147216796875
4291175000.0 -1.1881103515625 1.011474609375
4322396875.0 -0.2884521484375 1.52691650390625
4353618750.0 0.67437744140625 1.35028076171875
4384840625.0 1.32305908203125 0.6964111328125
4416062500.0 1.50146484375 -0.22808837890625
4447284375.0 1.054931640625 -1.1055908203125
4478506250.0 0.1719970703125 -1.4957275390625
4509728125.0 -0.734130859375 -1.3077392578125
4540950000.0 -1.39453125 -0.635009765625
4572171875.0 -1.5218505859375 0.36029052734375
4603393750.0 -0.97186279296875 1.21380615234375
4634615625.0 -0.0592041015625 1.5380859375
4665837500.0 0.87091064453125 1.30401611328125
4697059375.0 1.543212890625 0.51397705078125
4728281250.0 1.5284423828125 -0.5826416015625
4759503125.0 0.821533203125 -1.36859130859375
4790725000.0 -0.14654541015625 -1.572265625
4821946875.0 -1.08514404296875 -1.193603515625
4853168750.0 -1.6136474609375 -0.2501220703125
4884390625.0 -1.37744140625 0.79327392578125
4915612500.0 -0.6124267578125 1.413330078125
4946834375.0 0.33026123046875 1.5093994140625
4978056250.0 1.20635986328125 1.01666259765625
5009278125.0 1.56256103515625 0.0382080078125
5040500000.0 1.22869873046875 -0.8770751953125
5071721875.0 0.50103759765625 -1.41497802734375
5102943750.0 -0.44940185546875 -1.49749755859375
5134165625.0 -1.33837890625 -0.90411376953125
5165387500.0 -1.569091796875 0.1488037109375
5196609375.0 -1.1357421875 1.0113525390625
5227831250.0 -0.35552978515625 1.507080078125
5259053125.0 0.68927001953125 1.49151611328125
5290275000.0 1.52252197265625 0.66192626953125
5321496875.0 1.4921875 -0.431640625
5352718750.0 0.92083740234375 -1.1539306640625
5383940625.0 0.095458984375 -1.5010986328125
5415162500.0 -0.90277099609375 -1.28363037109375
5446384375.0 -1.48468017578125 -0.369384765625
5477606250.0 -1.29876708984375 0.5667724609375
5508828125.0 -0.73089599609375 1.15203857421875
5540050000.0 0.05572509765625 1.39947509765625
5571271875.0 0.93951416015625 1.1083984375
5602493750.0 1.41015625 0.25830078125
5633715625.0 1.23248291015625 -0.61431884765625
5664937500.0 0.6473388671875 -1.20263671875
5696159375.0 -0.199462890625 -1.38427734375
5727381250.0 -1.02362060546875 -0.977294921875
5758603125.0 -1.3929443359375 -0.14337158203125
5789825000.0 -1.19415283203125 0.7196044921875
5821046875.0 -0.50543212890625 1.307373046875
5852268750.0 0.4134521484375 1.31256103515625
5883490625.0 1.07183837890625 0.771240234375
5914712500.0 1.30242919921875 0.0186767578125
5945934375.0 1.0965576171875 -0.7769775390625
5977156250.0 0.3597412109375 -1.31292724609375
6008378125.0 -0.51031494140625 -1.182373046875
6039600000.0 -1.023193359375 -0.64825439453125
6070821875.0 -1.22454833984375 -0.00299072265625
6102043750.0 -1.08343505859375 0.764404296875
6133265625.0 -0.340576171875 1.3463134765625
6164487500.0 0.565185546875 1.1873779296875
6195709375.0 1.0718994140625 0.62939453125
6226931250.0 1.28057861328125 -0.04443359375
6258153125.0 1.10406494140625 -0.87286376953125
6289375000.0 0.25482177734375 -1.44671630859375
6320596875.0 -0.6904296875 -1.20611572265625
6351818750.0 -1.2015380859375 -0.57037353515625
6383040625.0 -1.3543701171875 0.20831298828125
6414262500.0 -0.9989013671875 1.05853271484375
6445484375.0 -0.0767822265625 1.4573974609375
6476706250.0 0.79718017578125 1.14739990234375
6507928125.0 1.2913818359375 0.468994140625
6539150000.0 1.34783935546875 -0.38836669921875
6570371875.0 0.840576171875 -1.14593505859375
6601593750.0 -0.018798828125 -1.40570068359375
6632815625.0 -0.8414306640625 -1.13604736328125
6664037500.0 -1.403076171875 -0.41827392578125
6695259375.0 -1.374267578125 0.56884765625
6726481250.0 -0.709228515625 1.25299072265625
6757703125.0 0.1322021484375 1.40771484375
6788925000.0 0.9564208984375 1.130615234375
6820146875.0 1.56219482421875 0.2855224609375
6851368750.0 1.325927734375 -0.82208251953125
6882590625.0 0.50531005859375 -1.34002685546875
6913812500.0 -0.29412841796875 -1.35601806640625
6945034375.0 -1.07147216796875 -1.02081298828125
6976256250.0 -1.59234619140625 -0.092041015625
7007478125.0 -1.23614501953125 0.9346923828125
7038700000.0 -0.40228271484375 1.34307861328125
7069921875.0 0.35894775390625 1.32373046875
7101143750.0 1.11962890625 0.96856689453125
7132365625.0 1.599853515625 0.01458740234375
7163587500.0 1.15643310546875 -1.02032470703125
7194809375.0 0.30169677734375 -1.3990478515625
7226031250.0 -0.51324462890625 -1.32666015625
7257253125.0 -1.2667236328125 -0.82373046875
7288475000.0 -1.5589599609375 0.199462890625
7319696875.0 -1.02972412109375 1.10931396484375
7350918750.0 -0.16302490234375 1.4456787109375
7382140625.0 0.717529296875 1.27642822265625
7413362500.0 1.37591552734375 0.57568359375
7444584375.0 1.4122314453125 -0.4090576171875
7475806250.0 0.85662841796875 -1.1436767578125
7507028125.0 0.00555419921875 -1.4296875
7538250000.0 -0.88763427734375 -1.1226806640625
7569471875.0 -1.3363037109375 -0.31011962890625
7600693750.0 -1.2015380859375 0.49755859375
7631915625.0 -0.71820068359375 1.08416748046875
7663137500.0 0.08184814453125 1.359619140625
7694359375.0 0.941253662109375 0.981292724609375
7725581250.0 1.2445068359375 0.18017578125
7756803125.0 1.08306884765625 -0.5008544921875
7788025000.0 0.66986083984375 -1.04510498046875
7819246875.0 -0.1221923828125 -1.34857177734375
7850468750.0 -0.99407958984375 -0.9146728515625
7881690625.0 -1.2325439453125 -0.10400390625
7912912500.0 -1.05426025390625 0.5567626953125
7944134375.0 -0.60479736328125 1.113037109375
7975356250.0 0.27374267578125 1.33538818359375
8006578125.0 1.049072265625 0.777587890625
8037800000.0 1.1934814453125 0.01580810546875
8069021875.0 1.00677490234375 -0.61907958984375
8100243750.0 0.499755859375 -1.16229248046875
8131465625.0 -0.3883056640625 -1.2537841796875
8162687500.0 -1.03302001953125 -0.68603515625
8193909375.0 -1.18304443359375 0.01025390625
8225131250.0 -1.01873779296875 0.6785888671875
8256353125.0 -0.42010498046875 1.25054931640625
8287575000.0 0.5035400390625 1.2271728515625
8318796875.0 1.08172607421875 0.63525390625
8350018750.0 1.2474365234375 -0.077880859375
8381240625.0 1.031982421875 -0.8399658203125
8412462500.0 0.25286865234375 -1.3746337890625
8443684375.0 -0.6707763671875 -1.169677734375
8474906250.0 -1.17718505859375 -0.53094482421875
8506128125.0 -1.29638671875 0.23760986328125
8537350000.0 -0.92437744140625 1.04718017578125
8568571875.0 -0.01385498046875 1.39617919921875
8599793750.0 0.80462646484375 1.05291748046875
8631015625.0 1.24176025390625 0.3973388671875
8662237500.0 1.28564453125 -0.4295654296875
8693459375.0 0.7353515625 -1.178955078125
8724681250.0 -0.16497802734375 -1.33319091796875
8755903125.0 -0.880462646484375 -0.9578857421875
8787125000.0 -1.3062744140625 -0.280517578125
8818346875.0 -1.25244140625 0.61907958984375
8849568750.0 -0.55511474609375 1.26171875
8880790625.0 0.30078125 1.2862548828125
8912012500.0 0.98333740234375 0.89276123046875
8943234375.0 1.4012451171875 0.12811279296875
8974456250.0 1.16680908203125 -0.84326171875
9005678125.0 0.34552001953125 -1.31549072265625
9036900000.0 -0.44708251953125 -1.2252197265625
9068121875.0 -1.10443115234375 -0.78546142578125
9099343750.0 -1.4432373046875 0.100341796875
9130565625.0 -0.978515625 1.0130615234375
9161787500.0 -0.15423583984375 1.28363037109375
9193009375.0 0.55755615234375 1.13360595703125
9224231250.0 1.17962646484375 0.6534423828125
9255453125.0 1.40179443359375 -0.2969970703125
9286675000.0 0.80694580078125 -1.0880126953125
9317896875.0 0.0262451171875 -1.24835205078125
9349118750.0 -0.657958984375 -1.07073974609375
9380340625.0 -1.26123046875 -0.5093994140625
9411562500.0 -1.31280517578125 0.4786376953125
9442784375.0 -0.6463623046875 1.12030029296875
9474006250.0 0.09185791015625 1.213623046875
9505228125.0 0.765960693359375 0.980194091796875
9536450000.0 1.27581787109375 0.31158447265625
9567671875.0 1.1444091796875 -0.5823974609375
9598893750.0 0.52874755859375 -1.06976318359375
9630115625.0 -0.1451416015625 -1.15869140625
9661337500.0 -0.8187255859375 -0.902099609375
9692559375.0 -1.23907470703125 -0.18927001953125
9723781250.0 -1.043212890625 0.60504150390625
9755003125.0 -0.4854736328125 1.0516357421875
9786225000.0 0.1995849609375 1.160400390625
9817446875.0 0.89703369140625 0.828521728515625
9848668750.0 1.20001220703125 0.07696533203125
9879890625.0 0.9686279296875 -0.61712646484375
9911112500.0 0.45135498046875 -1.0537109375
9942334375.0 -0.268798828125 -1.16107177734375
9973556250.0 -0.9454345703125 -0.737518310546875
10004778125.0 -1.14697265625 -0.01531982421875
10036000000.0 -0.944549560546875 0.619354248046875
10067221875.0 -0.4412841796875 1.09844970703125
10098443750.0 0.3714599609375 1.1815185546875
10129665625.0 1.00299072265625 0.64208984375
10160887500.0 1.1217041015625 -0.053955078125
10192109375.0 0.917327880859375 -0.6650390625
10223331250.0 0.36004638671875 -1.1529541015625
10254553125.0 -0.48809814453125 -1.11346435546875
10285775000.0 -0.9864501953125 -0.53485107421875
10316996875.0 -1.06805419921875 0.078125
10348218750.0 -0.89971923828125 0.670989990234375
10379440625.0 -0.3214111328125 1.17657470703125
10410662500.0 0.52935791015625 1.08599853515625
10441884375.0 0.994354248046875 0.52099609375
10473106250.0 1.11114501953125 -0.0869140625
10504328125.0 0.94879150390625 -0.759490966796875
10535550000.0 0.23626708984375 -1.2989501953125
10566771875.0 -0.66021728515625 -1.07672119140625
10597993750.0 -1.0810546875 -0.45794677734375
10629215625.0 -1.175537109375 0.2071533203125
10660437500.0 -0.886962890625 0.955352783203125
10691659375.0 -0.00653076171875 1.3367919921875
10722881250.0 0.78485107421875 0.950836181640625
10754103125.0 1.11956787109375 0.3232421875
10785325000.0 1.13916015625 -0.3685302734375
10816546875.0 0.70074462890625 -1.04803466796875
10847768750.0 -0.14581298828125 -1.2293701171875
10878990625.0 -0.8033447265625 -0.84326171875
10910212500.0 -1.12249755859375 -0.2442626953125
10941434375.0 -1.09796142578125 0.47998046875
10972656250.0 -0.56707763671875 1.08551025390625
11003878125.0 0.21832275390625 1.17364501953125
11035100000.0 0.84912109375 0.82183837890625
11066321875.0 1.22259521484375 0.1728515625
11097543750.0 1.0985107421875 -0.6793212890625
11128765625.0 0.3839111328125 -1.201171875
11159987500.0 -0.39794921875 -1.1400146484375
11191209375.0 -1.0028076171875 -0.70196533203125
11222431250.0 -1.27117919921875 0.09393310546875
11253653125.0 -0.8572998046875 0.896575927734375
11284875000.0 -0.11334228515625 1.12774658203125
11316096875.0 0.5147705078125 0.95697021484375
11347318750.0 1.00439453125 0.5013427734375
11378540625.0 1.1173095703125 -0.27069091796875
11409762500.0 0.634429931640625 -0.860015869140625
11440984375.0 0.035247802734375 -0.97955322265625
11472206250.0 -0.48394775390625 -0.851043701171875
11503428125.0 -0.9530029296875 -0.45599365234375
11534650000.0 -1.07000732421875 0.29119873046875
11565871875.0 -0.60150146484375 0.8548583984375
11597093750.0 -0.017852783203125 0.9921875
11628315625.0 0.545135498046875 0.875946044921875
11659537500.0 1.0631103515625 0.39056396484375
11690759375.0 1.0645751953125 -0.43682861328125
11721981250.0 0.51611328125 -0.941375732421875
11753203125.0 -0.106689453125 -1.03668212890625
11784425000.0 -0.727020263671875 -0.808380126953125
11815646875.0 -1.102294921875 -0.14874267578125
11846868750.0 -0.89013671875 0.551116943359375
11878090625.0 -0.39013671875 0.910308837890625
11909312500.0 0.18841552734375 0.984649658203125
11940534375.0 0.7803955078125 0.693756103515625
11971756250.0 1.02569580078125 0.0384521484375
12002978125.0 0.806854248046875 -0.53875732421875
12034200000.0 0.3807373046875 -0.89166259765625
12065421875.0 -0.21551513671875 -1.0111083984375
12096643750.0 -0.84942626953125 -0.66455078125
12127865625.0 -1.035400390625 0.0189208984375
12159087500.0 -0.8150634765625 0.57684326171875
12190309375.0 -0.377838134765625 0.97686767578125
12221531250.0 0.3411865234375 1.08856201171875
12252753125.0 0.981414794921875 0.579559326171875
12283975000.0 1.05474853515625 -0.1300048828125
12315196875.0 0.799896240234375 -0.678741455078125
12346418750.0 0.27874755859375 -1.09375
12377640625.0 -0.54052734375 -1.0606689453125
12408862500.0 -1.03631591796875 -0.418212890625
12440084375.0 -1.0076904296875 0.224853515625
12471306250.0 -0.74200439453125 0.738800048828125
12502528125.0 -0.17767333984375 1.12261962890625
12533750000.0 0.621795654296875 0.99383544921875
12564971875.0 1.04193115234375 0.362548828125
12596193750.0 1.03106689453125 -0.26702880859375
12627415625.0 0.748138427734375 -0.827880859375
12658637500.0 0.07867431640625 -1.2071533203125
12689859375.0 -0.737945556640625 -0.965789794921875
12721081250.0 -1.118408203125 -0.3045654296875
12752303125.0 -1.09930419921875 0.38531494140625
12783525000.0 -0.68634033203125 1.02880859375
12814746875.0 0.1661376953125 1.25164794921875
12845968750.0 0.86395263671875 0.810302734375
12877190625.0 1.11920166015625 0.1689453125
12908412500.0 1.05682373046875 -0.50408935546875
12939634375.0 0.54046630859375 -1.11846923828125
12970856250.0 -0.32305908203125 -1.17449951171875
13002078125.0 -0.896514892578125 -0.692230224609375
13033300000.0 -1.10723876953125 -0.08453369140625
13064521875.0 -1.0098876953125 0.59716796875
13095743750.0 -0.41705322265625 1.15679931640625
13126965625.0 0.4117431640625 1.12176513671875
13158187500.0 0.948577880859375 0.631622314453125
13189409375.0 1.149658203125 -0.02301025390625
13220631250.0 0.93603515625 -0.749481201171875
13251853125.0 0.23211669921875 -1.17333984375
13283075000.0 -0.5103759765625 -1.01934814453125
13314296875.0 -0.99066162109375 -0.526885986328125
13345518750.0 -1.134765625 0.179443359375
13376740625.0 -0.751861572265625 0.860595703125
13407962500.0 -0.0572509765625 1.06793212890625
