!Created with skrf (http://scikit-rf.org).
# Hz S RI R 50.0 
!freq ReS11 ImS11
45000000.0 -0.07715988159179688 -0.0969085693359375
76221875.0 -0.197509765625 -0.0472869873046875
107443750.0 -0.25616455078125 0.12103271484375
138665625.0 -0.1482391357421875 0.3307342529296875
169887500.0 0.124786376953125 0.419219970703125
201109375.0 0.42437744140625 0.281829833984375
232331250.0 0.581573486328125 -0.0589599609375
263553125.0 0.4910125732421875 -0.4564666748046875
294775000.0 0.09747314453125 -0.736480712890625
325996875.0 -0.41943359375 -0.6837158203125
357218750.0 -0.812042236328125 -0.297119140625
388440625.0 -0.889892578125 0.304412841796875
419662500.0 -0.518280029296875 0.87188720703125
450884375.0 0.1759033203125 1.0343017578125
482106250.0 0.804229736328125 0.71527099609375
513328125.0 1.1256103515625 0.0850830078125
544550000.0 1.0072021484375 -0.685302734375
575771875.0 0.33587646484375 -1.2445068359375
606993750.0 -0.55841064453125 -1.1822509765625
638215625.0 -1.1727294921875 -0.5911865234375
669437500.0 -1.34576416015625 0.237548828125
700659375.0 -0.9730224609375 1.103515625
731881250.0 -0.00146484375 1.55072021484375
763103125.0 1.0126953125 1.15985107421875
794325000.0 1.47686767578125 0.28021240234375
825546875.0 1.37255859375 -0.65753173828125
856768750.0 0.795166015625 -1.4107666015625
887990625.0 -0.29827880859375 -1.65673828125
919212500.0 -1.29852294921875 -1.08172607421875
950434375.0 -1.65887451171875 -0.0546875
981656250.0 -1.38818359375 0.955810546875
1012878125.0 -0.52850341796875 1.683349609375
1044100000.0 0.70574951171875 1.67095947265625
1075321875.0 1.58685302734375 0.81298828125
1106543750.0 1.7139892578125 -0.319091796875
1137765625.0 1.19110107421875 -1.29449462890625
1168987500.0 0.13482666015625 -1.8079833984375
1200209375.0 -1.07244873046875 -1.4903564453125
1231431250.0 -1.738525390625 -0.45123291015625
1262653125.0 -1.6009521484375 0.69232177734375
1293875000.0 -0.85345458984375 1.50177001953125
1325096875.0 0.2330322265625 1.716796875
1356318750.0 1.24554443359375 1.2213134765625
1387540625.0 1.7506103515625 0.18548583984375
1418762500.0 1.47491455078125 -0.9600830078125
1449984375.0 0.5281982421875 -1.63604736328125
1481206250.0 -0.556640625 -1.56304931640625
1512428125.0 -1.35162353515625 -0.9210205078125
1543650000.0 -1.6641845703125 0.0701904296875
1574871875.0 -1.27703857421875 1.11785888671875
1606093750.0 -0.27020263671875 1.6409912109375
1637315625.0 0.74951171875 1.4061279296875
1668537500.0 1.4051513671875 0.69610595703125
1699759375.0 1.5809326171875 -0.28240966796875
1730981250.0 1.06671142578125 -1.2381591796875
1762203125.0 0.03839111328125 -1.578857421875
1793425000.0 -0.863525390625 -1.2301025390625
1824646875.0 -1.402587890625 -0.5140380859375
1855868750.0 -1.48077392578125 0.43865966796875
1887090625.0 -0.875732421875 1.29461669921875
1918312500.0 0.12237548828125 1.494140625
1949534375.0 0.92889404296875 1.0914306640625
1980756250.0 1.38262939453125 0.36834716796875
2011978125.0 1.36492919921875 -0.537109375
2043200000.0 0.7509765625 -1.2698974609375
2074421875.0 -0.1612548828125 -1.44012451171875
2105643750.0 -0.9678955078125 -1.07470703125
2136865625.0 -1.4556884765625 -0.30230712890625
2168087500.0 -1.36199951171875 0.67791748046875
2199309375.0 -0.6383056640625 1.36041259765625
2230531250.0 0.28778076171875 1.443359375
2261753125.0 1.0811767578125 1.01611328125
2292975000.0 1.522705078125 0.16656494140625
2324196875.0 1.30963134765625 -0.82672119140625
2355418750.0 0.523193359375 -1.42852783203125
2386640625.0 -0.4107666015625 -1.4541015625
2417862500.0 -1.190673828125 -1.0250244140625
2449084375.0 -1.61407470703125 -0.0784912109375
2480306250.0 -1.31512451171875 0.933837890625
2511528125.0 -0.4921875 1.51715087890625
2542750000.0 0.49737548828125 1.54412841796875
2573971875.0 1.3819580078125 0.96923828125
2605193750.0 1.726318359375 -0.11920166015625
2636415625.0 1.2645263671875 -1.162841796875
2667637500.0 0.30230712890625 -1.67742919921875
2698859375.0 -0.77825927734375 -1.5401611328125
2730081250.0 -1.5848388671875 -0.73944091796875
2761303125.0 -1.689453125 0.39599609375
2792525000.0 -1.1016845703125 1.3204345703125
2823746875.0 -0.09619140625 1.74169921875
2854968750.0 1.0245361328125 1.46087646484375
2886190625.0 1.7049560546875 0.48773193359375
2917412500.0 1.60662841796875 -0.6260986328125
2948634375.0 0.9393310546875 -1.4462890625
2979856250.0 -0.11639404296875 -1.78717041015625
3011078125.0 -1.26007080078125 -1.3460693359375
3042300000.0 -1.78668212890625 -0.2291259765625
3073521875.0 -1.51458740234375 0.84814453125
3104743750.0 -0.7625732421875 1.58026123046875
3135965625.0 0.37030029296875 1.8184814453125
3167187500.0 1.51019287109375 1.1656494140625
3198409375.0 1.82562255859375 -0.08203125
3229631250.0 1.35296630859375 -1.0908203125
3260853125.0 0.48724365234375 -1.679443359375
3292075000.0 -0.6634521484375 -1.70513916015625
3323296875.0 -1.63165283203125 -0.8795166015625
3354518750.0 -1.7396240234375 0.3369140625
3385740625.0 -1.1580810546875 1.244140625
3416962500.0 -0.2261962890625 1.6943359375
3448184375.0 0.87158203125 1.527587890625
3479406250.0 1.648193359375 0.64117431640625
3510628125.0 1.65118408203125 -0.503662109375
3541850000.0 1.00054931640625 -1.36578369140625
3573071875.0 -0.0147705078125 -1.69146728515625
3604293750.0 -1.037841796875 -1.34051513671875
3635515625.0 -1.63787841796875 -0.4346923828125
3666737500.0 -1.56805419921875 0.655029296875
3697959375.0 -0.824462890625 1.486083984375
3729181250.0 0.2750244140625 1.63824462890625
3760403125.0 1.1624755859375 1.10009765625
3791625000.0 1.5616455078125 0.2142333984375
3822846875.0 1.4080810546875 -0.7698974609375
3854068750.0 0.6195068359375 -1.49224853515625
3885290625.0 -0.4302978515625 -1.48870849609375
3916512500.0 -1.15240478515625 -0.9122314453125
3947734375.0 -1.45611572265625 -0.1151123046875
3978956250.0 -1.30194091796875 0.789306640625
4010178125.0 -0.528076171875 1.46575927734375
4041400000.0 0.48187255859375 1.42041015625
4072621875.0 1.16204833984375 0.84661865234375
4103843750.0 1.452392578125 0.0574951171875
4135065625.0 1.2713623046875 -0.855224609375
4166287500.0 0.4530029296875 -1.5052490234375
4197509375.0 -0.56781005859375 -1.4197998046875
4228731250.0 -1.257080078125 -0.80096435546875
4259953125.0 -1.5150146484375 0.07586669921875
4291175000.0 -1.19012451171875 1.0205078125
4322396875.0 -0.2845458984375 1.53619384765625
4353618750.0 0.68157958984375 1.35467529296875
4384840625.0 1.33258056640625 0.69610595703125
4416062500.0 1.50836181640625 -0.2347412109375
4447284375.0 1.0565185546875 -1.1151123046875
4478506250.0 0.166748046875 -1.50457763671875
4509728125.0 -0.7415771484375 -1.31170654296875
4540950000.0 -1.40380859375 -0.63311767578125
4572171875.0 -1.5291748046875 0.3690185546875
4603393750.0 -0.971435546875 1.2242431640625
4634615625.0 -0.0538330078125 1.54486083984375
4665837500.0 0.88104248046875 1.30743408203125
4697059375.0 1.55157470703125 0.51080322265625
4728281250.0 1.53387451171875 -0.59246826171875
4759503125.0 0.8201904296875 -1.37786865234375
4790725000.0 -0.1519775390625 -1.57830810546875
4821946875.0 -1.09405517578125 -1.195556640625
4853168750.0 -1.622802734375 -0.24560546875
4884390625.0 -1.38165283203125 0.8035888671875
4915612500.0 -0.610107421875 1.42266845703125
4946834375.0 0.33673095703125 1.51654052734375
4978056250.0 1.2161865234375 1.01727294921875
5009278125.0 1.57073974609375 0.03277587890625
5040500000.0 1.231689453125 -0.8853759765625
5071721875.0 0.4984130859375 -1.424560546875
5102943750.0 -0.45623779296875 -1.50311279296875
5134165625.0 -1.34722900390625 -0.90338134765625
5165387500.0 -1.57470703125 0.15472412109375
5196609375.0 -1.13653564453125 1.0203857421875
5227831250.0 -0.35198974609375 1.5159912109375
5259053125.0 0.69915771484375 1.49676513671875
5290275000.0 1.53265380859375 0.65826416015625
5321496875.0 1.49658203125 -0.440185546875
5352718750.0 0.9197998046875 -1.162109375
5383940625.0 0.09075927734375 -1.50775146484375
5415162500.0 -0.91046142578125 -1.2864990234375
5446384375.0 -1.49334716796875 -0.365234375
5477606250.0 -1.3031005859375 0.5745849609375
5508828125.0 -0.73004150390625 1.1611328125
5540050000.0 0.0609130859375 1.4073486328125
5571271875.0 0.94952392578125 1.1109619140625
5602493750.0 1.418212890625 0.25421142578125
5633715625.0 1.2357177734375 -0.62152099609375
5664937500.0 0.64544677734375 -1.21136474609375
5696159375.0 -0.205322265625 -1.38946533203125
5727381250.0 -1.0323486328125 -0.9775390625
5758603125.0 -1.39886474609375 -0.138427734375
5789825000.0 -1.19659423828125 0.7276611328125
5821046875.0 -0.50164794921875 1.3167724609375
5852268750.0 0.420654296875 1.31719970703125
5883490625.0 1.07977294921875 0.7706298828125
5914712500.0 1.3089599609375 0.013916015625
5945934375.0 1.0985107421875 -0.78515625
5977156250.0 0.3563232421875 -1.32086181640625
6008378125.0 -0.518798828125 -1.1854248046875
6039600000.0 -1.02978515625 -0.64739990234375
6070821875.0 -1.2308349609375 0.00091552734375
6102043750.0 -1.085693359375 0.772705078125
6133265625.0 -0.33642578125 1.3543701171875
6164487500.0 0.57305908203125 1.1905517578125
6195709375.0 1.0799560546875 0.62725830078125
6226931250.0 1.286865234375 -0.0499267578125
6258153125.0 1.10595703125 -0.883056640625
6289375000.0 0.247802734375 -1.45513916015625
6320596875.0 -0.6995849609375 -1.2066650390625
6351818750.0 -1.20831298828125 -0.56756591796875
6383040625.0 -1.35906982421875 0.2147216796875
6414262500.0 -0.9981689453125 1.06768798828125
6445484375.0 -0.06976318359375 1.46368408203125
6476706250.0 0.803955078125 1.14837646484375
6507928125.0 1.29876708984375 0.46630859375
6539150000.0 1.35211181640625 -0.39508056640625
6570371875.0 0.83929443359375 -1.15283203125
6601593750.0 -0.02490234375 -1.4117431640625
6632815625.0 -0.84954833984375 -1.137939453125
6664037500.0 -1.410888671875 -0.41510009765625
6695259375.0 -1.37799072265625 0.57696533203125
6726481250.0 -0.70623779296875 1.26177978515625
6757703125.0 0.13922119140625 1.41363525390625
6788925000.0 0.96612548828125 1.1314697265625
6820146875.0 1.56964111328125 0.27972412109375
6851368750.0 1.32635498046875 -0.8304443359375
6882590625.0 0.50042724609375 -1.34735107421875
6913812500.0 -0.3009033203125 -1.36083984375
6945034375.0 -1.08148193359375 -1.020751953125
6976256250.0 -1.6007080078125 -0.084228515625
7007478125.0 -1.23681640625 0.94525146484375
7038700000.0 -0.39703369140625 1.3529052734375
7069921875.0 0.3660888671875 1.3294677734375
7101143750.0 1.1309814453125 0.96893310546875
7132365625.0 1.60784912109375 0.00628662109375
7163587500.0 1.15869140625 -1.0338134765625
7194809375.0 0.2978515625 -1.4063720703125
7226031250.0 -0.52325439453125 -1.33184814453125
7257253125.0 -1.27874755859375 -0.8216552734375
7288475000.0 -1.56640625 0.21075439453125
7319696875.0 -1.02960205078125 1.120849609375
7350918750.0 -0.15679931640625 1.45367431640625
7382140625.0 0.72845458984375 1.2794189453125
7413362500.0 1.3870849609375 0.572021484375
7444584375.0 1.4166259765625 -0.420166015625
7475806250.0 0.855712890625 -1.153076171875
7507028125.0 -0.00390625 -1.43841552734375
7538250000.0 -0.8994140625 -1.1246337890625
7569471875.0 -1.34454345703125 -0.30499267578125
7600693750.0 -1.2066650390625 0.5064697265625
7631915625.0 -0.7164306640625 1.094482421875
7663137500.0 0.08935546875 1.3677978515625
7694359375.0 0.950927734375 0.982513427734375
7725581250.0 1.2532958984375 0.17474365234375
7756803125.0 1.08685302734375 -0.5076904296875
7788025000.0 0.66796875 -1.0557861328125
7819246875.0 -0.1300048828125 -1.35479736328125
7850468750.0 -1.00714111328125 -0.914794921875
7881690625.0 -1.23974609375 -0.0975341796875
7912912500.0 -1.05780029296875 0.564697265625
7944134375.0 -0.6016845703125 1.1259765625
7975356250.0 0.28387451171875 1.34002685546875
8006578125.0 1.0560302734375 0.77532958984375
8037800000.0 1.19989013671875 0.00933837890625
8069021875.0 1.0086669921875 -0.62744140625
8100243750.0 0.4949951171875 -1.171875
8131465625.0 -0.3984375 -1.2589111328125
8162687500.0 -1.0418701171875 -0.683837890625
8193909375.0 -1.1868896484375 0.01373291015625
8225131250.0 -1.02044677734375 0.68878173828125
8256353125.0 -0.41680908203125 1.26055908203125
8287575000.0 0.51080322265625 1.230224609375
8318796875.0 1.09283447265625 0.63214111328125
8350018750.0 1.25341796875 -0.0841064453125
8381240625.0 1.033203125 -0.8521728515625
8412462500.0 0.24591064453125 -1.38458251953125
8443684375.0 -0.68292236328125 -1.17236328125
8474906250.0 -1.18414306640625 -0.52764892578125
8506128125.0 -1.30401611328125 0.24713134765625
8537350000.0 -0.92169189453125 1.056640625
8568571875.0 -0.00689697265625 1.40118408203125
8599793750.0 0.81365966796875 1.05352783203125
8631015625.0 1.25030517578125 0.3924560546875
8662237500.0 1.29052734375 -0.4405517578125
8693459375.0 0.73382568359375 -1.18902587890625
8724681250.0 -0.17059326171875 -1.339111328125
8755903125.0 -0.891693115234375 -0.959228515625
8787125000.0 -1.31390380859375 -0.2762451171875
8818346875.0 -1.256103515625 0.629150390625
8849568750.0 -0.551513671875 1.27362060546875
8880790625.0 0.3076171875 1.291259765625
8912012500.0 0.994140625 0.891326904296875
8943234375.0 1.41217041015625 0.11785888671875
8974456250.0 1.1671142578125 -0.8543701171875
9005678125.0 0.3399658203125 -1.32366943359375
9036900000.0 -0.45770263671875 -1.22821044921875
9068121875.0 -1.11322021484375 -0.78179931640625
9099343750.0 -1.44952392578125 0.1104736328125
9130565625.0 -0.9761962890625 1.0257568359375
9161787500.0 -0.1478271484375 1.28857421875
9193009375.0 0.5650634765625 1.13580322265625
9224231250.0 1.1904296875 0.65191650390625
9255453125.0 1.406982421875 -0.30694580078125
9286675000.0 0.8050537109375 -1.09735107421875
9317896875.0 0.01959228515625 -1.254638671875
9349118750.0 -0.66607666015625 -1.07269287109375
9380340625.0 -1.271240234375 -0.5048828125
9411562500.0 -1.316650390625 0.48992919921875
9442784375.0 -0.64337158203125 1.12884521484375
9474006250.0 0.0970458984375 1.2183837890625
9505228125.0 0.778076171875 0.980987548828125
9536450000.0 1.2843017578125 0.30377197265625
9567671875.0 1.1446533203125 -0.5916748046875
9598893750.0 0.52325439453125 -1.07830810546875
9630115625.0 -0.15301513671875 -1.16302490234375
9661337500.0 -0.830169677734375 -0.90155029296875
9692559375.0 -1.24658203125 -0.18194580078125
9723781250.0 -1.04400634765625 0.61419677734375
9755003125.0 -0.481201171875 1.0589599609375
9786225000.0 0.207763671875 1.1650390625
9817446875.0 0.9072265625 0.826751708984375
9848668750.0 1.2060546875 0.06964111328125
9879890625.0 0.9703369140625 -0.6273193359375
9911112500.0 0.448974609375 -1.05999755859375
9942334375.0 -0.2774658203125 -1.16522216796875
9973556250.0 -0.9571533203125 -0.73486328125
10004778125.0 -1.1534423828125 -0.00830078125
10036000000.0 -0.944915771484375 0.625701904296875
10067221875.0 -0.43536376953125 1.10894775390625
10098443750.0 0.38385009765625 1.18560791015625
10129665625.0 1.01220703125 0.6370849609375
10160887500.0 1.12548828125 -0.062255859375
10192109375.0 0.9154052734375 -0.6724853515625
10223331250.0 0.35321044921875 -1.16180419921875
10254553125.0 -0.49700927734375 -1.11505126953125
10285775000.0 -0.993804931640625 -0.530059814453125
10316996875.0 -1.07196044921875 0.084228515625
10348218750.0 -0.90045166015625 0.6787109375
10379440625.0 -0.3157958984375 1.18377685546875
10410662500.0 0.53729248046875 1.088134765625
10441884375.0 1.0006103515625 0.517822265625
10473106250.0 1.11639404296875 -0.09271240234375
10504328125.0 0.949981689453125 -0.769134521484375
10535550000.0 0.2288818359375 -1.3060302734375
10566771875.0 -0.67041015625 -1.077880859375
10597993750.0 -1.09130859375 -0.45269775390625
10629215625.0 -1.1820068359375 0.21832275390625
10660437500.0 -0.885589599609375 0.96563720703125
10691659375.0 0.00177001953125 1.342041015625
10722881250.0 0.795135498046875 0.94989013671875
10754103125.0 1.12738037109375 0.31829833984375
10785325000.0 1.14288330078125 -0.37774658203125
10816546875.0 0.6971435546875 -1.06005859375
10847768750.0 -0.15606689453125 -1.23431396484375
10878990625.0 -0.81268310546875 -0.8416748046875
10910212500.0 -1.13116455078125 -0.23779296875
10941434375.0 -1.10040283203125 0.485107421875
10972656250.0 -0.56402587890625 1.095458984375
11003878125.0 0.22784423828125 1.18011474609375
11035100000.0 0.86029052734375 0.82257080078125
11066321875.0 1.22894287109375 0.165283203125
11097543750.0 1.10003662109375 -0.68902587890625
11128765625.0 0.37774658203125 -1.20880126953125
11159987500.0 -0.40704345703125 -1.14166259765625
11191209375.0 -1.01202392578125 -0.6986083984375
11222431250.0 -1.27972412109375 0.10479736328125
11253653125.0 -0.855316162109375 0.9066162109375
11284875000.0 -0.10650634765625 1.13226318359375
11316096875.0 0.520294189453125 0.957733154296875
11347318750.0 1.01348876953125 0.49713134765625
11378540625.0 1.12188720703125 -0.28125
11409762500.0 0.631011962890625 -0.8677978515625
11440984375.0 0.030059814453125 -0.9825439453125
11472206250.0 -0.490020751953125 -0.85235595703125
11503428125.0 -0.962646484375 -0.452239990234375
11534650000.0 -1.07269287109375 0.29998779296875
11565871875.0 -0.597900390625 0.8643798828125
11597093750.0 -0.011810302734375 0.997100830078125
11628315625.0 0.555419921875 0.87799072265625
11659537500.0 1.07183837890625 0.385498046875
11690759375.0 1.06707763671875 -0.44586181640625
11721981250.0 0.511260986328125 -0.950347900390625
11753203125.0 -0.113525390625 -1.041015625
11784425000.0 -0.735809326171875 -0.808380126953125
11815646875.0 -1.10894775390625 -0.14105224609375
11846868750.0 -0.89068603515625 0.562103271484375
11878090625.0 -0.38531494140625 0.917572021484375
11909312500.0 0.195587158203125 0.98974609375
11940534375.0 0.79071044921875 0.692413330078125
11971756250.0 1.03057861328125 0.03045654296875
12002978125.0 0.8062744140625 -0.54766845703125
12034200000.0 0.37689208984375 -0.897705078125
12065421875.0 -0.2252197265625 -1.014892578125
12096643750.0 -0.859619140625 -0.660919189453125
12127865625.0 -1.03887939453125 0.02587890625
12159087500.0 -0.814971923828125 0.5858154296875
12190309375.0 -0.37237548828125 0.983062744140625
12221531250.0 0.3507080078125 1.09173583984375
12252753125.0 0.99041748046875 0.57574462890625
12283975000.0 1.056884765625 -0.1363525390625
12315196875.0 0.799774169921875 -0.686431884765625
12346418750.0 0.2728271484375 -1.101318359375
12377640625.0 -0.55120849609375 -1.06085205078125
12408862500.0 -1.043701171875 -0.41143798828125
12440084375.0 -1.0111083984375 0.23431396484375
12471306250.0 -0.741241455078125 0.747406005859375
12502528125.0 -0.17205810546875 1.12750244140625
12533750000.0 0.63336181640625 0.994384765625
12564971875.0 1.05010986328125 0.35693359375
12596193750.0 1.033447265625 -0.27362060546875
12627415625.0 0.74615478515625 -0.83978271484375
12658637500.0 0.07012939453125 -1.21539306640625
12689859375.0 -0.74853515625 -0.964752197265625
12721081250.0 -1.126708984375 -0.2982177734375
12752303125.0 -1.1011962890625 0.395263671875
12783525000.0 -0.6820068359375 1.0440673828125
12814746875.0 0.18035888671875 1.25653076171875
12845968750.0 0.8741455078125 0.806549072265625
12877190625.0 1.12506103515625 0.1634521484375
12908412500.0 1.05712890625 -0.51300048828125
12939634375.0 0.5350341796875 -1.12957763671875
12970856250.0 -0.3333740234375 -1.17742919921875
13002078125.0 -0.90509033203125 -0.689239501953125
13033300000.0 -1.11334228515625 -0.0780029296875
13064521875.0 -1.01080322265625 0.60699462890625
13095743750.0 -0.41259765625 1.164794921875
13126965625.0 0.42138671875 1.12359619140625
13158187500.0 0.95806884765625 0.628265380859375
13189409375.0 1.15625 -0.0313720703125
13220631250.0 0.935394287109375 -0.76214599609375
13251853125.0 0.2239990234375 -1.18060302734375
13283075000.0 -0.520751953125 -1.02044677734375
13314296875.0 -0.99853515625 -0.52264404296875
13345518750.0 -1.14141845703125 0.1888427734375
13376740625.0 -0.747955322265625 0.871002197265625
13407962500.0 -0.04803466796875 1.073974609375
