!Created with skrf (http://scikit-rf.org).
# Hz S RI R 50.0 
!freq ReS11 ImS11
300000.0 -0.9846574218 -0.0895037358
50299700.0 -1.000045712 0.0165806978
100299400.0 -0.9980157728 0.0293966908
150299100.0 -1.00281296 0.0462763207
200298800.0 -0.9995743667 0.0595142126
250298500.0 -0.9975106618 0.0729593999
300298200.0 -0.9859036507 0.0887681157
350297900.0 -0.9938663952 0.0996781985
400297600.0 -0.9930395506 0.1163552951
450297300.0 -0.9907866776 0.1300281343
500297000.0 -0.9890066492 0.1448589438
550296700.0 -0.9841825573 0.1574340481
600296400.0 -1.016874531 0.1909878596
650296100.0 -0.9818326719 0.187246196
700295800.0 -0.9789207851 0.2016009872
750295500.0 -0.9760030199 0.215674247
800295200.0 -0.9724724593 0.2297909902
850294900.0 -0.969043703 0.2435974684
900294600.0 -0.9653826309 0.2571813911
950294300.0 -0.9616484731 0.2708584341
1000294000.0 -0.9576385457 0.2849578647
1050293700.0 -0.9530978616 0.2987725898
1100293400.0 -0.9487348671 0.3130964696
1150293100.0 -0.9450151724 0.3248944556
1200292800.0 -0.939440891 0.339350773
1250292500.0 -0.9340921695 0.3526644286
1300292200.0 -0.9283085739 0.3658271632
1350291900.0 -0.922908271 0.3798266899
1400291600.0 -0.9174795604 0.3928803907
1450291300.0 -0.9120474079 0.4053306954
1500291000.0 -0.9059130751 0.4185998347
1550290700.0 -0.8991804237 0.4319683753
1600290400.0 -0.8931047006 0.4449815059
1650290100.0 -0.8863650805 0.4570265067
1700289800.0 -0.8794383294 0.4702214338
1750289500.0 -0.8723383773 0.4826531772
1800289200.0 -0.8651868714 0.495449455
1850288900.0 -0.8584657208 0.5068554557
1900288600.0 -0.8504836082 0.5197066688
1950288300.0 -0.8424124216 0.5324190989
2000288000.0 -0.8350855758 0.5438696715
2050287700.0 -0.826739779 0.5561097156
2100287400.0 -0.8187588477 0.5677485838
2150287100.0 -0.8098573747 0.5800299376
2200286800.0 -0.8023171926 0.5902171309
2250286500.0 -0.7934900497 0.6022116685
2300286200.0 -0.7843405217 0.6138976126
2350285900.0 -0.7756710565 0.6249959369
2400285600.0 -0.766534417 0.6359527851
2450285300.0 -0.7580367758 0.6465381653
2500285000.0 -0.7481068427 0.6575753601
2550284700.0 -0.7390970261 0.6681681465
2600284400.0 -0.7297176496 0.678084474
2650284100.0 -0.7209000478 0.6886867267
2700283800.0 -0.709938255 0.6991160519
2750283500.0 -0.6998005062 0.7096292665
2800283200.0 -0.6898508054 0.7195824978
2850282900.0 -0.6798754402 0.7294033817
2900282600.0 -0.6692927472 0.7387351564
2950282300.0 -0.6593598895 0.7480781792
3000282000.0 -0.6485881906 0.757599579
3050281700.0 -0.637510397 0.7664728982
3100281400.0 -0.6258571884 0.7759348427
3150281100.0 -0.6138886131 0.78532926
3200280800.0 -0.6024293011 0.7937129058
3250280500.0 -0.5915910271 0.8014981918
3300280200.0 -0.5805286727 0.8094718071
3350279900.0 -0.5689807876 0.8168522741
3400279600.0 -0.5569617048 0.8245501224
3450279300.0 -0.5459986686 0.8316532273
3500279000.0 -0.533854959 0.838957352
3550278700.0 -0.521549823 0.8463550934
3600278400.0 -0.5091918125 0.8532393385
3650278100.0 -0.495848578 0.8610434585
3700277800.0 -0.4839606507 0.8673526813
3750277500.0 -0.4717642639 0.873988314
3800277200.0 -0.4589982977 0.8804488272
3850276900.0 -0.4468061983 0.8866334537
3900276600.0 -0.4359419659 0.8920083267
3950276300.0 -0.4232811607 0.8982022361
4000276000.0 -0.4110512206 0.9043073105
4050275700.0 -0.3980361179 0.9100904964
4100275400.0 -0.3867289486 0.9156614295
4150275100.0 -0.3738761217 0.9213667391
4200274800.0 -0.3609909104 0.9269131657
4250274500.0 -0.3486443062 0.9319947446
4300274200.0 -0.3355550441 0.9367640883
4350273900.0 -0.3219184079 0.9420819831
4400273600.0 -0.3069564389 0.94775358
4450273300.0 -0.2917340119 0.9526424174
4500273000.0 -0.2782809558 0.9570165947
4550272700.0 -0.2640385929 0.9609469612
4600272400.0 -0.2485312983 0.9653074083
4650272100.0 -0.236686738 0.9683423856
4700271800.0 -0.2235387121 0.9716035856
4750271500.0 -0.2117095064 0.9747240935
4800271200.0 -0.1990970349 0.977288079
4850270900.0 -0.1852217897 0.9802842749
4900270600.0 -0.1714827436 0.9825923749
4950270300.0 -0.1572959516 0.985087738
5000270000.0 -0.1433202293 0.9872943788
5050269700.0 -0.1300061542 0.9884156858
5100269400.0 -0.1160404957 0.9904586217
5150269100.0 -0.1030301226 0.9918838695
5200268800.0 -0.089749174 0.9928037756
5250268500.0 -0.0767285132 0.9943318393
5300268200.0 -0.0634628201 0.9949319811
5350267900.0 -0.0513913215 0.9959171728
5400267600.0 -0.0352952852 0.9965827537
5450267300.0 -0.0223342928 0.9969200945
5500267000.0 -0.0072629606 0.9969185406
5550266700.0 0.0073455264 0.9973266848
5600266400.0 0.0228515946 0.997096149
5650266100.0 0.0394200899 0.996957592
5700265800.0 0.0539923929 0.9959439105
5750265500.0 0.0688255953 0.9954915694
5800265200.0 0.0830228131 0.9940332002
5850264900.0 0.0961230023 0.9931994557
5900264600.0 0.1126424892 0.9910798755
5950264300.0 0.1252431719 0.990123905
6000264000.0 0.1390292195 0.987881558
6050263700.0 0.1518404556 0.9863746926
6100263400.0 0.1642479452 0.9841560465
6150263100.0 0.17931946 0.9821448961
6200262800.0 0.1899959246 0.9801351073
6250262500.0 0.2025858131 0.9776303127
6300262200.0 0.2155735722 0.9748066762
6350261900.0 0.2286473095 0.9719681779
6400261600.0 0.2423822475 0.9684096239
6450261300.0 0.2538358921 0.9656575697
6500261000.0 0.2665386736 0.9621666537
6550260700.0 0.279645064 0.9583391654
6600260400.0 0.292594478 0.954031515
6650260100.0 0.3065747844 0.9498494543
6700259800.0 0.3185051998 0.9455100903
6750259500.0 0.3324767764 0.940838739
6800259200.0 0.3454616519 0.9357882078
6850258900.0 0.3573156932 0.9307728058
6900258600.0 0.3693558318 0.9258983908
6950258300.0 0.3822390817 0.9206181363
7000258000.0 0.3942054766 0.9152784325
7050257700.0 0.406485631 0.9093970155
7100257400.0 0.4192906319 0.9031703657
7150257100.0 0.429596607 0.897918049
7200256800.0 0.4423875399 0.8913790723
7250256500.0 0.4538192369 0.8855155968
7300256200.0 0.4668187006 0.8783691426
7350255900.0 0.4790208586 0.8716706696
7400255600.0 0.4922141023 0.864878308
7450255300.0 0.5068900331 0.855589658
7500255000.0 0.5184956779 0.8484585582
7550254700.0 0.5323935105 0.8401749435
7600254400.0 0.5450044636 0.8320224806
7650254100.0 0.5568356434 0.8241008029
7700253800.0 0.5686327287 0.816091993
7750253500.0 0.5797702839 0.8081126591
7800253200.0 0.5905581142 0.8003033184
7850252900.0 0.6002572931 0.7931255613
7900252600.0 0.6122236042 0.7842226219
7950252300.0 0.6210709355 0.77746931
8000252000.0 0.6313599438 0.7697146922
8050251700.0 0.6418904029 0.761379409
8100251400.0 0.6520162904 0.7530633021
8150251100.0 0.6621433638 0.7444000375
8200250800.0 0.6716784232 0.736157585
8250250500.0 0.6808569505 0.7280424117
8300250200.0 0.6901128442 0.7193372399
8350249900.0 0.6991671865 0.710749367
8400249600.0 0.7074946042 0.7024854973
8450249300.0 0.71667941 0.6932763847
8500249000.0 0.7254956273 0.6843659535
8550248700.0 0.7337873933 0.6752867361
8600248400.0 0.7421867991 0.6658765437
8650248100.0 0.7498961032 0.6564135011
8700247800.0 0.7592674608 0.6454797304
8750247500.0 0.767689093 0.6354528478
8800247200.0 0.7757547459 0.6253172234
8850246900.0 0.7842494058 0.6139822524
8900246600.0 0.7929289223 0.6025678614
8950246300.0 0.8022244312 0.5899762628
9000246000.0 0.8113008708 0.5775219129
9050245700.0 0.8204330483 0.564377085
9100245400.0 0.8288099927 0.5519044529
9150245100.0 0.8378797135 0.5386170963
9200244800.0 0.8476356607 0.5238927793
9250244500.0 0.8567479977 0.5087599097
9300244200.0 0.8651214791 0.4941834408
9350243900.0 0.8728405368 0.4802472794
9400243600.0 0.8796841857 0.4675026557
9450243300.0 0.8857503778 0.4554049349
9500243000.0 0.8922851824 0.4426171472
9550242700.0 0.896177518 0.4344622218
9600242400.0 0.9004432211 0.4264718651
9650242100.0 0.9037947844 0.4198740036
9700241800.0 0.9087973223 0.4109336467
9750241500.0 0.9128649162 0.4030972386
9800241200.0 0.9174927713 0.3937532311
9850240900.0 0.922945548 0.3821183904
9900240600.0 0.9281131555 0.3708367186
9950240300.0 0.9346003083 0.3547675537
10000240000.0 0.9392929607 0.3434960635
10050239700.0 0.9445622031 0.3282812256
10100239400.0 0.9496738696 0.3127407751
10150239100.0 0.9539998862 0.2982081438
10200238800.0 0.9582274543 0.2833994479
10250238500.0 0.9617415393 0.270124546
10300238200.0 0.964964778 0.2561596554
10350237900.0 0.9674814378 0.2430788849
10400237600.0 0.9700157097 0.2302108655
10450237300.0 0.9729917003 0.2163862046
10500237000.0 0.9751857628 0.2046434523
10550236700.0 0.9772757485 0.1908305333
10600236400.0 0.979638997 0.1771446897
10650236100.0 0.9814650367 0.1630005481
10700235800.0 0.9835642419 0.1508121321
10750235500.0 0.9858395256 0.1373322688
10800235200.0 0.9878795029 0.123488978
10850234900.0 0.9897878764 0.1093866375
10900234600.0 0.9916708896 0.094805673
10950234300.0 0.9933720441 0.0814232944
11000234000.0 0.9951370687 0.0667061651
11050233700.0 0.9967421152 0.0506806316
11100233400.0 0.9981935069 0.033159589
11150233100.0 0.9992775999 0.0171902578
11200232800.0 0.9996619233 0.002491307
11250232500.0 1.000208443 -0.0133427912
11300232200.0 1.000861002 -0.0315358736
11350231900.0 1.001263017 -0.0480990144
11400231600.0 1.000408076 -0.0634264668
11450231300.0 0.9998846074 -0.0784856911
11500231000.0 0.998833348 -0.0957306448
11550230700.0 0.9972664443 -0.1088518862
11600230400.0 0.9958683391 -0.122256993
11650230100.0 0.9939776464 -0.1337521159
11700229800.0 0.9921256054 -0.148658404
11750229500.0 0.9895443567 -0.1631818332
11800229200.0 0.9871818802 -0.1776912487
11850228900.0 0.9832857309 -0.1903179185
11900228600.0 0.9798795903 -0.2003345649
11950228300.0 0.976687257 -0.2111421236
12000228000.0 0.9738901575 -0.2203740979
12050227700.0 0.9706430993 -0.2332350724
12100227400.0 0.9669232592 -0.2434780151
12150227100.0 0.9622463132 -0.2605656496
12200226800.0 0.9589300675 -0.2708315926
12250226500.0 0.955173616 -0.2837404997
12300226200.0 0.9509449343 -0.2957096554
12350225900.0 0.9460990349 -0.3102077358
12400225600.0 0.9414031692 -0.3228909362
12450225300.0 0.9374380861 -0.3351189849
12500225000.0 0.9321513852 -0.3493850424
12550224700.0 0.9270232857 -0.3631980199
12600224400.0 0.9221219979 -0.3756321011
12650224100.0 0.9162367984 -0.3897260873
12700223800.0 0.9110783714 -0.4023041005
12750223500.0 0.9057637173 -0.4150569593
12800223200.0 0.9004428853 -0.4274039231
12850222900.0 0.8951259988 -0.4395852365
12900222600.0 0.8891768247 -0.4517500046
12950222300.0 0.8825354296 -0.4647477257
13000222000.0 0.876554461 -0.4764244208
13050221700.0 0.869801581 -0.489733184
13100221400.0 0.8631630314 -0.5008029844
13150221100.0 0.8558960238 -0.513794724
13200220800.0 0.848965173 -0.5251576987
13250220500.0 0.8415559833 -0.5375325131
13300220200.0 0.8339334418 -0.5486360977
13350219900.0 0.8257225094 -0.5609367566
13400219600.0 0.8172216918 -0.5732086567
13450219300.0 0.8076612237 -0.5867049144
13500219000.0 0.7977145219 -0.6005292271
13550218700.0 0.7870267934 -0.6132383109
13600218400.0 0.7770330203 -0.6254729032
13650218100.0 0.7676600519 -0.6364817294
13700217800.0 0.7565788625 -0.6496141794
13750217500.0 0.7459151895 -0.6608005563
13800217200.0 0.7352395485 -0.6724145128
13850216900.0 0.7245610383 -0.6843783765
13900216600.0 0.7142776463 -0.6924698738
13950216300.0 0.703607308 -0.7028350001
14000216000.0 0.6937419618 -0.7123227177
14050215700.0 0.6840438408 -0.7206860824
14100215400.0 0.6742592174 -0.7294691042
14150215100.0 0.6651936372 -0.7384329727
14200214800.0 0.6559902403 -0.7464833413
14250214500.0 0.6458168308 -0.7558212266
14300214200.0 0.6358033514 -0.7649864382
14350213900.0 0.6245772157 -0.7742020639
14400213600.0 0.6129792612 -0.7839094778
14450213300.0 0.6001411041 -0.7936562893
14500213000.0 0.5871498277 -0.8030163442
14550212700.0 0.5746626525 -0.8123776971
14600212400.0 0.5620522349 -0.8214082518
14650212100.0 0.5496053117 -0.8306367302
14700211800.0 0.5354241133 -0.8392986006
14750211500.0 0.5236159121 -0.8474406926
14800211200.0 0.5110506448 -0.8552886339
14850210900.0 0.4989688338 -0.8632401226
14900210600.0 0.4857221697 -0.8712825022
14950210300.0 0.471890791 -0.8788002509
15000210000.0 0.4589427998 -0.8856768222
15050209700.0 0.446310221 -0.8920911104
15100209400.0 0.4335126612 -0.8980987726
15150209100.0 0.4212148243 -0.9035652051
15200208800.0 0.4077419596 -0.9095158719
15250208500.0 0.3958307415 -0.9135599033
15300208200.0 0.3835936776 -0.9186143562
15350207900.0 0.3702766206 -0.9235781487
15400207600.0 0.35531703 -0.9292274582
15450207300.0 0.341218661 -0.9343507599
15500207000.0 0.3262195662 -0.9386184314
15550206700.0 0.3112384426 -0.9434180578
15600206400.0 0.2961508657 -0.948224692
15650206100.0 0.280620314 -0.9528096557
15700205800.0 0.2660696792 -0.9558863558
15750205500.0 0.2515165201 -0.959545671
15800205200.0 0.2372859193 -0.9630964266
15850204900.0 0.223059419 -0.9664753545
15900204600.0 0.2081979131 -0.9699198197
15950204300.0 0.1944269574 -0.9729153816
16000204000.0 0.1804695476 -0.9753438399
16050203700.0 0.1658451585 -0.9785022723
16100203400.0 0.151599715 -0.9805247037
16150203100.0 0.1377778703 -0.9831365113
16200202800.0 0.1230322614 -0.9851685915
16250202500.0 0.1092888692 -0.986546537
16300202200.0 0.0939685239 -0.9876804996
16350201900.0 0.0792478653 -0.9894881535
16400201600.0 0.0644861148 -0.9904649308
16450201300.0 0.0495439948 -0.9912661589
16500201000.0 0.0332646225 -0.992070854
16550200700.0 0.0174505252 -0.9926342872
16600200400.0 0.0017239804 -0.9929086929
16650200100.0 -0.0146146916 -0.9925625265
16700199800.0 -0.0310419291 -0.992563613
16750199500.0 -0.0497708985 -0.9919460028
16800199200.0 -0.0657996304 -0.9904776608
16850198900.0 -0.0815992187 -0.9893739801
16900198600.0 -0.0951841873 -0.9890672503
16950198300.0 -0.1092122539 -0.9872330783
17000198000.0 -0.1221680563 -0.9853619569
17050197700.0 -0.1348845727 -0.9840349457
17100197400.0 -0.1481796098 -0.9816370004
17150197100.0 -0.1607879105 -0.979727181
17200196800.0 -0.1738701381 -0.9776374391
17250196500.0 -0.1869489034 -0.9752997296
17300196200.0 -0.199478729 -0.9728138446
17350195900.0 -0.2113473052 -0.9703635714
17400195600.0 -0.2237149866 -0.9678852703
17450195300.0 -0.2369997595 -0.9649571666
17500195000.0 -0.2504587108 -0.9616324296
17550194700.0 -0.264275837 -0.9581513502
17600194400.0 -0.2783236536 -0.9540860171
17650194100.0 -0.2920284429 -0.949988406
17700193800.0 -0.3040925435 -0.9458310416
17750193500.0 -0.3187705213 -0.9413770366
17800193200.0 -0.3329452978 -0.9357668819
17850192900.0 -0.3477998565 -0.9311968086
17900192600.0 -0.3626827852 -0.9247931164
17950192300.0 -0.3782079046 -0.9180743817
18000192000.0 -0.3925751368 -0.9109764312
18050191700.0 -0.40635686 -0.9031093613
18100191400.0 -0.420471832 -0.8955476834
18150191100.0 -0.4350959691 -0.8877021952
18200190800.0 -0.4515959673 -0.8785824816
18250190500.0 -0.4684635933 -0.8692587934
18300190200.0 -0.4836602338 -0.8605368137
18350189900.0 -0.4991018307 -0.8524463813
18400189600.0 -0.5133890565 -0.8439185301
18450189300.0 -0.5265657352 -0.835990371
18500189000.0 -0.5399831586 -0.8276037967
18550188700.0 -0.5526197772 -0.8199567428
18600188400.0 -0.5646534025 -0.8129103056
18650188100.0 -0.5759482205 -0.806245872
18700187800.0 -0.5871455191 -0.7992749545
18750187500.0 -0.5980624708 -0.792360582
18800187200.0 -0.6088305337 -0.7849430133
18850186900.0 -0.6193064831 -0.7776999716
18900186600.0 -0.6298895206 -0.7700361074
18950186300.0 -0.6402466307 -0.7619311891
19000186000.0 -0.6479131799 -0.7553429801
19050185700.0 -0.6575772724 -0.7475672468
19100185400.0 -0.6678704736 -0.739417192
19150185100.0 -0.6783660531 -0.730537978
19200184800.0 -0.6878677339 -0.7220549691
19250184500.0 -0.6978408209 -0.7123977945
19300184200.0 -0.7091326666 -0.7026126417
19350183900.0 -0.7202081608 -0.693416872
19400183600.0 -0.730029096 -0.6833466991
19450183300.0 -0.7384112171 -0.6735752838
19500183000.0 -0.7469906156 -0.663281171
19550182700.0 -0.7555798563 -0.6527936469
19600182400.0 -0.7662064307 -0.6411100174
19650182100.0 -0.7768081117 -0.6293780103
19700181800.0 -0.7869685148 -0.6164741896
19750181500.0 -0.7971020343 -0.6025568472
19800181200.0 -0.8071258844 -0.5881700973
19850180900.0 -0.8166375068 -0.5733164043
19900180600.0 -0.8243363188 -0.5592374289
19950180300.0 -0.8333267688 -0.5433455637
20000180000.0 -0.8271885845 -0.5442850602
20050179700.0 -0.8365765129 -0.5310378592
20100179400.0 -0.8448625465 -0.5177687599
20150179100.0 -0.8521547582 -0.5047985919
20200178800.0 -0.8605291074 -0.4922206797
20250178500.0 -0.8705564194 -0.4793076904
20300178200.0 -0.879658714 -0.4642362232
20350177900.0 -0.8880626042 -0.4503931361
20400177600.0 -0.8967444548 -0.4359025233
20450177300.0 -0.9044585442 -0.4215533091
20500177000.0 -0.9124404001 -0.4077439933
20550176700.0 -0.9201837641 -0.3940125592
20600176400.0 -0.9271488884 -0.3807731707
20650176100.0 -0.9331619412 -0.3680235017
20700175800.0 -0.9401738583 -0.3561557703
20750175500.0 -0.9468388787 -0.3440802437
20800175200.0 -0.9515470671 -0.3321205884
20850174900.0 -0.9564325559 -0.321856719
20900174600.0 -0.9615124645 -0.3093525848
20950174300.0 -0.965851824 -0.2975019395
21000174000.0 -0.9697741825 -0.2856384367
21050173700.0 -0.9721895595 -0.2747046912
21100173400.0 -0.9767102254 -0.2611835767
21150173100.0 -0.9805566089 -0.248952899
21200172800.0 -0.9836025148 -0.2354398601
21250172500.0 -0.9872053089 -0.2210831499
21300172200.0 -0.9901712067 -0.2071272792
21350171900.0 -0.9911746233 -0.1925322753
21400171600.0 -0.9937007297 -0.1787036543
21450171300.0 -0.9934601776 -0.1642440226
21500171000.0 -0.9933594871 -0.1487087932
21550170700.0 -0.9922841711 -0.1348127495
21600170400.0 -0.9935458338 -0.117690206
21650170100.0 -0.992348837 -0.102965613
21700169800.0 -0.990478765 -0.0878664958
21750169500.0 -0.9889966189 -0.0715669562
21800169200.0 -0.9890128706 -0.0566350571
21850168900.0 -0.9871842691 -0.0399187252
21900168600.0 -0.9858101855 -0.0243647488
21950168300.0 -0.9845294107 -0.0079948457
22000168000.0 -0.9831571953 0.0065519752
22050167700.0 -0.9830293744 0.0209257791
22100167400.0 -0.9828143478 0.0358425881
22150167100.0 -0.9830732331 0.0510539068
22200166800.0 -0.9832809998 0.0667551007
22250166500.0 -0.9828617157 0.0839937178
22300166200.0 -0.9829282601 0.0998132494
22350165900.0 -0.9809232656 0.1168290113
22400165600.0 -0.9789300001 0.1319886622
22450165300.0 -0.9770425586 0.1473504069
22500165000.0 -0.9737676548 0.1605053526
22550164700.0 -0.9737712534 0.176197906
22600164400.0 -0.9716297826 0.1912823396
22650164100.0 -0.9695370691 0.2061077292
22700163800.0 -0.9671075366 0.2220017935
22750163500.0 -0.9647855795 0.237360933
22800163200.0 -0.9621227776 0.2500888764
22850162900.0 -0.9594067133 0.2639329353
22900162600.0 -0.9575709156 0.2774765766
22950162300.0 -0.9568803824 0.2901676349
23000162000.0 -0.955303942 0.3020715309
23050161700.0 -0.9534177004 0.3149396433
23100161400.0 -0.950986758 0.3268928361
23150161100.0 -0.9481441038 0.3402234211
23200160800.0 -0.9450735537 0.3519446531
23250160500.0 -0.9429957286 0.3637395519
23300160200.0 -0.9400500097 0.3755545298
23350159900.0 -0.935776192 0.3886639895
23400159600.0 -0.9310610552 0.4015964592
23450159300.0 -0.9264673014 0.4141608375
23500159000.0 -0.9222062018 0.4272774674
23550158700.0 -0.9177750204 0.4400429285
23600158400.0 -0.912380261 0.4528006998
23650158100.0 -0.9061015222 0.4666274378
23700157800.0 -0.8985122187 0.4804243801
23750157500.0 -0.8901113398 0.4939507488
23800157200.0 -0.8815519376 0.5069584187
23850156900.0 -0.8731594826 0.5199190104
23900156600.0 -0.8638152591 0.5318305339
23950156300.0 -0.854724351 0.5450173761
24000156000.0 -0.8456970432 0.5569662198
24050155700.0 -0.8357999908 0.5681688807
24100155400.0 -0.8254235151 0.5804397813
24150155100.0 -0.8153441486 0.5912977637
24200154800.0 -0.8042405865 0.603594197
24250154500.0 -0.7932009599 0.6154408846
24300154200.0 -0.7818907546 0.6268160782
24350153900.0 -0.7703854609 0.6373493883
24400153600.0 -0.7580301609 0.647991442
24450153300.0 -0.7464472129 0.6580543029
24500153000.0 -0.7351539836 0.6675896847
24550152700.0 -0.7238690219 0.6777371825
24600152400.0 -0.712569821 0.686926594
24650152100.0 -0.7015072568 0.695616677
