!Created with skrf (http://scikit-rf.org).
# Hz S RI R 50.0 
!freq ReS11 ImS11
45000000.0 -0.0038934946060180664 -0.0009517669677734375
49995500.0 -0.004229068756103516 -0.0004086494445800781
54991000.0 -0.0044934749603271484 0.00013375282287597656
59986500.0 -0.004763126373291016 0.00042557716369628906
64982000.0 -0.00485539436340332 0.001001596450805664
69977500.0 -0.004953861236572266 0.0015816688537597656
74973000.0 -0.005019426345825195 0.002219676971435547
79968500.0 -0.004918813705444336 0.0029435157775878906
84964000.0 -0.004705667495727539 0.0035827159881591797
89959500.0 -0.004389762878417969 0.004271030426025391
94955000.0 -0.003976583480834961 0.004666328430175781
99950500.0 -0.0034439563751220703 0.00536656379699707
104946000.0 -0.002908945083618164 0.0059757232666015625
109941500.0 -0.002121448516845703 0.006363868713378906
114937000.0 -0.001341104507446289 0.0066950321197509766
119932500.0 -0.000621795654296875 0.0069429874420166016
124928000.0 0.00024008750915527344 0.007080554962158203
129923500.0 0.0010650157928466797 0.007065773010253906
134919000.0 0.0019826889038085938 0.00700688362121582
139914500.0 0.0027778148651123047 0.006870746612548828
144910000.0 0.003648996353149414 0.006497859954833984
149905500.0 0.0044939517974853516 0.0060443878173828125
154901000.0 0.005123615264892578 0.0056154727935791016
159896500.0 0.00571894645690918 0.004955768585205078
164892000.0 0.006243228912353516 0.004227399826049805
169887500.0 0.0068509578704833984 0.0035517215728759766
174883000.0 0.007220745086669922 0.0027163028717041016
179878500.0 0.007601499557495117 0.0018715858459472656
184874000.0 0.007729053497314453 0.0010251998901367188
189869500.0 0.007930278778076172 0.00017261505126953125
194865000.0 0.007834911346435547 -0.0007195472717285156
199860500.0 0.00784158706665039 -0.0015926361083984375
204856000.0 0.007679939270019531 -0.0024194717407226562
209851500.0 0.007231235504150391 -0.003244161605834961
214847000.0 0.006966590881347656 -0.00407099723815918
219842500.0 0.00643467903137207 -0.0047376155853271484
224838000.0 0.005898237228393555 -0.005373239517211914
229833500.0 0.005312681198120117 -0.005960941314697266
234829000.0 0.0046520233154296875 -0.0064983367919921875
239824500.0 0.003999233245849609 -0.00699162483215332
244820000.0 0.0032355785369873047 -0.0073089599609375
249815500.0 0.0025060176849365234 -0.007528781890869141
254811000.0 0.0019884109497070312 -0.007822513580322266
259806500.0 0.0011644363403320312 -0.008078575134277344
264802000.0 0.0004954338073730469 -0.00800180435180664
269797500.0 -0.00034236907958984375 -0.008037567138671875
274793000.0 -0.0010628700256347656 -0.008137702941894531
279788500.0 -0.001983642578125 -0.00796651840209961
284784000.0 -0.002759695053100586 -0.0077037811279296875
289779500.0 -0.003481149673461914 -0.0073964595794677734
294775000.0 -0.0041811466217041016 -0.007051944732666016
299770500.0 -0.004772186279296875 -0.006731748580932617
304766000.0 -0.005408525466918945 -0.0062255859375
309761500.0 -0.006055593490600586 -0.005639076232910156
314757000.0 -0.0066814422607421875 -0.005079507827758789
319752500.0 -0.007027864456176758 -0.004416942596435547
324748000.0 -0.007493734359741211 -0.0037660598754882812
329743500.0 -0.007807731628417969 -0.003084421157836914
334739000.0 -0.008167743682861328 -0.002242565155029297
339734500.0 -0.008355140686035156 -0.0015277862548828125
344730000.0 -0.00856637954711914 -0.0007281303405761719
349725500.0 -0.008599281311035156 9.059906005859375e-05
354721000.0 -0.00867319107055664 0.00090789794921875
359716500.0 -0.008634567260742188 0.0017194747924804688
364712000.0 -0.00841379165649414 0.002666950225830078
369707500.0 -0.00816965103149414 0.0034646987915039062
374703000.0 -0.0077838897705078125 0.0041315555572509766
379698500.0 -0.007477521896362305 0.005009889602661133
384694000.0 -0.006978034973144531 0.00565648078918457
389689500.0 -0.006444454193115234 0.006410121917724609
394685000.0 -0.0058977603912353516 0.0070760250091552734
399680500.0 -0.0052568912506103516 0.00775146484375
404676000.0 -0.004544734954833984 0.008174419403076172
409671500.0 -0.0037322044372558594 0.008685588836669922
414667000.0 -0.0028433799743652344 0.009098052978515625
419662500.0 -0.0019922256469726562 0.009411334991455078
424658000.0 -0.0010714530944824219 0.009672164916992188
429653500.0 -0.00019598007202148438 0.009892463684082031
434649000.0 0.0008726119995117188 0.009799480438232422
439644500.0 0.0018744468688964844 0.010001182556152344
444640000.0 0.002850055694580078 0.009741783142089844
449635500.0 0.0037603378295898438 0.00950479507446289
454631000.0 0.004729747772216797 0.009210586547851562
459626500.0 0.005720615386962891 0.00881052017211914
464622000.0 0.006543159484863281 0.008230209350585938
469617500.0 0.007462978363037109 0.007619619369506836
474613000.0 0.008254528045654297 0.006888866424560547
479608500.0 0.009063720703125 0.006146907806396484
484604000.0 0.009742259979248047 0.005300998687744141
489599500.0 0.01027059555053711 0.00432586669921875
494595000.0 0.01072835922241211 0.0032501220703125
499590500.0 0.011112689971923828 0.002281665802001953
504586000.0 0.011385440826416016 0.0010890960693359375
509581500.0 0.011538505554199219 2.574920654296875e-05
514577000.0 0.011626243591308594 -0.0012402534484863281
519572500.0 0.011563777923583984 -0.002350330352783203
524568000.0 0.011332988739013672 -0.003498077392578125
529563500.0 0.011035919189453125 -0.004672527313232422
534559000.0 0.010556221008300781 -0.005820274353027344
539554500.0 0.010150432586669922 -0.006859302520751953
544550000.0 0.00951528549194336 -0.007969379425048828
549545500.0 0.008845329284667969 -0.008915901184082031
554541000.0 0.007915496826171875 -0.00984048843383789
559536500.0 0.007062435150146484 -0.010695934295654297
564532000.0 0.0060634613037109375 -0.011481761932373047
569527500.0 0.004933357238769531 -0.012137413024902344
574523000.0 0.0037021636962890625 -0.012776851654052734
579518500.0 0.0023813247680664062 -0.013210296630859375
584514000.0 0.0010538101196289062 -0.01359415054321289
589509500.0 -0.0003075599670410156 -0.013797283172607422
594505000.0 -0.0017657279968261719 -0.013739585876464844
599500500.0 -0.0030913352966308594 -0.013785362243652344
604496000.0 -0.004654407501220703 -0.013591766357421875
609491500.0 -0.005970954895019531 -0.013144969940185547
614487000.0 -0.0073299407958984375 -0.012504100799560547
619482500.0 -0.008554458618164062 -0.011870861053466797
624478000.0 -0.0099334716796875 -0.01103830337524414
629473500.0 -0.011214256286621094 -0.009992599487304688
634469000.0 -0.012285232543945312 -0.00887155532836914
639464500.0 -0.013204097747802734 -0.007727622985839844
644460000.0 -0.0140838623046875 -0.006403446197509766
649455500.0 -0.014790534973144531 -0.005031108856201172
654451000.0 -0.01533365249633789 -0.003459453582763672
659446500.0 -0.01582813262939453 -0.001949310302734375
664442000.0 -0.01605224609375 -0.0003223419189453125
669437500.0 -0.016092300415039062 0.0013484954833984375
674433000.0 -0.01611328125 0.0030460357666015625
679428500.0 -0.015865325927734375 0.00476837158203125
684424000.0 -0.01541757583618164 0.006298542022705078
689419500.0 -0.014747142791748047 0.00797271728515625
694415000.0 -0.013973236083984375 0.0095062255859375
699410500.0 -0.013088703155517578 0.01107025146484375
704406000.0 -0.011928558349609375 0.012423038482666016
709401500.0 -0.010748863220214844 0.01370096206665039
714397000.0 -0.009411811828613281 0.0147552490234375
719392500.0 -0.0077190399169921875 0.015810012817382812
724388000.0 -0.006201744079589844 0.016692161560058594
729383500.0 -0.0044879913330078125 0.01739788055419922
734379000.0 -0.0026884078979492188 0.017843246459960938
739374500.0 -0.000904083251953125 0.018238067626953125
744370000.0 0.0010709762573242188 0.018373489379882812
749365500.0 0.0028409957885742188 0.01831340789794922
754361000.0 0.0047397613525390625 0.018036842346191406
759356500.0 0.0066623687744140625 0.017586708068847656
764352000.0 0.008446693420410156 0.016880035400390625
769347500.0 0.010211944580078125 0.016091346740722656
774343000.0 0.011890888214111328 0.015067577362060547
779338500.0 0.01351022720336914 0.013891220092773438
784334000.0 0.014928340911865234 0.012540817260742188
789329500.0 0.01623058319091797 0.010922431945800781
794325000.0 0.017459869384765625 0.009283065795898438
799320500.0 0.01841449737548828 0.0076141357421875
804316000.0 0.01926422119140625 0.005681037902832031
809311500.0 0.019855499267578125 0.003719329833984375
814307000.0 0.02025127410888672 0.00164794921875
819302500.0 0.0204315185546875 -0.0004138946533203125
824298000.0 0.020322799682617188 -0.00249481201171875
829293500.0 0.020171165466308594 -0.004567146301269531
834289000.0 0.01970672607421875 -0.0066375732421875
839284500.0 0.01911163330078125 -0.00862884521484375
844280000.0 0.018842697143554688 -0.009914398193359375
849275500.0 0.017815589904785156 -0.011643409729003906
854271000.0 0.01659870147705078 -0.013651847839355469
859266500.0 0.015236377716064453 -0.015259265899658203
864262000.0 0.013753890991210938 -0.016832351684570312
869257500.0 0.012128829956054688 -0.01819324493408203
874253000.0 0.010287284851074219 -0.019433021545410156
879248500.0 0.008248329162597656 -0.02049732208251953
884244000.0 0.006237983703613281 -0.021482467651367188
889239500.0 0.004200935363769531 -0.02192974090576172
894235000.0 0.0020265579223632812 -0.022470474243164062
899230500.0 -0.000244140625 -0.022846221923828125
904226000.0 -0.002613067626953125 -0.022724151611328125
909221500.0 -0.004863739013671875 -0.022531509399414062
914217000.0 -0.007279396057128906 -0.022200584411621094
919212500.0 -0.009472846984863281 -0.021462440490722656
924208000.0 -0.011676788330078125 -0.020569801330566406
929203500.0 -0.013857841491699219 -0.019323348999023438
934199000.0 -0.015901565551757812 -0.01792430877685547
939194500.0 -0.017726898193359375 -0.016313552856445312
944190000.0 -0.019327163696289062 -0.014668464660644531
949185500.0 -0.020830154418945312 -0.012526512145996094
954181000.0 -0.02219676971435547 -0.010473251342773438
959176500.0 -0.023413658142089844 -0.008264541625976562
964172000.0 -0.02434062957763672 -0.005883216857910156
969167500.0 -0.024857521057128906 -0.003360748291015625
974163000.0 -0.02505016326904297 -0.0009450912475585938
979158500.0 -0.025308609008789062 0.0017719268798828125
984154000.0 -0.025096893310546875 0.004195213317871094
989149500.0 -0.02462005615234375 0.006924629211425781
994145000.0 -0.02386760711669922 0.009417533874511719
999140500.0 -0.02285289764404297 0.011842727661132812
1004136000.0 -0.021684646606445312 0.014088630676269531
1009131500.0 -0.020204544067382812 0.016353607177734375
1014127000.0 -0.0185394287109375 0.018405914306640625
1019122500.0 -0.016735076904296875 0.02027130126953125
1024118000.0 -0.014611244201660156 0.022008895874023438
1029113500.0 -0.012361526489257812 0.023474693298339844
1034109000.0 -0.009789466857910156 0.024686813354492188
1039104500.0 -0.007433891296386719 0.02573680877685547
1044100000.0 -0.0048427581787109375 0.026472091674804688
1049095500.0 -0.0020122528076171875 0.027031898498535156
1054091000.0 0.0006732940673828125 0.02707386016845703
1059086500.0 0.0035533905029296875 0.02708148956298828
1064082000.0 0.006350517272949219 0.026590347290039062
1069077500.0 0.008943557739257812 0.025984764099121094
1074073000.0 0.011704444885253906 0.02497577667236328
1079068500.0 0.0141143798828125 0.023642539978027344
1084064000.0 0.016603469848632812 0.022192001342773438
1089059500.0 0.018833160400390625 0.02060413360595703
1094055000.0 0.02094745635986328 0.01860332489013672
1099050500.0 0.022767066955566406 0.01645183563232422
1104046000.0 0.024438858032226562 0.014169692993164062
1109041500.0 0.02584075927734375 0.011603355407714844
1114037000.0 0.026955604553222656 0.008786201477050781
1119032500.0 0.027805328369140625 0.0060825347900390625
1124028000.0 0.02839183807373047 0.0033254623413085938
1129023500.0 0.028588294982910156 0.00047588348388671875
1134019000.0 0.028415679931640625 -0.0025358200073242188
1139014500.0 0.028285980224609375 -0.005394935607910156
1144010000.0 0.02766132354736328 -0.008329391479492188
1149005500.0 0.026678085327148438 -0.011188507080078125
1154001000.0 0.025564193725585938 -0.0138092041015625
1158996500.0 0.023984909057617188 -0.016340255737304688
1163992000.0 0.02237701416015625 -0.018718719482421875
1168987500.0 0.02021503448486328 -0.020971298217773438
1173983000.0 0.01812458038330078 -0.022963523864746094
1178978500.0 0.01562786102294922 -0.02480316162109375
1183974000.0 0.013173103332519531 -0.026258468627929688
1188969500.0 0.010394096374511719 -0.027533531188964844
1193965000.0 0.0077533721923828125 -0.02856731414794922
1198960500.0 0.0046901702880859375 -0.029186248779296875
1203956000.0 0.0018224716186523438 -0.02940654754638672
1208951500.0 -0.0012788772583007812 -0.0295867919921875
1213947000.0 -0.004252433776855469 -0.02936267852783203
1218942500.0 -0.007176399230957031 -0.028951644897460938
1223938000.0 -0.009988784790039062 -0.027984619140625
1228933500.0 -0.012821197509765625 -0.026917457580566406
1233929000.0 -0.015524864196777344 -0.025519371032714844
1238924500.0 -0.017902374267578125 -0.02396869659423828
1243920000.0 -0.020333290100097656 -0.021966934204101562
1248915500.0 -0.022491455078125 -0.019895553588867188
1253911000.0 -0.02431488037109375 -0.017528533935546875
1258906500.0 -0.02599620819091797 -0.015145301818847656
1263902000.0 -0.02749919891357422 -0.012465476989746094
1268897500.0 -0.02861785888671875 -0.009654045104980469
1273893000.0 -0.029580116271972656 -0.0068607330322265625
1278888500.0 -0.030170440673828125 -0.0037860870361328125
1283884000.0 -0.030435562133789062 -0.0008535385131835938
1288879500.0 -0.0304412841796875 0.0021677017211914062
1293875000.0 -0.030286788940429688 0.0052928924560546875
1298870500.0 -0.02960681915283203 0.008343696594238281
1303866000.0 -0.02864551544189453 0.011209487915039062
1308861500.0 -0.027428627014160156 0.014031410217285156
1313857000.0 -0.025926589965820312 0.016808509826660156
1318852500.0 -0.024133682250976562 0.019433021545410156
1323848000.0 -0.022142410278320312 0.021791458129882812
1328843500.0 -0.019843101501464844 0.023965835571289062
1333839000.0 -0.01729869842529297 0.025899887084960938
1338834500.0 -0.014646530151367188 0.02765369415283203
1343830000.0 -0.011958122253417969 0.02885150909423828
1348825500.0 -0.008980751037597656 0.030022621154785156
1353821000.0 -0.005896568298339844 0.030831336975097656
1358816500.0 -0.00266265869140625 0.03130149841308594
1363812000.0 0.000446319580078125 0.031444549560546875
1368807500.0 0.00360870361328125 0.0313720703125
1373803000.0 0.006758689880371094 0.03081512451171875
1378798500.0 0.0099029541015625 0.0301361083984375
1383794000.0 0.012763023376464844 0.029012680053710938
1388789500.0 0.01579761505126953 0.02748584747314453
1393785000.0 0.018484115600585938 0.025821685791015625
1398780500.0 0.021035194396972656 0.02379608154296875
1403776000.0 0.023370742797851562 0.021552085876464844
1408771500.0 0.025298118591308594 0.019174575805664062
1413767000.0 0.02722454071044922 0.01656341552734375
1418762500.0 0.02877044677734375 0.013769149780273438
1423758000.0 0.030058860778808594 0.010728836059570312
1428753500.0 0.030958175659179688 0.007641792297363281
1433749000.0 0.03155517578125 0.0045452117919921875
1438744500.0 0.03185462951660156 0.00131988525390625
1443740000.0 0.03195381164550781 -0.0019779205322265625
1448735500.0 0.031494140625 -0.0052242279052734375
1453731000.0 0.03080272674560547 -0.008364677429199219
1458726500.0 0.029992103576660156 -0.011355400085449219
1463722000.0 0.028565406799316406 -0.014233589172363281
1468717500.0 0.027097702026367188 -0.017128944396972656
1473713000.0 0.025133132934570312 -0.019799232482910156
1478708500.0 0.023024559020996094 -0.02218151092529297
1483704000.0 0.020575523376464844 -0.02438640594482422
1488699500.0 0.018080711364746094 -0.026304244995117188
1493695000.0 0.015290260314941406 -0.02792644500732422
1498690500.0 0.01248931884765625 -0.02945709228515625
1503686000.0 0.009370803833007812 -0.030378341674804688
1508681500.0 0.006255149841308594 -0.031011581420898438
1513677000.0 0.00308990478515625 -0.03175926208496094
1518672500.0 7.62939453125e-06 -0.031780242919921875
1523668000.0 -0.0031261444091796875 -0.03159904479980469
1528663500.0 -0.006409645080566406 -0.03112316131591797
1533659000.0 -0.009447097778320312 -0.03026294708251953
1538654500.0 -0.012376785278320312 -0.029092788696289062
1543650000.0 -0.015268325805664062 -0.027701377868652344
1548645500.0 -0.01791858673095703 -0.025933265686035156
1553641000.0 -0.02036571502685547 -0.02399730682373047
1558636500.0 -0.022634506225585938 -0.021889686584472656
1563632000.0 -0.02456378936767578 -0.019418716430664062
1568627500.0 -0.02642822265625 -0.016961097717285156
1573623000.0 -0.027899742126464844 -0.014047622680664062
1578618500.0 -0.029144287109375 -0.011309623718261719
1583614000.0 -0.030046463012695312 -0.008249282836914062
1588609500.0 -0.03060436248779297 -0.0052700042724609375
1593605000.0 -0.03094959259033203 -0.0021905899047851562
1598600500.0 -0.030948638916015625 0.0007486343383789062
1603596000.0 -0.030633926391601562 0.0037832260131835938
1608591500.0 -0.03004169464111328 0.006775856018066406
1613587000.0 -0.029066085815429688 0.009741783142089844
1618582500.0 -0.02798175811767578 0.012485504150390625
1623578000.0 -0.026610374450683594 0.015040397644042969
1628573500.0 -0.024951934814453125 0.01761627197265625
1633569000.0 -0.022981643676757812 0.01993560791015625
1638564500.0 -0.020908355712890625 0.02196502685546875
1643560000.0 -0.018583297729492188 0.023895263671875
1648555500.0 -0.016307830810546875 0.0256195068359375
1653551000.0 -0.013742446899414062 0.026956558227539062
1658546500.0 -0.010897636413574219 0.028171539306640625
1663542000.0 -0.008160591125488281 0.02908802032470703
1668537500.0 -0.005290031433105469 0.02969074249267578
1673533000.0 -0.0023431777954101562 0.02998828887939453
1678528500.0 0.0005254745483398438 0.030127525329589844
1683524000.0 0.0035505294799804688 0.029793739318847656
1688519500.0 0.006519317626953125 0.029413223266601562
1693515000.0 0.009222030639648438 0.02853870391845703
1698510500.0 0.012022972106933594 0.02749156951904297
1703506000.0 0.014608383178710938 0.026144027709960938
1708501500.0 0.01710987091064453 0.024535179138183594
1713497000.0 0.01945018768310547 0.022683143615722656
1718492500.0 0.021523475646972656 0.020660400390625
1723488000.0 0.02341175079345703 0.018439292907714844
1728483500.0 0.02505207061767578 0.01601696014404297
1733479000.0 0.026474952697753906 0.01348876953125
1738474500.0 0.0277252197265625 0.010768890380859375
1743470000.0 0.028489112854003906 0.007890701293945312
1748465500.0 0.02908039093017578 0.0051631927490234375
1753461000.0 0.029480934143066406 0.0023355484008789062
1758456500.0 0.02946186065673828 -0.0007162094116210938
1763452000.0 0.029253005981445312 -0.0035114288330078125
1768447500.0 0.02866649627685547 -0.006434440612792969
1773443000.0 0.02783679962158203 -0.009126663208007812
1778438500.0 0.026723861694335938 -0.011790275573730469
1783434000.0 0.02539348602294922 -0.014367103576660156
1788429500.0 0.02386760711669922 -0.01663970947265625
1793425000.0 0.02201557159423828 -0.018890380859375
1798420500.0 0.019994735717773438 -0.020882606506347656
1803416000.0 0.017835617065429688 -0.02271556854248047
1808411500.0 0.015446662902832031 -0.02424335479736328
1813407000.0 0.012946128845214844 -0.025669097900390625
1818402500.0 0.010371208190917969 -0.026721954345703125
1823398000.0 0.0077075958251953125 -0.02754688262939453
1828393500.0 0.004914283752441406 -0.027976036071777344
1833389000.0 0.0021915435791015625 -0.02836322784423828
1838384500.0 -0.0005369186401367188 -0.028284072875976562
1843380000.0 -0.0032892227172851562 -0.02801799774169922
