!Created with skrf (http://scikit-rf.org).
# Hz S RI R 50.0 
!freq ReS11 ImS11
300000.0 -1.024885982 -0.1766734521
5299970.0 -1.004059437 0.0013062104
10299940.0 -1.002099727 0.0001234557
15299910.0 -1.002244724 0.006848132
20299880.0 -1.00264393 0.0044635411
25299850.0 -1.002361419 0.0071126345
30299820.0 -1.002226528 0.0092340526
35299790.0 -1.00197112 0.0084811426
40299760.0 -1.001577839 0.0097246332
45299730.0 -1.00149425 0.0106303247
50299700.0 -1.001104264 0.0129121535
55299670.0 -1.001568419 0.0142837494
60299640.0 -1.00119744 0.014931264
65299610.0 -1.001173848 0.0155067612
70299580.0 -1.00104069 0.0167410728
75299550.0 -1.001181911 0.0182948636
80299520.0 -1.00117392 0.0191063152
85299490.0 -1.000868307 0.0204591719
90299460.0 -1.000777089 0.0208334011
95299430.0 -1.000921979 0.0222841153
100299400.0 -1.000719291 0.023145071
105299370.0 -1.000479048 0.0250168729
110299340.0 -1.000486168 0.0260825552
115299310.0 -1.001280939 0.0273679797
120299280.0 -1.000323502 0.0280358748
125299250.0 -1.000306181 0.029281665
130299220.0 -1.000127752 0.0304582879
135299190.0 -1.000113286 0.0314534242
140299160.0 -1.00087347 0.0323311718
145299130.0 -1.000790744 0.0334050109
150299100.0 -1.000094568 0.0349882576
155299070.0 -1.000143154 0.0357065762
160299040.0 -1.000171969 0.0371698314
165299010.0 -0.9999760784 0.0380846605
170298980.0 -1.000458573 0.0391768924
175298950.0 -0.9982007937 0.0397890366
180298920.0 -0.9977160393 0.0404380448
185298890.0 -0.9984759885 0.0413498078
190298860.0 -1.000425956 0.0438202124
195298830.0 -0.9999729784 0.0445268962
200298800.0 -1.000134712 0.0461816588
205298770.0 -0.9997176986 0.0473231206
210298740.0 -1.0001534 0.0483798808
215298710.0 -1.000054791 0.0493652949
220298680.0 -0.9998213021 0.0500800922
225298650.0 -0.9994582852 0.0512242054
230298620.0 -0.9997192807 0.0523751521
235298590.0 -0.9995214241 0.053568442
240298560.0 -1.000760731 0.0550140326
245298530.0 -0.9997695239 0.0557235765
250298500.0 -0.999550755 0.0569075461
255298470.0 -0.9991001499 0.0579849706
260298440.0 -0.9998020391 0.0586230275
265298410.0 -0.9994693704 0.0601625686
270298380.0 -0.999601906 0.0615258805
275298350.0 -0.9993014869 0.0624598578
280298320.0 -0.999514574 0.0634222478
285298290.0 -0.9988922887 0.0644002478
290298260.0 -0.9988561826 0.0660467639
295298230.0 -0.9994727161 0.0666004493
300298200.0 -0.9989080448 0.0677119049
305298170.0 -0.9991063458 0.0686092456
310298140.0 -0.9989361708 0.0703155609
315298110.0 -0.9986588706 0.0710751925
320298080.0 -0.9986453428 0.0720921022
325298050.0 -0.9988282424 0.0735860339
330298020.0 -0.9989189875 0.0745494754
335297990.0 -0.9985581932 0.0758593971
340297960.0 -0.9985641018 0.0765436418
345297930.0 -0.9986393154 0.0776991965
350297900.0 -0.9988759487 0.0789682131
355297870.0 -0.9997765362 0.0795141756
360297840.0 -0.9991933508 0.0814383767
365297810.0 -0.9993474948 0.0824014548
370297780.0 -0.9986885757 0.0830053489
375297750.0 -0.9978615953 0.0846553369
380297720.0 -0.9984246842 0.0854887887
385297690.0 -0.9982953743 0.0865828273
390297660.0 -0.9976712085 0.0877721734
395297630.0 -0.9976764675 0.0893511533
400297600.0 -0.9974678018 0.0902863619
405297570.0 -0.9975954524 0.0908703268
410297540.0 -0.9973641469 0.0922909837
415297510.0 -0.9972883269 0.0936862762
420297480.0 -0.9969520576 0.0941007426
425297450.0 -0.9964790544 0.0955150414
430297420.0 -0.9969900022 0.0969246956
435297390.0 -0.9970387319 0.0974336985
440297360.0 -0.9970268633 0.0985460774
445297330.0 -0.9961242617 0.10016611
450297300.0 -0.9973956558 0.1010238122
455297270.0 -0.9967054793 0.1026598317
460297240.0 -0.9966522678 0.1036619437
465297210.0 -0.9968049426 0.1051029016
470297180.0 -0.9960573359 0.1056842918
475297150.0 -0.9963709359 0.1073899704
480297120.0 -0.9967573719 0.1076732119
485297090.0 -0.9963405461 0.1093666549
490297060.0 -0.9961596087 0.1104657853
495297030.0 -0.9963878285 0.1116368661
500297000.0 -0.9962174612 0.1125264812
505296970.0 -0.9955263746 0.1139077628
510296940.0 -0.9958953806 0.1145254185
515296910.0 -0.996390565 0.1156562945
520296880.0 -0.9959233784 0.1169741138
525296850.0 -0.9956046104 0.1178375387
530296820.0 -0.9961010874 0.1191581351
535296790.0 -0.9963398764 0.1199506324
540296760.0 -0.9954395501 0.12125765
545296730.0 -0.9958422193 0.1221236812
550296700.0 -0.9953296767 0.1236094939
555296670.0 -0.9958385133 0.1239925498
560296640.0 -0.9948461445 0.1252673453
565296610.0 -0.9945150056 0.1269481627
570296580.0 -0.994186025 0.128193685
575296550.0 -0.9941100734 0.1300201803
580296520.0 -0.9945758321 0.1307713081
585296490.0 -0.993642035 0.1313228869
590296460.0 -0.9934170337 0.1331739988
595296430.0 -0.9932111847 0.1335044748
600296400.0 -0.9931596161 0.1351797145
605296370.0 -0.9937571692 0.1360595691
610296340.0 -0.9935451834 0.1371061467
615296310.0 -0.9932827307 0.1377578599
620296280.0 -0.9928033129 0.1389612228
625296250.0 -0.9924505034 0.1397512763
630296220.0 -0.9925941676 0.1416320099
635296190.0 -0.9922406879 0.142220274
640296160.0 -0.9927840636 0.142851732
645296130.0 -0.9923275483 0.1441590187
650296100.0 -0.9920318383 0.1456789903
655296070.0 -0.991639646 0.146409462
660296040.0 -0.9913994253 0.1474996172
665296010.0 -0.9912561207 0.1489698641
670295980.0 -0.9912426672 0.1500183756
675295950.0 -0.9907471636 0.1513534428
680295920.0 -0.9909624838 0.1521825437
685295890.0 -0.9904559766 0.1531527262
690295860.0 -0.9912981468 0.1548089612
695295830.0 -0.9906070966 0.1549648325
700295800.0 -0.9904387306 0.1562654177
705295770.0 -0.9900969773 0.1580998583
710295740.0 -0.9903801033 0.1591034803
715295710.0 -0.9898545889 0.1595467569
720295680.0 -0.989628446 0.161572771
725295650.0 -0.9897323152 0.1623831337
730295620.0 -0.9892764662 0.1633010015
735295590.0 -0.9894718062 0.1638182832
740295560.0 -0.9885758714 0.1650963925
745295530.0 -0.9893184467 0.1668476993
750295500.0 -0.9887528407 0.1675345437
755295470.0 -0.9882965362 0.1683064759
760295440.0 -0.9877169667 0.1695507808
765295410.0 -0.9878034316 0.1709771863
770295380.0 -0.9881217701 0.1726132636
775295350.0 -0.9876459519 0.1737190478
780295320.0 -0.9877744306 0.1741939564
785295290.0 -0.9877682617 0.1756489311
790295260.0 -0.9872551757 0.1764100817
795295230.0 -0.9868745545 0.1776407597
800295200.0 -0.9868387164 0.1788394413
805295170.0 -0.9863396918 0.1802693229
810295140.0 -0.9863974562 0.1811842778
815295110.0 -0.985889164 0.1822497218
820295080.0 -0.9858142139 0.1833870023
825295050.0 -0.9859797226 0.1847965391
830295020.0 -0.9856628724 0.1857430414
835294990.0 -0.9852637162 0.1869395172
840294960.0 -0.9848623031 0.1880045512
845294930.0 -0.9849323584 0.1886053034
850294900.0 -0.9851776629 0.1895271113
855294870.0 -0.9845567001 0.1905560822
860294840.0 -0.9845600334 0.1921599036
865294810.0 -0.9842149596 0.1935059736
870294780.0 -0.9837850007 0.194433247
875294750.0 -0.98438062 0.195547668
880294720.0 -0.9834681764 0.196101941
885294690.0 -0.9832920927 0.1974676587
890294660.0 -0.9823466907 0.1988942423
895294630.0 -0.9825698234 0.1998185235
900294600.0 -0.9818392693 0.2006114349
905294570.0 -0.981747749 0.2016853568
910294540.0 -0.9816170723 0.2029362373
915294510.0 -0.9819519189 0.2043874018
920294480.0 -0.9814653638 0.2047499736
925294450.0 -0.9807786868 0.2059771674
930294420.0 -0.9808675217 0.2074972682
935294390.0 -0.9810094636 0.2086784363
940294360.0 -0.9799070539 0.2096818351
945294330.0 -0.9803766611 0.2104591499
950294300.0 -0.9795857148 0.2122117587
955294270.0 -0.9794705334 0.2129351167
960294240.0 -0.9792654523 0.213730891
965294210.0 -0.9790098427 0.2153577196
970294180.0 -0.9788145215 0.2164858422
975294150.0 -0.9785428003 0.2169726285
980294120.0 -0.9782895373 0.2179633574
985294090.0 -0.978197496 0.2185630936
990294060.0 -0.9782078677 0.2200683946
995294030.0 -0.9776577927 0.2216829717
1000294000.0 -0.9771861021 0.2224914198
1005293970.0 -0.9769251621 0.223651278
1010293940.0 -0.9770393096 0.2249089919
1015293910.0 -0.9761502599 0.2255630123
1020293880.0 -0.9766228922 0.2264729506
1025293850.0 -0.9761775089 0.2271441763
1030293820.0 -0.9761068786 0.2276552539
1035293790.0 -0.9758020391 0.2297305253
1040293760.0 -0.975446556 0.2306798874
1045293730.0 -0.9746130313 0.231666667
1050293700.0 -0.9745695567 0.2329393121
1055293670.0 -0.9741886931 0.2338152546
1060293640.0 -0.9739080455 0.2353102723
1065293610.0 -0.9737054126 0.235695345
1070293580.0 -0.9736328905 0.2368564095
1075293550.0 -0.9734548261 0.2375400301
1080293520.0 -0.9728345279 0.239326473
1085293490.0 -0.9727153592 0.2401613977
1090293460.0 -0.9721962853 0.2415412079
1095293430.0 -0.9714003254 0.2427575999
1100293400.0 -0.9716771905 0.2440185975
1105293370.0 -0.9713773563 0.245027666
1110293340.0 -0.9710252185 0.2461858955
1115293310.0 -0.9706927556 0.2473252084
1120293280.0 -0.9707716483 0.2477287408
1125293250.0 -0.9704235672 0.2485261524
1130293220.0 -0.9694923219 0.2494817397
1135293190.0 -0.9698910333 0.2512475844
1140293160.0 -0.9696120518 0.2526808135
1145293130.0 -0.9690810673 0.2533219766
1150293100.0 -0.9689317891 0.255263426
1155293070.0 -0.9683310302 0.255986946
1160293040.0 -0.9683548825 0.2574177978
1165293010.0 -0.9678908286 0.2583498226
1170292980.0 -0.9677106105 0.2595191409
1175292950.0 -0.9675409265 0.2598258714
1180292920.0 -0.9665593313 0.2611230395
1185292890.0 -0.9667148588 0.2614867658
1190292860.0 -0.9660499912 0.2628332801
1195292830.0 -0.9658781039 0.263648108
1200292800.0 -0.9659455842 0.2647489793
1205292770.0 -0.9655352003 0.2657769329
1210292740.0 -0.9650308855 0.2663475421
1215292710.0 -0.9650437664 0.2682647133
1220292680.0 -0.9647152557 0.2690396293
1225292650.0 -0.9637441276 0.2700940503
1230292620.0 -0.9641550993 0.2710258182
1235292590.0 -0.9632248957 0.2718808009
1240292560.0 -0.9632245305 0.2731927369
1245292530.0 -0.9626913042 0.274273587
1250292500.0 -0.9629399753 0.2751207006
1255292470.0 -0.9621741034 0.2764455003
1260292440.0 -0.9618055164 0.2774515224
1265292410.0 -0.9617035407 0.2782139548
1270292380.0 -0.9612990986 0.279226907
1275292350.0 -0.9610990148 0.2803941391
1280292320.0 -0.9600569186 0.2816609094
1285292290.0 -0.9602018699 0.2826818626
1290292260.0 -0.9597392993 0.2834294706
1295292230.0 -0.959380508 0.2847019294
1300292200.0 -0.9593093086 0.2854027943
1305292170.0 -0.9587712007 0.2866540846
1310292140.0 -0.9589343713 0.2873941912
1315292110.0 -0.9582769427 0.2886511553
1320292080.0 -0.9580424996 0.289428813
1325292050.0 -0.9578432373 0.2908856452
1330292020.0 -0.9574638123 0.2921350499
1335291990.0 -0.9574353736 0.2932586138
1340291960.0 -0.9559142001 0.2944703291
1345291930.0 -0.9558408204 0.2956373504
1350291900.0 -0.9554927317 0.2961339328
1355291870.0 -0.9558504705 0.2975206304
1360291840.0 -0.9546163312 0.297939499
1365291810.0 -0.954654023 0.2987003659
1370291780.0 -0.9542429661 0.2998302636
1375291750.0 -0.9543081866 0.3008097093
1380291720.0 -0.9537356226 0.3021739858
1385291690.0 -0.953046464 0.3034135228
1390291660.0 -0.9528048581 0.3047608845
1395291630.0 -0.9529767539 0.3058591369
1400291600.0 -0.9522629969 0.3070998828
1405291570.0 -0.9519104608 0.3076164225
1410291540.0 -0.9513281339 0.3092443581
1415291510.0 -0.9513056159 0.3096356904
1420291480.0 -0.9511214192 0.3104348487
1425291450.0 -0.9503844084 0.3118304044
1430291420.0 -0.950731582 0.3124662128
1435291390.0 -0.9497376206 0.3131840138
1440291360.0 -0.9494390403 0.3145277481
1445291330.0 -0.9483824735 0.3154777649
1450291300.0 -0.9487552339 0.3161259466
1455291270.0 -0.9481912243 0.31692936
1460291240.0 -0.9480236785 0.3182153261
1465291210.0 -0.9477385128 0.3194184542
1470291180.0 -0.9467835247 0.3207491235
1475291150.0 -0.9470036827 0.3220339746
1480291120.0 -0.9461556534 0.322748699
1485291090.0 -0.9461668513 0.3239984904
1490291060.0 -0.9456323213 0.3254425252
1495291030.0 -0.9452338094 0.3258959385
1500291000.0 -0.9452337095 0.3269022026
1505290970.0 -0.9447527916 0.3275334807
1510290940.0 -0.944113203 0.3288258144
1515290910.0 -0.9438574557 0.3293634132
1520290880.0 -0.9436442982 0.3305990302
1525290850.0 -0.9430798472 0.3316223052
1530290820.0 -0.9428578828 0.3330497021
1535290790.0 -0.9421147284 0.3338600161
1540290760.0 -0.9417894825 0.3353141392
1545290730.0 -0.9410653439 0.3360374818
1550290700.0 -0.9410680058 0.3373023187
1555290670.0 -0.9407583941 0.3385634502
1560290640.0 -0.9404108182 0.3392666167
1565290610.0 -0.9393778838 0.3401290601
1570290580.0 -0.9394370642 0.3408896917
1575290550.0 -0.9393994317 0.3418818208
1580290520.0 -0.9389496575 0.3435508253
1585290490.0 -0.9380584492 0.3444028897
1590290460.0 -0.9375962901 0.3453122547
1595290430.0 -0.9374616951 0.3468641771
1600290400.0 -0.9374007818 0.3474140112
1605290370.0 -0.9366147902 0.3489719645
1610290340.0 -0.9361919861 0.3497557984
1615290310.0 -0.9359115803 0.3501538879
1620290280.0 -0.9347166573 0.351070648
1625290250.0 -0.9350845759 0.3525842732
1630290220.0 -0.9351476937 0.3532527535
1635290190.0 -0.9340546425 0.3543198856
1640290160.0 -0.9337102918 0.3548290199
1645290130.0 -0.9335108213 0.3553650805
1650290100.0 -0.9334072944 0.3568768969
1655290070.0 -0.9324349846 0.3584681807
1660290040.0 -0.9322077063 0.3596412073
1665290010.0 -0.9312413588 0.35966745
1670289980.0 -0.9311280282 0.361069942
1675289950.0 -0.930824438 0.3624281592
1680289920.0 -0.9300646857 0.3636655263
1685289890.0 -0.9301888015 0.3648820688
1690289860.0 -0.9293021687 0.3662356697
1695289830.0 -0.9292073418 0.3670718238
1700289800.0 -0.9287023653 0.3678547297
1705289770.0 -0.9278017167 0.3684926895
1710289740.0 -0.9276391195 0.3698872847
1715289710.0 -0.927370657 0.3707741113
1720289680.0 -0.9269571031 0.3719921761
1725289650.0 -0.9262371069 0.3728420381
1730289620.0 -0.9262170258 0.3739299367
1735289590.0 -0.9254944729 0.374781866
1740289560.0 -0.9253177061 0.375921015
1745289530.0 -0.9247201355 0.3772963786
1750289500.0 -0.924286291 0.3773859293
1755289470.0 -0.9235638289 0.3786584931
1760289440.0 -0.9238154432 0.3795282541
1765289410.0 -0.9228057213 0.3801671789
1770289380.0 -0.922955984 0.3816261853
1775289350.0 -0.9221995553 0.3822294864
1780289320.0 -0.9214173791 0.3829416854
1785289290.0 -0.9212932616 0.3846000978
1790289260.0 -0.9205742213 0.3854714169
1795289230.0 -0.9205914536 0.3866755351
1800289200.0 -0.9199395046 0.3880561802
1805289170.0 -0.919226588 0.3888369732
1810289140.0 -0.9192127606 0.3895317686
1815289110.0 -0.918230983 0.3909730081
1820289080.0 -0.9180302003 0.3915157654
1825289050.0 -0.9182064156 0.3926201857
1830289020.0 -0.916976684 0.3922953081
1835288990.0 -0.9175443546 0.3936274596
1840288960.0 -0.9165517923 0.3943479335
1845288930.0 -0.9162249738 0.3954420512
1850288900.0 -0.9154021408 0.3973738891
1855288870.0 -0.9151651069 0.3982955268
1860288840.0 -0.9144324488 0.3992429642
1865288810.0 -0.9140174406 0.4010651959
1870288780.0 -0.9138906058 0.401474099
1875288750.0 -0.9130958936 0.4025613191
1880288720.0 -0.9125232375 0.4035058269
1885288690.0 -0.9122237704 0.4045158964
1890288660.0 -0.9111404417 0.4060858409
1895288630.0 -0.9109377692 0.4068629702
1900288600.0 -0.9107234138 0.4077582431
1905288570.0 -0.9098095753 0.4087684757
1910288540.0 -0.9096145817 0.409189853
1915288510.0 -0.9087900846 0.4107969511
1920288480.0 -0.9086113752 0.4116905747
1925288450.0 -0.9083636757 0.4129006687
1930288420.0 -0.9076021999 0.413711011
1935288390.0 -0.9073004517 0.4148406049
1940288360.0 -0.9068566779 0.4159848165
1945288330.0 -0.9059140073 0.4170021685
1950288300.0 -0.9051433564 0.4183032373
1955288270.0 -0.9056362375 0.4192351053
1960288240.0 -0.9041367809 0.4205163644
1965288210.0 -0.9039526253 0.4217749436
1970288180.0 -0.9030796014 0.4223973111
1975288150.0 -0.9029885295 0.4235649129
1980288120.0 -0.9019466273 0.4239524341
1985288090.0 -0.9019845533 0.42505218
1990288060.0 -0.9016599007 0.4267202625
1995288030.0 -0.9014444106 0.4263198192
2000288000.0 -0.9008619183 0.4269317394
2005287970.0 -0.9004533115 0.4283892034
2010287940.0 -0.8996684889 0.429515073
2015287910.0 -0.8992669155 0.430055496
2020287880.0 -0.8991067342 0.4311160057
2025287850.0 -0.8984121308 0.4321725958
2030287820.0 -0.8975181886 0.4333444147
2035287790.0 -0.8974745624 0.434861573
2040287760.0 -0.8967524039 0.4358359985
2045287730.0 -0.8958149941 0.4366007171
2050287700.0 -0.8951630326 0.4373936937
2055287670.0 -0.8947283631 0.4381367202
2060287640.0 -0.8948989666 0.4393996704
2065287610.0 -0.8943324945 0.4402383081
2070287580.0 -0.8936160506 0.4418796081
2075287550.0 -0.8927729886 0.4425577189
2080287520.0 -0.8928530546 0.4432935033
2085287490.0 -0.8924420447 0.4443098859
2090287460.0 -0.8920945431 0.4451724523
2095287430.0 -0.8914522076 0.4465616527
2100287400.0 -0.8903611533 0.4475359291
2105287370.0 -0.8900116668 0.4479627744
2110287340.0 -0.889596565 0.4493186356
2115287310.0 -0.8887320723 0.4506886885
2120287280.0 -0.8886923367 0.4512051862
2125287250.0 -0.8878681939 0.4519777702
2130287220.0 -0.8874456907 0.4534202225
2135287190.0 -0.8867041021 0.4542234335
2140287160.0 -0.8863865027 0.4558741111
2145287130.0 -0.8857944491 0.4568249826
2150287100.0 -0.8846123206 0.4577765782
2155287070.0 -0.8847458321 0.4578892818
2160287040.0 -0.8842067075 0.4593582265
2165287010.0 -0.8841597658 0.4595132759
2170286980.0 -0.8827735486 0.4610020915
2175286950.0 -0.8827215848 0.4621875612
2180286920.0 -0.8820310474 0.4626651289
2185286890.0 -0.8822088829 0.4627512785
2190286860.0 -0.8815143015 0.4645736265
2195286830.0 -0.8813613817 0.4650347238
2200286800.0 -0.880215139 0.4655032009
2205286770.0 -0.8799688963 0.4668819211
2210286740.0 -0.8795915657 0.4675973695
2215286710.0 -0.8793055021 0.4685033151
2220286680.0 -0.8782891516 0.4694028298
2225286650.0 -0.877699929 0.4709303605
2230286620.0 -0.8771505416 0.4717590483
2235286590.0 -0.8767293581 0.4729677743
2240286560.0 -0.8762797713 0.4738164254
2245286530.0 -0.8757690497 0.4747463929
2250286500.0 -0.8751398359 0.4763272787
2255286470.0 -0.8746220965 0.4771108039
2260286440.0 -0.8740851625 0.4782960517
2265286410.0 -0.873083187 0.479329443
2270286380.0 -0.8723126995 0.4804110702
2275286350.0 -0.8719539499 0.4812313542
2280286320.0 -0.871462072 0.4821889915
2285286290.0 -0.8704308789 0.4835278991
2290286260.0 -0.8698974045 0.4841246647
2295286230.0 -0.8698368372 0.4856988008
2300286200.0 -0.8689441981 0.4861647251
2305286170.0 -0.8686025028 0.4870032335
2310286140.0 -0.8679093089 0.4883832919
2315286110.0 -0.8677307695 0.488789668
2320286080.0 -0.8667195647 0.4899296659
2325286050.0 -0.8664545999 0.4908346857
2330286020.0 -0.8655925975 0.4920057992
2335285990.0 -0.86536266 0.4923735306
2340285960.0 -0.8650287565 0.4931139421
2345285930.0 -0.8644926985 0.4941311981
2350285900.0 -0.8639339536 0.4953306352
2355285870.0 -0.8632164348 0.4964683028
2360285840.0 -0.8620332275 0.4972133758
2365285810.0 -0.8619019865 0.4985705052
2370285780.0 -0.8614298924 0.4995909541
2375285750.0 -0.8614884201 0.5002467735
2380285720.0 -0.8604363335 0.5011201964
2385285690.0 -0.8601396123 0.5016540926
2390285660.0 -0.8591915648 0.5023939694
2395285630.0 -0.8589656738 0.5034893745
2400285600.0 -0.8583766119 0.5045708087
2405285570.0 -0.8578500913 0.5050277428
2410285540.0 -0.8575788162 0.5055525485
2415285510.0 -0.8573328943 0.50611002
2420285480.0 -0.8563451655 0.5074435969
2425285450.0 -0.8563126161 0.5080449724
2430285420.0 -0.8555758434 0.509189351
2435285390.0 -0.8552198132 0.5105258563
2440285360.0 -0.8541150181 0.510574274
2445285330.0 -0.8535168507 0.5118529664
2450285300.0 -0.8531256299 0.5128249673
2455285270.0 -0.8524510759 0.5140223254
2460285240.0 -0.8518364767 0.5152542162
2465285210.0 -0.8516012472 0.5161876386
2470285180.0 -0.8500489086 0.5175999466
2475285150.0 -0.8503758312 0.5179740422
2480285120.0 -0.849418705 0.5195653151
2485285090.0 -0.8491519839 0.5198138151
2490285060.0 -0.8486579033 0.5204482675
2495285030.0 -0.8476153098 0.5218305454
2500285000.0 -0.8471545409 0.5231637377
2505284970.0 -0.8460865852 0.5239200045
2510284940.0 -0.845730627 0.5248041458
2515284910.0 -0.8452295554 0.5260260923
2520284880.0 -0.8440144124 0.5264048924
2525284850.0 -0.8440582868 0.5277340595
