!Created with skrf (http://scikit-rf.org).
# Hz S RI R 50.0 
!freq ReS11 ImS11
300000.0 -1.024058353 -0.1737995246
5299970.0 -1.003767397 0.0018541155
10299940.0 -1.002242662 0.0014297696
15299910.0 -1.002172979 0.0077841065
20299880.0 -1.002191232 0.0066210147
25299850.0 -1.002491129 0.0101088613
30299820.0 -1.002387888 0.0124300321
35299790.0 -1.001664664 0.0122746385
40299760.0 -1.001310275 0.0140254582
45299730.0 -1.001584458 0.0157516659
50299700.0 -1.001158947 0.0180717431
55299670.0 -1.001350479 0.0200149657
60299640.0 -1.001527555 0.0207664837
65299610.0 -1.001132795 0.022260097
70299580.0 -1.00106824 0.0240484414
75299550.0 -1.001252672 0.0262408063
80299520.0 -1.000754284 0.0276374499
85299490.0 -1.00116657 0.0287148606
90299460.0 -1.00032628 0.0305978956
95299430.0 -1.000542736 0.0320678444
100299400.0 -1.000374672 0.0338551242
105299370.0 -1.000413814 0.0359991562
110299340.0 -1.000118761 0.0373599016
115299310.0 -0.9999447587 0.0389466035
120299280.0 -1.000095608 0.0400058209
125299250.0 -0.9992529335 0.0417293793
130299220.0 -1.000001164 0.0433491524
135299190.0 -0.9999936464 0.0449280416
140299160.0 -0.9998457983 0.0466204185
145299130.0 -0.9998262001 0.0483488632
150299100.0 -1.000260776 0.0502263064
155299070.0 -0.999785392 0.051822969
160299040.0 -0.9997360163 0.0530299792
165299010.0 -0.9997917058 0.054892446
170298980.0 -0.9995325746 0.0565089189
175298950.0 -0.9974547952 0.0577747094
180298920.0 -0.9965818146 0.05929053
185298890.0 -0.9980677787 0.060989077
190298860.0 -0.99893583 0.0634524357
195298830.0 -0.9994875117 0.0647767818
200298800.0 -0.9989968046 0.0662813948
205298770.0 -0.9991292928 0.0675479241
210298740.0 -0.9990611054 0.0692586323
215298710.0 -0.9986851406 0.071217389
220298680.0 -0.9985372522 0.0729065477
225298650.0 -0.9991358994 0.0744359751
230298620.0 -0.9992598237 0.0763183632
235298590.0 -0.9982652726 0.0775661509
240298560.0 -0.9983890772 0.0790340097
245298530.0 -0.9979861655 0.0805613178
250298500.0 -0.9977869251 0.0823288293
255298470.0 -0.9980249326 0.0840761156
260298440.0 -0.997750518 0.085999996
265298410.0 -0.9980686144 0.0873632593
270298380.0 -0.9977260095 0.0886681151
275298350.0 -0.9974658378 0.0904362765
280298320.0 -0.9971030963 0.0919666818
285298290.0 -0.9965402641 0.0937087887
290298260.0 -0.997513347 0.0953942606
295298230.0 -0.9968576017 0.0965225495
300298200.0 -0.9971682588 0.0987625266
305298170.0 -0.9963262133 0.0999849877
310298140.0 -0.9963649226 0.1012197425
315298110.0 -0.9963890676 0.1029333025
320298080.0 -0.9962047858 0.1048061726
325298050.0 -0.9959567948 0.1062544686
330298020.0 -0.9961143908 0.107983883
335297990.0 -0.9956120381 0.1095674263
340297960.0 -0.9955723194 0.1115202482
345297930.0 -0.9951665675 0.1130072076
350297900.0 -0.9959802916 0.1146311314
355297870.0 -0.9966568784 0.1159404414
360297840.0 -0.9957937938 0.1177272218
365297810.0 -0.9957256851 0.1190837136
370297780.0 -0.9955885161 0.1209504559
375297750.0 -0.9945969737 0.1225701882
380297720.0 -0.9938717801 0.1244731539
385297690.0 -0.9941361625 0.1255673252
390297660.0 -0.9938446918 0.1273238786
395297630.0 -0.9936456831 0.1295988837
400297600.0 -0.9936163725 0.1309660797
405297570.0 -0.9930922333 0.1320135961
410297540.0 -0.9930758472 0.134341523
415297510.0 -0.9932406315 0.13603531
420297480.0 -0.9924026595 0.1367724616
425297450.0 -0.9923562477 0.1394027601
430297420.0 -0.9924400553 0.1408555911
435297390.0 -0.9923059371 0.1421709084
440297360.0 -0.9916539114 0.1438564996
445297330.0 -0.9919074403 0.1452149882
450297300.0 -0.9919681279 0.1473559816
455297270.0 -0.9912291679 0.1487942603
460297240.0 -0.9909146077 0.1504705165
465297210.0 -0.9908096359 0.1521766825
470297180.0 -0.9907468905 0.1536948683
475297150.0 -0.990365667 0.155151795
480297120.0 -0.9907184823 0.1566385189
485297090.0 -0.990199745 0.1580005483
490297060.0 -0.9894747896 0.1600334313
495297030.0 -0.9896969594 0.1617550495
500297000.0 -0.9902409568 0.1631924226
505296970.0 -0.9892765015 0.164331275
510296940.0 -0.988792383 0.1660373931
515296910.0 -0.9889576915 0.1677359921
520296880.0 -0.9884330899 0.1694088808
525296850.0 -0.9882298715 0.1710906827
530296820.0 -0.9884930723 0.1726885764
535296790.0 -0.9881445256 0.1742887037
540296760.0 -0.9880126928 0.1756242662
545296730.0 -0.9879245512 0.1775869628
550296700.0 -0.9868275324 0.1790175083
555296670.0 -0.9865233349 0.180683968
560296640.0 -0.9859536062 0.1819018925
565296610.0 -0.9859848589 0.1841943227
570296580.0 -0.9858856194 0.1863931809
575296550.0 -0.9854331176 0.1881996861
580296520.0 -0.9851313861 0.189492909
585296490.0 -0.9848990002 0.1909628092
590296460.0 -0.9843147733 0.1923554252
595296430.0 -0.9838188808 0.1940738432
600296400.0 -0.9840585138 0.1957262035
605296370.0 -0.9833877475 0.1971183966
610296340.0 -0.9834667888 0.1988411394
615296310.0 -0.9827437906 0.2004384546
620296280.0 -0.9824290554 0.2019404083
625296250.0 -0.9816119219 0.2034287676
630296220.0 -0.9818022841 0.2047076386
635296190.0 -0.9813475785 0.2058495388
640296160.0 -0.9813622459 0.2077432174
645296130.0 -0.9815797746 0.2090761812
650296100.0 -0.9805099149 0.2109395882
655296070.0 -0.9798993891 0.2129022356
660296040.0 -0.9795799073 0.2144708813
665296010.0 -0.9791047701 0.2155265222
670295980.0 -0.9791227484 0.2172838759
675295950.0 -0.9786178951 0.2195420683
680295920.0 -0.9790438294 0.220729086
685295890.0 -0.9784019106 0.22267883
690295860.0 -0.9780263038 0.2235647117
695295830.0 -0.9776142676 0.225601887
700295800.0 -0.977348783 0.2274544042
705295770.0 -0.9762936205 0.2284334794
710295740.0 -0.9766148583 0.2306594481
715295710.0 -0.9758679225 0.2322813148
720295680.0 -0.9754007007 0.2341253151
725295650.0 -0.9755059837 0.2349026233
730295620.0 -0.9749399053 0.236913699
735295590.0 -0.9746091401 0.2380193865
740295560.0 -0.9742227093 0.2399215462
745295530.0 -0.973662498 0.2413258484
750295500.0 -0.9737484683 0.2431794107
755295470.0 -0.9727607345 0.2440856062
760295440.0 -0.9727524059 0.2462862391
765295410.0 -0.9721198506 0.247419094
770295380.0 -0.9715697109 0.2499111767
775295350.0 -0.9713579227 0.2512327145
780295320.0 -0.9710803613 0.2527766694
785295290.0 -0.9706903949 0.2543876203
790295260.0 -0.9703771546 0.2563325202
795295230.0 -0.9695124075 0.2575895901
800295200.0 -0.9692367717 0.2597342964
805295170.0 -0.9691157163 0.2606938287
810295140.0 -0.9688631913 0.2622512016
815295110.0 -0.9681099953 0.2639487955
820295080.0 -0.9676445158 0.2656954896
825295050.0 -0.9670523147 0.2669522696
830295020.0 -0.9669348406 0.2685451494
835294990.0 -0.966742112 0.2705251975
840294960.0 -0.9654796684 0.2714210472
845294930.0 -0.9658270662 0.2733028257
850294900.0 -0.965026628 0.274891
855294870.0 -0.9652923841 0.2767137017
860294840.0 -0.9640955693 0.2781005048
865294810.0 -0.9633217995 0.2796595911
870294780.0 -0.9632570454 0.2805520407
875294750.0 -0.9624538098 0.2830983925
880294720.0 -0.9623174436 0.2835014335
885294690.0 -0.9622707989 0.2856081664
890294660.0 -0.9611465575 0.2877763052
895294630.0 -0.96088418 0.2887824085
900294600.0 -0.9601962742 0.2905511632
905294570.0 -0.9597016816 0.2917271253
910294540.0 -0.9592373224 0.2932867604
915294510.0 -0.958176306 0.2949912346
920294480.0 -0.9587114318 0.2967658687
925294450.0 -0.9574920874 0.2984037074
930294420.0 -0.9572641528 0.2999268924
935294390.0 -0.9566651538 0.3010886486
940294360.0 -0.9564413576 0.3023854494
945294330.0 -0.9555139525 0.303821298
950294300.0 -0.9553765582 0.3058024354
955294270.0 -0.9550368552 0.3078193061
960294240.0 -0.953868566 0.3092957265
965294210.0 -0.9532292847 0.310997098
970294180.0 -0.9529255429 0.3118135667
975294150.0 -0.9527595032 0.3135542802
980294120.0 -0.9520923024 0.3150960455
985294090.0 -0.9516822437 0.3159599422
990294060.0 -0.9510513132 0.318060687
995294030.0 -0.9506001452 0.3195286544
1000294000.0 -0.9499073785 0.3211414438
1005293970.0 -0.9493190728 0.3230370994
1010293940.0 -0.9484320814 0.3247997644
1015293910.0 -0.9487722566 0.3257866863
1020293880.0 -0.9477182089 0.3275634057
1025293850.0 -0.9477165624 0.3287200165
1030293820.0 -0.9467411628 0.3302316483
1035293790.0 -0.9464312774 0.3315262409
1040293760.0 -0.9461256111 0.3332071634
1045293730.0 -0.9453088766 0.3350240013
1050293700.0 -0.9446897153 0.3363095911
1055293670.0 -0.9438603518 0.3379323739
1060293640.0 -0.9435457324 0.339541011
1065293610.0 -0.94227417 0.3403472578
1070293580.0 -0.9427915023 0.342178723
1075293550.0 -0.9418389603 0.3438575609
1080293520.0 -0.9410601549 0.3449221617
1085293490.0 -0.9406486779 0.3465626499
1090293460.0 -0.9397361495 0.3483207298
1095293430.0 -0.9391111041 0.3502029293
1100293400.0 -0.9387640423 0.3518815618
1105293370.0 -0.9377055168 0.3537372342
1110293340.0 -0.937224042 0.3548914591
1115293310.0 -0.9364090583 0.3560669161
1120293280.0 -0.9361691913 0.3573353706
1125293250.0 -0.9359348433 0.3587236276
1130293220.0 -0.9354290329 0.3601430334
1135293190.0 -0.9344710903 0.361876341
1140293160.0 -0.9342807369 0.3638279747
1145293130.0 -0.9333605874 0.3657624456
1150293100.0 -0.9327471405 0.3675678026
1155293070.0 -0.9321856541 0.3690566513
1160293040.0 -0.9312900593 0.3707818649
1165293010.0 -0.9307624883 0.3720632764
1170292980.0 -0.9303824985 0.3730476581
1175292950.0 -0.9299486311 0.3752228109
1180292920.0 -0.9293439257 0.3757324345
1185292890.0 -0.928701918 0.3764899818
1190292860.0 -0.9280448567 0.3778007893
1195292830.0 -0.9271923325 0.3798259369
1200292800.0 -0.9263734188 0.3809512337
1205292770.0 -0.926249222 0.3824442494
1210292740.0 -0.9258320276 0.3839598321
1215292710.0 -0.9246978644 0.3854279857
1220292680.0 -0.9244631329 0.3871182431
1225292650.0 -0.9233742145 0.3888304484
1230292620.0 -0.92306729 0.3906194731
1235292590.0 -0.9219170539 0.391651554
1240292560.0 -0.921557132 0.3935908323
1245292530.0 -0.9213769019 0.3946999755
1250292500.0 -0.9203945225 0.3962311801
1255292470.0 -0.9195197372 0.3975182325
1260292440.0 -0.9189554848 0.3989467348
1265292410.0 -0.918075592 0.4003727403
1270292380.0 -0.9176164962 0.4014626984
1275292350.0 -0.916891552 0.4035529151
1280292320.0 -0.9163015403 0.4055798825
1285292290.0 -0.9159423611 0.4065610728
1290292260.0 -0.9145431927 0.4077820711
1295292230.0 -0.9144075132 0.4094716166
1300292200.0 -0.9137563474 0.4106062105
1305292170.0 -0.9126479743 0.4125519093
1310292140.0 -0.9120617003 0.4131983271
1315292110.0 -0.911601538 0.4150903286
1320292080.0 -0.9107185431 0.4165917964
1325292050.0 -0.9102458855 0.4172614459
1330292020.0 -0.9092579624 0.4193377512
1335291990.0 -0.908323527 0.4209024424
1340291960.0 -0.9080983803 0.4231057992
1345291930.0 -0.9073923305 0.424192071
1350291900.0 -0.9062004118 0.4257105564
1355291870.0 -0.9053002853 0.4269356791
1360291840.0 -0.9053122043 0.4279619358
1365291810.0 -0.9046606146 0.4296572823
1370291780.0 -0.9034649976 0.4311880324
1375291750.0 -0.9029241822 0.4327529348
1380291720.0 -0.9024861787 0.434368882
1385291690.0 -0.9011791034 0.4362061583
1390291660.0 -0.9006002531 0.4372301959
1395291630.0 -0.8997083848 0.4384295537
1400291600.0 -0.8995348163 0.4398419184
1405291570.0 -0.8985182612 0.4420517648
1410291540.0 -0.8979691334 0.4426694407
1415291510.0 -0.8973916433 0.4444742906
1420291480.0 -0.8965395495 0.4455956744
1425291450.0 -0.8956769108 0.4475260023
1430291420.0 -0.8952766537 0.448601519
1435291390.0 -0.8946808678 0.4498311615
1440291360.0 -0.8931421609 0.4513900077
1445291330.0 -0.8929543031 0.4524124504
1450291300.0 -0.8923408562 0.4536726853
1455291270.0 -0.8915808738 0.455146282
1460291240.0 -0.8908748438 0.4565947053
1465291210.0 -0.8898845297 0.4583262871
1470291180.0 -0.8895685262 0.4597190442
1475291150.0 -0.8887325681 0.4606444073
1480291120.0 -0.8875276701 0.4626328503
1485291090.0 -0.886445681 0.4636847236
1490291060.0 -0.8857250765 0.4653759842
1495291030.0 -0.8850419516 0.466764987
1500291000.0 -0.884481443 0.4681613573
1505290970.0 -0.8833680611 0.4693088532
1510290940.0 -0.8830819708 0.4705872491
1515290910.0 -0.8820898716 0.4723483953
1520290880.0 -0.8811849716 0.4730761278
1525290850.0 -0.8806507918 0.4749391402
1530290820.0 -0.8802567306 0.4767374125
1535290790.0 -0.8790855672 0.4780275245
1540290760.0 -0.8782895924 0.4797769054
1545290730.0 -0.8780454963 0.4811228059
1550290700.0 -0.8770524852 0.482411004
1555290670.0 -0.8758982953 0.4839840534
1560290640.0 -0.8751835913 0.4848916934
1565290610.0 -0.8747073076 0.4867025431
1570290580.0 -0.8733522568 0.4875503707
1575290550.0 -0.8727908958 0.4889956403
1580290520.0 -0.8720299369 0.4904624538
1585290490.0 -0.8705349597 0.4922575758
1590290460.0 -0.8698411697 0.4937630649
1595290430.0 -0.8696383145 0.4953659087
1600290400.0 -0.8686908769 0.4963960571
1605290370.0 -0.8678133609 0.4979373631
1610290340.0 -0.8667611129 0.4989815648
1615290310.0 -0.8658184647 0.5005294967
1620290280.0 -0.8653715938 0.5022189877
1625290250.0 -0.8645171084 0.502869997
1630290220.0 -0.8637900956 0.504769018
1635290190.0 -0.863134518 0.5057195373
1640290160.0 -0.8623659227 0.5069886365
1645290130.0 -0.8615993349 0.5085198908
1650290100.0 -0.8604508177 0.5097519551
1655290070.0 -0.8595106002 0.5118462314
1660290040.0 -0.8589008869 0.5126597662
1665290010.0 -0.8579149634 0.5136194267
1670289980.0 -0.8574179718 0.5151038908
1675289950.0 -0.8562141291 0.5168428897
1680289920.0 -0.8552403922 0.5183217727
1685289890.0 -0.8539551751 0.5195745505
1690289860.0 -0.8529901519 0.52115422
1695289830.0 -0.8524931209 0.5230501511
1700289800.0 -0.8517465221 0.5236656794
1705289770.0 -0.8509388728 0.5256462082
1710289740.0 -0.8501680615 0.5264832771
1715289710.0 -0.8490305931 0.5278086497
1720289680.0 -0.8479959015 0.5297937451
1725289650.0 -0.8466445416 0.5306286536
1730289620.0 -0.846351884 0.5327109386
1735289590.0 -0.8457568341 0.5336212442
1740289560.0 -0.8449569391 0.5347792892
1745289530.0 -0.8439396628 0.5362320156
1750289500.0 -0.8427621165 0.5373272106
1755289470.0 -0.8423779046 0.5385320988
1760289440.0 -0.8417601302 0.5405067711
1765289410.0 -0.840510453 0.5414367337
1770289380.0 -0.8400392683 0.5422039264
1775289350.0 -0.8384379271 0.5442414907
1780289320.0 -0.8376259853 0.5450618833
1785289290.0 -0.8363027374 0.5465865292
1790289260.0 -0.8358240207 0.5483154036
1795289230.0 -0.8346929067 0.5495819252
1800289200.0 -0.8339036692 0.5513459298
1805289170.0 -0.8332545462 0.5525636294
1810289140.0 -0.8328253759 0.5539264306
1815289110.0 -0.8315626768 0.5548516124
1820289080.0 -0.8307687342 0.5558759201
1825289050.0 -0.8300022469 0.5568513788
1830289020.0 -0.8290384065 0.5582852837
1835288990.0 -0.8278279514 0.55947251
1840288960.0 -0.8275490024 0.5608192962
1845288930.0 -0.826553376 0.5616172756
1850288900.0 -0.8251341187 0.5634548711
1855288870.0 -0.82447041 0.5651740902
1860288840.0 -0.8232351311 0.5664070563
1865288810.0 -0.8221685218 0.5682121405
1870288780.0 -0.8215173961 0.5697158939
1875288750.0 -0.8204212166 0.5702028031
1880288720.0 -0.8191626146 0.5720892993
1885288690.0 -0.8179832807 0.5733236492
1890288660.0 -0.8171069298 0.5754351026
1895288630.0 -0.8168635761 0.5763787897
1900288600.0 -0.8157720375 0.5777040411
1905288570.0 -0.8143900731 0.5790455609
1910288540.0 -0.8132684755 0.5802130905
1915288510.0 -0.8129749001 0.5816038483
1920288480.0 -0.8115136222 0.582869439
1925288450.0 -0.8105451588 0.5838115219
1930288420.0 -0.8096334689 0.5858154762
1935288390.0 -0.8082788883 0.5869641925
1940288360.0 -0.8069755524 0.5883828549
1945288330.0 -0.8067284852 0.5898636492
1950288300.0 -0.805270343 0.5903323187
1955288270.0 -0.8035009448 0.592452871
1960288240.0 -0.8033581862 0.5944936593
1965288210.0 -0.8021194629 0.5952705514
1970288180.0 -0.8010056549 0.5973839828
1975288150.0 -0.800683741 0.5979556739
1980288120.0 -0.7996943777 0.5986870274
1985288090.0 -0.79921774 0.599412331
1990288060.0 -0.7977425845 0.6007063203
1995288030.0 -0.7974625801 0.6025577262
2000288000.0 -0.7961588435 0.6035538656
2005287970.0 -0.795383771 0.6042353729
2010287940.0 -0.7942295767 0.6059385838
2015287910.0 -0.7931253017 0.6074325121
2020287880.0 -0.7923235009 0.6084774621
2025287850.0 -0.7915663486 0.6104608352
2030287820.0 -0.7902985766 0.6110049151
2035287790.0 -0.7889184304 0.6130009851
2040287760.0 -0.7874763858 0.6140157806
2045287730.0 -0.7869846564 0.6151143317
2050287700.0 -0.7856945605 0.616889791
2055287670.0 -0.7845367917 0.617616059
2060287640.0 -0.7832896638 0.6186444593
2065287610.0 -0.7830891865 0.6204408465
2070287580.0 -0.7819848475 0.6213061824
2075287550.0 -0.7801489432 0.6230525018
2080287520.0 -0.7798408335 0.6242460555
2085287490.0 -0.7792165264 0.6246729152
2090287460.0 -0.7775836257 0.6264813325
2095287430.0 -0.7766077278 0.6280743397
2100287400.0 -0.7757230326 0.6295967135
2105287370.0 -0.774516748 0.6307088778
2110287340.0 -0.7733225413 0.6319020623
2115287310.0 -0.7725317413 0.6328841416
2120287280.0 -0.7716263718 0.6343120159
2125287250.0 -0.7707779354 0.6353323803
2130287220.0 -0.7693555849 0.6369302983
2135287190.0 -0.7681205026 0.6384458222
2140287160.0 -0.7674585341 0.6392291248
2145287130.0 -0.7659421495 0.6410055128
2150287100.0 -0.7647703035 0.6425955174
2155287070.0 -0.7634446127 0.643251694
2160287040.0 -0.7627585029 0.6442265964
2165287010.0 -0.7617948202 0.6455718068
2170286980.0 -0.7605109521 0.6465962119
2175286950.0 -0.7599176692 0.6482273615
2180286920.0 -0.7590150944 0.6489491655
2185286890.0 -0.7580759064 0.6498713052
2190286860.0 -0.757270259 0.6506788684
2195286830.0 -0.7566190806 0.6518832812
2200286800.0 -0.7555828129 0.652900448
2205286770.0 -0.7543549823 0.6545567933
2210286740.0 -0.753164127 0.6551829844
2215286710.0 -0.7520115724 0.6566876835
2220286680.0 -0.7507219633 0.6587657942
2225286650.0 -0.7497960489 0.6592919899
2230286620.0 -0.7488397694 0.6602476276
2235286590.0 -0.7476488933 0.6617316101
2240286560.0 -0.7464048032 0.6625556684
2245286530.0 -0.7453537648 0.6646802307
2250286500.0 -0.7438975114 0.6658155942
2255286470.0 -0.7426735277 0.667092109
2260286440.0 -0.7418265491 0.6680083822
2265286410.0 -0.740188928 0.6695687204
2270286380.0 -0.7393884291 0.6707880464
2275286350.0 -0.7388701296 0.6720042996
2280286320.0 -0.737631253 0.6737343026
2285286290.0 -0.7364137299 0.674446586
2290286260.0 -0.7346882325 0.6762545384
2295286230.0 -0.7337421153 0.6774344278
2300286200.0 -0.7327460254 0.6785575615
2305286170.0 -0.7314153563 0.6798662893
2310286140.0 -0.7303188067 0.681194597
2315286110.0 -0.72908533 0.6819920549
2320286080.0 -0.7279882169 0.6831665423
2325286050.0 -0.7268425062 0.6840136293
2330286020.0 -0.7260807713 0.6853824403
2335285990.0 -0.7251298262 0.6871307154
2340285960.0 -0.7237158397 0.6881919301
2345285930.0 -0.7232762858 0.6890114514
2350285900.0 -0.7220978546 0.6900435083
2355285870.0 -0.7205135144 0.6920190233
2360285840.0 -0.7193821557 0.6930379483
2365285810.0 -0.7184427806 0.6935571561
2370285780.0 -0.7174147519 0.6951136201
2375285750.0 -0.7162334097 0.6957927133
2380285720.0 -0.7153394996 0.6968898017
2385285690.0 -0.7150569367 0.6982996851
2390285660.0 -0.713419636 0.6995657839
2395285630.0 -0.7118525567 0.7001998923
2400285600.0 -0.7109405595 0.7013729062
2405285570.0 -0.7099063551 0.7023431254
2410285540.0 -0.7090301881 0.703287059
2415285510.0 -0.7079804244 0.7042523765
2420285480.0 -0.7069146528 0.7051969473
2425285450.0 -0.705499567 0.706583101
2430285420.0 -0.7047485435 0.7079219573
2435285390.0 -0.7031262731 0.7089003747
2440285360.0 -0.7023308114 0.7093632033
2445285330.0 -0.7006313765 0.7109797639
2450285300.0 -0.7002497732 0.7128343098
2455285270.0 -0.6986461679 0.713418215
2460285240.0 -0.6975528698 0.7144593483
2465285210.0 -0.6959445144 0.7159264481
2470285180.0 -0.6950963265 0.7167385738
2475285150.0 -0.6935719959 0.7178594031
2480285120.0 -0.6926973671 0.7194317781
2485285090.0 -0.6913901276 0.7208752695
2490285060.0 -0.6901877066 0.7215667117
2495285030.0 -0.6890302647 0.7224053209
2500285000.0 -0.6876937473 0.7239602747
2505284970.0 -0.6864435793 0.7256928261
2510284940.0 -0.6856368217 0.7263095779
2515284910.0 -0.6842243546 0.7273208435
2520284880.0 -0.6831862932 0.7286976363
2525284850.0 -0.6815630377 0.7297206367
2530284820.0 -0.6811424999 0.7305969174
