!Created with skrf (http://scikit-rf.org).
# Hz S RI R 50.0 
!freq ReS11 ImS11
300000.0 -0.0039331136 -0.0413019869
5299970.0 -4.99184e-05 -0.000699642
10299940.0 -4.74975e-05 -0.0009261845
15299910.0 0.0003414474 7.53708e-05
20299880.0 0.0002482819 -0.0004448408
25299850.0 0.0004261612 -2.98634e-05
30299820.0 0.0003180301 0.0001447507
35299790.0 0.0004072628 -4.91922e-05
40299760.0 0.000327269 -8.49379e-05
45299730.0 0.0002915082 -0.0001926906
50299700.0 0.000367903 1.86557e-05
55299670.0 0.0002761414 0.0001768713
60299640.0 0.0004428476 0.0001255316
65299610.0 0.0004447019 -0.00029906
70299580.0 0.0004531165 -9.24109e-05
75299550.0 0.0005311917 1.04139e-05
80299520.0 0.0003058244 -7.17868e-05
85299490.0 0.0003875219 -1.72029e-05
90299460.0 0.0003775772 9.42545e-05
95299430.0 0.0003893247 4.71673e-05
100299400.0 0.0003988707 -3.55155e-05
105299370.0 0.0005496027 -4.11265e-05
110299340.0 0.0006099113 -0.0001007718
115299310.0 0.0002947646 -2.771e-07
120299280.0 0.000498186 -2.84878e-05
125299250.0 0.0004112714 4.42631e-05
130299220.0 0.0005279875 0.0003250723
135299190.0 0.0003511878 -3.43895e-05
140299160.0 0.0004099198 0.0003056224
145299130.0 0.0003612877 2.01862e-05
150299100.0 0.0003412354 -0.0001260316
155299070.0 0.0003566454 8.2545e-05
160299040.0 0.0002595126 2.93858e-05
165299010.0 0.0003703742 0.0002116533
170298980.0 0.0005833246 0.000289029
175298950.0 0.0003147509 5.89595e-05
180298920.0 0.0003759982 0.0001244029
185298890.0 0.0002276061 0.0001481134
190298860.0 0.0004109088 8.015e-05
195298830.0 0.0004974606 -5.2237e-06
200298800.0 0.0002902184 0.0001373637
205298770.0 0.0005691459 3.47195e-05
210298740.0 0.0004693214 0.0002195256
215298710.0 0.000562611 0.0002157473
220298680.0 0.0004645947 0.0003413482
225298650.0 0.0005267424 0.000260427
230298620.0 0.0003994017 0.0001459126
235298590.0 0.0003269616 0.0001559153
240298560.0 0.0005745269 0.000317659
245298530.0 0.0003539699 0.0001880278
250298500.0 0.0005191806 0.0001932739
255298470.0 0.0004024586 0.0003377766
260298440.0 0.0004002208 0.0003077596
265298410.0 0.0003705912 0.0001993156
270298380.0 0.0002642392 0.0003430755
275298350.0 0.0002659218 0.0001228649
280298320.0 0.0003844637 0.0002062054
285298290.0 0.0006461275 -2.5367e-06
290298260.0 0.0004995884 0.0001062947
295298230.0 0.000267224 0.0001469594
300298200.0 0.0003767572 0.0002509993
305298170.0 0.0002015152 0.0001736622
310298140.0 0.0003104851 0.0002943305
315298110.0 0.0003248363 0.0001065808
320298080.0 0.0004741037 0.0004294285
325298050.0 0.0003398045 9.29186e-05
330298020.0 0.0002671451 0.0001770612
335297990.0 0.0003506139 0.0001908747
340297960.0 0.0004390745 9.74987e-05
345297930.0 0.0003392074 0.0002629647
350297900.0 0.0004263794 0.0002695288
355297870.0 0.0005647588 7.42164e-05
360297840.0 0.0003695902 3.82702e-05
365297810.0 0.0004110699 -0.0001271428
370297780.0 0.0004755885 0.0001046851
375297750.0 0.0001968952 0.0002801336
380297720.0 0.0005041275 0.00025521
385297690.0 0.000246312 0.0001986836
390297660.0 0.0004866009 0.0002568224
395297630.0 0.000359362 0.0001792188
400297600.0 0.0002456872 0.0002020464
405297570.0 0.0003061687 0.0001450049
410297540.0 0.0004346896 0.0002487873
415297510.0 0.0001904543 0.0003058168
420297480.0 0.0001804765 0.0003074203
425297450.0 0.0003866111 0.0001901605
430297420.0 0.0002020357 0.0002559845
435297390.0 0.0002567502 0.0003750659
440297360.0 0.000338619 0.0003695925
445297330.0 0.0001561027 0.0001562248
450297300.0 0.000228696 0.0003006268
455297270.0 0.0002269155 0.0001453193
460297240.0 0.0002693742 0.0002885419
465297210.0 0.0002467106 0.000475605
470297180.0 0.0001586849 0.0002313163
475297150.0 0.0001270917 0.0001852544
480297120.0 0.000118355 0.0001227076
485297090.0 -1.69093e-05 0.0002297421
490297060.0 0.0003876435 0.00034392
495297030.0 3.38299e-05 0.0003872071
500297000.0 7.61299e-05 0.0001791471
505296970.0 6.33996e-05 0.0004318733
510296940.0 7.38309e-05 0.0004138883
515296910.0 -3.77513e-05 0.0005171626
520296880.0 0.0002925904 0.0004214594
525296850.0 0.0001426847 0.000481542
530296820.0 9.38269e-05 0.0004187226
535296790.0 0.0002082507 0.0002255594
540296760.0 0.0001040842 0.0006282711
545296730.0 2.86289e-05 0.0003622172
550296700.0 0.0002682132 0.0004253022
555296670.0 3.6673e-06 0.0001010904
560296640.0 3.81051e-05 0.0004185851
565296610.0 0.0002858676 0.0002697456
570296580.0 0.0002127374 0.0002191722
575296550.0 -5.29643e-05 0.0003448595
580296520.0 0.0002009854 0.0002746639
585296490.0 0.0001298351 0.0003917388
590296460.0 0.0002188997 0.0003086591
595296430.0 0.0001252644 0.0003598423
600296400.0 0.0002219491 0.0004191452
605296370.0 0.0002905099 0.0003580777
610296340.0 0.0001856316 0.0002887481
615296310.0 0.0003069533 0.0001445813
620296280.0 0.0001725174 0.000222617
625296250.0 -8.24532e-05 0.0002829912
630296220.0 8.87873e-05 0.0003411911
635296190.0 4.1363e-05 0.0002588313
640296160.0 0.0001198599 0.0001421928
645296130.0 0.0001387089 0.0003085683
650296100.0 1.93218e-05 0.0003266302
655296070.0 0.0002814014 0.0002734387
660296040.0 0.0001375578 0.0002699725
665296010.0 0.0003754602 0.0002869605
670295980.0 0.0001469055 0.0001643623
675295950.0 0.0001605264 0.0001199195
680295920.0 6.35343e-05 0.0001968435
685295890.0 -1.18909e-05 0.0003090445
690295860.0 -7.17056e-05 0.0002894943
695295830.0 2.52037e-05 0.0002052489
700295800.0 6.29066e-05 0.0001730239
705295770.0 -1.21289e-05 0.0003742551
710295740.0 0.0002169655 0.0002059464
715295710.0 8.6169e-05 0.0003529736
720295680.0 -4.5831e-06 0.0003374803
725295650.0 0.0002489598 0.0004642593
730295620.0 7.24493e-05 0.000336492
735295590.0 0.000301502 0.0001907136
740295560.0 -2.2117e-06 0.0003652325
745295530.0 -1.03564e-05 0.0003725757
750295500.0 0.0001041633 0.0002160309
755295470.0 0.0001601867 0.0002541798
760295440.0 0.0001876244 0.0003998256
765295410.0 7.91488e-05 0.0002798764
770295380.0 6.59504e-05 0.0003013596
775295350.0 0.0002090574 0.0001314851
780295320.0 -4.39302e-05 0.0001511077
785295290.0 2.10274e-05 0.0003333939
790295260.0 -3.54154e-05 0.0001142156
795295230.0 8.13984e-05 0.0002696124
800295200.0 -8.4365e-06 0.0001036387
805295170.0 0.0002298575 0.0001033033
810295140.0 -4.567e-06 1.93629e-05
815295110.0 -3.0439e-05 0.000168516
820295080.0 3.95087e-05 -2.6945e-06
825295050.0 -8.38693e-05 -3.7163e-06
830295020.0 1.12843e-05 0.0003326272
835294990.0 0.0001537134 0.0001115254
840294960.0 -1.54538e-05 0.0001383231
845294930.0 0.0002976443 0.000116835
850294900.0 8.89152e-05 0.0002723898
855294870.0 -0.0001018046 0.000158209
860294840.0 -3.3117e-05 -8.9026e-06
865294810.0 3.44714e-05 -8.8021e-05
870294780.0 3.93137e-05 -2.5246e-05
875294750.0 0.0001983084 7.92762e-05
880294720.0 0.000236493 0.0001520826
885294690.0 1.06998e-05 9.71241e-05
890294660.0 -3.16918e-05 0.0001152622
895294630.0 4.57309e-05 7.63793e-05
900294600.0 6.35916e-05 0.0001157213
905294570.0 0.0002636724 0.0001355686
910294540.0 0.0002047683 9.59925e-05
915294510.0 7.63401e-05 2.85974e-05
920294480.0 2.54267e-05 -3.31437e-05
925294450.0 0.0001580783 -0.0002352901
930294420.0 -6.57143e-05 -6.71553e-05
935294390.0 -0.0001053037 -8.63453e-05
940294360.0 0.0001751325 -0.0002086272
945294330.0 0.0001629019 1.6335e-05
950294300.0 0.0002653374 -0.0002822886
955294270.0 -8.25034e-05 -1.94814e-05
960294240.0 4.66315e-05 -0.0001204879
965294210.0 0.0001354422 -0.0001058602
970294180.0 -0.0001062792 -6.47791e-05
975294150.0 -4.2927e-06 -0.0001150585
980294120.0 7.40152e-05 -0.0002940223
985294090.0 -6.13722e-05 -6.7124e-05
990294060.0 0.0001866846 -0.0001348703
995294030.0 9.5844e-06 -0.0001813131
1000294000.0 2.98695e-05 -0.0002933773
1005293970.0 4.88869e-05 -0.0001880636
1010293940.0 4.26557e-05 -0.000211066
1015293910.0 9.93844e-05 -5.56752e-05
1020293880.0 0.0002040401 -0.0002960568
1025293850.0 5.73652e-05 -0.0003708627
1030293820.0 9.86121e-05 -8.8269e-05
1035293790.0 0.000165678 -0.0002196213
1040293760.0 0.0005002248 -0.000323411
1045293730.0 0.0001656146 -0.0004166999
1050293700.0 3.69471e-05 -0.0004100373
1055293670.0 8.68264e-05 -0.0004697066
1060293640.0 0.0001305635 -0.0002225904
1065293610.0 0.0002419818 -0.0002125247
1070293580.0 0.000141219 -0.0002796904
1075293550.0 0.000148419 -0.0001886098
1080293520.0 -9.2533e-06 -0.0003124066
1085293490.0 0.0001123926 -0.0002633255
1090293460.0 6.06309e-05 -0.0002034444
1095293430.0 0.0001790707 -0.0004040887
1100293400.0 0.0002572746 -0.0004534439
1105293370.0 0.000161662 -0.0003318953
1110293340.0 0.0002355128 -0.0002256288
1115293310.0 0.0003316723 -0.0002443377
1120293280.0 0.0002654152 -0.0003047154
1125293250.0 0.0001850142 -0.0004524763
1130293220.0 0.0002066034 -0.0001760075
1135293190.0 0.000159537 -0.0001397203
1140293160.0 1.68311e-05 -0.0003195514
1145293130.0 6.69724e-05 -0.0003524224
1150293100.0 -5.64463e-05 -0.0001183952
1155293070.0 -0.0003016971 -0.0003317056
1160293040.0 -0.0001627434 -0.0001151986
1165293010.0 -0.0001805592 -0.0002274067
1170292980.0 -0.0001172127 -0.0002357831
1175292950.0 -6.7222e-06 -0.0003545947
1180292920.0 -4.45327e-05 -0.0001177575
1185292890.0 9.2323e-05 -0.0003527465
1190292860.0 0.000242361 -0.0003214009
1195292830.0 0.0005779442 -0.0003111905
1200292800.0 0.0004284517 -0.0005635726
1205292770.0 0.000185331 -0.000510514
1210292740.0 0.0004114784 -0.000652186
1215292710.0 0.0002328074 -0.0007239164
1220292680.0 0.0002454319 -0.0005858698
1225292650.0 0.000198709 -0.0006281639
1230292620.0 0.0002881804 -0.0003821269
1235292590.0 0.0004868109 -0.0005028206
1240292560.0 0.0005895541 -0.0006891835
1245292530.0 0.000576747 -0.0005365791
1250292500.0 0.0003559511 -0.0005915531
1255292470.0 0.0005885336 -0.0004827898
1260292440.0 0.0004859214 -0.0006680918
1265292410.0 0.0005030662 -0.0006017049
1270292380.0 0.0006205142 -0.0004912572
1275292350.0 0.0005858694 -0.0007148362
1280292320.0 0.0006728009 -0.0005833576
1285292290.0 0.0005069362 -0.0005515096
1290292260.0 0.000378616 -0.0007393892
1295292230.0 0.0004707489 -0.0006199077
1300292200.0 0.0007194792 -0.0004922527
1305292170.0 0.00048175 -0.0007195761
1310292140.0 0.0005206436 -0.0006421952
1315292110.0 0.0004559426 -0.0005921459
1320292080.0 0.000590739 -0.0005311372
1325292050.0 0.0006244406 -0.0004830064
1330292020.0 0.0008306087 -0.0005848565
1335291990.0 0.0005969759 -0.0007122235
1340291960.0 0.0006833597 -0.0006353543
1345291930.0 0.0005346187 -0.0007463681
1350291900.0 0.0006608889 -0.0007514318
1355291870.0 0.000788073 -0.0007381601
1360291840.0 0.0007635626 -0.0007325225
1365291810.0 0.0007121121 -0.0006676554
1370291780.0 0.0007866194 -0.0007149788
1375291750.0 0.0005655189 -0.0008343234
1380291720.0 0.0006530802 -0.0009618623
1385291690.0 0.0008135281 -0.0006725841
1390291660.0 0.0006517626 -0.0007885494
1395291630.0 0.0008828856 -0.0006756059
1400291600.0 0.0007913929 -0.000691739
1405291570.0 0.0007419289 -0.0006668014
1410291540.0 0.0009554336 -0.0007279841
1415291510.0 0.0009018462 -0.0007291076
1420291480.0 0.0007245929 -0.0009266329
1425291450.0 0.0008200175 -0.0006998176
1430291420.0 0.0007426029 -0.0007970117
1435291390.0 0.0009559412 -0.0007483687
1440291360.0 0.0008358142 -0.0009189139
1445291330.0 0.0007636178 -0.0006729406
1450291300.0 0.0009880794 -0.0009051865
1455291270.0 0.0009505622 -0.0008206932
1460291240.0 0.000893655 -0.0007328106
1465291210.0 0.0010212976 -0.0008965726
1470291180.0 0.0009273647 -0.0007507455
1475291150.0 0.0008835237 -0.0006497688
1480291120.0 0.0010799908 -0.0008527192
1485291090.0 0.0011124797 -0.0007574629
1490291060.0 0.0008310726 -0.0008276426
1495291030.0 0.0010789074 -0.0009327694
1500291000.0 0.0009814613 -0.0008540758
1505290970.0 0.001006619 -0.0009124802
1510290940.0 0.0010423036 -0.0008453572
1515290910.0 0.0011123728 -0.0007748397
1520290880.0 0.0009643165 -0.0009172574
1525290850.0 0.0010136251 -0.0008537448
1530290820.0 0.0008852373 -0.0007452644
1535290790.0 0.0008562923 -0.000909622
1540290760.0 0.001048291 -0.0009316427
1545290730.0 0.0014590328 -0.0008731458
1550290700.0 0.0013661786 -0.000877098
1555290670.0 0.0012185627 -0.0010446617
1560290640.0 0.0014124979 -0.0009652907
1565290610.0 0.0010669431 -0.0009570305
1570290580.0 0.0011932794 -0.0009581683
1575290550.0 0.0011617972 -0.0010248635
1580290520.0 0.001366607 -0.0007684151
1585290490.0 0.0013646393 -0.0006480718
1590290460.0 0.0011578172 -0.0009688378
1595290430.0 0.0012795793 -0.0010298218
1600290400.0 0.001281506 -0.0008683629
1605290370.0 0.0015011343 -0.0010092806
1610290340.0 0.0014265581 -0.0012463022
1615290310.0 0.0014376396 -0.0008433789
1620290280.0 0.0015359354 -0.000792417
1625290250.0 0.0014526259 -0.0009221558
1630290220.0 0.0014009092 -0.0010296815
1635290190.0 0.0014560235 -0.0010334965
1640290160.0 0.001473488 -0.0010513539
1645290130.0 0.0015587927 -0.000930493
1650290100.0 0.0014153452 -0.0011119073
1655290070.0 0.0014514651 -0.0011174549
1660290040.0 0.0014522682 -0.0011757657
1665290010.0 0.0016679321 -0.0010939492
1670289980.0 0.0013876725 -0.0011693852
1675289950.0 0.0016039977 -0.0012049458
1680289920.0 0.0015792702 -0.0012735883
1685289890.0 0.0016597706 -0.00117607
1690289860.0 0.0016422698 -0.0011229226
1695289830.0 0.0015559602 -0.0011642308
1700289800.0 0.0017289139 -0.0011406224
1705289770.0 0.001610212 -0.0010126113
1710289740.0 0.0018410571 -0.000924595
1715289710.0 0.0017121962 -0.0010491856
1720289680.0 0.0016561089 -0.0011471622
1725289650.0 0.0016760808 -0.001017572
1730289620.0 0.0017310613 -0.0011068533
1735289590.0 0.0017170294 -0.0009927816
1740289560.0 0.0016910047 -0.0009494093
1745289530.0 0.0018783034 -0.0009454166
1750289500.0 0.0017516464 -0.0011857207
1755289470.0 0.0018255979 -0.00120161
1760289440.0 0.0017703284 -0.0010450262
1765289410.0 0.0017986887 -0.0012488057
1770289380.0 0.0018164942 -0.0010164526
1775289350.0 0.0018896521 -0.0010405889
1780289320.0 0.0019912666 -0.0010883083
1785289290.0 0.0019889305 -0.0010216454
1790289260.0 0.0017179148 -0.0012165441
1795289230.0 0.0019227555 -0.0012986162
1800289200.0 0.0019694591 -0.0011777883
1805289170.0 0.0021289697 -0.0010495787
1810289140.0 0.0021659683 -0.0010983432
1815289110.0 0.0019469969 -0.0012696249
1820289080.0 0.0019230671 -0.0010225636
1825289050.0 0.001956992 -0.0011590904
1830289020.0 0.0020240804 -0.001029859
1835288990.0 0.0020887733 -0.0011993262
1840288960.0 0.0020957746 -0.0012659884
1845288930.0 0.0021369123 -0.00092812
1850288900.0 0.002278724 -0.0010991428
1855288870.0 0.0021075945 -0.0009362643
1860288840.0 0.0022287378 -0.0010330191
1865288810.0 0.0022285599 -0.0009072989
1870288780.0 0.0020585982 -0.0012176115
1875288750.0 0.0021331065 -0.0011885641
1880288720.0 0.0022127986 -0.0012139911
1885288690.0 0.0021543477 -0.0012707076
1890288660.0 0.0021446027 -0.0011031689
1895288630.0 0.0022615298 -0.0010660821
1900288600.0 0.0023314855 -0.0011254997
1905288570.0 0.002443817 -0.0009511793
1910288540.0 0.0023754075 -0.0010657868
1915288510.0 0.0022251284 -0.0010226421
1920288480.0 0.0024509557 -0.0009273091
1925288450.0 0.0024461376 -0.0010596674
1930288420.0 0.0024134084 -0.0009131248
1935288390.0 0.0024418196 -0.0009533519
1940288360.0 0.0024768179 -0.0008892693
1945288330.0 0.002259566 -0.0011363354
1950288300.0 0.0024646943 -0.0010249327
1955288270.0 0.0024417347 -0.0010525011
1960288240.0 0.0024529817 -0.0010575714
1965288210.0 0.0022602403 -0.0010791454
1970288180.0 0.0025912907 -0.0011034963
1975288150.0 0.0026051458 -0.0010549861
1980288120.0 0.0024658199 -0.0008026471
1985288090.0 0.0025540783 -0.0009396778
1990288060.0 0.0025484238 -0.0008935258
1995288030.0 0.0023118024 -0.0009306867
2000288000.0 0.0024159197 -0.0009745543
2005287970.0 0.002662766 -0.0010640715
2010287940.0 0.0026549825 -0.0008919944
2015287910.0 0.0026764751 -0.0008752073
2020287880.0 0.0027964469 -0.0010636075
2025287850.0 0.0025937761 -0.0011043832
2030287820.0 0.002695948 -0.0008085844
2035287790.0 0.0028027025 -0.0010479977
2040287760.0 0.0026973177 -0.0009975493
2045287730.0 0.0026039279 -0.0009336862
2050287700.0 0.0025930489 -0.0009383816
2055287670.0 0.0026982289 -0.0009471524
2060287640.0 0.0028090231 -0.0010260982
2065287610.0 0.0028316403 -0.000942803
2070287580.0 0.0027205075 -0.0008336877
2075287550.0 0.0026169267 -0.0008902733
2080287520.0 0.00287587 -0.0008088776
2085287490.0 0.0027452614 -0.0010348519
2090287460.0 0.0029982918 -0.0008264263
2095287430.0 0.0028061198 -0.0009716571
2100287400.0 0.0029138772 -0.0009764015
2105287370.0 0.0027239868 -0.0008243893
2110287340.0 0.0028764517 -0.0009310218
2115287310.0 0.0027838995 -0.0009995004
2120287280.0 0.0030119989 -0.0008298492
2125287250.0 0.0029502319 -0.0008973257
2130287220.0 0.0028291659 -0.0007132672
2135287190.0 0.0027830042 -0.0009562693
2140287160.0 0.0030043586 -0.0008446879
2145287130.0 0.0030783986 -0.0009681879
2150287100.0 0.00307572 -0.0008216169
2155287070.0 0.003099961 -0.0010562339
2160287040.0 0.0030637165 -0.0007715365
2165287010.0 0.0029348671 -0.0006853483
2170286980.0 0.0031038937 -0.0008228987
2175286950.0 0.0030239621 -0.0007453387
2180286920.0 0.0029827486 -0.0007357557
2185286890.0 0.0030051306 -0.0009209454
2190286860.0 0.0030879382 -0.0007131027
2195286830.0 0.0031111512 -0.0009307089
2200286800.0 0.0032643295 -0.000783709
2205286770.0 0.0027233767 -0.0008345834
2210286740.0 0.0030546347 -0.0006850496
2215286710.0 0.0029352841 -0.0009639212
2220286680.0 0.0031857588 -0.0005692754
2225286650.0 0.0031827456 -0.000655948
2230286620.0 0.0033400165 -0.0009091857
2235286590.0 0.0032597413 -0.0009625493
2240286560.0 0.0032868151 -0.0007518615
2245286530.0 0.0032577401 -0.0007582237
2250286500.0 0.0033228278 -0.0008934446
2255286470.0 0.0030556757 -0.0007129085
2260286440.0 0.0031518388 -0.0009450664
2265286410.0 0.0029718408 -0.0010012332
2270286380.0 0.0031823889 -0.00101911
2275286350.0 0.0033833342 -0.0009339164
2280286320.0 0.0032390957 -0.0008067842
2285286290.0 0.0034268432 -0.0007735726
2290286260.0 0.0032185766 -0.0008685366
2295286230.0 0.0032539568 -0.0007746191
2300286200.0 0.003425917 -0.0007610297
2305286170.0 0.0031484786 -0.0005006719
2310286140.0 0.0030901307 -0.0005061781
2315286110.0 0.0033929083 -0.0008582151
2320286080.0 0.0032190211 -0.0006779949
2325286050.0 0.003372079 -0.0009259273
2330286020.0 0.003077514 -0.0006299738
2335285990.0 0.003291612 -0.0006104238
2340285960.0 0.0032529058 -0.0006350784
2345285930.0 0.0032431233 -0.0007097394
2350285900.0 0.0033851332 -0.0006337226
2355285870.0 0.003355659 -0.0005951343
2360285840.0 0.0033388423 -0.0007259066
2365285810.0 0.0033477355 -0.0004444192
2370285780.0 0.0032977817 -0.0006174481
2375285750.0 0.0034848517 -0.0007649587
2380285720.0 0.0033799573 -0.0005134359
2385285690.0 0.0033150087 -0.0006573659
2390285660.0 0.0033159865 -0.0008118291
2395285630.0 0.003135083 -0.0008113499
2400285600.0 0.0032670869 -0.0004987646
2405285570.0 0.0033220911 -0.0006571873
2410285540.0 0.0031827387 -0.0005803944
2415285510.0 0.0033153095 -0.0009201503
2420285480.0 0.0034125956 -0.0007677404
2425285450.0 0.003227668 -0.0006543927
2430285420.0 0.003341538 -0.0005967542
2435285390.0 0.00315731 -0.0006302804
2440285360.0 0.0033198911 -0.0005843507
2445285330.0 0.0034589095 -0.0008194774
2450285300.0 0.0034278292 -0.0005607052
2455285270.0 0.0032907212 -0.0005157785
2460285240.0 0.0033447725 -0.0006622867
2465285210.0 0.0032435726 -0.0005181631
2470285180.0 0.0031395471 -0.00069255
2475285150.0 0.0033793125 -0.0005519453
2480285120.0 0.0032632481 -0.0005707784
2485285090.0 0.0034117187 -0.0007494144
2490285060.0 0.0033673608 -0.0005653441
2495285030.0 0.0032498772 -0.0005965931
2500285000.0 0.0032427892 -0.0006509317
2505284970.0 0.0033017662 -0.0009040275
2510284940.0 0.003359527 -0.0006268507
2515284910.0 0.0037966235 -0.0003747938
2520284880.0 0.0033554031 -0.0004943973
2525284850.0 0.0034432507 -0.0006087681
2530284820.0 0.003268928 -0.000617096
2535284790.0 0.00329472 -0.0005475989
2540284760.0 0.0033274736 -0.0007122598
2545284730.0 0.0033820816 -0.000516717
2550284700.0 0.0032199196 -0.000564713
2555284670.0 0.003348242 -0.0005235349
2560284640.0 0.0032106864 -0.000589871
