!Created with skrf (http://scikit-rf.org).
# Hz S RI R 50.0 
!freq ReS11 ImS11
300000.0 -1.026867696 -0.1741741828
5299970.0 -1.004070513 0.0016152321
10299940.0 -1.002376621 0.0009983457
15299910.0 -1.002758447 0.0072630772
20299880.0 -1.002387078 0.0062948648
25299850.0 -1.001891761 0.0088045989
30299820.0 -1.001985476 0.0116122525
35299790.0 -1.001807871 0.0112272048
40299760.0 -1.00168827 0.0126291664
45299730.0 -1.001326122 0.0147678458
50299700.0 -1.001389954 0.0163410352
55299670.0 -1.001259522 0.0178585671
60299640.0 -1.000904461 0.0185786498
65299610.0 -1.000879083 0.0203169234
70299580.0 -1.001158838 0.0218068927
75299550.0 -1.001183764 0.0233726062
80299520.0 -1.000960366 0.0247465639
85299490.0 -1.00066762 0.0261706334
90299460.0 -1.000485244 0.0276066115
95299430.0 -1.000703989 0.0291499409
100299400.0 -1.000794078 0.0303803718
105299370.0 -1.000410664 0.0321441034
110299340.0 -1.000400022 0.0337052062
115299310.0 -1.000030486 0.0351963363
120299280.0 -1.000032723 0.0367079024
125299250.0 -0.9996992547 0.0378610884
130299220.0 -1.000330299 0.0394835456
135299190.0 -0.9999970137 0.0409934575
140299160.0 -0.9995205329 0.0423173707
145299130.0 -0.9998825223 0.0436362664
150299100.0 -0.9999204149 0.045346312
155299070.0 -0.9995600019 0.0464706001
160299040.0 -0.9998305321 0.047986823
165299010.0 -0.9995519743 0.0493420009
170298980.0 -0.9993042753 0.0513188308
175298950.0 -0.9972048298 0.0522319576
180298920.0 -0.9966213924 0.0529346431
185298890.0 -0.998101966 0.0545703243
190298860.0 -0.9994223046 0.0567229308
195298830.0 -0.9992028663 0.0583124999
200298800.0 -0.999801417 0.0600673925
205298770.0 -0.9992230008 0.0617397721
210298740.0 -0.9990363487 0.0625565257
215298710.0 -0.9988342492 0.0642887778
220298680.0 -0.9989895186 0.0662603401
225298650.0 -0.9987446332 0.0670130541
230298620.0 -0.9986193953 0.069196455
235298590.0 -0.9989664793 0.070055295
240298560.0 -0.998720218 0.0713531333
245298530.0 -0.9985475617 0.0729740039
250298500.0 -0.9985789795 0.0746378262
255298470.0 -0.9981496657 0.0757273732
260298440.0 -0.9983207376 0.077460024
265298410.0 -0.9981673434 0.0784478024
270298380.0 -0.9982064007 0.0800648016
275298350.0 -0.9978807795 0.0816752985
280298320.0 -0.9978812366 0.0828865722
285298290.0 -0.9979657316 0.0842884936
290298260.0 -0.9974745783 0.0852647568
295298230.0 -0.9973926582 0.0869509529
300298200.0 -0.9972884582 0.0888014914
305298170.0 -0.9972726492 0.0902347721
310298140.0 -0.9974447828 0.091415915
315298110.0 -0.9968047379 0.0929298637
320298080.0 -0.9965339527 0.0946815878
325298050.0 -0.996332383 0.0961001506
330298020.0 -0.9968167127 0.0976030058
335297990.0 -0.9960564407 0.0993860956
340297960.0 -0.9964352926 0.1004293589
345297930.0 -0.9963718686 0.1019903065
350297900.0 -0.9970664788 0.1032644714
355297870.0 -0.9968224961 0.1050301552
360297840.0 -0.9962214117 0.1065143552
365297810.0 -0.9966390978 0.1077396941
370297780.0 -0.995626633 0.1090382166
375297750.0 -0.9950610414 0.1103079768
380297720.0 -0.9953234638 0.1119951302
385297690.0 -0.9953899839 0.1131634046
390297660.0 -0.9949932229 0.1148629894
395297630.0 -0.9946425788 0.1168891348
400297600.0 -0.9945304688 0.1182659007
405297570.0 -0.9946352162 0.1194171916
410297540.0 -0.9940928431 0.121265145
415297510.0 -0.9939934892 0.1225258927
420297480.0 -0.9940133057 0.1236763282
425297450.0 -0.9936544179 0.1252138263
430297420.0 -0.9938297131 0.1267839917
435297390.0 -0.993351891 0.128453142
440297360.0 -0.993062137 0.1298146278
445297330.0 -0.9930905583 0.1313499923
450297300.0 -0.9930463075 0.1323503807
455297270.0 -0.9929772392 0.1340305323
460297240.0 -0.9929519446 0.1351631909
465297210.0 -0.9923313314 0.1369136662
470297180.0 -0.9923185944 0.1383647944
475297150.0 -0.992073301 0.1399390013
480297120.0 -0.9919824776 0.1413709985
485297090.0 -0.9915724769 0.1430559858
490297060.0 -0.9912535071 0.1443446308
495297030.0 -0.9910561977 0.1448683258
500297000.0 -0.990598477 0.1470335429
505296970.0 -0.9903777812 0.1484791919
510296940.0 -0.9910305117 0.1494757769
515296910.0 -0.9903443626 0.15107334
520296880.0 -0.9908786033 0.1524186306
525296850.0 -0.990760845 0.1540205268
530296820.0 -0.9904647017 0.1553738331
535296790.0 -0.9900519866 0.1564498807
540296760.0 -0.9903992842 0.1588691091
545296730.0 -0.990059079 0.159963225
550296700.0 -0.9896716435 0.1612203744
555296670.0 -0.9889117706 0.1624777659
560296640.0 -0.987897496 0.1643818279
565296610.0 -0.9884809361 0.165663056
570296580.0 -0.9884261878 0.1672103012
575296550.0 -0.9877336466 0.1696505159
580296520.0 -0.9878858473 0.1703156255
585296490.0 -0.9872358157 0.1718568004
590296460.0 -0.9871065431 0.1731309978
595296430.0 -0.986824815 0.1746812489
600296400.0 -0.9864692067 0.1769632238
605296370.0 -0.985643056 0.1773260513
610296340.0 -0.9858083324 0.1785101522
615296310.0 -0.9855783238 0.1798892797
620296280.0 -0.9854171 0.1812420675
625296250.0 -0.9854975849 0.1826489161
630296220.0 -0.9848524651 0.1843849928
635296190.0 -0.9847308721 0.1856574413
640296160.0 -0.9842653402 0.1870904568
645296130.0 -0.9843540633 0.1884429773
650296100.0 -0.9833982717 0.190022265
655296070.0 -0.9830354771 0.1915025129
660296040.0 -0.9829955302 0.1928355007
665296010.0 -0.9828238301 0.193879654
670295980.0 -0.9831323863 0.1956128572
675295950.0 -0.9822264905 0.1971136389
680295920.0 -0.9821386238 0.1983208008
685295890.0 -0.982219541 0.2002713098
690295860.0 -0.9819032992 0.2008822797
695295830.0 -0.9816996508 0.2026983725
700295800.0 -0.980622575 0.2041358794
705295770.0 -0.9806860255 0.2057748631
710295740.0 -0.9806281765 0.2069780775
715295710.0 -0.9805868562 0.20893607
720295680.0 -0.9803357498 0.2105932611
725295650.0 -0.9795836024 0.2111856648
730295620.0 -0.9794189485 0.2131524465
735295590.0 -0.9786491204 0.2135731613
740295560.0 -0.978493856 0.2152666238
745295530.0 -0.9782795137 0.2168555899
750295500.0 -0.9786186844 0.21835865
755295470.0 -0.9777899174 0.2199962403
760295440.0 -0.977560003 0.2214503815
765295410.0 -0.9772871259 0.2229405943
770295380.0 -0.9768285837 0.2246892246
775295350.0 -0.9767406079 0.2255095386
780295320.0 -0.9759949114 0.2278475793
785295290.0 -0.975348139 0.2288002317
790295260.0 -0.9751508488 0.2292610294
795295230.0 -0.9748930883 0.2314795445
800295200.0 -0.9746695677 0.2327736201
805295170.0 -0.9743610917 0.2347206695
810295140.0 -0.9742046539 0.2357126582
815295110.0 -0.9740238919 0.2372590824
820295080.0 -0.97329697 0.2388044539
825295050.0 -0.9734941431 0.2404956589
830295020.0 -0.9729668311 0.2412283936
835294990.0 -0.972589612 0.2428759838
840294960.0 -0.9725023607 0.244317611
845294930.0 -0.9719548827 0.245982103
850294900.0 -0.9713910376 0.2476336596
855294870.0 -0.9711821604 0.2484994205
860294840.0 -0.9707444465 0.2504264258
865294810.0 -0.9701206357 0.2509934942
870294780.0 -0.9699699167 0.252392449
875294750.0 -0.9701213662 0.2536660141
880294720.0 -0.9701741367 0.255520763
885294690.0 -0.9689842381 0.2570466378
890294660.0 -0.968738764 0.258393421
895294630.0 -0.967981981 0.2596137506
900294600.0 -0.9678015009 0.2608614822
905294570.0 -0.9670131594 0.2627778392
910294540.0 -0.9670370331 0.2641852787
915294510.0 -0.9663997241 0.2649069502
920294480.0 -0.9659593225 0.2669794411
925294450.0 -0.9653056867 0.2676955322
930294420.0 -0.9647222931 0.2697185682
935294390.0 -0.9641974506 0.2709613562
940294360.0 -0.9641715165 0.2722311286
945294330.0 -0.9634198258 0.273126128
950294300.0 -0.9636520295 0.2753860489
955294270.0 -0.9629110417 0.2765551547
960294240.0 -0.9626650661 0.2777532648
965294210.0 -0.9622924272 0.2791632897
970294180.0 -0.9615300043 0.2801701368
975294150.0 -0.9614713844 0.2811066856
980294120.0 -0.9612184587 0.2831254296
985294090.0 -0.9607027898 0.2842281434
990294060.0 -0.9603455392 0.2855837292
995294030.0 -0.9599625587 0.2875533778
1000294000.0 -0.9594510748 0.2885324471
1005293970.0 -0.9590402776 0.2903888378
1010293940.0 -0.9587116002 0.2917084675
1015293910.0 -0.95778594 0.2929153671
1020293880.0 -0.9580479925 0.2938955749
1025293850.0 -0.9575263435 0.2948734209
1030293820.0 -0.9569004611 0.296403245
1035293790.0 -0.9564030696 0.2983328422
1040293760.0 -0.9557651135 0.2991928601
1045293730.0 -0.9551876807 0.3007673251
1050293700.0 -0.9552403843 0.3024584556
1055293670.0 -0.954397874 0.3034730743
1060293640.0 -0.9541966939 0.3050052295
1065293610.0 -0.9536746476 0.3064730028
1070293580.0 -0.9533947145 0.3078057895
1075293550.0 -0.9526877022 0.308838695
1080293520.0 -0.9523846099 0.3103546628
1085293490.0 -0.9516567432 0.3121521597
1090293460.0 -0.9513158064 0.3134229756
1095293430.0 -0.9503403286 0.3148722811
1100293400.0 -0.9504186705 0.3170209722
1105293370.0 -0.9495330828 0.3172048576
1110293340.0 -0.948895593 0.3188979294
1115293310.0 -0.9487209003 0.3207086858
1120293280.0 -0.948773037 0.3215812276
1125293250.0 -0.9475683678 0.3225660012
1130293220.0 -0.9475750683 0.3238108641
1135293190.0 -0.9469550627 0.325614078
1140293160.0 -0.9465356598 0.3274652981
1145293130.0 -0.9465728317 0.3286246568
1150293100.0 -0.9458322941 0.3304148932
1155293070.0 -0.9451086802 0.3321673412
1160293040.0 -0.9446778699 0.3341152468
1165293010.0 -0.9442626837 0.3347350526
1170292980.0 -0.944296812 0.3358934468
1175292950.0 -0.9432048726 0.3371971509
1180292920.0 -0.9428113334 0.3376215903
1185292890.0 -0.9418455964 0.3392344639
1190292860.0 -0.9413686886 0.3405073701
1195292830.0 -0.9408986063 0.3421712746
1200292800.0 -0.9410208591 0.3427791349
1205292770.0 -0.9404241665 0.3446292948
1210292740.0 -0.9399819734 0.345590364
1215292710.0 -0.9387670529 0.3474849215
1220292680.0 -0.9386023061 0.3490744709
1225292650.0 -0.9385389999 0.350038662
1230292620.0 -0.9374062409 0.3513978427
1235292590.0 -0.9368918673 0.35267723
1240292560.0 -0.9365720846 0.3541544471
1245292530.0 -0.9357910405 0.3549035975
1250292500.0 -0.9354696841 0.3565981691
1255292470.0 -0.9351016058 0.3582552528
1260292440.0 -0.9346047387 0.3598897624
1265292410.0 -0.9339573752 0.3604198336
1270292380.0 -0.9334588765 0.361665807
1275292350.0 -0.9332640992 0.3630925867
1280292320.0 -0.932218616 0.3643957593
1285292290.0 -0.9321870449 0.3666384051
1290292260.0 -0.9307205896 0.3673958877
1295292230.0 -0.9302710948 0.3684398223
1300292200.0 -0.9301713595 0.3698502563
1305292170.0 -0.9298922093 0.3712006497
1310292140.0 -0.929017376 0.3728681176
1315292110.0 -0.9281099074 0.3735833702
1320292080.0 -0.9280171309 0.3749961535
1325292050.0 -0.9269577415 0.3762878562
1330292020.0 -0.9265017498 0.37783476
1335291990.0 -0.9259734295 0.3791585522
1340291960.0 -0.9249422774 0.3808152214
1345291930.0 -0.9246894755 0.3821422529
1350291900.0 -0.9243406484 0.3837060912
1355291870.0 -0.9238245177 0.3845678802
1360291840.0 -0.9230568071 0.3852062346
1365291810.0 -0.9226805067 0.387039719
1370291780.0 -0.9224148312 0.3886158589
1375291750.0 -0.9217821298 0.3890382344
1380291720.0 -0.9210648943 0.3911621921
1385291690.0 -0.9200988126 0.3924589778
1390291660.0 -0.9196068527 0.3938510524
1395291630.0 -0.9191322134 0.3953096479
1400291600.0 -0.9185779312 0.396703918
1405291570.0 -0.9177796891 0.3980756807
1410291540.0 -0.9173024779 0.3991196781
1415291510.0 -0.9168000478 0.4005872206
1420291480.0 -0.9165589893 0.4018923324
1425291450.0 -0.9156766732 0.4033326561
1430291420.0 -0.9145662906 0.4043259439
1435291390.0 -0.9144105657 0.4050916784
1440291360.0 -0.9143919814 0.4070242513
1445291330.0 -0.913135383 0.4082397107
1450291300.0 -0.9127573718 0.4092196854
1455291270.0 -0.9120483647 0.4103113046
1460291240.0 -0.9119291223 0.411977842
1465291210.0 -0.9111143302 0.4129841965
1470291180.0 -0.9104260419 0.4138459706
1475291150.0 -0.9096529033 0.4158353098
1480291120.0 -0.9088536717 0.4174182907
1485291090.0 -0.9086063623 0.4187218657
1490291060.0 -0.9081564927 0.4196605575
1495291030.0 -0.9071733379 0.4213104273
1500291000.0 -0.9069374536 0.4219940075
1505290970.0 -0.9060490092 0.4232072821
1510290940.0 -0.9055490565 0.4245043972
1515290910.0 -0.905266475 0.4253316439
1520290880.0 -0.9042567173 0.4274473821
1525290850.0 -0.9032919493 0.4287901063
1530290820.0 -0.9028646464 0.4303167141
1535290790.0 -0.9024755434 0.4311740625
1540290760.0 -0.9014540974 0.4327794342
1545290730.0 -0.9010582071 0.434108636
1550290700.0 -0.9001010976 0.435646056
1555290670.0 -0.8994184598 0.4364313064
1560290640.0 -0.8990628145 0.4377610558
1565290610.0 -0.8985123103 0.4391579027
1570290580.0 -0.8980660452 0.4404789266
1575290550.0 -0.8971856546 0.441391463
1580290520.0 -0.8963250461 0.4432098133
1585290490.0 -0.8960028177 0.4444551089
1590290460.0 -0.8954635475 0.4456763541
1595290430.0 -0.8938712905 0.4471976458
1600290400.0 -0.8932621506 0.448296158
1605290370.0 -0.8927018106 0.4493032095
1610290340.0 -0.8922537957 0.4505189791
1615290310.0 -0.891748734 0.4520602188
1620290280.0 -0.8913663602 0.4531509905
1625290250.0 -0.8901171495 0.4543876913
1630290220.0 -0.8897071745 0.4560073505
1635290190.0 -0.8892031897 0.457069646
1640290160.0 -0.8887532834 0.4580238835
1645290130.0 -0.8879647266 0.4590090606
1650290100.0 -0.8873028305 0.4606988951
1655290070.0 -0.8864581848 0.4618320295
1660290040.0 -0.8857110107 0.4634055481
1665290010.0 -0.8853498487 0.4642609854
1670289980.0 -0.884499937 0.4650285293
1675289950.0 -0.8839231228 0.4667694052
1680289920.0 -0.8830433242 0.4687715597
1685289890.0 -0.8820902776 0.4694694367
1690289860.0 -0.8817639265 0.4709512816
1695289830.0 -0.880571359 0.472917642
1700289800.0 -0.8805139284 0.473513076
1705289770.0 -0.879479842 0.4750089808
1710289740.0 -0.8784531665 0.4765002156
1715289710.0 -0.877676395 0.4775663413
1720289680.0 -0.8771214193 0.4782670189
1725289650.0 -0.8766065379 0.4800210963
1730289620.0 -0.8756798118 0.4817055211
1735289590.0 -0.8755676938 0.4824090418
1740289560.0 -0.8744112555 0.4836106623
1745289530.0 -0.8736116614 0.4848330159
1750289500.0 -0.8729860558 0.4864259979
1755289470.0 -0.872149331 0.4877628752
1760289440.0 -0.8712017897 0.4883772085
1765289410.0 -0.8707737134 0.4893637098
1770289380.0 -0.8702489357 0.4906218668
1775289350.0 -0.8696232714 0.4923293342
1780289320.0 -0.8689519671 0.4929873573
1785289290.0 -0.8681540124 0.4948502078
1790289260.0 -0.8675453264 0.495935968
1795289230.0 -0.8661480181 0.4973338009
1800289200.0 -0.8657208566 0.4987736625
1805289170.0 -0.8649951047 0.4998437673
1810289140.0 -0.864129178 0.5011951359
1815289110.0 -0.8628614997 0.5020517182
1820289080.0 -0.8629225926 0.5031081415
1825289050.0 -0.8620185628 0.5046460737
1830289020.0 -0.8616330729 0.5053973887
1835288990.0 -0.8613773792 0.5067449302
1840288960.0 -0.859847293 0.5075589229
1845288930.0 -0.8594551075 0.5087879422
1850288900.0 -0.85890809 0.5099289019
1855288870.0 -0.8578508902 0.5118994301
1860288840.0 -0.8576199613 0.5128732651
1865288810.0 -0.8554494249 0.5139287091
1870288780.0 -0.8550648912 0.5154845775
1875288750.0 -0.8545728077 0.5172486753
1880288720.0 -0.8532396361 0.519007842
1885288690.0 -0.8528240392 0.5196872017
1890288660.0 -0.852104602 0.5212302091
1895288630.0 -0.8512159058 0.5219000662
1900288600.0 -0.8505785131 0.5227238982
1905288570.0 -0.8498149049 0.5242792475
1910288540.0 -0.8487362788 0.5260516695
1915288510.0 -0.8481892418 0.5272168723
1920288480.0 -0.8470277703 0.5283579216
1925288450.0 -0.8466115798 0.5296925094
1930288420.0 -0.8456644452 0.5310768136
1935288390.0 -0.8449366994 0.5320953526
1940288360.0 -0.8442354291 0.533465722
1945288330.0 -0.842946111 0.5344579957
1950288300.0 -0.8421142943 0.5360907503
1955288270.0 -0.8412297908 0.537594669
1960288240.0 -0.8404777481 0.5389817951
1965288210.0 -0.839300263 0.5403312122
1970288180.0 -0.8386456984 0.5413305713
1975288150.0 -0.8383597576 0.5421261282
1980288120.0 -0.8374452484 0.5435282436
1985288090.0 -0.8369226914 0.5441705509
1990288060.0 -0.8364842008 0.5453910344
1995288030.0 -0.8357490007 0.5466083322
2000288000.0 -0.8350298228 0.5468312997
2005287970.0 -0.8337281917 0.5485076551
2010287940.0 -0.8334969635 0.5498291654
2015287910.0 -0.8328848011 0.5505284723
2020287880.0 -0.8313564097 0.5522407106
2025287850.0 -0.8305686927 0.5535048518
2030287820.0 -0.8299062144 0.5548993221
2035287790.0 -0.8292070592 0.5561855304
2040287760.0 -0.8282804898 0.5572016014
2045287730.0 -0.8268091472 0.5586208904
2050287700.0 -0.8267864162 0.5598188605
2055287670.0 -0.8258065643 0.5605457554
2060287640.0 -0.8251255932 0.5620182903
2065287610.0 -0.8245533145 0.5627655025
2070287580.0 -0.8234681916 0.564393933
2075287550.0 -0.8221184531 0.5654224956
2080287520.0 -0.8213762266 0.5664014187
2085287490.0 -0.8204451888 0.5683811101
2090287460.0 -0.8206166867 0.569348104
2095287430.0 -0.8190271791 0.5704249783
2100287400.0 -0.8180671842 0.5713786174
2105287370.0 -0.8171544043 0.5724590576
2110287340.0 -0.8159944012 0.573906855
2115287310.0 -0.8155799153 0.5748807085
2120287280.0 -0.8146715906 0.5765545806
2125287250.0 -0.814233399 0.5772962358
2130287220.0 -0.8128201745 0.5785964311
2135287190.0 -0.8114557037 0.580555454
2140287160.0 -0.8111064007 0.5815864978
2145287130.0 -0.8098208236 0.58294178
2150287100.0 -0.809054884 0.583811301
2155287070.0 -0.8083624917 0.5849019995
2160287040.0 -0.8080683797 0.5855258109
2165287010.0 -0.8073179702 0.5871205625
2170286980.0 -0.8062576906 0.5883479994
2175286950.0 -0.8055366723 0.5888253568
2180286920.0 -0.8044575619 0.5903012843
2185286890.0 -0.8037801035 0.5909707249
2190286860.0 -0.802916486 0.5914846537
2195286830.0 -0.8027271999 0.5933260657
2200286800.0 -0.801587418 0.5944147903
2205286770.0 -0.8006424239 0.595334766
2210286740.0 -0.800100147 0.59637004
2215286710.0 -0.7989452289 0.5973437428
2220286680.0 -0.7985906967 0.5986942925
2225286650.0 -0.797438856 0.6002040362
2230286620.0 -0.7963385505 0.6017578039
2235286590.0 -0.7951490175 0.6027227633
2240286560.0 -0.7946713333 0.6035278186
2245286530.0 -0.7936521192 0.6052212177
2250286500.0 -0.7930342617 0.6066455538
2255286470.0 -0.7914426192 0.6076063709
2260286440.0 -0.7911899823 0.6088176559
2265286410.0 -0.7897889875 0.6103855746
2270286380.0 -0.7889314429 0.61106531
2275286350.0 -0.787699478 0.6124767697
2280286320.0 -0.7872668809 0.613542648
2285286290.0 -0.7857941473 0.615009223
2290286260.0 -0.7850406962 0.6159101854
2295286230.0 -0.7842186828 0.6170862865
2300286200.0 -0.7834290091 0.6181452471
2305286170.0 -0.7821834083 0.6193013569
2310286140.0 -0.7815832314 0.6205702234
2315286110.0 -0.7803809244 0.6217495934
2320286080.0 -0.7797335593 0.6228909874
2325286050.0 -0.7789074504 0.6240201569
2330286020.0 -0.778049267 0.6244245479
2335285990.0 -0.7772396009 0.6257509089
2340285960.0 -0.7765537739 0.6266602984
2345285930.0 -0.775562265 0.6282997096
2350285900.0 -0.7742187502 0.6292970073
2355285870.0 -0.7731290333 0.6302200169
2360285840.0 -0.7722996143 0.6313931621
2365285810.0 -0.7715269248 0.6325279206
2370285780.0 -0.7706084538 0.6343130144
2375285750.0 -0.7695171898 0.6348889988
2380285720.0 -0.7690361946 0.6360055274
2385285690.0 -0.7685821689 0.6370968883
2390285660.0 -0.7676532326 0.6376530836
2395285630.0 -0.7668008929 0.6389468805
2400285600.0 -0.7657712536 0.6401238377
2405285570.0 -0.7644597167 0.6411789638
2410285540.0 -0.7644263863 0.6418822082
2415285510.0 -0.763455591 0.6427518861
2420285480.0 -0.7625518938 0.6439357968
2425285450.0 -0.7620830767 0.645154298
2430285420.0 -0.760506789 0.646236584
2435285390.0 -0.7599882732 0.6473211611
2440285360.0 -0.7587873657 0.6482040126
2445285330.0 -0.757497334 0.6493479541
2450285300.0 -0.7565208453 0.6503276212
2455285270.0 -0.7557657289 0.6513742959
2460285240.0 -0.7547623519 0.6529696656
2465285210.0 -0.7538770282 0.654239699
2470285180.0 -0.7523901554 0.6546882596
2475285150.0 -0.7520441731 0.6560619585
2480285120.0 -0.7510796627 0.6573188036
2485285090.0 -0.7496835656 0.6587922789
2490285060.0 -0.7483470769 0.6595163976
2495285030.0 -0.7481569959 0.6611719705
2500285000.0 -0.7470463332 0.6623123431
2505284970.0 -0.7458407796 0.6626947785
2510284940.0 -0.7448681604 0.6643233059
2515284910.0 -0.7439074637 0.6655133368
2520284880.0 -0.7429277639 0.6661127201
2525284850.0 -0.7417671768 0.667401649
2530284820.0 -0.7409775212 0.6682602928
