!Created with skrf (http://scikit-rf.org).
# Hz S RI R 50.0 
!freq ReS11 ImS11
300000.0 -0.0066782907 -0.0430464079
5299970.0 -0.0005761083 -0.0007261036
10299940.0 -0.0002199494 -0.0010069007
15299910.0 -0.00019083 0.0002310091
20299880.0 -0.0002737377 -0.0004975355
25299850.0 -0.0002876582 0.0003430525
30299820.0 -0.0002074149 0.0004095383
35299790.0 -5.362e-06 -0.0002637867
40299760.0 0.0001383194 -0.0001085525
45299730.0 5.6968e-06 0.0001167405
50299700.0 6.41256e-05 9.44626e-05
55299670.0 -7.23946e-05 0.0003020703
60299640.0 0.0001141535 4.73836e-05
65299610.0 -5.40012e-05 0.0001492689
70299580.0 -0.0001024176 2.31226e-05
75299550.0 -0.0001379882 -2.05962e-05
80299520.0 5.66008e-05 0.0001051227
85299490.0 -6.66361e-05 0.0002606927
90299460.0 -6.67571e-05 -7.13533e-05
95299430.0 -8.19672e-05 4.08797e-05
100299400.0 -0.0001742995 0.000221405
105299370.0 -0.0001491945 0.0002901372
110299340.0 0.000133965 0.0001586876
115299310.0 0.0001066355 0.0001780078
120299280.0 -6.62668e-05 0.000145634
125299250.0 -6.02217e-05 0.0003119143
130299220.0 -0.0001088556 0.0001558603
135299190.0 9.00362e-05 4.40207e-05
140299160.0 -0.0001213682 0.0001817731
145299130.0 -0.0001867425 0.0001355402
150299100.0 -2.5878e-06 0.000283418
155299070.0 0.0001456389 5.54625e-05
160299040.0 7.32974e-05 0.0003025316
165299010.0 0.000133867 0.0003026616
170298980.0 -0.0001314419 0.0002690164
175298950.0 -0.0001238333 0.0003951796
180298920.0 -0.0001518503 0.0004670764
185298890.0 -0.0001246953 0.0004591147
190298860.0 -0.0001307862 0.0005811465
195298830.0 -0.0001676003 0.0002899708
200298800.0 -0.0001263507 0.0004179483
205298770.0 -8.57271e-05 0.0004855254
210298740.0 -2.11007e-05 0.0002479083
215298710.0 0.0001166486 0.0003028952
220298680.0 7.61927e-05 0.0003735185
225298650.0 2.10558e-05 0.0005312863
230298620.0 3.3121e-06 0.0004686471
235298590.0 -1.14227e-05 0.0004004316
240298560.0 0.0002021839 0.0002819494
245298530.0 -5.02322e-05 0.0003121719
250298500.0 1.13604e-05 0.0005624544
255298470.0 0.0001201859 0.0005240949
260298440.0 2.57366e-05 0.000376033
265298410.0 -0.0001649123 0.0004873618
270298380.0 -0.0001785785 0.0005113092
275298350.0 9.24245e-05 0.000441035
280298320.0 -9.82851e-05 0.0003577042
285298290.0 -0.0001103869 0.0003102013
290298260.0 -0.000123055 0.0004396355
295298230.0 2.4359e-05 0.0005478409
300298200.0 -0.0001957421 0.0004861506
305298170.0 -0.0001427376 0.0006375905
310298140.0 -5.72627e-05 0.0006852363
315298110.0 -0.0001179711 0.0006823055
320298080.0 1.80579e-05 0.0006688937
325298050.0 1.79751e-05 0.0003916515
330298020.0 -0.0002218643 0.0006780284
335297990.0 3.06701e-05 0.0006087211
340297960.0 -0.0001024308 0.0006873572
345297930.0 -2.50349e-05 0.000545475
350297900.0 0.0001342619 0.0006330395
355297870.0 0.0002704114 0.000420158
360297840.0 0.0001063375 0.0005806247
365297810.0 0.000146278 0.0005363791
370297780.0 -0.0001267454 0.0005836416
375297750.0 -0.0002598792 0.0006779348
380297720.0 -0.0003032591 0.0004343281
385297690.0 -1.53426e-05 0.0006765208
390297660.0 -3.5346e-05 0.0005609743
395297630.0 -0.0002136745 0.0006019531
400297600.0 -7.96795e-05 0.0006150097
405297570.0 -0.0002435054 0.0006811848
410297540.0 2.44536e-05 0.0005763882
415297510.0 -9.28691e-05 0.0006374762
420297480.0 -0.0001026636 0.0004311163
425297450.0 -0.0001529662 0.0008078179
430297420.0 -0.0001263707 0.000767089
435297390.0 -0.000132227 0.0006827814
440297360.0 -0.0002061828 0.0005024468
445297330.0 -9.97931e-05 0.0007719203
450297300.0 -0.000164922 0.0006937195
455297270.0 -1.2255e-05 0.0008456184
460297240.0 -9.05282e-05 0.0006870764
465297210.0 -0.0003035458 0.0007995503
470297180.0 -3.36915e-05 0.0007993112
475297150.0 -4.83299e-05 0.0004985214
480297120.0 -0.0001323642 0.0007074765
485297090.0 -0.0002386842 0.0007076519
490297060.0 -0.0001740741 0.0008615914
495297030.0 -0.0001208088 0.0007512291
500297000.0 -0.0002481319 0.0008681287
505296970.0 -0.0004096177 0.0009392321
510296940.0 -0.0002791999 0.0007522107
515296910.0 -0.0001785241 0.0007370243
520296880.0 -0.0001547611 0.0009898701
525296850.0 -0.0003691687 0.0009409191
530296820.0 -0.0004352404 0.0009095993
535296790.0 -0.0004920512 0.0009984032
540296760.0 -0.0001878822 0.0008033297
545296730.0 -0.00036549 0.0010440167
550296700.0 -0.0003033004 0.0008583066
555296670.0 -0.0002494081 0.0007546099
560296640.0 -0.0002247246 0.0009290285
565296610.0 -0.0001315305 0.0007684202
570296580.0 -0.0002229102 0.000827614
575296550.0 -0.0001102963 0.0009248178
580296520.0 -0.0003199464 0.0007920129
585296490.0 -0.0001682714 0.0006951603
590296460.0 -0.000277945 0.0010373341
595296430.0 -0.0001909251 0.0006220892
600296400.0 -0.0002124181 0.0008120915
605296370.0 -0.0002163994 0.0007358956
610296340.0 -0.0002039603 0.0008327823
615296310.0 -0.0003143636 0.0009906425
620296280.0 -0.0001521875 0.00086172
625296250.0 -0.000316175 0.0008170063
630296220.0 -0.0003100362 0.0007009104
635296190.0 -0.0003310915 0.0007828214
640296160.0 -0.0003237095 0.0007695053
645296130.0 -0.0002571087 0.0007449349
650296100.0 -0.0002250694 0.0009956163
655296070.0 -8.15119e-05 0.0007155651
660296040.0 -0.0002408706 0.0006826877
665296010.0 -0.0003348736 0.000751599
670295980.0 -0.0002801322 0.0009497986
675295950.0 -0.0004131445 0.0009083021
680295920.0 -0.0003626053 0.0007707785
685295890.0 -0.0002604305 0.0007627571
690295860.0 -0.0003780721 0.0007333736
695295830.0 -0.0004970907 0.0008236498
700295800.0 -0.0003543077 0.0007169956
705295770.0 -0.0002608363 0.0008472558
710295740.0 -0.0003976184 0.0008427717
715295710.0 -0.000330277 0.0008713434
720295680.0 -0.0003301458 0.0010786046
725295650.0 -0.0004748035 0.0007230779
730295620.0 -0.0004118313 0.0009819332
735295590.0 -0.0002410486 0.0008444565
740295560.0 -0.0006326612 0.000947319
745295530.0 -0.0004823109 0.0009236668
750295500.0 -0.0004566141 0.0010032443
755295470.0 -0.0004214075 0.0006801726
760295440.0 -0.0004357408 0.0009986859
765295410.0 -0.000239015 0.0008426267
770295380.0 -0.0003389263 0.0008031796
775295350.0 -0.0003793381 0.0008925515
780295320.0 -0.0001737541 0.0008684057
785295290.0 -0.000490663 0.000763262
790295260.0 -0.0005812725 0.0008295044
795295230.0 -0.0004394429 0.0008455892
800295200.0 -0.0007350257 0.0008129727
805295170.0 -0.0004934533 0.0007277662
810295140.0 -0.0003863065 0.0006512447
815295110.0 -0.0004990146 0.0008671613
820295080.0 -0.0004717083 0.000799777
825295050.0 -0.0006008684 0.0006010386
830295020.0 -0.0005293648 0.0007914156
835294990.0 -0.0004791024 0.0008934423
840294960.0 -0.0003943296 0.0008256721
845294930.0 -0.0003552812 0.0007994148
850294900.0 -0.0004295617 0.0010204453
855294870.0 -0.000416163 0.0008708071
860294840.0 -0.0004842999 0.0008448307
865294810.0 -0.0003710622 0.0009602834
870294780.0 -0.0003661118 0.0008260512
875294750.0 -0.000497418 0.0009035824
880294720.0 -0.0004202539 0.0009075644
885294690.0 -0.0005504318 0.0008927051
890294660.0 -0.0002927653 0.0005997649
895294630.0 -0.0004264048 0.0009039417
900294600.0 -0.0005544554 0.0008680677
905294570.0 -0.0003519858 0.0007556294
910294540.0 -0.0004796086 0.0008791886
915294510.0 -0.0003692559 0.0009254586
920294480.0 -0.0005057586 0.0007195281
925294450.0 -0.0006926942 0.0008026404
930294420.0 -0.0004709687 0.0008780433
935294390.0 -0.0006118479 0.0007174392
940294360.0 -0.0006296213 0.0008237894
945294330.0 -0.0003517058 0.0007975532
950294300.0 -0.0004731764 0.0005686317
955294270.0 -0.0004260105 0.0005182111
960294240.0 -0.0005543502 0.0007102614
965294210.0 -0.0005151499 0.0007630364
970294180.0 -0.0005248525 0.0008636998
975294150.0 -0.0005700972 0.0006738036
980294120.0 -0.0004003279 0.0005560763
985294090.0 -0.0005242163 0.000797143
990294060.0 -0.0005905772 0.0006907676
995294030.0 -0.0005688215 0.0004702254
1000294000.0 -0.0005539987 0.0006418378
1005293970.0 -0.0005183529 0.0006088157
1010293940.0 -0.0005788521 0.0007035089
1015293910.0 -0.000599202 0.0006651515
1020293880.0 -0.0007455916 0.0007217774
1025293850.0 -0.0005036313 0.0005687475
1030293820.0 -0.0004147071 0.0004148144
1035293790.0 -0.00047276 0.0007422608
1040293760.0 -0.0005853187 0.000726339
1045293730.0 -0.0004507587 0.0004608428
1050293700.0 -0.0006655515 0.0006336182
1055293670.0 -0.0003507755 0.0006933411
1060293640.0 -0.0004523753 0.0005313739
1065293610.0 -0.0004264104 0.0007570838
1070293580.0 -0.0005326355 0.0005678709
1075293550.0 -0.0004236521 0.0006844896
1080293520.0 -0.0003272849 0.0007067137
1085293490.0 -0.0004655549 0.0005291795
1090293460.0 -0.000466138 0.000696607
1095293430.0 -0.0002885456 0.0006307336
1100293400.0 -0.0006285772 0.0005674683
1105293370.0 -0.0005773641 0.0006239791
1110293340.0 -0.0003810044 0.0006601861
1115293310.0 -0.0003021211 0.0005701971
1120293280.0 -0.0004114804 0.0008601917
1125293250.0 -0.0004717258 0.0006101346
1130293220.0 -0.0004410076 0.0006035814
1135293190.0 -0.0002866775 0.0009051618
1140293160.0 -0.0006006289 0.0007921762
1145293130.0 -0.0008004558 0.0010724452
1150293100.0 -0.0007160904 0.0007502791
1155293070.0 -0.0006630084 0.0011267376
1160293040.0 -0.0007233286 0.0007362357
1165293010.0 -0.0007145654 0.0007886457
1170292980.0 -0.000716026 0.0009753961
1175292950.0 -0.0004192612 0.000818312
1180292920.0 -0.0007701153 0.0007316897
1185292890.0 -0.0005588 0.0006221635
1190292860.0 -0.0003172403 0.0005500781
1195292830.0 -0.0002404558 0.0006133488
1200292800.0 -0.0004197698 0.00058178
1205292770.0 -0.000317281 0.0008050307
1210292740.0 -0.0003367268 0.0005034298
1215292710.0 -0.000491995 0.0006986171
1220292680.0 -0.0003475701 0.0002491634
1225292650.0 -0.0003376932 0.000641545
1230292620.0 -0.0002792116 0.0005211184
1235292590.0 -5.80211e-05 0.0005110175
1240292560.0 -0.000517041 0.0005105591
1245292530.0 -0.0002342318 0.0005794869
1250292500.0 -0.0002922427 0.0004475514
1255292470.0 -0.0004637403 0.0005827196
1260292440.0 -0.0002942483 0.0005268688
1265292410.0 -0.0002238957 0.0006493103
1270292380.0 -0.0004061816 0.0006524815
1275292350.0 -0.0001318643 0.0005460725
1280292320.0 -0.0002634524 0.0006904925
1285292290.0 -0.0001911897 0.0005210501
1290292260.0 -0.000242859 0.0005844567
1295292230.0 -0.0001842786 0.0005530162
1300292200.0 -0.0003173034 0.0005805509
1305292170.0 -0.0003525603 0.0006674833
1310292140.0 -0.000136787 0.0005618997
1315292110.0 -5.4929e-05 0.0005361641
1320292080.0 1.04705e-05 0.0005605588
1325292050.0 -0.0001028025 0.0004477053
1330292020.0 -0.0002895677 0.0005574919
1335291990.0 4.65924e-05 0.0006621858
1340291960.0 -0.0001638161 0.0006732184
1345291930.0 -0.000152609 0.0004317068
1350291900.0 -9.43391e-05 0.0004208719
1355291870.0 -0.000260272 0.0005350945
1360291840.0 -0.0002591696 0.0003749327
1365291810.0 -0.0002128197 0.0007627731
1370291780.0 -0.0001291967 0.000557601
1375291750.0 -6.4238e-05 0.0006208375
1380291720.0 -0.0002541082 0.0003486547
1385291690.0 -0.0003183712 0.0006749579
1390291660.0 5.93929e-05 0.0004791345
1395291630.0 -6.28821e-05 0.0006900642
1400291600.0 -7.00503e-05 0.0006627043
1405291570.0 3.01271e-05 0.0006336883
1410291540.0 -4.12819e-05 0.0006241151
1415291510.0 3.65201e-05 0.0005987277
1420291480.0 -8.97698e-05 0.0004688901
1425291450.0 4.79404e-05 0.0005318317
1430291420.0 -5.28028e-05 0.000519774
1435291390.0 8.28596e-05 0.0005464058
1440291360.0 -0.000130446 0.0004312627
1445291330.0 -0.0001854833 0.0006787527
1450291300.0 -0.0001326683 0.0005709167
1455291270.0 6.7181e-06 0.0005457836
1460291240.0 -7.43809e-05 0.0005450558
1465291210.0 1.27542e-05 0.0004974746
1470291180.0 7.88732e-05 0.0004569418
1475291150.0 4.08845e-05 0.0007282004
1480291120.0 0.0002059508 0.0006005549
1485291090.0 6.82903e-05 0.0004594591
1490291060.0 0.0001267165 0.0005178024
1495291030.0 0.0001123093 0.0006697551
1500291000.0 3.47724e-05 0.00064623
1505290970.0 4.43556e-05 0.0006215993
1510290940.0 7.7491e-06 0.0005604352
1515290910.0 0.0003087798 0.0005401344
1520290880.0 5.91802e-05 0.0005266115
1525290850.0 0.0003075598 0.0004449224
1530290820.0 9.49414e-05 0.0005793807
1535290790.0 2.00564e-05 0.0004564548
1540290760.0 0.0002074429 0.0004498653
1545290730.0 9.69926e-05 0.0006013339
1550290700.0 0.000298362 0.0006574231
1555290670.0 0.0001147796 0.0003654118
1560290640.0 0.0001689053 0.0006179971
1565290610.0 0.000404178 0.0005717409
1570290580.0 0.0001868226 0.0004151271
1575290550.0 0.0003511611 0.0005821425
1580290520.0 0.000226233 0.0005647725
1585290490.0 1.21003e-05 0.0005584339
1590290460.0 0.0003102045 0.0005670587
1595290430.0 0.000276886 0.0006798829
1600290400.0 0.0002950641 0.0006408363
1605290370.0 0.0002693393 0.0006206747
1610290340.0 0.0003452361 0.000886654
1615290310.0 0.0002174462 0.000866424
1620290280.0 0.0004129389 0.0006753402
1625290250.0 0.0003910453 0.0006362629
1630290220.0 0.0002435024 0.0005826634
1635290190.0 0.0003715924 0.0005604272
1640290160.0 0.0004403688 0.0006528248
1645290130.0 0.0004109083 0.0006136034
1650290100.0 0.0004065738 0.0007293713
1655290070.0 0.0003795786 0.0005415304
1660290040.0 0.0005879617 0.0005935019
1665290010.0 0.000553794 0.0005116372
1670289980.0 0.0004062173 0.0006093212
1675289950.0 0.0004246419 0.0004792917
1680289920.0 0.0003410892 0.0007939388
1685289890.0 0.0002986292 0.0003163402
1690289860.0 0.0005765817 0.0006470773
1695289830.0 0.0003265208 0.000654689
1700289800.0 0.0004208987 0.0005813924
1705289770.0 0.0004153805 0.000724011
1710289740.0 0.0006600521 0.0005963081
1715289710.0 0.0006274095 0.0005980422
1720289680.0 0.0005364321 0.000614871
1725289650.0 0.0006196175 0.0007245206
1730289620.0 0.0006414407 0.0009134715
1735289590.0 0.0006424753 0.0005316545
1740289560.0 0.0004884798 0.000766232
1745289530.0 0.0005738425 0.0008549711
1750289500.0 0.0005668531 0.0007540153
1755289470.0 0.0006381762 0.0007557165
1760289440.0 0.0006361904 0.0005280542
1765289410.0 0.0006936723 0.0006265425
1770289380.0 0.0006137601 0.0007028575
1775289350.0 0.0006161012 0.000669039
1780289320.0 0.0007052844 0.0007655724
1785289290.0 0.0006972304 0.0006018305
1790289260.0 0.0007171324 0.0006567661
1795289230.0 0.0007922043 0.0007194614
1800289200.0 0.0006579031 0.000813307
1805289170.0 0.0006161829 0.0008494215
1810289140.0 0.0005436386 0.0009394025
1815289110.0 0.0007534013 0.000894241
1820289080.0 0.0006971869 0.0008388215
1825289050.0 0.0008092227 0.0006996688
1830289020.0 0.0007443983 0.0008323735
1835288990.0 0.0008723856 0.0008510684
1840288960.0 0.0004996364 0.0008922155
1845288930.0 0.0008754052 0.000891613
1850288900.0 0.0008319238 0.0009369912
1855288870.0 0.0007716059 0.0009424285
1860288840.0 0.0008344467 0.0010488837
1865288810.0 0.0009695668 0.0008358154
1870288780.0 0.0009209072 0.0008630936
1875288750.0 0.0007108169 0.000865109
1880288720.0 0.0009486865 0.0007718799
1885288690.0 0.0008172175 0.0007774038
1890288660.0 0.0009453573 0.0009442177
1895288630.0 0.0007404867 0.0007867433
1900288600.0 0.0008179953 0.0008487372
1905288570.0 0.0009067573 0.0011317969
1910288540.0 0.0010922197 0.0010766646
1915288510.0 0.0009433529 0.0010936862
1920288480.0 0.0009624327 0.0010235628
1925288450.0 0.0010650131 0.001090945
1930288420.0 0.0008141521 0.0009163627
1935288390.0 0.0010659589 0.0008126021
1940288360.0 0.0009301347 0.0008371385
1945288330.0 0.0010222533 0.0009422227
1950288300.0 0.0012070427 0.0010971788
1955288270.0 0.0011926027 0.0010727677
1960288240.0 0.0009431257 0.0012273344
1965288210.0 0.001232424 0.0008512438
1970288180.0 0.0012398402 0.0011781384
1975288150.0 0.0011997385 0.0010027776
1980288120.0 0.0010437237 0.0011252095
1985288090.0 0.0012760866 0.0011556721
1990288060.0 0.0011015169 0.0012009043
1995288030.0 0.0011484349 0.0010104283
2000288000.0 0.0012773431 0.0009708675
2005287970.0 0.0012237348 0.0011665422
2010287940.0 0.0011409808 0.0011882348
2015287910.0 0.0010517591 0.0012558349
2020287880.0 0.0011122662 0.0012390606
2025287850.0 0.0011035376 0.0012079203
2030287820.0 0.0011200039 0.0012138124
2035287790.0 0.0011808915 0.0012286095
2040287760.0 0.0010650444 0.0012521215
2045287730.0 0.0012169778 0.0011504894
2050287700.0 0.0010839956 0.0012898267
2055287670.0 0.0010071478 0.0014139317
2060287640.0 0.0011142576 0.0013741203
2065287610.0 0.0012285356 0.0014301624
2070287580.0 0.0011540532 0.001346152
2075287550.0 0.0011325042 0.0013672153
2080287520.0 0.0011060488 0.0015265066
2085287490.0 0.0010817396 0.001316772
2090287460.0 0.0013173038 0.0014732622
2095287430.0 0.0012351023 0.0014132604
2100287400.0 0.0013900163 0.0014525479
2105287370.0 0.0012346621 0.0011668335
2110287340.0 0.0012333249 0.0015381226
2115287310.0 0.0013172109 0.0015213588
2120287280.0 0.0011639826 0.0013803057
2125287250.0 0.001250705 0.0014645022
2130287220.0 0.0011789427 0.0013726969
2135287190.0 0.0012141787 0.0013759747
2140287160.0 0.0012229923 0.0016256072
2145287130.0 0.001257779 0.0014606926
2150287100.0 0.00122147 0.0015112514
2155287070.0 0.0012578881 0.0014942475
2160287040.0 0.0013410218 0.0015829282
2165287010.0 0.0011629636 0.0016910982
2170286980.0 0.0014906806 0.0016771598
2175286950.0 0.0012730251 0.0015642322
2180286920.0 0.0014394616 0.0016150213
2185286890.0 0.0012726622 0.0015938329
2190286860.0 0.0015826812 0.0016750337
2195286830.0 0.0012413582 0.0016418678
2200286800.0 0.00136275 0.0015744941
2205286770.0 0.0014824481 0.0015105428
2210286740.0 0.0013152572 0.001752758
2215286710.0 0.0015064499 0.0014675695
2220286680.0 0.0010138867 0.0016556905
2225286650.0 0.0013867915 0.0018545993
2230286620.0 0.0013465346 0.0017319806
2235286590.0 0.0015304496 0.0017826681
2240286560.0 0.0014001582 0.0017363079
2245286530.0 0.0014363527 0.0017963819
2250286500.0 0.0015175428 0.0018035649
2255286470.0 0.0016463166 0.0019273497
2260286440.0 0.0013972209 0.0019354911
2265286410.0 0.0013815148 0.0018233571
2270286380.0 0.0013600839 0.0018951298
2275286350.0 0.0012955527 0.0017298817
2280286320.0 0.001363367 0.0020001603
2285286290.0 0.0012673321 0.0018962313
2290286260.0 0.0014007975 0.0021280483
2295286230.0 0.0013929014 0.0019398329
2300286200.0 0.0011934659 0.0018842468
2305286170.0 0.0014324609 0.0019186185
2310286140.0 0.0011651608 0.0021112829
2315286110.0 0.0015634229 0.002023981
2320286080.0 0.0014113767 0.001832775
2325286050.0 0.001347149 0.001926698
2330286020.0 0.0013166584 0.0020242127
2335285990.0 0.0015054617 0.0021009135
2340285960.0 0.0013194827 0.0020120385
2345285930.0 0.0013209868 0.0019594927
2350285900.0 0.0014077578 0.0021690435
2355285870.0 0.0013104732 0.0021355443
2360285840.0 0.0012612572 0.0022291761
2365285810.0 0.0015334312 0.0020164176
2370285780.0 0.001368352 0.0021162565
2375285750.0 0.0014475684 0.0021259117
2380285720.0 0.0014095081 0.0020990125
2385285690.0 0.0013072995 0.0022568981
2390285660.0 0.001119312 0.0021216313
2395285630.0 0.0013667495 0.002239997
2400285600.0 0.0012505036 0.0021931456
2405285570.0 0.0013472003 0.0022300224
2410285540.0 0.0014232122 0.0023538956
2415285510.0 0.0014746025 0.002327908
2420285480.0 0.0014166436 0.0020140443
2425285450.0 0.0012115766 0.0022946337
2430285420.0 0.0011310037 0.0022097462
2435285390.0 0.0014036498 0.0022250486
2440285360.0 0.0013680798 0.0022851797
2445285330.0 0.0013068037 0.0023176864
2450285300.0 0.0013547434 0.0024397092
2455285270.0 0.0014734629 0.0023111709
2460285240.0 0.0013091342 0.0022887392
2465285210.0 0.0011752823 0.0023695934
2470285180.0 0.0011879413 0.0023015758
2475285150.0 0.0013608886 0.0022159813
2480285120.0 0.0011032437 0.0024569354
2485285090.0 0.000988046 0.0023459749
2490285060.0 0.001191754 0.0023000131
2495285030.0 0.0011720199 0.0023159685
2500285000.0 0.0014107733 0.002466013
2505284970.0 0.0013168978 0.0024873286
2510284940.0 0.0015031266 0.0026592611
2515284910.0 0.0011219691 0.0024975911
2520284880.0 0.0012191974 0.0025232756
2525284850.0 0.0011590273 0.0023088118
2530284820.0 0.0011106686 0.0023240973
2535284790.0 0.0010544699 0.0025493719
2540284760.0 0.0010417392 0.0024700125
2545284730.0 0.0012471765 0.002424527
2550284700.0 0.0010659963 0.0025084457
2555284670.0 0.0009145151 0.0026275615
2560284640.0 0.0011432297 0.0026651451
2565284610.0 0.0011801242 0.0025368127
