!Created with skrf (http://scikit-rf.org).
# Hz S RI R 50.0 
!freq ReS11 ImS11
45000000.0 0.06482696533203125 0.08995437622070312
49995500.0 0.08319473266601562 0.09120941162109375
54991000.0 0.10310745239257812 0.0891571044921875
59986500.0 0.12097930908203125 0.09198760986328125
64982000.0 0.1415863037109375 0.08794403076171875
69977500.0 0.1630401611328125 0.07823944091796875
74973000.0 0.18425750732421875 0.06446075439453125
79968500.0 0.20420074462890625 0.04677581787109375
84964000.0 0.22209930419921875 0.02508544921875
89959500.0 0.23784637451171875 -0.00038909912109375
94955000.0 0.2492828369140625 -0.0293426513671875
99950500.0 0.2569732666015625 -0.0614776611328125
104946000.0 0.2598876953125 -0.0953521728515625
109941500.0 0.2579803466796875 -0.1305999755859375
114937000.0 0.250823974609375 -0.166290283203125
119932500.0 0.23876190185546875 -0.20180511474609375
124928000.0 0.22197723388671875 -0.23626708984375
129923500.0 0.20025634765625 -0.2691650390625
134919000.0 0.174041748046875 -0.29998779296875
139914500.0 0.14337158203125 -0.328277587890625
144910000.0 0.1085662841796875 -0.353424072265625
149905500.0 0.070281982421875 -0.3747711181640625
154901000.0 0.0288543701171875 -0.3919525146484375
159896500.0 -0.01495361328125 -0.404296875
164892000.0 -0.0615081787109375 -0.4116363525390625
169887500.0 -0.109893798828125 -0.413787841796875
174883000.0 -0.1595458984375 -0.41015625
179878500.0 -0.2100830078125 -0.40045166015625
184874000.0 -0.2599334716796875 -0.384490966796875
189869500.0 -0.30926513671875 -0.36212158203125
194865000.0 -0.356689453125 -0.33349609375
199860500.0 -0.4013671875 -0.2987518310546875
204856000.0 -0.44189453125 -0.25738525390625
209851500.0 -0.478363037109375 -0.2113189697265625
214847000.0 -0.509857177734375 -0.159698486328125
219842500.0 -0.5350341796875 -0.10369873046875
224838000.0 -0.553955078125 -0.044677734375
229833500.0 -0.566070556640625 0.017486572265625
234829000.0 -0.570770263671875 0.08099365234375
239824500.0 -0.568603515625 0.145660400390625
244820000.0 -0.5589599609375 0.21038818359375
249815500.0 -0.5416259765625 0.27459716796875
254811000.0 -0.5362548828125 0.31787109375
259806500.0 -0.50885009765625 0.379425048828125
264802000.0 -0.4744873046875 0.4387054443359375
269797500.0 -0.433197021484375 0.4951629638671875
274793000.0 -0.3857421875 0.547454833984375
279788500.0 -0.3316650390625 0.59576416015625
284784000.0 -0.271820068359375 0.638916015625
289779500.0 -0.20648193359375 0.676239013671875
294775000.0 -0.135833740234375 0.7076416015625
299770500.0 -0.060516357421875 0.731842041015625
304766000.0 0.018707275390625 0.747894287109375
309761500.0 0.101226806640625 0.754852294921875
314757000.0 0.18609619140625 0.75244140625
319752500.0 0.272125244140625 0.739898681640625
324748000.0 0.3583984375 0.71722412109375
329743500.0 0.44329833984375 0.683990478515625
334739000.0 0.52490234375 0.640106201171875
339734500.0 0.602508544921875 0.585479736328125
344730000.0 0.674072265625 0.520782470703125
349725500.0 0.737701416015625 0.447601318359375
354721000.0 0.792999267578125 0.365814208984375
359716500.0 0.837921142578125 0.276885986328125
364712000.0 0.872344970703125 0.1829833984375
369707500.0 0.895538330078125 0.084503173828125
374703000.0 0.907135009765625 -0.0162353515625
379698500.0 0.90667724609375 -0.1181640625
384694000.0 0.895172119140625 -0.219268798828125
389689500.0 0.871856689453125 -0.31842041015625
394685000.0 0.837677001953125 -0.41485595703125
399680500.0 0.793914794921875 -0.507080078125
404676000.0 0.740692138671875 -0.5943603515625
409671500.0 0.67840576171875 -0.675872802734375
414667000.0 0.608001708984375 -0.75079345703125
419662500.0 0.529571533203125 -0.820770263671875
424658000.0 0.44366455078125 -0.879791259765625
429653500.0 0.349884033203125 -0.931732177734375
434649000.0 0.249237060546875 -0.973663330078125
439644500.0 0.14501953125 -1.0048828125
444640000.0 0.036865234375 -1.02630615234375
449635500.0 -0.07452392578125 -1.03717041015625
454631000.0 -0.18963623046875 -1.0372314453125
459626500.0 -0.3079833984375 -1.0238037109375
464622000.0 -0.426239013671875 -0.99554443359375
469617500.0 -0.542938232421875 -0.952301025390625
474613000.0 -0.655487060546875 -0.894073486328125
479608500.0 -0.762237548828125 -0.82171630859375
484604000.0 -0.86029052734375 -0.73504638671875
489599500.0 -0.947906494140625 -0.635101318359375
494595000.0 -1.022216796875 -0.52374267578125
499590500.0 -1.08111572265625 -0.40325927734375
504586000.0 -1.1243896484375 -0.275634765625
509581500.0 -1.14990234375 -0.14471435546875
514577000.0 -1.15789794921875 -0.0125732421875
519572500.0 -1.14947509765625 0.1171875
524568000.0 -1.12646484375 0.242431640625
529563500.0 -1.08984375 0.36126708984375
534559000.0 -1.04290771484375 0.47265625
539554500.0 -0.9871826171875 0.576141357421875
544550000.0 -0.924163818359375 0.672821044921875
549545500.0 -0.853973388671875 0.763885498046875
554541000.0 -0.777008056640625 0.8494873046875
559536500.0 -0.6920166015625 0.929229736328125
564532000.0 -0.59893798828125 1.00225830078125
569527500.0 -0.49774169921875 1.06719970703125
574523000.0 -0.3883056640625 1.12310791015625
579518500.0 -0.2730712890625 1.16851806640625
584514000.0 -0.15155029296875 1.20306396484375
589509500.0 -0.0250244140625 1.22540283203125
594505000.0 0.10577392578125 1.234619140625
599500500.0 0.2391357421875 1.2305908203125
604496000.0 0.37432861328125 1.21246337890625
609491500.0 0.5101318359375 1.17919921875
614487000.0 0.64404296875 1.13018798828125
619482500.0 0.7745361328125 1.064697265625
624478000.0 0.899749755859375 0.98284912109375
629473500.0 1.016357421875 0.88525390625
634469000.0 1.12164306640625 0.77093505859375
639464500.0 1.21319580078125 0.6427001953125
644460000.0 1.2894287109375 0.50189208984375
649455500.0 1.3468017578125 0.350830078125
654451000.0 1.38427734375 0.19281005859375
659446500.0 1.40155029296875 0.03057861328125
664442000.0 1.3974609375 -0.13189697265625
669437500.0 1.37298583984375 -0.29180908203125
674433000.0 1.32916259765625 -0.44586181640625
679428500.0 1.267333984375 -0.59161376953125
684424000.0 1.18994140625 -0.7265625
689419500.0 1.0989990234375 -0.85009765625
694415000.0 0.99676513671875 -0.960174560546875
699410500.0 0.88555908203125 -1.0572509765625
704406000.0 0.76727294921875 -1.1409912109375
709401500.0 0.64306640625 -1.21160888671875
714397000.0 0.51458740234375 -1.26971435546875
719392500.0 0.382568359375 -1.31494140625
724388000.0 0.2481689453125 -1.3486328125
729383500.0 0.11126708984375 -1.37054443359375
734379000.0 -0.0274658203125 -1.3792724609375
739374500.0 -0.167724609375 -1.377197265625
744370000.0 -0.30792236328125 -1.361572265625
749365500.0 -0.44866943359375 -1.333251953125
754361000.0 -0.5882568359375 -1.292236328125
759356500.0 -0.72662353515625 -1.23590087890625
764352000.0 -0.8612060546875 -1.16448974609375
769347500.0 -0.990966796875 -1.07781982421875
774343000.0 -1.11383056640625 -0.9747314453125
779338500.0 -1.22686767578125 -0.85589599609375
784334000.0 -1.3282470703125 -0.72222900390625
789329500.0 -1.413818359375 -0.5731201171875
794325000.0 -1.48223876953125 -0.41229248046875
799320500.0 -1.52996826171875 -0.241943359375
804316000.0 -1.5562744140625 -0.0648193359375
809311500.0 -1.5592041015625 0.11566162109375
814307000.0 -1.53936767578125 0.29510498046875
819302500.0 -1.4974365234375 0.4698486328125
824298000.0 -1.43096923828125 0.63751220703125
829293500.0 -1.347412109375 0.79315185546875
834289000.0 -1.24493408203125 0.93597412109375
839284500.0 -1.12945556640625 1.0628662109375
844280000.0 -1.06500244140625 1.1422119140625
849275500.0 -0.931884765625 1.24444580078125
854271000.0 -0.79150390625 1.3292236328125
859266500.0 -0.6455078125 1.39923095703125
864262000.0 -0.49603271484375 1.45269775390625
869257500.0 -0.3416748046875 1.490966796875
874253000.0 -0.1904296875 1.51531982421875
879248500.0 -0.03753662109375 1.52508544921875
884244000.0 0.11474609375 1.52215576171875
889239500.0 0.2652587890625 1.50579833984375
894235000.0 0.41461181640625 1.47723388671875
899230500.0 0.5618896484375 1.4361572265625
904226000.0 0.70770263671875 1.3818359375
909221500.0 0.85028076171875 1.31341552734375
914217000.0 0.9892578125 1.2294921875
919212500.0 1.12213134765625 1.12969970703125
924208000.0 1.24639892578125 1.01544189453125
929203500.0 1.35980224609375 0.8853759765625
934199000.0 1.46185302734375 0.74066162109375
939194500.0 1.548095703125 0.5819091796875
944190000.0 1.61761474609375 0.41082763671875
949185500.0 1.66632080078125 0.22998046875
954181000.0 1.6922607421875 0.0404052734375
959176500.0 1.69500732421875 -0.15283203125
964172000.0 1.6729736328125 -0.34600830078125
969167500.0 1.62591552734375 -0.53607177734375
974163000.0 1.55487060546875 -0.71807861328125
979158500.0 1.4617919921875 -0.88946533203125
984154000.0 1.34942626953125 -1.04656982421875
989149500.0 1.219970703125 -1.18682861328125
994145000.0 1.07647705078125 -1.30853271484375
999140500.0 0.92291259765625 -1.41156005859375
1004136000.0 0.76165771484375 -1.49615478515625
1009131500.0 0.59478759765625 -1.56182861328125
1014127000.0 0.4246826171875 -1.60888671875
1019122500.0 0.25311279296875 -1.63897705078125
1024118000.0 0.0821533203125 -1.651611328125
1029113500.0 -0.08831787109375 -1.64776611328125
1034109000.0 -0.25616455078125 -1.62835693359375
1039104500.0 -0.42047119140625 -1.59417724609375
1044100000.0 -0.58184814453125 -1.54443359375
1049095500.0 -0.738037109375 -1.48089599609375
1054091000.0 -0.889404296875 -1.40191650390625
1059086500.0 -1.03314208984375 -1.30780029296875
1064082000.0 -1.16900634765625 -1.19921875
1069077500.0 -1.29559326171875 -1.07672119140625
1074073000.0 -1.40985107421875 -0.9381103515625
1079068500.0 -1.51171875 -0.78704833984375
1084064000.0 -1.5975341796875 -0.623046875
1089059500.0 -1.66619873046875 -0.44818115234375
1094055000.0 -1.7139892578125 -0.26348876953125
1099050500.0 -1.7410888671875 -0.07220458984375
1104046000.0 -1.7445068359375 0.1231689453125
1109041500.0 -1.72430419921875 0.3193359375
1114037000.0 -1.67938232421875 0.5118408203125
1119032500.0 -1.611572265625 0.69818115234375
1124028000.0 -1.5213623046875 0.87420654296875
1129023500.0 -1.41033935546875 1.0374755859375
1134019000.0 -1.2816162109375 1.1849365234375
1139014500.0 -1.13726806640625 1.31475830078125
1144010000.0 -0.9808349609375 1.4251708984375
1149005500.0 -0.81451416015625 1.51617431640625
1154001000.0 -0.64178466796875 1.58685302734375
1158996500.0 -0.46484375 1.637451171875
1163992000.0 -0.28668212890625 1.66815185546875
1168987500.0 -0.108154296875 1.6796875
1173983000.0 0.06756591796875 1.67376708984375
1178978500.0 0.23980712890625 1.6497802734375
1183974000.0 0.40765380859375 1.60968017578125
1188969500.0 0.56787109375 1.5540771484375
1193965000.0 0.7216796875 1.4840087890625
1198960500.0 0.86785888671875 1.40020751953125
1203956000.0 1.0042724609375 1.30291748046875
1208951500.0 1.13128662109375 1.193359375
1213947000.0 1.24713134765625 1.07257080078125
1218942500.0 1.35137939453125 0.940673828125
1223938000.0 1.44305419921875 0.79840087890625
1228933500.0 1.52056884765625 0.6474609375
1233929000.0 1.5830078125 0.48828125
1238924500.0 1.63031005859375 0.32269287109375
1243920000.0 1.6605224609375 0.151611328125
1248915500.0 1.672607421875 -0.02227783203125
1253911000.0 1.6666259765625 -0.19891357421875
1258906500.0 1.64251708984375 -0.37548828125
1263902000.0 1.5987548828125 -0.54925537109375
1268897500.0 1.53558349609375 -0.71929931640625
1273893000.0 1.453857421875 -0.88226318359375
1278888500.0 1.3548583984375 -1.0362548828125
1283884000.0 1.237548828125 -1.17828369140625
1288879500.0 1.1046142578125 -1.30743408203125
1293875000.0 0.95819091796875 -1.4215087890625
1298870500.0 0.79925537109375 -1.5213623046875
1303866000.0 0.6307373046875 -1.59735107421875
1308861500.0 0.4542236328125 -1.65594482421875
1313857000.0 0.2728271484375 -1.695068359375
1318852500.0 0.08807373046875 -1.714111328125
1323848000.0 -0.0980224609375 -1.712890625
1328843500.0 -0.28192138671875 -1.69049072265625
1333839000.0 -0.4619140625 -1.64898681640625
1338834500.0 -0.63543701171875 -1.587646484375
1343830000.0 -0.8021240234375 -1.50848388671875
1348825500.0 -0.957763671875 -1.411376953125
1353821000.0 -1.1021728515625 -1.2982177734375
1358816500.0 -1.2327880859375 -1.17095947265625
1363812000.0 -1.34820556640625 -1.03033447265625
1368807500.0 -1.44775390625 -0.87896728515625
1373803000.0 -1.5296630859375 -0.71875
1378798500.0 -1.5931396484375 -0.551513671875
1383794000.0 -1.6385498046875 -0.37908935546875
1388789500.0 -1.66571044921875 -0.20428466796875
1393785000.0 -1.67425537109375 -0.02825927734375
1398780500.0 -1.664306640625 0.1466064453125
1403776000.0 -1.63714599609375 0.31817626953125
1408771500.0 -1.5927734375 0.48614501953125
1413767000.0 -1.5316162109375 0.6478271484375
1418762500.0 -1.45556640625 0.8021240234375
1423758000.0 -1.36456298828125 0.94793701171875
1428753500.0 -1.2598876953125 1.08428955078125
1433749000.0 -1.14239501953125 1.20977783203125
1438744500.0 -1.01226806640625 1.32403564453125
1443740000.0 -0.870849609375 1.42498779296875
1448735500.0 -0.719482421875 1.51177978515625
1453731000.0 -0.5579833984375 1.584228515625
1458726500.0 -0.38909912109375 1.63958740234375
1463722000.0 -0.21240234375 1.6778564453125
1468717500.0 -0.03131103515625 1.696533203125
1473713000.0 0.15301513671875 1.6959228515625
1478708500.0 0.33770751953125 1.6739501953125
1483704000.0 0.52191162109375 1.630859375
1488699500.0 0.69970703125 1.56500244140625
1493695000.0 0.8712158203125 1.47906494140625
1498690500.0 1.0303955078125 1.3721923828125
1503686000.0 1.17657470703125 1.24603271484375
1508681500.0 1.304931640625 1.1038818359375
1513677000.0 1.41448974609375 0.94793701171875
1518672500.0 1.5040283203125 0.78045654296875
1523668000.0 1.57159423828125 0.60546875
1528663500.0 1.61761474609375 0.42626953125
1533659000.0 1.641357421875 0.2469482421875
1538654500.0 1.64501953125 0.06805419921875
1543650000.0 1.62896728515625 -0.1063232421875
1548645500.0 1.59490966796875 -0.27459716796875
1553641000.0 1.54510498046875 -0.435302734375
1558636500.0 1.48004150390625 -0.5865478515625
1563632000.0 1.40191650390625 -0.72845458984375
1568627500.0 1.31219482421875 -0.86016845703125
1573623000.0 1.2122802734375 -0.98065185546875
1578618500.0 1.10284423828125 -1.09088134765625
1583614000.0 0.98529052734375 -1.1893310546875
1588609500.0 0.860107421875 -1.27703857421875
1593605000.0 0.728515625 -1.35272216796875
1598600500.0 0.5904541015625 -1.4166259765625
1603596000.0 0.44708251953125 -1.46783447265625
1608591500.0 0.29931640625 -1.50567626953125
1613587000.0 0.146728515625 -1.52996826171875
1618582500.0 -0.0079345703125 -1.54034423828125
1623578000.0 -0.1650390625 -1.53497314453125
1628573500.0 -0.3226318359375 -1.51458740234375
1633569000.0 -0.4786376953125 -1.4761962890625
1638564500.0 -0.63116455078125 -1.42218017578125
1643560000.0 -0.77923583984375 -1.3514404296875
1648555500.0 -0.9189453125 -1.26324462890625
1653551000.0 -1.0496826171875 -1.159423828125
1658546500.0 -1.16790771484375 -1.04095458984375
1663542000.0 -1.2713623046875 -0.909423828125
1668537500.0 -1.35931396484375 -0.7667236328125
1673533000.0 -1.42987060546875 -0.61614990234375
1678528500.0 -1.48211669921875 -0.4588623046875
1683524000.0 -1.5162353515625 -0.298095703125
1688519500.0 -1.531494140625 -0.13641357421875
1693515000.0 -1.52960205078125 0.02325439453125
1698510500.0 -1.51043701171875 0.17987060546875
1703506000.0 -1.4764404296875 0.3309326171875
1708501500.0 -1.42840576171875 0.47552490234375
1713497000.0 -1.3673095703125 0.6129150390625
1718492500.0 -1.2950439453125 0.7423095703125
1723488000.0 -1.212158203125 0.86297607421875
1728483500.0 -1.1199951171875 0.975341796875
1733479000.0 -1.019287109375 1.07891845703125
1738474500.0 -0.909912109375 1.17340087890625
1743470000.0 -0.7933349609375 1.2584228515625
1748465500.0 -0.66888427734375 1.3343505859375
1753461000.0 -0.53643798828125 1.39910888671875
1758456500.0 -0.39605712890625 1.45343017578125
1763452000.0 -0.25103759765625 1.494873046875
1768447500.0 -0.09906005859375 1.52313232421875
1773443000.0 0.0592041015625 1.536865234375
1778438500.0 0.2205810546875 1.53326416015625
1783434000.0 0.38421630859375 1.51171875
1788429500.0 0.54779052734375 1.47174072265625
1793425000.0 0.708984375 1.411865234375
1798420500.0 0.8643798828125 1.33087158203125
1803416000.0 1.009521484375 1.23101806640625
1808411500.0 1.141845703125 1.11285400390625
1813407000.0 1.2584228515625 0.97833251953125
1818402500.0 1.35699462890625 0.83038330078125
1823398000.0 1.4356689453125 0.672119140625
1828393500.0 1.493408203125 0.50787353515625
1833389000.0 1.5306396484375 0.34002685546875
1838384500.0 1.5474853515625 0.17236328125
1843380000.0 1.544677734375 0.0072021484375
1848375500.0 1.52508544921875 -0.15325927734375
1853371000.0 1.48974609375 -0.30682373046875
1858366500.0 1.4404296875 -0.45306396484375
1863362000.0 1.3787841796875 -0.59100341796875
1868357500.0 1.30584716796875 -0.71990966796875
1873353000.0 1.22369384765625 -0.84039306640625
1878348500.0 1.13275146484375 -0.95159912109375
1883344000.0 1.033447265625 -1.05474853515625
1888339500.0 0.926513671875 -1.14923095703125
1893335000.0 0.81243896484375 -1.23455810546875
1898330500.0 0.69061279296875 -1.310302734375
1903326000.0 0.56158447265625 -1.37640380859375
1908321500.0 0.42578125 -1.4322509765625
1913317000.0 0.28253173828125 -1.47601318359375
1918312500.0 0.13360595703125 -1.50750732421875
1923308000.0 -0.02117919921875 -1.52362060546875
1928303500.0 -0.1800537109375 -1.5244140625
1933299000.0 -0.34185791015625 -1.5074462890625
1938294500.0 -0.50421142578125 -1.471923828125
1943290000.0 -0.66302490234375 -1.41693115234375
1948285500.0 -0.81744384765625 -1.3421630859375
1953281000.0 -0.96356201171875 -1.24810791015625
1958276500.0 -1.09710693359375 -1.136474609375
1963272000.0 -1.21624755859375 -1.00823974609375
1968267500.0 -1.31878662109375 -0.86627197265625
1973263000.0 -1.4029541015625 -0.7138671875
1978258500.0 -1.46630859375 -0.553466796875
1983254000.0 -1.5101318359375 -0.38897705078125
1988249500.0 -1.53399658203125 -0.2232666015625
1993245000.0 -1.538818359375 -0.05816650390625
1998240500.0 -1.52618408203125 0.10284423828125
2003236000.0 -1.49639892578125 0.25885009765625
2008231500.0 -1.4522705078125 0.407958984375
2013227000.0 -1.39532470703125 0.54986572265625
2018222500.0 -1.3258056640625 0.683349609375
2023218000.0 -1.24493408203125 0.807861328125
2028213500.0 -1.15484619140625 0.9241943359375
2033209000.0 -1.0550537109375 1.03033447265625
2038204500.0 -0.9471435546875 1.12713623046875
2043200000.0 -0.83062744140625 1.2137451171875
2048195500.0 -0.7071533203125 1.28973388671875
2053191000.0 -0.57562255859375 1.3551025390625
2058186500.0 -0.43896484375 1.40728759765625
2063182000.0 -0.2960205078125 1.447509765625
2068177500.0 -0.1483154296875 1.4736328125
2073173000.0 0.00238037109375 1.485107421875
2078168500.0 0.15557861328125 1.4801025390625
2083164000.0 0.30731201171875 1.4595947265625
2088159500.0 0.4580078125 1.42236328125
2093155000.0 0.60479736328125 1.36859130859375
2098150500.0 0.745361328125 1.29876708984375
2103146000.0 0.8768310546875 1.21356201171875
2108141500.0 0.9990234375 1.1143798828125
2113137000.0 1.10772705078125 1.00299072265625
2118132500.0 1.20404052734375 0.8800048828125
2123128000.0 1.28521728515625 0.74859619140625
2128123500.0 1.35137939453125 0.6107177734375
2133119000.0 1.40228271484375 0.4678955078125
2138114500.0 1.4383544921875 0.32232666015625
2143110000.0 1.45904541015625 0.175537109375
2148105500.0 1.4652099609375 0.029296875
2153101000.0 1.4576416015625 -0.11566162109375
2158096500.0 1.4373779296875 -0.25860595703125
2163092000.0 1.4041748046875 -0.398193359375
2168087500.0 1.3592529296875 -0.5335693359375
2173083000.0 1.30194091796875 -0.66473388671875
2178078500.0 1.23370361328125 -0.790283203125
2183074000.0 1.1534423828125 -0.91009521484375
2188069500.0 1.0628662109375 -1.0230712890625
