!Created with skrf (http://scikit-rf.org).
# Hz S RI R 50.0 
!freq ReS11 ImS11
300000.0 1.002254088 0.0016918027
5299970.0 1.005130283 -0.0027721458
10299940.0 1.005594023 -0.0042116047
15299910.0 1.005593442 -0.0050463843
20299880.0 1.005136108 -0.0066458758
25299850.0 1.005310719 -0.0076951743
30299820.0 1.005071788 -0.0088202869
35299790.0 1.004978755 -0.0108553506
40299760.0 1.005402855 -0.0112235208
45299730.0 1.005050814 -0.0125287923
50299700.0 1.005211804 -0.0140923141
55299670.0 1.005127381 -0.0154638685
60299640.0 1.004768549 -0.0164703221
65299610.0 1.004996629 -0.0173347338
70299580.0 1.004981482 -0.0182664119
75299550.0 1.004785298 -0.0193368066
80299520.0 1.005046913 -0.0210236423
85299490.0 1.004796388 -0.022522573
90299460.0 1.005143558 -0.0231474986
95299430.0 1.00426756 -0.0244223069
100299400.0 1.004792239 -0.025897197
105299370.0 1.004955624 -0.0270044865
110299340.0 1.004738988 -0.0280411735
115299310.0 1.004980673 -0.0293362595
120299280.0 1.005032658 -0.0303253404
125299250.0 1.004328853 -0.0320557547
130299220.0 1.004712699 -0.0328464011
135299190.0 1.004544993 -0.0342154133
140299160.0 1.00481777 -0.03524691
145299130.0 1.004088393 -0.0362520234
150299100.0 1.004204869 -0.0373958776
155299070.0 1.003957762 -0.038406117
160299040.0 1.003940474 -0.0400834807
165299010.0 1.004161264 -0.0409112081
170298980.0 1.003899996 -0.0421384894
175298950.0 1.003004287 -0.0434677147
180298920.0 1.001938479 -0.0449154799
185298890.0 1.002858695 -0.0460426756
190298860.0 1.003998758 -0.0467470518
195298830.0 1.003259049 -0.0484025586
200298800.0 1.002681185 -0.0489952908
205298770.0 1.003749073 -0.050785004
210298740.0 1.003309635 -0.0514875192
215298710.0 1.00335908 -0.0524369777
220298680.0 1.002932123 -0.0535831134
225298650.0 1.003284104 -0.0550344074
230298620.0 1.003139723 -0.0562163048
235298590.0 1.003153775 -0.0576068417
240298560.0 1.002417468 -0.0593124656
245298530.0 1.002376071 -0.0594628058
250298500.0 1.002560273 -0.0612432592
255298470.0 1.002629687 -0.0622122058
260298440.0 1.002503964 -0.0634011234
265298410.0 1.00230035 -0.0643319462
270298380.0 1.002218722 -0.0661132534
275298350.0 1.002425355 -0.0665465698
280298320.0 1.002270579 -0.067790637
285298290.0 1.00167368 -0.0693423344
290298260.0 1.001410848 -0.0703455827
295298230.0 1.001849074 -0.0716792331
300298200.0 1.001799243 -0.0721855212
305298170.0 1.001814893 -0.073766765
310298140.0 1.00139957 -0.07509037
315298110.0 1.001075818 -0.0758904507
320298080.0 1.001159008 -0.0775981098
325298050.0 1.001024773 -0.0780459415
330298020.0 1.001069054 -0.0795174374
335297990.0 1.000599887 -0.0810594835
340297960.0 1.000374853 -0.0822876911
345297930.0 1.000638676 -0.0832533371
350297900.0 1.001212714 -0.0847112506
355297870.0 1.00196355 -0.0860926983
360297840.0 1.001760409 -0.0871986058
365297810.0 1.001014723 -0.0880755643
370297780.0 1.000946002 -0.0886388971
375297750.0 0.9993634704 -0.0903462524
380297720.0 0.9992821309 -0.0912551661
385297690.0 0.9995157695 -0.0927499381
390297660.0 0.9991952421 -0.0940937037
395297630.0 0.9990228255 -0.0950172149
400297600.0 0.9987886705 -0.0961757166
405297570.0 0.9989026494 -0.0973162992
410297540.0 0.9989227751 -0.0985426272
415297510.0 0.998818149 -0.0991900356
420297480.0 0.9986527412 -0.1008527821
425297450.0 0.9985116525 -0.1012611371
430297420.0 0.998412523 -0.1031591501
435297390.0 0.9983814855 -0.103802192
440297360.0 0.9983645908 -0.104989504
445297330.0 0.9981265685 -0.106210443
450297300.0 0.9975895711 -0.10745221
455297270.0 0.9978515406 -0.1085654039
460297240.0 0.9971813405 -0.1099420628
465297210.0 0.9972003943 -0.111316163
470297180.0 0.9973925734 -0.1121184423
475297150.0 0.997216396 -0.1137795692
480297120.0 0.997312403 -0.1139485297
485297090.0 0.997257449 -0.1156814767
490297060.0 0.9966814923 -0.1171052534
495297030.0 0.9963377053 -0.1178131447
500297000.0 0.9961230084 -0.1191724589
505296970.0 0.9960453542 -0.1206042008
510296940.0 0.9960929146 -0.1215238857
515296910.0 0.9956631537 -0.1228595017
520296880.0 0.995491867 -0.1238400003
525296850.0 0.9950339242 -0.125960161
530296820.0 0.9948289499 -0.1264973334
535296790.0 0.9950687376 -0.1277423189
540296760.0 0.9946447343 -0.1288879969
545296730.0 0.9949057151 -0.1296703304
550296700.0 0.9942348909 -0.1306808141
555296670.0 0.9946785121 -0.1319776406
560296640.0 0.9946746009 -0.1332740089
565296610.0 0.994204962 -0.133956171
570296580.0 0.9943445506 -0.1358532577
575296550.0 0.993810712 -0.1370006006
580296520.0 0.9933529439 -0.1379199319
585296490.0 0.9933046735 -0.1391603031
590296460.0 0.9933072147 -0.1403024189
595296430.0 0.9932808789 -0.1413230699
600296400.0 0.9930753687 -0.1422163922
605296370.0 0.9923592898 -0.1433595038
610296340.0 0.9921095203 -0.1446250317
615296310.0 0.9920708132 -0.1459307541
620296280.0 0.9922821363 -0.1468587444
625296250.0 0.9918443625 -0.1486257493
630296220.0 0.9915703448 -0.1490769093
635296190.0 0.9919236421 -0.1501923586
640296160.0 0.9914875203 -0.1515040288
645296130.0 0.990959495 -0.1525869798
650296100.0 0.9903774037 -0.1539561282
655296070.0 0.990618802 -0.1550646496
660296040.0 0.9909817927 -0.1562638562
665296010.0 0.9899650494 -0.1572624173
670295980.0 0.9899096482 -0.1584072893
675295950.0 0.9898915567 -0.1598235209
680295920.0 0.9900350808 -0.1609850369
685295890.0 0.9895728823 -0.162028522
690295860.0 0.9892353907 -0.163172766
695295830.0 0.9892307834 -0.1640494518
700295800.0 0.98896226 -0.1653956311
705295770.0 0.9890783658 -0.1669262244
710295740.0 0.9886954168 -0.1679219276
715295710.0 0.9880523258 -0.1691032667
720295680.0 0.9882363638 -0.1703395226
725295650.0 0.9884108914 -0.1712120877
730295620.0 0.9881200779 -0.1726264326
735295590.0 0.9874143271 -0.1737261565
740295560.0 0.9870574491 -0.1745269654
745295530.0 0.9874802851 -0.1760963197
750295500.0 0.9867834011 -0.1773555647
755295470.0 0.9864764919 -0.1782377739
760295440.0 0.9864858765 -0.1796743677
765295410.0 0.986162192 -0.1804911944
770295380.0 0.9864864964 -0.1817125496
775295350.0 0.9860224882 -0.1832439298
780295320.0 0.9856494717 -0.1844650307
785295290.0 0.9852049422 -0.1851803621
790295260.0 0.9854583232 -0.1864066473
795295230.0 0.9846979704 -0.1877418171
800295200.0 0.9848925383 -0.1892965247
805295170.0 0.9845963633 -0.1898145169
810295140.0 0.9842562321 -0.1910015668
815295110.0 0.984054228 -0.1921363215
820295080.0 0.9837527897 -0.1930858983
825295050.0 0.9840508167 -0.1948552918
830295020.0 0.9835748087 -0.1957861726
835294990.0 0.9832664991 -0.1968219812
840294960.0 0.9829114538 -0.1980143058
845294930.0 0.9828323607 -0.1988684973
850294900.0 0.9825326136 -0.2002641479
855294870.0 0.9825485736 -0.2015196679
860294840.0 0.9818284611 -0.2030093219
865294810.0 0.9819703497 -0.2036011454
870294780.0 0.9817102212 -0.2048223603
875294750.0 0.9816244976 -0.2054473704
880294720.0 0.9814407101 -0.2074698454
885294690.0 0.9803763236 -0.2081571922
890294660.0 0.9806859103 -0.2090237184
895294630.0 0.9802721505 -0.2107811403
900294600.0 0.9802263732 -0.2112742083
905294570.0 0.9798433627 -0.2131973647
910294540.0 0.9799065359 -0.2135653409
915294510.0 0.9791541628 -0.2147234721
920294480.0 0.9794512411 -0.2161041844
925294450.0 0.9788574281 -0.2171368885
930294420.0 0.9781880699 -0.2190219731
935294390.0 0.9782067973 -0.2197948948
940294360.0 0.9780720928 -0.2208174981
945294330.0 0.9776178077 -0.2217640505
950294300.0 0.9776904177 -0.2234987974
955294270.0 0.9775821611 -0.2246715774
960294240.0 0.9765345699 -0.2253607812
965294210.0 0.9766294823 -0.2273027567
970294180.0 0.9768353546 -0.2283837989
975294150.0 0.9763494316 -0.2292850291
980294120.0 0.9759813519 -0.2305114829
985294090.0 0.9758936562 -0.2312130497
990294060.0 0.976061173 -0.2325749347
995294030.0 0.9752586505 -0.2338222014
1000294000.0 0.9740231949 -0.2347501162
1005293970.0 0.9746358562 -0.2363344379
1010293940.0 0.9743780387 -0.237392919
1015293910.0 0.9739853076 -0.238678691
1020293880.0 0.9735850555 -0.239322521
1025293850.0 0.9737850976 -0.2400842924
1030293820.0 0.9733184602 -0.241879568
1035293790.0 0.9727306849 -0.2425949375
1040293760.0 0.9721469004 -0.2435139008
1045293730.0 0.9721248852 -0.2452173255
1050293700.0 0.9721521704 -0.246842344
1055293670.0 0.9716678427 -0.2471815393
1060293640.0 0.9710790331 -0.2488585591
1065293610.0 0.9710583551 -0.2495349488
1070293580.0 0.9708991166 -0.2504053006
1075293550.0 0.9710363832 -0.2519404611
1080293520.0 0.970151557 -0.2532020683
1085293490.0 0.9705865136 -0.2549375713
1090293460.0 0.969920523 -0.2556743099
1095293430.0 0.9690860743 -0.2572499881
1100293400.0 0.9693448076 -0.2590277252
1105293370.0 0.9687317258 -0.2593884313
1110293340.0 0.9685061474 -0.260865051
1115293310.0 0.9682405998 -0.2618191946
1120293280.0 0.9684197959 -0.2628228188
1125293250.0 0.9680063937 -0.263774811
1130293220.0 0.9675091254 -0.2645529761
1135293190.0 0.9671561657 -0.2657225533
1140293160.0 0.9665962103 -0.267253541
1145293130.0 0.9663227986 -0.2682168628
1150293100.0 0.9655548608 -0.2696661414
1155293070.0 0.9657270259 -0.271475769
1160293040.0 0.9651863046 -0.2724299638
1165293010.0 0.964574888 -0.2731038037
1170292980.0 0.9642695326 -0.2742245893
1175292950.0 0.9643927585 -0.2758824794
1180292920.0 0.9641113784 -0.2771985697
1185292890.0 0.9642135472 -0.2774682947
1190292860.0 0.9630430794 -0.2787594438
1195292830.0 0.9628680909 -0.2798963497
1200292800.0 0.9632501769 -0.2807384772
1205292770.0 0.9628779327 -0.2815539925
1210292740.0 0.9620623312 -0.2831456655
1215292710.0 0.9613295838 -0.2838379417
1220292680.0 0.9615707637 -0.2848714102
1225292650.0 0.9610583562 -0.2864102845
1230292620.0 0.9612039318 -0.2878533659
1235292590.0 0.960241628 -0.2894144468
1240292560.0 0.9599371813 -0.2900882445
1245292530.0 0.9599240126 -0.2910539745
1250292500.0 0.9594507173 -0.2924963291
1255292470.0 0.9594887709 -0.2932879579
1260292440.0 0.9584072729 -0.294778492
1265292410.0 0.9584464197 -0.2957806466
1270292380.0 0.9580076337 -0.2969567171
1275292350.0 0.9576295912 -0.2980042865
1280292320.0 0.9570759352 -0.2994976006
1285292290.0 0.9565999435 -0.3007697399
1290292260.0 0.9565729001 -0.3014386872
1295292230.0 0.9567273636 -0.30260163
1300292200.0 0.9561831125 -0.3035755063
1305292170.0 0.9556858204 -0.304296034
1310292140.0 0.9549137709 -0.3059436093
1315292110.0 0.9555512579 -0.3074240535
1320292080.0 0.9548429799 -0.3085808297
1325292050.0 0.954160308 -0.3102118803
1330292020.0 0.9535068083 -0.3107695616
1335291990.0 0.9530925763 -0.3123453694
1340291960.0 0.9533434447 -0.3142689887
1345291930.0 0.9522451759 -0.315067843
1350291900.0 0.9514947567 -0.3159305781
1355291870.0 0.9514902115 -0.3164878201
1360291840.0 0.9512077242 -0.3175820559
1365291810.0 0.9509968943 -0.3188622
1370291780.0 0.9510863678 -0.3199244566
1375291750.0 0.9507415694 -0.3207111669
1380291720.0 0.9500014908 -0.3221276839
1385291690.0 0.9496740594 -0.3233643374
1390291660.0 0.9496198712 -0.324443589
1395291630.0 0.9485136589 -0.3257716072
1400291600.0 0.9490877837 -0.3270871068
1405291570.0 0.9484364401 -0.3281087159
1410291540.0 0.9481756437 -0.3294654264
1415291510.0 0.9479050162 -0.3301366082
1420291480.0 0.9472490501 -0.3312675334
1425291450.0 0.9468564782 -0.3325138248
1430291420.0 0.9458827726 -0.3331834103
1435291390.0 0.945846341 -0.3346098892
1440291360.0 0.9455773255 -0.3349706797
1445291330.0 0.944932522 -0.3364572966
1450291300.0 0.945234335 -0.3371486385
1455291270.0 0.9446300488 -0.338243786
1460291240.0 0.9441065176 -0.3394059218
1465291210.0 0.9431771645 -0.340777855
1470291180.0 0.9429764391 -0.3424925126
1475291150.0 0.9430289699 -0.3431869104
1480291120.0 0.9425367986 -0.3452382111
1485291090.0 0.9422895895 -0.3458011178
1490291060.0 0.9413517201 -0.347254645
1495291030.0 0.9415396258 -0.3478763677
1500291000.0 0.9410439279 -0.3487328811
1505290970.0 0.9407525358 -0.3500026698
1510290940.0 0.939957444 -0.3509574708
1515290910.0 0.9395974834 -0.351774591
1520290880.0 0.9397772726 -0.3533311517
1525290850.0 0.9389609178 -0.3542862542
1530290820.0 0.9385874689 -0.3554549639
1535290790.0 0.9385867287 -0.3570413774
1540290760.0 0.9374447095 -0.3579661546
1545290730.0 0.9373984814 -0.3590331702
1550290700.0 0.9366101418 -0.36012119
1555290670.0 0.9363240693 -0.3612344363
1560290640.0 0.9358366045 -0.3622252763
1565290610.0 0.9354885013 -0.3631319531
1570290580.0 0.9346394357 -0.3641546048
1575290550.0 0.9350727236 -0.3652576588
1580290520.0 0.9349793103 -0.3670274842
1585290490.0 0.9341158326 -0.3686183544
1590290460.0 0.9334859877 -0.3690561362
1595290430.0 0.9335191609 -0.370067495
1600290400.0 0.9327878312 -0.3710429069
1605290370.0 0.9322177337 -0.3725120303
1610290340.0 0.9318643955 -0.3737885514
1615290310.0 0.93179392 -0.3748079348
1620290280.0 0.9311205526 -0.375537016
1625290250.0 0.9307822726 -0.3762231222
1630290220.0 0.9303924131 -0.3774603788
1635290190.0 0.9297534436 -0.3785319349
1640290160.0 0.9292663524 -0.379591695
1645290130.0 0.9289981159 -0.3804859539
1650290100.0 0.928881203 -0.3814169186
1655290070.0 0.9276840205 -0.3829074843
1660290040.0 0.9273238195 -0.3842275456
1665290010.0 0.9271124547 -0.3848441586
1670289980.0 0.9267093227 -0.3862948586
1675289950.0 0.9264275137 -0.3868228679
1680289920.0 0.9259451308 -0.3882075188
1685289890.0 0.9245080991 -0.3897460603
1690289860.0 0.9247575333 -0.3913368385
1695289830.0 0.923811637 -0.3923608113
1700289800.0 0.9234878244 -0.3930989048
1705289770.0 0.9232603585 -0.3945465566
1710289740.0 0.9230491968 -0.395573967
1715289710.0 0.9220379179 -0.3965021739
1720289680.0 0.9219446577 -0.3973461011
1725289650.0 0.9215076049 -0.3984433556
1730289620.0 0.921041571 -0.3998650561
1735289590.0 0.9203439603 -0.4006913871
1740289560.0 0.9204733123 -0.4014406045
1745289530.0 0.9191829162 -0.4021361804
1750289500.0 0.9189286363 -0.4040357224
1755289470.0 0.918877545 -0.4049384551
1760289440.0 0.9182461666 -0.4057841436
1765289410.0 0.9174906515 -0.4065639005
1770289380.0 0.9172314287 -0.4077407888
1775289350.0 0.9171334389 -0.4088988858
1780289320.0 0.9164413968 -0.4095208608
1785289290.0 0.915972689 -0.4115180259
1790289260.0 0.9153316699 -0.4123105354
1795289230.0 0.9150185247 -0.4133054376
1800289200.0 0.9147146122 -0.4150169088
1805289170.0 0.9140321413 -0.4161535643
1810289140.0 0.9137890789 -0.417094817
1815289110.0 0.9133324177 -0.4175714057
1820289080.0 0.9127732245 -0.418879499
1825289050.0 0.9125262901 -0.4194004551
1830289020.0 0.9122556195 -0.4200053049
1835288990.0 0.9115372657 -0.421372229
1840288960.0 0.9111891385 -0.4221695226
1845288930.0 0.9111338727 -0.4232995589
1850288900.0 0.9103068391 -0.4244514825
1855288870.0 0.9101942959 -0.4259452242
1860288840.0 0.9093565024 -0.4271544904
1865288810.0 0.9083996102 -0.4280909618
1870288780.0 0.9080065653 -0.4291138404
1875288750.0 0.9067544155 -0.4304722568
1880288720.0 0.9064389663 -0.4312979149
1885288690.0 0.9063009449 -0.4328251218
1890288660.0 0.9059648792 -0.4335998317
1895288630.0 0.9052752632 -0.4345560275
1900288600.0 0.9049614526 -0.4359384631
1905288570.0 0.9041272599 -0.4367203761
1910288540.0 0.9038957253 -0.4381235971
1915288510.0 0.9028637497 -0.4395107074
1920288480.0 0.9020120899 -0.4401482746
1925288450.0 0.9017912809 -0.4410474039
1930288420.0 0.9015272431 -0.4424233879
1935288390.0 0.900935463 -0.4436918129
1940288360.0 0.9005081082 -0.4443487902
1945288330.0 0.8997058049 -0.4457853393
1950288300.0 0.8989066348 -0.4470053545
1955288270.0 0.8985203702 -0.4486704386
1960288240.0 0.8979808952 -0.4494210943
1965288210.0 0.8970325626 -0.4510300583
1970288180.0 0.8966905395 -0.4519208862
1975288150.0 0.8963888677 -0.452564065
1980288120.0 0.8960235568 -0.4529854964
1985288090.0 0.8954716664 -0.4543112185
1990288060.0 0.8951029808 -0.4554175219
1995288030.0 0.8949032317 -0.4562376908
2000288000.0 0.8941310902 -0.4567360752
2005287970.0 0.8934372163 -0.4576940726
2010287940.0 0.8926628373 -0.4581870182
2015287910.0 0.8924641164 -0.4592315867
2020287880.0 0.8919516921 -0.4608903694
2025287850.0 0.8912064565 -0.4614414947
2030287820.0 0.8908162123 -0.4628132626
2035287790.0 0.8898739152 -0.4641751756
2040287760.0 0.8899609354 -0.4653807911
2045287730.0 0.8891534784 -0.466300741
2050287700.0 0.8887828843 -0.4672670523
2055287670.0 0.8882092173 -0.4681175278
2060287640.0 0.887714196 -0.4695089048
2065287610.0 0.8872688233 -0.4704705917
2070287580.0 0.8860950034 -0.4715607637
2075287550.0 0.8859391967 -0.4725458015
2080287520.0 0.8852707512 -0.4738211155
2085287490.0 0.8847973695 -0.4744076915
2090287460.0 0.884463381 -0.475157798
2095287430.0 0.8836802166 -0.4762949987
2100287400.0 0.8836342738 -0.4771919987
2105287370.0 0.8823749672 -0.4790881932
2110287340.0 0.8818476933 -0.4797633631
2115287310.0 0.8813888086 -0.4812588045
2120287280.0 0.8807478411 -0.4817075322
2125287250.0 0.8799756487 -0.4831746188
2130287220.0 0.8791563598 -0.4839410214
2135287190.0 0.8785656204 -0.4847913004
2140287160.0 0.8782122221 -0.4864223085
2145287130.0 0.8777488853 -0.4870883455
2150287100.0 0.8775152431 -0.4885284988
2155287070.0 0.8763175681 -0.4894277323
2160287040.0 0.8759352572 -0.4895668505
2165287010.0 0.8753204775 -0.490897
2170286980.0 0.8754057219 -0.4917120912
2175286950.0 0.874300005 -0.4925356502
2180286920.0 0.8741320069 -0.4939901278
2185286890.0 0.873609968 -0.494711435
2190286860.0 0.8730167913 -0.4958366339
2195286830.0 0.8725815838 -0.4959485873
2200286800.0 0.8727924463 -0.4968932105
2205286770.0 0.871138435 -0.4976495204
2210286740.0 0.8714143609 -0.49947372
2215286710.0 0.8703075983 -0.4998357928
2220286680.0 0.8694883057 -0.5013074999
2225286650.0 0.8688875617 -0.502725345
2230286620.0 0.8685746378 -0.5035906806
2235286590.0 0.8683019441 -0.5042698359
2240286560.0 0.8672073549 -0.5056127582
2245286530.0 0.8663047934 -0.5064617325
2250286500.0 0.8656675081 -0.5079466364
2255286470.0 0.8655462596 -0.5088089304
2260286440.0 0.8644632684 -0.509908879
2265286410.0 0.864175913 -0.5114673768
2270286380.0 0.863470519 -0.5123308009
2275286350.0 0.86242048 -0.5134904247
2280286320.0 0.8619248399 -0.5141803842
2285286290.0 0.8614417668 -0.5152864172
2290286260.0 0.8609255475 -0.5163552291
2295286230.0 0.8598195402 -0.5173971792
2300286200.0 0.8593496582 -0.5186350615
2305286170.0 0.858669081 -0.5190653401
2310286140.0 0.8580203834 -0.5207106426
2315286110.0 0.8573076412 -0.5217260222
2320286080.0 0.8566707658 -0.5223409161
2325286050.0 0.8561414317 -0.5236946455
2330286020.0 0.8553759031 -0.5241977652
2335285990.0 0.8543056227 -0.5251673801
2340285960.0 0.8545348836 -0.5261979076
2345285930.0 0.8538386656 -0.5272226276
2350285900.0 0.8526726792 -0.528478937
2355285870.0 0.852804777 -0.5294754673
2360285840.0 0.8516931686 -0.5306011223
2365285810.0 0.851287336 -0.5316413302
2370285780.0 0.8503970347 -0.5324798806
2375285750.0 0.8499813378 -0.5331633691
2380285720.0 0.8495303958 -0.5343156827
2385285690.0 0.8485357351 -0.5349338496
2390285660.0 0.8480742645 -0.536282897
2395285630.0 0.8473683555 -0.5372741605
2400285600.0 0.8464517186 -0.5377464149
2405285570.0 0.8461586404 -0.5383089741
2410285540.0 0.8450505816 -0.5398849808
2415285510.0 0.8454272219 -0.5402023301
2420285480.0 0.8448511423 -0.5411847869
2425285450.0 0.8436028322 -0.5426470649
2430285420.0 0.8427624834 -0.5431171096
2435285390.0 0.8424756865 -0.5440301805
2440285360.0 0.8418801539 -0.5451047943
2445285330.0 0.8413857258 -0.5464825441
2450285300.0 0.8403109262 -0.547357184
2455285270.0 0.8404325672 -0.5483383875
2460285240.0 0.8394964724 -0.5498746502
2465285210.0 0.8383478863 -0.5498657819
2470285180.0 0.8380105178 -0.5513521546
2475285150.0 0.8372943213 -0.5527481544
2480285120.0 0.8360451237 -0.5531548037
2485285090.0 0.8356650692 -0.5543426338
2490285060.0 0.8349391636 -0.5551564547
2495285030.0 0.8341451915 -0.5564779789
2500285000.0 0.8326008335 -0.5581165308
2505284970.0 0.8328030556 -0.5594597628
2510284940.0 0.8317523261 -0.5595990736
2515284910.0 0.8312118181 -0.5606512105
2520284880.0 0.8308313281 -0.561826394
2525284850.0 0.82966529 -0.5624973467
2530284820.0 0.8289967159 -0.5634676334
2535284790.0 0.8288834494 -0.5642734928
