!Created with skrf (http://scikit-rf.org).
# Hz S RI R 50.0 
!freq ReS11 ImS11
45000000.0 -0.07684326171875 -0.09691619873046875
49995500.0 -0.097412109375 -0.0942230224609375
54991000.0 -0.11792755126953125 -0.087921142578125
59986500.0 -0.13607025146484375 -0.0875701904296875
64982000.0 -0.1549072265625 -0.0800933837890625
69977500.0 -0.17401123046875 -0.06766510009765625
74973000.0 -0.19240570068359375 -0.0524139404296875
79968500.0 -0.20919036865234375 -0.03362274169921875
84964000.0 -0.22438812255859375 -0.01198577880859375
89959500.0 -0.2374114990234375 0.01268768310546875
94955000.0 -0.24715423583984375 0.04022216796875
99950500.0 -0.25341796875 0.0706634521484375
104946000.0 -0.2559356689453125 0.1029815673828125
109941500.0 -0.253936767578125 0.136749267578125
114937000.0 -0.24756622314453125 0.1715850830078125
119932500.0 -0.23609161376953125 0.206878662109375
124928000.0 -0.22008514404296875 0.24155426025390625
129923500.0 -0.1985321044921875 0.2750701904296875
134919000.0 -0.172027587890625 0.306854248046875
139914500.0 -0.1404876708984375 0.3360595703125
144910000.0 -0.10443115234375 0.3617095947265625
149905500.0 -0.0643463134765625 0.3833770751953125
154901000.0 -0.0209503173828125 0.400299072265625
159896500.0 0.0249176025390625 0.411865234375
164892000.0 0.073455810546875 0.4180145263671875
169887500.0 0.1233062744140625 0.418060302734375
174883000.0 0.1739501953125 0.412353515625
179878500.0 0.224365234375 0.40008544921875
184874000.0 0.27423095703125 0.3818817138671875
189869500.0 0.3226318359375 0.3574371337890625
194865000.0 0.3687591552734375 0.3273773193359375
199860500.0 0.41192626953125 0.29150390625
204856000.0 0.4514007568359375 0.24981689453125
209851500.0 0.4868011474609375 0.2034912109375
214847000.0 0.517669677734375 0.152313232421875
219842500.0 0.54315185546875 0.0965576171875
224838000.0 0.562713623046875 0.037322998046875
229833500.0 0.5758056640625 -0.025177001953125
234829000.0 0.581878662109375 -0.09002685546875
239824500.0 0.58056640625 -0.15704345703125
244820000.0 0.571563720703125 -0.224853515625
249815500.0 0.55419921875 -0.292388916015625
254811000.0 0.5478515625 -0.33966064453125
259806500.0 0.517974853515625 -0.405670166015625
264802000.0 0.479766845703125 -0.4692230224609375
269797500.0 0.43310546875 -0.529083251953125
274793000.0 0.378662109375 -0.5838623046875
279788500.0 0.31707763671875 -0.632232666015625
284784000.0 0.24945068359375 -0.67413330078125
289779500.0 0.176055908203125 -0.708038330078125
294775000.0 0.097900390625 -0.7340087890625
299770500.0 0.017120361328125 -0.750518798828125
304766000.0 -0.06640625 -0.758056640625
309761500.0 -0.150238037109375 -0.75537109375
314757000.0 -0.2342529296875 -0.74285888671875
319752500.0 -0.31695556640625 -0.721038818359375
324748000.0 -0.397369384765625 -0.6905517578125
329743500.0 -0.4747314453125 -0.6510009765625
334739000.0 -0.54815673828125 -0.603179931640625
339734500.0 -0.616912841796875 -0.5472412109375
344730000.0 -0.679840087890625 -0.483795166015625
349725500.0 -0.736663818359375 -0.4136962890625
354721000.0 -0.78668212890625 -0.336944580078125
359716500.0 -0.82861328125 -0.2542724609375
364712000.0 -0.8621826171875 -0.166107177734375
369707500.0 -0.886993408203125 -0.0731201171875
374703000.0 -0.90216064453125 0.0240478515625
379698500.0 -0.9066162109375 0.124237060546875
384694000.0 -0.89984130859375 0.226318359375
389689500.0 -0.88104248046875 0.328399658203125
394685000.0 -0.849945068359375 0.430419921875
399680500.0 -0.806793212890625 0.5299072265625
404676000.0 -0.751678466796875 0.625274658203125
409671500.0 -0.684173583984375 0.714141845703125
414667000.0 -0.60565185546875 0.79595947265625
419662500.0 -0.5162353515625 0.869293212890625
424658000.0 -0.417694091796875 0.92901611328125
429653500.0 -0.310791015625 0.97802734375
434649000.0 -0.197509765625 1.012451171875
439644500.0 -0.08270263671875 1.03253173828125
444640000.0 0.0328369140625 1.03912353515625
449635500.0 0.14764404296875 1.0338134765625
454631000.0 0.26129150390625 1.016357421875
459626500.0 0.373138427734375 0.98583984375
464622000.0 0.48004150390625 0.942626953125
469617500.0 0.580780029296875 0.888031005859375
474613000.0 0.6749267578125 0.824066162109375
479608500.0 0.761505126953125 0.75128173828125
484604000.0 0.840606689453125 0.6702880859375
489599500.0 0.91119384765625 0.58209228515625
494595000.0 0.97332763671875 0.487213134765625
499590500.0 1.0263671875 0.38665771484375
504586000.0 1.06988525390625 0.28076171875
509581500.0 1.103515625 0.16986083984375
514577000.0 1.127197265625 0.05450439453125
519572500.0 1.13934326171875 -0.0648193359375
524568000.0 1.13983154296875 -0.1873779296875
529563500.0 1.12750244140625 -0.312255859375
534559000.0 1.10076904296875 -0.43804931640625
539554500.0 1.05950927734375 -0.5635986328125
544550000.0 1.00323486328125 -0.68548583984375
549545500.0 0.930938720703125 -0.802825927734375
554541000.0 0.8436279296875 -0.912078857421875
559536500.0 0.74200439453125 -1.01177978515625
564532000.0 0.62738037109375 -1.09942626953125
569527500.0 0.50091552734375 -1.1728515625
574523000.0 0.36614990234375 -1.23028564453125
579518500.0 0.22412109375 -1.27081298828125
584514000.0 0.0782470703125 -1.2933349609375
589509500.0 -0.06915283203125 -1.2977294921875
594505000.0 -0.21527099609375 -1.2840576171875
599500500.0 -0.35791015625 -1.25286865234375
604496000.0 -0.49493408203125 -1.2056884765625
609491500.0 -0.62420654296875 -1.1444091796875
614487000.0 -0.744384765625 -1.0699462890625
619482500.0 -0.854949951171875 -0.98455810546875
624478000.0 -0.954498291015625 -0.8885498046875
629473500.0 -1.043212890625 -0.7847900390625
634469000.0 -1.12054443359375 -0.67327880859375
639464500.0 -1.18682861328125 -0.5557861328125
644460000.0 -1.24188232421875 -0.43310546875
649455500.0 -1.28564453125 -0.30535888671875
654451000.0 -1.31781005859375 -0.17340087890625
659446500.0 -1.33831787109375 -0.0380859375
664442000.0 -1.34649658203125 0.10064697265625
669437500.0 -1.342041015625 0.24176025390625
674433000.0 -1.32342529296875 0.38433837890625
679428500.0 -1.2899169921875 0.52789306640625
684424000.0 -1.24151611328125 0.67071533203125
689419500.0 -1.17608642578125 0.8109130859375
694415000.0 -1.0938720703125 0.9464111328125
699410500.0 -0.99407958984375 1.0750732421875
704406000.0 -0.87750244140625 1.193603515625
709401500.0 -0.7440185546875 1.30023193359375
714397000.0 -0.59576416015625 1.39031982421875
719392500.0 -0.4339599609375 1.46270751953125
724388000.0 -0.26263427734375 1.51409912109375
729383500.0 -0.08392333984375 1.542724609375
734379000.0 0.0977783203125 1.54644775390625
739374500.0 0.27838134765625 1.52691650390625
744370000.0 0.4537353515625 1.48431396484375
749365500.0 0.62109375 1.41986083984375
754361000.0 0.77685546875 1.33642578125
759356500.0 0.919189453125 1.23577880859375
764352000.0 1.0462646484375 1.120849609375
769347500.0 1.15740966796875 0.99505615234375
774343000.0 1.252685546875 0.86029052734375
779338500.0 1.33050537109375 0.71759033203125
784334000.0 1.393798828125 0.5718994140625
789329500.0 1.44097900390625 0.42266845703125
794325000.0 1.473876953125 0.27130126953125
799320500.0 1.49224853515625 0.1195068359375
804316000.0 1.49627685546875 -0.0325927734375
809311500.0 1.4873046875 -0.18426513671875
814307000.0 1.46484375 -0.33441162109375
819302500.0 1.4285888671875 -0.4825439453125
824298000.0 1.37921142578125 -0.6279296875
829293500.0 1.31695556640625 -0.76983642578125
834289000.0 1.23919677734375 -0.90802001953125
839284500.0 1.14801025390625 -1.0396728515625
844280000.0 1.10443115234375 -1.12994384765625
849275500.0 0.98724365234375 -1.25164794921875
854271000.0 0.8558349609375 -1.362060546875
859266500.0 0.7095947265625 -1.4583740234375
864262000.0 0.549560546875 -1.53948974609375
869257500.0 0.3785400390625 -1.60174560546875
874253000.0 0.2012939453125 -1.6446533203125
879248500.0 0.017578125 -1.66607666015625
884244000.0 -0.16925048828125 -1.66534423828125
889239500.0 -0.35577392578125 -1.6419677734375
894235000.0 -0.53851318359375 -1.59686279296875
899230500.0 -0.71490478515625 -1.53009033203125
904226000.0 -0.8828125 -1.4423828125
909221500.0 -1.03857421875 -1.33447265625
914217000.0 -1.178955078125 -1.20867919921875
919212500.0 -1.30230712890625 -1.068359375
924208000.0 -1.40625 -0.917236328125
929203500.0 -1.49163818359375 -0.75714111328125
934199000.0 -1.5579833984375 -0.59246826171875
939194500.0 -1.60614013671875 -0.42425537109375
944190000.0 -1.63751220703125 -0.2548828125
949185500.0 -1.65203857421875 -0.0849609375
954181000.0 -1.65118408203125 0.083984375
959176500.0 -1.63458251953125 0.25152587890625
964172000.0 -1.60345458984375 0.4163818359375
969167500.0 -1.5572509765625 0.57769775390625
974163000.0 -1.49627685546875 0.73565673828125
979158500.0 -1.42010498046875 0.888427734375
984154000.0 -1.329345703125 1.0357666015625
989149500.0 -1.222412109375 1.176025390625
994145000.0 -1.10028076171875 1.30718994140625
999140500.0 -0.9632568359375 1.4271240234375
1004136000.0 -0.81170654296875 1.53399658203125
1009131500.0 -0.64532470703125 1.626220703125
1014127000.0 -0.4664306640625 1.6998291015625
1019122500.0 -0.2769775390625 1.75323486328125
1024118000.0 -0.07977294921875 1.7830810546875
1029113500.0 0.12225341796875 1.78973388671875
1034109000.0 0.32525634765625 1.77069091796875
1039104500.0 0.52520751953125 1.72625732421875
1044100000.0 0.718994140625 1.65765380859375
1049095500.0 0.90179443359375 1.5645751953125
1054091000.0 1.0711669921875 1.45074462890625
1059086500.0 1.22454833984375 1.318115234375
1064082000.0 1.35858154296875 1.16937255859375
1069077500.0 1.47344970703125 1.008056640625
1074073000.0 1.56744384765625 0.837646484375
1079068500.0 1.64105224609375 0.6605224609375
1084064000.0 1.6947021484375 0.4794921875
1089059500.0 1.7281494140625 0.29620361328125
1094055000.0 1.74346923828125 0.11328125
1099050500.0 1.74066162109375 -0.06817626953125
1104046000.0 1.720703125 -0.24700927734375
1109041500.0 1.68377685546875 -0.42205810546875
1114037000.0 1.63067626953125 -0.5919189453125
1119032500.0 1.5623779296875 -0.7562255859375
1124028000.0 1.47894287109375 -0.91351318359375
1129023500.0 1.38031005859375 -1.063720703125
1134019000.0 1.26690673828125 -1.2041015625
1139014500.0 1.138916015625 -1.3348388671875
1144010000.0 0.99737548828125 -1.4534912109375
1149005500.0 0.8421630859375 -1.55755615234375
1154001000.0 0.6749267578125 -1.64727783203125
1158996500.0 0.49639892578125 -1.7197265625
1163992000.0 0.30828857421875 -1.77191162109375
1168987500.0 0.11273193359375 -1.80364990234375
1173983000.0 -0.087158203125 -1.812744140625
1178978500.0 -0.28857421875 -1.79754638671875
1183974000.0 -0.48809814453125 -1.7586669921875
1188969500.0 -0.68304443359375 -1.6959228515625
1193965000.0 -0.869873046875 -1.60955810546875
1198960500.0 -1.0450439453125 -1.50152587890625
1203956000.0 -1.20526123046875 -1.372802734375
1208951500.0 -1.34820556640625 -1.2265625
1213947000.0 -1.471435546875 -1.0655517578125
1218942500.0 -1.57464599609375 -0.89239501953125
1223938000.0 -1.65582275390625 -0.71063232421875
1228933500.0 -1.71539306640625 -0.52288818359375
1233929000.0 -1.75335693359375 -0.3319091796875
1238924500.0 -1.76934814453125 -0.14117431640625
1243920000.0 -1.7652587890625 0.0479736328125
1248915500.0 -1.74176025390625 0.2335205078125
1253911000.0 -1.69976806640625 0.41290283203125
1258906500.0 -1.64068603515625 0.5858154296875
1263902000.0 -1.56561279296875 0.75006103515625
1268897500.0 -1.4755859375 0.9056396484375
1273893000.0 -1.37060546875 1.0509033203125
1278888500.0 -1.25311279296875 1.18365478515625
1283884000.0 -1.12274169921875 1.3052978515625
1288879500.0 -0.981689453125 1.41351318359375
1293875000.0 -0.83013916015625 1.507568359375
1298870500.0 -0.66949462890625 1.5869140625
1303866000.0 -0.501953125 1.6453857421875
1308861500.0 -0.32818603515625 1.68963623046875
1313857000.0 -0.150390625 1.71575927734375
1318852500.0 0.03009033203125 1.72314453125
1323848000.0 0.21044921875 1.7115478515625
1328843500.0 0.38916015625 1.68157958984375
1333839000.0 0.564453125 1.63299560546875
1338834500.0 0.734130859375 1.56573486328125
1343830000.0 0.89617919921875 1.48199462890625
1348825500.0 1.04931640625 1.38037109375
1353821000.0 1.19073486328125 1.2626953125
1358816500.0 1.320068359375 1.1312255859375
1363812000.0 1.4354248046875 0.98541259765625
1368807500.0 1.534423828125 0.82818603515625
1373803000.0 1.61663818359375 0.66021728515625
1378798500.0 1.6810302734375 0.4832763671875
1383794000.0 1.7259521484375 0.30029296875
1388789500.0 1.75018310546875 0.11212158203125
1393785000.0 1.7535400390625 -0.07818603515625
1398780500.0 1.7364501953125 -0.26910400390625
1403776000.0 1.6968994140625 -0.4569091796875
1408771500.0 1.6363525390625 -0.639404296875
1413767000.0 1.554931640625 -0.81463623046875
1418762500.0 1.4541015625 -0.97857666015625
1423758000.0 1.3350830078125 -1.13006591796875
1428753500.0 1.1998291015625 -1.2659912109375
1433749000.0 1.05084228515625 -1.384765625
1438744500.0 0.890625 -1.48492431640625
1443740000.0 0.7205810546875 -1.5654296875
1448735500.0 0.54498291015625 -1.62506103515625
1453731000.0 0.3662109375 -1.6644287109375
1458726500.0 0.18634033203125 -1.68414306640625
1463722000.0 0.00836181640625 -1.68450927734375
1468717500.0 -0.16650390625 -1.66619873046875
1473713000.0 -0.33624267578125 -1.6309814453125
1478708500.0 -0.4993896484375 -1.5794677734375
1483704000.0 -0.6549072265625 -1.512939453125
1488699500.0 -0.80224609375 -1.43316650390625
1493695000.0 -0.939208984375 -1.34039306640625
1498690500.0 -1.066650390625 -1.23638916015625
1503686000.0 -1.18353271484375 -1.1209716796875
1508681500.0 -1.28924560546875 -0.99664306640625
1513677000.0 -1.3834228515625 -0.8623046875
1518672500.0 -1.465576171875 -0.71954345703125
1523668000.0 -1.53436279296875 -0.56884765625
1528663500.0 -1.58868408203125 -0.41046142578125
1533659000.0 -1.62847900390625 -0.24566650390625
1538654500.0 -1.6519775390625 -0.0765380859375
1543650000.0 -1.65826416015625 0.09747314453125
1548645500.0 -1.64569091796875 0.27362060546875
1553641000.0 -1.61376953125 0.44976806640625
1558636500.0 -1.561279296875 0.62347412109375
1563632000.0 -1.48870849609375 0.7919921875
1568627500.0 -1.3961181640625 0.9530029296875
1573623000.0 -1.28424072265625 1.10174560546875
1578618500.0 -1.1539306640625 1.23736572265625
1583614000.0 -1.0086669921875 1.35552978515625
1588609500.0 -0.84979248046875 1.4554443359375
1593605000.0 -0.68170166015625 1.53460693359375
1598600500.0 -0.50701904296875 1.59222412109375
1603596000.0 -0.32879638671875 1.62860107421875
1608591500.0 -0.150146484375 1.6435546875
1613587000.0 0.02587890625 1.638916015625
1618582500.0 0.19769287109375 1.61553955078125
1623578000.0 0.362548828125 1.5745849609375
1628573500.0 0.5189208984375 1.51751708984375
1633569000.0 0.66705322265625 1.44720458984375
1638564500.0 0.80499267578125 1.36456298828125
1643560000.0 0.9327392578125 1.27032470703125
1648555500.0 1.050537109375 1.1663818359375
1653551000.0 1.157470703125 1.0533447265625
1658546500.0 1.2535400390625 0.93212890625
1663542000.0 1.3385009765625 0.80328369140625
1668537500.0 1.4124755859375 0.66741943359375
1673533000.0 1.4742431640625 0.5247802734375
1678528500.0 1.52362060546875 0.37542724609375
1683524000.0 1.55963134765625 0.22100830078125
1688519500.0 1.580810546875 0.06085205078125
1693515000.0 1.586181640625 -0.10345458984375
1698510500.0 1.5748291015625 -0.27032470703125
1703506000.0 1.54522705078125 -0.437744140625
1708501500.0 1.4959716796875 -0.60357666015625
1713497000.0 1.427490234375 -0.76580810546875
1718492500.0 1.33868408203125 -0.92034912109375
1723488000.0 1.2308349609375 -1.06475830078125
1728483500.0 1.10491943359375 -1.19549560546875
1733479000.0 0.96356201171875 -1.3092041015625
1738474500.0 0.809814453125 -1.4046630859375
1743470000.0 0.64593505859375 -1.47918701171875
1748465500.0 0.4761962890625 -1.5323486328125
1753461000.0 0.3031005859375 -1.56427001953125
1758456500.0 0.132080078125 -1.57550048828125
1763452000.0 -0.03564453125 -1.56756591796875
1768447500.0 -0.19793701171875 -1.54132080078125
1773443000.0 -0.35284423828125 -1.49932861328125
1778438500.0 -0.499755859375 -1.443603515625
1783434000.0 -0.63726806640625 -1.37530517578125
1788429500.0 -0.7647705078125 -1.29608154296875
1793425000.0 -0.88330078125 -1.20745849609375
1798420500.0 -0.99237060546875 -1.11083984375
1803416000.0 -1.09173583984375 -1.00604248046875
1808411500.0 -1.18218994140625 -0.8941650390625
1813407000.0 -1.26220703125 -0.7755126953125
1818402500.0 -1.3333740234375 -0.65020751953125
1823398000.0 -1.3936767578125 -0.51788330078125
1828393500.0 -1.44366455078125 -0.37945556640625
1833389000.0 -1.48046875 -0.23486328125
1838384500.0 -1.50506591796875 -0.08477783203125
1843380000.0 -1.51483154296875 0.0703125
1848375500.0 -1.508056640625 0.22882080078125
1853371000.0 -1.48455810546875 0.388427734375
1858366500.0 -1.4425048828125 0.5487060546875
1863362000.0 -1.3812255859375 0.70452880859375
1868357500.0 -1.30010986328125 0.85455322265625
1873353000.0 -1.20086669921875 0.99517822265625
1878348500.0 -1.08380126953125 1.12359619140625
1883344000.0 -0.951171875 1.23541259765625
1888339500.0 -0.80584716796875 1.33026123046875
1893335000.0 -0.6513671875 1.40509033203125
1898330500.0 -0.49017333984375 1.4595947265625
1903326000.0 -0.326416015625 1.4942626953125
1908321500.0 -0.16278076171875 1.50872802734375
1913317000.0 -0.00213623046875 1.50439453125
1918312500.0 0.1536865234375 1.48345947265625
1923308000.0 0.30267333984375 1.4473876953125
1928303500.0 0.444091796875 1.39739990234375
1933299000.0 0.5771484375 1.33551025390625
1938294500.0 0.7010498046875 1.2626953125
1943290000.0 0.81640625 1.18121337890625
1948285500.0 0.923095703125 1.09112548828125
1953281000.0 1.0206298828125 0.99310302734375
1958276500.0 1.10858154296875 0.8883056640625
1963272000.0 1.18798828125 0.776611328125
1968267500.0 1.25738525390625 0.65765380859375
1973263000.0 1.31719970703125 0.53424072265625
1978258500.0 1.3665771484375 0.40380859375
1983254000.0 1.403564453125 0.2681884765625
1988249500.0 1.42913818359375 0.127685546875
1993245000.0 1.44049072265625 -0.01702880859375
1998240500.0 1.4378662109375 -0.163330078125
2003236000.0 1.4193115234375 -0.31219482421875
2008231500.0 1.38494873046875 -0.4593505859375
2013227000.0 1.33404541015625 -0.60430908203125
2018222500.0 1.26641845703125 -0.74310302734375
2023218000.0 1.18316650390625 -0.87457275390625
2028213500.0 1.08489990234375 -0.99664306640625
2033209000.0 0.97314453125 -1.10626220703125
2038204500.0 0.849609375 -1.20263671875
2043200000.0 0.71661376953125 -1.2835693359375
2048195500.0 0.57659912109375 -1.3485107421875
2053191000.0 0.43109130859375 -1.39788818359375
2058186500.0 0.2830810546875 -1.4310302734375
2063182000.0 0.1339111328125 -1.44781494140625
2068177500.0 -0.01422119140625 -1.44921875
2073173000.0 -0.16009521484375 -1.43603515625
2078168500.0 -0.30316162109375 -1.40911865234375
2083164000.0 -0.441650390625 -1.36981201171875
2088159500.0 -0.57464599609375 -1.318115234375
2093155000.0 -0.7021484375 -1.25421142578125
2098150500.0 -0.82354736328125 -1.17974853515625
2103146000.0 -0.9373779296875 -1.09417724609375
2108141500.0 -1.04425048828125 -0.99835205078125
2113137000.0 -1.14190673828125 -0.89208984375
2118132500.0 -1.2308349609375 -0.77606201171875
2123128000.0 -1.3087158203125 -0.6507568359375
2128123500.0 -1.375 -0.5172119140625
2133119000.0 -1.4285888671875 -0.375
2138114500.0 -1.467529296875 -0.22528076171875
2143110000.0 -1.49078369140625 -0.071044921875
2148105500.0 -1.49664306640625 0.087890625
2153101000.0 -1.485107421875 0.24774169921875
2158096500.0 -1.454833984375 0.4071044921875
2163092000.0 -1.40582275390625 0.56280517578125
2168087500.0 -1.33880615234375 0.71270751953125
2173083000.0 -1.25396728515625 0.85357666015625
2178078500.0 -1.15362548828125 0.9830322265625
2183074000.0 -1.0390625 1.09967041015625
2188069500.0 -0.91351318359375 1.2012939453125
2193065000.0 -0.77789306640625 1.2872314453125
