!Created with skrf (http://scikit-rf.org).
# Hz S RI R 50.0 
!freq ReS11 ImS11
300000.0 -1.024273687 -0.166071498
5299970.0 -1.004412101 0.001462818
10299940.0 -1.00270137 0.0005799905
15299910.0 -1.002447462 0.0067942983
20299880.0 -1.002730581 0.0059879572
25299850.0 -1.00271346 0.0088087285
30299820.0 -1.001954525 0.0104506037
35299790.0 -1.0021295 0.0103034325
40299760.0 -1.00178144 0.0118855251
45299730.0 -1.001930581 0.0138659706
50299700.0 -1.001384169 0.014967746
55299670.0 -1.001189669 0.0164811047
60299640.0 -1.001152988 0.0177608608
65299610.0 -1.001173537 0.0186835602
70299580.0 -1.00088334 0.0201445312
75299550.0 -1.001189551 0.0217232775
80299520.0 -1.001249063 0.0232076308
85299490.0 -1.000666281 0.0242377372
90299460.0 -1.000990046 0.0258300532
95299430.0 -1.000679979 0.0268600744
100299400.0 -1.000898462 0.0286001403
105299370.0 -1.000640789 0.0299435717
110299340.0 -1.00083634 0.0317697333
115299310.0 -1.000639378 0.0327382435
120299280.0 -1.000485711 0.0339221501
125299250.0 -1.000811447 0.0353103011
130299220.0 -1.000511259 0.0373868256
135299190.0 -1.00048562 0.0379024432
140299160.0 -1.000531315 0.0395328327
145299130.0 -1.000567338 0.0403515411
150299100.0 -1.000667694 0.0421601384
155299070.0 -0.9998342722 0.0430170735
160299040.0 -0.9996770808 0.0448241601
165299010.0 -1.000343376 0.0462651012
170298980.0 -1.00000623 0.0477083301
175298950.0 -0.9980440025 0.0483284777
180298920.0 -0.9971242221 0.04903118
185298890.0 -0.9985478493 0.0507663743
190298860.0 -1.000013962 0.0525991409
195298830.0 -0.9996124471 0.0534484909
200298800.0 -0.9997869777 0.0554359799
205298770.0 -0.9994478806 0.0569796737
210298740.0 -0.9994886932 0.0581100155
215298710.0 -0.999957224 0.0597195898
220298680.0 -1.000137589 0.0609654886
225298650.0 -0.9992406389 0.0620633581
230298620.0 -0.9997412484 0.0633623133
235298590.0 -0.9994200564 0.0650036694
240298560.0 -0.9996627904 0.0660248932
245298530.0 -0.9997918114 0.0674237877
250298500.0 -0.9992375329 0.0688638368
255298470.0 -0.9994003534 0.0700959411
260298440.0 -0.9994029436 0.0715753295
265298410.0 -0.9990059213 0.0725777865
270298380.0 -0.9993751016 0.07381504
275298350.0 -0.9990003829 0.0758029824
280298320.0 -0.998828612 0.077185804
285298290.0 -0.9986944517 0.0783753239
290298260.0 -0.9982865499 0.0798215398
295298230.0 -0.9991505836 0.0810066883
300298200.0 -0.9986899184 0.0825846308
305298170.0 -0.9981327582 0.0839957055
310298140.0 -0.9981843411 0.0851667599
315298110.0 -0.9980501928 0.0864032783
320298080.0 -0.9981349591 0.0879594597
325298050.0 -0.9978047434 0.0888108463
330298020.0 -0.9979437167 0.0909048406
335297990.0 -0.9981318237 0.0918118725
340297960.0 -0.9977744685 0.0934988777
345297930.0 -0.9979271955 0.0944784631
350297900.0 -0.9982492164 0.0962072838
355297870.0 -0.9982233802 0.0972086491
360297840.0 -0.9978520246 0.0981964227
365297810.0 -0.9985133665 0.099535994
370297780.0 -0.9976952157 0.1011336389
375297750.0 -0.997617093 0.1027926369
380297720.0 -0.9966348746 0.1033221177
385297690.0 -0.9971035948 0.1048235559
390297660.0 -0.997299807 0.1069925324
395297630.0 -0.9964189495 0.1076292967
400297600.0 -0.9962649588 0.1093999665
405297570.0 -0.9965409789 0.1111762931
410297540.0 -0.996389997 0.1123167237
415297510.0 -0.996380424 0.1136042403
420297480.0 -0.9959105161 0.1148473889
425297450.0 -0.9955785308 0.1161085165
430297420.0 -0.9955159104 0.1176589233
435297390.0 -0.9958542118 0.1189045852
440297360.0 -0.995296111 0.1202947173
445297330.0 -0.9952992243 0.1217171429
450297300.0 -0.9941060155 0.1233974245
455297270.0 -0.9951699207 0.1242622072
460297240.0 -0.9949565935 0.125751304
465297210.0 -0.9950322195 0.1273971766
470297180.0 -0.9942469855 0.1288659688
475297150.0 -0.9943057794 0.1299475616
480297120.0 -0.9938673292 0.1309530324
485297090.0 -0.9937929685 0.1326853541
490297060.0 -0.993895628 0.1336826336
495297030.0 -0.9933729823 0.13559023
500297000.0 -0.9934595767 0.1370110081
505296970.0 -0.9938381466 0.1380361482
510296940.0 -0.9933792892 0.1392850767
515296910.0 -0.9935766525 0.1402263375
520296880.0 -0.9935125149 0.14234194
525296850.0 -0.993428611 0.14322341
530296820.0 -0.9930522787 0.1452347102
535296790.0 -0.9933076689 0.1458127986
540296760.0 -0.9928594953 0.1470180175
545296730.0 -0.9928865847 0.1486873089
550296700.0 -0.9927323753 0.1502867746
555296670.0 -0.9923526108 0.1513837662
560296640.0 -0.9919657932 0.1528308709
565296610.0 -0.9914488283 0.1542631067
570296580.0 -0.9912310151 0.15620362
575296550.0 -0.9906805408 0.1573116755
580296520.0 -0.9909552858 0.1593814934
585296490.0 -0.9903635325 0.1599889065
590296460.0 -0.9905187782 0.1614705653
595296430.0 -0.9903895594 0.1628766626
600296400.0 -0.9899068676 0.1645042595
605296370.0 -0.9899007811 0.1655401951
610296340.0 -0.9895011446 0.166599
615296310.0 -0.9896935114 0.1679415418
620296280.0 -0.9892447809 0.1694073896
625296250.0 -0.989030143 0.1701232889
630296220.0 -0.9887356171 0.1719824284
635296190.0 -0.9884682163 0.1733792574
640296160.0 -0.9884234458 0.1741302893
645296130.0 -0.987916439 0.1752841586
650296100.0 -0.9876358792 0.1767918303
655296070.0 -0.9871915574 0.1785561597
660296040.0 -0.9874909098 0.179652638
665296010.0 -0.986453171 0.1809173144
670295980.0 -0.9866673249 0.1826855281
675295950.0 -0.9865746847 0.1841111132
680295920.0 -0.9862768714 0.1848867769
685295890.0 -0.9862641667 0.1868459871
690295860.0 -0.9858712974 0.1880670169
695295830.0 -0.9858720232 0.1886640533
700295800.0 -0.9853263313 0.1906084343
705295770.0 -0.9851654032 0.1922227388
710295740.0 -0.9851637263 0.1933536914
715295710.0 -0.9845932294 0.1950621757
720295680.0 -0.9843681097 0.1966934177
725295650.0 -0.9843594096 0.1980025442
730295620.0 -0.9836287681 0.1982319796
735295590.0 -0.9842957674 0.1997985743
740295560.0 -0.9828437181 0.2007961312
745295530.0 -0.9829550474 0.2027596844
750295500.0 -0.9825210365 0.2036521462
755295470.0 -0.9826370537 0.2055751559
760295440.0 -0.9820997372 0.206720662
765295410.0 -0.9823516326 0.2081182088
770295380.0 -0.9812370032 0.2096658881
775295350.0 -0.9814257908 0.210572943
780295320.0 -0.9811011125 0.2118697312
785295290.0 -0.9809680637 0.2133989709
790295260.0 -0.9808557798 0.2147805489
795295230.0 -0.9800068762 0.2164801552
800295200.0 -0.9798177761 0.2174191135
805295170.0 -0.9791568054 0.2191835263
810295140.0 -0.979606895 0.2202034068
815295110.0 -0.9793810355 0.2214811548
820295080.0 -0.9791843574 0.2233668048
825295050.0 -0.9786278569 0.2247492719
830295020.0 -0.9783125502 0.2254391319
835294990.0 -0.9777067684 0.2272148256
840294960.0 -0.9770495339 0.2287681803
845294930.0 -0.9773421593 0.229420268
850294900.0 -0.9767705522 0.2309966049
855294870.0 -0.976953557 0.2324705232
860294840.0 -0.9761507982 0.2336577352
865294810.0 -0.9758567405 0.2352675932
870294780.0 -0.9758711036 0.2362660192
875294750.0 -0.975547556 0.2374637508
880294720.0 -0.9754204557 0.2386234157
885294690.0 -0.9752129935 0.2400859213
890294660.0 -0.9743091398 0.2415271596
895294630.0 -0.974137107 0.243001972
900294600.0 -0.9735647295 0.2440146389
905294570.0 -0.9733718357 0.245238404
910294540.0 -0.9730169759 0.2467820379
915294510.0 -0.9726290568 0.2483855707
920294480.0 -0.9723940472 0.2491097262
925294450.0 -0.971650717 0.250954706
930294420.0 -0.9715652156 0.2516283215
935294390.0 -0.9713056488 0.2532792451
940294360.0 -0.9703918884 0.2540082874
945294330.0 -0.9700832794 0.2561247962
950294300.0 -0.970214871 0.2573350094
955294270.0 -0.9699551574 0.2586000605
960294240.0 -0.9695674586 0.2595996593
965294210.0 -0.9689997459 0.2611519064
970294180.0 -0.9686447991 0.2630255588
975294150.0 -0.9680515206 0.2638420224
980294120.0 -0.9681316069 0.2646398331
985294090.0 -0.9677997977 0.2660537421
990294060.0 -0.9672724306 0.2677309209
995294030.0 -0.9670193978 0.2688386978
1000294000.0 -0.9664840573 0.2701103478
1005293970.0 -0.9665072641 0.271694229
1010293940.0 -0.9656137892 0.2731489415
1015293910.0 -0.9656817831 0.2739688666
1020293880.0 -0.9651615673 0.2753463526
1025293850.0 -0.9648356946 0.2761407157
1030293820.0 -0.9645162511 0.277300965
1035293790.0 -0.9636842125 0.2783397862
1040293760.0 -0.9632831746 0.2805453362
1045293730.0 -0.9629343141 0.2823340007
1050293700.0 -0.9620607091 0.283248912
1055293670.0 -0.9616745103 0.2843212191
1060293640.0 -0.9617244976 0.2858192706
1065293610.0 -0.9612027353 0.2871254912
1070293580.0 -0.9610590896 0.2881882033
1075293550.0 -0.9603732136 0.2892635227
1080293520.0 -0.960250432 0.2909478894
1085293490.0 -0.9598825029 0.2916687545
1090293460.0 -0.9596292195 0.293683844
1095293430.0 -0.9586500633 0.2953539611
1100293400.0 -0.9587017637 0.2963687277
1105293370.0 -0.9580923605 0.2976012338
1110293340.0 -0.9574685518 0.2991781869
1115293310.0 -0.9570347723 0.3003519529
1120293280.0 -0.9568466298 0.301238884
1125293250.0 -0.9564148718 0.302069454
1130293220.0 -0.9559342696 0.3037656953
1135293190.0 -0.9553910906 0.3054641857
1140293160.0 -0.9549642877 0.306750554
1145293130.0 -0.9547493731 0.30872826
1150293100.0 -0.9541765464 0.3100043769
1155293070.0 -0.9535015149 0.3111065566
1160293040.0 -0.9529432057 0.312945947
1165293010.0 -0.9528853015 0.3133936475
1170292980.0 -0.9527209773 0.3145359748
1175292950.0 -0.9518645142 0.3162681794
1180292920.0 -0.9517766243 0.3169140777
1185292890.0 -0.9514574236 0.3176576857
1190292860.0 -0.9509148858 0.3191004243
1195292830.0 -0.9501240245 0.3199636381
1200292800.0 -0.9497894119 0.3214142261
1205292770.0 -0.9495351226 0.322547679
1210292740.0 -0.9496254921 0.3239682955
1215292710.0 -0.94844625 0.3254610666
1220292680.0 -0.9483947084 0.3266685466
1225292650.0 -0.9479401776 0.3278358495
1230292620.0 -0.9471822349 0.3293894065
1235292590.0 -0.9464997804 0.3305649591
1240292560.0 -0.9460507831 0.33160593
1245292530.0 -0.9456719208 0.3323927125
1250292500.0 -0.9450650881 0.33429898
1255292470.0 -0.9453395544 0.335622869
1260292440.0 -0.9440800217 0.336476963
1265292410.0 -0.9440723793 0.3380991818
1270292380.0 -0.9439071671 0.3391958917
1275292350.0 -0.9428596111 0.3401009136
1280292320.0 -0.9429219031 0.3418851584
1285292290.0 -0.9420418635 0.3430983228
1290292260.0 -0.9413866872 0.3444268332
1295292230.0 -0.9406378063 0.3455504141
1300292200.0 -0.9405955157 0.3466572536
1305292170.0 -0.9399947532 0.34789721
1310292140.0 -0.9396561099 0.3490981519
1315292110.0 -0.9389501689 0.350382385
1320292080.0 -0.9388774265 0.3512429109
1325292050.0 -0.9379071642 0.3530114329
1330292020.0 -0.9371962138 0.3540097797
1335291990.0 -0.9364254968 0.3561567802
1340291960.0 -0.9361365386 0.3572422463
1345291930.0 -0.9358582091 0.3585060765
1350291900.0 -0.9354546662 0.3595891336
1355291870.0 -0.9348327332 0.3611984756
1360291840.0 -0.934428541 0.3618851359
1365291810.0 -0.9340450783 0.3628877114
1370291780.0 -0.9337160599 0.3640367044
1375291750.0 -0.9328711754 0.3654266437
1380291720.0 -0.9327649239 0.3665783672
1385291690.0 -0.9321824307 0.3684209763
1390291660.0 -0.9315521576 0.3698269578
1395291630.0 -0.9306618866 0.3707073549
1400291600.0 -0.930272366 0.3719191636
1405291570.0 -0.9296538822 0.3732327129
1410291540.0 -0.9298866924 0.3744293046
1415291510.0 -0.9287714143 0.3758701623
1420291480.0 -0.9282710338 0.3767685731
1425291450.0 -0.9283191896 0.3779852525
1430291420.0 -0.9275272678 0.3794067312
1435291390.0 -0.9267735723 0.3805173818
1440291360.0 -0.9260052545 0.381721023
1445291330.0 -0.9257848912 0.3825708894
1450291300.0 -0.9260152875 0.3836590045
1455291270.0 -0.9245686838 0.3845524709
1460291240.0 -0.9244523824 0.3862315956
1465291210.0 -0.9238805216 0.3880952748
1470291180.0 -0.9230723695 0.3887416158
1475291150.0 -0.9225990853 0.3897773712
1480291120.0 -0.9222916923 0.3916407054
1485291090.0 -0.9212669257 0.3926100477
1490291060.0 -0.9207664669 0.3945689095
1495291030.0 -0.920526662 0.3948540004
1500291000.0 -0.9192007241 0.3959097311
1505290970.0 -0.9191171698 0.3974869424
1510290940.0 -0.918525245 0.3985748848
1515290910.0 -0.9182887742 0.3994438707
1520290880.0 -0.9179611596 0.4009851259
1525290850.0 -0.916994158 0.4016995032
1530290820.0 -0.9168130132 0.4035246933
1535290790.0 -0.9162668938 0.4047643644
1540290760.0 -0.9156975253 0.4059736243
1545290730.0 -0.9145406399 0.4075067558
1550290700.0 -0.9141737434 0.408579341
1555290670.0 -0.9138489281 0.4103764077
1560290640.0 -0.9133343704 0.4110074049
1565290610.0 -0.9130303081 0.4123024123
1570290580.0 -0.9121179769 0.4133031811
1575290550.0 -0.9114492118 0.4146649701
1580290520.0 -0.910773369 0.4160528896
1585290490.0 -0.9102799354 0.4172167839
1590290460.0 -0.9096391128 0.4188651884
1595290430.0 -0.908960533 0.4199791632
1600290400.0 -0.9080386418 0.4206254455
1605290370.0 -0.9084435043 0.4224515889
1610290340.0 -0.9070722 0.4233341597
1615290310.0 -0.9067177593 0.4247799417
1620290280.0 -0.9062324104 0.4252701604
1625290250.0 -0.9056935278 0.4266830866
1630290220.0 -0.9049743281 0.4285938099
1635290190.0 -0.9047438823 0.4288432257
1640290160.0 -0.9039742663 0.4299239656
1645290130.0 -0.9032906853 0.4312174613
1650290100.0 -0.9029036648 0.4328949801
1655290070.0 -0.9018964972 0.4337290709
1660290040.0 -0.9016928086 0.4352522113
1665290010.0 -0.9010895351 0.4363366208
1670289980.0 -0.9006338242 0.4370406785
1675289950.0 -0.8997850504 0.4387038919
1680289920.0 -0.8991888639 0.4400371863
1685289890.0 -0.8986372038 0.441626601
1690289860.0 -0.8981949812 0.4430985805
1695289830.0 -0.8971611804 0.4441969942
1700289800.0 -0.8964593152 0.4448561879
1705289770.0 -0.8957467496 0.4464633639
1710289740.0 -0.8950009827 0.4478012881
1715289710.0 -0.8941386477 0.4485010931
1720289680.0 -0.8935924487 0.4499065755
1725289650.0 -0.8931675271 0.4513430346
1730289620.0 -0.892561276 0.4523382015
1735289590.0 -0.8916534561 0.4535401137
1740289560.0 -0.8912412265 0.4542376779
1745289530.0 -0.890845529 0.4561943955
1750289500.0 -0.889910325 0.4572209827
1755289470.0 -0.8895120327 0.4583324562
1760289440.0 -0.8889478856 0.4594969636
1765289410.0 -0.8883458499 0.4604286363
1770289380.0 -0.8875689024 0.4613782929
1775289350.0 -0.8868651697 0.4620306428
1780289320.0 -0.8863514893 0.4640338026
1785289290.0 -0.8862215615 0.4656402387
1790289260.0 -0.8849719237 0.4664868637
1795289230.0 -0.8846106594 0.4680549758
1800289200.0 -0.8838376796 0.4687831746
1805289170.0 -0.8826870947 0.47086376
1810289140.0 -0.8826936724 0.4711958337
1815289110.0 -0.8817213118 0.4714660314
1820289080.0 -0.8811605706 0.4728863488
1825289050.0 -0.8806732135 0.4744556878
1830289020.0 -0.8804101135 0.4754124858
1835288990.0 -0.8800233192 0.4762794599
1840288960.0 -0.8792788531 0.4774616877
1845288930.0 -0.8786883902 0.4779249505
1850288900.0 -0.8774155118 0.4804314727
1855288870.0 -0.876818081 0.4811945442
1860288840.0 -0.8767090828 0.4827695866
1865288810.0 -0.875070945 0.483540313
1870288780.0 -0.8744226046 0.4852981921
1875288750.0 -0.8739158642 0.4859705521
1880288720.0 -0.8733647438 0.4878866725
1885288690.0 -0.8725635201 0.4889640807
1890288660.0 -0.8712311364 0.4905596058
1895288630.0 -0.870573143 0.4911462001
1900288600.0 -0.8700888663 0.4926398381
1905288570.0 -0.8697367353 0.4939265689
1910288540.0 -0.8684452039 0.4946078076
1915288510.0 -0.8682126847 0.495935687
1920288480.0 -0.867257602 0.4973064359
1925288450.0 -0.8667234894 0.4987311603
1930288420.0 -0.8655835299 0.4998351104
1935288390.0 -0.8654269431 0.5010493594
1940288360.0 -0.8644612213 0.5020402698
1945288330.0 -0.8637591433 0.5035603833
1950288300.0 -0.8634243754 0.504543991
1955288270.0 -0.8624788483 0.5066272866
1960288240.0 -0.861414356 0.5078424111
1965288210.0 -0.8605945594 0.5087506681
1970288180.0 -0.8599522143 0.5097695685
1975288150.0 -0.8597490914 0.5106125153
1980288120.0 -0.8592431131 0.5116327928
1985288090.0 -0.8582226584 0.5127093718
1990288060.0 -0.8579892696 0.5136817576
1995288030.0 -0.8568910434 0.5146122609
2000288000.0 -0.8568375952 0.5154840587
2005287970.0 -0.8561097816 0.5166286169
2010287940.0 -0.8554871749 0.5179905261
2015287910.0 -0.8545167904 0.5196071169
2020287880.0 -0.8532541908 0.5205119201
2025287850.0 -0.8524230798 0.5216151898
2030287820.0 -0.8523220797 0.5225458961
2035287790.0 -0.851659232 0.5237232083
2040287760.0 -0.8506527489 0.5247275428
2045287730.0 -0.8503956484 0.5265202616
2050287700.0 -0.8489834423 0.5271195458
2055287670.0 -0.848591665 0.5289562425
2060287640.0 -0.8479495977 0.5295875753
2065287610.0 -0.8469227249 0.5309556216
2070287580.0 -0.8462752327 0.5321685668
2075287550.0 -0.8453496704 0.5330420289
2080287520.0 -0.8449238657 0.5337412412
2085287490.0 -0.8446637897 0.5359894425
2090287460.0 -0.8436367527 0.5370080675
2095287430.0 -0.8423776575 0.5371910467
2100287400.0 -0.8417305081 0.5388653678
2105287370.0 -0.8416181192 0.5407088063
2110287340.0 -0.8408127533 0.5415304256
2115287310.0 -0.8398557043 0.5426481512
2120287280.0 -0.8386005625 0.5436477249
2125287250.0 -0.8383499267 0.5446691211
2130287220.0 -0.8373862629 0.545585129
2135287190.0 -0.837109393 0.5468478251
2140287160.0 -0.8351870971 0.5480856192
2145287130.0 -0.8349336171 0.5497549644
2150287100.0 -0.8345020332 0.5510410762
2155287070.0 -0.833880118 0.5516251873
2160287040.0 -0.8321723345 0.5526696663
2165287010.0 -0.8320526128 0.5541096099
2170286980.0 -0.8314453816 0.5547274265
2175286950.0 -0.8307136031 0.5559450933
2180286920.0 -0.8299939572 0.5568826948
2185286890.0 -0.8293552376 0.5578379472
2190286860.0 -0.8286220025 0.5588072813
2195286830.0 -0.8281068008 0.5595112833
2200286800.0 -0.8269301551 0.5601786343
2205286770.0 -0.826718544 0.5619337702
2210286740.0 -0.8255436635 0.5624175248
2215286710.0 -0.8252806809 0.563554216
2220286680.0 -0.8239246341 0.5648595093
2225286650.0 -0.8236402078 0.5663179307
2230286620.0 -0.8229512692 0.5671377973
2235286590.0 -0.8221695978 0.5689721442
2240286560.0 -0.8211240874 0.5697857268
2245286530.0 -0.819989623 0.5714217825
2250286500.0 -0.8189716717 0.5724109954
2255286470.0 -0.8179653283 0.5736859323
2260286440.0 -0.8170436226 0.5744684708
2265286410.0 -0.8166949876 0.5756702493
2270286380.0 -0.8155842192 0.5771727479
2275286350.0 -0.8152131905 0.5786508794
2280286320.0 -0.8145669136 0.5795489542
2285286290.0 -0.8132814091 0.5812689341
2290286260.0 -0.8125164668 0.5818901808
2295286230.0 -0.8118655183 0.5830676982
2300286200.0 -0.8109163758 0.5835480119
2305286170.0 -0.8102465217 0.5851612123
2310286140.0 -0.8096643928 0.5861593357
2315286110.0 -0.8083497052 0.5872068237
2320286080.0 -0.8077426315 0.5885587806
2325286050.0 -0.8069065813 0.58965779
2330286020.0 -0.8063480406 0.5906412136
2335285990.0 -0.8056382029 0.5918719489
2340285960.0 -0.8045563084 0.5922532928
2345285930.0 -0.8039721779 0.5934199476
2350285900.0 -0.8034748581 0.5948657621
2355285870.0 -0.8024677815 0.595929244
2360285840.0 -0.8012054952 0.5971446716
2365285810.0 -0.8010293951 0.5983468469
2370285780.0 -0.7999282745 0.5990323415
2375285750.0 -0.7992724429 0.6004707814
2380285720.0 -0.7983189483 0.6011044026
2385285690.0 -0.797594757 0.602321405
2390285660.0 -0.796935692 0.6030731246
2395285630.0 -0.7962072706 0.6043745513
2400285600.0 -0.795451479 0.6056588758
2405285570.0 -0.794797827 0.605661046
2410285540.0 -0.794077781 0.6066409711
2415285510.0 -0.7931290452 0.607528008
2420285480.0 -0.7924619164 0.6089423321
2425285450.0 -0.7916495311 0.6094654093
2430285420.0 -0.7910938677 0.6113411669
2435285390.0 -0.7897665905 0.6121812603
2440285360.0 -0.7892964283 0.6130269031
2445285330.0 -0.7883187892 0.6140472331
2450285300.0 -0.7871643797 0.6153595489
2455285270.0 -0.7866240674 0.6162153758
2460285240.0 -0.7850396389 0.617749023
2465285210.0 -0.7842661425 0.6193411811
2470285180.0 -0.7838654108 0.6193107751
2475285150.0 -0.7826890629 0.6205610388
2480285120.0 -0.7821116354 0.6217810497
2485285090.0 -0.7810383395 0.6235026723
2490285060.0 -0.780103017 0.6247965683
2495285030.0 -0.7792297519 0.6255737619
2500285000.0 -0.7785270963 0.6267200132
2505284970.0 -0.7778823375 0.6276857452
2510284940.0 -0.7767007409 0.6289503415
2515284910.0 -0.7756845373 0.6303021397
2520284880.0 -0.7744678109 0.6305423455
2525284850.0 -0.7734810239 0.6318582789
2530284820.0 -0.7734152396 0.6330749805
