!Created with skrf (http://scikit-rf.org).
# Hz S RI R 50.0 
!freq ReS11 ImS11
300000.0 -1.02395509 -0.1702970663
5299970.0 -1.004073738 0.0019345501
10299940.0 -1.002608737 0.0006365147
15299910.0 -1.002156759 0.0073695853
20299880.0 -1.002248722 0.0063109827
25299850.0 -1.002012698 0.0097040151
30299820.0 -1.002372292 0.011868908
35299790.0 -1.00165056 0.0109828753
40299760.0 -1.001399662 0.0131544614
45299730.0 -1.001365811 0.0142789821
50299700.0 -1.001411519 0.0166589582
55299670.0 -1.001203879 0.0178411359
60299640.0 -1.001453506 0.0193840288
65299610.0 -1.000586258 0.0206354363
70299580.0 -1.001141622 0.0218117377
75299550.0 -1.000964798 0.0233634326
80299520.0 -1.001103337 0.0243579743
85299490.0 -1.000537083 0.0261680386
90299460.0 -1.001049645 0.0278468566
95299430.0 -1.000901779 0.0293827459
100299400.0 -1.000519386 0.0307199297
105299370.0 -1.000605464 0.0320462318
110299340.0 -0.9998759256 0.0342239731
115299310.0 -1.000151576 0.0354263668
120299280.0 -1.000139077 0.0364002564
125299250.0 -1.000350827 0.0380560764
130299220.0 -1.000235851 0.0390943344
135299190.0 -1.000095305 0.0408479994
140299160.0 -0.999949509 0.0424889405
145299130.0 -0.9996444257 0.043949418
150299100.0 -0.9996756663 0.0450174412
155299070.0 -0.9995151991 0.0469225483
160299040.0 -0.9996768125 0.0483134429
165299010.0 -0.9999079205 0.0496175081
170298980.0 -0.999525048 0.0514794104
175298950.0 -0.9973486215 0.0517889747
180298920.0 -0.9967706309 0.0531435383
185298890.0 -0.9980454619 0.0553322615
190298860.0 -0.999812604 0.0568028244
195298830.0 -0.9990487874 0.0582659059
200298800.0 -0.9991659165 0.0598175062
205298770.0 -0.999272764 0.0615517245
210298740.0 -0.9988000323 0.0630754459
215298710.0 -0.998928211 0.0641640657
220298680.0 -0.9988559394 0.0655269878
225298650.0 -0.9988410518 0.0673603274
230298620.0 -0.9988830721 0.0687292007
235298590.0 -0.9985072988 0.0703718385
240298560.0 -0.9987200687 0.0710676348
245298530.0 -0.9985218771 0.0727808759
250298500.0 -0.998466609 0.0745328325
255298470.0 -0.9980751192 0.0750945838
260298440.0 -0.9981429277 0.0769983673
265298410.0 -0.997967912 0.0787457232
270298380.0 -0.9979857 0.0806370108
275298350.0 -0.9982184704 0.0815344323
280298320.0 -0.9979027204 0.0824235999
285298290.0 -0.9975677761 0.0844596417
290298260.0 -0.9970309942 0.0859524925
295298230.0 -0.9971412946 0.0870432684
300298200.0 -0.9973228921 0.0883647527
305298170.0 -0.9978305766 0.0904899146
310298140.0 -0.9971333391 0.0920163218
315298110.0 -0.9968092439 0.0934678444
320298080.0 -0.9973144086 0.0948657146
325298050.0 -0.9967395987 0.0961553625
330298020.0 -0.9961946555 0.0975343194
335297990.0 -0.9962935655 0.0994444331
340297960.0 -0.9959443024 0.1007383456
345297930.0 -0.9965254549 0.1023494558
350297900.0 -0.9966928409 0.1032965999
355297870.0 -0.9972106492 0.1050985235
360297840.0 -0.996824254 0.1060838405
365297810.0 -0.9967477004 0.1072509893
370297780.0 -0.9955448504 0.1086566155
375297750.0 -0.995390915 0.1106838524
380297720.0 -0.9954106285 0.1120583523
385297690.0 -0.9948616887 0.1140078931
390297660.0 -0.9948322434 0.1152192984
395297630.0 -0.9947075816 0.1164959049
400297600.0 -0.9944486689 0.1176045345
405297570.0 -0.9942067052 0.1192364657
410297540.0 -0.9947000381 0.1207123041
415297510.0 -0.9937831047 0.1219140123
420297480.0 -0.9938527605 0.1239526253
425297450.0 -0.9938127319 0.1248529229
430297420.0 -0.9936700292 0.1269963057
435297390.0 -0.9934415937 0.1280480149
440297360.0 -0.9931965163 0.1297097305
445297330.0 -0.9932460169 0.1308167185
450297300.0 -0.9932368077 0.1321360476
455297270.0 -0.9926587324 0.1338605763
460297240.0 -0.9925664212 0.1352102296
465297210.0 -0.992399514 0.1368725787
470297180.0 -0.9921870117 0.1381991704
475297150.0 -0.9918620737 0.1400301727
480297120.0 -0.9915011687 0.141461265
485297090.0 -0.992489589 0.1423716957
490297060.0 -0.9917724831 0.1445772922
495297030.0 -0.9909741597 0.1450451841
500297000.0 -0.9913714972 0.1470895513
505296970.0 -0.9911723533 0.1482282371
510296940.0 -0.9907999451 0.1502242607
515296910.0 -0.9907341143 0.1513295352
520296880.0 -0.9909850774 0.152967803
525296850.0 -0.9903030388 0.1538201764
530296820.0 -0.990591269 0.155392666
535296790.0 -0.9906760096 0.1570915792
540296760.0 -0.9909023144 0.1586864392
545296730.0 -0.9896529047 0.1602158316
550296700.0 -0.9896786763 0.1608694898
555296670.0 -0.9891027134 0.1624171669
560296640.0 -0.9888722969 0.1647420521
565296610.0 -0.9884905078 0.1659192772
570296580.0 -0.9881202186 0.1671521551
575296550.0 -0.9882194753 0.1687565695
580296520.0 -0.9874721136 0.1704855605
585296490.0 -0.9874684879 0.1717391525
590296460.0 -0.986873627 0.1738548928
595296430.0 -0.9869047897 0.1747730926
600296400.0 -0.9863723541 0.1763335963
605296370.0 -0.9865008668 0.1770111065
610296340.0 -0.986168101 0.1791991399
615296310.0 -0.9853252589 0.1805221766
620296280.0 -0.9852525798 0.1819078213
625296250.0 -0.9855098668 0.182374411
630296220.0 -0.9849918005 0.1839961033
635296190.0 -0.984591128 0.1853623723
640296160.0 -0.9839505285 0.186470793
645296130.0 -0.9840187 0.1882912727
650296100.0 -0.9842059286 0.1899490244
655296070.0 -0.9831494048 0.1911718155
660296040.0 -0.9838106774 0.1930481382
665296010.0 -0.9824719278 0.1942148694
670295980.0 -0.9826817868 0.1953750307
675295950.0 -0.982451706 0.1970144428
680295920.0 -0.982696006 0.1982055913
685295890.0 -0.9818374756 0.2001230329
690295860.0 -0.9815434038 0.2017818022
695295830.0 -0.9815448643 0.2027660021
700295800.0 -0.9813212578 0.2040825509
705295770.0 -0.9807848267 0.205434773
710295740.0 -0.9804842014 0.2070988089
715295710.0 -0.9803911601 0.208775884
720295680.0 -0.9800256237 0.2100061716
725295650.0 -0.9792522803 0.2120467678
730295620.0 -0.9793021156 0.213018822
735295590.0 -0.9793470132 0.214117428
740295560.0 -0.9788359501 0.2157187737
745295530.0 -0.9785476419 0.2169863513
750295500.0 -0.9785068722 0.2181739694
755295470.0 -0.9773369676 0.2197577258
760295440.0 -0.9774173358 0.2214325247
765295410.0 -0.9771350541 0.2228752767
770295380.0 -0.9764619012 0.2240708797
775295350.0 -0.9761267083 0.2256425973
780295320.0 -0.9759750614 0.2271177615
785295290.0 -0.9755838719 0.228112165
790295260.0 -0.9755532993 0.2301184835
795295230.0 -0.9754644408 0.232019034
800295200.0 -0.9750478596 0.2334686039
805295170.0 -0.9741919697 0.2343306211
810295140.0 -0.974148084 0.2359658918
815295110.0 -0.9739895839 0.2369613531
820295080.0 -0.973349816 0.2385891827
825295050.0 -0.9733055647 0.2395911231
830295020.0 -0.9731710246 0.2418822773
835294990.0 -0.9727726587 0.2425790543
840294960.0 -0.9722739668 0.2442823812
845294930.0 -0.9719245272 0.2453224771
850294900.0 -0.9710937787 0.247052224
855294870.0 -0.9717164754 0.2483686742
860294840.0 -0.9710542633 0.249668144
865294810.0 -0.9705278905 0.2515686852
870294780.0 -0.9700303689 0.2525004367
875294750.0 -0.9699105931 0.2542358614
880294720.0 -0.9694240594 0.2546747631
885294690.0 -0.9691729743 0.2563362258
890294660.0 -0.9685931097 0.2587179109
895294630.0 -0.9680947209 0.259264631
900294600.0 -0.9680741095 0.2609958952
905294570.0 -0.9668014719 0.2624048876
910294540.0 -0.9670325712 0.2640194664
915294510.0 -0.9663310497 0.2653618026
920294480.0 -0.9662242112 0.2668816247
925294450.0 -0.9654678852 0.2676120882
930294420.0 -0.9648224173 0.2694670981
935294390.0 -0.9648002201 0.271537923
940294360.0 -0.9642436572 0.2718095901
945294330.0 -0.9638499056 0.2738082452
950294300.0 -0.963787626 0.2747045848
955294270.0 -0.9630872898 0.2767154436
960294240.0 -0.9627918876 0.2780591459
965294210.0 -0.9620032318 0.2799991916
970294180.0 -0.9616150749 0.2807401378
975294150.0 -0.9615483378 0.2818677893
980294120.0 -0.9611274398 0.2831121694
985294090.0 -0.9609839459 0.284158703
990294060.0 -0.9601247467 0.285783499
995294030.0 -0.9600809989 0.2874352765
1000294000.0 -0.9594879342 0.288785842
1005293970.0 -0.9595509453 0.2900073697
1010293940.0 -0.9586773402 0.2919757118
1015293910.0 -0.9580609853 0.2929590111
1020293880.0 -0.9576656173 0.293722545
1025293850.0 -0.9574284443 0.2950002497
1030293820.0 -0.9569295633 0.2967563399
1035293790.0 -0.956327326 0.2980067177
1040293760.0 -0.955444407 0.2993856915
1045293730.0 -0.9557793124 0.3015284935
1050293700.0 -0.9554285319 0.302280557
1055293670.0 -0.9546138056 0.3038898781
1060293640.0 -0.9542825138 0.3047692146
1065293610.0 -0.9539707993 0.3064928614
1070293580.0 -0.9535146712 0.307922084
1075293550.0 -0.9527940993 0.3086371782
1080293520.0 -0.9526126164 0.310220416
1085293490.0 -0.951172998 0.3118191627
1090293460.0 -0.9509801609 0.3133451355
1095293430.0 -0.9506489126 0.3151152701
1100293400.0 -0.950048134 0.3168814802
1105293370.0 -0.9492686615 0.3177605213
1110293340.0 -0.9489996806 0.3188864172
1115293310.0 -0.9489459116 0.3207139715
1120293280.0 -0.9482243297 0.3213334499
1125293250.0 -0.9487160319 0.323007737
1130293220.0 -0.9476679014 0.3238822866
1135293190.0 -0.9473005066 0.3257676917
1140293160.0 -0.9465538371 0.3272094176
1145293130.0 -0.9457291545 0.3292651661
1150293100.0 -0.9452447368 0.3306356404
1155293070.0 -0.9454190664 0.3325186126
1160293040.0 -0.9445794602 0.3331760763
1165293010.0 -0.9435182335 0.3344496822
1170292980.0 -0.9439762085 0.3357901359
1175292950.0 -0.9430689276 0.337241038
1180292920.0 -0.9423970858 0.3378958564
1185292890.0 -0.9423556843 0.3392789657
1190292860.0 -0.9415899666 0.3406896681
1195292830.0 -0.9414434761 0.342143108
1200292800.0 -0.9406322676 0.3433446256
1205292770.0 -0.9404708812 0.3442374365
1210292740.0 -0.9398388585 0.3456404176
1215292710.0 -0.9390756981 0.3473505866
1220292680.0 -0.9385386168 0.3480909533
1225292650.0 -0.9383389653 0.3502868696
1230292620.0 -0.9377698203 0.3512365472
1235292590.0 -0.9368836525 0.3524670348
1240292560.0 -0.9363659422 0.3540814238
1245292530.0 -0.9357954441 0.3552521696
1250292500.0 -0.9358348852 0.356462384
1255292470.0 -0.9347309715 0.3582190548
1260292440.0 -0.9344426074 0.359617208
1265292410.0 -0.9337712476 0.360806415
1270292380.0 -0.9336322757 0.3617023705
1275292350.0 -0.9326111915 0.3630130221
1280292320.0 -0.9322547616 0.3648299094
1285292290.0 -0.9312387137 0.3661097023
1290292260.0 -0.9310238871 0.367611691
1295292230.0 -0.9305174725 0.368736982
1300292200.0 -0.9305699967 0.3699371268
1305292170.0 -0.9296921561 0.3713977229
1310292140.0 -0.9291483579 0.372377783
1315292110.0 -0.928143299 0.3734681092
1320292080.0 -0.9280964644 0.3749852847
1325292050.0 -0.9271811252 0.3763236932
1330292020.0 -0.9270329372 0.3780730109
1335291990.0 -0.9257878786 0.3796760087
1340291960.0 -0.9244999259 0.3811462252
1345291930.0 -0.9247497317 0.3820577589
1350291900.0 -0.92377573 0.383771999
1355291870.0 -0.9237118105 0.3843766047
1360291840.0 -0.9230208299 0.3859257037
1365291810.0 -0.922900871 0.3866627095
1370291780.0 -0.9219426572 0.3885838988
1375291750.0 -0.9217979939 0.3899503096
1380291720.0 -0.9209212472 0.3906918858
1385291690.0 -0.9203079474 0.392232129
1390291660.0 -0.9195955398 0.3935409327
1395291630.0 -0.9190622524 0.3954368355
1400291600.0 -0.9186154357 0.3964284868
1405291570.0 -0.9186473179 0.398012173
1410291540.0 -0.9173318814 0.39915136
1415291510.0 -0.9171883467 0.4006505165
1420291480.0 -0.915977606 0.4014593435
1425291450.0 -0.9158819091 0.4030120714
1430291420.0 -0.915638237 0.4044164385
1435291390.0 -0.9153653239 0.4056324555
1440291360.0 -0.9141505152 0.4072079276
1445291330.0 -0.9133091825 0.408396192
1450291300.0 -0.9126246627 0.4091804521
1455291270.0 -0.9123561567 0.410414527
1460291240.0 -0.9114770613 0.4117162875
1465291210.0 -0.9106185485 0.4132285804
1470291180.0 -0.9102659827 0.4141586361
1475291150.0 -0.909456408 0.4154889248
1480291120.0 -0.9095398055 0.416914529
1485291090.0 -0.9085625508 0.4183376645
1490291060.0 -0.9077197774 0.4199115154
1495291030.0 -0.9068126354 0.4214302431
1500291000.0 -0.9068203758 0.4227901409
1505290970.0 -0.9061156653 0.42325027
1510290940.0 -0.905537594 0.4242734846
1515290910.0 -0.9048512792 0.4256495154
1520290880.0 -0.9041276378 0.4268657163
1525290850.0 -0.903327254 0.428370343
1530290820.0 -0.9027829518 0.4304663259
1535290790.0 -0.901663683 0.4317402508
1540290760.0 -0.9020565534 0.4328608734
1545290730.0 -0.9008308667 0.4341278685
1550290700.0 -0.9006136763 0.4354337178
1555290670.0 -0.8996051941 0.4369282667
1560290640.0 -0.8983902333 0.4377603363
1565290610.0 -0.8985695955 0.4397349877
1570290580.0 -0.8981858334 0.4404036885
1575290550.0 -0.8977595869 0.4416019411
1580290520.0 -0.8961450505 0.4430787367
1585290490.0 -0.8955772079 0.4447841227
1590290460.0 -0.8948662702 0.4456688097
1595290430.0 -0.8944134329 0.4470158083
1600290400.0 -0.8941018835 0.4486477939
1605290370.0 -0.8931697373 0.4497741301
1610290340.0 -0.8922105013 0.4511173032
1615290310.0 -0.8918357001 0.4524188806
1620290280.0 -0.891121588 0.4535167749
1625290250.0 -0.8902041339 0.4549932876
1630290220.0 -0.8897316783 0.45580926
1635290190.0 -0.889305577 0.4573701587
1640290160.0 -0.8884900443 0.4583267426
1645290130.0 -0.8880030712 0.4592900411
1650290100.0 -0.8876471181 0.4604749171
1655290070.0 -0.8860441958 0.4619977906
1660290040.0 -0.8859967944 0.4634549768
1665290010.0 -0.8852037764 0.4644067689
1670289980.0 -0.8847861719 0.465388938
1675289950.0 -0.8837641489 0.4666880837
1680289920.0 -0.883097763 0.4679996414
1685289890.0 -0.8820719569 0.4698290876
1690289860.0 -0.881318104 0.4712812378
1695289830.0 -0.8804841665 0.4723270062
1700289800.0 -0.8798581926 0.4742369901
1705289770.0 -0.8793363002 0.4748164097
1710289740.0 -0.8785737447 0.4766032649
1715289710.0 -0.877563768 0.4779308531
1720289680.0 -0.8771538074 0.4793122068
1725289650.0 -0.8763502053 0.4799170419
1730289620.0 -0.8760375259 0.4811832159
1735289590.0 -0.8754961395 0.4828668822
1740289560.0 -0.8740777648 0.4836419831
1745289530.0 -0.8733652158 0.4850327864
1750289500.0 -0.8728524078 0.486956264
1755289470.0 -0.8724577596 0.4873652257
1760289440.0 -0.8711077121 0.4884760192
1765289410.0 -0.8709277989 0.4897753322
1770289380.0 -0.8705511547 0.4904319599
1775289350.0 -0.8692145725 0.4921311094
1780289320.0 -0.8688020568 0.4935078455
1785289290.0 -0.8677671465 0.4950437131
1790289260.0 -0.8673275688 0.4966807664
1795289230.0 -0.8663997046 0.49754774
1800289200.0 -0.8654891337 0.4988554604
1805289170.0 -0.8647177916 0.4999728456
1810289140.0 -0.8639610544 0.5016034233
1815289110.0 -0.8641356949 0.5017297574
1820289080.0 -0.8626149245 0.50356435
1825289050.0 -0.862868181 0.5044196183
1830289020.0 -0.8615169033 0.5056068406
1835288990.0 -0.8609067181 0.5064815167
1840288960.0 -0.8600548977 0.5077030374
1845288930.0 -0.8596444459 0.5084417307
1850288900.0 -0.8587564631 0.5105715655
1855288870.0 -0.85796745 0.5119743019
1860288840.0 -0.8574360377 0.5128151577
1865288810.0 -0.856511236 0.5146115717
1870288780.0 -0.8554331608 0.516275136
1875288750.0 -0.8546273609 0.5174510624
1880288720.0 -0.8532900881 0.5180789095
1885288690.0 -0.8530279149 0.5198802464
1890288660.0 -0.8515805669 0.5210241972
1895288630.0 -0.8513075771 0.5220839487
1900288600.0 -0.850032353 0.5228409725
1905288570.0 -0.8498372978 0.5245558998
1910288540.0 -0.8491301574 0.5256062412
1915288510.0 -0.8488047081 0.5271395239
1920288480.0 -0.8469175028 0.5286066735
1925288450.0 -0.8459142211 0.5297373316
1930288420.0 -0.8451166582 0.5309279471
1935288390.0 -0.8447251062 0.5324265557
1940288360.0 -0.8440263288 0.5337103134
1945288330.0 -0.8431303958 0.5346950923
1950288300.0 -0.842231092 0.5361275211
1955288270.0 -0.8412507671 0.5378811463
1960288240.0 -0.8406048648 0.5390691408
1965288210.0 -0.839683021 0.5408837507
1970288180.0 -0.8390157252 0.542178762
1975288150.0 -0.8382576612 0.5422416431
1980288120.0 -0.8377947641 0.5432508944
1985288090.0 -0.8374146097 0.5444916706
1990288060.0 -0.8361344137 0.5452881606
1995288030.0 -0.8352791715 0.5464612841
2000288000.0 -0.8349093379 0.547694096
2005287970.0 -0.834215856 0.5486688726
2010287940.0 -0.8334079784 0.5498402947
2015287910.0 -0.8323650612 0.5514253273
2020287880.0 -0.8316676489 0.5521926349
2025287850.0 -0.830592225 0.5536250243
2030287820.0 -0.8298969433 0.555214229
2035287790.0 -0.8287023523 0.5561474871
2040287760.0 -0.8279992986 0.5573906013
2045287730.0 -0.8272294231 0.5585820265
2050287700.0 -0.8264003265 0.5597902836
2055287670.0 -0.8253413716 0.5608173118
2060287640.0 -0.8247640969 0.5622080378
2065287610.0 -0.8237874383 0.5630509482
2070287580.0 -0.8228325099 0.5644167748
2075287550.0 -0.8221696087 0.5653535752
2080287520.0 -0.8213498242 0.5672640837
2085287490.0 -0.8210775666 0.5679469355
2090287460.0 -0.8198910488 0.5683191112
2095287430.0 -0.8188982453 0.5703671323
2100287400.0 -0.8182265963 0.5714623772
2105287370.0 -0.8176194125 0.5728080905
2110287340.0 -0.8166449275 0.5738989495
2115287310.0 -0.8154006634 0.5758850084
2120287280.0 -0.8147483139 0.5760791845
2125287250.0 -0.8141169942 0.5774927444
2130287220.0 -0.8128170435 0.5793414428
2135287190.0 -0.8121043566 0.5804200358
2140287160.0 -0.8111149805 0.5815101255
2145287130.0 -0.8099953321 0.5827074277
2150287100.0 -0.8098506673 0.5837971636
2155287070.0 -0.8088708852 0.5852724948
2160287040.0 -0.8081438368 0.5858149077
2165287010.0 -0.806576556 0.5872673818
2170286980.0 -0.806276912 0.5881439958
2175286950.0 -0.8047955689 0.5889835868
2180286920.0 -0.8050514487 0.5902514492
2185286890.0 -0.8039415419 0.5913720026
2190286860.0 -0.8032487392 0.5923575051
2195286830.0 -0.8026783782 0.592862346
2200286800.0 -0.8015869212 0.5938162684
2205286770.0 -0.8010364422 0.5953115258
2210286740.0 -0.8003776666 0.5963600477
2215286710.0 -0.7993848581 0.5976974687
2220286680.0 -0.7983030237 0.5990814832
2225286650.0 -0.7969856876 0.6003694636
2230286620.0 -0.7958912267 0.6010743057
2235286590.0 -0.7952328866 0.6027239491
2240286560.0 -0.7947046408 0.6042996128
2245286530.0 -0.79378146 0.6050348217
2250286500.0 -0.7923814719 0.6058595361
2255286470.0 -0.7916335483 0.6077352592
2260286440.0 -0.7909513962 0.6086944847
2265286410.0 -0.789933337 0.6100909256
2270286380.0 -0.7888475593 0.6111091687
2275286350.0 -0.7879453551 0.6126631941
2280286320.0 -0.7866208179 0.6132709893
2285286290.0 -0.7860686193 0.6148332535
2290286260.0 -0.7847649886 0.6164163061
2295286230.0 -0.7838759604 0.6170511292
2300286200.0 -0.783281941 0.6180485508
2305286170.0 -0.7822074597 0.6192523338
2310286140.0 -0.7811849939 0.6205705931
2315286110.0 -0.7809029233 0.6212586378
2320286080.0 -0.7795843465 0.623266398
2325286050.0 -0.7788509942 0.623934633
2330286020.0 -0.7782102496 0.6249425754
2335285990.0 -0.7767638176 0.6258905316
2340285960.0 -0.7763340818 0.6272611044
2345285930.0 -0.7754897209 0.6283037216
2350285900.0 -0.774406434 0.6291181883
2355285870.0 -0.773420609 0.6308848418
2360285840.0 -0.7726209974 0.6317699974
2365285810.0 -0.7720035495 0.632646982
2370285780.0 -0.7710135979 0.6340839102
2375285750.0 -0.7702632765 0.6345723983
2380285720.0 -0.7693512225 0.636169152
2385285690.0 -0.7684377099 0.6369618818
2390285660.0 -0.7676055565 0.6379037886
2395285630.0 -0.7664345264 0.6389458215
2400285600.0 -0.7651403881 0.6402449231
2405285570.0 -0.7647161874 0.641077717
2410285540.0 -0.764163595 0.6418654689
2415285510.0 -0.7636189692 0.6425297654
2420285480.0 -0.7626306857 0.6437194114
2425285450.0 -0.7615694939 0.6454053244
2430285420.0 -0.7606185649 0.6463419105
2435285390.0 -0.7594181621 0.6468680735
2440285360.0 -0.7588886585 0.6478838234
2445285330.0 -0.7570394773 0.6491082295
2450285300.0 -0.7563672906 0.6503697999
2455285270.0 -0.7552944914 0.6515031373
2460285240.0 -0.7544583294 0.6529403239
2465285210.0 -0.7531180668 0.6537335541
2470285180.0 -0.7525711235 0.6555201395
2475285150.0 -0.751938662 0.6559322115
2480285120.0 -0.7512754694 0.6576593145
2485285090.0 -0.7495814027 0.6578218797
2490285060.0 -0.748343813 0.6594262117
2495285030.0 -0.7477859235 0.6605097453
2500285000.0 -0.7464155473 0.6617360049
2505284970.0 -0.7454514904 0.6630556308
2510284940.0 -0.7445796366 0.664608211
2515284910.0 -0.7432583357 0.6652424907
2520284880.0 -0.7429776922 0.6665616393
2525284850.0 -0.7418392147 0.6677394859
2530284820.0 -0.7412774855 0.668833144
