!Created with skrf (http://scikit-rf.org).
# Hz S RI R 50.0 
!freq ReS11 ImS11
300000.0 -1.022674968 -0.1800044158
5299970.0 -1.004471756 0.0019788376
10299940.0 -1.002086838 0.0009951988
15299910.0 -1.002415611 0.007255364
20299880.0 -1.00216418 0.005197046
25299850.0 -1.002281164 0.0089172557
30299820.0 -1.002261825 0.01068412
35299790.0 -1.001656053 0.0105600908
40299760.0 -1.001926915 0.0120042622
45299730.0 -1.001707736 0.0129886888
50299700.0 -1.001658248 0.015020025
55299670.0 -1.001202552 0.0163469285
60299640.0 -1.001245084 0.0176977859
65299610.0 -1.001794994 0.0191521836
70299580.0 -1.001047345 0.0204429712
75299550.0 -1.001434712 0.0216192181
80299520.0 -1.001338947 0.0229032427
85299490.0 -1.000578947 0.0244607364
90299460.0 -1.000941574 0.0255862948
95299430.0 -1.00107248 0.0265957034
100299400.0 -1.000690564 0.0288820481
105299370.0 -1.000633323 0.0302687337
110299340.0 -1.0005037 0.0311163762
115299310.0 -1.000572567 0.03286736
120299280.0 -1.000686346 0.0339091994
125299250.0 -1.00045549 0.0349707524
130299220.0 -1.00010383 0.0360027234
135299190.0 -1.000720898 0.0376856431
140299160.0 -1.000645937 0.0389353757
145299130.0 -1.000540551 0.0406194617
150299100.0 -1.000582151 0.0415252575
155299070.0 -1.000167013 0.0429161067
160299040.0 -1.000141319 0.0444025085
165299010.0 -1.000078046 0.0460492098
170298980.0 -0.9999752437 0.0473231481
175298950.0 -0.9973031947 0.0480541799
180298920.0 -0.9972972801 0.0490031737
185298890.0 -0.998188541 0.0508495287
190298860.0 -0.9998910008 0.0525059852
195298830.0 -1.000072339 0.0542254687
200298800.0 -0.9997330659 0.0551788951
205298770.0 -0.9992575919 0.0568466864
210298740.0 -0.9997298158 0.0583633508
215298710.0 -0.9993103084 0.0595027516
220298680.0 -0.9999949036 0.060617825
225298650.0 -0.9998499143 0.0620810581
230298620.0 -0.9999737455 0.0636130014
235298590.0 -0.9993412812 0.0647444641
240298560.0 -0.9994203679 0.0658876053
245298530.0 -0.9990289507 0.0673662334
250298500.0 -0.999558365 0.0690120614
255298470.0 -0.9990555102 0.0698841495
260298440.0 -0.9991176427 0.0713467719
265298410.0 -0.9989206529 0.0730989786
270298380.0 -0.9992941378 0.0742175755
275298350.0 -0.9990509214 0.075922854
280298320.0 -0.999061139 0.0772914357
285298290.0 -0.9987192247 0.0784204837
290298260.0 -0.9985286703 0.0794401604
295298230.0 -0.9986040713 0.0806492945
300298200.0 -0.9984107842 0.082178511
305298170.0 -0.9989970468 0.0839058794
310298140.0 -0.9988338337 0.0849250891
315298110.0 -0.9982291724 0.0862819796
320298080.0 -0.9982811791 0.0879461025
325298050.0 -0.9978217493 0.089220628
330298020.0 -0.9982702322 0.0904245747
335297990.0 -0.9980646082 0.0915929585
340297960.0 -0.99744462 0.0934298795
345297930.0 -0.9978208073 0.0939863917
350297900.0 -0.9979709049 0.0962619181
355297870.0 -0.9988033779 0.0973984085
360297840.0 -0.9979670604 0.0985368725
365297810.0 -0.998123464 0.0999719187
370297780.0 -0.9977341451 0.1011043576
375297750.0 -0.9969461462 0.1024509602
380297720.0 -0.9968068873 0.103932698
385297690.0 -0.9967413667 0.1055597965
390297660.0 -0.9971717148 0.1069552257
395297630.0 -0.9963331328 0.1081688703
400297600.0 -0.9964195235 0.1093848305
405297570.0 -0.9960481493 0.11102181
410297540.0 -0.9962121715 0.1129157142
415297510.0 -0.9962787446 0.1137612924
420297480.0 -0.9961550681 0.1150867398
425297450.0 -0.99575627 0.1163984879
430297420.0 -0.9958201675 0.1173783335
435297390.0 -0.9955441308 0.1191034376
440297360.0 -0.9949937955 0.1205207185
445297330.0 -0.9949091498 0.1216607388
450297300.0 -0.9946039944 0.1231976776
455297270.0 -0.9948210294 0.1248640073
460297240.0 -0.9947241239 0.1259656485
465297210.0 -0.9944877321 0.1272671662
470297180.0 -0.9947469776 0.1286989691
475297150.0 -0.9945713308 0.1297505262
480297120.0 -0.9941495956 0.1313751592
485297090.0 -0.9943304838 0.1331820227
490297060.0 -0.993636476 0.1341307677
495297030.0 -0.9930517995 0.1355189653
500297000.0 -0.993437978 0.136216008
505296970.0 -0.9936668691 0.1380194273
510296940.0 -0.9936033674 0.1395753339
515296910.0 -0.9935368899 0.1403777797
520296880.0 -0.9935364326 0.1418455
525296850.0 -0.9937179331 0.1428380251
530296820.0 -0.9932128775 0.1445954954
535296790.0 -0.9935554785 0.1469406909
540296760.0 -0.9928595526 0.1476021867
545296730.0 -0.9929295641 0.1486879152
550296700.0 -0.9927855324 0.1498945565
555296670.0 -0.9920432853 0.1517550226
560296640.0 -0.9918081474 0.1526402357
565296610.0 -0.9909103086 0.1543952647
570296580.0 -0.9913665291 0.1565075249
575296550.0 -0.9914430787 0.157657581
580296520.0 -0.9906707015 0.1586140751
585296490.0 -0.9908384862 0.1600894337
590296460.0 -0.9902282517 0.1613358916
595296430.0 -0.990121718 0.1623779
600296400.0 -0.9898544739 0.1641094824
605296370.0 -0.9899468289 0.165369377
610296340.0 -0.9899294009 0.1667078231
615296310.0 -0.9894020189 0.1678478534
620296280.0 -0.9889789752 0.1694623101
625296250.0 -0.9890835254 0.1703006491
630296220.0 -0.9884208354 0.1717616021
635296190.0 -0.9879347762 0.1726924291
640296160.0 -0.9883781903 0.1747003067
645296130.0 -0.9877733016 0.1750591658
650296100.0 -0.9872258881 0.1772104896
655296070.0 -0.9870251003 0.1784716901
660296040.0 -0.9867145215 0.1800666089
665296010.0 -0.9865755424 0.1810912632
670295980.0 -0.9865711415 0.1823659059
675295950.0 -0.9866655575 0.1832047349
680295920.0 -0.9858363107 0.1852266928
685295890.0 -0.9866918919 0.1866809668
690295860.0 -0.9859825331 0.1878206218
695295830.0 -0.9853972932 0.1892770141
700295800.0 -0.9854403035 0.1906126973
705295770.0 -0.9851865865 0.1920366371
710295740.0 -0.9846104417 0.1931188776
715295710.0 -0.9847254886 0.1954693034
720295680.0 -0.984023931 0.1962066771
725295650.0 -0.9840109928 0.1977903394
730295620.0 -0.9836676537 0.1982988497
735295590.0 -0.9838298286 0.2002670768
740295560.0 -0.9833921494 0.2012966565
745295530.0 -0.9836174278 0.2025964647
750295500.0 -0.9832795965 0.2037509497
755295470.0 -0.9826352615 0.2053062603
760295440.0 -0.9821526706 0.2066771986
765295410.0 -0.9824969464 0.2077081919
770295380.0 -0.9816687557 0.2093263178
775295350.0 -0.9808209705 0.2107418653
780295320.0 -0.9812343802 0.212536798
785295290.0 -0.9806840688 0.2134812245
790295260.0 -0.9808047092 0.215132805
795295230.0 -0.9801598583 0.216702456
800295200.0 -0.9797326389 0.2176115009
805295170.0 -0.979541262 0.2185442153
810295140.0 -0.9795400146 0.2204320565
815295110.0 -0.97904128 0.2211308408
820295080.0 -0.9788957005 0.2228230327
825295050.0 -0.9783680539 0.2243751682
830295020.0 -0.9780481956 0.2257174874
835294990.0 -0.9776297161 0.2271936267
840294960.0 -0.9778122174 0.2282656579
845294930.0 -0.9772832619 0.22907442
850294900.0 -0.9771606617 0.2306698421
855294870.0 -0.9769964032 0.2321660801
860294840.0 -0.9762136173 0.2335200798
865294810.0 -0.9760192077 0.2349283818
870294780.0 -0.9760524171 0.2364483407
875294750.0 -0.9757042663 0.2377074797
880294720.0 -0.9750219483 0.2389327776
885294690.0 -0.9750480788 0.2400730651
890294660.0 -0.9744748331 0.2414437287
895294630.0 -0.9744730353 0.2430687723
900294600.0 -0.9737910707 0.2439064644
905294570.0 -0.9732670868 0.2453079334
910294540.0 -0.9731954775 0.2469729883
915294510.0 -0.9727887588 0.2482228028
920294480.0 -0.9723500858 0.2497290718
925294450.0 -0.9720388402 0.2508748321
930294420.0 -0.9711414799 0.2520591845
935294390.0 -0.9715191679 0.2529120421
940294360.0 -0.9706888551 0.2542013266
945294330.0 -0.9702699058 0.2552637207
950294300.0 -0.9701111012 0.2573117172
955294270.0 -0.9690394646 0.2587337149
960294240.0 -0.9688277184 0.2604006309
965294210.0 -0.9691067654 0.261600205
970294180.0 -0.968701826 0.2626161971
975294150.0 -0.9685384856 0.264051323
980294120.0 -0.9681085029 0.2646748046
985294090.0 -0.9679579496 0.2663784779
990294060.0 -0.9672286192 0.2678763786
995294030.0 -0.9668647764 0.2694912165
1000294000.0 -0.966364084 0.2704713356
1005293970.0 -0.9656814625 0.2716589814
1010293940.0 -0.965632167 0.2730402239
1015293910.0 -0.9648467378 0.2743727169
1020293880.0 -0.9647057073 0.2750169288
1025293850.0 -0.964947933 0.2756275432
1030293820.0 -0.9640458857 0.2775166178
1035293790.0 -0.9632921028 0.2791939622
1040293760.0 -0.9631442305 0.2807260791
1045293730.0 -0.963064452 0.2820666028
1050293700.0 -0.9623771193 0.2832385933
1055293670.0 -0.9618308179 0.2844031983
1060293640.0 -0.9617478755 0.2854201873
1065293610.0 -0.9611703121 0.2865588544
1070293580.0 -0.9605790494 0.2879026593
1075293550.0 -0.9611588602 0.2891812895
1080293520.0 -0.9596719295 0.2909182043
1085293490.0 -0.9596024918 0.2923796875
1090293460.0 -0.9589942561 0.2935784687
1095293430.0 -0.9587561898 0.2950634787
1100293400.0 -0.957626318 0.2962149253
1105293370.0 -0.9573953931 0.2976605867
1110293340.0 -0.9576168753 0.2990289521
1115293310.0 -0.9564643828 0.3001868891
1120293280.0 -0.9567217479 0.3018123021
1125293250.0 -0.956354941 0.302489019
1130293220.0 -0.9562179649 0.3035990502
1135293190.0 -0.9552770792 0.3050771685
1140293160.0 -0.9552847116 0.3065396595
1145293130.0 -0.9546475959 0.308290844
1150293100.0 -0.9537637107 0.3096942191
1155293070.0 -0.9538001773 0.3110124233
1160293040.0 -0.9531177456 0.3124288758
1165293010.0 -0.9528060939 0.3131155792
1170292980.0 -0.9520345458 0.3147574498
1175292950.0 -0.9520050996 0.316137629
1180292920.0 -0.951537588 0.317133473
1185292890.0 -0.9509004919 0.3178201364
1190292860.0 -0.9507656982 0.3190741776
1195292830.0 -0.9504461963 0.3204362607
1200292800.0 -0.9497348814 0.3212657352
1205292770.0 -0.9492688704 0.3222362015
1210292740.0 -0.9487541119 0.3240300848
1215292710.0 -0.9482071443 0.324731448
1220292680.0 -0.948582421 0.3265441748
1225292650.0 -0.9477429854 0.328093591
1230292620.0 -0.947201024 0.3289372639
1235292590.0 -0.9464369795 0.3305225395
1240292560.0 -0.9462672437 0.3314299608
1245292530.0 -0.94534781 0.332979809
1250292500.0 -0.945217817 0.3341890561
1255292470.0 -0.945220887 0.335513948
1260292440.0 -0.9442596539 0.3364806905
1265292410.0 -0.9440134548 0.3378823195
1270292380.0 -0.9435498214 0.3395223317
1275292350.0 -0.9431063505 0.3401960993
1280292320.0 -0.942207866 0.3420820856
1285292290.0 -0.9422871558 0.3434109929
1290292260.0 -0.9413869055 0.344220506
1295292230.0 -0.9407934894 0.3455887236
1300292200.0 -0.9403857186 0.3465067247
1305292170.0 -0.9395681536 0.3477958553
1310292140.0 -0.9393961127 0.3487562948
1315292110.0 -0.9387589541 0.3505608996
1320292080.0 -0.9382216328 0.351508714
1325292050.0 -0.9382355333 0.3531850958
1330292020.0 -0.9377456439 0.3541342068
1335291990.0 -0.9368146721 0.3556871526
1340291960.0 -0.9365045697 0.3574010821
1345291930.0 -0.9358178267 0.3577500161
1350291900.0 -0.935509243 0.359800064
1355291870.0 -0.9351926633 0.36080038
1360291840.0 -0.9343618226 0.3619183363
1365291810.0 -0.9341332841 0.3635364221
1370291780.0 -0.933387601 0.3641944711
1375291750.0 -0.9328997748 0.3652333667
1380291720.0 -0.9327649795 0.3664489211
1385291690.0 -0.9319620172 0.3677129269
1390291660.0 -0.9306949977 0.3696421122
1395291630.0 -0.9309999131 0.3705445418
1400291600.0 -0.9302379347 0.3726209555
1405291570.0 -0.9302618645 0.3728346048
1410291540.0 -0.9293768679 0.3744523543
1415291510.0 -0.9288000223 0.3757585209
1420291480.0 -0.9282876595 0.3771867972
1425291450.0 -0.9279592954 0.3780275839
1430291420.0 -0.9269504904 0.3792880033
1435291390.0 -0.9268244981 0.3804239591
1440291360.0 -0.9263408657 0.381720271
1445291330.0 -0.9257261778 0.3828535477
1450291300.0 -0.9251208495 0.3832024403
1455291270.0 -0.9249778939 0.3854652529
1460291240.0 -0.9241291023 0.3863497432
1465291210.0 -0.923860773 0.3876896864
1470291180.0 -0.9233497982 0.388990959
1475291150.0 -0.9225063131 0.3898854316
1480291120.0 -0.9219788525 0.3908342446
1485291090.0 -0.9212485103 0.3924126622
1490291060.0 -0.9210356709 0.3937718241
1495291030.0 -0.9203558898 0.3953617799
1500291000.0 -0.9197944116 0.39676475
1505290970.0 -0.9195235622 0.3974338074
1510290940.0 -0.9187173187 0.3989478664
1515290910.0 -0.9180931851 0.400051155
1520290880.0 -0.918050592 0.4011309898
1525290850.0 -0.9170163241 0.4023014206
1530290820.0 -0.9164553756 0.4038267236
1535290790.0 -0.9158009412 0.4054425705
1540290760.0 -0.9155711715 0.4061377878
1545290730.0 -0.9151574439 0.4077240945
1550290700.0 -0.9142310421 0.4087686101
1555290670.0 -0.9137018672 0.4099647295
1560290640.0 -0.9128198706 0.4111288142
1565290610.0 -0.9126596801 0.4123310371
1570290580.0 -0.9122315424 0.4135328773
1575290550.0 -0.9114571841 0.4150717697
1580290520.0 -0.9110555328 0.4163039941
1585290490.0 -0.9103784633 0.4177555886
1590290460.0 -0.9097902743 0.4186572053
1595290430.0 -0.9086848267 0.4202124077
1600290400.0 -0.9089276629 0.4214852802
1605290370.0 -0.9081238467 0.4218717954
1610290340.0 -0.9077611012 0.4232788153
1615290310.0 -0.9065276719 0.4247020587
1620290280.0 -0.9069261334 0.4259106769
1625290250.0 -0.9055173921 0.4273198613
1630290220.0 -0.9047980776 0.4279656505
1635290190.0 -0.9042668076 0.428814321
1640290160.0 -0.9040520554 0.4305665568
1645290130.0 -0.903441384 0.4311882202
1650290100.0 -0.902852408 0.4329255546
1655290070.0 -0.902372176 0.4338600353
1660290040.0 -0.901644442 0.4351583782
1665290010.0 -0.9007898044 0.4363578996
1670289980.0 -0.9001563187 0.4376791963
1675289950.0 -0.8998429051 0.4387097817
1680289920.0 -0.8987731048 0.4396754785
1685289890.0 -0.8989894125 0.4414786099
1690289860.0 -0.8971372791 0.4429938905
1695289830.0 -0.8966854717 0.4443620518
1700289800.0 -0.8968503879 0.4452744707
1705289770.0 -0.8959349657 0.4469402837
1710289740.0 -0.8953489959 0.4476696374
1715289710.0 -0.8938577882 0.4483734222
1720289680.0 -0.8937144815 0.4499209133
1725289650.0 -0.8936059409 0.4512215211
1730289620.0 -0.892385641 0.4526702657
1735289590.0 -0.8922470933 0.4532168628
1740289560.0 -0.891218292 0.4546026051
1745289530.0 -0.8905853098 0.4557158615
1750289500.0 -0.8902914481 0.4569538562
1755289470.0 -0.88910295 0.457917656
1760289440.0 -0.8887647698 0.4587602387
1765289410.0 -0.8880761366 0.4601082759
1770289380.0 -0.8878357224 0.4616403846
1775289350.0 -0.8877094751 0.4625466619
1780289320.0 -0.886331712 0.4639674368
1785289290.0 -0.8855735355 0.4653003677
1790289260.0 -0.8852001221 0.4664553058
1795289230.0 -0.8844595333 0.4679018719
1800289200.0 -0.8837763359 0.4690403928
1805289170.0 -0.8829764774 0.4698965748
1810289140.0 -0.8825133916 0.4713394413
1815289110.0 -0.8815801267 0.4718334242
1820289080.0 -0.8819675722 0.4733041088
1825289050.0 -0.8806752173 0.474224248
1830289020.0 -0.8806457069 0.4758901143
1835288990.0 -0.8799212137 0.4758870829
1840288960.0 -0.878789827 0.4767434261
1845288930.0 -0.8785859612 0.4788374261
1850288900.0 -0.8780270185 0.4804609157
1855288870.0 -0.8767313541 0.4809503858
1860288840.0 -0.8767051414 0.4823744648
1865288810.0 -0.8752152081 0.4839730933
1870288780.0 -0.8747921245 0.4853239516
1875288750.0 -0.8735783052 0.4867915762
1880288720.0 -0.8733769192 0.4877080481
1885288690.0 -0.8722719305 0.4891530217
1890288660.0 -0.87136554 0.4906476308
1895288630.0 -0.8707657187 0.4916532417
1900288600.0 -0.8705816313 0.4925724016
1905288570.0 -0.8696991511 0.4934856055
1910288540.0 -0.8685434266 0.4944011467
1915288510.0 -0.8687081175 0.495663025
1920288480.0 -0.8673536181 0.4972535432
1925288450.0 -0.8664986236 0.4992685435
1930288420.0 -0.8659673134 0.4994879852
1935288390.0 -0.8656487812 0.5011135091
1940288360.0 -0.8644199316 0.502457512
1945288330.0 -0.8641502963 0.5031591735
1950288300.0 -0.863069806 0.5046071729
1955288270.0 -0.8629725593 0.5062976368
1960288240.0 -0.8613057632 0.5073649425
1965288210.0 -0.8610762876 0.5091256591
1970288180.0 -0.8601181031 0.509692167
1975288150.0 -0.8590047623 0.5108967621
1980288120.0 -0.8591476678 0.5118090413
1985288090.0 -0.8585140858 0.5130756913
1990288060.0 -0.8577995573 0.512800273
1995288030.0 -0.8571148905 0.5153194987
2000288000.0 -0.8565432042 0.5156671922
2005287970.0 -0.8562541653 0.5169753398
2010287940.0 -0.8551077584 0.5176345619
2015287910.0 -0.8546222119 0.5190338191
2020287880.0 -0.8539847292 0.5200700793
2025287850.0 -0.8531288393 0.5218054912
2030287820.0 -0.8521453969 0.5224182194
2035287790.0 -0.8513899032 0.5240727113
2040287760.0 -0.8510669588 0.5248331557
2045287730.0 -0.8501078426 0.5263262789
2050287700.0 -0.8489721598 0.5277246441
2055287670.0 -0.8483924662 0.5285216842
2060287640.0 -0.8476852407 0.5295214732
2065287610.0 -0.8471998796 0.53126299
2070287580.0 -0.8463141261 0.5317288504
2075287550.0 -0.8452554294 0.5332124165
2080287520.0 -0.8447539437 0.5343331006
2085287490.0 -0.844528049 0.5352656675
2090287460.0 -0.8432774294 0.5364292977
2095287430.0 -0.8424033512 0.5376608591
2100287400.0 -0.8422776154 0.5391143976
2105287370.0 -0.8410984598 0.5399932417
2110287340.0 -0.8403318293 0.5415237341
2115287310.0 -0.8393343475 0.5422278733
2120287280.0 -0.8388129164 0.5438024075
2125287250.0 -0.8382727723 0.544687577
2130287220.0 -0.8376701414 0.5457251646
2135287190.0 -0.8364974881 0.5475681912
2140287160.0 -0.835533748 0.5485531198
2145287130.0 -0.8350020942 0.5494750131
2150287100.0 -0.8343323044 0.5507209456
2155287070.0 -0.8332968853 0.5513577241
2160287040.0 -0.8328591882 0.5528745045
2165287010.0 -0.8322719815 0.5537350203
2170286980.0 -0.8317611557 0.5548373223
2175286950.0 -0.830168605 0.5558750962
2180286920.0 -0.8300415763 0.5565338633
2185286890.0 -0.8292671481 0.5573776289
2190286860.0 -0.8288226647 0.5587768554
2195286830.0 -0.8276383687 0.559516637
2200286800.0 -0.8270698694 0.5608051518
2205286770.0 -0.8263570863 0.5615593232
2210286740.0 -0.8259351846 0.5629263701
2215286710.0 -0.8246829888 0.5641819597
2220286680.0 -0.8241568319 0.5654566198
2225286650.0 -0.8233381633 0.5659772936
2230286620.0 -0.8227006508 0.5673931983
2235286590.0 -0.8223191457 0.5690440547
2240286560.0 -0.8211942021 0.5703493244
2245286530.0 -0.8200263348 0.5709547572
2250286500.0 -0.8192455355 0.5721436378
2255286470.0 -0.8182695866 0.5735936024
2260286440.0 -0.8175900806 0.5752945436
2265286410.0 -0.8165256616 0.5758475326
2270286380.0 -0.8160256229 0.5775286447
2275286350.0 -0.8150093773 0.5789238376
2280286320.0 -0.8142833271 0.5788425632
2285286290.0 -0.8135029917 0.5804210761
2290286260.0 -0.8125785786 0.5820088937
2295286230.0 -0.8119071369 0.5825615109
2300286200.0 -0.8106306226 0.5835793747
2305286170.0 -0.8099440517 0.5851474641
2310286140.0 -0.809408587 0.5859067853
2315286110.0 -0.8080742243 0.587109759
2320286080.0 -0.8076606887 0.5887163516
2325286050.0 -0.8069660744 0.5896693988
2330286020.0 -0.8062534038 0.5906437854
2335285990.0 -0.805141781 0.5915355541
2340285960.0 -0.8047888654 0.5929291139
2345285930.0 -0.8040036376 0.5935791035
2350285900.0 -0.8032810335 0.594663432
2355285870.0 -0.8024395675 0.5963448175
2360285840.0 -0.8014712851 0.5974623472
2365285810.0 -0.8003419448 0.5984979069
2370285780.0 -0.8001550327 0.5991087224
2375285750.0 -0.7993448549 0.6000780426
2380285720.0 -0.7982058675 0.6014962175
2385285690.0 -0.7980547759 0.6022514121
2390285660.0 -0.7970916181 0.6037305382
2395285630.0 -0.7962100354 0.604890125
2400285600.0 -0.7955881171 0.6052982157
2405285570.0 -0.794300652 0.6066081628
2410285540.0 -0.7942791921 0.6069876836
2415285510.0 -0.7931900125 0.6086085842
2420285480.0 -0.7924453601 0.6090926762
2425285450.0 -0.7916285863 0.6100480256
2430285420.0 -0.7909483089 0.6108903521
2435285390.0 -0.7899702172 0.6118803863
2440285360.0 -0.7887622708 0.6128219651
2445285330.0 -0.7882151959 0.6138051461
2450285300.0 -0.7867129295 0.6151654347
2455285270.0 -0.7864957871 0.6163328032
2460285240.0 -0.7856798168 0.6178993858
2465285210.0 -0.7844363697 0.618841817
2470285180.0 -0.7840471056 0.6194200218
2475285150.0 -0.782340279 0.6211184627
2480285120.0 -0.7822596876 0.6223464644
2485285090.0 -0.7811450826 0.6230172967
2490285060.0 -0.7805654556 0.6241471253
2495285030.0 -0.7791999271 0.6250955559
2500285000.0 -0.778331039 0.6265969847
2505284970.0 -0.7776470687 0.6279272761
2510284940.0 -0.7765525431 0.6284197279
2515284910.0 -0.7759889285 0.6295126849
2520284880.0 -0.7751882862 0.630849942
2525284850.0 -0.774779798 0.6322217015
2530284820.0 -0.7733269621 0.6324457845
