!Created with skrf (http://scikit-rf.org).
# Hz S RI R 50.0 
!freq ReS11 ImS11
300000.0 -1.02423271 -0.1681369784
5299970.0 -1.003401241 0.00222576
10299940.0 -1.002595178 0.0015745182
15299910.0 -1.002447319 0.0076268745
20299880.0 -1.003093445 0.0067460372
25299850.0 -1.001857154 0.0101172665
30299820.0 -1.001895848 0.0126376551
35299790.0 -1.001399969 0.0119790191
40299760.0 -1.001089826 0.0139583703
45299730.0 -1.001158433 0.0159177111
50299700.0 -1.001778956 0.017535666
55299670.0 -1.001503237 0.0199126565
60299640.0 -1.001251029 0.0211983694
65299610.0 -1.001310348 0.0226844907
70299580.0 -1.001154087 0.0243417256
75299550.0 -1.000794586 0.0255009629
80299520.0 -1.000876602 0.0275529795
85299490.0 -1.000806764 0.0291161652
90299460.0 -1.001035993 0.0305178899
95299430.0 -1.000661292 0.0322685947
100299400.0 -1.000720369 0.0335312177
105299370.0 -1.00045922 0.0353790915
110299340.0 -0.9998672411 0.0375586077
115299310.0 -1.000517576 0.0389341981
120299280.0 -1.000339193 0.0399138883
125299250.0 -1.000338275 0.0422202231
130299220.0 -0.9997213375 0.0437036006
135299190.0 -1.000455428 0.0452338402
140299160.0 -1.000000943 0.0464393452
145299130.0 -0.9997328691 0.0483125352
150299100.0 -0.9998451662 0.0504452728
155299070.0 -0.9992635059 0.0516108807
160299040.0 -0.9998660686 0.0533297974
165299010.0 -0.9995446416 0.0543723898
170298980.0 -0.9993525853 0.0563147758
175298950.0 -0.9973121155 0.0581006117
180298920.0 -0.9962170714 0.0589245745
185298890.0 -0.9980063493 0.0604219309
190298860.0 -0.9990081922 0.0624995658
195298830.0 -0.9989808898 0.064533553
200298800.0 -0.9985423738 0.0659823219
205298770.0 -0.9994285297 0.0676636964
210298740.0 -0.9983515381 0.0694563838
215298710.0 -0.9985331006 0.0710192795
220298680.0 -0.9984779158 0.0728119063
225298650.0 -0.9991266034 0.0740700425
230298620.0 -0.9990418716 0.0757821087
235298590.0 -0.9984216432 0.077414469
240298560.0 -0.9978792211 0.0788802116
245298530.0 -0.9980088761 0.0803912825
250298500.0 -0.9984595726 0.0817218784
255298470.0 -0.9980620467 0.0838698919
260298440.0 -0.9981176242 0.0854405949
265298410.0 -0.9975849304 0.0870932155
270298380.0 -0.9976795776 0.0886013277
275298350.0 -0.9977530582 0.0899789339
280298320.0 -0.9975787828 0.0914671504
285298290.0 -0.9972027031 0.0932715531
290298260.0 -0.9970833943 0.0954469564
295298230.0 -0.9969511602 0.0965585701
300298200.0 -0.9972422441 0.0984331476
305298170.0 -0.9965433866 0.1005917238
310298140.0 -0.9963484101 0.1016947744
315298110.0 -0.9970993064 0.103428459
320298080.0 -0.9963141751 0.1050306279
325298050.0 -0.9960441154 0.106333853
330298020.0 -0.996102331 0.1087730607
335297990.0 -0.9952376907 0.1098739521
340297960.0 -0.9956841848 0.1112876718
345297930.0 -0.9958843233 0.1128112638
350297900.0 -0.9960394626 0.1148391939
355297870.0 -0.9964408014 0.1160182733
360297840.0 -0.9961253898 0.1173634839
365297810.0 -0.9955422785 0.1191184308
370297780.0 -0.99508023 0.1201090273
375297750.0 -0.9942227349 0.122491263
380297720.0 -0.9941231943 0.1239134816
385297690.0 -0.9940913486 0.1258057306
390297660.0 -0.9939875517 0.1277711908
395297630.0 -0.9937905585 0.1287807687
400297600.0 -0.9932694794 0.1310306356
405297570.0 -0.9929256532 0.1324434824
410297540.0 -0.9932171146 0.1340883612
415297510.0 -0.9928717394 0.1357315481
420297480.0 -0.9928518528 0.1374680713
425297450.0 -0.9924064477 0.1390195751
430297420.0 -0.9926944414 0.1404799851
435297390.0 -0.9922638816 0.142274723
440297360.0 -0.9923650531 0.1438031055
445297330.0 -0.9917165044 0.145178703
450297300.0 -0.9911300706 0.1471155575
455297270.0 -0.9913902665 0.1484539811
460297240.0 -0.9913961585 0.1501043531
465297210.0 -0.9906427555 0.152155773
470297180.0 -0.9906096776 0.1537211545
475297150.0 -0.9902637185 0.1552585544
480297120.0 -0.9903975553 0.1570640655
485297090.0 -0.9902613813 0.1585081201
490297060.0 -0.9896567813 0.1602673837
495297030.0 -0.9893090988 0.161067067
500297000.0 -0.9888256274 0.1633725039
505296970.0 -0.9892509402 0.1647662487
510296940.0 -0.9892693727 0.1662612419
515296910.0 -0.9891214269 0.1675354648
520296880.0 -0.9885938841 0.1692545446
525296850.0 -0.9891827573 0.1714151709
530296820.0 -0.9885100824 0.1724491251
535296790.0 -0.9883317011 0.1741655542
540296760.0 -0.987898786 0.1762081608
545296730.0 -0.9879839782 0.1777162326
550296700.0 -0.9872363321 0.1791843465
555296670.0 -0.9867764531 0.1806726073
560296640.0 -0.9864853597 0.1824943902
565296610.0 -0.9861370536 0.1838829755
570296580.0 -0.985167068 0.1860779584
575296550.0 -0.9852680359 0.1878340712
580296520.0 -0.9848839899 0.1892408468
585296490.0 -0.9848626534 0.1908467685
590296460.0 -0.984718696 0.1917820586
595296430.0 -0.9839874749 0.193940049
600296400.0 -0.9839671747 0.1956403547
605296370.0 -0.9837970159 0.1973207414
610296340.0 -0.9833696161 0.1983328512
615296310.0 -0.9823640375 0.2004324904
620296280.0 -0.9824628732 0.2021766117
625296250.0 -0.9819883005 0.2027638045
630296220.0 -0.9814856293 0.2051829615
635296190.0 -0.9813932104 0.2067909173
640296160.0 -0.9808874355 0.2076388529
645296130.0 -0.981053127 0.2095979839
650296100.0 -0.9804882364 0.2117036039
655296070.0 -0.9802265895 0.2129149084
660296040.0 -0.9801397814 0.2147346607
665296010.0 -0.9798136074 0.2157057121
670295980.0 -0.9789496898 0.2180395188
675295950.0 -0.979027883 0.2193096454
680295920.0 -0.9782996894 0.2203745793
685295890.0 -0.978511154 0.2225827351
690295860.0 -0.9776964143 0.2235886058
695295830.0 -0.9779076821 0.2259028084
700295800.0 -0.976993667 0.2274674424
705295770.0 -0.9768023452 0.2283951441
710295740.0 -0.9764247959 0.2304302278
715295710.0 -0.976141879 0.2329626347
720295680.0 -0.975945688 0.2338883564
725295650.0 -0.9753533376 0.2349725121
730295620.0 -0.9747516705 0.2366761511
735295590.0 -0.9744187912 0.2384911248
740295560.0 -0.9742597369 0.240014302
745295530.0 -0.9741822614 0.2413515229
750295500.0 -0.9737598672 0.2434736332
755295470.0 -0.9731305058 0.2446849819
760295440.0 -0.9727831474 0.2463124186
765295410.0 -0.9727655266 0.2478606408
770295380.0 -0.9716190849 0.2496342718
775295350.0 -0.9714066605 0.251382313
780295320.0 -0.971080445 0.2530055847
785295290.0 -0.9701002071 0.2547950128
790295260.0 -0.9700584011 0.255944421
795295230.0 -0.9701856706 0.2577057863
800295200.0 -0.9693706333 0.2593492134
805295170.0 -0.9687999285 0.2608422181
810295140.0 -0.9680390758 0.2615585647
815295110.0 -0.9683294667 0.2636603513
820295080.0 -0.9676855989 0.2657537688
825295050.0 -0.967342386 0.2670804437
830295020.0 -0.9668026133 0.2684318061
835294990.0 -0.9665368841 0.2701827365
840294960.0 -0.9658184219 0.2717623774
845294930.0 -0.96504641 0.2736384357
850294900.0 -0.9648606106 0.275262904
855294870.0 -0.9644597673 0.2766821377
860294840.0 -0.964802758 0.2783258671
865294810.0 -0.9632463496 0.2798510217
870294780.0 -0.9628016766 0.2814362798
875294750.0 -0.9628986876 0.2823103618
880294720.0 -0.9628394499 0.2844222928
885294690.0 -0.9617539564 0.2855641784
890294660.0 -0.9610059643 0.2869670828
895294630.0 -0.960803487 0.2882307543
900294600.0 -0.9598482249 0.2902417793
905294570.0 -0.9599263897 0.29160837
910294540.0 -0.9591328887 0.2937615165
915294510.0 -0.9591587044 0.2951412118
920294480.0 -0.9583357232 0.2972646768
925294450.0 -0.9580304472 0.298248988
930294420.0 -0.9571613529 0.2999530296
935294390.0 -0.9565152059 0.3007919432
940294360.0 -0.9564348912 0.3025131779
945294330.0 -0.9555596163 0.3043328662
950294300.0 -0.9554778448 0.3058026553
955294270.0 -0.9545326775 0.3077006807
960294240.0 -0.9544064845 0.30865698
965294210.0 -0.9535314495 0.3107019156
970294180.0 -0.9534808844 0.3121651019
975294150.0 -0.9524337399 0.3136343787
980294120.0 -0.9520842844 0.3147086561
985294090.0 -0.951607555 0.3160626864
990294060.0 -0.9513322643 0.318141918
995294030.0 -0.9509434758 0.3194571933
1000294000.0 -0.9501498208 0.3214178319
1005293970.0 -0.9498693225 0.3232862048
1010293940.0 -0.949060744 0.3246490562
1015293910.0 -0.9488335213 0.3259877698
1020293880.0 -0.9480248828 0.3273211997
1025293850.0 -0.9474190587 0.3284133194
1030293820.0 -0.9472627915 0.330224408
1035293790.0 -0.9459207578 0.3312286219
1040293760.0 -0.9455260447 0.3332127131
1045293730.0 -0.9450393999 0.3346945815
1050293700.0 -0.9445175632 0.336360888
1055293670.0 -0.9442085705 0.3376862965
1060293640.0 -0.94376637 0.3389208221
1065293610.0 -0.943530525 0.3411625415
1070293580.0 -0.9427438351 0.341941838
1075293550.0 -0.9415939617 0.3435092274
1080293520.0 -0.9415009279 0.3450661964
1085293490.0 -0.9404493675 0.3466247869
1090293460.0 -0.9397510885 0.3483962177
1095293430.0 -0.9391337029 0.3506322314
1100293400.0 -0.938544408 0.3514744519
1105293370.0 -0.9383011231 0.3531892476
1110293340.0 -0.9374339547 0.3546552943
1115293310.0 -0.9371313893 0.3565525012
1120293280.0 -0.9364109283 0.3573662639
1125293250.0 -0.935753081 0.3588213616
1130293220.0 -0.9352340627 0.3603589921
1135293190.0 -0.9347307471 0.3617165665
1140293160.0 -0.9344414918 0.3638454049
1145293130.0 -0.9334017362 0.3656770226
1150293100.0 -0.9330055485 0.3670995964
1155293070.0 -0.9320500592 0.3692419065
1160293040.0 -0.9312891044 0.3703319372
1165293010.0 -0.9315142248 0.3718830244
1170292980.0 -0.930608957 0.3733440618
1175292950.0 -0.930240006 0.3745834562
1180292920.0 -0.9291059228 0.37583666
1185292890.0 -0.9283028531 0.3773952859
1190292860.0 -0.9274596122 0.3782719863
1195292830.0 -0.926927578 0.3795193678
1200292800.0 -0.9266766643 0.3811215175
1205292770.0 -0.9263299462 0.3829313248
1210292740.0 -0.9254042731 0.3839047422
1215292710.0 -0.9248445749 0.3857598658
1220292680.0 -0.9240188486 0.3873026568
1225292650.0 -0.9236661306 0.3885284588
1230292620.0 -0.9233410881 0.3903517742
1235292590.0 -0.9223200421 0.3919176615
1240292560.0 -0.9219765214 0.3930111639
1245292530.0 -0.9209149782 0.3945648776
1250292500.0 -0.9199025385 0.3961380177
1255292470.0 -0.9196084772 0.397613063
1260292440.0 -0.9189508023 0.3990916988
1265292410.0 -0.9186337042 0.4004921314
1270292380.0 -0.9175742651 0.4020329647
1275292350.0 -0.9169232784 0.4035193685
1280292320.0 -0.9164949113 0.4053052321
1285292290.0 -0.9155888037 0.4066663721
1290292260.0 -0.9152587569 0.4083241185
1295292230.0 -0.9143160031 0.4093193719
1300292200.0 -0.9141362284 0.4103071058
1305292170.0 -0.9132181084 0.4121693662
1310292140.0 -0.9123684636 0.413775559
1315292110.0 -0.9117594815 0.4148019932
1320292080.0 -0.9114598265 0.4162314079
1325292050.0 -0.910062143 0.4178602197
1330292020.0 -0.9097367201 0.4193325159
1335291990.0 -0.9085927819 0.4210706978
1340291960.0 -0.9075833299 0.4229899859
1345291930.0 -0.9074066135 0.4247377704
1350291900.0 -0.9057727828 0.4259869215
1355291870.0 -0.9062216766 0.4265698776
1360291840.0 -0.9054654957 0.428638223
1365291810.0 -0.9041211402 0.4292362725
1370291780.0 -0.9036001387 0.4311678551
1375291750.0 -0.9030947538 0.4326364687
1380291720.0 -0.9028172736 0.4343102391
1385291690.0 -0.9015430875 0.4352393599
1390291660.0 -0.9009553728 0.4370920418
1395291630.0 -0.9005455059 0.4390202653
1400291600.0 -0.8990431837 0.4400223035
1405291570.0 -0.8983711698 0.4408559914
1410291540.0 -0.8982844502 0.4429768802
1415291510.0 -0.8975882243 0.4442126352
1420291480.0 -0.8958989254 0.4461118271
1425291450.0 -0.8956916475 0.4471669194
1430291420.0 -0.8951126088 0.4480988661
1435291390.0 -0.8944345201 0.4495926819
1440291360.0 -0.8937532463 0.451018131
1445291330.0 -0.8928025821 0.4525283684
1450291300.0 -0.8924007363 0.4536149089
1455291270.0 -0.8918027066 0.4554769496
1460291240.0 -0.8909975378 0.4564208806
1465291210.0 -0.8893807773 0.4581751483
1470291180.0 -0.8891656398 0.4592891297
1475291150.0 -0.8881777777 0.4608913143
1480291120.0 -0.8878966453 0.4623709281
1485291090.0 -0.887023365 0.4638769834
1490291060.0 -0.8863018063 0.4653394975
1495291030.0 -0.8852036364 0.4666553714
1500291000.0 -0.8845997244 0.4681490987
1505290970.0 -0.883913203 0.4690590282
1510290940.0 -0.8833923414 0.4708110689
1515290910.0 -0.8827842721 0.4718344771
1520290880.0 -0.8812397124 0.4739092661
1525290850.0 -0.8808848716 0.4755862796
1530290820.0 -0.880003164 0.4765827662
1535290790.0 -0.8790659414 0.4782570096
1540290760.0 -0.8783230857 0.4798679245
1545290730.0 -0.8773988911 0.4806095527
1550290700.0 -0.8770066267 0.4828136371
1555290670.0 -0.8757332344 0.483299688
1560290640.0 -0.8756363893 0.4848844078
1565290610.0 -0.8742638485 0.486726572
1570290580.0 -0.8740400251 0.4878870767
1575290550.0 -0.8728798275 0.4895737064
1580290520.0 -0.8714905707 0.4911251704
1585290490.0 -0.8711181874 0.49231689
1590290460.0 -0.8701834944 0.493525685
1595290430.0 -0.8694244225 0.4954196535
1600290400.0 -0.8685249842 0.4963249844
1605290370.0 -0.8680236266 0.4977555366
1610290340.0 -0.8668553056 0.4994824348
1615290310.0 -0.8656631571 0.4999568773
1620290280.0 -0.8646762009 0.5016266639
1625290250.0 -0.8642902231 0.502867747
1630290220.0 -0.8640306742 0.5044976607
1635290190.0 -0.8634321979 0.5055717881
1640290160.0 -0.8617322115 0.5069131483
1645290130.0 -0.8614908217 0.507773838
1650290100.0 -0.8606973817 0.5096641649
1655290070.0 -0.8594179386 0.5111956809
1660290040.0 -0.8588287073 0.5130871849
1665290010.0 -0.857984941 0.5142048947
1670289980.0 -0.8570685774 0.5149020496
1675289950.0 -0.8561866322 0.516542158
1680289920.0 -0.8553508177 0.5182324287
1685289890.0 -0.854373348 0.5202073083
1690289860.0 -0.8534077156 0.5211342381
1695289830.0 -0.8525212753 0.5230946335
1700289800.0 -0.8514925171 0.5239022765
1705289770.0 -0.8503635971 0.5250467283
1710289740.0 -0.8501678021 0.5270046658
1715289710.0 -0.8490368966 0.5284298382
1720289680.0 -0.8482969458 0.5296184439
1725289650.0 -0.8473439021 0.5307265689
1730289620.0 -0.8464694141 0.5322961262
1735289590.0 -0.8454891102 0.533399958
1740289560.0 -0.8448695878 0.5351416845
1745289530.0 -0.8439144581 0.5360041629
1750289500.0 -0.8424701134 0.5373814742
1755289470.0 -0.8418965049 0.5385275506
1760289440.0 -0.8412870567 0.5399593836
1765289410.0 -0.8407331108 0.5414127227
1770289380.0 -0.8399386317 0.5428638116
1775289350.0 -0.8388347196 0.5433710446
1780289320.0 -0.8377333307 0.5450356945
1785289290.0 -0.8363116569 0.5466614664
1790289260.0 -0.8356399812 0.5480608362
1795289230.0 -0.8346152039 0.5496245352
1800289200.0 -0.8341694299 0.550592636
1805289170.0 -0.8328702313 0.5524296201
1810289140.0 -0.8319354245 0.553747674
1815289110.0 -0.8318042623 0.5546490605
1820289080.0 -0.8304984265 0.5561895661
1825289050.0 -0.829595926 0.5572024956
1830289020.0 -0.8292058588 0.557970948
1835288990.0 -0.8284883363 0.559614667
1840288960.0 -0.8278868878 0.5605770245
1845288930.0 -0.8258938925 0.5616852869
1850288900.0 -0.8258975648 0.5641119183
1855288870.0 -0.8243199358 0.5649971626
1860288840.0 -0.8230243558 0.5661709338
1865288810.0 -0.8225482679 0.5679667749
1870288780.0 -0.8214739928 0.5695179286
1875288750.0 -0.8201936597 0.5704419138
1880288720.0 -0.8191837057 0.5721668135
1885288690.0 -0.8178108794 0.5735796408
1890288660.0 -0.8174618748 0.5750840965
1895288630.0 -0.8164764866 0.575976183
1900288600.0 -0.815642139 0.5774780031
1905288570.0 -0.8146707904 0.579037543
1910288540.0 -0.8137082451 0.5804480722
1915288510.0 -0.812642059 0.5819250265
1920288480.0 -0.8115803037 0.5823611313
1925288450.0 -0.8107614354 0.5841022498
1930288420.0 -0.8093064425 0.5856380699
1935288390.0 -0.8082414418 0.5871231182
1940288360.0 -0.807896101 0.5883853721
1945288330.0 -0.8064429711 0.5895045937
1950288300.0 -0.8052838659 0.5914629691
1955288270.0 -0.8041535892 0.5927573582
1960288240.0 -0.8036428614 0.5941290675
1965288210.0 -0.8020889497 0.595403428
1970288180.0 -0.8014519983 0.5967201681
1975288150.0 -0.8007858307 0.5981601324
1980288120.0 -0.7998886351 0.5988133576
1985288090.0 -0.7984333932 0.5998861993
1990288060.0 -0.7979768145 0.6011641396
1995288030.0 -0.7971887469 0.6018724831
2000288000.0 -0.796604396 0.6035875125
2005287970.0 -0.7950357194 0.6046677294
2010287940.0 -0.7945394468 0.6057021934
2015287910.0 -0.7933910405 0.6075212427
2020287880.0 -0.7924346159 0.6085591193
2025287850.0 -0.7904602108 0.610145276
2030287820.0 -0.79029239 0.61114793
2035287790.0 -0.7890574048 0.6122719092
2040287760.0 -0.7883730479 0.6136705824
2045287730.0 -0.7865950879 0.6150498111
2050287700.0 -0.7860736552 0.6169470909
2055287670.0 -0.7847072464 0.6180566302
2060287640.0 -0.7838370632 0.6187614422
2065287610.0 -0.7826220669 0.6198253378
2070287580.0 -0.7819183222 0.6214141409
2075287550.0 -0.7809103124 0.6229097417
2080287520.0 -0.7801163886 0.6243184188
2085287490.0 -0.7792345615 0.625496766
2090287460.0 -0.7775898687 0.6263996405
2095287430.0 -0.7771364686 0.6282389536
2100287400.0 -0.7757180655 0.6287625427
2105287370.0 -0.7744837798 0.6302152995
2110287340.0 -0.7736591153 0.6318574173
2115287310.0 -0.7729921449 0.6334048424
2120287280.0 -0.7716432207 0.6344854352
2125287250.0 -0.7708922701 0.6357885115
2130287220.0 -0.7693581621 0.6374751021
2135287190.0 -0.7680626104 0.6383361155
2140287160.0 -0.7674118039 0.6397221485
2145287130.0 -0.7658526636 0.6409637495
2150287100.0 -0.7654653057 0.6418375025
2155287070.0 -0.7640556394 0.6435044272
2160287040.0 -0.76302164 0.6441894042
2165287010.0 -0.7625009555 0.6456307263
2170286980.0 -0.7612841994 0.6470029573
2175286950.0 -0.7603063784 0.647794139
2180286920.0 -0.7589988388 0.6487561544
2185286890.0 -0.7582749674 0.6497473947
2190286860.0 -0.7581974087 0.6506565219
2195286830.0 -0.7563435237 0.6517482561
2200286800.0 -0.7557546895 0.6526407796
2205286770.0 -0.7544734155 0.6542358685
2210286740.0 -0.7537019687 0.6551474783
2215286710.0 -0.7518083295 0.6566562602
2220286680.0 -0.7510503694 0.6588669903
2225286650.0 -0.749952055 0.659564561
2230286620.0 -0.7487763108 0.6610454223
2235286590.0 -0.7476253951 0.6618938085
2240286560.0 -0.7469526275 0.6633429296
2245286530.0 -0.7451798688 0.6646045253
2250286500.0 -0.7443909929 0.6655966777
2255286470.0 -0.743447513 0.6677772632
2260286440.0 -0.741795661 0.6686556145
2265286410.0 -0.7405293471 0.6694747457
2270286380.0 -0.7397575783 0.6711569416
2275286350.0 -0.7385058677 0.672310168
2280286320.0 -0.7376112079 0.6732949112
2285286290.0 -0.7364218908 0.6742457352
2290286260.0 -0.7348546007 0.6755892256
2295286230.0 -0.7340916682 0.6773589419
2300286200.0 -0.7328316374 0.6777077153
2305286170.0 -0.7315531714 0.679325861
2310286140.0 -0.7303852482 0.6805657965
2315286110.0 -0.7291597098 0.6823280357
2320286080.0 -0.7287758856 0.6832381775
2325286050.0 -0.7271681162 0.6839624035
2330286020.0 -0.7262926271 0.6852803379
2335285990.0 -0.7250577362 0.6867057217
2340285960.0 -0.7243322672 0.6874732009
2345285930.0 -0.7234805488 0.6888701609
2350285900.0 -0.7219151572 0.690215198
2355285870.0 -0.7211766274 0.6907895585
2360285840.0 -0.7193568619 0.6921423284
2365285810.0 -0.7188604618 0.6940123392
2370285780.0 -0.7170420437 0.6947221624
2375285750.0 -0.7164171976 0.6964621759
2380285720.0 -0.7152953546 0.6965476091
2385285690.0 -0.7142922916 0.6977891374
2390285660.0 -0.7134207132 0.6991299068
2395285630.0 -0.7120100832 0.7001901589
2400285600.0 -0.7110383527 0.7014586525
2405285570.0 -0.7105429571 0.7023848983
2410285540.0 -0.7097021704 0.7030764501
2415285510.0 -0.7081696871 0.7044971865
2420285480.0 -0.7073511977 0.7055962211
2425285450.0 -0.7058159154 0.706842466
2430285420.0 -0.7049300087 0.707946792
2435285390.0 -0.7033072869 0.708880046
2440285360.0 -0.7020084978 0.7102314206
2445285330.0 -0.7012481514 0.711531895
2450285300.0 -0.6994398279 0.7119595473
2455285270.0 -0.6987733983 0.7138009212
2460285240.0 -0.6972197272 0.7147779054
2465285210.0 -0.6957457319 0.7158453244
2470285180.0 -0.6946951569 0.7175224892
2475285150.0 -0.6942566088 0.7183200252
2480285120.0 -0.6929121816 0.7193649157
2485285090.0 -0.6918921275 0.7203322255
2490285060.0 -0.6901699312 0.7212167245
2495285030.0 -0.689159084 0.7226114225
2500285000.0 -0.6876729536 0.7241679355
2505284970.0 -0.6865097021 0.7248800894
2510284940.0 -0.6852965478 0.7267356065
2515284910.0 -0.6842221555 0.7274555794
2520284880.0 -0.682678603 0.7283121801
2525284850.0 -0.6812749813 0.7294244304
2530284820.0 -0.6804477068 0.7304836706
