!Created with skrf (http://scikit-rf.org).
# Hz S RI R 50.0 
!freq ReS11 ImS11
45000000.0 0.06496429443359375 0.0900726318359375
49995500.0 0.083251953125 0.09117889404296875
54991000.0 0.10312652587890625 0.08908843994140625
59986500.0 0.12136077880859375 0.09226608276367188
64982000.0 0.141571044921875 0.08788299560546875
69977500.0 0.16300201416015625 0.078125
74973000.0 0.18424224853515625 0.0646820068359375
79968500.0 0.20423126220703125 0.0468292236328125
84964000.0 0.22188568115234375 0.02459716796875
89959500.0 0.23773193359375 -0.00054931640625
94955000.0 0.249420166015625 -0.02933502197265625
99950500.0 0.2569122314453125 -0.0616607666015625
104946000.0 0.259735107421875 -0.095611572265625
109941500.0 0.2578277587890625 -0.1304779052734375
114937000.0 0.2506561279296875 -0.1664886474609375
119932500.0 0.23867034912109375 -0.20172119140625
124928000.0 0.22198486328125 -0.2362823486328125
129923500.0 0.200164794921875 -0.26910400390625
134919000.0 0.1740264892578125 -0.2998046875
139914500.0 0.143341064453125 -0.3282928466796875
144910000.0 0.1087799072265625 -0.35321044921875
149905500.0 0.070465087890625 -0.3745880126953125
154901000.0 0.0288543701171875 -0.3918304443359375
159896500.0 -0.014984130859375 -0.4042510986328125
164892000.0 -0.0615692138671875 -0.4117431640625
169887500.0 -0.10986328125 -0.413787841796875
174883000.0 -0.1596832275390625 -0.410400390625
179878500.0 -0.2100372314453125 -0.40045166015625
184874000.0 -0.26007080078125 -0.3844757080078125
189869500.0 -0.3091278076171875 -0.361846923828125
194865000.0 -0.35662841796875 -0.33349609375
199860500.0 -0.4010772705078125 -0.2986907958984375
204856000.0 -0.4418487548828125 -0.2576141357421875
209851500.0 -0.478179931640625 -0.2109832763671875
214847000.0 -0.509521484375 -0.159698486328125
219842500.0 -0.534912109375 -0.103759765625
224838000.0 -0.553802490234375 -0.044677734375
229833500.0 -0.565887451171875 0.01763916015625
234829000.0 -0.570892333984375 0.081085205078125
239824500.0 -0.56842041015625 0.14581298828125
244820000.0 -0.55865478515625 0.21038818359375
249815500.0 -0.54156494140625 0.274383544921875
254811000.0 -0.53607177734375 0.31768798828125
259806500.0 -0.50860595703125 0.379364013671875
264802000.0 -0.474212646484375 0.4386749267578125
269797500.0 -0.4330291748046875 0.4949188232421875
274793000.0 -0.385528564453125 0.54736328125
279788500.0 -0.33154296875 0.595703125
284784000.0 -0.271728515625 0.638824462890625
289779500.0 -0.20623779296875 0.676422119140625
294775000.0 -0.1357421875 0.707244873046875
299770500.0 -0.06036376953125 0.7314453125
304766000.0 0.018890380859375 0.747589111328125
309761500.0 0.101226806640625 0.7548828125
314757000.0 0.186309814453125 0.752197265625
319752500.0 0.272064208984375 0.7392578125
324748000.0 0.358184814453125 0.717041015625
329743500.0 0.4434814453125 0.683868408203125
334739000.0 0.524871826171875 0.639801025390625
339734500.0 0.602264404296875 0.585205078125
344730000.0 0.673553466796875 0.520233154296875
349725500.0 0.7374267578125 0.44708251953125
354721000.0 0.792510986328125 0.365509033203125
359716500.0 0.83782958984375 0.27691650390625
364712000.0 0.871917724609375 0.18304443359375
369707500.0 0.895355224609375 0.084686279296875
374703000.0 0.90716552734375 -0.016082763671875
379698500.0 0.9066162109375 -0.11785888671875
384694000.0 0.894927978515625 -0.219451904296875
389689500.0 0.871734619140625 -0.318115234375
394685000.0 0.837677001953125 -0.4149169921875
399680500.0 0.79376220703125 -0.506805419921875
404676000.0 0.74053955078125 -0.5941162109375
409671500.0 0.67828369140625 -0.675750732421875
414667000.0 0.60797119140625 -0.75067138671875
419662500.0 0.52978515625 -0.82049560546875
424658000.0 0.443328857421875 -0.879425048828125
429653500.0 0.3499755859375 -0.93170166015625
434649000.0 0.24932861328125 -0.973358154296875
439644500.0 0.14471435546875 -1.00482177734375
444640000.0 0.03662109375 -1.02606201171875
449635500.0 -0.07440185546875 -1.03680419921875
454631000.0 -0.18975830078125 -1.037353515625
459626500.0 -0.30810546875 -1.023681640625
464622000.0 -0.426300048828125 -0.9951171875
469617500.0 -0.54296875 -0.952239990234375
474613000.0 -0.65545654296875 -0.89422607421875
479608500.0 -0.76190185546875 -0.821868896484375
484604000.0 -0.86016845703125 -0.73455810546875
489599500.0 -0.9473876953125 -0.635009765625
494595000.0 -1.02178955078125 -0.5238037109375
499590500.0 -1.08099365234375 -0.4031982421875
504586000.0 -1.12396240234375 -0.2755126953125
509581500.0 -1.14959716796875 -0.14459228515625
514577000.0 -1.15771484375 -0.01287841796875
519572500.0 -1.149658203125 0.11700439453125
524568000.0 -1.126220703125 0.24237060546875
529563500.0 -1.08966064453125 0.36126708984375
534559000.0 -1.04278564453125 0.472412109375
539554500.0 -0.98699951171875 0.5760498046875
544550000.0 -0.9239501953125 0.6728515625
549545500.0 -0.8538818359375 0.763671875
554541000.0 -0.776947021484375 0.849273681640625
559536500.0 -0.691741943359375 0.92877197265625
564532000.0 -0.5987548828125 1.00201416015625
569527500.0 -0.49749755859375 1.067138671875
574523000.0 -0.38824462890625 1.12261962890625
579518500.0 -0.27301025390625 1.16839599609375
584514000.0 -0.151611328125 1.20263671875
589509500.0 -0.0247802734375 1.2249755859375
594505000.0 0.10577392578125 1.23431396484375
599500500.0 0.2391357421875 1.2305908203125
604496000.0 0.37445068359375 1.21221923828125
609491500.0 0.5101318359375 1.1788330078125
614487000.0 0.64385986328125 1.1297607421875
619482500.0 0.7747802734375 1.0645751953125
624478000.0 0.899444580078125 0.982421875
629473500.0 1.01611328125 0.88470458984375
634469000.0 1.12164306640625 0.77099609375
639464500.0 1.21337890625 0.64288330078125
644460000.0 1.28900146484375 0.5015869140625
649455500.0 1.34661865234375 0.350830078125
654451000.0 1.38433837890625 0.19268798828125
659446500.0 1.40118408203125 0.03057861328125
664442000.0 1.3973388671875 -0.13177490234375
669437500.0 1.3726806640625 -0.2921142578125
674433000.0 1.328857421875 -0.4459228515625
679428500.0 1.2672119140625 -0.5916748046875
684424000.0 1.189697265625 -0.72637939453125
689419500.0 1.098876953125 -0.8499755859375
694415000.0 0.99658203125 -0.96014404296875
699410500.0 0.8853759765625 -1.05712890625
704406000.0 0.76715087890625 -1.140625
709401500.0 0.6429443359375 -1.2115478515625
714397000.0 0.51434326171875 -1.269287109375
719392500.0 0.38250732421875 -1.3148193359375
724388000.0 0.2481689453125 -1.34857177734375
729383500.0 0.111328125 -1.3704833984375
734379000.0 -0.02752685546875 -1.37896728515625
739374500.0 -0.16748046875 -1.37640380859375
744370000.0 -0.3079833984375 -1.361572265625
749365500.0 -0.44873046875 -1.33306884765625
754361000.0 -0.5885009765625 -1.29168701171875
759356500.0 -0.7264404296875 -1.2354736328125
764352000.0 -0.86114501953125 -1.16412353515625
769347500.0 -0.99114990234375 -1.0775146484375
774343000.0 -1.1136474609375 -0.97454833984375
779338500.0 -1.22662353515625 -0.855712890625
784334000.0 -1.32794189453125 -0.7220458984375
789329500.0 -1.41363525390625 -0.5728759765625
794325000.0 -1.48211669921875 -0.4124755859375
799320500.0 -1.52996826171875 -0.24188232421875
804316000.0 -1.55615234375 -0.06500244140625
809311500.0 -1.5592041015625 0.11578369140625
814307000.0 -1.53887939453125 0.29473876953125
819302500.0 -1.4974365234375 0.46966552734375
824298000.0 -1.43084716796875 0.6373291015625
829293500.0 -1.3468017578125 0.79296875
834289000.0 -1.24444580078125 0.93585205078125
839284500.0 -1.12939453125 1.0625
844280000.0 -1.064697265625 1.14178466796875
849275500.0 -0.93157958984375 1.24407958984375
854271000.0 -0.79107666015625 1.32977294921875
859266500.0 -0.64520263671875 1.39886474609375
864262000.0 -0.49566650390625 1.45233154296875
869257500.0 -0.34112548828125 1.4910888671875
874253000.0 -0.190185546875 1.51470947265625
879248500.0 -0.03729248046875 1.5250244140625
884244000.0 0.1148681640625 1.521240234375
889239500.0 0.265869140625 1.5052490234375
894235000.0 0.41461181640625 1.47650146484375
899230500.0 0.56219482421875 1.43548583984375
904226000.0 0.70758056640625 1.3812255859375
909221500.0 0.85052490234375 1.31292724609375
914217000.0 0.98907470703125 1.22894287109375
919212500.0 1.1217041015625 1.12945556640625
924208000.0 1.2467041015625 1.01495361328125
929203500.0 1.36016845703125 0.885009765625
934199000.0 1.4615478515625 0.7403564453125
939194500.0 1.5479736328125 0.58135986328125
944190000.0 1.6168212890625 0.41046142578125
949185500.0 1.665771484375 0.2293701171875
954181000.0 1.69189453125 0.0406494140625
959176500.0 1.69482421875 -0.15289306640625
964172000.0 1.67291259765625 -0.34613037109375
969167500.0 1.6256103515625 -0.5355224609375
974163000.0 1.55462646484375 -0.71868896484375
979158500.0 1.4617919921875 -0.88916015625
984154000.0 1.34906005859375 -1.0462646484375
989149500.0 1.21929931640625 -1.1865234375
994145000.0 1.07635498046875 -1.30841064453125
999140500.0 0.9228515625 -1.4117431640625
1004136000.0 0.76153564453125 -1.4957275390625
1009131500.0 0.59454345703125 -1.56170654296875
1014127000.0 0.42474365234375 -1.60858154296875
1019122500.0 0.2532958984375 -1.63800048828125
1024118000.0 0.08197021484375 -1.65118408203125
1029113500.0 -0.08837890625 -1.6475830078125
1034109000.0 -0.25616455078125 -1.6278076171875
1039104500.0 -0.4205322265625 -1.59356689453125
1044100000.0 -0.58233642578125 -1.5447998046875
1049095500.0 -0.7379150390625 -1.48040771484375
1054091000.0 -0.888916015625 -1.4013671875
1059086500.0 -1.0333251953125 -1.30731201171875
1064082000.0 -1.1690673828125 -1.1993408203125
1069077500.0 -1.2950439453125 -1.07598876953125
1074073000.0 -1.41009521484375 -0.9385986328125
1079068500.0 -1.51177978515625 -0.78680419921875
1084064000.0 -1.59735107421875 -0.62322998046875
1089059500.0 -1.6656494140625 -0.44775390625
1094055000.0 -1.7137451171875 -0.2637939453125
1099050500.0 -1.7408447265625 -0.07171630859375
1104046000.0 -1.74395751953125 0.12322998046875
1109041500.0 -1.7236328125 0.3189697265625
1114037000.0 -1.67950439453125 0.51220703125
1119032500.0 -1.61151123046875 0.69805908203125
1124028000.0 -1.5211181640625 0.8739013671875
1129023500.0 -1.4102783203125 1.03729248046875
1134019000.0 -1.28125 1.184326171875
1139014500.0 -1.136962890625 1.31427001953125
1144010000.0 -0.9805908203125 1.42529296875
1149005500.0 -0.8143310546875 1.51580810546875
1154001000.0 -0.64129638671875 1.58660888671875
1158996500.0 -0.46484375 1.63714599609375
1163992000.0 -0.2860107421875 1.66802978515625
1168987500.0 -0.10784912109375 1.67987060546875
1173983000.0 0.06805419921875 1.6734619140625
1178978500.0 0.240234375 1.6494140625
1183974000.0 0.4073486328125 1.609375
1188969500.0 0.56890869140625 1.55413818359375
1193965000.0 0.7220458984375 1.483642578125
1198960500.0 0.86785888671875 1.3997802734375
1203956000.0 1.005126953125 1.3026123046875
1208951500.0 1.1307373046875 1.19305419921875
1213947000.0 1.24713134765625 1.0721435546875
1218942500.0 1.35137939453125 0.93994140625
1223938000.0 1.44256591796875 0.79827880859375
1228933500.0 1.5201416015625 0.64703369140625
1233929000.0 1.58294677734375 0.48834228515625
1238924500.0 1.62994384765625 0.32275390625
1243920000.0 1.65966796875 0.15228271484375
1248915500.0 1.67279052734375 -0.02252197265625
1253911000.0 1.6666259765625 -0.198974609375
1258906500.0 1.64251708984375 -0.3753662109375
1263902000.0 1.598388671875 -0.5491943359375
1268897500.0 1.53546142578125 -0.71905517578125
1273893000.0 1.453857421875 -0.88189697265625
1278888500.0 1.35430908203125 -1.0362548828125
1283884000.0 1.237060546875 -1.17840576171875
1288879500.0 1.10455322265625 -1.3074951171875
1293875000.0 0.958251953125 -1.42138671875
1298870500.0 0.79901123046875 -1.521484375
1303866000.0 0.63018798828125 -1.59710693359375
1308861500.0 0.45452880859375 -1.6558837890625
1313857000.0 0.2728271484375 -1.694580078125
1318852500.0 0.08746337890625 -1.7139892578125
1323848000.0 -0.0980224609375 -1.71234130859375
1328843500.0 -0.28179931640625 -1.6904296875
1333839000.0 -0.4619140625 -1.64874267578125
1338834500.0 -0.63623046875 -1.58709716796875
1343830000.0 -0.80242919921875 -1.50823974609375
1348825500.0 -0.95794677734375 -1.41119384765625
1353821000.0 -1.10186767578125 -1.29791259765625
1358816500.0 -1.2327880859375 -1.17059326171875
1363812000.0 -1.34808349609375 -1.0299072265625
1368807500.0 -1.4478759765625 -0.87890625
1373803000.0 -1.529052734375 -0.71844482421875
1378798500.0 -1.5928955078125 -0.55108642578125
1383794000.0 -1.638671875 -0.37872314453125
1388789500.0 -1.66534423828125 -0.204345703125
1393785000.0 -1.673583984375 -0.0281982421875
1398780500.0 -1.6641845703125 0.146484375
1403776000.0 -1.6365966796875 0.31884765625
1408771500.0 -1.59222412109375 0.486328125
1413767000.0 -1.53155517578125 0.6480712890625
1418762500.0 -1.4554443359375 0.80224609375
1423758000.0 -1.3642578125 0.947998046875
1428753500.0 -1.259765625 1.08392333984375
1433749000.0 -1.1419677734375 1.20989990234375
1438744500.0 -1.01214599609375 1.3232421875
1443740000.0 -0.87054443359375 1.4251708984375
1448735500.0 -0.7186279296875 1.51177978515625
1453731000.0 -0.55780029296875 1.58367919921875
1458726500.0 -0.3883056640625 1.639892578125
1463722000.0 -0.21221923828125 1.67755126953125
1468717500.0 -0.03106689453125 1.69647216796875
1473713000.0 0.1533203125 1.6953125
1478708500.0 0.33819580078125 1.673583984375
1483704000.0 0.5216064453125 1.63031005859375
1488699500.0 0.699951171875 1.56488037109375
1493695000.0 0.87066650390625 1.47857666015625
1498690500.0 1.03070068359375 1.37158203125
1503686000.0 1.17578125 1.24627685546875
1508681500.0 1.30462646484375 1.1036376953125
1513677000.0 1.41485595703125 0.94744873046875
1518672500.0 1.50384521484375 0.7803955078125
1523668000.0 1.571044921875 0.6053466796875
1528663500.0 1.61767578125 0.4263916015625
1533659000.0 1.6414794921875 0.2467041015625
1538654500.0 1.64495849609375 0.0679931640625
1543650000.0 1.6287841796875 -0.10601806640625
1548645500.0 1.59478759765625 -0.2744140625
1553641000.0 1.54461669921875 -0.43524169921875
1558636500.0 1.479736328125 -0.58660888671875
1563632000.0 1.4013671875 -0.7281494140625
1568627500.0 1.3118896484375 -0.86004638671875
1573623000.0 1.2122802734375 -0.98046875
1578618500.0 1.102783203125 -1.09051513671875
1583614000.0 0.9853515625 -1.189208984375
1588609500.0 0.86004638671875 -1.276611328125
1593605000.0 0.7281494140625 -1.3526611328125
1598600500.0 0.59033203125 -1.416015625
1603596000.0 0.44677734375 -1.4676513671875
1608591500.0 0.29931640625 -1.50518798828125
1613587000.0 0.14642333984375 -1.53033447265625
1618582500.0 -0.00848388671875 -1.5399169921875
1623578000.0 -0.1651611328125 -1.53448486328125
1628573500.0 -0.3223876953125 -1.51361083984375
1633569000.0 -0.478759765625 -1.47637939453125
1638564500.0 -0.6312255859375 -1.4217529296875
1643560000.0 -0.7791748046875 -1.35089111328125
1648555500.0 -0.9190673828125 -1.26318359375
1653551000.0 -1.0494384765625 -1.15911865234375
1658546500.0 -1.167236328125 -1.04046630859375
1663542000.0 -1.2716064453125 -0.90887451171875
1668537500.0 -1.35931396484375 -0.76666259765625
1673533000.0 -1.4295654296875 -0.61572265625
1678528500.0 -1.4820556640625 -0.4588623046875
1683524000.0 -1.515625 -0.29803466796875
1688519500.0 -1.53118896484375 -0.1363525390625
1693515000.0 -1.52874755859375 0.02337646484375
1698510500.0 -1.50994873046875 0.17919921875
1703506000.0 -1.47601318359375 0.3309326171875
1708501500.0 -1.4276123046875 0.47479248046875
1713497000.0 -1.36676025390625 0.6129150390625
1718492500.0 -1.29486083984375 0.7420654296875
1723488000.0 -1.2120361328125 0.86273193359375
1728483500.0 -1.1197509765625 0.97491455078125
1733479000.0 -1.01898193359375 1.07879638671875
1738474500.0 -0.90997314453125 1.17291259765625
1743470000.0 -0.793212890625 1.2581787109375
1748465500.0 -0.66845703125 1.3336181640625
1753461000.0 -0.53619384765625 1.399169921875
1758456500.0 -0.39630126953125 1.45233154296875
1763452000.0 -0.25079345703125 1.49444580078125
1768447500.0 -0.0986328125 1.52325439453125
1773443000.0 0.05859375 1.535888671875
1778438500.0 0.22064208984375 1.53314208984375
1783434000.0 0.38421630859375 1.511474609375
1788429500.0 0.54852294921875 1.47149658203125
1793425000.0 0.7088623046875 1.4111328125
1798420500.0 0.86376953125 1.330810546875
1803416000.0 1.00921630859375 1.23101806640625
1808411500.0 1.14154052734375 1.11224365234375
1813407000.0 1.25836181640625 0.9779052734375
1818402500.0 1.357177734375 0.8299560546875
1823398000.0 1.43524169921875 0.67193603515625
1828393500.0 1.49359130859375 0.50775146484375
1833389000.0 1.5302734375 0.340087890625
1838384500.0 1.547119140625 0.17254638671875
1843380000.0 1.54473876953125 0.00689697265625
1848375500.0 1.524658203125 -0.1529541015625
1853371000.0 1.4896240234375 -0.306884765625
1858366500.0 1.43994140625 -0.45294189453125
1863362000.0 1.3782958984375 -0.59063720703125
1868357500.0 1.3055419921875 -0.71966552734375
1873353000.0 1.223388671875 -0.8399658203125
1878348500.0 1.13262939453125 -0.9515380859375
1883344000.0 1.033447265625 -1.0545654296875
1888339500.0 0.926513671875 -1.1488037109375
1893335000.0 0.811767578125 -1.23394775390625
1898330500.0 0.6904296875 -1.31005859375
1903326000.0 0.56182861328125 -1.37579345703125
1908321500.0 0.4259033203125 -1.43206787109375
1913317000.0 0.28289794921875 -1.47589111328125
1918312500.0 0.13330078125 -1.50677490234375
1923308000.0 -0.02130126953125 -1.52337646484375
1928303500.0 -0.1800537109375 -1.52374267578125
1933299000.0 -0.3416748046875 -1.50689697265625
1938294500.0 -0.503662109375 -1.4713134765625
1943290000.0 -0.66314697265625 -1.416015625
1948285500.0 -0.817626953125 -1.34173583984375
1953281000.0 -0.962890625 -1.24774169921875
1958276500.0 -1.0972900390625 -1.13629150390625
1963272000.0 -1.21624755859375 -1.008056640625
1968267500.0 -1.318603515625 -0.8663330078125
1973263000.0 -1.40203857421875 -0.7138671875
1978258500.0 -1.4659423828125 -0.5533447265625
1983254000.0 -1.50970458984375 -0.388671875
1988249500.0 -1.53338623046875 -0.22332763671875
1993245000.0 -1.53863525390625 -0.057861328125
1998240500.0 -1.525390625 0.103271484375
2003236000.0 -1.49627685546875 0.2589111328125
2008231500.0 -1.45245361328125 0.40802001953125
2013227000.0 -1.3948974609375 0.54962158203125
2018222500.0 -1.32550048828125 0.6826171875
2023218000.0 -1.2447509765625 0.80780029296875
2028213500.0 -1.15447998046875 0.92413330078125
2033209000.0 -1.05499267578125 1.0302734375
2038204500.0 -0.94659423828125 1.127197265625
2043200000.0 -0.830322265625 1.214111328125
2048195500.0 -0.70654296875 1.2900390625
2053191000.0 -0.57537841796875 1.35516357421875
2058186500.0 -0.43817138671875 1.407470703125
2063182000.0 -0.29534912109375 1.44757080078125
2068177500.0 -0.14776611328125 1.47314453125
2073173000.0 0.00238037109375 1.48455810546875
2078168500.0 0.1553955078125 1.47955322265625
2083164000.0 0.30743408203125 1.4588623046875
2088159500.0 0.45782470703125 1.421875
2093155000.0 0.60455322265625 1.368408203125
2098150500.0 0.7449951171875 1.2982177734375
2103146000.0 0.87701416015625 1.213623046875
2108141500.0 0.9984130859375 1.11383056640625
2113137000.0 1.10760498046875 1.00262451171875
2118132500.0 1.20361328125 0.8798828125
2123128000.0 1.2845458984375 0.748291015625
2128123500.0 1.35113525390625 0.61053466796875
2133119000.0 1.402099609375 0.46783447265625
2138114500.0 1.43804931640625 0.3218994140625
2143110000.0 1.45880126953125 0.17559814453125
2148105500.0 1.4649658203125 0.0291748046875
2153101000.0 1.45782470703125 -0.11578369140625
2158096500.0 1.4368896484375 -0.25836181640625
2163092000.0 1.4036865234375 -0.3978271484375
2168087500.0 1.3585205078125 -0.533447265625
2173083000.0 1.3016357421875 -0.66412353515625
2178078500.0 1.23321533203125 -0.789794921875
2183074000.0 1.15301513671875 -0.91015625
2188069500.0 1.06243896484375 -1.022705078125
2193065000.0 0.960693359375 -1.1282958984375
2198060500.0 0.847412109375 -1.22528076171875
2203056000.0 0.72418212890625 -1.31201171875
