!Created with skrf (http://scikit-rf.org).
# Hz S RI R 50.0 
!freq ReS11 ImS11
45000000.0 -0.07686233520507812 -0.09674835205078125
49995500.0 -0.09732437133789062 -0.09416961669921875
54991000.0 -0.11780166625976562 -0.0878448486328125
59986500.0 -0.13568878173828125 -0.0877532958984375
64982000.0 -0.1547088623046875 -0.08007049560546875
69977500.0 -0.1737213134765625 -0.06775665283203125
74973000.0 -0.19211578369140625 -0.0522918701171875
79968500.0 -0.20890045166015625 -0.03368377685546875
84964000.0 -0.22418212890625 -0.0121917724609375
89959500.0 -0.23714447021484375 0.012481689453125
94955000.0 -0.2467498779296875 0.04010009765625
99950500.0 -0.25323486328125 0.0704193115234375
104946000.0 -0.255706787109375 0.102630615234375
109941500.0 -0.2540283203125 0.136322021484375
114937000.0 -0.2473907470703125 0.17138671875
119932500.0 -0.23598480224609375 0.20638275146484375
124928000.0 -0.22003173828125 0.24105072021484375
129923500.0 -0.198699951171875 0.274566650390625
134919000.0 -0.1721649169921875 0.3061676025390625
139914500.0 -0.1408843994140625 0.3355255126953125
144910000.0 -0.104949951171875 0.3612823486328125
149905500.0 -0.0650177001953125 0.382965087890625
154901000.0 -0.0215911865234375 0.3997039794921875
159896500.0 0.0245819091796875 0.4116363525390625
164892000.0 0.07269287109375 0.417633056640625
169887500.0 0.1222991943359375 0.4178314208984375
174883000.0 0.1728973388671875 0.412261962890625
179878500.0 0.22344970703125 0.4001922607421875
184874000.0 0.2732086181640625 0.3820953369140625
189869500.0 0.3215179443359375 0.3576202392578125
194865000.0 0.36785888671875 0.3276824951171875
199860500.0 0.410980224609375 0.292144775390625
204856000.0 0.4503326416015625 0.25048828125
209851500.0 0.4858551025390625 0.2042388916015625
214847000.0 0.516693115234375 0.1531982421875
219842500.0 0.5421142578125 0.097686767578125
224838000.0 0.56182861328125 0.03851318359375
229833500.0 0.5751953125 -0.024017333984375
234829000.0 0.581390380859375 -0.088714599609375
239824500.0 0.58038330078125 -0.15521240234375
244820000.0 0.571563720703125 -0.223114013671875
249815500.0 0.554412841796875 -0.290740966796875
254811000.0 0.548248291015625 -0.337738037109375
259806500.0 0.518402099609375 -0.4039306640625
264802000.0 0.4805908203125 -0.4674530029296875
269797500.0 0.4342041015625 -0.52703857421875
274793000.0 0.379791259765625 -0.581695556640625
279788500.0 0.31878662109375 -0.630706787109375
284784000.0 0.2508544921875 -0.6727294921875
289779500.0 0.1778564453125 -0.70684814453125
294775000.0 0.100433349609375 -0.73260498046875
299770500.0 0.019256591796875 -0.7496337890625
304766000.0 -0.063507080078125 -0.757110595703125
309761500.0 -0.147674560546875 -0.75469970703125
314757000.0 -0.231292724609375 -0.74261474609375
319752500.0 -0.31396484375 -0.7210693359375
324748000.0 -0.394287109375 -0.690887451171875
329743500.0 -0.471893310546875 -0.652008056640625
334739000.0 -0.545318603515625 -0.604248046875
339734500.0 -0.614044189453125 -0.548736572265625
344730000.0 -0.67706298828125 -0.48565673828125
349725500.0 -0.734100341796875 -0.415985107421875
354721000.0 -0.7840576171875 -0.339385986328125
359716500.0 -0.82635498046875 -0.25726318359375
364712000.0 -0.8603515625 -0.169403076171875
369707500.0 -0.885498046875 -0.076568603515625
374703000.0 -0.901153564453125 0.02020263671875
379698500.0 -0.905975341796875 0.120269775390625
384694000.0 -0.899444580078125 0.222137451171875
389689500.0 -0.881134033203125 0.324310302734375
394685000.0 -0.850555419921875 0.426239013671875
399680500.0 -0.808013916015625 0.525390625
404676000.0 -0.7532958984375 0.62060546875
409671500.0 -0.686431884765625 0.7100830078125
414667000.0 -0.6082763671875 0.7918701171875
419662500.0 -0.519775390625 0.865631103515625
424658000.0 -0.42144775390625 0.925445556640625
429653500.0 -0.315185546875 0.974700927734375
434649000.0 -0.2022705078125 1.0098876953125
439644500.0 -0.08758544921875 1.0302734375
444640000.0 0.02764892578125 1.03765869140625
449635500.0 0.14215087890625 1.03253173828125
454631000.0 0.25579833984375 1.01617431640625
459626500.0 0.36737060546875 0.9859619140625
464622000.0 0.47454833984375 0.943450927734375
469617500.0 0.575286865234375 0.889739990234375
474613000.0 0.6693115234375 0.826629638671875
479608500.0 0.756195068359375 0.7540283203125
484604000.0 0.835540771484375 0.673858642578125
489599500.0 0.9063720703125 0.5860595703125
494595000.0 0.96905517578125 0.491943359375
499590500.0 1.02239990234375 0.3917236328125
504586000.0 1.0662841796875 0.2862548828125
509581500.0 1.10076904296875 0.17584228515625
514577000.0 1.12445068359375 0.06103515625
519572500.0 1.13720703125 -0.05816650390625
524568000.0 1.1385498046875 -0.18035888671875
529563500.0 1.1263427734375 -0.3048095703125
534559000.0 1.10150146484375 -0.4302978515625
539554500.0 1.06103515625 -0.55523681640625
544550000.0 1.00543212890625 -0.677490234375
549545500.0 0.934051513671875 -0.79498291015625
554541000.0 0.84808349609375 -0.90460205078125
559536500.0 0.74737548828125 -1.0048828125
564532000.0 0.63348388671875 -1.0928955078125
569527500.0 0.50836181640625 -1.16705322265625
574523000.0 0.37420654296875 -1.22528076171875
579518500.0 0.23297119140625 -1.266845703125
584514000.0 0.0875244140625 -1.29034423828125
589509500.0 -0.0596923828125 -1.2957763671875
594505000.0 -0.20556640625 -1.2828369140625
599500500.0 -0.34808349609375 -1.2529296875
604496000.0 -0.48504638671875 -1.207275390625
609491500.0 -0.61444091796875 -1.14678955078125
614487000.0 -0.73516845703125 -1.0733642578125
619482500.0 -0.845916748046875 -0.988739013671875
624478000.0 -0.94622802734375 -0.894134521484375
629473500.0 -1.03546142578125 -0.791015625
634469000.0 -1.11328125 -0.680419921875
639464500.0 -1.180419921875 -0.563720703125
644460000.0 -1.23602294921875 -0.44134521484375
649455500.0 -1.2803955078125 -0.3145751953125
654451000.0 -1.31353759765625 -0.183349609375
659446500.0 -1.33477783203125 -0.04840087890625
664442000.0 -1.34417724609375 0.08978271484375
669437500.0 -1.34075927734375 0.2305908203125
674433000.0 -1.32330322265625 0.37255859375
679428500.0 -1.291015625 0.51580810546875
684424000.0 -1.24395751953125 0.6583251953125
689419500.0 -1.1800537109375 0.79852294921875
694415000.0 -1.0992431640625 0.9342041015625
699410500.0 -1.0010986328125 1.0633544921875
704406000.0 -0.88568115234375 1.1824951171875
709401500.0 -0.75433349609375 1.2894287109375
714397000.0 -0.6070556640625 1.38092041015625
719392500.0 -0.44671630859375 1.45465087890625
724388000.0 -0.27642822265625 1.50750732421875
729383500.0 -0.09906005859375 1.53790283203125
734379000.0 0.08251953125 1.54376220703125
739374500.0 0.262939453125 1.52630615234375
744370000.0 0.43817138671875 1.48565673828125
749365500.0 0.60546875 1.4228515625
754361000.0 0.7618408203125 1.34136962890625
759356500.0 0.90484619140625 1.2421875
764352000.0 1.0328369140625 1.12896728515625
769347500.0 1.145263671875 1.00421142578125
774343000.0 1.241455078125 0.87103271484375
779338500.0 1.32061767578125 0.72955322265625
784334000.0 1.385009765625 0.58465576171875
789329500.0 1.43359375 0.43609619140625
794325000.0 1.468017578125 0.28564453125
799320500.0 1.48748779296875 0.13427734375
804316000.0 1.4932861328125 -0.01739501953125
809311500.0 1.485595703125 -0.16864013671875
814307000.0 1.46490478515625 -0.318359375
819302500.0 1.4298095703125 -0.46612548828125
824298000.0 1.38214111328125 -0.612060546875
829293500.0 1.321533203125 -0.7540283203125
834289000.0 1.245361328125 -0.8924560546875
839284500.0 1.15557861328125 -1.0245361328125
844280000.0 1.11346435546875 -1.1142578125
849275500.0 0.9984130859375 -1.23687744140625
854271000.0 0.86834716796875 -1.34820556640625
859266500.0 0.72381591796875 -1.44647216796875
864262000.0 0.56585693359375 -1.5284423828125
869257500.0 0.39599609375 -1.59271240234375
874253000.0 0.22039794921875 -1.63739013671875
879248500.0 0.03729248046875 -1.66107177734375
884244000.0 -0.14874267578125 -1.6629638671875
889239500.0 -0.3350830078125 -1.6417236328125
894235000.0 -0.51708984375 -1.59918212890625
899230500.0 -0.6943359375 -1.534912109375
904226000.0 -0.86279296875 -1.44976806640625
909221500.0 -1.01947021484375 -1.34393310546875
914217000.0 -1.16143798828125 -1.22039794921875
919212500.0 -1.28582763671875 -1.08233642578125
924208000.0 -1.39202880859375 -0.93212890625
929203500.0 -1.47882080078125 -0.7740478515625
934199000.0 -1.54730224609375 -0.61029052734375
939194500.0 -1.59716796875 -0.443603515625
944190000.0 -1.63067626953125 -0.275146484375
949185500.0 -1.64776611328125 -0.10516357421875
954181000.0 -1.6480712890625 0.06341552734375
959176500.0 -1.6339111328125 0.2303466796875
964172000.0 -1.60443115234375 0.39520263671875
969167500.0 -1.560791015625 0.55706787109375
974163000.0 -1.50140380859375 0.71490478515625
979158500.0 -1.42779541015625 0.86846923828125
984154000.0 -1.33880615234375 1.01654052734375
989149500.0 -1.2342529296875 1.15692138671875
994145000.0 -1.114501953125 1.28863525390625
999140500.0 -0.9794921875 1.409912109375
1004136000.0 -0.82928466796875 1.51904296875
1009131500.0 -0.6656494140625 1.612548828125
1014127000.0 -0.48822021484375 1.68780517578125
1019122500.0 -0.30029296875 1.74346923828125
1024118000.0 -0.10418701171875 1.7769775390625
1029113500.0 0.0963134765625 1.786376953125
1034109000.0 0.2989501953125 1.77056884765625
1039104500.0 0.49908447265625 1.7298583984375
1044100000.0 0.69293212890625 1.6639404296875
1049095500.0 0.8768310546875 1.57366943359375
1054091000.0 1.04705810546875 1.46270751953125
1059086500.0 1.2017822265625 1.3328857421875
1064082000.0 1.33819580078125 1.18670654296875
1069077500.0 1.45501708984375 1.0279541015625
1074073000.0 1.5516357421875 0.85906982421875
1079068500.0 1.62799072265625 0.68328857421875
1084064000.0 1.6837158203125 0.50323486328125
1089059500.0 1.7200927734375 0.32086181640625
1094055000.0 1.73822021484375 0.138427734375
1099050500.0 1.7376708984375 -0.04248046875
1104046000.0 1.72003173828125 -0.22100830078125
1109041500.0 1.6859130859375 -0.39569091796875
1114037000.0 1.6356201171875 -0.56640625
1119032500.0 1.5693359375 -0.73089599609375
1124028000.0 1.488525390625 -0.8890380859375
1129023500.0 1.392333984375 -1.03948974609375
1134019000.0 1.28173828125 -1.18212890625
1139014500.0 1.15643310546875 -1.31353759765625
1144010000.0 1.01708984375 -1.4332275390625
1149005500.0 0.86419677734375 -1.54034423828125
1154001000.0 0.69915771484375 -1.6319580078125
1158996500.0 0.5223388671875 -1.70635986328125
1163992000.0 0.33587646484375 -1.7620849609375
1168987500.0 0.1424560546875 -1.79595947265625
1173983000.0 -0.05670166015625 -1.8082275390625
1178978500.0 -0.25799560546875 -1.79705810546875
1183974000.0 -0.45751953125 -1.76226806640625
1188969500.0 -0.6527099609375 -1.70281982421875
1193965000.0 -0.84002685546875 -1.62005615234375
1198960500.0 -1.0162353515625 -1.515625
1203956000.0 -1.1788330078125 -1.3902587890625
1208951500.0 -1.3236083984375 -1.24676513671875
1213947000.0 -1.45001220703125 -1.08868408203125
1218942500.0 -1.55523681640625 -0.91778564453125
1223938000.0 -1.6402587890625 -0.73785400390625
1228933500.0 -1.7030029296875 -0.55126953125
1233929000.0 -1.74359130859375 -0.36181640625
1238924500.0 -1.76361083984375 -0.17156982421875
1243920000.0 -1.76275634765625 0.01763916015625
1248915500.0 -1.74273681640625 0.2025146484375
1253911000.0 -1.7042236328125 0.382568359375
1258906500.0 -1.64813232421875 0.55682373046875
1263902000.0 -1.576171875 0.7218017578125
1268897500.0 -1.4884033203125 0.87799072265625
1273893000.0 -1.38677978515625 1.02459716796875
1278888500.0 -1.27105712890625 1.15997314453125
1283884000.0 -1.14398193359375 1.2828369140625
1288879500.0 -1.0048828125 1.39276123046875
1293875000.0 -0.8551025390625 1.4896240234375
1298870500.0 -0.69586181640625 1.57220458984375
1303866000.0 -0.52996826171875 1.6337890625
1308861500.0 -0.35791015625 1.6798095703125
1313857000.0 -0.18035888671875 1.70892333984375
1318852500.0 -0.00103759765625 1.719482421875
1323848000.0 0.1795654296875 1.7119140625
1328843500.0 0.35784912109375 1.684814453125
1333839000.0 0.53338623046875 1.63946533203125
1338834500.0 0.70391845703125 1.5755615234375
1343830000.0 0.866943359375 1.494140625
1348825500.0 1.02130126953125 1.39599609375
1353821000.0 1.1650390625 1.281982421875
1358816500.0 1.29620361328125 1.15283203125
1363812000.0 1.413330078125 1.010009765625
1368807500.0 1.51507568359375 0.85479736328125
1373803000.0 1.6005859375 0.689453125
1378798500.0 1.66754150390625 0.51416015625
1383794000.0 1.7158203125 0.332763671875
1388789500.0 1.7435302734375 0.1455078125
1393785000.0 1.7510986328125 -0.04473876953125
1398780500.0 1.7374267578125 -0.23443603515625
1403776000.0 1.7020263671875 -0.4229736328125
1408771500.0 1.64501953125 -0.60577392578125
1413767000.0 1.567626953125 -0.782470703125
1418762500.0 1.47039794921875 -0.94818115234375
1423758000.0 1.35467529296875 -1.10089111328125
1428753500.0 1.22296142578125 -1.23956298828125
1433749000.0 1.07659912109375 -1.36163330078125
1438744500.0 0.9183349609375 -1.46429443359375
1443740000.0 0.750732421875 -1.547607421875
1448735500.0 0.5765380859375 -1.61077880859375
1453731000.0 0.39898681640625 -1.6541748046875
1458726500.0 0.2200927734375 -1.6771240234375
1463722000.0 0.04168701171875 -1.68084716796875
1468717500.0 -0.13299560546875 -1.66656494140625
1473713000.0 -0.30322265625 -1.6343994140625
1478708500.0 -0.466796875 -1.58575439453125
1483704000.0 -0.62274169921875 -1.522705078125
1488699500.0 -0.77154541015625 -1.44580078125
1493695000.0 -0.91033935546875 -1.356201171875
1498690500.0 -1.03936767578125 -1.2547607421875
1503686000.0 -1.15771484375 -1.142333984375
1508681500.0 -1.26605224609375 -1.02020263671875
1513677000.0 -1.36224365234375 -0.8878173828125
1518672500.0 -1.4462890625 -0.74774169921875
1523668000.0 -1.51788330078125 -0.59881591796875
1528663500.0 -1.57586669921875 -0.442626953125
1533659000.0 -1.61822509765625 -0.279296875
1538654500.0 -1.64569091796875 -0.11065673828125
1543650000.0 -1.65533447265625 0.0616455078125
1548645500.0 -1.646484375 0.237060546875
1553641000.0 -1.6182861328125 0.41339111328125
1558636500.0 -1.57037353515625 0.587158203125
1563632000.0 -1.5018310546875 0.756591796875
1568627500.0 -1.4132080078125 0.91845703125
1573623000.0 -1.3050537109375 1.06988525390625
1578618500.0 -1.1788330078125 1.20782470703125
1583614000.0 -1.03680419921875 1.3289794921875
1588609500.0 -0.88134765625 1.4324951171875
1593605000.0 -0.7154541015625 1.5150146484375
1598600500.0 -0.542236328125 1.57708740234375
1603596000.0 -0.36541748046875 1.6175537109375
1608591500.0 -0.1873779296875 1.63739013671875
1613587000.0 -0.01202392578125 1.636474609375
1618582500.0 0.16064453125 1.61676025390625
1623578000.0 0.32537841796875 1.57965087890625
1628573500.0 0.4835205078125 1.52685546875
1633569000.0 0.632568359375 1.4598388671875
1638564500.0 0.7723388671875 1.3798828125
1643560000.0 0.90240478515625 1.28912353515625
1648555500.0 1.02178955078125 1.18792724609375
1653551000.0 1.1312255859375 1.07745361328125
1658546500.0 1.229248046875 0.958740234375
1663542000.0 1.3170166015625 0.8323974609375
1668537500.0 1.39349365234375 0.698486328125
1673533000.0 1.45855712890625 0.55792236328125
1678528500.0 1.51055908203125 0.41009521484375
1683524000.0 1.55023193359375 0.25689697265625
1688519500.0 1.57550048828125 0.0982666015625
1693515000.0 1.58465576171875 -0.0655517578125
1698510500.0 1.57696533203125 -0.2320556640625
1703506000.0 1.5516357421875 -0.39892578125
1708501500.0 1.50701904296875 -0.566162109375
1713497000.0 1.44287109375 -0.7286376953125
1718492500.0 1.35833740234375 -0.8848876953125
1723488000.0 1.2548828125 -1.03118896484375
1728483500.0 1.13323974609375 -1.16510009765625
1733479000.0 0.9952392578125 -1.282470703125
1738474500.0 0.84375 -1.38177490234375
1743470000.0 0.6826171875 -1.46038818359375
1748465500.0 0.5140380859375 -1.5185546875
1753461000.0 0.34234619140625 -1.5550537109375
1758456500.0 0.17108154296875 -1.57000732421875
1763452000.0 0.0040283203125 -1.56634521484375
1768447500.0 -0.1593017578125 -1.54437255859375
1773443000.0 -0.3153076171875 -1.50628662109375
1778438500.0 -0.46343994140625 -1.453857421875
1783434000.0 -0.60272216796875 -1.3890380859375
1788429500.0 -0.7322998046875 -1.31304931640625
1793425000.0 -0.85284423828125 -1.22705078125
1798420500.0 -0.9632568359375 -1.13311767578125
1803416000.0 -1.0655517578125 -1.03045654296875
1808411500.0 -1.15777587890625 -0.9208984375
1813407000.0 -1.240478515625 -0.80426025390625
1818402500.0 -1.313720703125 -0.68121337890625
1823398000.0 -1.37774658203125 -0.55078125
1828393500.0 -1.4296875 -0.4144287109375
1833389000.0 -1.4708251953125 -0.2708740234375
1838384500.0 -1.49847412109375 -0.12237548828125
1843380000.0 -1.51165771484375 0.03131103515625
1848375500.0 -1.50946044921875 0.18878173828125
1853371000.0 -1.49029541015625 0.3487548828125
1858366500.0 -1.45257568359375 0.50860595703125
1863362000.0 -1.3956298828125 0.66571044921875
1868357500.0 -1.3193359375 0.8172607421875
1873353000.0 -1.22454833984375 0.9599609375
1878348500.0 -1.1114501953125 1.09130859375
1883344000.0 -0.982666015625 1.206787109375
1888339500.0 -0.84051513671875 1.3052978515625
1893335000.0 -0.6883544921875 1.3848876953125
1898330500.0 -0.52935791015625 1.444091796875
1903326000.0 -0.36669921875 1.48284912109375
1908321500.0 -0.203857421875 1.50213623046875
1913317000.0 -0.04241943359375 1.50286865234375
1918312500.0 0.11370849609375 1.48553466796875
1923308000.0 0.26361083984375 1.45330810546875
1928303500.0 0.406005859375 1.40679931640625
1933299000.0 0.540771484375 1.3487548828125
1938294500.0 0.66717529296875 1.27923583984375
1943290000.0 0.78363037109375 1.2005615234375
1948285500.0 0.89227294921875 1.11297607421875
1953281000.0 0.99176025390625 1.01763916015625
1958276500.0 1.08258056640625 0.91522216796875
1963272000.0 1.16400146484375 0.80596923828125
1968267500.0 1.236328125 0.68988037109375
1973263000.0 1.29852294921875 0.56756591796875
1978258500.0 1.35052490234375 0.43890380859375
1983254000.0 1.39202880859375 0.30474853515625
1988249500.0 1.4202880859375 0.16607666015625
1993245000.0 1.4356689453125 0.02264404296875
1998240500.0 1.43695068359375 -0.123291015625
2003236000.0 1.422607421875 -0.271484375
2008231500.0 1.3927001953125 -0.41839599609375
2013227000.0 1.34619140625 -0.5634765625
2018222500.0 1.28289794921875 -0.70440673828125
2023218000.0 1.20440673828125 -0.83746337890625
2028213500.0 1.10992431640625 -0.96173095703125
2033209000.0 1.001953125 -1.07421875
2038204500.0 0.88177490234375 -1.17413330078125
2043200000.0 0.75225830078125 -1.25848388671875
2048195500.0 0.6146240234375 -1.32757568359375
2053191000.0 0.47113037109375 -1.3812255859375
2058186500.0 0.324462890625 -1.41796875
2063182000.0 0.1763916015625 -1.4393310546875
2068177500.0 0.02862548828125 -1.4451904296875
2073173000.0 -0.11749267578125 -1.4368896484375
2078168500.0 -0.26043701171875 -1.4136962890625
2083164000.0 -0.39971923828125 -1.37841796875
2088159500.0 -0.53399658203125 -1.33062744140625
2093155000.0 -0.662841796875 -1.27105712890625
2098150500.0 -0.785400390625 -1.199951171875
2103146000.0 -0.90167236328125 -1.11822509765625
2108141500.0 -1.01031494140625 -1.02581787109375
2113137000.0 -1.1109619140625 -0.92303466796875
2118132500.0 -1.20269775390625 -0.81024169921875
2123128000.0 -1.28369140625 -0.68841552734375
2128123500.0 -1.35369873046875 -0.55694580078125
2133119000.0 -1.4114990234375 -0.4176025390625
2138114500.0 -1.4549560546875 -0.27044677734375
2143110000.0 -1.4832763671875 -0.11724853515625
2148105500.0 -1.49395751953125 0.0401611328125
2153101000.0 -1.4876708984375 0.19952392578125
2158096500.0 -1.462890625 0.35919189453125
2163092000.0 -1.41949462890625 0.51617431640625
2168087500.0 -1.35748291015625 0.6669921875
2173083000.0 -1.27777099609375 0.8104248046875
2178078500.0 -1.18194580078125 0.94287109375
2183074000.0 -1.072021484375 1.063232421875
2188069500.0 -0.94989013671875 1.16851806640625
