!Created with skrf (http://scikit-rf.org).
# Hz S RI R 50.0 
!freq ReS11 ImS11
300000.0 -1.023075213 -0.16489971
5299970.0 -1.003939572 0.0019089918
10299940.0 -1.002502695 0.0008971098
15299910.0 -1.002267515 0.0072016923
20299880.0 -1.002662315 0.0068064212
25299850.0 -1.002383598 0.0092144064
30299820.0 -1.002076554 0.0113104364
35299790.0 -1.001928123 0.0111696839
40299760.0 -1.001461413 0.0124173189
45299730.0 -1.001632866 0.0141412267
50299700.0 -1.001749464 0.0165514855
55299670.0 -1.001490469 0.0177327149
60299640.0 -1.001036014 0.0188883151
65299610.0 -1.001067944 0.0205871625
70299580.0 -1.001002505 0.0219933984
75299550.0 -1.000611182 0.0235824376
80299520.0 -1.000488615 0.024879206
85299490.0 -1.000897921 0.0260928186
90299460.0 -1.00066657 0.0276880051
95299430.0 -1.000879399 0.029460428
100299400.0 -1.000726268 0.0311501512
105299370.0 -1.000373259 0.0321105717
110299340.0 -1.000446017 0.0341752448
115299310.0 -1.000203487 0.0354349229
120299280.0 -1.000415018 0.0366212388
125299250.0 -1.000167666 0.0377773154
130299220.0 -1.000276448 0.0394741883
135299190.0 -1.000313445 0.0408680048
140299160.0 -0.9997772377 0.0424643432
145299130.0 -0.9997438589 0.0435684793
150299100.0 -0.9997439509 0.0450961136
155299070.0 -0.9995677089 0.0466131268
160299040.0 -0.999800509 0.0480475576
165299010.0 -0.9997451182 0.0495539129
170298980.0 -0.9992803648 0.0505580213
175298950.0 -0.9972397718 0.0523057194
180298920.0 -0.9961908957 0.0529324276
185298890.0 -0.9982535817 0.0541643984
190298860.0 -0.999464662 0.057179835
195298830.0 -0.9990844522 0.0582911011
200298800.0 -0.9992979057 0.0596081714
205298770.0 -0.9989473001 0.0611553742
210298740.0 -0.9987783962 0.0628133201
215298710.0 -0.999106686 0.0643262077
220298680.0 -0.9991316007 0.0652209935
225298650.0 -0.9985560546 0.0673551931
230298620.0 -0.9985219637 0.0684387038
235298590.0 -0.9983432928 0.0697856605
240298560.0 -0.998409358 0.0713853172
245298530.0 -0.998349677 0.0731587339
250298500.0 -0.9985135041 0.074212416
255298470.0 -0.9985063133 0.0758384728
260298440.0 -0.9985508716 0.0771814024
265298410.0 -0.9988714801 0.0787885861
270298380.0 -0.9980976936 0.0802573495
275298350.0 -0.9979587493 0.0812839616
280298320.0 -0.9979726113 0.083372713
285298290.0 -0.9982449871 0.0846341814
290298260.0 -0.9977298907 0.0863867285
295298230.0 -0.997441101 0.0869842123
300298200.0 -0.9971329707 0.0886988132
305298170.0 -0.9977775331 0.0900191572
310298140.0 -0.9972382925 0.0913927623
315298110.0 -0.9972970798 0.0928067107
320298080.0 -0.9965979768 0.0944859263
325298050.0 -0.9964133812 0.0958894894
330298020.0 -0.99672567 0.0974668173
335297990.0 -0.9963990339 0.0992828204
340297960.0 -0.9961466652 0.1002278133
345297930.0 -0.996055149 0.1019035112
350297900.0 -0.9971459598 0.1031202852
355297870.0 -0.9974136496 0.1046497558
360297840.0 -0.9960472794 0.1062141435
365297810.0 -0.9962195894 0.1077070288
370297780.0 -0.9958886042 0.1086415763
375297750.0 -0.9951714237 0.1104570505
380297720.0 -0.9951564189 0.1122997235
385297690.0 -0.9951572359 0.1133581495
390297660.0 -0.9953119194 0.1151400453
395297630.0 -0.9952177634 0.1161430791
400297600.0 -0.9947785478 0.1181411331
405297570.0 -0.9942933586 0.1196646619
410297540.0 -0.994333049 0.120694694
415297510.0 -0.9945922039 0.1223210148
420297480.0 -0.9939754971 0.1242584803
425297450.0 -0.9940290139 0.1251724359
430297420.0 -0.9936927343 0.12648128
435297390.0 -0.9931208739 0.1278983887
440297360.0 -0.9934839037 0.1292444019
445297330.0 -0.9934892396 0.1310339938
450297300.0 -0.9927813863 0.1327634119
455297270.0 -0.9926734842 0.1341413301
460297240.0 -0.9925255252 0.1353808611
465297210.0 -0.9925888247 0.1369890608
470297180.0 -0.9919591771 0.1384371725
475297150.0 -0.9918794781 0.1399195498
480297120.0 -0.9914016275 0.1412774356
485297090.0 -0.9910887016 0.1427204591
490297060.0 -0.9914317617 0.1441487941
495297030.0 -0.9914684988 0.1456288539
500297000.0 -0.9909560264 0.1473236316
505296970.0 -0.9909488839 0.1484215999
510296940.0 -0.9917232666 0.1493001154
515296910.0 -0.9906565137 0.1511262141
520296880.0 -0.9911696997 0.1525992038
525296850.0 -0.9907180019 0.1542295738
530296820.0 -0.9908129349 0.1552294406
535296790.0 -0.9903747992 0.1568884047
540296760.0 -0.9906697662 0.1582123671
545296730.0 -0.9904869781 0.1601317245
550296700.0 -0.9894559741 0.1611654652
555296670.0 -0.9891186855 0.1629746251
560296640.0 -0.9888703296 0.1635758465
565296610.0 -0.9877916242 0.1658773213
570296580.0 -0.9875176844 0.1671170184
575296550.0 -0.9874791246 0.1689342946
580296520.0 -0.9875271348 0.1705396179
585296490.0 -0.9874039326 0.1718167292
590296460.0 -0.9876684598 0.1738629129
595296430.0 -0.9866383928 0.1746477058
600296400.0 -0.9864522466 0.1761560129
605296370.0 -0.9856314412 0.1775709569
610296340.0 -0.9859700675 0.1782759059
615296310.0 -0.9858701712 0.1805832494
620296280.0 -0.9855523926 0.1817422097
625296250.0 -0.9852448617 0.1825205559
630296220.0 -0.9849259741 0.1843439836
635296190.0 -0.9845341916 0.1854476337
640296160.0 -0.9846210827 0.18666295
645296130.0 -0.9837715473 0.1888664579
650296100.0 -0.9838425228 0.1898433487
655296070.0 -0.9834204543 0.191752548
660296040.0 -0.9832381621 0.1930588876
665296010.0 -0.9827911791 0.193796254
670295980.0 -0.9828160495 0.1958674302
675295950.0 -0.9827156037 0.1970346148
680295920.0 -0.9820849533 0.1984953308
685295890.0 -0.9823104758 0.200006857
690295860.0 -0.9819013313 0.2019456488
695295830.0 -0.9810080137 0.2028236495
700295800.0 -0.981734819 0.203990274
705295770.0 -0.9806996912 0.2063642605
710295740.0 -0.9807152768 0.2073317297
715295710.0 -0.9807015333 0.2084588367
720295680.0 -0.979890896 0.2109603578
725295650.0 -0.9797359154 0.2115600806
730295620.0 -0.9794765982 0.2125457302
735295590.0 -0.9790271323 0.2140474335
740295560.0 -0.9787565574 0.216152708
745295530.0 -0.9782760681 0.216861406
750295500.0 -0.977770384 0.2183818456
755295470.0 -0.9774645043 0.2202038582
760295440.0 -0.977794856 0.2214078112
765295410.0 -0.9777650755 0.2230649744
770295380.0 -0.9764679411 0.2241784256
775295350.0 -0.976252525 0.2257262349
780295320.0 -0.9763416447 0.2269762963
785295290.0 -0.9758210835 0.2284990388
790295260.0 -0.9755250986 0.2299663203
795295230.0 -0.9752025964 0.231539861
800295200.0 -0.9746482298 0.2329160716
805295170.0 -0.9743633879 0.234280477
810295140.0 -0.9740474535 0.2361564849
815295110.0 -0.9739496709 0.2373072627
820295080.0 -0.9731934416 0.2386825115
825295050.0 -0.9731246249 0.239964219
830295020.0 -0.9729341222 0.2413913293
835294990.0 -0.9721810559 0.2426244752
840294960.0 -0.9718073219 0.2438116271
845294930.0 -0.9719381891 0.2455623667
850294900.0 -0.9713231296 0.2471850229
855294870.0 -0.9714049076 0.2482756529
860294840.0 -0.9707951875 0.2495664617
865294810.0 -0.9701873048 0.2513555313
870294780.0 -0.9701453434 0.2525789782
875294750.0 -0.9699942302 0.2541940718
880294720.0 -0.9693961307 0.2553142928
885294690.0 -0.969244339 0.2568761681
890294660.0 -0.9687135368 0.2584676382
895294630.0 -0.9678860222 0.2595812804
900294600.0 -0.967407204 0.2614297997
905294570.0 -0.9672694587 0.2622915151
910294540.0 -0.9673032866 0.2635067613
915294510.0 -0.9662424097 0.2651469894
920294480.0 -0.9659606435 0.2665363596
925294450.0 -0.9658422098 0.2681563427
930294420.0 -0.9649154156 0.2689790453
935294390.0 -0.9643164835 0.2707267373
940294360.0 -0.9643381593 0.2719060462
945294330.0 -0.9637378082 0.2734605317
950294300.0 -0.9633222179 0.2748584321
955294270.0 -0.9631175587 0.2763044687
960294240.0 -0.9628510806 0.2779776988
965294210.0 -0.9617392946 0.2795813777
970294180.0 -0.9615073391 0.2807284413
975294150.0 -0.9611376208 0.2824565577
980294120.0 -0.9612732898 0.2829490076
985294090.0 -0.9610078427 0.2843787456
990294060.0 -0.9600544107 0.2859403721
995294030.0 -0.9598799392 0.2871570702
1000294000.0 -0.9592667691 0.2885588273
1005293970.0 -0.9590480991 0.2900291859
1010293940.0 -0.9582199045 0.2917607864
1015293910.0 -0.9579975649 0.292693971
1020293880.0 -0.9579521682 0.2940413528
1025293850.0 -0.9570026924 0.2953336628
1030293820.0 -0.9570471048 0.2966637701
1035293790.0 -0.956254572 0.2980382317
1040293760.0 -0.9562105044 0.2995191096
1045293730.0 -0.955297243 0.3012178279
1050293700.0 -0.9551373263 0.3022262112
1055293670.0 -0.9547542415 0.3038116449
1060293640.0 -0.9539483507 0.3051368287
1065293610.0 -0.9542022941 0.3063603394
1070293580.0 -0.9531051996 0.307724088
1075293550.0 -0.9526471508 0.3091750953
1080293520.0 -0.9521233415 0.3102347488
1085293490.0 -0.9516335405 0.3123208976
1090293460.0 -0.9511899231 0.3135861138
1095293430.0 -0.9506860478 0.3147415844
1100293400.0 -0.9499121661 0.3165503924
1105293370.0 -0.9497568015 0.3182064698
1110293340.0 -0.9488448775 0.318894781
1115293310.0 -0.9483067438 0.3204910086
1120293280.0 -0.9477326036 0.321693014
1125293250.0 -0.94814136 0.322569303
1130293220.0 -0.948149432 0.3246414055
1135293190.0 -0.9469434387 0.3258935014
1140293160.0 -0.9466024009 0.3272745518
1145293130.0 -0.9457842632 0.3290889119
1150293100.0 -0.945821727 0.3306990479
1155293070.0 -0.9451769954 0.3322245832
1160293040.0 -0.9443359993 0.3337591767
1165293010.0 -0.9442082749 0.3346515428
1170292980.0 -0.9434750078 0.3359883792
1175292950.0 -0.9428818356 0.3369686973
1180292920.0 -0.9429567675 0.3381060063
1185292890.0 -0.9423998973 0.3392023119
1190292860.0 -0.942099167 0.3408821081
1195292830.0 -0.9410966761 0.3414855617
1200292800.0 -0.9406045182 0.3428718997
1205292770.0 -0.9401219809 0.3442485148
1210292740.0 -0.9401742619 0.3458006879
1215292710.0 -0.93927679 0.3472552756
1220292680.0 -0.938342487 0.3486250346
1225292650.0 -0.9383419089 0.3502329688
1230292620.0 -0.9373560929 0.351690637
1235292590.0 -0.9372794726 0.352218795
1240292560.0 -0.9365139867 0.354539897
1245292530.0 -0.9356106651 0.3552070886
1250292500.0 -0.9353387195 0.3567562855
1255292470.0 -0.9350248559 0.3582398558
1260292440.0 -0.9338602848 0.3594587515
1265292410.0 -0.9342078078 0.3603967926
1270292380.0 -0.9333958344 0.3617461514
1275292350.0 -0.9326767276 0.3634323705
1280292320.0 -0.9324656649 0.3646389318
1285292290.0 -0.9313143175 0.3667033323
1290292260.0 -0.9309944779 0.3672940252
1295292230.0 -0.9303966313 0.3686590905
1300292200.0 -0.9299957817 0.3700278482
1305292170.0 -0.9292644724 0.3712381959
1310292140.0 -0.9294028437 0.3725863004
1315292110.0 -0.9283529056 0.373701602
1320292080.0 -0.928068534 0.3752547411
1325292050.0 -0.9270511568 0.3765033785
1330292020.0 -0.9267186659 0.3780809172
1335291990.0 -0.9259516867 0.3797456981
1340291960.0 -0.9252180662 0.3813549197
1345291930.0 -0.9243395039 0.382072849
1350291900.0 -0.92412004 0.3835752748
1355291870.0 -0.9236402581 0.3845909767
1360291840.0 -0.9231576335 0.3861164162
1365291810.0 -0.9226543737 0.3866972051
1370291780.0 -0.9223319235 0.3885325206
1375291750.0 -0.9213404992 0.3896558852
1380291720.0 -0.9210335534 0.3910898353
1385291690.0 -0.9201618916 0.3926107016
1390291660.0 -0.9191280979 0.3940873413
1395291630.0 -0.91940938 0.3951254125
1400291600.0 -0.9189174794 0.3969837747
1405291570.0 -0.9177931974 0.3980498851
1410291540.0 -0.9172791759 0.3992526563
1415291510.0 -0.9172289332 0.4004676887
1420291480.0 -0.9163124684 0.4018525954
1425291450.0 -0.9156478193 0.4028276501
1430291420.0 -0.9148488443 0.4039748313
1435291390.0 -0.9147303313 0.405449395
1440291360.0 -0.9143819596 0.4070563818
1445291330.0 -0.9132751352 0.4080440727
1450291300.0 -0.9128436931 0.4089422446
1455291270.0 -0.9119275913 0.4099243255
1460291240.0 -0.9113351533 0.4120308857
1465291210.0 -0.9108784785 0.4130591013
1470291180.0 -0.910273326 0.414902722
1475291150.0 -0.9092255036 0.4153200398
1480291120.0 -0.9089012392 0.4167710984
1485291090.0 -0.908247307 0.4187096649
1490291060.0 -0.9075442511 0.4199159041
1495291030.0 -0.9071205716 0.4213416097
1500291000.0 -0.9060293161 0.4226563187
1505290970.0 -0.905823158 0.4234847305
1510290940.0 -0.9055392927 0.424721587
1515290910.0 -0.9050649899 0.4260403022
1520290880.0 -0.9043944224 0.427334157
1525290850.0 -0.9033489835 0.4285755043
1530290820.0 -0.903149838 0.4298707316
1535290790.0 -0.9019205455 0.431597171
1540290760.0 -0.9017157437 0.4324016042
1545290730.0 -0.9012738491 0.4341946551
1550290700.0 -0.900193672 0.4354709536
1555290670.0 -0.8997995352 0.4366434889
1560290640.0 -0.8989022813 0.4381356131
1565290610.0 -0.8982659687 0.4389200487
1570290580.0 -0.8977936607 0.4400868127
1575290550.0 -0.8972130562 0.442273397
1580290520.0 -0.8962720986 0.4433548142
1585290490.0 -0.8953343085 0.4444493031
1590290460.0 -0.8945347577 0.4460059869
1595290430.0 -0.8947067597 0.4468413057
1600290400.0 -0.8936829685 0.4482508629
1605290370.0 -0.8928646079 0.449733456
1610290340.0 -0.8927079407 0.4508148442
1615290310.0 -0.891870183 0.4519354453
1620290280.0 -0.891391121 0.4532946065
1625290250.0 -0.8904199691 0.4545813764
1630290220.0 -0.8900181721 0.4555221519
1635290190.0 -0.8892759912 0.4567694891
1640290160.0 -0.8889669296 0.457947464
1645290130.0 -0.8875934387 0.4591381672
1650290100.0 -0.887070445 0.460478637
1655290070.0 -0.8859127125 0.4622697549
1660290040.0 -0.8856569402 0.4631841092
1665290010.0 -0.8847713743 0.4640888422
1670289980.0 -0.884502028 0.4657567965
1675289950.0 -0.88354934 0.4670206741
1680289920.0 -0.8829679649 0.4681944679
1685289890.0 -0.8823111735 0.4701238629
1690289860.0 -0.8806802156 0.4709392922
1695289830.0 -0.8804046441 0.4729257166
1700289800.0 -0.8798407039 0.4738339253
1705289770.0 -0.8788640143 0.4750719173
1710289740.0 -0.8785410505 0.476322595
1715289710.0 -0.8776061404 0.4772939986
1720289680.0 -0.8771315557 0.4791597523
1725289650.0 -0.8758488904 0.4797694082
1730289620.0 -0.8754201698 0.4815258188
1735289590.0 -0.8751033107 0.4826109244
1740289560.0 -0.8741252458 0.484365309
1745289530.0 -0.8731453224 0.4850260194
1750289500.0 -0.8729179253 0.4861710786
1755289470.0 -0.8724909181 0.4875387826
1760289440.0 -0.8715296107 0.4885528034
1765289410.0 -0.8708898473 0.4896370667
1770289380.0 -0.8701385788 0.4909484919
1775289350.0 -0.8699546973 0.4920501556
1780289320.0 -0.8689752919 0.4934851605
1785289290.0 -0.867988697 0.495062492
1790289260.0 -0.8673732583 0.4961390176
1795289230.0 -0.8665669045 0.4974974634
1800289200.0 -0.8653451397 0.4989544852
1805289170.0 -0.8647051703 0.4998420449
1810289140.0 -0.8638761313 0.5011277953
1815289110.0 -0.8636587243 0.5021740181
1820289080.0 -0.8626193331 0.5035528604
1825289050.0 -0.8625352095 0.5044807134
1830289020.0 -0.8620604713 0.5051293574
1835288990.0 -0.8608358567 0.5066565571
1840288960.0 -0.8603536117 0.5075379543
1845288930.0 -0.8590873283 0.5091256149
1850288900.0 -0.8584931904 0.5104482047
1855288870.0 -0.8578890143 0.5116484785
1860288840.0 -0.8571451208 0.5127582227
1865288810.0 -0.8558957198 0.5143705789
1870288780.0 -0.8553248673 0.5161242246
1875288750.0 -0.8544955127 0.517636098
1880288720.0 -0.853811547 0.5187760553
1885288690.0 -0.8527457893 0.5194864414
1890288660.0 -0.8515106632 0.520874582
1895288630.0 -0.8511703474 0.5221469762
1900288600.0 -0.8509175899 0.52315516
1905288570.0 -0.8498911063 0.5242488393
1910288540.0 -0.8490259696 0.5257709127
1915288510.0 -0.8483383485 0.5272370493
1920288480.0 -0.8471727606 0.5286639226
1925288450.0 -0.8469816152 0.5301864559
1930288420.0 -0.8459640481 0.5312619167
1935288390.0 -0.8446803537 0.5318045731
1940288360.0 -0.8443893999 0.5333882393
1945288330.0 -0.8428874145 0.5345833523
1950288300.0 -0.8425852058 0.5358075423
1955288270.0 -0.8411778895 0.537882597
1960288240.0 -0.8405247948 0.5394329171
1965288210.0 -0.8397627247 0.5398412703
1970288180.0 -0.8389329307 0.5411375643
1975288150.0 -0.8384978117 0.5423054171
1980288120.0 -0.8379594605 0.5438413197
1985288090.0 -0.8368044761 0.5441255135
1990288060.0 -0.8363162459 0.5453960166
1995288030.0 -0.8359948278 0.5467675842
2000288000.0 -0.8348506332 0.5479372143
2005287970.0 -0.8340333845 0.5486530197
2010287940.0 -0.8333247913 0.549833412
2015287910.0 -0.8324506278 0.551062904
2020287880.0 -0.8308452381 0.5529692079
2025287850.0 -0.830419198 0.5537684547
2030287820.0 -0.8297544504 0.5547105738
2035287790.0 -0.8296087503 0.5561823639
2040287760.0 -0.8281770011 0.5571756556
2045287730.0 -0.827006257 0.5588248996
2050287700.0 -0.8260203721 0.5602534762
2055287670.0 -0.8255169077 0.5611675385
2060287640.0 -0.8250785702 0.5618597634
2065287610.0 -0.823639846 0.5635215431
2070287580.0 -0.8231630802 0.5638284071
2075287550.0 -0.8222556854 0.565983786
2080287520.0 -0.8220531122 0.5664992207
2085287490.0 -0.8211285105 0.5681886329
2090287460.0 -0.8193765306 0.5692972828
2095287430.0 -0.8192505498 0.5702960818
2100287400.0 -0.8184061017 0.5718012769
2105287370.0 -0.816893777 0.5731258577
2110287340.0 -0.816424277 0.5742570766
2115287310.0 -0.8157191503 0.5756473352
2120287280.0 -0.8148290135 0.5764928683
2125287250.0 -0.8135756059 0.5777443555
2130287220.0 -0.8131716926 0.5787716825
2135287190.0 -0.8122740774 0.5802584318
2140287160.0 -0.8113607869 0.5815750928
2145287130.0 -0.810129971 0.5826197519
2150287100.0 -0.8097663606 0.583997139
2155287070.0 -0.8088622023 0.5847597062
2160287040.0 -0.807580798 0.5861374311
2165287010.0 -0.807084259 0.5869075632
2170286980.0 -0.8060591166 0.5880532198
2175286950.0 -0.8048262939 0.5892487828
2180286920.0 -0.8043911312 0.5902179287
2185286890.0 -0.8038521893 0.5910735278
2190286860.0 -0.8031327975 0.592037445
2195286830.0 -0.8022957321 0.5927595867
2200286800.0 -0.8018156794 0.5942473006
2205286770.0 -0.800440597 0.5952587098
2210286740.0 -0.8006048303 0.596480858
2215286710.0 -0.7989467894 0.5974906987
2220286680.0 -0.7983147228 0.5987997827
2225286650.0 -0.797580237 0.6006740548
2230286620.0 -0.7961259157 0.6017750705
2235286590.0 -0.7956746148 0.6027164731
2240286560.0 -0.7945520648 0.6035877869
2245286530.0 -0.7934544404 0.6049339765
2250286500.0 -0.7922643254 0.6062171892
2255286470.0 -0.7918002455 0.6076548684
2260286440.0 -0.7906141431 0.6089143955
2265286410.0 -0.790021518 0.610124339
2270286380.0 -0.7883188619 0.6117111491
2275286350.0 -0.787713605 0.6126632684
2280286320.0 -0.7869114217 0.6136432837
2285286290.0 -0.786137847 0.6148020265
2290286260.0 -0.7850291718 0.6160684545
2295286230.0 -0.7838225839 0.6172462905
2300286200.0 -0.7830576478 0.618424874
2305286170.0 -0.7828639088 0.6192766808
2310286140.0 -0.7819587252 0.6206945713
2315286110.0 -0.7803026881 0.6216179973
2320286080.0 -0.779306061 0.6227220936
2325286050.0 -0.7789839677 0.6244481439
2330286020.0 -0.7775748007 0.6248308511
2335285990.0 -0.7773095993 0.6256786805
2340285960.0 -0.7762362101 0.6269779096
2345285930.0 -0.7750353894 0.6285703631
2350285900.0 -0.774357004 0.6296326157
2355285870.0 -0.7733956886 0.6308927252
2360285840.0 -0.7727312811 0.6320830859
2365285810.0 -0.7714236896 0.632878813
2370285780.0 -0.7708396268 0.6346422483
2375285750.0 -0.7696161491 0.6346866661
2380285720.0 -0.7689058462 0.6358103377
2385285690.0 -0.768348283 0.6367485209
2390285660.0 -0.7677610097 0.6386182539
2395285630.0 -0.7663697464 0.6392943696
2400285600.0 -0.7658653604 0.6404321681
2405285570.0 -0.7649282425 0.6408930929
2410285540.0 -0.7641740439 0.6422486483
2415285510.0 -0.7634621583 0.6427182953
2420285480.0 -0.7625205267 0.6439234003
2425285450.0 -0.7615985223 0.6447417453
2430285420.0 -0.7606992304 0.6460684085
2435285390.0 -0.7595773559 0.6472427167
2440285360.0 -0.7586413162 0.6481588841
2445285330.0 -0.7575581238 0.6494793168
2450285300.0 -0.7565048243 0.6505448058
2455285270.0 -0.7554975077 0.6518744235
2460285240.0 -0.7543890514 0.652994549
2465285210.0 -0.7532079254 0.6539354969
2470285180.0 -0.7525775579 0.6556959537
2475285150.0 -0.7521322395 0.6567480423
2480285120.0 -0.7509230732 0.6577543705
2485285090.0 -0.7498416341 0.6591290026
2490285060.0 -0.7491649962 0.6597889929
2495285030.0 -0.7476619008 0.6603664352
2500285000.0 -0.7470217408 0.6624220078
2505284970.0 -0.7457738694 0.6633182109
2510284940.0 -0.7446618077 0.6641053593
2515284910.0 -0.7434079067 0.6652557178
2520284880.0 -0.7423487763 0.6661086615
2525284850.0 -0.7418146924 0.6671403574
2530284820.0 -0.741277001 0.6681069351
