!Created with skrf (http://scikit-rf.org).
# Hz S RI R 50.0 
!freq ReS11 ImS11
300000.0 -0.976650954 -0.115052354
50299700.0 -1.000102227 0.0155805391
100299400.0 -0.9980733647 0.0285706784
150299100.0 -1.002650697 0.0456471166
200298800.0 -0.9997957762 0.0588590187
250298500.0 -0.9974526111 0.0722855797
300298200.0 -0.9860585242 0.0880791005
350297900.0 -0.9939908365 0.0992321133
400297600.0 -0.9931760206 0.1156583713
450297300.0 -0.9910055887 0.1294634916
500297000.0 -0.9895432683 0.1441074596
550296700.0 -0.9843561989 0.156659101
600296400.0 -1.017309985 0.1900816219
650296100.0 -0.9823898289 0.1863948511
700295800.0 -0.9794011361 0.2008630943
750295500.0 -0.9762642554 0.2148678687
800295200.0 -0.972957901 0.2291051483
850294900.0 -0.969649185 0.2426535525
900294600.0 -0.9658472233 0.2565717601
950294300.0 -0.9620752292 0.2703015419
1000294000.0 -0.9581003924 0.2842487498
1050293700.0 -0.9536528564 0.2980082123
1100293400.0 -0.9492027193 0.3125767859
1150293100.0 -0.9453806651 0.3240800017
1200292800.0 -0.9400373726 0.338670695
1250292500.0 -0.9346154371 0.3521299645
1300292200.0 -0.9289488065 0.3653402307
1350291900.0 -0.9234239343 0.3792863536
1400291600.0 -0.9177232978 0.3926084218
1450291300.0 -0.9124247538 0.4049930959
1500291000.0 -0.9059456568 0.418108257
1550290700.0 -0.8994883894 0.4314356209
1600290400.0 -0.8933934627 0.4443275018
1650290100.0 -0.8865893589 0.4565869136
1700289800.0 -0.8797164767 0.4698935092
1750289500.0 -0.8725550581 0.4821772862
1800289200.0 -0.8652950275 0.4952304764
1850288900.0 -0.8584401072 0.5063113706
1900288600.0 -0.8507389302 0.5193891063
1950288300.0 -0.8426997168 0.5321860675
2000288000.0 -0.8352476633 0.5432248994
2050287700.0 -0.8268818952 0.5558786944
2100287400.0 -0.8189040646 0.5676254075
2150287100.0 -0.8103163557 0.5794878432
2200286800.0 -0.8028550463 0.5898503461
2250286500.0 -0.7939962757 0.6018484634
2300286200.0 -0.7849247963 0.6134943666
2350285900.0 -0.7760953075 0.6244931094
2400285600.0 -0.7671036261 0.6354587612
2450285300.0 -0.7585890889 0.645818923
2500285000.0 -0.7490009605 0.6572376177
2550284700.0 -0.7400582756 0.6673456319
2600284400.0 -0.7305913975 0.6776342897
2650284100.0 -0.7215644399 0.6881934762
2700283800.0 -0.7108703146 0.6987044941
2750283500.0 -0.7004486415 0.7093844831
2800283200.0 -0.6911444262 0.7190791838
2850282900.0 -0.6804321829 0.7287764968
2900282600.0 -0.6704046728 0.738616042
2950282300.0 -0.6602124722 0.7477346914
3000282000.0 -0.6494013368 0.7571669392
3050281700.0 -0.6382671926 0.7662767712
3100281400.0 -0.6263044625 0.7757002113
3150281100.0 -0.6145688942 0.7852347703
3200280800.0 -0.6029051789 0.7936438682
3250280500.0 -0.5920378095 0.8013470942
3300280200.0 -0.5807510237 0.8093398001
3350279900.0 -0.569229614 0.8165995131
3400279600.0 -0.5571443325 0.8244657516
3450279300.0 -0.5460923162 0.8313881693
3500279000.0 -0.5338850589 0.8386650119
3550278700.0 -0.5218006607 0.8458646529
3600278400.0 -0.5091784216 0.853028979
3650278100.0 -0.4961771883 0.8605702835
3700277800.0 -0.4839616775 0.8669024794
3750277500.0 -0.4717467602 0.8736470255
3800277200.0 -0.4593062727 0.8801342559
3850276900.0 -0.4473035486 0.8861536311
3900276600.0 -0.436400789 0.8917579024
3950276300.0 -0.4238491522 0.8974931202
4000276000.0 -0.4118648029 0.9036961749
4050275700.0 -0.3988965772 0.9097323134
4100275400.0 -0.3877816764 0.915440187
4150275100.0 -0.3750486986 0.9207347899
4200274800.0 -0.3620628975 0.9264321517
4250274500.0 -0.349786632 0.9314117836
4300274200.0 -0.3369718179 0.936681322
4350273900.0 -0.3229158305 0.9420587598
4400273600.0 -0.3082699032 0.9474696058
4450273300.0 -0.292908827 0.9525963435
4500273000.0 -0.279336012 0.9567566849
4550272700.0 -0.2650479258 0.9611005286
4600272400.0 -0.2495639377 0.9652041549
4650272100.0 -0.2379786502 0.9685569306
4700271800.0 -0.2246225074 0.971722406
4750271500.0 -0.2129380772 0.9747068557
4800271200.0 -0.2003977267 0.9774198002
4850270900.0 -0.186466356 0.9802327808
4900270600.0 -0.1726265866 0.9826438342
4950270300.0 -0.1582430313 0.984965752
5000270000.0 -0.1439970839 0.9872890336
5050269700.0 -0.1305169112 0.9885991703
5100269400.0 -0.1170808095 0.9905053773
5150269100.0 -0.1034999271 0.9923267921
5200268800.0 -0.0905499677 0.993063073
5250268500.0 -0.0774524085 0.9940681504
5300268200.0 -0.064249174 0.9946424016
5350267900.0 -0.0519738778 0.9952089128
5400267600.0 -0.0360046274 0.9962771854
5450267300.0 -0.0226766784 0.996580699
5500267000.0 -0.0077464527 0.9972612959
5550266700.0 0.0074579641 0.9973563754
5600266400.0 0.0228669827 0.9973285595
5650266100.0 0.0393768992 0.9970553685
5700265800.0 0.0538779322 0.9960532955
5750265500.0 0.0690737301 0.9954961261
5800265200.0 0.0831068545 0.9942776573
5850264900.0 0.0963416246 0.9936735015
5900264600.0 0.1132547561 0.9918606786
5950264300.0 0.1247713333 0.9895862279
6000264000.0 0.1392715986 0.9885118561
6050263700.0 0.1515605365 0.9864517746
6100263400.0 0.1641238978 0.9848906779
6150263100.0 0.1786459858 0.9824453597
6200262800.0 0.1889909619 0.9806953742
6250262500.0 0.2016301708 0.978242121
6300262200.0 0.2145304493 0.9754867383
6350261900.0 0.2276084505 0.9726016732
6400261600.0 0.2415951338 0.9693315068
6450261300.0 0.2529481126 0.966749793
6500261000.0 0.2656329303 0.9630289602
6550260700.0 0.2785488104 0.9591196378
6600260400.0 0.2917647874 0.9549680032
6650260100.0 0.3056333805 0.9507593586
6700259800.0 0.317713593 0.9461487534
6750259500.0 0.3314659474 0.9414006441
6800259200.0 0.3445827907 0.9362201117
6850258900.0 0.3563924496 0.9311701718
6900258600.0 0.3688199367 0.9263619399
6950258300.0 0.3812755272 0.9209530502
7000258000.0 0.3934369489 0.9155007002
7050257700.0 0.4056828565 0.9094817045
7100257400.0 0.4182901666 0.9032500258
7150257100.0 0.4287833631 0.8979707961
7200256800.0 0.4416719953 0.8916070929
7250256500.0 0.4533548623 0.8851719102
7300256200.0 0.4661581332 0.8783282044
7350255900.0 0.4788263682 0.8715799404
7400255600.0 0.4920437274 0.8640680599
7450255300.0 0.5070052982 0.8550245841
7500255000.0 0.5186834492 0.847910385
7550254700.0 0.5329798697 0.8397329151
7600254400.0 0.545955618 0.8313829024
7650254100.0 0.5570880866 0.8233841166
7700253800.0 0.5690526881 0.8156070662
7750253500.0 0.5800408839 0.8079254153
7800253200.0 0.5907774884 0.8002142638
7850252900.0 0.6006593138 0.7930757513
7900252600.0 0.6123511934 0.7844666887
7950252300.0 0.6210878452 0.777738276
8000252000.0 0.6312767315 0.769946511
8050251700.0 0.6415994565 0.7618612773
8100251400.0 0.6518589299 0.7535996973
8150251100.0 0.6617514125 0.7450970657
8200250800.0 0.6716150606 0.7371592551
8250250500.0 0.6803590404 0.7290593988
8300250200.0 0.6898003448 0.7204942651
8350249900.0 0.6985160354 0.7119283796
8400249600.0 0.706902877 0.703885915
8450249300.0 0.7157462788 0.6945499886
8500249000.0 0.7244034827 0.6856287878
8550248700.0 0.7326438451 0.676697585
8600248400.0 0.741118377 0.6672468582
8650248100.0 0.7488173629 0.657702528
8700247800.0 0.7584248802 0.6466241484
8750247500.0 0.7666723555 0.6363091404
8800247200.0 0.7748995322 0.6261551642
8850246900.0 0.7836915668 0.614663454
8900246600.0 0.7925068387 0.6029600405
8950246300.0 0.8016291365 0.5901921522
9000246000.0 0.811122303 0.5774361548
9050245700.0 0.8200732657 0.564538432
9100245400.0 0.8289976665 0.5520338012
9150245100.0 0.838352104 0.5382966818
9200244800.0 0.8482669387 0.5228421311
9250244500.0 0.8577362498 0.5070374198
9300244200.0 0.8661013595 0.4924741158
9350243900.0 0.8737583716 0.4786914129
9400243600.0 0.8806302081 0.4661644661
9450243300.0 0.8863893961 0.4545103778
9500243000.0 0.8925255628 0.4423372095
9550242700.0 0.8963475366 0.4346527877
9600242400.0 0.9001462381 0.427320261
9650242100.0 0.9036663469 0.4210190115
9700241800.0 0.9080085031 0.4129104011
9750241500.0 0.9123403182 0.4050982559
9800241200.0 0.9168776165 0.3963444811
9850240900.0 0.9223591827 0.3845434763
9900240600.0 0.9278106657 0.3730770306
9950240300.0 0.9343274781 0.3568736861
10000240000.0 0.9390297876 0.3453643601
10050239700.0 0.9447614182 0.3303299193
10100239400.0 0.9499751946 0.3145786952
10150239100.0 0.954317057 0.3000132927
10200238800.0 0.9584656788 0.2849035667
10250238500.0 0.9616877693 0.2714404875
10300238200.0 0.9647103524 0.2575832615
10350237900.0 0.9674303292 0.2445791289
10400237600.0 0.9698687273 0.2315713593
10450237300.0 0.9726538592 0.2175488219
10500237000.0 0.974845537 0.2053651624
10550236700.0 0.9770964697 0.1914876354
10600236400.0 0.9794665177 0.1779413591
10650236100.0 0.9808154689 0.1643040248
10700235800.0 0.9833370656 0.1512523577
10750235500.0 0.9853383856 0.1380663614
10800235200.0 0.9876760991 0.1238299471
10850234900.0 0.989682955 0.1092424729
10900234600.0 0.9917498423 0.0948139741
10950234300.0 0.9933883709 0.0814648444
11000234000.0 0.9951951092 0.0663714408
11050233700.0 0.9970781585 0.0500618056
11100233400.0 0.998521722 0.0325767407
11150233100.0 0.9993917994 0.016531651
11200232800.0 1.000004755 0.0014172888
11250232500.0 1.000921093 -0.014713347
11300232200.0 1.001792446 -0.0333689348
11350231900.0 1.002503679 -0.049659089
11400231600.0 1.001550624 -0.0640323734
11450231300.0 1.001193477 -0.0803078748
11500231000.0 1.000553943 -0.0964384094
11550230700.0 0.9981441845 -0.109484436
11600230400.0 0.9970734949 -0.1223685293
11650230100.0 0.9948875539 -0.1330551419
11700229800.0 0.9932571779 -0.1486095655
11750229500.0 0.9905498964 -0.162877998
11800229200.0 0.9878997475 -0.1766504642
11850228900.0 0.9841456269 -0.1891808268
11900228600.0 0.9808353319 -0.1987940862
11950228300.0 0.9775782665 -0.2093606614
12000228000.0 0.9751318007 -0.2180471238
12050227700.0 0.9711264335 -0.2308324707
12100227400.0 0.9679356993 -0.2415260491
12150227100.0 0.9628457378 -0.2589076622
12200226800.0 0.9597148046 -0.269345952
12250226500.0 0.9555806454 -0.2830303371
12300226200.0 0.9513326922 -0.2942067724
12350225900.0 0.9462040891 -0.3092061798
12400225600.0 0.9419700242 -0.321840061
12450225300.0 0.9377870602 -0.3339694711
12500225000.0 0.9319284992 -0.3487688661
12550224700.0 0.9266625979 -0.3625197365
12600224400.0 0.9219543905 -0.3753370977
12650224100.0 0.9161286417 -0.3898804972
12700223800.0 0.9109297383 -0.4025780164
12750223500.0 0.9054333697 -0.4156020514
12800223200.0 0.8997320329 -0.4284341734
12850222900.0 0.8944201363 -0.4403385202
12900222600.0 0.8889689776 -0.4524875477
12950222300.0 0.8824969191 -0.4654933389
13000222000.0 0.876776914 -0.4763843139
13050221700.0 0.8696268063 -0.4893011599
13100221400.0 0.8628744755 -0.5015274829
13150221100.0 0.8564301326 -0.5137964333
13200220800.0 0.8491393436 -0.5252212345
13250220500.0 0.8421145299 -0.537694421
13300220200.0 0.8346936412 -0.5483726263
13350219900.0 0.8265908772 -0.5601341411
13400219600.0 0.8183410206 -0.5720978254
13450219300.0 0.8086476372 -0.5859674653
13500219000.0 0.7988720995 -0.5998460921
13550218700.0 0.788304055 -0.6128382216
13600218400.0 0.7781863279 -0.6250047112
13650218100.0 0.768644205 -0.6357288375
13700217800.0 0.7574421875 -0.6485943799
13750217500.0 0.7477213294 -0.6600423679
13800217200.0 0.7356686122 -0.6714887475
13850216900.0 0.725234421 -0.6827875975
13900216600.0 0.7154099524 -0.6920303421
13950216300.0 0.7038666299 -0.702198722
14000216000.0 0.694362878 -0.7107838956
14050215700.0 0.6848481917 -0.7198959398
14100215400.0 0.6749654523 -0.7288585307
14150215100.0 0.6655922398 -0.7372564304
14200214800.0 0.6565156645 -0.7458719232
14250214500.0 0.6462237439 -0.7549997519
14300214200.0 0.6358707637 -0.764422862
14350213900.0 0.6248176098 -0.7739351924
14400213600.0 0.6134090647 -0.7835588595
14450213300.0 0.5997118756 -0.7938968817
14500213000.0 0.586459203 -0.8033803371
14550212700.0 0.57433592 -0.8134529494
14600212400.0 0.5615808501 -0.8220456204
14650212100.0 0.5487375169 -0.8307355465
14700211800.0 0.5347105194 -0.8401364936
14750211500.0 0.5227308119 -0.8484468317
14800211200.0 0.5105444978 -0.8562173971
14850210900.0 0.4983066554 -0.8640089861
14900210600.0 0.484986801 -0.871689161
14950210300.0 0.4715437592 -0.8793334125
15000210000.0 0.4587290377 -0.8860945115
15050209700.0 0.446281629 -0.8925177143
15100209400.0 0.4335135678 -0.8982155277
15150209100.0 0.4215960148 -0.9038487748
15200208800.0 0.4086178688 -0.9092217286
15250208500.0 0.3980930726 -0.9131919651
15300208200.0 0.3846391084 -0.9182864287
15350207900.0 0.3718741702 -0.9229941157
15400207600.0 0.3568810782 -0.9288768407
15450207300.0 0.3417218629 -0.9333995851
15500207000.0 0.3279367897 -0.9381631513
15550206700.0 0.3132484129 -0.9430087511
15600206400.0 0.2974194986 -0.9479281517
15650206100.0 0.2813114338 -0.9515882999
15700205800.0 0.2672051364 -0.9554775328
15750205500.0 0.2529735177 -0.9590043899
15800205200.0 0.2383496475 -0.9624657087
15850204900.0 0.2238751987 -0.9659203291
15900204600.0 0.2088064349 -0.9694859058
15950204300.0 0.1949532089 -0.9725323637
16000204000.0 0.1807503002 -0.975293112
16050203700.0 0.1658300829 -0.978063424
16100203400.0 0.1511980972 -0.9800630998
16150203100.0 0.1370851301 -0.9823992623
16200202800.0 0.1229855125 -0.9847733928
16250202500.0 0.1080660469 -0.9857898637
16300202200.0 0.09303676 -0.9883143238
16350201900.0 0.0781500427 -0.9892941848
16400201600.0 0.0633193772 -0.9905231278
16450201300.0 0.048265272 -0.9912592461
16500201000.0 0.031606937 -0.9919318605
16550200700.0 0.0160162624 -0.9925313002
16600200400.0 0.0001951001 -0.9927649042
16650200100.0 -0.0159942046 -0.9927722572
16700199800.0 -0.0321666409 -0.9921649728
16750199500.0 -0.0513660359 -0.9916374859
16800199200.0 -0.0667263426 -0.990370029
16850198900.0 -0.0826020297 -0.9893367806
16900198600.0 -0.0964277573 -0.9885653286
16950198300.0 -0.1099970622 -0.9875573658
17000198000.0 -0.1230998361 -0.9858604663
17050197700.0 -0.1348761628 -0.9832677746
17100197400.0 -0.1477438993 -0.9822562523
17150197100.0 -0.1606832044 -0.9797352162
17200196800.0 -0.1735873195 -0.9776711206
17250196500.0 -0.185985941 -0.9753350735
17300196200.0 -0.1983131418 -0.9732795471
17350195900.0 -0.2101210787 -0.9707982876
17400195600.0 -0.2225063068 -0.9684481067
17450195300.0 -0.2356707837 -0.9656426339
17500195000.0 -0.2488932556 -0.9623838303
17550194700.0 -0.2627501919 -0.9587415126
17600194400.0 -0.2769243785 -0.9544258451
17650194100.0 -0.2903644412 -0.9505295825
17700193800.0 -0.3037336098 -0.9462637676
17750193500.0 -0.3178069921 -0.9415948963
17800193200.0 -0.3324843045 -0.9363355511
17850192900.0 -0.3471506267 -0.9314261299
17900192600.0 -0.3624446147 -0.9249005297
17950192300.0 -0.3779959357 -0.9176761852
18000192000.0 -0.3926194721 -0.9104605935
18050191700.0 -0.406491174 -0.9026229249
18100191400.0 -0.4208008835 -0.8949342486
18150191100.0 -0.4358261102 -0.886846324
18200190800.0 -0.4526911345 -0.8775636002
18250190500.0 -0.4698325018 -0.8681867996
18300190200.0 -0.4852467305 -0.8592732678
18350189900.0 -0.5002908086 -0.8508202326
18400189600.0 -0.5146293366 -0.8426696786
18450189300.0 -0.5278080854 -0.8344712109
18500189000.0 -0.5412829154 -0.8264899998
18550188700.0 -0.5537694621 -0.8192737755
18600188400.0 -0.5655620136 -0.8120343103
18650188100.0 -0.5767909384 -0.8057245017
18700187800.0 -0.5874698397 -0.7993173639
18750187500.0 -0.5977789046 -0.7929478188
18800187200.0 -0.608668288 -0.7858214983
18850186900.0 -0.6186947866 -0.7788233594
18900186600.0 -0.6290530237 -0.7715200628
18950186300.0 -0.6388786075 -0.763886855
19000186000.0 -0.6461161909 -0.7574918044
19050185700.0 -0.6552128618 -0.750750148
19100185400.0 -0.6649813112 -0.7425392057
19150185100.0 -0.6752553729 -0.7334912925
19200184800.0 -0.6844984435 -0.7253745683
19250184500.0 -0.6954759426 -0.716540516
19300184200.0 -0.7069316673 -0.7064439627
19350183900.0 -0.7169611737 -0.696894868
19400183600.0 -0.7270512141 -0.6867138146
19450183300.0 -0.7358096173 -0.6770925894
19500183000.0 -0.7441109332 -0.6665334196
19550182700.0 -0.7537987999 -0.6563329215
19600182400.0 -0.7640130908 -0.6443075609
19650182100.0 -0.7751729553 -0.6322515446
19700181800.0 -0.7857809282 -0.6187641877
19750181500.0 -0.7962477145 -0.6044769485
19800181200.0 -0.8067170502 -0.589607694
19850180900.0 -0.8163583727 -0.5742506351
19900180600.0 -0.8241137974 -0.5596818595
19950180300.0 -0.8334290248 -0.5433004724
20000180000.0 -0.8268558335 -0.5459301007
20050179700.0 -0.835410167 -0.5322589269
20100179400.0 -0.8437144022 -0.5187969383
20150179100.0 -0.8511263532 -0.5060422983
20200178800.0 -0.8591449666 -0.4937032724
20250178500.0 -0.8697759987 -0.4801965869
20300178200.0 -0.879729609 -0.4657524104
20350177900.0 -0.8883922291 -0.4508759392
20400177600.0 -0.8970811423 -0.4363066084
20450177300.0 -0.9055188019 -0.4221400085
20500177000.0 -0.9135059365 -0.407988662
20550176700.0 -0.9213764008 -0.3946466212
20600176400.0 -0.9287209362 -0.3815396568
20650176100.0 -0.9354073973 -0.3687785151
20700175800.0 -0.9416658734 -0.3569898996
20750175500.0 -0.9483126212 -0.3460465
20800175200.0 -0.9526264073 -0.3343583158
20850174900.0 -0.9583186684 -0.3237008502
20900174600.0 -0.9620655565 -0.3111441195
20950174300.0 -0.9665614432 -0.3003693266
21000174000.0 -0.9694038674 -0.2891570299
21050173700.0 -0.972277582 -0.2785047255
21100173400.0 -0.9768827648 -0.2662493086
21150173100.0 -0.9812873706 -0.2538120142
21200172800.0 -0.9844428605 -0.2401192632
21250172500.0 -0.987010246 -0.2266506206
21300172200.0 -0.9902123512 -0.2122651033
21350171900.0 -0.9917531674 -0.1977422729
21400171600.0 -0.9927113155 -0.1834822452
21450171300.0 -0.9930554382 -0.1690952007
21500171000.0 -0.9931826001 -0.1538225862
21550170700.0 -0.9926294029 -0.1380109524
21600170400.0 -0.99224206 -0.1220688516
21650170100.0 -0.992139162 -0.1078148293
21700169800.0 -0.9900786261 -0.0914447113
21750169500.0 -0.9889996138 -0.0758141537
21800169200.0 -0.9883238693 -0.0593865581
21850168900.0 -0.9866281669 -0.0427069264
21900168600.0 -0.9853956881 -0.026112663
21950168300.0 -0.9835138071 -0.0100869732
22000168000.0 -0.9829902744 0.0048579105
22050167700.0 -0.9831324362 0.019026937
22100167400.0 -0.9827488892 0.0339066886
22150167100.0 -0.9836210788 0.0494029017
22200166800.0 -0.9835572092 0.0657243112
22250166500.0 -0.9830400889 0.0833125269
22300166200.0 -0.982469651 0.0995188412
22350165900.0 -0.9815211698 0.1155918444
22400165600.0 -0.979554709 0.1315625241
22450165300.0 -0.9773477891 0.1467047446
22500165000.0 -0.975907125 0.1603594857
22550164700.0 -0.9744154204 0.1768827399
22600164400.0 -0.9737040138 0.1910228769
22650164100.0 -0.9707401675 0.2060132125
22700163800.0 -0.968240647 0.2226126856
22750163500.0 -0.9656107442 0.2373246738
22800163200.0 -0.9627075926 0.250307426
22850162900.0 -0.9603201017 0.2642825688
22900162600.0 -0.9591554542 0.2772781386
22950162300.0 -0.9577772871 0.289687976
23000162000.0 -0.9567492492 0.301640281
23050161700.0 -0.9548503133 0.3137790983
23100161400.0 -0.9525296843 0.3270611233
23150161100.0 -0.9496437394 0.3396387758
23200160800.0 -0.9473662306 0.3512016291
23250160500.0 -0.9442517381 0.3638584577
23300160200.0 -0.9414442715 0.3755647345
23350159900.0 -0.9378648508 0.3881786647
23400159600.0 -0.9333666951 0.4018277276
23450159300.0 -0.9287996284 0.4150512873
23500159000.0 -0.9237453415 0.427543315
23550158700.0 -0.9194201168 0.440843759
23600158400.0 -0.9143192171 0.454013771
23650158100.0 -0.9079518519 0.4682297925
23700157800.0 -0.9002300951 0.4821574119
23750157500.0 -0.8914504885 0.4959797921
23800157200.0 -0.8826102959 0.5092915762
23850156900.0 -0.8744761252 0.5222749873
23900156600.0 -0.8649438182 0.5345553697
23950156300.0 -0.8559230447 0.546761438
24000156000.0 -0.8468213903 0.5592419321
24050155700.0 -0.8363593867 0.5699173946
24100155400.0 -0.8263947764 0.5826697651
24150155100.0 -0.8161700095 0.5944156782
24200154800.0 -0.8045692882 0.6054408679
24250154500.0 -0.7932409565 0.6168129871
24300154200.0 -0.7817055853 0.6291125888
24350153900.0 -0.7701990023 0.6394925223
24400153600.0 -0.7580767219 0.6493076305
24450153300.0 -0.7459609364 0.6593595393
24500153000.0 -0.7344282455 0.6691148734
24550152700.0 -0.7235346553 0.6785910769
24600152400.0 -0.7115098589 0.687855802
24650152100.0 -0.7005560762 0.6959733659
