!Created with skrf (http://scikit-rf.org).
# Hz S RI R 50.0 
!freq ReS11 ImS11
300000.0 -0.9768515755 -0.111646973
50299700.0 -1.000065866 0.0157836452
100299400.0 -0.9981188856 0.02870632
150299100.0 -1.002835422 0.0456396115
200298800.0 -0.9996811545 0.0588707992
250298500.0 -0.9974402934 0.0724402196
300298200.0 -0.98608117 0.0882647566
350297900.0 -0.9941383858 0.0989434605
400297600.0 -0.9932698902 0.1157632892
450297300.0 -0.9912549688 0.129627188
500297000.0 -0.9895089848 0.1443954035
550296700.0 -0.9844871014 0.1566211541
600296400.0 -1.017370058 0.1900428909
650296100.0 -0.9820942991 0.1866807205
700295800.0 -0.9792744442 0.2009855065
750295500.0 -0.9763659126 0.2150266975
800295200.0 -0.9729371897 0.2291294683
850294900.0 -0.9696223081 0.2429946376
900294600.0 -0.9657494026 0.2565373421
950294300.0 -0.9619132289 0.2702598567
1000294000.0 -0.9582059471 0.2844348169
1050293700.0 -0.9535265773 0.2980790653
1100293400.0 -0.9493047621 0.3127229301
1150293100.0 -0.9452784476 0.3245502301
1200292800.0 -0.9400342574 0.3387947692
1250292500.0 -0.9345649792 0.3522756285
1300292200.0 -0.9289332399 0.3654628793
1350291900.0 -0.9229913726 0.3794326025
1400291600.0 -0.9177957834 0.3926288395
1450291300.0 -0.9123750866 0.4050432938
1500291000.0 -0.9060153129 0.4181806262
1550290700.0 -0.8995482667 0.4316278843
1600290400.0 -0.8932756661 0.4446743621
1650290100.0 -0.8865336913 0.4567146706
1700289800.0 -0.8796047405 0.4703494333
1750289500.0 -0.8726030348 0.4823995811
1800289200.0 -0.8654783297 0.4951888801
1850288900.0 -0.8585036443 0.5067009573
1900288600.0 -0.8507847306 0.519838202
1950288300.0 -0.8425825477 0.5321633801
2000288000.0 -0.8351316707 0.5435476104
2050287700.0 -0.8268740451 0.5561247229
2100287400.0 -0.8189273884 0.5676628273
2150287100.0 -0.8101971095 0.5795545147
2200286800.0 -0.8027914418 0.5899378122
2250286500.0 -0.7938251589 0.6021138123
2300286200.0 -0.7847110428 0.6136200255
2350285900.0 -0.7759255104 0.6246475164
2400285600.0 -0.7671212126 0.635712347
2450285300.0 -0.7584693095 0.645907043
2500285000.0 -0.7486518061 0.6575123241
2550284700.0 -0.7398016694 0.6675337164
2600284400.0 -0.7303964157 0.6776897137
2650284100.0 -0.7213212779 0.6883286334
2700283800.0 -0.7107206893 0.6988314357
2750283500.0 -0.7005856994 0.7093390957
2800283200.0 -0.6905097874 0.7191405806
2850282900.0 -0.6804153811 0.7290110276
2900282600.0 -0.6697428971 0.7384615089
2950282300.0 -0.659937613 0.7477084448
3000282000.0 -0.6492150565 0.7573069681
3050281700.0 -0.6379974149 0.7665693471
3100281400.0 -0.6262924735 0.7759502568
3150281100.0 -0.6142883551 0.7853142189
3200280800.0 -0.6026193397 0.7938627431
3250280500.0 -0.5918302766 0.8014239373
3300280200.0 -0.5807611423 0.8093355983
3350279900.0 -0.5691876807 0.8168184661
3400279600.0 -0.5572137155 0.8245047111
3450279300.0 -0.545932064 0.8314545455
3500279000.0 -0.5337851777 0.8385465052
3550278700.0 -0.5214897693 0.8459767522
3600278400.0 -0.5093429932 0.853368481
3650278100.0 -0.4958551097 0.8608657026
3700277800.0 -0.4837670653 0.8671664567
3750277500.0 -0.4712732485 0.8738956377
3800277200.0 -0.4592145247 0.8803201545
3850276900.0 -0.446893158 0.886162159
3900276600.0 -0.4361047285 0.8917386172
3950276300.0 -0.4237211028 0.897869059
4000276000.0 -0.4115338906 0.9040277798
4050275700.0 -0.3985610052 0.9100896234
4100275400.0 -0.3878740294 0.9153236151
4150275100.0 -0.3747888962 0.9211827055
4200274800.0 -0.3618932022 0.9263642505
4250274500.0 -0.349607117 0.9314701831
4300274200.0 -0.3368295387 0.9368867356
4350273900.0 -0.3228165543 0.9422589538
4400273600.0 -0.3079492085 0.9474338787
4450273300.0 -0.2926603524 0.9526625851
4500273000.0 -0.2787186829 0.957088474
4550272700.0 -0.2646583517 0.9612798315
4600272400.0 -0.2492700525 0.9653764303
4650272100.0 -0.2374577307 0.9687158721
4700271800.0 -0.224235841 0.9719308039
4750271500.0 -0.2124090078 0.9747743622
4800271200.0 -0.2001014007 0.9775171955
4850270900.0 -0.1861719611 0.9802489123
4900270600.0 -0.1722709175 0.9826553072
4950270300.0 -0.1579756212 0.9851813028
5000270000.0 -0.14371362 0.9873241071
5050269700.0 -0.1301809425 0.9887560724
5100269400.0 -0.1167248524 0.9903005602
5150269100.0 -0.1036968215 0.9920488657
5200268800.0 -0.090281697 0.9929291306
5250268500.0 -0.0769173933 0.9941315243
5300268200.0 -0.0638142279 0.9947588275
5350267900.0 -0.0515837251 0.9954924497
5400267600.0 -0.0356507503 0.9963314579
5450267300.0 -0.0223976344 0.9968614193
5500267000.0 -0.0074106808 0.9972039349
5550266700.0 0.0077539015 0.9973920682
5600266400.0 0.023100399 0.9974248714
5650266100.0 0.0399024624 0.997018887
5700265800.0 0.0542595773 0.9961801939
5750265500.0 0.0696289439 0.9955335127
5800265200.0 0.0836113228 0.9944751976
5850264900.0 0.0967376024 0.9936538544
5900264600.0 0.1136591708 0.9916977144
5950264300.0 0.1256428389 0.990151082
6000264000.0 0.1395682374 0.9881780111
6050263700.0 0.1522098203 0.9868687434
6100263400.0 0.1644022108 0.9845861227
6150263100.0 0.1789543533 0.982453104
6200262800.0 0.1892702778 0.9807132455
6250262500.0 0.2019561625 0.9781008627
6300262200.0 0.2147883177 0.9754359599
6350261900.0 0.2279866387 0.9724785488
6400261600.0 0.2419304791 0.9691767175
6450261300.0 0.2533762593 0.9663759587
6500261000.0 0.2661113122 0.96293764
6550260700.0 0.2788660425 0.9589761625
6600260400.0 0.2920316479 0.9545598623
6650260100.0 0.3061397771 0.9506869943
6700259800.0 0.3182228807 0.9460668754
6750259500.0 0.3322597444 0.9412844946
6800259200.0 0.3450475903 0.9362630145
6850258900.0 0.357057346 0.9311681441
6900258600.0 0.3690778166 0.9261712165
6950258300.0 0.3817813833 0.9208526953
7000258000.0 0.3937698193 0.9155308724
7050257700.0 0.4060211263 0.9094361408
7100257400.0 0.4186309804 0.9031994282
7150257100.0 0.4288971018 0.8978478224
7200256800.0 0.4419309341 0.8912946488
7250256500.0 0.4537887769 0.8851675364
7300256200.0 0.4668489146 0.8783415835
7350255900.0 0.4791281169 0.8717556446
7400255600.0 0.492397463 0.864326036
7450255300.0 0.5078423349 0.8552452182
7500255000.0 0.5191398914 0.8480492203
7550254700.0 0.5331858495 0.839597033
7600254400.0 0.5457307257 0.8311348022
7650254100.0 0.5575513674 0.8237516615
7700253800.0 0.569101882 0.8156276669
7750253500.0 0.5803281764 0.8076850675
7800253200.0 0.5911076449 0.7998688904
7850252900.0 0.6007801541 0.7928466701
7900252600.0 0.6124089357 0.784187843
7950252300.0 0.6214438219 0.7774272117
8000252000.0 0.6315633753 0.7697633789
8050251700.0 0.6422068227 0.7614086071
8100251400.0 0.6520014145 0.7533550142
8150251100.0 0.6620738131 0.7446729585
8200250800.0 0.6712805877 0.7367481759
8250250500.0 0.680251319 0.7290222593
8300250200.0 0.6899322948 0.7200871112
8350249900.0 0.6990243362 0.7115307779
8400249600.0 0.7070834508 0.7034834408
8450249300.0 0.7161666621 0.6942316557
8500249000.0 0.7249018692 0.685406999
8550248700.0 0.7331351715 0.6763838196
8600248400.0 0.7414785458 0.6667750503
8650248100.0 0.7492362321 0.6576303202
8700247800.0 0.7587547323 0.6464173709
8750247500.0 0.7670917385 0.6361421698
8800247200.0 0.7749132449 0.6257678016
8850246900.0 0.7838398712 0.6145217515
8900246600.0 0.7927375461 0.6031293419
8950246300.0 0.802126417 0.5899910337
9000246000.0 0.8116368692 0.5773046582
9050245700.0 0.8203686079 0.5642909868
9100245400.0 0.8289985095 0.5515701173
9150245100.0 0.8383458438 0.5379730288
9200244800.0 0.8481490135 0.5227806321
9250244500.0 0.8576237204 0.5069614021
9300244200.0 0.8662874118 0.4923960911
9350243900.0 0.874073085 0.4783040465
9400243600.0 0.8806923674 0.4661147284
9450243300.0 0.886462562 0.4541713126
9500243000.0 0.8927322314 0.4420113671
9550242700.0 0.8964635324 0.4343471409
9600242400.0 0.9002435348 0.4271525866
9650242100.0 0.9038254037 0.4206597781
9700241800.0 0.9085059917 0.4124214916
9750241500.0 0.9125763841 0.4049046313
9800241200.0 0.917081203 0.3958150268
9850240900.0 0.9225202512 0.3842103226
9900240600.0 0.928319823 0.3724900829
9950240300.0 0.9348373779 0.3565525641
10000240000.0 0.939359638 0.3449911209
10050239700.0 0.9448545403 0.3296783914
10100239400.0 0.9499224368 0.3142356762
10150239100.0 0.9544904793 0.2993770768
10200238800.0 0.958462456 0.2845231221
10250238500.0 0.961700753 0.2711584902
10300238200.0 0.9648703204 0.2570960788
10350237900.0 0.9675081337 0.2442142001
10400237600.0 0.9700523149 0.2311783807
10450237300.0 0.9729618157 0.2172575559
10500237000.0 0.9747998537 0.2055073803
10550236700.0 0.9772286955 0.1912421818
10600236400.0 0.9789381382 0.1783375549
10650236100.0 0.9814981087 0.1630253374
10700235800.0 0.9837162027 0.1509210934
10750235500.0 0.9862215257 0.137262997
10800235200.0 0.9879721138 0.1233939373
10850234900.0 0.9897314442 0.1089333002
10900234600.0 0.9919655776 0.0942644887
10950234300.0 0.9934207839 0.0811937453
11000234000.0 0.9952995688 0.0659575388
11050233700.0 0.9970810183 0.0496905378
11100233400.0 0.9985972816 0.0320053544
11150233100.0 0.9993810053 0.0159720072
11200232800.0 0.9999209177 0.000705892
11250232500.0 1.00089547 -0.0156705008
11300232200.0 1.001863144 -0.0340788537
11350231900.0 1.001602814 -0.0499628304
11400231600.0 1.001610543 -0.0658492331
11450231300.0 1.000822519 -0.0803419226
11500231000.0 0.9996921554 -0.0972030854
11550230700.0 0.998494884 -0.1099727005
11600230400.0 0.9967022228 -0.1230913832
11650230100.0 0.9948058578 -0.1344162622
11700229800.0 0.9928220176 -0.1493064909
11750229500.0 0.9902727581 -0.1640995625
11800229200.0 0.987805426 -0.1778456734
11850228900.0 0.9842246698 -0.1903241256
11900228600.0 0.9805710436 -0.1997965583
11950228300.0 0.9769464654 -0.2104250716
12000228000.0 0.9747206707 -0.2188676161
12050227700.0 0.971401947 -0.2315896304
12100227400.0 0.9677651672 -0.2433354562
12150227100.0 0.9630459065 -0.2593552095
12200226800.0 0.9593062551 -0.2705167638
12250226500.0 0.9552633468 -0.2832565456
12300226200.0 0.9514854324 -0.2951795971
12350225900.0 0.9459991219 -0.3093455113
12400225600.0 0.9418024239 -0.3224214539
12450225300.0 0.9372933108 -0.3350545227
12500225000.0 0.9319084043 -0.3495190977
12550224700.0 0.9269460761 -0.3629063115
12600224400.0 0.9218020556 -0.3758423242
12650224100.0 0.9159720672 -0.3903486751
12700223800.0 0.9107585251 -0.4029394472
12750223500.0 0.905067329 -0.4159062591
12800223200.0 0.9000238479 -0.4283313804
12850222900.0 0.8946350326 -0.4405317924
12900222600.0 0.8889960785 -0.4527672579
12950222300.0 0.8822915284 -0.4656821308
13000222000.0 0.8766042386 -0.4764010817
13050221700.0 0.8697064219 -0.4898604001
13100221400.0 0.8628392467 -0.5021290467
13150221100.0 0.8561329428 -0.51408647
13200220800.0 0.8491024897 -0.52559009
13250220500.0 0.8419159189 -0.5378123
13300220200.0 0.8343433938 -0.5487096758
13350219900.0 0.8263881009 -0.5605500288
13400219600.0 0.8178845386 -0.5726196827
13450219300.0 0.8085821844 -0.5862535315
13500219000.0 0.7977023235 -0.6006251088
13550218700.0 0.7878532148 -0.6135060265
13600218400.0 0.7778306577 -0.6254636511
13650218100.0 0.7676377349 -0.6364530375
13700217800.0 0.7569476753 -0.6487758165
13750217500.0 0.7473930166 -0.6602089248
13800217200.0 0.7357229564 -0.6715096843
13850216900.0 0.724896633 -0.6830676886
13900216600.0 0.7143877653 -0.6921532168
13950216300.0 0.7033399744 -0.7031772738
14000216000.0 0.6941407292 -0.7117101992
14050215700.0 0.6843002046 -0.72050545
14100215400.0 0.674528554 -0.7289445774
14150215100.0 0.6653139549 -0.7376807806
14200214800.0 0.6560792641 -0.7459582227
14250214500.0 0.6458973556 -0.7554008022
14300214200.0 0.6355037659 -0.7646288754
14350213900.0 0.6241824678 -0.7740660693
14400213600.0 0.6125780259 -0.7837515803
14450213300.0 0.5995440103 -0.7939860878
14500213000.0 0.5862531309 -0.8037166692
14550212700.0 0.5739567106 -0.813525542
14600212400.0 0.5616325536 -0.8223784245
14650212100.0 0.5487138796 -0.8306890277
14700211800.0 0.5343143449 -0.8403763723
14750211500.0 0.5224607547 -0.8487385885
14800211200.0 0.509907607 -0.8565464343
14850210900.0 0.4977729714 -0.8641776378
14900210600.0 0.4845788713 -0.8719952729
14950210300.0 0.4710177315 -0.8796249293
15000210000.0 0.4581610807 -0.8864159785
15050209700.0 0.445980399 -0.89217963
15100209400.0 0.4332186205 -0.8984105951
15150209100.0 0.4208593089 -0.9040116366
15200208800.0 0.4082280723 -0.9095828359
15250208500.0 0.3968637663 -0.9140361616
15300208200.0 0.3843890805 -0.9183204531
15350207900.0 0.371519854 -0.9234092901
15400207600.0 0.3566550887 -0.9287534698
15450207300.0 0.3428606557 -0.9342308286
15500207000.0 0.3268089609 -0.9377631773
15550206700.0 0.3119174824 -0.9430418857
15600206400.0 0.2962027637 -0.9478923699
15650206100.0 0.2809896524 -0.9525205701
15700205800.0 0.2668113024 -0.9556122711
15750205500.0 0.2521833728 -0.9592154642
15800205200.0 0.2377500914 -0.9625697906
15850204900.0 0.2231230898 -0.9660432537
15900204600.0 0.2081449139 -0.9695305643
15950204300.0 0.1942272261 -0.9725406179
16000204000.0 0.1801875595 -0.9753110858
16050203700.0 0.1648169215 -0.9783517773
16100203400.0 0.15113372 -0.980449684
16150203100.0 0.1361887941 -0.9830370488
16200202800.0 0.122887777 -0.9851161157
16250202500.0 0.108194451 -0.9859832437
16300202200.0 0.0922455912 -0.9877309082
16350201900.0 0.077482892 -0.989192682
16400201600.0 0.0629044605 -0.9903415201
16450201300.0 0.0477926554 -0.9912253158
16500201000.0 0.0310225346 -0.9920191268
16550200700.0 0.015570427 -0.9925045161
16600200400.0 -0.0003992017 -0.9926604912
16650200100.0 -0.0164982465 -0.9924750454
16700199800.0 -0.0329301794 -0.9922082034
16750199500.0 -0.0517439782 -0.9911809523
16800199200.0 -0.0680183245 -0.9905365952
16850198900.0 -0.0831003854 -0.9890748256
16900198600.0 -0.0962412008 -0.9885128367
16950198300.0 -0.1099047213 -0.9873330818
17000198000.0 -0.1229975035 -0.9859700814
17050197700.0 -0.1355880124 -0.9841884218
17100197400.0 -0.1486615199 -0.9817136628
17150197100.0 -0.1606801919 -0.9799168017
17200196800.0 -0.1744264999 -0.9778091849
17250196500.0 -0.1869326651 -0.9752078325
17300196200.0 -0.1991846696 -0.9730049292
17350195900.0 -0.2109885757 -0.9707570266
17400195600.0 -0.222842221 -0.968336139
17450195300.0 -0.2362392571 -0.9654993192
17500195000.0 -0.2496751017 -0.9620208334
17550194700.0 -0.263628494 -0.9584854598
17600194400.0 -0.277164836 -0.9542393406
17650194100.0 -0.2908407005 -0.9503499466
17700193800.0 -0.3042925654 -0.9461211167
17750193500.0 -0.3185790877 -0.9416331064
17800193200.0 -0.3329609178 -0.9359440179
17850192900.0 -0.3478842228 -0.9307060638
17900192600.0 -0.3627094401 -0.9249858607
17950192300.0 -0.378510035 -0.9174212288
18000192000.0 -0.393287897 -0.9105782851
18050191700.0 -0.4070475233 -0.9023818093
18100191400.0 -0.4213237112 -0.8947976532
18150191100.0 -0.4362584469 -0.8866903745
18200190800.0 -0.4531336678 -0.8775484491
18250190500.0 -0.4702183447 -0.8681190794
18300190200.0 -0.4857455402 -0.8589627945
18350189900.0 -0.5005192205 -0.8507431087
18400189600.0 -0.5149680076 -0.8421914648
18450189300.0 -0.5286356289 -0.8346128913
18500189000.0 -0.5414335438 -0.826526798
18550188700.0 -0.5539067087 -0.818683018
18600188400.0 -0.5659180879 -0.8121059163
18650188100.0 -0.5772736423 -0.805538813
18700187800.0 -0.5877423327 -0.7992942243
18750187500.0 -0.5982610411 -0.7925109844
18800187200.0 -0.6089508699 -0.7854948569
18850186900.0 -0.619120911 -0.7784569149
18900186600.0 -0.6294442017 -0.7709701174
18950186300.0 -0.6392910365 -0.7632563344
19000186000.0 -0.6467734029 -0.7571543107
19050185700.0 -0.6552865369 -0.7501108727
19100185400.0 -0.6660208889 -0.7412719944
19150185100.0 -0.676377479 -0.7330617315
19200184800.0 -0.6850428582 -0.724580313
19250184500.0 -0.6953740642 -0.7156796339
19300184200.0 -0.7073856795 -0.7062028668
19350183900.0 -0.7183797794 -0.6962675529
19400183600.0 -0.7275553619 -0.6856572229
19450183300.0 -0.7364177742 -0.6757640182
19500183000.0 -0.7453827409 -0.6660366221
19550182700.0 -0.7545133971 -0.6555767273
19600182400.0 -0.7650509785 -0.6433582345
19650182100.0 -0.77581128 -0.6311013943
19700181800.0 -0.7862119055 -0.6181845383
19750181500.0 -0.7969421937 -0.6039184434
19800181200.0 -0.8073435344 -0.5890323113
19850180900.0 -0.8168898785 -0.5736737776
19900180600.0 -0.8245111623 -0.5592956585
19950180300.0 -0.8337677864 -0.5428858238
20000180000.0 -0.8268260979 -0.5442511127
20050179700.0 -0.8347079179 -0.5317484223
20100179400.0 -0.8443201652 -0.5183144628
20150179100.0 -0.8519314583 -0.5062465002
20200178800.0 -0.8605122312 -0.4935094616
20250178500.0 -0.8694826275 -0.4793340868
20300178200.0 -0.8795274975 -0.4644294855
20350177900.0 -0.8886245063 -0.450071202
20400177600.0 -0.8972549047 -0.4357179889
20450177300.0 -0.9054379111 -0.421565877
20500177000.0 -0.9134781285 -0.4075954457
20550176700.0 -0.9213488506 -0.3939304956
20600176400.0 -0.9284329424 -0.3806732339
20650176100.0 -0.9348996683 -0.3690415757
20700175800.0 -0.9418450771 -0.3566676604
20750175500.0 -0.9488719571 -0.3443216282
20800175200.0 -0.9533286923 -0.3344864224
20850174900.0 -0.9575212258 -0.323371516
20900174600.0 -0.9628538301 -0.3110254043
20950174300.0 -0.9661583301 -0.2993947677
21000174000.0 -0.9704999834 -0.2883041739
21050173700.0 -0.9734839695 -0.2773463567
21100173400.0 -0.9776434904 -0.2659484516
21150173100.0 -0.9817717635 -0.2523282899
21200172800.0 -0.9850659376 -0.2390887591
21250172500.0 -0.9877020694 -0.2249211173
21300172200.0 -0.9904475013 -0.2112735125
21350171900.0 -0.9924237045 -0.1965650022
21400171600.0 -0.9940970308 -0.1818649096
21450171300.0 -0.9937982528 -0.1679617627
21500171000.0 -0.9934032922 -0.1530138678
21550170700.0 -0.9935560812 -0.1373749194
21600170400.0 -0.9927662367 -0.1209269798
21650170100.0 -0.9927937754 -0.1056527682
21700169800.0 -0.9902640701 -0.0916573203
21750169500.0 -0.9891560011 -0.0750776951
21800169200.0 -0.9884701349 -0.058760436
21850168900.0 -0.9863820296 -0.0416299545
21900168600.0 -0.9848704134 -0.0252647242
21950168300.0 -0.9839434412 -0.0103757673
22000168000.0 -0.9827483502 0.0053484435
22050167700.0 -0.9827665479 0.0191620418
22100167400.0 -0.9829976973 0.0346066421
22150167100.0 -0.9833652856 0.0500855539
22200166800.0 -0.9835372672 0.0662547563
22250166500.0 -0.9834725198 0.0833635209
22300166200.0 -0.9823351164 0.0994122743
22350165900.0 -0.9810707678 0.1174441794
22400165600.0 -0.9791115487 0.1323255226
22450165300.0 -0.9774585781 0.1481461674
22500165000.0 -0.9759980603 0.1609134769
22550164700.0 -0.9737934965 0.176661389
22600164400.0 -0.9724976449 0.1911903304
22650164100.0 -0.9705190035 0.2066110254
22700163800.0 -0.9678557524 0.2224507279
22750163500.0 -0.965213371 0.2381894748
22800163200.0 -0.9627314387 0.251217184
22850162900.0 -0.9601470905 0.2647286493
22900162600.0 -0.9587023524 0.2780398088
22950162300.0 -0.9574754481 0.2905733359
23000162000.0 -0.9568546406 0.3024515717
23050161700.0 -0.9549335944 0.3153177219
23100161400.0 -0.9526099114 0.3277859605
23150161100.0 -0.9495628014 0.3400861924
23200160800.0 -0.9464010698 0.35197108
23250160500.0 -0.9443899732 0.3637308654
23300160200.0 -0.9419945808 0.3761146658
23350159900.0 -0.9383015929 0.389158419
23400159600.0 -0.9336343587 0.4024480967
23450159300.0 -0.9279647612 0.4152807241
23500159000.0 -0.9240978629 0.427865217
23550158700.0 -0.9193093357 0.4414214021
23600158400.0 -0.9139737018 0.4544603603
23650158100.0 -0.9076748035 0.4684576967
23700157800.0 -0.8999949917 0.4823433368
23750157500.0 -0.8912559338 0.496279717
23800157200.0 -0.8826987899 0.5095174227
23850156900.0 -0.8734983006 0.5226042147
23900156600.0 -0.8644706611 0.5350261179
23950156300.0 -0.8544602809 0.5470677533
24000156000.0 -0.8460075521 0.5593348771
24050155700.0 -0.8356948686 0.5703530882
24100155400.0 -0.8261265685 0.582987322
24150155100.0 -0.8153942022 0.5945801971
24200154800.0 -0.8047179087 0.6055085265
24250154500.0 -0.7934365725 0.6177664664
24300154200.0 -0.7819308473 0.6287937198
24350153900.0 -0.7698083229 0.6398614389
24400153600.0 -0.7574046014 0.6499584047
24450153300.0 -0.745749038 0.6600780053
24500153000.0 -0.7345835789 0.6690986067
24550152700.0 -0.7230967106 0.6789666027
24600152400.0 -0.7118694108 0.6874604168
24650152100.0 -0.6997505367 0.696639099
