!Created with skrf (http://scikit-rf.org).
# Hz S RI R 50.0 
!freq ReS11 ImS11
300000.0 -0.9724578523 -0.1228379124
50299700.0 -0.9998428844 0.0150191582
100299400.0 -0.9978976909 0.0278144382
150299100.0 -1.002814329 0.0449612426
200298800.0 -0.999510842 0.0581138619
250298500.0 -0.9973956168 0.0716183112
300298200.0 -0.9858456916 0.0873020332
350297900.0 -0.9940243958 0.0981134199
400297600.0 -0.9929427772 0.114810711
450297300.0 -0.9910624074 0.1287039249
500297000.0 -0.989521724 0.1431788324
550296700.0 -0.9843328396 0.1556968594
600296400.0 -1.017340344 0.1892267228
650296100.0 -0.9823296383 0.1859206493
700295800.0 -0.9793179499 0.2000562456
750295500.0 -0.9762650697 0.213893806
800295200.0 -0.9729751185 0.2281835496
850294900.0 -0.969557633 0.2418609218
900294600.0 -0.9658082014 0.2556141904
950294300.0 -0.96218224 0.2692475705
1000294000.0 -0.9582296284 0.2831717642
1050293700.0 -0.9536973805 0.2969200512
1100293400.0 -0.949413515 0.31158274
1150293100.0 -0.9454572093 0.3233716897
1200292800.0 -0.940189124 0.3378568663
1250292500.0 -0.9346816943 0.3511638299
1300292200.0 -0.9290166888 0.3644475526
1350291900.0 -0.9234511203 0.378423888
1400291600.0 -0.9180193595 0.3916674
1450291300.0 -0.9124009457 0.4037876541
1500291000.0 -0.9063420852 0.4173670926
1550290700.0 -0.8997402518 0.4309647376
1600290400.0 -0.8934132642 0.4436262636
1650290100.0 -0.8868975357 0.4559671032
1700289800.0 -0.8798795175 0.469208287
1750289500.0 -0.8728497039 0.481732956
1800289200.0 -0.86548853 0.4945413614
1850288900.0 -0.8589709844 0.5059998696
1900288600.0 -0.8509992695 0.5188239463
1950288300.0 -0.8429425624 0.5314206728
2000288000.0 -0.8353278094 0.5428070214
2050287700.0 -0.8270913321 0.5552466156
2100287400.0 -0.8194533903 0.5667069242
2150287100.0 -0.81086184 0.5785892767
2200286800.0 -0.8028004227 0.5892458942
2250286500.0 -0.7941423048 0.6012963522
2300286200.0 -0.7852181878 0.6127652193
2350285900.0 -0.777031979 0.6234203103
2400285600.0 -0.7679999069 0.6343406805
2450285300.0 -0.7590835522 0.6452291139
2500285000.0 -0.749066996 0.6567728104
2550284700.0 -0.7400021488 0.667111441
2600284400.0 -0.7309669929 0.6771255066
2650284100.0 -0.7224051911 0.6874135087
2700283800.0 -0.7119158929 0.6975780273
2750283500.0 -0.7017738379 0.7083784901
2800283200.0 -0.691650444 0.7183325814
2850282900.0 -0.681105208 0.7281296792
2900282600.0 -0.6705808675 0.737720716
2950282300.0 -0.6601377672 0.747271827
3000282000.0 -0.6494184453 0.7566969012
3050281700.0 -0.6384331736 0.7661124793
3100281400.0 -0.6267981716 0.7752428757
3150281100.0 -0.615556176 0.7840951329
3200280800.0 -0.6041117439 0.7923417934
3250280500.0 -0.5929589106 0.8003578544
3300280200.0 -0.5813491137 0.8083656016
3350279900.0 -0.5693339991 0.8165962143
3400279600.0 -0.5566544806 0.8247511757
3450279300.0 -0.5455159309 0.8315522004
3500279000.0 -0.5335768587 0.838471882
3550278700.0 -0.5216755686 0.8457527889
3600278400.0 -0.5099011684 0.8525050906
3650278100.0 -0.4965603748 0.8600417607
3700277800.0 -0.4847221427 0.8667617642
3750277500.0 -0.4723764718 0.8732182128
3800277200.0 -0.4597658554 0.8796713977
3850276900.0 -0.4476658592 0.885597344
3900276600.0 -0.4367294206 0.8913954881
3950276300.0 -0.4246927505 0.8972705663
4000276000.0 -0.4129677293 0.9033332657
4050275700.0 -0.4003890178 0.9093171626
4100275400.0 -0.389213708 0.9146276169
4150275100.0 -0.3761863116 0.9204012523
4200274800.0 -0.3625491016 0.9262300103
4250274500.0 -0.3500012416 0.9314626298
4300274200.0 -0.3366670658 0.9370592976
4350273900.0 -0.3223265854 0.9419751602
4400273600.0 -0.3078376645 0.9472384103
4450273300.0 -0.2926879314 0.9523361221
4500273000.0 -0.279649001 0.9563026169
4550272700.0 -0.2659177427 0.9606006307
4600272400.0 -0.2509618588 0.9647350505
4650272100.0 -0.2395025153 0.9679243439
4700271800.0 -0.2265393284 0.9712727673
4750271500.0 -0.2149258324 0.9740808642
4800271200.0 -0.2027385977 0.9768817134
4850270900.0 -0.1889699099 0.9794382979
4900270600.0 -0.1752760793 0.9819251143
4950270300.0 -0.1603967002 0.9847144074
5000270000.0 -0.1460873937 0.9867474811
5050269700.0 -0.1326952219 0.9884604821
5100269400.0 -0.1184208241 0.9901259676
5150269100.0 -0.10462806 0.9921245207
5200268800.0 -0.0911578477 0.9926935201
5250268500.0 -0.0781330596 0.9939186204
5300268200.0 -0.0644763848 0.9946619372
5350267900.0 -0.0517448545 0.9950336034
5400267600.0 -0.0354832302 0.9961567814
5450267300.0 -0.0220570401 0.9967065477
5500267000.0 -0.0066058972 0.9969995661
5550266700.0 0.0081795606 0.9972418099
5600266400.0 0.023968638 0.9971518367
5650266100.0 0.0406564672 0.9967833863
5700265800.0 0.0548383235 0.9957561532
5750265500.0 0.0698059191 0.9953859602
5800265200.0 0.0831168928 0.9939976771
5850264900.0 0.0965379617 0.9931305783
5900264600.0 0.1129199684 0.991333827
5950264300.0 0.1246834357 0.989965854
6000264000.0 0.1377464836 0.9879337798
6050263700.0 0.1497698532 0.9867084547
6100263400.0 0.1621351685 0.9848695202
6150263100.0 0.1765469905 0.9826497038
6200262800.0 0.1863293352 0.9809918961
6250262500.0 0.198859356 0.9786377316
6300262200.0 0.2111482427 0.9760503407
6350261900.0 0.224142186 0.9733929384
6400261600.0 0.2380849849 0.9702566272
6450261300.0 0.2489369679 0.9675827826
6500261000.0 0.2622357413 0.9641838185
6550260700.0 0.2755723484 0.9602812983
6600260400.0 0.2887462564 0.9561228474
6650260100.0 0.3029789487 0.9516458567
6700259800.0 0.3149677938 0.9473015576
6750259500.0 0.3291356394 0.9426177615
6800259200.0 0.342148815 0.937238561
6850258900.0 0.3546783614 0.9319913835
6900258600.0 0.3673703101 0.9268378399
6950258300.0 0.3796390079 0.921580697
7000258000.0 0.3913373197 0.9163064149
7050257700.0 0.4034122303 0.9104347724
7100257400.0 0.4167993249 0.9041313271
7150257100.0 0.4273212861 0.8985935713
7200256800.0 0.4407099284 0.8923502475
7250256500.0 0.4530522128 0.8853464217
7300256200.0 0.4660358141 0.878768991
7350255900.0 0.4787723196 0.8716455816
7400255600.0 0.4935036976 0.8645296304
7450255300.0 0.5084854152 0.8549987211
7500255000.0 0.5213546252 0.8475087865
7550254700.0 0.535624606 0.8384770718
7600254400.0 0.5479971034 0.8302677502
7650254100.0 0.5590701137 0.8218964475
7700253800.0 0.5710435582 0.8138281257
7750253500.0 0.5818637316 0.8064851558
7800253200.0 0.592674807 0.7985814489
7850252900.0 0.6024511845 0.791355708
7900252600.0 0.6138950538 0.7824424329
7950252300.0 0.6222917295 0.7763139591
8000252000.0 0.6321557017 0.7687057159
8050251700.0 0.6426727373 0.7605592784
8100251400.0 0.6528453159 0.752518929
8150251100.0 0.6621561547 0.7440559731
8200250800.0 0.6722368803 0.735835952
8250250500.0 0.6807729866 0.7279966744
8300250200.0 0.6897049575 0.7197050007
8350249900.0 0.6990071644 0.7110757123
8400249600.0 0.7072314657 0.7027699284
8450249300.0 0.7160261165 0.6939362462
8500249000.0 0.7244870147 0.6854169801
8550248700.0 0.7328536674 0.6763988615
8600248400.0 0.7411298096 0.6666805539
8650248100.0 0.7486991574 0.6573322995
8700247800.0 0.7580823446 0.6463197327
8750247500.0 0.7662928188 0.6362238621
8800247200.0 0.7743041085 0.6257874
8850246900.0 0.783213379 0.6143784232
8900246600.0 0.7911812665 0.6029590129
8950246300.0 0.800996652 0.5901104431
9000246000.0 0.8093655044 0.5783640726
9050245700.0 0.8179866898 0.5659606327
9100245400.0 0.825991927 0.5539353973
9150245100.0 0.834877097 0.5407807481
9200244800.0 0.8442397978 0.5264695311
9250244500.0 0.8536837585 0.5115809022
9300244200.0 0.861636502 0.498170507
9350243900.0 0.869261251 0.4850651452
9400243600.0 0.8757308658 0.4731913551
9450243300.0 0.8813804914 0.4626887775
9500243000.0 0.8878571583 0.4511121888
9550242700.0 0.891658907 0.4436755989
9600242400.0 0.8960145206 0.4359123825
9650242100.0 0.9003177089 0.4289055403
9700241800.0 0.9051380877 0.4204359946
9750241500.0 0.9092405652 0.4129340851
9800241200.0 0.9140886013 0.4037360901
9850240900.0 0.9201438356 0.3917606202
9900240600.0 0.9257319438 0.3800126283
9950240300.0 0.9328914874 0.3632821434
10000240000.0 0.9382012029 0.3512302886
10050239700.0 0.9440964143 0.3349736744
10100239400.0 0.9491165115 0.3187941814
10150239100.0 0.9543715742 0.3028925283
10200238800.0 0.9584275546 0.2876139467
10250238500.0 0.961637596 0.2742420381
10300238200.0 0.9647083279 0.2601720681
10350237900.0 0.9676246938 0.2467068452
10400237600.0 0.9700849006 0.2333607133
10450237300.0 0.9727617424 0.2199885564
10500237000.0 0.975083752 0.2073788435
10550236700.0 0.9772647211 0.1930533982
10600236400.0 0.9794961793 0.1789579946
10650236100.0 0.9813319584 0.1646481146
10700235800.0 0.9838081405 0.1524713088
10750235500.0 0.986339187 0.1382105065
10800235200.0 0.987916871 0.1242961442
10850234900.0 0.9901403892 0.109016701
10900234600.0 0.9922524307 0.0944728441
10950234300.0 0.9937644596 0.0810602768
11000234000.0 0.9956299417 0.0654331558
11050233700.0 0.9973228834 0.0486534463
11100233400.0 0.9990376105 0.0308892961
11150233100.0 1.000159289 0.0138271196
11200232800.0 1.001024693 -0.0014388804
11250232500.0 1.002096728 -0.0192163667
11300232200.0 1.002315842 -0.0389778107
11350231900.0 1.001915172 -0.0544173982
11400231600.0 1.001533194 -0.0700205628
11450231300.0 1.000939961 -0.0850370227
11500231000.0 0.9997039691 -0.1017603401
11550230700.0 0.998697867 -0.1151638558
11600230400.0 0.9965275759 -0.12797924
11650230100.0 0.994968289 -0.1400477012
11700229800.0 0.9925865468 -0.1548096833
11750229500.0 0.9905328011 -0.1683931097
11800229200.0 0.9875354421 -0.1821095891
11850228900.0 0.9836756864 -0.193703816
11900228600.0 0.9799879019 -0.2033879938
11950228300.0 0.9767026449 -0.213121386
12000228000.0 0.9737112793 -0.2219121654
12050227700.0 0.9698508 -0.2354012548
12100227400.0 0.9660246903 -0.246363088
12150227100.0 0.9618485304 -0.2629903742
12200226800.0 0.9577546096 -0.273133804
12250226500.0 0.9537375475 -0.2861895356
12300226200.0 0.9497017954 -0.2982998148
12350225900.0 0.9445712784 -0.3126004003
12400225600.0 0.9400507656 -0.324399666
12450225300.0 0.935949426 -0.3372747886
12500225000.0 0.9302905428 -0.3519944651
12550224700.0 0.9247530075 -0.3655360169
12600224400.0 0.9199082564 -0.3785029657
12650224100.0 0.9141908531 -0.3926122066
12700223800.0 0.9088952195 -0.4054125763
12750223500.0 0.9032970355 -0.4185526666
12800223200.0 0.8980076705 -0.4310179197
12850222900.0 0.8929008 -0.4430829029
12900222600.0 0.8869504512 -0.4554586439
12950222300.0 0.8814430457 -0.4675479458
13000222000.0 0.8751285739 -0.4792452288
13050221700.0 0.8684354689 -0.4928359349
13100221400.0 0.8613420155 -0.5043572988
13150221100.0 0.8548025661 -0.5165758498
13200220800.0 0.8477444042 -0.5280893548
13250220500.0 0.8404930285 -0.5402595969
13300220200.0 0.8328563078 -0.5513629256
13350219900.0 0.8247223026 -0.5631706802
13400219600.0 0.8162717745 -0.5751372557
13450219300.0 0.806984974 -0.5879930744
13500219000.0 0.7972816177 -0.6012439735
13550218700.0 0.7871118684 -0.6136782469
13600218400.0 0.7774413364 -0.6252066707
13650218100.0 0.7677676391 -0.6367278266
13700217800.0 0.757811619 -0.6475421491
13750217500.0 0.7469926911 -0.6592711295
13800217200.0 0.7368813333 -0.668980192
13850216900.0 0.7254867101 -0.6812951966
13900216600.0 0.715951177 -0.6906074333
13950216300.0 0.7054490541 -0.6998063221
14000216000.0 0.6949932077 -0.7093721114
14050215700.0 0.6858259326 -0.7177276434
14100215400.0 0.6765118744 -0.7266371784
14150215100.0 0.6674460389 -0.7354638097
14200214800.0 0.6578606828 -0.7440567894
14250214500.0 0.647406191 -0.7535449962
14300214200.0 0.6369611001 -0.7630809137
14350213900.0 0.625987096 -0.7728036549
14400213600.0 0.613925718 -0.7826238477
14450213300.0 0.6008720295 -0.7924282089
14500213000.0 0.5881882353 -0.8022827171
14550212700.0 0.575408931 -0.812232266
14600212400.0 0.5632563273 -0.8206462724
14650212100.0 0.5510428993 -0.8295507967
14700211800.0 0.5369007876 -0.8387170061
14750211500.0 0.5247959686 -0.8470934911
14800211200.0 0.5124326881 -0.8555071596
14850210900.0 0.4998264493 -0.8631164034
14900210600.0 0.4864696468 -0.8710853521
14950210300.0 0.4732896726 -0.8786896951
15000210000.0 0.4606770616 -0.8853797505
15050209700.0 0.4481407851 -0.8915708054
15100209400.0 0.4355007392 -0.8979385356
15150209100.0 0.4237782068 -0.902682328
15200208800.0 0.4105407878 -0.9079535689
15250208500.0 0.3998685541 -0.9122928825
15300208200.0 0.3873851133 -0.9167777421
15350207900.0 0.3745316393 -0.9229867457
15400207600.0 0.3593991888 -0.9271457966
15450207300.0 0.3448239927 -0.9329308299
15500207000.0 0.3300858255 -0.9368541825
15550206700.0 0.3158269856 -0.942320029
15600206400.0 0.2991910524 -0.9470780493
15650206100.0 0.2837218582 -0.9505523551
15700205800.0 0.2701955621 -0.9543055666
15750205500.0 0.2560855387 -0.9580108913
15800205200.0 0.2420267467 -0.9613028774
15850204900.0 0.227755852 -0.964766328
15900204600.0 0.2126098554 -0.9684522374
15950204300.0 0.1985956647 -0.971578427
16000204000.0 0.1842735828 -0.9741639897
16050203700.0 0.1686755948 -0.9772186338
16100203400.0 0.1538227996 -0.9795149837
16150203100.0 0.1390856282 -0.9823572355
16200202800.0 0.125231266 -0.9839110582
16250202500.0 0.1106243034 -0.9859905322
16300202200.0 0.0948810905 -0.9873735707
16350201900.0 0.0799275021 -0.9890323323
16400201600.0 0.0652062185 -0.9901758371
16450201300.0 0.0496427855 -0.9914129175
16500201000.0 0.0326022968 -0.9922302204
16550200700.0 0.0164828161 -0.9924930052
16600200400.0 0.0003836287 -0.9927580734
16650200100.0 -0.015515924 -0.992872167
16700199800.0 -0.0321332183 -0.9923704107
16750199500.0 -0.0511551578 -0.9918839442
16800199200.0 -0.0668978893 -0.9907168653
16850198900.0 -0.0829209653 -0.9894857571
16900198600.0 -0.0963267951 -0.9885728556
16950198300.0 -0.1105662039 -0.9882931054
17000198000.0 -0.1241071515 -0.9852687814
17050197700.0 -0.1362807888 -0.9839990225
17100197400.0 -0.1489706101 -0.9816379867
17150197100.0 -0.161778821 -0.9799369206
17200196800.0 -0.1743965803 -0.9777321017
17250196500.0 -0.1872345612 -0.9755007435
17300196200.0 -0.1995528798 -0.9731168872
17350195900.0 -0.2113796007 -0.970691816
17400195600.0 -0.2233256958 -0.9681861048
17450195300.0 -0.2363947462 -0.9652014422
17500195000.0 -0.2495067635 -0.9619496795
17550194700.0 -0.2630812063 -0.9584839815
17600194400.0 -0.2770111261 -0.9544807009
17650194100.0 -0.2907148462 -0.9503784711
17700193800.0 -0.3034071837 -0.9463411092
17750193500.0 -0.3179466812 -0.9420250111
17800193200.0 -0.3321472977 -0.9364087907
17850192900.0 -0.3469564433 -0.9313451906
17900192600.0 -0.3623637888 -0.9250272885
17950192300.0 -0.3776102255 -0.9179169812
18000192000.0 -0.3920925486 -0.9107647958
18050191700.0 -0.4060112201 -0.9026936142
18100191400.0 -0.4201416077 -0.8950553696
18150191100.0 -0.4349488438 -0.8870462262
18200190800.0 -0.4519383659 -0.8778081349
18250190500.0 -0.4688668046 -0.8681991506
18300190200.0 -0.484646 -0.8594513299
18350189900.0 -0.4995228056 -0.8513261997
18400189600.0 -0.5139750726 -0.8426096474
18450189300.0 -0.5276928534 -0.8346728854
18500189000.0 -0.5413698405 -0.8265288049
18550188700.0 -0.5536895995 -0.8192448188
18600188400.0 -0.5659138804 -0.8122085239
18650188100.0 -0.5769026497 -0.8054711283
18700187800.0 -0.5881281172 -0.798800239
18750187500.0 -0.5988039433 -0.7919537335
18800187200.0 -0.6095781625 -0.7853703537
18850186900.0 -0.6197929856 -0.7782223039
18900186600.0 -0.6300284113 -0.7709762212
18950186300.0 -0.6399141817 -0.7632055017
19000186000.0 -0.6473579404 -0.7568352099
19050185700.0 -0.6568440535 -0.7500324246
19100185400.0 -0.6669655236 -0.741407078
19150185100.0 -0.676952471 -0.7334341207
19200184800.0 -0.6860889348 -0.7249641908
19250184500.0 -0.6966522267 -0.715251339
19300184200.0 -0.7076079531 -0.7065282051
19350183900.0 -0.7188545411 -0.6970861001
19400183600.0 -0.728932971 -0.6866846358
19450183300.0 -0.7370012058 -0.6769454958
19500183000.0 -0.7453794101 -0.6665129352
19550182700.0 -0.7551849564 -0.655406658
19600182400.0 -0.7655787862 -0.6437940596
19650182100.0 -0.7763399909 -0.6319415633
19700181800.0 -0.7867056513 -0.6185910728
19750181500.0 -0.7970743808 -0.604456515
19800181200.0 -0.8072520948 -0.5895841828
19850180900.0 -0.8167126654 -0.5741750647
19900180600.0 -0.8246076868 -0.5594888389
19950180300.0 -0.8337729059 -0.5434114665
20000180000.0 -0.8231910449 -0.5469938057
20050179700.0 -0.832030933 -0.534950872
20100179400.0 -0.8398032417 -0.5212337911
20150179100.0 -0.8479748877 -0.5096310589
20200178800.0 -0.8561494253 -0.497940582
20250178500.0 -0.8653644176 -0.4847952516
20300178200.0 -0.875694962 -0.4717375409
20350177900.0 -0.8846099318 -0.4576747608
20400177600.0 -0.8935562228 -0.4435741835
20450177300.0 -0.9022041401 -0.4293118506
20500177000.0 -0.9103426948 -0.415211354
20550176700.0 -0.9182719401 -0.4015906858
20600176400.0 -0.9250208538 -0.3886967824
20650176100.0 -0.9318721412 -0.3766713228
20700175800.0 -0.9384816611 -0.36438974
20750175500.0 -0.9451888221 -0.3529120805
20800175200.0 -0.9487768893 -0.3422460392
20850174900.0 -0.9535755256 -0.3309762387
20900174600.0 -0.9584438519 -0.3202827849
20950174300.0 -0.962000434 -0.3096788888
21000174000.0 -0.9641909837 -0.2989675885
21050173700.0 -0.9658069751 -0.2892413273
21100173400.0 -0.9693243775 -0.2787222292
21150173100.0 -0.9729456348 -0.2660615456
21200172800.0 -0.9770248464 -0.25327748
21250172500.0 -0.9806369304 -0.2390535839
21300172200.0 -0.9843693704 -0.2254157883
21350171900.0 -0.9863765992 -0.2108882134
21400171600.0 -0.9882958146 -0.1967062551
21450171300.0 -0.9886979146 -0.182643422
21500171000.0 -0.9889900877 -0.1672222877
21550170700.0 -0.9899525416 -0.1532681861
21600170400.0 -0.9907720429 -0.1368484536
21650170100.0 -0.990959812 -0.1213410549
21700169800.0 -0.9899141762 -0.1062034821
21750169500.0 -0.9901913972 -0.0899889251
21800169200.0 -0.9898962281 -0.0731797838
21850168900.0 -0.9894391828 -0.0559824236
21900168600.0 -0.9892720068 -0.0409556736
21950168300.0 -0.988737409 -0.025154591
22000168000.0 -0.988941499 -0.0095681434
22050167700.0 -0.9895692993 0.0046127452
22100167400.0 -0.9901469379 0.0203532013
22150167100.0 -0.9908920308 0.036506854
22200166800.0 -0.9910737439 0.0528922595
22250166500.0 -0.9906622427 0.0700263844
22300166200.0 -0.9899100721 0.0861081614
22350165900.0 -0.9900735647 0.1024895687
22400165600.0 -0.9870542961 0.118531484
22450165300.0 -0.9860495898 0.1340765572
22500165000.0 -0.983555881 0.1478153581
22550164700.0 -0.9826547262 0.1642973796
22600164400.0 -0.9803145912 0.1801087337
22650164100.0 -0.9777092555 0.1965514635
22700163800.0 -0.9741158575 0.2119981676
22750163500.0 -0.9716950525 0.2267884335
22800163200.0 -0.9693757338 0.2393146735
22850162900.0 -0.9661364818 0.2534055118
22900162600.0 -0.9641417397 0.2672444577
22950162300.0 -0.9625942659 0.2808343944
23000162000.0 -0.9611900971 0.2934647781
23050161700.0 -0.9584504217 0.3068319088
23100161400.0 -0.9557105324 0.3205236244
23150161100.0 -0.9520743383 0.3335091498
23200160800.0 -0.9492896953 0.3465965362
23250160500.0 -0.9467217633 0.3581692626
23300160200.0 -0.9443995933 0.3713007374
23350159900.0 -0.9392443543 0.3849432502
23400159600.0 -0.9348286791 0.3986750901
23450159300.0 -0.9295245277 0.412415618
23500159000.0 -0.9247909193 0.4259446655
23550158700.0 -0.9202737458 0.4398459756
23600158400.0 -0.9141657551 0.4540074557
23650158100.0 -0.9067990637 0.4684534062
23700157800.0 -0.8985304118 0.4828926317
23750157500.0 -0.8890840222 0.4967104938
23800157200.0 -0.8793117615 0.5106022699
23850156900.0 -0.8698525174 0.5239263641
23900156600.0 -0.8598083184 0.536193208
23950156300.0 -0.8502605727 0.5480342383
24000156000.0 -0.8406795246 0.5612742748
24050155700.0 -0.8302601367 0.5735253105
24100155400.0 -0.820407633 0.5859247632
24150155100.0 -0.8092520334 0.5975329758
24200154800.0 -0.7979908296 0.6095811706
24250154500.0 -0.7868435066 0.6218525571
24300154200.0 -0.7753117788 0.6338921398
24350153900.0 -0.7634176343 0.6445827771
24400153600.0 -0.7507424284 0.655437626
24450153300.0 -0.7389118072 0.6651466504
24500153000.0 -0.7271645904 0.6756338593
24550152700.0 -0.7149044402 0.6858346619
24600152400.0 -0.703726542 0.695068582
24650152100.0 -0.691421915 0.7041396881
