!Created with skrf (http://scikit-rf.org).
# Hz S RI R 50.0 
!freq ReS11 ImS11
300000.0 -0.978155989 -0.1073879922
50299700.0 -0.9999818611 0.0159684901
100299400.0 -0.9981042528 0.0288181791
150299100.0 -1.002765228 0.0456485803
200298800.0 -0.9996544033 0.0591432291
250298500.0 -0.9974501785 0.0726174566
300298200.0 -0.9860264298 0.0883002184
350297900.0 -0.9940211349 0.0991180051
400297600.0 -0.993115151 0.1158125673
450297300.0 -0.9909043426 0.1296082718
500297000.0 -0.9895543532 0.1443824893
550296700.0 -0.9842857642 0.1567794989
600296400.0 -1.017103592 0.1902914446
650296100.0 -0.9821883598 0.1869068917
700295800.0 -0.9791772289 0.2011276604
750295500.0 -0.9763095608 0.2150989181
800295200.0 -0.9728627198 0.2291722319
850294900.0 -0.9695793982 0.2430069382
900294600.0 -0.9656466006 0.2568261411
950294300.0 -0.9619104849 0.2705759172
1000294000.0 -0.9580186729 0.2843359401
1050293700.0 -0.9535310422 0.298352025
1100293400.0 -0.9489901901 0.3126512519
1150293100.0 -0.9451907131 0.3246018059
1200292800.0 -0.9397736327 0.338820495
1250292500.0 -0.93439665 0.3523201497
1300292200.0 -0.9288643785 0.3656972236
1350291900.0 -0.9232127748 0.3796629287
1400291600.0 -0.9176741482 0.3925836131
1450291300.0 -0.9122789513 0.405114726
1500291000.0 -0.9061439919 0.4184166972
1550290700.0 -0.8994246917 0.4317255389
1600290400.0 -0.8932095414 0.4444913544
1650290100.0 -0.8864876253 0.4567888467
1700289800.0 -0.8796164188 0.470184912
1750289500.0 -0.8726221816 0.4825791482
1800289200.0 -0.8653778903 0.4954586112
1850288900.0 -0.8584161751 0.5067568023
1900288600.0 -0.8505976718 0.519741712
1950288300.0 -0.8425527968 0.5323370739
2000288000.0 -0.8349683803 0.543559858
2050287700.0 -0.8268621147 0.5559279974
2100287400.0 -0.8187728987 0.5678499721
2150287100.0 -0.8101348457 0.5797470467
2200286800.0 -0.8026291463 0.5899672192
2250286500.0 -0.7935878243 0.6021676989
2300286200.0 -0.7846509233 0.613712742
2350285900.0 -0.7758933808 0.6249226756
2400285600.0 -0.7669012488 0.6357647544
2450285300.0 -0.7581707173 0.6463228096
2500285000.0 -0.7486087365 0.65718638
2550284700.0 -0.7397275021 0.6675762302
2600284400.0 -0.7300548465 0.6779601636
2650284100.0 -0.7209800239 0.6885082243
2700283800.0 -0.7106375326 0.69898898
2750283500.0 -0.7002920166 0.7093224056
2800283200.0 -0.690358247 0.7192744996
2850282900.0 -0.6802053614 0.729312715
2900282600.0 -0.6700220312 0.738735462
2950282300.0 -0.6598005101 0.7479840391
3000282000.0 -0.6490500572 0.7572431581
3050281700.0 -0.6378311162 0.7665539435
3100281400.0 -0.6260033988 0.7762095811
3150281100.0 -0.6141875496 0.7853760903
3200280800.0 -0.6025307842 0.7938689077
3250280500.0 -0.5917590486 0.8014605157
3300280200.0 -0.5806248531 0.8094690292
3350279900.0 -0.5691185026 0.8167840966
3400279600.0 -0.5569831559 0.8246549106
3450279300.0 -0.5460489419 0.8318523298
3500279000.0 -0.5334914947 0.8386257429
3550278700.0 -0.5214366612 0.846169711
3600278400.0 -0.5091318762 0.8532210211
3650278100.0 -0.4958745194 0.8609548098
3700277800.0 -0.4838198868 0.8672733296
3750277500.0 -0.4715489201 0.873361211
3800277200.0 -0.4587173196 0.8804880449
3850276900.0 -0.4470263604 0.8860324975
3900276600.0 -0.4360675657 0.8919232361
3950276300.0 -0.4234706023 0.8981828543
4000276000.0 -0.4114652822 0.904138584
4050275700.0 -0.3984090873 0.9098502288
4100275400.0 -0.3873173515 0.9154498244
4150275100.0 -0.3747920433 0.920924495
4200274800.0 -0.3616908635 0.9266666201
4250274500.0 -0.3492034015 0.9314773574
4300274200.0 -0.3364473548 0.9368198963
4350273900.0 -0.3224363806 0.9422314578
4400273600.0 -0.3076414239 0.9475726925
4450273300.0 -0.2922421797 0.9527428196
4500273000.0 -0.2786152573 0.9568602657
4550272700.0 -0.264454315 0.9611321699
4600272400.0 -0.2490092342 0.9653379192
4650272100.0 -0.23723766 0.9685384276
4700271800.0 -0.2237357932 0.9718459485
4750271500.0 -0.2123193184 0.9746534372
4800271200.0 -0.1996567728 0.9774987375
4850270900.0 -0.1859329571 0.9802335531
4900270600.0 -0.1720578549 0.9827176356
4950270300.0 -0.157716467 0.9851329333
5000270000.0 -0.1435763618 0.9871673859
5050269700.0 -0.1301474805 0.9889374162
5100269400.0 -0.1164926979 0.9907864886
5150269100.0 -0.1034996703 0.992276513
5200268800.0 -0.0899227993 0.9932488542
5250268500.0 -0.0771414106 0.9937089153
5300268200.0 -0.0637496816 0.9945626545
5350267900.0 -0.0516702396 0.9955379044
5400267600.0 -0.0354380853 0.9962593743
5450267300.0 -0.0222924896 0.996757904
5500267000.0 -0.0071113355 0.9972945618
5550266700.0 0.0076811329 0.9972313165
5600266400.0 0.0233519667 0.9973066849
5650266100.0 0.0399258648 0.9969028846
5700265800.0 0.0546072083 0.996349964
5750265500.0 0.0692054208 0.9952854405
5800265200.0 0.0832420547 0.9941034407
5850264900.0 0.0969950209 0.9932600113
5900264600.0 0.1133309027 0.9914911916
5950264300.0 0.1254250659 0.9898867403
6000264000.0 0.1397072569 0.9877624617
6050263700.0 0.1521501964 0.9864366668
6100263400.0 0.1643796477 0.9846560496
6150263100.0 0.1789376913 0.9823176249
6200262800.0 0.1893723805 0.9803241397
6250262500.0 0.2022652569 0.978090497
6300262200.0 0.2151346881 0.9751387184
6350261900.0 0.2281381971 0.9722826374
6400261600.0 0.2420183172 0.9689701189
6450261300.0 0.253325719 0.9662621191
6500261000.0 0.2660852229 0.9626982475
6550260700.0 0.2792923126 0.9588160105
6600260400.0 0.2924140769 0.954649377
6650260100.0 0.3065997439 0.9506953206
6700259800.0 0.3183875827 0.946307762
6750259500.0 0.3317360188 0.9408949581
6800259200.0 0.3451785022 0.9362052229
6850258900.0 0.3572277518 0.9313645986
6900258600.0 0.3693460278 0.926260375
6950258300.0 0.3816198028 0.9208868135
7000258000.0 0.3938619205 0.9154306574
7050257700.0 0.4060535879 0.9094530828
7100257400.0 0.4187319565 0.9031951305
7150257100.0 0.429191318 0.8978734364
7200256800.0 0.4420556449 0.8913735176
7250256500.0 0.4539731803 0.8852374149
7300256200.0 0.4665352506 0.8781229638
7350255900.0 0.4796496368 0.8716666175
7400255600.0 0.4924547804 0.8642150659
7450255300.0 0.5078625388 0.8552568723
7500255000.0 0.5195866297 0.848366925
7550254700.0 0.5332072989 0.8396680747
7600254400.0 0.5454407126 0.8310096803
7650254100.0 0.55726672 0.8234473838
7700253800.0 0.5693024189 0.8153230228
7750253500.0 0.5804982973 0.8073725197
7800253200.0 0.5910994726 0.7996458594
7850252900.0 0.6007982452 0.7927990585
7900252600.0 0.6126072293 0.7839797654
7950252300.0 0.6214013706 0.7775269169
8000252000.0 0.6316815399 0.7695592
8050251700.0 0.6421681292 0.761481805
8100251400.0 0.6524648573 0.7532269754
8150251100.0 0.6622702033 0.7444170998
8200250800.0 0.6719672276 0.7364013728
8250250500.0 0.6809108012 0.7285569153
8300250200.0 0.6899785981 0.7198906711
8350249900.0 0.6988368573 0.7112913856
8400249600.0 0.707338191 0.7031718565
8450249300.0 0.7163869504 0.6938993713
8500249000.0 0.7247847727 0.6853143515
8550248700.0 0.7333169175 0.6760287962
8600248400.0 0.7415477533 0.6666641406
8650248100.0 0.7493509546 0.6573191098
8700247800.0 0.7591114973 0.6461199072
8750247500.0 0.767121387 0.6359416941
8800247200.0 0.7750844402 0.6255207262
8850246900.0 0.7837968039 0.6143816444
8900246600.0 0.7925082472 0.6030113191
8950246300.0 0.8024444928 0.5897676782
9000246000.0 0.8115092903 0.5773291494
9050245700.0 0.8207941119 0.5641781798
9100245400.0 0.8289922761 0.5518019699
9150245100.0 0.838292778 0.5380291778
9200244800.0 0.8483929211 0.5227820161
9250244500.0 0.8576556025 0.5070146265
9300244200.0 0.8661502617 0.4924426989
9350243900.0 0.8739094801 0.4785409743
9400243600.0 0.8804914762 0.4662619281
9450243300.0 0.8864347681 0.4544126198
9500243000.0 0.8927170547 0.4419741681
9550242700.0 0.8962645359 0.4343455534
9600242400.0 0.9002108832 0.4269206869
9650242100.0 0.9037034715 0.4204928248
9700241800.0 0.9083930533 0.4120594115
9750241500.0 0.9120551126 0.4048306075
9800241200.0 0.9171434659 0.3953795428
9850240900.0 0.9227101486 0.3835083541
9900240600.0 0.9284051752 0.3722484715
9950240300.0 0.9350178304 0.3558043794
10000240000.0 0.939462486 0.3446926096
10050239700.0 0.94510523 0.3291372681
10100239400.0 0.94999551 0.3136919976
10150239100.0 0.9545285053 0.2990504527
10200238800.0 0.9585845603 0.2840635631
10250238500.0 0.9618772613 0.270802957
10300238200.0 0.964972857 0.2569348546
10350237900.0 0.9675705238 0.2439457526
10400237600.0 0.9699459075 0.2308699227
10450237300.0 0.9724620875 0.21743204
10500237000.0 0.9752195949 0.2047744387
10550236700.0 0.9776072229 0.1908176091
10600236400.0 0.9790840154 0.1778857475
10650236100.0 0.9813412861 0.163203927
10700235800.0 0.9839272861 0.1508099834
10750235500.0 0.9858567451 0.1375959551
10800235200.0 0.9880201287 0.1234050695
10850234900.0 0.9897375796 0.1089953327
10900234600.0 0.9916893839 0.0943506672
10950234300.0 0.9936288847 0.0810988949
11000234000.0 0.9952472612 0.0659223512
11050233700.0 0.997064023 0.0496921786
11100233400.0 0.9986066762 0.0321633399
11150233100.0 0.9993328705 0.0162177188
11200232800.0 1.000379551 0.0007912858
11250232500.0 1.001069876 -0.0160311267
11300232200.0 1.001704697 -0.0334709446
11350231900.0 1.001743402 -0.0493450074
11400231600.0 1.001449081 -0.0650033831
11450231300.0 1.001190858 -0.0810139351
11500231000.0 0.9993039017 -0.0970650624
11550230700.0 0.9981931282 -0.1111045606
11600230400.0 0.9966911663 -0.1236830672
11650230100.0 0.9945853427 -0.1342437771
11700229800.0 0.9926379604 -0.1498296472
11750229500.0 0.9901973731 -0.1641386058
11800229200.0 0.9874822637 -0.1782741322
11850228900.0 0.9841765648 -0.1903118038
11900228600.0 0.9803149178 -0.2001902577
11950228300.0 0.977659468 -0.2103384697
12000228000.0 0.9743907692 -0.2198188173
12050227700.0 0.9708097192 -0.2321971608
12100227400.0 0.9674837596 -0.2432339097
12150227100.0 0.9624395481 -0.2596009658
12200226800.0 0.9588862567 -0.270100335
12250226500.0 0.9552342613 -0.2834931834
12300226200.0 0.9511031447 -0.2957423217
12350225900.0 0.9459759918 -0.3096203203
12400225600.0 0.9415682863 -0.3220296666
12450225300.0 0.9377082305 -0.3346731354
12500225000.0 0.9311980924 -0.3498038975
12550224700.0 0.9264371841 -0.3630663599
12600224400.0 0.9217541237 -0.3761666433
12650224100.0 0.9159011829 -0.3903153894
12700223800.0 0.9106488674 -0.4030956466
12750223500.0 0.9054509264 -0.415817636
12800223200.0 0.8997766912 -0.4285320532
12850222900.0 0.894459965 -0.4407495785
12900222600.0 0.8890856721 -0.4527171964
12950222300.0 0.882674335 -0.4653501337
13000222000.0 0.876605729 -0.4771897619
13050221700.0 0.8696956223 -0.4897111389
13100221400.0 0.8628809478 -0.5014819793
13150221100.0 0.8563105557 -0.5139134822
13200220800.0 0.8491906607 -0.5255107868
13250220500.0 0.8416642627 -0.5377432012
13300220200.0 0.834301495 -0.5488155952
13350219900.0 0.8262399206 -0.5606514447
13400219600.0 0.8175305437 -0.5731956047
13450219300.0 0.8081789334 -0.5867298836
13500219000.0 0.7978158899 -0.6004395835
13550218700.0 0.7875741338 -0.6137496291
13600218400.0 0.7775192202 -0.6256041492
13650218100.0 0.7679164551 -0.6369551205
13700217800.0 0.7569958372 -0.6490177738
13750217500.0 0.7461418949 -0.6601077666
13800217200.0 0.7354205155 -0.6724093098
13850216900.0 0.7245963982 -0.6837025082
13900216600.0 0.7142679242 -0.6927577708
13950216300.0 0.7029470711 -0.7028537863
14000216000.0 0.6933706328 -0.7115978626
14050215700.0 0.6842073172 -0.7208808816
14100215400.0 0.6740913642 -0.7294343442
14150215100.0 0.6651775772 -0.7378936863
14200214800.0 0.6557903292 -0.7464368605
14250214500.0 0.6455676132 -0.7557169505
14300214200.0 0.6352145312 -0.7649915218
14350213900.0 0.6241283498 -0.7744141996
14400213600.0 0.6123344194 -0.7842684124
14450213300.0 0.5992533345 -0.794807094
14500213000.0 0.5858326716 -0.8041879347
14550212700.0 0.573939784 -0.8129972878
14600212400.0 0.561610097 -0.821964763
14650212100.0 0.548278758 -0.8308385733
14700211800.0 0.5340022289 -0.8407730317
14750211500.0 0.5224493201 -0.8486131393
14800211200.0 0.5102178087 -0.8565646131
14850210900.0 0.497901353 -0.864033407
14900210600.0 0.4847209694 -0.8720123827
14950210300.0 0.4711009369 -0.8795445385
15000210000.0 0.4582493419 -0.8863277121
15050209700.0 0.4459362987 -0.8925221236
15100209400.0 0.4330595706 -0.8984365527
15150209100.0 0.4206909843 -0.9041296806
15200208800.0 0.407683054 -0.9097911453
15250208500.0 0.3964110079 -0.9139558852
15300208200.0 0.384574909 -0.9189815604
15350207900.0 0.3711969082 -0.9236355231
15400207600.0 0.3553056038 -0.9291210758
15450207300.0 0.3410359922 -0.9339962881
15500207000.0 0.3269523327 -0.9390367986
15550206700.0 0.31173103 -0.9437414092
15600206400.0 0.2961552299 -0.9482720347
15650206100.0 0.2801294842 -0.9526036146
15700205800.0 0.2662184517 -0.9557265665
15750205500.0 0.2516832038 -0.9592059817
15800205200.0 0.2374171149 -0.9628881384
15850204900.0 0.2228215521 -0.9660691816
15900204600.0 0.2079119224 -0.9696126452
15950204300.0 0.1940604687 -0.9724778281
16000204000.0 0.1798551299 -0.9754388792
16050203700.0 0.1651358754 -0.9781560006
16100203400.0 0.1507683707 -0.980646698
16150203100.0 0.1363865979 -0.9827285265
16200202800.0 0.1217050062 -0.9841154493
16250202500.0 0.1079791698 -0.9864736811
16300202200.0 0.092471347 -0.9883096052
16350201900.0 0.0777676492 -0.989058798
16400201600.0 0.0631375243 -0.9903026568
16450201300.0 0.0480447151 -0.9911554158
16500201000.0 0.0314518282 -0.9920163606
16550200700.0 0.0157733496 -0.9924821646
16600200400.0 8.68523e-05 -0.9926175173
16650200100.0 -0.0163910625 -0.9927815176
16700199800.0 -0.0329324789 -0.9924448039
16750199500.0 -0.0520040392 -0.991315257
16800199200.0 -0.0676312347 -0.9902935017
16850198900.0 -0.0827928309 -0.9895413529
16900198600.0 -0.0965146349 -0.9885131523
16950198300.0 -0.1101898875 -0.987244937
17000198000.0 -0.1227631684 -0.9853942685
17050197700.0 -0.135965689 -0.9836087079
17100197400.0 -0.1486651446 -0.981390983
17150197100.0 -0.1617496436 -0.9797585471
17200196800.0 -0.1740522098 -0.9773283031
17250196500.0 -0.1868512174 -0.9752123592
17300196200.0 -0.1991396893 -0.9728815284
17350195900.0 -0.211119742 -0.9705013204
17400195600.0 -0.2233842849 -0.9680836407
17450195300.0 -0.236566425 -0.9654190523
17500195000.0 -0.2497933112 -0.9620238686
17550194700.0 -0.2636091472 -0.9583146203
17600194400.0 -0.2775612319 -0.9543258501
17650194100.0 -0.2914694119 -0.9502154678
17700193800.0 -0.304275569 -0.9460917191
17750193500.0 -0.3187228288 -0.941458421
17800193200.0 -0.3331639079 -0.936212383
17850192900.0 -0.3480556281 -0.9309320129
17900192600.0 -0.3632893053 -0.9248233328
17950192300.0 -0.3785063902 -0.9176194309
18000192000.0 -0.3932904564 -0.9104361101
18050191700.0 -0.4071793711 -0.9024475309
18100191400.0 -0.4212263084 -0.8947055406
18150191100.0 -0.4361548623 -0.8867983249
18200190800.0 -0.4531228874 -0.8774581928
18250190500.0 -0.4700499367 -0.8679942416
18300190200.0 -0.485583593 -0.8588631922
18350189900.0 -0.5004974573 -0.8507872132
18400189600.0 -0.5146184641 -0.8425758837
18450189300.0 -0.5285795467 -0.8343973183
18500189000.0 -0.5414914344 -0.8264098701
18550188700.0 -0.5541510884 -0.8189489196
18600188400.0 -0.5659796069 -0.811748395
18650188100.0 -0.5771428649 -0.8052855175
18700187800.0 -0.5872336556 -0.7989505146
18750187500.0 -0.5983076754 -0.7921254912
18800187200.0 -0.6091087694 -0.7851362195
18850186900.0 -0.6194332624 -0.7779837902
18900186600.0 -0.6298562346 -0.7704725412
18950186300.0 -0.6398879701 -0.7625147645
19000186000.0 -0.6472707447 -0.7564335035
19050185700.0 -0.6562242816 -0.7497282637
19100185400.0 -0.6665375196 -0.7406123391
19150185100.0 -0.677354052 -0.7315943645
19200184800.0 -0.685839131 -0.7240448581
19250184500.0 -0.6967830609 -0.7153167277
19300184200.0 -0.7084383616 -0.7053378581
19350183900.0 -0.7191727439 -0.6953768133
19400183600.0 -0.7289683749 -0.6851878957
19450183300.0 -0.73707609 -0.6751136466
19500183000.0 -0.7456857019 -0.6647637652
19550182700.0 -0.7552057188 -0.6543635966
19600182400.0 -0.7658240481 -0.6429471555
19650182100.0 -0.7764559157 -0.6305784955
19700181800.0 -0.7875003969 -0.6176145174
19750181500.0 -0.7975238819 -0.6033474528
19800181200.0 -0.8077010963 -0.588562762
19850180900.0 -0.8173410914 -0.5731571628
19900180600.0 -0.8250016953 -0.5587993748
19950180300.0 -0.8341035843 -0.5424939316
20000180000.0 -0.8272230144 -0.5448165299
20050179700.0 -0.8354384339 -0.5316600083
20100179400.0 -0.8434469743 -0.518359695
20150179100.0 -0.8523198313 -0.505938116
20200178800.0 -0.8599575832 -0.4933447071
20250178500.0 -0.8704207061 -0.4794157553
20300178200.0 -0.8794533729 -0.4650131244
20350177900.0 -0.8885317628 -0.4502143761
20400177600.0 -0.8968821185 -0.4359416725
20450177300.0 -0.9056757415 -0.4214966383
20500177000.0 -0.9134659565 -0.4073528183
20550176700.0 -0.9215730211 -0.3938891542
20600176400.0 -0.9281455824 -0.3805577496
20650176100.0 -0.9347893592 -0.3677242061
20700175800.0 -0.9414518606 -0.3561990571
20750175500.0 -0.9486536199 -0.3446016718
20800175200.0 -0.9524559201 -0.333679023
20850174900.0 -0.9575256655 -0.3221128449
20900174600.0 -0.9629181567 -0.3110635796
20950174300.0 -0.9667422679 -0.2988272991
21000174000.0 -0.9704441428 -0.2871689207
21050173700.0 -0.972925477 -0.2767353533
21100173400.0 -0.9769540805 -0.2647127896
21150173100.0 -0.9817050722 -0.2517030946
21200172800.0 -0.985035606 -0.238458397
21250172500.0 -0.9877899037 -0.2242595411
21300172200.0 -0.9907503301 -0.2105528243
21350171900.0 -0.9925593777 -0.1956113981
21400171600.0 -0.9938626148 -0.1810737918
21450171300.0 -0.9941388523 -0.1666372685
21500171000.0 -0.9935657979 -0.1519666632
21550170700.0 -0.9927237699 -0.136070726
21600170400.0 -0.9932321687 -0.1204071031
21650170100.0 -0.9912166941 -0.1047270846
21700169800.0 -0.9899965868 -0.0907367682
21750169500.0 -0.9880601591 -0.0734403832
21800169200.0 -0.9883619536 -0.058089731
21850168900.0 -0.9868681801 -0.0400275846
21900168600.0 -0.9851483327 -0.0253539172
21950168300.0 -0.9839973534 -0.0093523614
22000168000.0 -0.9827874227 0.0056795818
22050167700.0 -0.9825001013 0.0202526159
22100167400.0 -0.9824176322 0.0352314231
22150167100.0 -0.9829010553 0.0507002159
22200166800.0 -0.9829858065 0.0672698948
22250166500.0 -0.9830533693 0.0840467823
22300166200.0 -0.9823207571 0.1008043211
22350165900.0 -0.9806586887 0.116786688
22400165600.0 -0.9788703576 0.1334379343
22450165300.0 -0.9765874382 0.1471266774
22500165000.0 -0.9756526271 0.160537613
22550164700.0 -0.9739520715 0.1766019884
22600164400.0 -0.9730258037 0.1918082656
22650164100.0 -0.970695136 0.2070339734
22700163800.0 -0.9672697288 0.222933639
22750163500.0 -0.9648391805 0.2378636147
22800163200.0 -0.9625505279 0.2516054128
22850162900.0 -0.9601054279 0.2648046639
22900162600.0 -0.9588834956 0.2781913775
22950162300.0 -0.9575109561 0.2909954201
23000162000.0 -0.9564338206 0.3030557016
23050161700.0 -0.9547014937 0.315344753
23100161400.0 -0.9521896242 0.3281400712
23150161100.0 -0.9499300081 0.3403441907
23200160800.0 -0.9464081113 0.3523152943
23250160500.0 -0.9439448484 0.3640287067
23300160200.0 -0.9408122106 0.3762723233
23350159900.0 -0.9381298987 0.3893344486
23400159600.0 -0.9323588516 0.4018347436
23450159300.0 -0.9279215429 0.4152667998
23500159000.0 -0.9229338077 0.4288281535
23550158700.0 -0.9193455434 0.4419953953
23600158400.0 -0.9134243813 0.4550161767
23650158100.0 -0.9071564892 0.4684430475
23700157800.0 -0.8994959926 0.482727903
23750157500.0 -0.8908202348 0.4964261797
23800157200.0 -0.8819132298 0.5098507277
23850156900.0 -0.8735179134 0.5221803389
23900156600.0 -0.8635571562 0.5354502036
23950156300.0 -0.8549644863 0.5473496532
24000156000.0 -0.8455123707 0.5591237925
24050155700.0 -0.8361301794 0.5716854066
24100155400.0 -0.8248491717 0.5829793547
24150155100.0 -0.8147689427 0.5953717078
24200154800.0 -0.8035075027 0.6060682975
24250154500.0 -0.7924897606 0.6176326191
24300154200.0 -0.7813752456 0.6292095395
24350153900.0 -0.7692231452 0.639536894
24400153600.0 -0.7568588881 0.6502070165
24450153300.0 -0.7451631571 0.6599875682
24500153000.0 -0.7336551498 0.6698229085
24550152700.0 -0.7224384194 0.6798369795
24600152400.0 -0.7103228558 0.6889096219
24650152100.0 -0.6991525632 0.6973019847
