!Created with skrf (http://scikit-rf.org).
# Hz S RI R 50.0 
!freq ReS11 ImS11
300000.0 -0.9743037804 -0.1194731883
50299700.0 -1.000077341 0.0153261586
100299400.0 -0.9980921738 0.0281079298
150299100.0 -1.002741853 0.0449613402
200298800.0 -0.9996561305 0.0584350924
250298500.0 -0.9974266652 0.071971671
300298200.0 -0.9860552745 0.0878714682
350297900.0 -0.994032394 0.0986503795
400297600.0 -0.9931190083 0.1151315204
450297300.0 -0.991131704 0.1290196848
500297000.0 -0.9896247636 0.1437372396
550296700.0 -0.9841740947 0.1563593409
600296400.0 -1.017211388 0.1895359588
650296100.0 -0.9823991104 0.1861795767
700295800.0 -0.9794062799 0.2000791831
750295500.0 -0.9763732968 0.2143229833
800295200.0 -0.9729546076 0.2285141629
850294900.0 -0.9697497141 0.2423803023
900294600.0 -0.9658053043 0.2560030862
950294300.0 -0.9621316595 0.2695312449
1000294000.0 -0.9581667004 0.2834854614
1050293700.0 -0.9538173175 0.2976124028
1100293400.0 -0.949349692 0.3118451452
1150293100.0 -0.9453101233 0.3237724248
1200292800.0 -0.9402179625 0.3382116188
1250292500.0 -0.9347188948 0.3514520922
1300292200.0 -0.9289306658 0.3647170224
1350291900.0 -0.923448015 0.3786630656
1400291600.0 -0.9180248246 0.3918619069
1450291300.0 -0.9123147714 0.4041993106
1500291000.0 -0.9062234876 0.4176466919
1550290700.0 -0.899599492 0.4310740062
1600290400.0 -0.8934884025 0.4438590874
1650290100.0 -0.8869726461 0.4561980601
1700289800.0 -0.8801069959 0.4695176132
1750289500.0 -0.8727312696 0.4818303778
1800289200.0 -0.865488314 0.494657628
1850288900.0 -0.8586378818 0.5061276406
1900288600.0 -0.8510983151 0.5190013535
1950288300.0 -0.8430108742 0.5315118913
2000288000.0 -0.8354574133 0.5429533268
2050287700.0 -0.8272749723 0.555465165
2100287400.0 -0.8191589017 0.5670187529
2150287100.0 -0.8107252529 0.5791346679
2200286800.0 -0.8030298019 0.5892904287
2250286500.0 -0.7941389462 0.6014635606
2300286200.0 -0.7852428421 0.6131028739
2350285900.0 -0.7765782168 0.6238489977
2400285600.0 -0.7676493439 0.6349284235
2450285300.0 -0.7591383116 0.6454037183
2500285000.0 -0.7492208074 0.6568739345
2550284700.0 -0.740402499 0.6668521696
2600284400.0 -0.7309324749 0.6769354785
2650284100.0 -0.7220007868 0.6875667326
2700283800.0 -0.7115492261 0.6981462536
2750283500.0 -0.7010792038 0.7085439613
2800283200.0 -0.6913058126 0.7187052763
2850282900.0 -0.6809996164 0.7283656497
2900282600.0 -0.6707238702 0.7379400475
2950282300.0 -0.6607238312 0.7471912162
3000282000.0 -0.6497126975 0.7563946658
3050281700.0 -0.6386516025 0.7659171763
3100281400.0 -0.6265945012 0.7751396951
3150281100.0 -0.6149758543 0.784600717
3200280800.0 -0.6033700486 0.7930710091
3250280500.0 -0.5925181813 0.8007980897
3300280200.0 -0.5812241509 0.8086325196
3350279900.0 -0.5696218262 0.8163532424
3400279600.0 -0.5573045656 0.8240178315
3450279300.0 -0.5462000601 0.8311074022
3500279000.0 -0.5343778197 0.8381315427
3550278700.0 -0.5220400793 0.8457217706
3600278400.0 -0.5097431765 0.852630146
3650278100.0 -0.4965099839 0.8603353803
3700277800.0 -0.4843533559 0.8667551518
3750277500.0 -0.4724408682 0.8736064832
3800277200.0 -0.4596653757 0.8797682235
3850276900.0 -0.4478391064 0.8858870526
3900276600.0 -0.4369444135 0.8912066096
3950276300.0 -0.4243865462 0.8973775931
4000276000.0 -0.4124888825 0.9033707939
4050275700.0 -0.3997896899 0.9094452337
4100275400.0 -0.3884621922 0.914938471
4150275100.0 -0.3759593257 0.9205593516
4200274800.0 -0.3627938931 0.9262333111
4250274500.0 -0.3505409396 0.9313619819
4300274200.0 -0.3375542622 0.9365548634
4350273900.0 -0.3236101437 0.94176439
4400273600.0 -0.3089015552 0.9471724958
4450273300.0 -0.2935207596 0.95225873
4500273000.0 -0.2799418162 0.956579753
4550272700.0 -0.26590216 0.960965507
4600272400.0 -0.2505211338 0.9650792684
4650272100.0 -0.2388101795 0.968246892
4700271800.0 -0.2253852147 0.9715546813
4750271500.0 -0.2136970931 0.9744709278
4800271200.0 -0.2012712402 0.9772480442
4850270900.0 -0.1874494165 0.9800120325
4900270600.0 -0.1733934516 0.982409887
4950270300.0 -0.1590841632 0.9849370845
5000270000.0 -0.1450778433 0.987001772
5050269700.0 -0.131516326 0.9885098355
5100269400.0 -0.1177277248 0.9902565087
5150269100.0 -0.1043672524 0.9917749516
5200268800.0 -0.0910755444 0.993134346
5250268500.0 -0.0779403553 0.9936495398
5300268200.0 -0.0648550512 0.9944756234
5350267900.0 -0.0526610668 0.9949186383
5400267600.0 -0.0364472537 0.996409936
5450267300.0 -0.0232587422 0.9964057345
5500267000.0 -0.0081322231 0.997107766
5550266700.0 0.0067823601 0.997337268
5600266400.0 0.0224279405 0.9971425207
5650266100.0 0.0385145896 0.996703452
5700265800.0 0.0530317325 0.9962051457
5750265500.0 0.068596957 0.9956321366
5800265200.0 0.0821804474 0.9944114324
5850264900.0 0.0956518786 0.9935211629
5900264600.0 0.1119779989 0.9914243016
5950264300.0 0.1242942106 0.9899220631
6000264000.0 0.1382020012 0.9881823822
6050263700.0 0.1507733572 0.9870983332
6100263400.0 0.1630561156 0.9850213881
6150263100.0 0.1775734702 0.9826827815
6200262800.0 0.187971539 0.9808474256
6250262500.0 0.2003025664 0.9786049038
6300262200.0 0.2134944174 0.9758225551
6350261900.0 0.2263534386 0.9729543601
6400261600.0 0.2403211548 0.969655257
6450261300.0 0.2516247387 0.9668290689
6500261000.0 0.2642494954 0.9634971662
6550260700.0 0.2774568927 0.9592484131
6600260400.0 0.2908926919 0.9554593556
6650260100.0 0.3050210164 0.9512629313
6700259800.0 0.3166666819 0.9469657611
6750259500.0 0.3305874723 0.9420588966
6800259200.0 0.3434739665 0.936695554
6850258900.0 0.3555954633 0.9314549749
6900258600.0 0.3678406121 0.9266640738
6950258300.0 0.3802880475 0.9213556612
7000258000.0 0.3923891515 0.9158533118
7050257700.0 0.4047796709 0.90995264
7100257400.0 0.4175351249 0.9035764636
7150257100.0 0.4278274586 0.8983003658
7200256800.0 0.4406927044 0.8918955131
7250256500.0 0.4525838312 0.8855861797
7300256200.0 0.4653793566 0.8789162967
7350255900.0 0.4781951665 0.8719395414
7400255600.0 0.4915354042 0.8644499834
7450255300.0 0.5063932688 0.8557401078
7500255000.0 0.5188712645 0.8488104724
7550254700.0 0.5324050727 0.840178204
7600254400.0 0.5452952241 0.8320426123
7650254100.0 0.5566267459 0.8240477694
7700253800.0 0.5681719723 0.8160025668
7750253500.0 0.5794656883 0.8082162326
7800253200.0 0.590372537 0.8006305726
7850252900.0 0.5998564501 0.7934043403
7900252600.0 0.6115917771 0.7848893156
7950252300.0 0.6204007672 0.7782998252
8000252000.0 0.6306888893 0.7705694162
8050251700.0 0.6411617038 0.7624534616
8100251400.0 0.6511553212 0.754359378
8150251100.0 0.6610822137 0.7456955351
8200250800.0 0.6706797186 0.737773024
8250250500.0 0.6793069071 0.7298515729
8300250200.0 0.688562476 0.7211531003
8350249900.0 0.6979553363 0.7125037597
8400249600.0 0.7064487037 0.7044611914
8450249300.0 0.7154827268 0.6953235496
8500249000.0 0.7238712304 0.6864192223
8550248700.0 0.7322742961 0.6773719303
8600248400.0 0.7404424479 0.6678911334
8650248100.0 0.7486118836 0.6583174839
8700247800.0 0.7579631058 0.6471594636
8750247500.0 0.7662158864 0.6370564768
8800247200.0 0.7741438984 0.6265635081
8850246900.0 0.7831352478 0.6152653662
8900246600.0 0.7915849481 0.6037024946
8950246300.0 0.8011212476 0.5909035198
9000246000.0 0.8105479595 0.5783112386
9050245700.0 0.8193897506 0.5653213336
9100245400.0 0.8281819383 0.552868424
9150245100.0 0.837207017 0.5393114533
9200244800.0 0.8469653006 0.5243308055
9250244500.0 0.8564213573 0.5087932079
9300244200.0 0.8646629722 0.4942643804
9350243900.0 0.8726322072 0.4806575931
9400243600.0 0.8793081028 0.46834012
9450243300.0 0.8850843553 0.456849321
9500243000.0 0.891407725 0.4447289242
9550242700.0 0.8951937269 0.4370367199
9600242400.0 0.8990525126 0.429631838
9650242100.0 0.9028792192 0.4231075363
9700241800.0 0.9072936997 0.4149364788
9750241500.0 0.9113028436 0.4073556574
9800241200.0 0.9161922705 0.3979375618
9850240900.0 0.9218957341 0.3864947974
9900240600.0 0.9276526374 0.3749365781
9950240300.0 0.9341317943 0.3585405131
10000240000.0 0.9389106183 0.3469902413
10050239700.0 0.94440933 0.3317147084
10100239400.0 0.9496401662 0.3160764261
10150239100.0 0.9539185682 0.3015059642
10200238800.0 0.9580769274 0.2864379265
10250238500.0 0.9613244156 0.2729598821
10300238200.0 0.9646848306 0.2590498864
10350237900.0 0.9672129498 0.2461406026
10400237600.0 0.9696140001 0.2327581924
10450237300.0 0.9724067085 0.2187762504
10500237000.0 0.9748451244 0.2063356241
10550236700.0 0.9766954001 0.1930208277
10600236400.0 0.9788273925 0.1790458596
10650236100.0 0.9813311923 0.1641596207
10700235800.0 0.9837391654 0.1513288676
10750235500.0 0.9855922554 0.1385426944
10800235200.0 0.9878834488 0.1244888166
10850234900.0 0.9895674294 0.1100954292
10900234600.0 0.9917085003 0.0953342665
10950234300.0 0.9935339785 0.0820342373
11000234000.0 0.9952819205 0.0667837135
11050233700.0 0.9969937401 0.0507086355
11100233400.0 0.9983919018 0.0331144696
11150233100.0 0.9994023153 0.0173348542
11200232800.0 1.000489456 0.0019228026
11250232500.0 1.001321392 -0.0153050876
11300232200.0 1.001825336 -0.0324565387
11350231900.0 1.001687847 -0.0478388107
11400231600.0 1.001396642 -0.0639798429
11450231300.0 1.000859834 -0.0789321398
11500231000.0 1.000132238 -0.0956045728
11550230700.0 0.9988132412 -0.1093070611
11600230400.0 0.9969156132 -0.1207784879
11650230100.0 0.9951585894 -0.1330754518
11700229800.0 0.9931334014 -0.1474412486
11750229500.0 0.990555957 -0.1619135155
11800229200.0 0.988194222 -0.1757161293
11850228900.0 0.9846866305 -0.1880446503
11900228600.0 0.9811292607 -0.1980897729
11950228300.0 0.9779147789 -0.2080631055
12000228000.0 0.9752980788 -0.2171734188
12050227700.0 0.9714833993 -0.2300941339
12100227400.0 0.9681385503 -0.2413651058
12150227100.0 0.9631689692 -0.2577086872
12200226800.0 0.9598256411 -0.2685864851
12250226500.0 0.9555118521 -0.2817505144
12300226200.0 0.9516502992 -0.2940876914
12350225900.0 0.9466498111 -0.3078343123
12400225600.0 0.9426453143 -0.3199912251
12450225300.0 0.9379710068 -0.3338431358
12500225000.0 0.932296865 -0.348120772
12550224700.0 0.9269701473 -0.3622931381
12600224400.0 0.9220440411 -0.3750161799
12650224100.0 0.9162667304 -0.3894085332
12700223800.0 0.9109039418 -0.4022822917
12750223500.0 0.9054331634 -0.4153375781
12800223200.0 0.9003535487 -0.4279117865
12850222900.0 0.8947945799 -0.4397976836
12900222600.0 0.8894079756 -0.4519956898
12950222300.0 0.8831975851 -0.4647533439
13000222000.0 0.8770796937 -0.4761024246
13050221700.0 0.8705511406 -0.4888309039
13100221400.0 0.8632995413 -0.500982877
13150221100.0 0.8568054788 -0.5134501522
13200220800.0 0.8497088653 -0.5248330771
13250220500.0 0.8426515848 -0.5367906117
13300220200.0 0.835192771 -0.5477174301
13350219900.0 0.8271027294 -0.5596615102
13400219600.0 0.8187259886 -0.5715271434
13450219300.0 0.8095039274 -0.5850600394
13500219000.0 0.79935928 -0.5988522884
13550218700.0 0.7891575236 -0.6112752324
13600218400.0 0.7794327204 -0.6236564036
13650218100.0 0.7689843848 -0.6346367411
13700217800.0 0.7585972172 -0.6475834419
13750217500.0 0.7478637668 -0.658300287
13800217200.0 0.7375527759 -0.6704587451
13850216900.0 0.7262537322 -0.6815444359
13900216600.0 0.7158372344 -0.6901203155
13950216300.0 0.7050479198 -0.7005458239
14000216000.0 0.6960595644 -0.709921745
14050215700.0 0.6860188768 -0.7183192783
14100215400.0 0.6761624622 -0.7277013251
14150215100.0 0.6670367562 -0.7360487642
14200214800.0 0.6575222048 -0.7448127837
14250214500.0 0.6474329297 -0.7540666762
14300214200.0 0.6368584065 -0.7635757523
14350213900.0 0.6254612093 -0.7732071837
14400213600.0 0.6134688321 -0.7827742103
14450213300.0 0.6011181787 -0.7933366181
14500213000.0 0.5877742329 -0.8028603373
14550212700.0 0.575290829 -0.8124730994
14600212400.0 0.5629701804 -0.8208002357
14650212100.0 0.5502691364 -0.8301640104
14700211800.0 0.5360068466 -0.8395996812
14750211500.0 0.5243205933 -0.8475865687
14800211200.0 0.5119308283 -0.8555463023
14850210900.0 0.4995651892 -0.8632475088
14900210600.0 0.4864291703 -0.871073372
14950210300.0 0.4731142542 -0.8787252366
15000210000.0 0.4603599907 -0.8855998211
15050209700.0 0.447651777 -0.8915312669
15100209400.0 0.4352181465 -0.8975425224
15150209100.0 0.4232132426 -0.9030132077
15200208800.0 0.410658259 -0.9081187018
15250208500.0 0.399253089 -0.9132454243
15300208200.0 0.3859785121 -0.9170709681
15350207900.0 0.373585663 -0.9221544218
15400207600.0 0.3596281874 -0.9283326425
15450207300.0 0.3439328964 -0.9332612902
15500207000.0 0.3294116786 -0.9373148612
15550206700.0 0.315137074 -0.9428912193
15600206400.0 0.2988474821 -0.947299821
15650206100.0 0.2834875541 -0.9513561721
15700205800.0 0.2693937083 -0.9547328562
15750205500.0 0.2550232825 -0.9585273306
15800205200.0 0.2405240468 -0.9621041191
15850204900.0 0.226212042 -0.965317507
15900204600.0 0.2110728293 -0.9689798182
15950204300.0 0.1971634567 -0.9721839169
16000204000.0 0.1827052159 -0.9748751652
16050203700.0 0.1679204069 -0.9777862446
16100203400.0 0.1532130159 -0.979752587
16150203100.0 0.1391103713 -0.9825197324
16200202800.0 0.1243610541 -0.9842160938
16250202500.0 0.110057208 -0.9860773022
16300202200.0 0.0946404475 -0.9878085505
16350201900.0 0.0796290203 -0.989170916
16400201600.0 0.0651174049 -0.9902076326
16450201300.0 0.0495990996 -0.9913553372
16500201000.0 0.0330816862 -0.9921103331
16550200700.0 0.0173520013 -0.9926828466
16600200400.0 0.0017337447 -0.9928256556
16650200100.0 -0.0147301053 -0.9926770521
16700199800.0 -0.0307171976 -0.9925231583
16750199500.0 -0.0491798467 -0.991769051
16800199200.0 -0.065667944 -0.9906668718
16850198900.0 -0.0801970063 -0.9893125088
16900198600.0 -0.0946088949 -0.9890508509
16950198300.0 -0.1069890287 -0.9875565823
17000198000.0 -0.1207971072 -0.9857557842
17050197700.0 -0.1336225752 -0.9841352392
17100197400.0 -0.1460140102 -0.9823478883
17150197100.0 -0.1584783844 -0.9799255392
17200196800.0 -0.1716668792 -0.9783095046
17250196500.0 -0.1845350805 -0.9758347599
17300196200.0 -0.1965854688 -0.9735865435
17350195900.0 -0.2084646725 -0.9712310059
17400195600.0 -0.2207981566 -0.9686482405
17450195300.0 -0.2341062752 -0.9660165436
17500195000.0 -0.2475275121 -0.9627516563
17550194700.0 -0.2612575077 -0.959016103
17600194400.0 -0.2751027365 -0.9553028337
17650194100.0 -0.2889145852 -0.9511311662
17700193800.0 -0.3017276142 -0.9469638151
17750193500.0 -0.3163438758 -0.9425085398
17800193200.0 -0.3308757053 -0.9375027955
17850192900.0 -0.3459796193 -0.9316945687
17900192600.0 -0.3612723139 -0.9254047954
17950192300.0 -0.3764892392 -0.9185208037
18000192000.0 -0.3914288214 -0.9112777057
18050191700.0 -0.4052989754 -0.9033440287
18100191400.0 -0.41954635 -0.8957651088
18150191100.0 -0.4344942639 -0.8876512788
18200190800.0 -0.4513613961 -0.8784735158
18250190500.0 -0.4682832545 -0.8691436623
18300190200.0 -0.4836095708 -0.8602727158
18350189900.0 -0.4986558073 -0.8518749907
18400189600.0 -0.513345303 -0.8431230531
18450189300.0 -0.5263978949 -0.8359956372
18500189000.0 -0.5400340209 -0.8280001905
18550188700.0 -0.5527852557 -0.8201623328
18600188400.0 -0.5641957677 -0.8132938046
18650188100.0 -0.5755067703 -0.8069242793
18700187800.0 -0.5860603827 -0.8006348935
18750187500.0 -0.5969135131 -0.7938438606
18800187200.0 -0.6073783411 -0.7868657149
18850186900.0 -0.6175770977 -0.7801649491
18900186600.0 -0.6280283079 -0.7724822284
18950186300.0 -0.6376881087 -0.7650217295
19000186000.0 -0.6448833012 -0.758817114
19050185700.0 -0.6546197688 -0.751625344
19100185400.0 -0.6645324239 -0.7436146725
19150185100.0 -0.673794531 -0.7354048326
19200184800.0 -0.6839994352 -0.7260807418
19250184500.0 -0.6936414965 -0.7177638682
19300184200.0 -0.7055185851 -0.7078210402
19350183900.0 -0.7164868472 -0.6979371027
19400183600.0 -0.7261509473 -0.6885545977
19450183300.0 -0.7347782714 -0.6783685311
19500183000.0 -0.7430075863 -0.6683030421
19550182700.0 -0.7531128878 -0.6573533749
19600182400.0 -0.7634743979 -0.6457743586
19650182100.0 -0.7741128056 -0.633266209
19700181800.0 -0.7845387446 -0.6198269208
19750181500.0 -0.7952696389 -0.6059643558
19800181200.0 -0.8054814741 -0.5908927936
19850180900.0 -0.8152153022 -0.5756182007
19900180600.0 -0.8229951837 -0.5610917853
19950180300.0 -0.8325127568 -0.544759479
20000180000.0 -0.8252046989 -0.5476269625
20050179700.0 -0.8335128527 -0.5334283829
20100179400.0 -0.8417249895 -0.5204314036
20150179100.0 -0.8501783434 -0.5081858122
20200178800.0 -0.8587899395 -0.4956503646
20250178500.0 -0.8686577302 -0.4823912477
20300178200.0 -0.8780933432 -0.4668960761
20350177900.0 -0.8871054987 -0.4535137091
20400177600.0 -0.8960952547 -0.4386439316
20450177300.0 -0.9046861068 -0.4244287796
20500177000.0 -0.912525276 -0.4101060317
20550176700.0 -0.9200342728 -0.3968900876
20600176400.0 -0.9273862073 -0.3837317462
20650176100.0 -0.9336724675 -0.3712607076
20700175800.0 -0.9408655948 -0.359924779
20750175500.0 -0.947672963 -0.3478001861
20800175200.0 -0.9518012114 -0.3365782127
20850174900.0 -0.957128582 -0.3258941733
20900174600.0 -0.9612868118 -0.3154638291
20950174300.0 -0.9651464605 -0.3035118747
21000174000.0 -0.9686678268 -0.2925606159
21050173700.0 -0.9706082069 -0.282025798
21100173400.0 -0.9756623682 -0.2693076845
21150173100.0 -0.9787565798 -0.2570079432
21200172800.0 -0.9826263446 -0.2440843594
21250172500.0 -0.9857967193 -0.2301312126
21300172200.0 -0.9887818646 -0.2161973547
21350171900.0 -0.9902778928 -0.2017053437
21400171600.0 -0.9915333591 -0.1872796397
21450171300.0 -0.9920510612 -0.1723648442
21500171000.0 -0.9920653726 -0.1573895963
21550170700.0 -0.9916559118 -0.1424919789
21600170400.0 -0.9925621355 -0.1267384388
21650170100.0 -0.9915304744 -0.1104692418
21700169800.0 -0.9906953592 -0.0953867688
21750169500.0 -0.9891920528 -0.0793711664
21800169200.0 -0.9888760875 -0.0623757289
21850168900.0 -0.9878431995 -0.0466063701
21900168600.0 -0.9863963868 -0.0300580907
21950168300.0 -0.9848901096 -0.0138528556
22000168000.0 -0.9840213868 0.0012816841
22050167700.0 -0.9837625325 0.0157769937
22100167400.0 -0.9840156796 0.0306240773
22150167100.0 -0.9849037846 0.0461377378
22200166800.0 -0.9853256152 0.062961144
22250166500.0 -0.9843071752 0.0801901867
22300166200.0 -0.9845795023 0.0961116781
22350165900.0 -0.9828884971 0.1130947597
22400165600.0 -0.9810170926 0.1288334541
22450165300.0 -0.9788772393 0.1432016816
22500165000.0 -0.9781309767 0.1581688539
22550164700.0 -0.976757274 0.172441735
22600164400.0 -0.9748128764 0.1878084626
22650164100.0 -0.9733311507 0.2030170497
22700163800.0 -0.969553642 0.218945031
22750163500.0 -0.9668632804 0.2347430112
22800163200.0 -0.9649415841 0.2470485893
22850162900.0 -0.9619488045 0.2606630301
22900162600.0 -0.960295648 0.273828693
22950162300.0 -0.9590118399 0.2867605699
23000162000.0 -0.958012515 0.2983722834
23050161700.0 -0.9558705421 0.311373841
23100161400.0 -0.9532538722 0.3246662528
23150161100.0 -0.950756848 0.3362862251
23200160800.0 -0.9478916123 0.3485043847
23250160500.0 -0.9450659455 0.3612733658
23300160200.0 -0.9430590307 0.3730397315
23350159900.0 -0.9384855407 0.3863500639
23400159600.0 -0.9339964127 0.3994555529
23450159300.0 -0.9293194366 0.4129192321
23500159000.0 -0.924565756 0.4258737261
23550158700.0 -0.9200976874 0.4388426594
23600158400.0 -0.9148071387 0.4526826137
23650158100.0 -0.9084946576 0.4665600942
23700157800.0 -0.9008001004 0.4804312964
23750157500.0 -0.8923813697 0.4948117027
23800157200.0 -0.8833119427 0.5080669615
23850156900.0 -0.8744789051 0.5209188883
23900156600.0 -0.8647541816 0.5333246419
23950156300.0 -0.8563209116 0.5460371422
24000156000.0 -0.847189872 0.5572544307
24050155700.0 -0.8374979666 0.568909511
24100155400.0 -0.8265951976 0.5817459552
24150155100.0 -0.8164969616 0.5935383795
24200154800.0 -0.8047628601 0.6039788256
24250154500.0 -0.7941418324 0.6161225605
24300154200.0 -0.7828141778 0.6276649734
24350153900.0 -0.7708071842 0.6383858751
24400153600.0 -0.758723524 0.6487674886
24450153300.0 -0.7472038938 0.658539236
24500153000.0 -0.7359454764 0.6682015566
24550152700.0 -0.7240103686 0.6780147741
24600152400.0 -0.7127459929 0.6871458741
24650152100.0 -0.7007126446 0.6951194257
