!Created with skrf (http://scikit-rf.org).
# Hz S RI R 50.0 
!freq ReS11 ImS11
300000.0 -0.9753628711 -0.1164498965
50299700.0 -1.000007624 0.0156318185
100299400.0 -0.9981413732 0.0284192327
150299100.0 -1.00281294 0.0453540146
200298800.0 -0.9997924537 0.0584838173
250298500.0 -0.9973654712 0.0720205561
300298200.0 -0.9861046476 0.0880236713
350297900.0 -0.9939453072 0.0987223049
400297600.0 -0.9932711862 0.1154604789
450297300.0 -0.9911164164 0.1291798711
500297000.0 -0.9894257627 0.1441034633
550296700.0 -0.9844638774 0.1563555909
600296400.0 -1.017364816 0.1898423733
650296100.0 -0.9823714321 0.1863805577
700295800.0 -0.979456926 0.2006526961
750295500.0 -0.9763067147 0.2146842544
800295200.0 -0.972798908 0.228821677
850294900.0 -0.9698632756 0.2424836652
900294600.0 -0.9657816216 0.2562199
950294300.0 -0.9621616272 0.2700410551
1000294000.0 -0.9581431638 0.2841178818
1050293700.0 -0.9536536544 0.2977395719
1100293400.0 -0.9492008604 0.3122489935
1150293100.0 -0.9453420119 0.3242116026
1200292800.0 -0.9402985639 0.3385164166
1250292500.0 -0.9347032586 0.3519404866
1300292200.0 -0.9290898417 0.3651248702
1350291900.0 -0.9234919436 0.3792510385
1400291600.0 -0.9179311393 0.3922774232
1450291300.0 -0.9122347686 0.4047206025
1500291000.0 -0.9061513946 0.4183032391
1550290700.0 -0.8995671888 0.4312130163
1600290400.0 -0.8933874821 0.4442762795
1650290100.0 -0.8866193731 0.4563558586
1700289800.0 -0.8798143175 0.4699804732
1750289500.0 -0.8728543678 0.4822551192
1800289200.0 -0.8653568049 0.4950231321
1850288900.0 -0.8585141221 0.5063691933
1900288600.0 -0.8505364054 0.5193456914
1950288300.0 -0.8428338911 0.5320939273
2000288000.0 -0.8354600214 0.5433453509
2050287700.0 -0.8271575328 0.5556355209
2100287400.0 -0.8192831784 0.5674632721
2150287100.0 -0.8106410693 0.5793591178
2200286800.0 -0.80279004 0.5896234152
2250286500.0 -0.7939262968 0.6018934557
2300286200.0 -0.7850519977 0.6131738523
2350285900.0 -0.7761714439 0.6244498502
2400285600.0 -0.7674253793 0.6354032976
2450285300.0 -0.7586089428 0.6457999458
2500285000.0 -0.7492117818 0.6570894386
2550284700.0 -0.7402768636 0.6673898933
2600284400.0 -0.730750306 0.6774702729
2650284100.0 -0.7214970867 0.6880981785
2700283800.0 -0.7111090874 0.6984896693
2750283500.0 -0.7007322811 0.7090096748
2800283200.0 -0.691075474 0.7189472483
2850282900.0 -0.6809735964 0.7286963384
2900282600.0 -0.6703911628 0.7382282349
2950282300.0 -0.6603909693 0.7475450582
3000282000.0 -0.6494164716 0.756874387
3050281700.0 -0.6383137506 0.7663725468
3100281400.0 -0.6264700146 0.7757313601
3150281100.0 -0.6146102068 0.7850031519
3200280800.0 -0.6030571471 0.7935371136
3250280500.0 -0.5921324355 0.8013010699
3300280200.0 -0.5808949109 0.8090022571
3350279900.0 -0.5694751346 0.8166842013
3400279600.0 -0.5573431628 0.8242474996
3450279300.0 -0.5461394178 0.8314687226
3500279000.0 -0.534145855 0.8385005768
3550278700.0 -0.5216748709 0.8456046304
3600278400.0 -0.5092134537 0.852768573
3650278100.0 -0.4961738226 0.8606654085
3700277800.0 -0.484391952 0.8671711462
3750277500.0 -0.4720584125 0.8733774975
3800277200.0 -0.4593467819 0.8799158795
3850276900.0 -0.4473138596 0.8856924136
3900276600.0 -0.4363916899 0.8913779316
3950276300.0 -0.4241161526 0.8975846397
4000276000.0 -0.4121319963 0.9035892613
4050275700.0 -0.3992853848 0.9096843866
4100275400.0 -0.3878866237 0.9150418131
4150275100.0 -0.3755519138 0.9207817705
4200274800.0 -0.3623686636 0.9264927
4250274500.0 -0.350174332 0.9313061287
4300274200.0 -0.33704424 0.9369667587
4350273900.0 -0.3234543205 0.941960215
4400273600.0 -0.3085616833 0.9471820618
4450273300.0 -0.2931915949 0.9524807274
4500273000.0 -0.279488707 0.956795257
4550272700.0 -0.265286832 0.9611221015
4600272400.0 -0.2498909283 0.9652619929
4650272100.0 -0.2381234062 0.9683177125
4700271800.0 -0.2247274207 0.9719023419
4750271500.0 -0.213010217 0.9745758893
4800271200.0 -0.2004864318 0.9772935529
4850270900.0 -0.1866900945 0.9802560441
4900270600.0 -0.1726168683 0.9824696343
4950270300.0 -0.1586007561 0.9850454066
5000270000.0 -0.1441184096 0.9873778971
5050269700.0 -0.1306884414 0.9886972563
5100269400.0 -0.1172748246 0.9904521994
5150269100.0 -0.1040125233 0.9918789363
5200268800.0 -0.0906674013 0.9926894154
5250268500.0 -0.0775644438 0.9939516332
5300268200.0 -0.0645255447 0.994764757
5350267900.0 -0.0523725445 0.9953357016
5400267600.0 -0.0361601489 0.9964113234
5450267300.0 -0.0230321365 0.9966086102
5500267000.0 -0.0078735466 0.9973067876
5550266700.0 0.0072196143 0.9972898014
5600266400.0 0.0225462234 0.9972011751
5650266100.0 0.0390801363 0.9970602792
5700265800.0 0.0537969325 0.9961671665
5750265500.0 0.0687674952 0.9951246187
5800265200.0 0.0831019237 0.9945586365
5850264900.0 0.0963237036 0.9935845424
5900264600.0 0.1131042296 0.9919391974
5950264300.0 0.1250680471 0.9902904257
6000264000.0 0.138834938 0.9880230386
6050263700.0 0.1510357919 0.9867285974
6100263400.0 0.1636057983 0.9847915842
6150263100.0 0.1783639962 0.9826033417
6200262800.0 0.1888586021 0.9808794268
6250262500.0 0.201346957 0.978471316
6300262200.0 0.2143699397 0.9756694032
6350261900.0 0.227269729 0.9725880838
6400261600.0 0.2410906003 0.9692871743
6450261300.0 0.2524559865 0.9666927551
6500261000.0 0.2654592005 0.9631670004
6550260700.0 0.2784364661 0.9591106344
6600260400.0 0.2914702058 0.9550269144
6650260100.0 0.3053329018 0.9506597019
6700259800.0 0.3176462242 0.9463780243
6750259500.0 0.3314145717 0.9415417891
6800259200.0 0.3441034667 0.9364712212
6850258900.0 0.3564205471 0.931602006
6900258600.0 0.3685657617 0.9263774578
6950258300.0 0.3811164403 0.9209156246
7000258000.0 0.393186258 0.9157294769
7050257700.0 0.4054069526 0.9097786159
7100257400.0 0.4180329223 0.9033412355
7150257100.0 0.4285623253 0.8980668591
7200256800.0 0.4409933858 0.8916770585
7250256500.0 0.4532149507 0.8855543456
7300256200.0 0.4660468025 0.8784306652
7350255900.0 0.4787784637 0.8719420949
7400255600.0 0.4917370265 0.8641589954
7450255300.0 0.5071499568 0.8555842167
7500255000.0 0.518816563 0.8485949586
7550254700.0 0.532832586 0.8398546228
7600254400.0 0.5452455839 0.8317198772
7650254100.0 0.5567801703 0.8238672039
7700253800.0 0.568709132 0.8160816691
7750253500.0 0.5796248937 0.8081375161
7800253200.0 0.5903748342 0.8004182707
7850252900.0 0.6002325731 0.7934200012
7900252600.0 0.61187547 0.7845273636
7950252300.0 0.6207682016 0.7780624277
8000252000.0 0.6312114064 0.7703005201
8050251700.0 0.6416442188 0.7621908751
8100251400.0 0.6517980264 0.7539916453
8150251100.0 0.6612195599 0.7454842883
8200250800.0 0.6712456388 0.7373930574
8250250500.0 0.6798218414 0.7295611405
8300250200.0 0.6895943861 0.7207306343
8350249900.0 0.6985120372 0.7121589891
8400249600.0 0.7066148138 0.7040950077
8450249300.0 0.7157858837 0.6949088263
8500249000.0 0.724384899 0.6861880972
8550248700.0 0.7326206024 0.6769951508
8600248400.0 0.740998277 0.6676050969
8650248100.0 0.7486447003 0.6581018344
8700247800.0 0.7581475983 0.646966284
8750247500.0 0.7665782649 0.6368281924
8800247200.0 0.7747330833 0.6262920391
8850246900.0 0.7834924785 0.6149400769
8900246600.0 0.7921101838 0.6034984444
8950246300.0 0.8015035144 0.5905665421
9000246000.0 0.8110492762 0.5777079015
9050245700.0 0.8198788845 0.5646684557
9100245400.0 0.8288672996 0.5521155575
9150245100.0 0.8381357762 0.5385688931
9200244800.0 0.8475976824 0.5232909948
9250244500.0 0.8571153469 0.5077296491
9300244200.0 0.8656712255 0.4929746763
9350243900.0 0.8737382685 0.4789445091
9400243600.0 0.8801261378 0.4668499186
9450243300.0 0.8859814392 0.455110307
9500243000.0 0.8923353063 0.442969384
9550242700.0 0.8960739168 0.4353077043
9600242400.0 0.9000179697 0.4281035813
9650242100.0 0.9036740895 0.4214524037
9700241800.0 0.9082127039 0.4134367893
9750241500.0 0.9120244405 0.4059548725
9800241200.0 0.9165394604 0.3967829189
9850240900.0 0.9225081234 0.3850421894
9900240600.0 0.9278899613 0.3736443043
9950240300.0 0.9345558096 0.3573693609
10000240000.0 0.9392289862 0.345617492
10050239700.0 0.9446594148 0.3306533251
10100239400.0 0.949725805 0.3152161388
10150239100.0 0.9543112315 0.3003146639
10200238800.0 0.9584781458 0.2853460732
10250238500.0 0.9616204926 0.2720789078
10300238200.0 0.9647522104 0.2581785889
10350237900.0 0.9672309841 0.2450757788
10400237600.0 0.9699969106 0.2318290538
10450237300.0 0.9725304168 0.2181334937
10500237000.0 0.9748867865 0.2057297315
10550236700.0 0.9769087905 0.1921273383
10600236400.0 0.9796074512 0.1783069972
10650236100.0 0.9809696659 0.1639845603
10700235800.0 0.9831539701 0.1516772949
10750235500.0 0.9858134079 0.1378559928
10800235200.0 0.987591295 0.1243236083
10850234900.0 0.9892348542 0.1098275291
10900234600.0 0.9918452071 0.0946380896
10950234300.0 0.9933497469 0.081716575
11000234000.0 0.9953372555 0.0665399351
11050233700.0 0.9969622158 0.0501869454
11100233400.0 0.9983983694 0.0328706075
11150233100.0 0.9994871291 0.0166592152
11200232800.0 1.000390981 0.0013233626
11250232500.0 1.001483001 -0.0153423444
11300232200.0 1.002057606 -0.0331020673
11350231900.0 1.001377001 -0.0484651666
11400231600.0 1.001624678 -0.0644852515
11450231300.0 1.001337689 -0.0801727716
11500231000.0 0.9998846127 -0.0957491958
11550230700.0 0.9983861102 -0.1093435798
11600230400.0 0.9974599014 -0.1218950006
11650230100.0 0.9955281347 -0.1329577075
11700229800.0 0.9930732242 -0.147911749
11750229500.0 0.9906730527 -0.1622581187
11800229200.0 0.9882277261 -0.1762994895
11850228900.0 0.9846526693 -0.1885769501
11900228600.0 0.9809916651 -0.1983735695
11950228300.0 0.9778344572 -0.2091437996
12000228000.0 0.9751188982 -0.2174212627
12050227700.0 0.9712108322 -0.2304688376
12100227400.0 0.9683107697 -0.2410876356
12150227100.0 0.9629629844 -0.258460192
12200226800.0 0.9594110338 -0.2692676939
12250226500.0 0.9557669198 -0.2821932434
12300226200.0 0.9516911966 -0.2942893215
12350225900.0 0.9465148123 -0.3083126033
12400225600.0 0.9421397489 -0.3212400129
12450225300.0 0.9379637612 -0.334022162
12500225000.0 0.9320582974 -0.3487212029
12550224700.0 0.9271120915 -0.3624151849
12600224400.0 0.9220761916 -0.3753180199
12650224100.0 0.9163339116 -0.3896332479
12700223800.0 0.910952628 -0.4023471468
12750223500.0 0.9054653306 -0.4154156028
12800223200.0 0.8998514986 -0.4279950097
12850222900.0 0.894982005 -0.4401563005
12900222600.0 0.8891906934 -0.4523533649
12950222300.0 0.8828145889 -0.4654115027
13000222000.0 0.8768923688 -0.476586202
13050221700.0 0.8704247193 -0.489670159
13100221400.0 0.8635199973 -0.5007607885
13150221100.0 0.8572027359 -0.513123711
13200220800.0 0.8496279621 -0.5249009966
13250220500.0 0.8421907139 -0.5368642489
13300220200.0 0.8351490743 -0.5477755981
13350219900.0 0.8269492618 -0.5598160141
13400219600.0 0.8188564594 -0.5716803547
13450219300.0 0.8093695066 -0.5855658687
13500219000.0 0.7989633502 -0.5994596704
13550218700.0 0.7889360315 -0.6123312387
13600218400.0 0.7785362002 -0.6248684604
13650218100.0 0.7689964414 -0.6353912148
13700217800.0 0.7578048498 -0.6477333721
13750217500.0 0.7481090821 -0.658739295
13800217200.0 0.7366592171 -0.6710363744
13850216900.0 0.7255909868 -0.682092018
13900216600.0 0.7158181037 -0.6914395273
13950216300.0 0.7049672459 -0.701428693
14000216000.0 0.6953954954 -0.7102055255
14050215700.0 0.6857822279 -0.7191355351
14100215400.0 0.67539422 -0.7282940239
14150215100.0 0.6661422775 -0.7364840965
14200214800.0 0.6568764145 -0.7453170373
14250214500.0 0.6466720282 -0.7548495484
14300214200.0 0.636198896 -0.7641487262
14350213900.0 0.625150778 -0.773691525
14400213600.0 0.6131462311 -0.7839524123
14450213300.0 0.6004344827 -0.7939101346
14500213000.0 0.586558623 -0.8037835545
14550212700.0 0.5748413306 -0.8130525386
14600212400.0 0.5620966184 -0.8215280136
14650212100.0 0.5492783366 -0.8304457393
14700211800.0 0.5354552895 -0.8404199187
14750211500.0 0.5230094775 -0.8486899484
14800211200.0 0.5108212378 -0.856148277
14850210900.0 0.4989359974 -0.8636270287
14900210600.0 0.4854708575 -0.8715835439
14950210300.0 0.4718714368 -0.8792530304
15000210000.0 0.459211024 -0.8861245995
15050209700.0 0.4473550385 -0.8923444267
15100209400.0 0.4343375893 -0.8980029115
15150209100.0 0.4215609951 -0.9031896654
15200208800.0 0.4087777042 -0.9090227206
15250208500.0 0.3980976273 -0.9134647743
15300208200.0 0.3850572868 -0.9180608893
15350207900.0 0.3731153012 -0.9232814194
15400207600.0 0.3579957936 -0.9279349628
15450207300.0 0.3434347283 -0.9330165522
15500207000.0 0.3288663348 -0.9374441889
15550206700.0 0.3133081327 -0.9423839548
15600206400.0 0.297974134 -0.9470918429
15650206100.0 0.2820597739 -0.9512563423
15700205800.0 0.2679746794 -0.9550816591
15750205500.0 0.25331617 -0.9587619717
15800205200.0 0.2391564119 -0.9623303769
15850204900.0 0.2246700849 -0.9657399453
15900204600.0 0.2094790382 -0.9693515455
15950204300.0 0.1954045122 -0.9723703343
16000204000.0 0.1810967254 -0.9749446265
16050203700.0 0.1663055368 -0.9780126986
16100203400.0 0.1521497222 -0.9800618489
16150203100.0 0.137349434 -0.9823978662
16200202800.0 0.1232767357 -0.984507345
16250202500.0 0.1083236844 -0.9866818792
16300202200.0 0.0929830727 -0.988044127
16350201900.0 0.0781105081 -0.9893268548
16400201600.0 0.0638354119 -0.990266043
16450201300.0 0.0486653869 -0.9913143276
16500201000.0 0.0319451301 -0.9921834672
16550200700.0 0.0164720905 -0.9926837274
16600200400.0 0.0005264389 -0.9928479972
16650200100.0 -0.0156160979 -0.9924544752
16700199800.0 -0.0317551971 -0.9922262294
16750199500.0 -0.0503749257 -0.9917104129
16800199200.0 -0.0667176459 -0.9908237515
16850198900.0 -0.081792594 -0.9896289516
16900198600.0 -0.0950575873 -0.9885946011
16950198300.0 -0.1086386881 -0.9876452424
17000198000.0 -0.1219598002 -0.9855577981
17050197700.0 -0.1338223626 -0.9838369474
17100197400.0 -0.1469140558 -0.9821068553
17150197100.0 -0.159649042 -0.980030621
17200196800.0 -0.1723492899 -0.9778554565
17250196500.0 -0.1850934876 -0.9753327735
17300196200.0 -0.1974932972 -0.9733283307
17350195900.0 -0.2095754658 -0.9710093144
17400195600.0 -0.2217937486 -0.9686897654
17450195300.0 -0.2348084974 -0.9656105083
17500195000.0 -0.2481505824 -0.9621998003
17550194700.0 -0.2621791925 -0.9587364224
17600194400.0 -0.2761623267 -0.9546097295
17650194100.0 -0.2898063643 -0.9507722741
17700193800.0 -0.3028664023 -0.9466179849
17750193500.0 -0.3176798408 -0.9418435209
17800193200.0 -0.3316420749 -0.936767161
17850192900.0 -0.3464163851 -0.931433556
17900192600.0 -0.362016027 -0.9251614334
17950192300.0 -0.3777438789 -0.9183925744
18000192000.0 -0.3921963884 -0.9109784873
18050191700.0 -0.4061325008 -0.9030012181
18100191400.0 -0.4202930442 -0.8952537513
18150191100.0 -0.4352945544 -0.8873004931
18200190800.0 -0.4522435159 -0.8780270759
18250190500.0 -0.4689579402 -0.8686695449
18300190200.0 -0.4845344814 -0.8596452991
18350189900.0 -0.4994796927 -0.8515611854
18400189600.0 -0.5139104589 -0.8430030155
18450189300.0 -0.5271767705 -0.8351074411
18500189000.0 -0.5405303536 -0.8274461976
18550188700.0 -0.553627667 -0.8196058964
18600188400.0 -0.564748171 -0.8132480089
18650188100.0 -0.5758023062 -0.8064875776
18700187800.0 -0.5867100258 -0.7997009352
18750187500.0 -0.5973268985 -0.793515472
18800187200.0 -0.6080565486 -0.7864025587
18850186900.0 -0.6181799261 -0.7794914785
18900186600.0 -0.6283961808 -0.7720785682
18950186300.0 -0.6384297218 -0.7644046373
19000186000.0 -0.6455963816 -0.7582230338
19050185700.0 -0.6550654717 -0.7509292794
19100185400.0 -0.664599089 -0.7428211073
19150185100.0 -0.6752329884 -0.73375934
19200184800.0 -0.6849489521 -0.7261650545
19250184500.0 -0.6954865194 -0.7164991799
19300184200.0 -0.7062887484 -0.7071017352
19350183900.0 -0.7170451307 -0.6971661041
19400183600.0 -0.726095156 -0.6876262874
19450183300.0 -0.7358926895 -0.677770224
19500183000.0 -0.7438821919 -0.6675273137
19550182700.0 -0.7534349687 -0.656500144
19600182400.0 -0.7640216367 -0.6450495196
19650182100.0 -0.7751485494 -0.6320173188
19700181800.0 -0.7855630538 -0.6192133937
19750181500.0 -0.7961674245 -0.6049106597
19800181200.0 -0.8063883245 -0.5901285098
19850180900.0 -0.8161149113 -0.5746268365
19900180600.0 -0.8238950217 -0.5601781202
19950180300.0 -0.8332607844 -0.5437868026
20000180000.0 -0.8264683495 -0.5462784167
20050179700.0 -0.8344515162 -0.5329281067
20100179400.0 -0.8431100888 -0.51926168
20150179100.0 -0.8517703476 -0.5064998877
20200178800.0 -0.8602834636 -0.4932193361
20250178500.0 -0.869414147 -0.4800272517
20300178200.0 -0.8787812472 -0.465213614
20350177900.0 -0.8877436737 -0.4511747778
20400177600.0 -0.8970324247 -0.436965153
20450177300.0 -0.9052705461 -0.4223195924
20500177000.0 -0.9132763475 -0.4084752236
20550176700.0 -0.9213934001 -0.3948036352
20600176400.0 -0.9283483109 -0.381416414
20650176100.0 -0.9348882701 -0.3698484157
20700175800.0 -0.9416042263 -0.3575149788
20750175500.0 -0.9480590616 -0.3456229366
20800175200.0 -0.952913165 -0.334403809
20850174900.0 -0.9578198144 -0.3247511913
20900174600.0 -0.9626143586 -0.3131005475
20950174300.0 -0.9662342906 -0.3003107445
21000174000.0 -0.9704546091 -0.2896085986
21050173700.0 -0.9725952877 -0.2789787214
21100173400.0 -0.976894608 -0.2670462801
21150173100.0 -0.9808641287 -0.2542495584
21200172800.0 -0.9844455278 -0.2405691032
21250172500.0 -0.9872224752 -0.2266692652
21300172200.0 -0.9907087759 -0.2128614944
21350171900.0 -0.9914613409 -0.1986680967
21400171600.0 -0.9931055632 -0.1837423489
21450171300.0 -0.9933468803 -0.1695244284
21500171000.0 -0.9934989605 -0.1546040932
21550170700.0 -0.9922505734 -0.139666045
21600170400.0 -0.9924701838 -0.1228048728
21650170100.0 -0.9922069839 -0.1070463041
21700169800.0 -0.9901614812 -0.0920638726
21750169500.0 -0.9877022904 -0.0768039302
21800169200.0 -0.9875418406 -0.0598487436
21850168900.0 -0.9872965863 -0.0429741983
21900168600.0 -0.985420443 -0.0260396475
21950168300.0 -0.9841805363 -0.0107713398
22000168000.0 -0.9829365498 0.0040341081
22050167700.0 -0.9830408375 0.0184283294
22100167400.0 -0.9830810069 0.0337147635
22150167100.0 -0.9835443372 0.0491041612
22200166800.0 -0.983631667 0.0653979906
22250166500.0 -0.9829498546 0.0832496944
22300166200.0 -0.9830840372 0.0995816313
22350165900.0 -0.9811683303 0.1158810307
22400165600.0 -0.9803256969 0.1313345228
22450165300.0 -0.9770776986 0.1468254692
22500165000.0 -0.9762480392 0.160125736
22550164700.0 -0.9752253376 0.1747212899
22600164400.0 -0.9734161277 0.1905942987
22650164100.0 -0.9715912405 0.2058386676
22700163800.0 -0.9685584404 0.2216954812
22750163500.0 -0.9661936246 0.2367412977
22800163200.0 -0.9636362165 0.2503958606
22850162900.0 -0.9607198611 0.2633687038
22900162600.0 -0.9597100152 0.2766475625
22950162300.0 -0.9580600321 0.289419117
23000162000.0 -0.9571364782 0.3015042138
23050161700.0 -0.9548292895 0.3138380938
23100161400.0 -0.9524397616 0.3271213783
23150161100.0 -0.9508115276 0.3383483289
23200160800.0 -0.9476748228 0.350772524
23250160500.0 -0.9441168359 0.362467245
23300160200.0 -0.9419145768 0.3747336947
23350159900.0 -0.9374313092 0.3878554218
23400159600.0 -0.933093176 0.4007925455
23450159300.0 -0.9287578183 0.4146422464
23500159000.0 -0.9241575215 0.4272258272
23550158700.0 -0.919484122 0.4405260475
23600158400.0 -0.9145110634 0.4539654868
23650158100.0 -0.9081836961 0.4678892947
23700157800.0 -0.9006166553 0.4818228905
23750157500.0 -0.8921285265 0.4958944184
23800157200.0 -0.8832589819 0.5095320136
23850156900.0 -0.874475396 0.5219606095
23900156600.0 -0.8651539679 0.5340352985
23950156300.0 -0.8557891443 0.5462248479
24000156000.0 -0.8468679438 0.5592106532
24050155700.0 -0.8369052568 0.5703281459
24100155400.0 -0.8263210969 0.5824710149
24150155100.0 -0.8167113402 0.5939246937
24200154800.0 -0.8052697007 0.6055532266
24250154500.0 -0.7940688575 0.6170655178
24300154200.0 -0.7823111237 0.6288076016
24350153900.0 -0.7710561028 0.6391925432
24400153600.0 -0.758692878 0.6492400027
24450153300.0 -0.7468307629 0.659241365
24500153000.0 -0.7355911619 0.6689996871
24550152700.0 -0.7239847872 0.6784068056
24600152400.0 -0.7124216787 0.6872122158
24650152100.0 -0.7003507652 0.6959630206
