!Created with skrf (http://scikit-rf.org).
# Hz S RI R 50.0 
!freq ReS11 ImS11
300000.0 -0.9781767849 -0.1126386409
50299700.0 -0.9999636835 0.0157626787
100299400.0 -0.998090897 0.0287434337
150299100.0 -1.002912875 0.0455302963
200298800.0 -0.9996601296 0.0588373014
250298500.0 -0.997574847 0.072340108
300298200.0 -0.9860371843 0.0881335649
350297900.0 -0.9940115119 0.0992168995
400297600.0 -0.9932450652 0.1156305255
450297300.0 -0.9910768694 0.1295145265
500297000.0 -0.9895396055 0.1444025405
550296700.0 -0.9843811119 0.1568353016
600296400.0 -1.01732053 0.1899466434
650296100.0 -0.9821545907 0.1866048875
700295800.0 -0.9793447933 0.2011118439
750295500.0 -0.9762733997 0.2149704674
800295200.0 -0.972825356 0.2291816716
850294900.0 -0.9694498578 0.2430545671
900294600.0 -0.9656376203 0.2566849856
950294300.0 -0.9620260533 0.2706032753
1000294000.0 -0.958026138 0.2841847703
1050293700.0 -0.9534532157 0.2982851741
1100293400.0 -0.9492311532 0.3125923461
1150293100.0 -0.9453559085 0.3245981731
1200292800.0 -0.9398582895 0.338679066
1250292500.0 -0.9344272195 0.3521332787
1300292200.0 -0.9287127673 0.3653796221
1350291900.0 -0.9231617371 0.3794205944
1400291600.0 -0.9179052208 0.3925243421
1450291300.0 -0.9123568537 0.4050255552
1500291000.0 -0.9060668889 0.418157995
1550290700.0 -0.8995650105 0.4316648338
1600290400.0 -0.8933529901 0.4444389655
1650290100.0 -0.8865597675 0.4567099416
1700289800.0 -0.8796838834 0.4702815241
1750289500.0 -0.8726476916 0.4824837523
1800289200.0 -0.8653307722 0.4954554068
1850288900.0 -0.8583967677 0.5066042694
1900288600.0 -0.8507195847 0.5197490925
1950288300.0 -0.8423978695 0.5322140379
2000288000.0 -0.835145166 0.5434019832
2050287700.0 -0.826827908 0.5560198207
2100287400.0 -0.8190328214 0.5675412439
2150287100.0 -0.8104002347 0.5797471841
2200286800.0 -0.8025939612 0.5899726659
2250286500.0 -0.79374606 0.6020181629
2300286200.0 -0.7848628397 0.6136413782
2350285900.0 -0.7761259644 0.6246877804
2400285600.0 -0.7671546353 0.6357395872
2450285300.0 -0.75850104 0.6459869712
2500285000.0 -0.7489004808 0.657133529
2550284700.0 -0.739979067 0.6675316026
2600284400.0 -0.7305522044 0.6777339811
2650284100.0 -0.7215732695 0.6885238924
2700283800.0 -0.7106965435 0.6989977817
2750283500.0 -0.7004185527 0.709241578
2800283200.0 -0.6908211914 0.7190745456
2850282900.0 -0.6806047819 0.7289295901
2900282600.0 -0.670093526 0.7384597826
2950282300.0 -0.6601596732 0.7477661015
3000282000.0 -0.6494505307 0.757300046
3050281700.0 -0.6380539976 0.7664743658
3100281400.0 -0.6261614094 0.7758023404
3150281100.0 -0.6144024725 0.7852967625
3200280800.0 -0.6026091833 0.7937539533
3250280500.0 -0.5918576022 0.8012289081
3300280200.0 -0.5808047746 0.8091715498
3350279900.0 -0.5691384292 0.816862626
3400279600.0 -0.557111927 0.8244640945
3450279300.0 -0.5459503758 0.8316247627
3500279000.0 -0.5338403025 0.838361067
3550278700.0 -0.521467894 0.8460479058
3600278400.0 -0.5091710147 0.853207256
3650278100.0 -0.49575729 0.8607111615
3700277800.0 -0.4839075352 0.867095876
3750277500.0 -0.4715336262 0.8736669605
3800277200.0 -0.4592746133 0.8803059799
3850276900.0 -0.447019261 0.8862567209
3900276600.0 -0.4362876407 0.891732326
3950276300.0 -0.4237792698 0.8979972616
4000276000.0 -0.411568488 0.9040402805
4050275700.0 -0.3989207114 0.9099642696
4100275400.0 -0.3876381256 0.9154121046
4150275100.0 -0.3749360052 0.9210659406
4200274800.0 -0.3619137276 0.9263757337
4250274500.0 -0.3496387475 0.931737729
4300274200.0 -0.3366548817 0.9369379909
4350273900.0 -0.3227147893 0.9423303464
4400273600.0 -0.3081190938 0.9474892756
4450273300.0 -0.2927064018 0.9523827614
4500273000.0 -0.2789880038 0.956877024
4550272700.0 -0.2646670004 0.9610832306
4600272400.0 -0.2493811682 0.9652843065
4650272100.0 -0.2375142792 0.9686571726
4700271800.0 -0.2242836778 0.9719124799
4750271500.0 -0.2126049095 0.9746730734
4800271200.0 -0.1999555972 0.9775075556
4850270900.0 -0.1862555484 0.9801751722
4900270600.0 -0.1723699349 0.9824797921
4950270300.0 -0.1582203467 0.9851450806
5000270000.0 -0.1438365264 0.9871284781
5050269700.0 -0.1303798354 0.988847182
5100269400.0 -0.1167082667 0.9906609805
5150269100.0 -0.103347083 0.9922648723
5200268800.0 -0.0901926039 0.9930760458
5250268500.0 -0.077011223 0.9940965835
5300268200.0 -0.0640008527 0.994657357
5350267900.0 -0.0517107623 0.9953334753
5400267600.0 -0.0356901372 0.9964563444
5450267300.0 -0.0226179044 0.996672261
5500267000.0 -0.0073077737 0.9970624082
5550266700.0 0.0078335946 0.9972229773
5600266400.0 0.0231528077 0.9971327342
5650266100.0 0.0396754601 0.9971153136
5700265800.0 0.0544677034 0.9960907426
5750265500.0 0.069501064 0.9955596541
5800265200.0 0.0834445025 0.9942786
5850264900.0 0.0970597135 0.9935726751
5900264600.0 0.1133884759 0.9916616185
5950264300.0 0.1252822423 0.9899396907
6000264000.0 0.1394622785 0.9882232906
6050263700.0 0.1519055192 0.9865148394
6100263400.0 0.1644748474 0.9847903237
6150263100.0 0.1790364399 0.9826458228
6200262800.0 0.1892164113 0.9805960249
6250262500.0 0.2020323878 0.9781081737
6300262200.0 0.2149482145 0.9754073893
6350261900.0 0.2279388946 0.9725627196
6400261600.0 0.2416584131 0.9691693456
6450261300.0 0.2530311121 0.9664129084
6500261000.0 0.2657985712 0.9628299636
6550260700.0 0.2788028425 0.9588095227
6600260400.0 0.2924579307 0.9550583013
6650260100.0 0.3058762776 0.9504849535
6700259800.0 0.3179436442 0.9460130204
6750259500.0 0.3319634525 0.9413240711
6800259200.0 0.3449492859 0.9363912665
6850258900.0 0.3570472434 0.931151612
6900258600.0 0.3691583325 0.9262380231
6950258300.0 0.381504511 0.9210588515
7000258000.0 0.393695161 0.9154846388
7050257700.0 0.4059959094 0.9093817483
7100257400.0 0.4186435936 0.9033566343
7150257100.0 0.4290659997 0.8979606376
7200256800.0 0.4418690649 0.8914233162
7250256500.0 0.4537109536 0.8848835059
7300256200.0 0.466840892 0.8782985601
7350255900.0 0.4792386402 0.8716497166
7400255600.0 0.4923264533 0.864254579
7450255300.0 0.5071481578 0.8550516014
7500255000.0 0.5195964815 0.8481678202
7550254700.0 0.5329918895 0.8397082563
7600254400.0 0.5456992116 0.8311705031
7650254100.0 0.5575312886 0.8235870802
7700253800.0 0.5692032786 0.8153893564
7750253500.0 0.5805623162 0.807721513
7800253200.0 0.5908439235 0.7999843731
7850252900.0 0.6005864175 0.792962871
7900252600.0 0.6124127313 0.7840919487
7950252300.0 0.6212427856 0.7776143716
8000252000.0 0.6313966264 0.7697570954
8050251700.0 0.642051274 0.7616362377
8100251400.0 0.6515877875 0.7535438852
8150251100.0 0.662239403 0.7448248529
8200250800.0 0.6716572014 0.7367908133
8250250500.0 0.6799180592 0.7287560152
8300250200.0 0.6899391529 0.720237203
8350249900.0 0.6986390695 0.7117069363
8400249600.0 0.707118856 0.7035798139
8450249300.0 0.7161215861 0.6943665981
8500249000.0 0.7247184186 0.6856370284
8550248700.0 0.7329782446 0.6766656916
8600248400.0 0.7413263169 0.6670228037
8650248100.0 0.7492348187 0.6574166312
8700247800.0 0.7585333866 0.6464227928
8750247500.0 0.7670060119 0.6362029229
8800247200.0 0.7750116812 0.6261019499
8850246900.0 0.7836323588 0.6144013501
8900246600.0 0.7924071561 0.6030874264
8950246300.0 0.8016924888 0.590302703
9000246000.0 0.8112033356 0.5774614584
9050245700.0 0.820500875 0.5642652635
9100245400.0 0.8291415367 0.5517032856
9150245100.0 0.8381881682 0.5380482851
9200244800.0 0.8481776168 0.5229095966
9250244500.0 0.8575223452 0.507135141
9300244200.0 0.8663289014 0.4923977478
9350243900.0 0.8738685432 0.4785610792
9400243600.0 0.8805808799 0.4662105419
9450243300.0 0.8863794838 0.454513874
9500243000.0 0.8925002821 0.4422188879
9550242700.0 0.8961884958 0.4347252108
9600242400.0 0.9000829059 0.4272896565
9650242100.0 0.9036057492 0.4208764056
9700241800.0 0.9082819953 0.4126655673
9750241500.0 0.912019525 0.405207703
9800241200.0 0.9168789961 0.3959085654
9850240900.0 0.9222656462 0.3845824755
9900240600.0 0.9281621852 0.3729085282
9950240300.0 0.934564663 0.3565449788
10000240000.0 0.939258861 0.3451853398
10050239700.0 0.9454781045 0.329599084
10100239400.0 0.9495636306 0.3142180066
10150239100.0 0.9543799933 0.2998042251
10200238800.0 0.9584519749 0.2844615315
10250238500.0 0.9618314707 0.271200555
10300238200.0 0.9649568711 0.2573470703
10350237900.0 0.9676463077 0.2443500037
10400237600.0 0.9700973956 0.2310863285
10450237300.0 0.9727265285 0.2177123471
10500237000.0 0.9748763803 0.2053133344
10550236700.0 0.9771066143 0.1909753307
10600236400.0 0.9791414438 0.1775499352
10650236100.0 0.9811714445 0.1632679254
10700235800.0 0.9835567937 0.1512400726
10750235500.0 0.9859116606 0.1379868503
10800235200.0 0.9875087849 0.1240695008
10850234900.0 0.9897460685 0.108988692
10900234600.0 0.9918291791 0.0945535622
10950234300.0 0.9935543361 0.0810351863
11000234000.0 0.9952833518 0.0660840052
11050233700.0 0.9970912886 0.0497284898
11100233400.0 0.9985047322 0.0323875743
11150233100.0 0.9994974725 0.0160237689
11200232800.0 1.000023759 0.0008732799
11250232500.0 1.001346293 -0.0154961565
11300232200.0 1.001494469 -0.0336605023
11350231900.0 1.0014509 -0.0496465454
11400231600.0 1.001651103 -0.065003964
11450231300.0 1.000727774 -0.0803747469
11500231000.0 0.9998764305 -0.098002386
11550230700.0 0.9980961204 -0.1107340719
11600230400.0 0.9971080181 -0.1225829821
11650230100.0 0.9947688875 -0.1344660726
11700229800.0 0.9927300612 -0.1495248133
11750229500.0 0.9906283053 -0.163525849
11800229200.0 0.9879314064 -0.1775268259
11850228900.0 0.9841324054 -0.1899840464
11900228600.0 0.980474194 -0.1997814415
11950228300.0 0.9770999557 -0.2105793814
12000228000.0 0.9746383044 -0.2194276143
12050227700.0 0.9708408389 -0.2316792395
12100227400.0 0.9678759386 -0.2422599606
12150227100.0 0.9626017436 -0.2597978035
12200226800.0 0.9596939617 -0.2701489852
12250226500.0 0.9552429622 -0.2828532519
12300226200.0 0.9511307328 -0.2945279019
12350225900.0 0.946330361 -0.3089716844
12400225600.0 0.9412945232 -0.322536148
12450225300.0 0.9375592577 -0.3344980706
12500225000.0 0.9319167188 -0.3497900413
12550224700.0 0.9266570243 -0.3630106798
12600224400.0 0.9217051395 -0.3758934308
12650224100.0 0.9159751568 -0.3902429246
12700223800.0 0.9105867618 -0.4031479384
12750223500.0 0.9052628951 -0.4159174801
12800223200.0 0.8998309234 -0.4286958638
12850222900.0 0.8947967249 -0.4407961388
12900222600.0 0.8884077358 -0.4533032674
12950222300.0 0.8826690525 -0.4649471436
13000222000.0 0.8763456291 -0.4772579636
13050221700.0 0.8695012571 -0.4904769836
13100221400.0 0.8627497551 -0.5022343135
13150221100.0 0.8561610563 -0.5141241596
13200220800.0 0.8492609791 -0.5254580564
13250220500.0 0.8417236722 -0.5378840079
13300220200.0 0.8345215045 -0.5486956118
13350219900.0 0.82629041 -0.5607050079
13400219600.0 0.8178974181 -0.5726856252
13450219300.0 0.8085614144 -0.5862620874
13500219000.0 0.7977217376 -0.6004543731
13550218700.0 0.7874686972 -0.6135498055
13600218400.0 0.7772415913 -0.6253629971
13650218100.0 0.7673622007 -0.6370743085
13700217800.0 0.7568134235 -0.6497825325
13750217500.0 0.7468921524 -0.6600568945
13800217200.0 0.7355378623 -0.671296451
13850216900.0 0.7247950761 -0.6839300926
13900216600.0 0.7150607768 -0.6921913457
13950216300.0 0.704084756 -0.7025812752
14000216000.0 0.6940504697 -0.7120265319
14050215700.0 0.6840427513 -0.7198095328
14100215400.0 0.6742706646 -0.7295235457
14150215100.0 0.6654068051 -0.7375118537
14200214800.0 0.6560884933 -0.746331379
14250214500.0 0.6458473999 -0.7554257717
14300214200.0 0.6355290041 -0.764615916
14350213900.0 0.6244999897 -0.774332761
14400213600.0 0.6126879529 -0.7841111146
14450213300.0 0.599199626 -0.7943525143
14500213000.0 0.586635593 -0.8038719512
14550212700.0 0.574179781 -0.8134697364
14600212400.0 0.5612633693 -0.8218373408
14650212100.0 0.548233816 -0.8308799333
14700211800.0 0.5343901249 -0.8403872592
14750211500.0 0.5219554506 -0.8487397277
14800211200.0 0.5103437826 -0.8569208056
14850210900.0 0.4980213437 -0.8639889432
14900210600.0 0.4846683152 -0.8718462137
14950210300.0 0.4710929587 -0.8796538319
15000210000.0 0.4584744265 -0.8863563745
15050209700.0 0.445903023 -0.8923697056
15100209400.0 0.4331138579 -0.8985352884
15150209100.0 0.420231176 -0.9037226469
15200208800.0 0.4082248187 -0.9090023414
15250208500.0 0.3965438469 -0.914041338
15300208200.0 0.3841905508 -0.9186237143
15350207900.0 0.3714352851 -0.9227161803
15400207600.0 0.3565023448 -0.9293398723
15450207300.0 0.3410666482 -0.9339195665
15500207000.0 0.3278160315 -0.9379391232
15550206700.0 0.3122351804 -0.9436673461
15600206400.0 0.2961979971 -0.9478426626
15650206100.0 0.2806550283 -0.9520363169
15700205800.0 0.2668905102 -0.9555413001
15750205500.0 0.2519360827 -0.9593358645
15800205200.0 0.2376968567 -0.9626516871
15850204900.0 0.2233103071 -0.9660378122
15900204600.0 0.2081015581 -0.9697764026
15950204300.0 0.1941592043 -0.9724680882
16000204000.0 0.1801521246 -0.9754337489
16050203700.0 0.1653225596 -0.9782217631
16100203400.0 0.1509027235 -0.980251866
16150203100.0 0.1368251865 -0.9823846719
16200202800.0 0.1227179386 -0.9843992242
16250202500.0 0.1081367014 -0.9865191583
16300202200.0 0.0923348754 -0.9876954633
16350201900.0 0.0773475294 -0.9893194826
16400201600.0 0.062966315 -0.9901953818
16450201300.0 0.0477193115 -0.9913208894
16500201000.0 0.0311707076 -0.9920111927
16550200700.0 0.0154432555 -0.9923708177
16600200400.0 -0.0001840766 -0.9928579712
16650200100.0 -0.0164404867 -0.9923471678
16700199800.0 -0.032857736 -0.9919941215
16750199500.0 -0.0510900848 -0.9912415283
16800199200.0 -0.0672691905 -0.9899833998
16850198900.0 -0.0824653531 -0.9892808742
16900198600.0 -0.0966954099 -0.9883728519
16950198300.0 -0.1101708805 -0.9870883161
17000198000.0 -0.1229446876 -0.9854921211
17050197700.0 -0.1353422382 -0.9835065964
17100197400.0 -0.1485645804 -0.9819451882
17150197100.0 -0.1610020538 -0.9800423001
17200196800.0 -0.1739932869 -0.977793431
17250196500.0 -0.1869672485 -0.9750044509
17300196200.0 -0.1988606972 -0.9730162224
17350195900.0 -0.2107036524 -0.9707320001
17400195600.0 -0.2230268319 -0.9681556251
17450195300.0 -0.2360358291 -0.9654935609
17500195000.0 -0.2496487409 -0.9619770708
17550194700.0 -0.2632484493 -0.9583270225
17600194400.0 -0.277569096 -0.9541730891
17650194100.0 -0.2908324562 -0.9503292823
17700193800.0 -0.3039131277 -0.9465151282
17750193500.0 -0.3188022058 -0.9417778237
17800193200.0 -0.3329794828 -0.9360963409
17850192900.0 -0.3477399356 -0.930554536
17900192600.0 -0.3629511008 -0.9250088667
17950192300.0 -0.3785427011 -0.9178397122
18000192000.0 -0.393257098 -0.9104025643
18050191700.0 -0.4069462873 -0.9025589418
18100191400.0 -0.4211859999 -0.8947399757
18150191100.0 -0.4361857347 -0.8866789723
18200190800.0 -0.4532217281 -0.8774305986
18250190500.0 -0.470225026 -0.8675992187
18300190200.0 -0.4855488496 -0.8592581547
18350189900.0 -0.5006440208 -0.8506353536
18400189600.0 -0.5149628355 -0.8422792734
18450189300.0 -0.5281754403 -0.8341014283
18500189000.0 -0.5415376728 -0.826282594
18550188700.0 -0.5541877321 -0.8186022015
18600188400.0 -0.5657027594 -0.8124161579
18650188100.0 -0.5773694066 -0.8055863887
18700187800.0 -0.5877068289 -0.7990254043
18750187500.0 -0.598642873 -0.7922992478
18800187200.0 -0.6091502584 -0.7855382678
18850186900.0 -0.6194779808 -0.7782412104
18900186600.0 -0.6297260769 -0.7709849928
18950186300.0 -0.6397348222 -0.7631694477
19000186000.0 -0.6469867585 -0.7566175541
19050185700.0 -0.6559414933 -0.7502253572
19100185400.0 -0.6663055715 -0.7415188599
19150185100.0 -0.6762707325 -0.7332463661
19200184800.0 -0.686246939 -0.7248585217
19250184500.0 -0.6961135579 -0.7154401333
19300184200.0 -0.7080402117 -0.7063493403
19350183900.0 -0.7180551217 -0.6964229379
19400183600.0 -0.72829417 -0.6862172585
19450183300.0 -0.7367112742 -0.6759902254
19500183000.0 -0.7448290483 -0.6660268475
19550182700.0 -0.7547360489 -0.6553310012
19600182400.0 -0.7651310685 -0.6436372392
19650182100.0 -0.775761177 -0.6313785357
19700181800.0 -0.7862982494 -0.6183374922
19750181500.0 -0.7969114686 -0.6039895149
19800181200.0 -0.8073052169 -0.5889574904
19850180900.0 -0.8170201645 -0.5735137509
19900180600.0 -0.8246313081 -0.559267452
19950180300.0 -0.8337714783 -0.5426996142
20000180000.0 -0.8264370553 -0.5449343521
20050179700.0 -0.8352478964 -0.531402935
20100179400.0 -0.8435323621 -0.5183674256
20150179100.0 -0.8514778908 -0.5053801011
20200178800.0 -0.860723949 -0.4934409275
20250178500.0 -0.870072178 -0.4791011759
20300178200.0 -0.8791163961 -0.4646986259
20350177900.0 -0.8882889369 -0.4500929639
20400177600.0 -0.8973334184 -0.4361219292
20450177300.0 -0.9054602555 -0.4216035847
20500177000.0 -0.9133997442 -0.4076704844
20550176700.0 -0.9213857234 -0.393970266
20600176400.0 -0.9284532362 -0.3811128162
20650176100.0 -0.9351368046 -0.3684943285
20700175800.0 -0.9421027752 -0.3566693013
20750175500.0 -0.947703565 -0.34490213
20800175200.0 -0.9526685299 -0.333870894
20850174900.0 -0.9584773003 -0.32311727
20900174600.0 -0.9619128305 -0.3114301673
20950174300.0 -0.9668836247 -0.3004222257
21000174000.0 -0.9692078962 -0.2884762852
21050173700.0 -0.973160908 -0.2776478529
21100173400.0 -0.9769538196 -0.2653093232
21150173100.0 -0.9810663355 -0.2529000767
21200172800.0 -0.9846589214 -0.2392932626
21250172500.0 -0.9876302342 -0.2252536081
21300172200.0 -0.9905196047 -0.2116499093
21350171900.0 -0.9918912456 -0.1968832548
21400171600.0 -0.9929158598 -0.1825962144
21450171300.0 -0.9940596067 -0.1680501914
21500171000.0 -0.993532664 -0.1528779405
21550170700.0 -0.9925125687 -0.1383551701
21600170400.0 -0.9934163815 -0.1216444473
21650170100.0 -0.9911687815 -0.1054568161
21700169800.0 -0.989381475 -0.0903312776
21750169500.0 -0.9890327675 -0.0749882711
21800169200.0 -0.9876451723 -0.0575914876
21850168900.0 -0.9865258797 -0.0413290048
21900168600.0 -0.9850114955 -0.0258540025
21950168300.0 -0.9845721945 -0.0092895767
22000168000.0 -0.9827698228 0.0052113641
22050167700.0 -0.9826356667 0.0191946733
22100167400.0 -0.982407953 0.0347934283
22150167100.0 -0.9833988921 0.050057266
22200166800.0 -0.9836465157 0.0661653195
22250166500.0 -0.9831120344 0.0834961781
22300166200.0 -0.9818665816 0.1004597185
22350165900.0 -0.9812587813 0.1166348587
22400165600.0 -0.9787777941 0.1327812881
22450165300.0 -0.9775660249 0.1477392845
22500165000.0 -0.9754573093 0.1618085874
22550164700.0 -0.9748298252 0.1760547154
22600164400.0 -0.9729083673 0.1913524408
22650164100.0 -0.9695748578 0.2066451426
22700163800.0 -0.9675640138 0.222025404
22750163500.0 -0.9654583018 0.2383193394
22800163200.0 -0.9624239336 0.2512131622
22850162900.0 -0.9603640059 0.2645065361
22900162600.0 -0.9588348641 0.2778171944
22950162300.0 -0.957922003 0.2903348034
23000162000.0 -0.9567375622 0.3024792086
23050161700.0 -0.9546646562 0.314972043
23100161400.0 -0.9521404299 0.3275656482
23150161100.0 -0.9495734217 0.3400267076
23200160800.0 -0.9464227202 0.3525687777
23250160500.0 -0.9447415172 0.3634561518
23300160200.0 -0.9416809798 0.3757396492
23350159900.0 -0.9382083613 0.3887901378
23400159600.0 -0.9330178055 0.4015748984
23450159300.0 -0.928152691 0.415296113
23500159000.0 -0.9240851987 0.4283924335
23550158700.0 -0.919581787 0.4412942017
23600158400.0 -0.9139428021 0.454645516
23650158100.0 -0.9079773771 0.4686479931
23700157800.0 -0.9000845777 0.4825333145
23750157500.0 -0.8914173817 0.4969873254
23800157200.0 -0.8821413247 0.5102427991
23850156900.0 -0.8735155365 0.5226044729
23900156600.0 -0.8646368314 0.5350619
23950156300.0 -0.8551972346 0.5472097043
24000156000.0 -0.8462379819 0.5596593606
24050155700.0 -0.836526992 0.5708780439
24100155400.0 -0.8260055285 0.5836155526
24150155100.0 -0.8145798678 0.5949362751
24200154800.0 -0.8040852077 0.6062484352
24250154500.0 -0.7929470771 0.6175508422
24300154200.0 -0.7818526484 0.629031196
24350153900.0 -0.7696923871 0.6397724802
24400153600.0 -0.7571978171 0.6502129256
24450153300.0 -0.7454041691 0.6596789423
24500153000.0 -0.7336814817 0.6697732869
24550152700.0 -0.7231251634 0.6791806824
24600152400.0 -0.7109427081 0.6879960528
24650152100.0 -0.6996892892 0.696567742
