!Created with skrf (http://scikit-rf.org).
# Hz S RI R 50.0 
!freq ReS11 ImS11
300000.0 -0.974392813 -0.1216853545
50299700.0 -1.00005502 0.0151715325
100299400.0 -0.9978822833 0.0282051432
150299100.0 -1.002617272 0.0450163426
200298800.0 -0.9994622412 0.0583303929
250298500.0 -0.9974723976 0.071966896
300298200.0 -0.9862050098 0.0878162786
350297900.0 -0.993886277 0.0985658417
400297600.0 -0.9930328641 0.1149256928
450297300.0 -0.9910551027 0.1286710187
500297000.0 -0.989516143 0.143575524
550296700.0 -0.9843180097 0.1560110119
600296400.0 -1.017394176 0.1891581561
650296100.0 -0.9821889168 0.1858611076
700295800.0 -0.9792584077 0.2001552042
750295500.0 -0.9761744349 0.2142880521
800295200.0 -0.9731083556 0.2283250816
850294900.0 -0.9696812903 0.2419520319
900294600.0 -0.9658448216 0.2557624666
950294300.0 -0.9621195868 0.2695244021
1000294000.0 -0.9583316146 0.283469966
1050293700.0 -0.9537510284 0.2972927499
1100293400.0 -0.9493736387 0.3117928312
1150293100.0 -0.9454420274 0.3237579777
1200292800.0 -0.940243963 0.3379620779
1250292500.0 -0.9345292402 0.3515068553
1300292200.0 -0.9289994761 0.3646265882
1350291900.0 -0.9234723813 0.3787758056
1400291600.0 -0.9180235841 0.3918439021
1450291300.0 -0.9125344192 0.4039179331
1500291000.0 -0.9062540759 0.4175725786
1550290700.0 -0.899678906 0.4309019271
1600290400.0 -0.8935758505 0.4437093478
1650290100.0 -0.8866876281 0.4559159241
1700289800.0 -0.8800649466 0.4693030792
1750289500.0 -0.8728449087 0.4816106466
1800289200.0 -0.8655158462 0.4946753101
1850288900.0 -0.8588371385 0.5059076916
1900288600.0 -0.8509356413 0.5189074758
1950288300.0 -0.8430633748 0.5315285024
2000288000.0 -0.8353565315 0.5427745555
2050287700.0 -0.8273772805 0.5553038404
2100287400.0 -0.8193201393 0.5669064551
2150287100.0 -0.8107427713 0.5787316845
2200286800.0 -0.8030086356 0.5892965791
2250286500.0 -0.7942496351 0.6011729005
2300286200.0 -0.7853707039 0.6130076084
2350285900.0 -0.7766078589 0.6238881587
2400285600.0 -0.767754729 0.6345982835
2450285300.0 -0.759118741 0.6450746349
2500285000.0 -0.7493712331 0.6567030108
2550284700.0 -0.7403273253 0.6669918976
2600284400.0 -0.7310785916 0.6768712086
2650284100.0 -0.7223683499 0.6876196819
2700283800.0 -0.7118247488 0.6980874286
2750283500.0 -0.7012886393 0.7087171802
2800283200.0 -0.6915699343 0.7182374493
2850282900.0 -0.6813047808 0.7281833143
2900282600.0 -0.6709928328 0.7378477756
2950282300.0 -0.6607142095 0.7471711272
3000282000.0 -0.6497106076 0.7567444685
3050281700.0 -0.6386307013 0.7659979401
3100281400.0 -0.6267813061 0.7749815292
3150281100.0 -0.6151067902 0.7843490314
3200280800.0 -0.6035882008 0.7927885769
3250280500.0 -0.5927420428 0.8006817449
3300280200.0 -0.5813125339 0.808753152
3350279900.0 -0.5695776763 0.8162969709
3400279600.0 -0.5571462283 0.8242374689
3450279300.0 -0.5460187869 0.8311192169
3500279000.0 -0.5343487561 0.8383034949
3550278700.0 -0.5218265461 0.8456066839
3600278400.0 -0.5098833278 0.8526814675
3650278100.0 -0.4968657654 0.8602429631
3700277800.0 -0.4845385051 0.8666127145
3750277500.0 -0.4725502202 0.8731623031
3800277200.0 -0.4600105815 0.879675847
3850276900.0 -0.4479397782 0.8858060859
3900276600.0 -0.436815474 0.89135009
3950276300.0 -0.4249163044 0.8973474046
4000276000.0 -0.412794047 0.9034125672
4050275700.0 -0.4000748426 0.909494807
4100275400.0 -0.3887558028 0.9147894728
4150275100.0 -0.3759855129 0.9207173348
4200274800.0 -0.3628715862 0.9260993227
4250274500.0 -0.3504833852 0.9312266315
4300274200.0 -0.3375076602 0.9366793051
4350273900.0 -0.3232716971 0.9420414234
4400273600.0 -0.3086553672 0.9472632548
4450273300.0 -0.2935227476 0.9521597242
4500273000.0 -0.2800427327 0.9566610398
4550272700.0 -0.2659482405 0.9606677491
4600272400.0 -0.2508235057 0.9647814722
4650272100.0 -0.2391551534 0.9681942655
4700271800.0 -0.2260439415 0.9714069847
4750271500.0 -0.2141768544 0.9743518368
4800271200.0 -0.2018283595 0.9769156497
4850270900.0 -0.1879085058 0.9797999525
4900270600.0 -0.1740798998 0.9821624479
4950270300.0 -0.1598747364 0.9847895162
5000270000.0 -0.1452913458 0.9868542451
5050269700.0 -0.1317299595 0.9887109292
5100269400.0 -0.1182976264 0.990052523
5150269100.0 -0.1046116442 0.9915897632
5200268800.0 -0.0912129887 0.9928500705
5250268500.0 -0.0781092656 0.993925126
5300268200.0 -0.0648557116 0.994823416
5350267900.0 -0.0524900092 0.9949413221
5400267600.0 -0.0361108151 0.996500569
5450267300.0 -0.0230485796 0.9965298915
5500267000.0 -0.0078022099 0.9971022359
5550266700.0 0.0070675065 0.9971150537
5600266400.0 0.0225387899 0.9972064972
5650266100.0 0.0391730735 0.9968561021
5700265800.0 0.0537249828 0.9960499013
5750265500.0 0.0689446639 0.9955924698
5800265200.0 0.0822905507 0.9939192085
5850264900.0 0.095988133 0.9934201103
5900264600.0 0.1124808562 0.9914407485
5950264300.0 0.1243784501 0.989987239
6000264000.0 0.1380052191 0.9881231013
6050263700.0 0.150106341 0.9870205987
6100263400.0 0.1625598186 0.9850127245
6150263100.0 0.176978899 0.9827103326
6200262800.0 0.1874626372 0.9809625914
6250262500.0 0.1999213092 0.9785650295
6300262200.0 0.2126187121 0.9760279753
6350261900.0 0.2255542356 0.9731439953
6400261600.0 0.2393763206 0.9698342021
6450261300.0 0.2505970778 0.9673458401
6500261000.0 0.263904775 0.9637623481
6550260700.0 0.2768896548 0.9595780352
6600260400.0 0.290122018 0.9555325261
6650260100.0 0.3039816052 0.9513476201
6700259800.0 0.3161730577 0.9470611816
6750259500.0 0.3297223482 0.9417900248
6800259200.0 0.3431982646 0.9371087623
6850258900.0 0.3552841087 0.9318324888
6900258600.0 0.3676591799 0.9266653374
6950258300.0 0.3801144923 0.9213310349
7000258000.0 0.3921763217 0.9160986844
7050257700.0 0.4042251568 0.9099966445
7100257400.0 0.4173776585 0.9037825129
7150257100.0 0.4278973348 0.8985032773
7200256800.0 0.4404329391 0.8920361986
7250256500.0 0.4524868237 0.885506434
7300256200.0 0.4656797146 0.8788906064
7350255900.0 0.4778971543 0.8717797044
7400255600.0 0.491319648 0.8642820113
7450255300.0 0.5073618365 0.8555196376
7500255000.0 0.5192996923 0.8482640201
7550254700.0 0.5334680854 0.8397119575
7600254400.0 0.5454270153 0.8312936242
7650254100.0 0.5571540828 0.8234106406
7700253800.0 0.5686196207 0.8153023443
7750253500.0 0.5802704597 0.8077461364
7800253200.0 0.5910850643 0.8001397728
7850252900.0 0.6005922428 0.7929410192
7900252600.0 0.6122067391 0.78426752
7950252300.0 0.6209420197 0.777730375
8000252000.0 0.6312014774 0.7701612645
8050251700.0 0.6416523619 0.7619261338
8100251400.0 0.6514046157 0.7538049281
8150251100.0 0.6614093213 0.7453230806
8200250800.0 0.6707982151 0.7370567684
8250250500.0 0.6798820907 0.7293090548
8300250200.0 0.6887763757 0.7208648617
8350249900.0 0.6982947425 0.712127776
8400249600.0 0.7062695737 0.7041359669
8450249300.0 0.7154166664 0.6949067823
8500249000.0 0.7238766371 0.686168846
8550248700.0 0.7322814565 0.6770122416
8600248400.0 0.7405163294 0.6674440377
8650248100.0 0.7484143967 0.6581303311
8700247800.0 0.7579411183 0.6469785971
8750247500.0 0.7662297381 0.6368608809
8800247200.0 0.7741282585 0.6266667591
8850246900.0 0.7828557902 0.6152169686
8900246600.0 0.7915226931 0.6037501528
8950246300.0 0.8007992532 0.5908298027
9000246000.0 0.8100506437 0.5784178086
9050245700.0 0.8186587512 0.5655956002
9100245400.0 0.8273044784 0.5533204172
9150245100.0 0.8363559805 0.5398858974
9200244800.0 0.8459685451 0.5249986659
9250244500.0 0.8554646811 0.5098961707
9300244200.0 0.8636214317 0.4956918808
9350243900.0 0.871405801 0.4820518758
9400243600.0 0.8778476169 0.4700696214
9450243300.0 0.8838070138 0.4587159968
9500243000.0 0.8899517663 0.4468782448
9550242700.0 0.8939758598 0.4391721286
9600242400.0 0.8979957882 0.4317689063
9650242100.0 0.9016470347 0.4251389959
9700241800.0 0.9065661919 0.4168447477
9750241500.0 0.9106293031 0.4092880754
9800241200.0 0.9155159089 0.3998646311
9850240900.0 0.9211349548 0.3884920634
9900240600.0 0.9271709983 0.3763765362
9950240300.0 0.9336434183 0.3602180419
10000240000.0 0.9382854553 0.3485424251
10050239700.0 0.9441985033 0.3326847361
10100239400.0 0.9493969747 0.3170896002
10150239100.0 0.9540317451 0.3021126044
10200238800.0 0.9581069372 0.2869419167
10250238500.0 0.9614486999 0.2736129608
10300238200.0 0.9645926201 0.2593766293
10350237900.0 0.967383239 0.2463211429
10400237600.0 0.9699330459 0.2331465039
10450237300.0 0.9726212851 0.2194488768
10500237000.0 0.9748239357 0.2067100139
10550236700.0 0.9769132831 0.1930969655
10600236400.0 0.9796814205 0.1789262188
10650236100.0 0.9810361198 0.1645604936
10700235800.0 0.9835266674 0.1520635282
10750235500.0 0.9858161221 0.1386207856
10800235200.0 0.9874884961 0.1247270224
10850234900.0 0.9894775904 0.1100142512
10900234600.0 0.9916213558 0.0952170015
10950234300.0 0.9935226963 0.0819020452
11000234000.0 0.9951914483 0.0666587923
11050233700.0 0.9970492021 0.0501328889
11100233400.0 0.9984738385 0.0328205637
11150233100.0 1.00000941 0.0160701594
11200232800.0 1.000647566 0.0006419537
11250232500.0 1.001625752 -0.0162493739
11300232200.0 1.001752882 -0.0336545383
11350231900.0 1.00204139 -0.050049712
11400231600.0 1.001308534 -0.0654523871
11450231300.0 1.00057578 -0.0810561991
11500231000.0 1.000507475 -0.0971968573
11550230700.0 0.9984679576 -0.1101183842
11600230400.0 0.9967751252 -0.1232407507
11650230100.0 0.9952862019 -0.1355500909
11700229800.0 0.9928993002 -0.1494327252
11750229500.0 0.9906907339 -0.1640663216
11800229200.0 0.9880062784 -0.1773961982
11850228900.0 0.984359378 -0.1897600982
11900228600.0 0.9806950797 -0.1992613671
11950228300.0 0.9774766965 -0.2097225759
12000228000.0 0.9745671316 -0.2182774326
12050227700.0 0.9711516148 -0.2314327829
12100227400.0 0.9675926179 -0.2426270714
12150227100.0 0.9623309694 -0.2594133864
12200226800.0 0.9588531663 -0.2699225646
12250226500.0 0.9556637015 -0.2829006368
12300226200.0 0.9501364551 -0.2956712683
12350225900.0 0.9461758063 -0.3084023698
12400225600.0 0.9418254872 -0.3219874801
12450225300.0 0.9374676179 -0.3339349796
12500225000.0 0.9317515252 -0.3493567854
12550224700.0 0.9264948809 -0.3630518515
12600224400.0 0.9213841843 -0.3757518089
12650224100.0 0.9156262841 -0.3902834063
12700223800.0 0.910412038 -0.403147893
12750223500.0 0.9048289511 -0.4163186611
12800223200.0 0.8996140003 -0.42866805
12850222900.0 0.8941176753 -0.4412416213
12900222600.0 0.8887296697 -0.4530285934
12950222300.0 0.8825608666 -0.4656848753
13000222000.0 0.8766231302 -0.4767678265
13050221700.0 0.8696306117 -0.4897533961
13100221400.0 0.8631598864 -0.5017262924
13150221100.0 0.8561778957 -0.5141232378
13200220800.0 0.8492438858 -0.5257285092
13250220500.0 0.8418699888 -0.5378327836
13300220200.0 0.8345229656 -0.5486101057
13350219900.0 0.8263962682 -0.5605353255
13400219600.0 0.818251883 -0.5723259386
13450219300.0 0.8089442761 -0.5855914831
13500219000.0 0.7988332354 -0.5993433284
13550218700.0 0.7881012183 -0.612051889
13600218400.0 0.7782179656 -0.6243765696
13650218100.0 0.769352905 -0.6348950671
13700217800.0 0.7589885874 -0.6470052643
13750217500.0 0.7478488746 -0.6586400075
13800217200.0 0.7371562228 -0.6701961588
13850216900.0 0.7263756773 -0.6813900028
13900216600.0 0.7161057509 -0.690070795
13950216300.0 0.7055788725 -0.7006205216
14000216000.0 0.6954903273 -0.7097833637
14050215700.0 0.6861923809 -0.7178989576
14100215400.0 0.6763535591 -0.7270750913
14150215100.0 0.6673585615 -0.7356789339
14200214800.0 0.6580259418 -0.7444886818
14250214500.0 0.6475706622 -0.7539358607
14300214200.0 0.6371785209 -0.7631833332
14350213900.0 0.62613314 -0.7727782442
14400213600.0 0.6143150004 -0.7826607541
14450213300.0 0.601128005 -0.7928706018
14500213000.0 0.5885866081 -0.8023570694
14550212700.0 0.5755330829 -0.8124634922
14600212400.0 0.56282682 -0.8203725957
14650212100.0 0.550140388 -0.8296837938
14700211800.0 0.5365239315 -0.8391816684
14750211500.0 0.5242799246 -0.8473064523
14800211200.0 0.5121243624 -0.8555406818
14850210900.0 0.4998559443 -0.8633496043
14900210600.0 0.4864381257 -0.8710496522
14950210300.0 0.4730917478 -0.8787156592
15000210000.0 0.4604724122 -0.8853342672
15050209700.0 0.4482420248 -0.8915416522
15100209400.0 0.4354762978 -0.8977182594
15150209100.0 0.4227910358 -0.9029127449
15200208800.0 0.4105394863 -0.9083798933
15250208500.0 0.3994546131 -0.9126473266
15300208200.0 0.3875500842 -0.9171943391
15350207900.0 0.373632067 -0.9227199983
15400207600.0 0.3590067096 -0.9276821025
15450207300.0 0.3441277185 -0.9328303531
15500207000.0 0.330327185 -0.9373808321
15550206700.0 0.3151664106 -0.9425045615
15600206400.0 0.2992007324 -0.9469693223
15650206100.0 0.2837835122 -0.9508516781
15700205800.0 0.269649044 -0.9547129354
15750205500.0 0.2555582919 -0.9583662541
15800205200.0 0.241343182 -0.9618463667
15850204900.0 0.2269114238 -0.965164868
15900204600.0 0.211836984 -0.9686743448
15950204300.0 0.1973987951 -0.972026559
16000204000.0 0.1834784954 -0.9746640011
16050203700.0 0.1683341042 -0.9776036424
16100203400.0 0.1536108865 -0.979932643
16150203100.0 0.1395364069 -0.9824057881
16200202800.0 0.1250923949 -0.9845300549
16250202500.0 0.1103196207 -0.9862070444
16300202200.0 0.0949580211 -0.9877345811
16350201900.0 0.0797958598 -0.9889477645
16400201600.0 0.0651574714 -0.9899901919
16450201300.0 0.049837468 -0.9911274684
16500201000.0 0.0329554375 -0.9919297857
16550200700.0 0.0171135193 -0.9925082254
16600200400.0 0.0012051626 -0.9926613274
16650200100.0 -0.0147361392 -0.9926349735
16700199800.0 -0.0310444181 -0.9924227186
16750199500.0 -0.0499230055 -0.9917389684
16800199200.0 -0.0657310847 -0.9910445727
16850198900.0 -0.080838876 -0.9897152223
16900198600.0 -0.0948865102 -0.9884469844
16950198300.0 -0.1087707078 -0.9873425832
17000198000.0 -0.1206860435 -0.9861264539
17050197700.0 -0.1335277658 -0.984820376
17100197400.0 -0.1465260422 -0.9819519943
17150197100.0 -0.159095764 -0.9805189086
17200196800.0 -0.1720875781 -0.9783654915
17250196500.0 -0.1852137348 -0.9757002906
17300196200.0 -0.1977666731 -0.9734429671
17350195900.0 -0.2093174766 -0.9711934902
17400195600.0 -0.2213933846 -0.9687164806
17450195300.0 -0.2344013121 -0.9658658247
17500195000.0 -0.2480093115 -0.9624736921
17550194700.0 -0.2618051686 -0.958922191
17600194400.0 -0.2755383719 -0.9550683193
17650194100.0 -0.289565573 -0.9505631181
17700193800.0 -0.3020441105 -0.9465932441
17750193500.0 -0.3166717703 -0.9423149307
17800193200.0 -0.3308437444 -0.9366229425
17850192900.0 -0.3459899363 -0.9313782823
17900192600.0 -0.3607580524 -0.9252451987
17950192300.0 -0.3766229261 -0.9182607976
18000192000.0 -0.3916129318 -0.9108363636
18050191700.0 -0.4053116572 -0.9029934272
18100191400.0 -0.419611026 -0.8954856069
18150191100.0 -0.4345958719 -0.8874130255
18200190800.0 -0.4514836383 -0.8781862439
18250190500.0 -0.4683655791 -0.8688575307
18300190200.0 -0.4836898166 -0.8603730789
18350189900.0 -0.4992290582 -0.8515796464
18400189600.0 -0.5131667933 -0.8431852686
18450189300.0 -0.5269586306 -0.8355457588
18500189000.0 -0.5401144739 -0.8278484366
18550188700.0 -0.552845941 -0.81976955
18600188400.0 -0.5647043394 -0.8129247719
18650188100.0 -0.5758700767 -0.8067783477
18700187800.0 -0.5865689836 -0.8000142631
18750187500.0 -0.5971100214 -0.7935861089
18800187200.0 -0.6078325643 -0.7866787451
18850186900.0 -0.6178207443 -0.779912482
18900186600.0 -0.6280318483 -0.7725675167
18950186300.0 -0.6380888537 -0.7649505267
19000186000.0 -0.6453897423 -0.7586852253
19050185700.0 -0.6544663611 -0.7521157829
19100185400.0 -0.6645280609 -0.7433181016
19150185100.0 -0.6747357331 -0.7346395761
19200184800.0 -0.6836269685 -0.7268470282
19250184500.0 -0.6935009903 -0.7176153378
19300184200.0 -0.7054182288 -0.7077288037
19350183900.0 -0.7165873986 -0.6979643998
19400183600.0 -0.7264323128 -0.6880946033
19450183300.0 -0.7352661995 -0.6782096988
19500183000.0 -0.7425478611 -0.6683666013
19550182700.0 -0.7528537286 -0.6576182353
19600182400.0 -0.7634844465 -0.6453193433
19650182100.0 -0.7742722705 -0.6329192292
19700181800.0 -0.7849881542 -0.6195165396
19750181500.0 -0.7953174879 -0.6056865597
19800181200.0 -0.8056048253 -0.5906370369
19850180900.0 -0.8156000836 -0.5752828525
19900180600.0 -0.8232429092 -0.5606396568
19950180300.0 -0.8326998069 -0.5442855744
20000180000.0 -0.8250083482 -0.5467032209
20050179700.0 -0.8328913404 -0.533623126
20100179400.0 -0.8417989372 -0.5211376471
20150179100.0 -0.8495336581 -0.5088834185
20200178800.0 -0.8579044108 -0.4952821348
20250178500.0 -0.8670676315 -0.4824570935
20300178200.0 -0.8774397383 -0.4684748377
20350177900.0 -0.8863535088 -0.4540160321
20400177600.0 -0.8957615563 -0.4396779346
20450177300.0 -0.9038403742 -0.4256539192
20500177000.0 -0.9121118986 -0.4117377531
20550176700.0 -0.9197886194 -0.3980136104
20600176400.0 -0.92642847 -0.3851961267
20650176100.0 -0.9328536898 -0.3729150608
20700175800.0 -0.940747507 -0.3610106187
20750175500.0 -0.9466613424 -0.3495321363
20800175200.0 -0.9509575317 -0.3381957626
20850174900.0 -0.9550639767 -0.327908081
20900174600.0 -0.9600493047 -0.3175017028
20950174300.0 -0.9636448647 -0.3050521944
21000174000.0 -0.9673113944 -0.2939374076
21050173700.0 -0.9693125725 -0.28359389
21100173400.0 -0.9732545381 -0.2713567293
21150173100.0 -0.9773393675 -0.2606308525
21200172800.0 -0.9812371946 -0.2463558078
21250172500.0 -0.9844374613 -0.2330169748
21300172200.0 -0.9874130713 -0.2188429319
21350171900.0 -0.9889270396 -0.2043415317
21400171600.0 -0.9906265218 -0.1899433092
21450171300.0 -0.9917197058 -0.1757715531
21500171000.0 -0.9914159195 -0.1606599378
21550170700.0 -0.9914923537 -0.1458557787
21600170400.0 -0.9916558949 -0.1293490002
21650170100.0 -0.9919931409 -0.1139528163
21700169800.0 -0.9906425804 -0.097994557
21750169500.0 -0.9900876456 -0.0822973289
21800169200.0 -0.9894232367 -0.06601291
21850168900.0 -0.9888717233 -0.0491433298
21900168600.0 -0.9867103873 -0.033283988
21950168300.0 -0.9861372452 -0.017156397
22000168000.0 -0.9858299989 -0.0023495273
22050167700.0 -0.9857793974 0.0122157175
22100167400.0 -0.9859105775 0.0273866208
22150167100.0 -0.9867631934 0.0434415886
22200166800.0 -0.9872542531 0.0594504041
22250166500.0 -0.9866834738 0.0766969689
22300166200.0 -0.9871258946 0.0935658641
22350165900.0 -0.984943174 0.1102437088
22400165600.0 -0.9835386247 0.1250144349
22450165300.0 -0.9809626559 0.1398701032
22500165000.0 -0.9794917662 0.1547433078
22550164700.0 -0.9786280686 0.1699464307
22600164400.0 -0.9770998922 0.1865330034
22650164100.0 -0.9740325449 0.2007620019
22700163800.0 -0.9709645509 0.2166023669
22750163500.0 -0.9686221789 0.2314535649
22800163200.0 -0.9654199753 0.2451722678
22850162900.0 -0.9629190491 0.2583081047
22900162600.0 -0.9614125541 0.2718329945
22950162300.0 -0.960078744 0.2850928241
23000162000.0 -0.9585796221 0.2971958732
23050161700.0 -0.9568927789 0.3101739802
23100161400.0 -0.9540977479 0.3228004677
23150161100.0 -0.9509676367 0.3356141033
23200160800.0 -0.9482511628 0.3479622899
23250160500.0 -0.9453674829 0.3598933228
23300160200.0 -0.9435268534 0.3717511976
23350159900.0 -0.9385840799 0.3858835501
23400159600.0 -0.9347616097 0.3990107597
23450159300.0 -0.9296897261 0.4122320628
23500159000.0 -0.9246263731 0.4257166533
23550158700.0 -0.9202431688 0.4395672749
23600158400.0 -0.9145855596 0.4529388937
23650158100.0 -0.9078937654 0.4671455522
23700157800.0 -0.9002388073 0.4814504623
23750157500.0 -0.8914864288 0.4954113685
23800157200.0 -0.8821735494 0.5088322101
23850156900.0 -0.8733145992 0.5217984964
23900156600.0 -0.8636591729 0.5339944979
23950156300.0 -0.8541597752 0.5464320192
24000156000.0 -0.8453084439 0.5593230279
24050155700.0 -0.8352436863 0.5713701205
24100155400.0 -0.8248973543 0.5827881971
24150155100.0 -0.8144330491 0.5950970616
24200154800.0 -0.8033961656 0.6060848095
24250154500.0 -0.7916406183 0.617898644
24300154200.0 -0.7808257473 0.6297806528
24350153900.0 -0.7687591846 0.6405717577
24400153600.0 -0.7562779497 0.6508059617
24450153300.0 -0.7445565494 0.6609048256
24500153000.0 -0.7329241999 0.6707467014
24550152700.0 -0.7220325627 0.6797076181
24600152400.0 -0.7099182663 0.6896274231
