!Created with skrf (http://scikit-rf.org).
# Hz S RI R 50.0 
!freq ReS11 ImS11
300000.0 -0.9776768568 -0.112174654
50299700.0 -1.000046256 0.0158597718
100299400.0 -0.9981817929 0.0286535831
150299100.0 -1.002643209 0.0456682496
200298800.0 -0.9997298625 0.0588095747
250298500.0 -0.9972700645 0.0723675558
300298200.0 -0.9860302355 0.0882957604
350297900.0 -0.9941827923 0.0990022776
400297600.0 -0.9930021744 0.1156295528
450297300.0 -0.9912844773 0.1294279533
500297000.0 -0.9895935801 0.1442052732
550296700.0 -0.9841191792 0.156812698
600296400.0 -1.017424913 0.1903360041
650296100.0 -0.9823358757 0.1868446557
700295800.0 -0.9794363569 0.201168373
750295500.0 -0.9764180266 0.2150114534
800295200.0 -0.972980295 0.2290642648
850294900.0 -0.9696354666 0.2429816177
900294600.0 -0.9656100208 0.256737028
950294300.0 -0.9621518455 0.2703513658
1000294000.0 -0.9580309967 0.2843370425
1050293700.0 -0.95355073 0.2980911698
1100293400.0 -0.9491623713 0.3126362688
1150293100.0 -0.9452267621 0.3243554595
1200292800.0 -0.9400068322 0.3388373112
1250292500.0 -0.9347002657 0.3521491613
1300292200.0 -0.9288241741 0.3654450384
1350291900.0 -0.9232497534 0.3794584059
1400291600.0 -0.9177382767 0.3926179453
1450291300.0 -0.9124920468 0.4051626568
1500291000.0 -0.9060024558 0.4182086763
1550290700.0 -0.8997023626 0.4317856376
1600290400.0 -0.893284845 0.4445714956
1650290100.0 -0.8867322158 0.4566692951
1700289800.0 -0.8798433221 0.4702490224
1750289500.0 -0.8727811249 0.4825037345
1800289200.0 -0.8653479913 0.4951585245
1850288900.0 -0.8585613448 0.5065736332
1900288600.0 -0.8507525654 0.5195375465
1950288300.0 -0.842517302 0.5322143405
2000288000.0 -0.8350491396 0.543655159
2050287700.0 -0.8269823955 0.5560027304
2100287400.0 -0.8188306489 0.5674147938
2150287100.0 -0.8103660275 0.5798718515
2200286800.0 -0.8027780695 0.590038877
2250286500.0 -0.793724001 0.6021330807
2300286200.0 -0.7849053936 0.6136036418
2350285900.0 -0.7760913887 0.6247927751
2400285600.0 -0.7671088713 0.6357638489
2450285300.0 -0.758474413 0.6460285236
2500285000.0 -0.7489331127 0.6572529221
2550284700.0 -0.7398128525 0.6676285335
2600284400.0 -0.7303628681 0.677781241
2650284100.0 -0.7213166821 0.6881922515
2700283800.0 -0.7106180818 0.6987692673
2750283500.0 -0.7002070978 0.7093706585
2800283200.0 -0.6907691445 0.7190423967
2850282900.0 -0.6804711825 0.7287875747
2900282600.0 -0.6700985903 0.7385132289
2950282300.0 -0.6599412455 0.747765936
3000282000.0 -0.6492137922 0.7572978136
3050281700.0 -0.6380489404 0.7664653582
3100281400.0 -0.6260144944 0.775887256
3150281100.0 -0.6143199914 0.7852049769
3200280800.0 -0.6026314034 0.7937498536
3250280500.0 -0.591908142 0.8014286465
3300280200.0 -0.5805842061 0.8092420284
3350279900.0 -0.569319348 0.8168848175
3400279600.0 -0.55709966 0.8243792181
3450279300.0 -0.545944788 0.8314711028
3500279000.0 -0.5339482007 0.8387038886
3550278700.0 -0.5213004972 0.8460710044
3600278400.0 -0.5091598415 0.8532221875
3650278100.0 -0.4956216676 0.8606890936
3700277800.0 -0.483836399 0.8671936979
3750277500.0 -0.4716078588 0.8738067139
3800277200.0 -0.4592389385 0.8805090755
3850276900.0 -0.4469520112 0.886129062
3900276600.0 -0.4359264665 0.8918858528
3950276300.0 -0.4237089361 0.8979133745
4000276000.0 -0.4116579229 0.903796687
4050275700.0 -0.398756136 0.9100143872
4100275400.0 -0.3875118176 0.9154381338
4150275100.0 -0.3747390466 0.9209350378
4200274800.0 -0.3618644837 0.9266700362
4250274500.0 -0.3495084747 0.9317569635
4300274200.0 -0.3366106689 0.9369377717
4350273900.0 -0.3228249262 0.9421641309
4400273600.0 -0.3078310629 0.9473867618
4450273300.0 -0.2924381242 0.9523830858
4500273000.0 -0.2788119077 0.9570314236
4550272700.0 -0.2648061148 0.9611703539
4600272400.0 -0.2491772865 0.965469984
4650272100.0 -0.2374792702 0.9685306459
4700271800.0 -0.224119561 0.9719734478
4750271500.0 -0.2123858581 0.9747133913
4800271200.0 -0.1999480199 0.9774744664
4850270900.0 -0.1860074373 0.9802735792
4900270600.0 -0.172074962 0.982469967
4950270300.0 -0.1577341683 0.9850317326
5000270000.0 -0.1437758061 0.9872936446
5050269700.0 -0.1302129452 0.9889612367
5100269400.0 -0.1166426573 0.9906337474
5150269100.0 -0.1033448441 0.9920444442
5200268800.0 -0.0901587535 0.9930317207
5250268500.0 -0.0769864834 0.99390594
5300268200.0 -0.0640516149 0.9947372087
5350267900.0 -0.0518673301 0.9952454562
5400267600.0 -0.0357138253 0.9962782085
5450267300.0 -0.0224482481 0.996635763
5500267000.0 -0.0074689327 0.9969948967
5550266700.0 0.0077967492 0.9972788867
5600266400.0 0.0234349748 0.9974259512
5650266100.0 0.0399027089 0.9968188244
5700265800.0 0.0543928394 0.9963065012
5750265500.0 0.0695407501 0.9952711345
5800265200.0 0.0837565322 0.9943910818
5850264900.0 0.0967441193 0.9930146078
5900264600.0 0.1132357321 0.9914352825
5950264300.0 0.1254727343 0.9896153089
6000264000.0 0.1394446706 0.9879815005
6050263700.0 0.1519278683 0.9864694269
6100263400.0 0.1645530311 0.985058315
6150263100.0 0.1787495715 0.9825026674
6200262800.0 0.1893127303 0.9809082233
6250262500.0 0.2020808642 0.9782395572
6300262200.0 0.2148019771 0.9754252069
6350261900.0 0.2279607936 0.9724421939
6400261600.0 0.241684618 0.9691360338
6450261300.0 0.2530731302 0.9664724629
6500261000.0 0.2658006157 0.9629389163
6550260700.0 0.2787152366 0.9590518857
6600260400.0 0.2922719008 0.9549457303
6650260100.0 0.3057764115 0.9503890783
6700259800.0 0.3180586434 0.9462237557
6750259500.0 0.3320641598 0.9412945531
6800259200.0 0.3451437831 0.9362004233
6850258900.0 0.3571774196 0.93120584
6900258600.0 0.3693013785 0.9263733108
6950258300.0 0.3817559015 0.9207606881
7000258000.0 0.3937627063 0.915263598
7050257700.0 0.4060412283 0.9093983881
7100257400.0 0.4187628824 0.9032474603
7150257100.0 0.4289393888 0.8979616096
7200256800.0 0.4419660462 0.8914220348
7250256500.0 0.4536774514 0.8851347867
7300256200.0 0.4667597003 0.8785219078
7350255900.0 0.4794575177 0.8716827848
7400255600.0 0.4925086174 0.8643501017
7450255300.0 0.5076357777 0.8554689384
7500255000.0 0.519186029 0.848052794
7550254700.0 0.5331082153 0.8396159045
7600254400.0 0.5454713523 0.8311231769
7650254100.0 0.5574983594 0.8234986993
7700253800.0 0.5694042685 0.8153280953
7750253500.0 0.5805851225 0.8076090238
7800253200.0 0.5912800773 0.8000748593
7850252900.0 0.6007804097 0.7930467811
7900252600.0 0.6124654283 0.7842036168
7950252300.0 0.6212918477 0.7776756369
8000252000.0 0.6313475113 0.7698103354
8050251700.0 0.6421994806 0.7614837445
8100251400.0 0.6518650412 0.7533753068
8150251100.0 0.6620550048 0.7447212291
8200250800.0 0.6713494853 0.7368226339
8250250500.0 0.680431454 0.7290127227
8300250200.0 0.6896939148 0.7201197177
8350249900.0 0.6988741052 0.7113484827
8400249600.0 0.7068968641 0.7034862409
8450249300.0 0.7161239264 0.694339694
8500249000.0 0.7249991855 0.6855717664
8550248700.0 0.733129096 0.6763406069
8600248400.0 0.7414395561 0.6669894605
8650248100.0 0.7492933616 0.6573004658
8700247800.0 0.7586479066 0.6463969567
8750247500.0 0.7670790668 0.636127603
8800247200.0 0.7751282906 0.6258207173
8850246900.0 0.7837198619 0.614553088
8900246600.0 0.7923717407 0.60315345
8950246300.0 0.8020611801 0.5900309489
9000246000.0 0.8113806069 0.5775747597
9050245700.0 0.8203513388 0.5642077406
9100245400.0 0.8288541829 0.5516625543
9150245100.0 0.8384991052 0.5381747388
9200244800.0 0.8481587307 0.5225340331
9250244500.0 0.8576804054 0.5069270598
9300244200.0 0.8660539226 0.4922455217
9350243900.0 0.8739033641 0.4783250262
9400243600.0 0.8805633506 0.4659388697
9450243300.0 0.8864018444 0.4542860523
9500243000.0 0.8927571203 0.4418651249
9550242700.0 0.8964148252 0.4341216499
9600242400.0 0.9002237407 0.4271156545
9650242100.0 0.9037119723 0.4206739945
9700241800.0 0.9083641507 0.4124077723
9750241500.0 0.9122710017 0.4049395038
9800241200.0 0.9168202459 0.3959101129
9850240900.0 0.9224878883 0.3842941792
9900240600.0 0.9282345082 0.37250339
9950240300.0 0.9347830305 0.3563215984
10000240000.0 0.9393816293 0.3448867319
10050239700.0 0.9449968373 0.3298198787
10100239400.0 0.9498676922 0.3141918774
10150239100.0 0.9543092893 0.2995514212
10200238800.0 0.958422408 0.2845346373
10250238500.0 0.9618170894 0.2710248804
10300238200.0 0.964900693 0.2573485117
10350237900.0 0.9674912431 0.2444156231
10400237600.0 0.9700741913 0.2309484789
10450237300.0 0.9728597091 0.2171668188
10500237000.0 0.9749261155 0.2054535874
10550236700.0 0.9772244165 0.1911120995
10600236400.0 0.9793701264 0.1776679151
10650236100.0 0.9813151894 0.1627423456
10700235800.0 0.9836437825 0.1507424799
10750235500.0 0.9854853538 0.1376160858
10800235200.0 0.9876392808 0.1234185298
10850234900.0 0.98985033 0.1090141393
10900234600.0 0.9917868713 0.0942746992
10950234300.0 0.9935286096 0.0810634872
11000234000.0 0.9952656078 0.0659798572
11050233700.0 0.9970268362 0.0496565082
11100233400.0 0.9983523218 0.0324305001
11150233100.0 0.9994804342 0.0165160838
11200232800.0 1.000168326 0.001268197
11250232500.0 1.001305213 -0.0157698086
11300232200.0 1.001708547 -0.0350600678
11350231900.0 1.001589242 -0.0496469698
11400231600.0 1.001364415 -0.065265208
11450231300.0 1.001030784 -0.0816367578
11500231000.0 1.000002546 -0.0964589992
11550230700.0 0.9976371753 -0.1110259164
11600230400.0 0.9966691456 -0.1233123877
11650230100.0 0.9947538391 -0.1343219967
11700229800.0 0.9928979616 -0.1496780675
11750229500.0 0.9907605433 -0.1641407379
11800229200.0 0.9877966922 -0.1776980953
11850228900.0 0.9841506091 -0.1901672979
11900228600.0 0.9806487597 -0.1998682437
11950228300.0 0.9773193168 -0.2102634579
12000228000.0 0.9746806588 -0.2190858953
12050227700.0 0.9711559311 -0.2319074877
12100227400.0 0.9677781258 -0.2425557119
12150227100.0 0.962626981 -0.2599469649
12200226800.0 0.9596141246 -0.270263368
12250226500.0 0.9552875346 -0.2833482898
12300226200.0 0.9510783045 -0.2956792938
12350225900.0 0.9457450898 -0.3089337699
12400225600.0 0.9422060723 -0.3221508559
12450225300.0 0.9374168007 -0.3340447786
12500225000.0 0.9316960423 -0.3492334329
12550224700.0 0.9266347376 -0.3629903601
12600224400.0 0.9216720744 -0.3760077907
12650224100.0 0.915973829 -0.3902652978
12700223800.0 0.9107091065 -0.4029508037
12750223500.0 0.9051390014 -0.4159700172
12800223200.0 0.9002517563 -0.4281090024
12850222900.0 0.8943261934 -0.440984526
12900222600.0 0.8885158702 -0.453263989
12950222300.0 0.8824143375 -0.4661569273
13000222000.0 0.8760541146 -0.4775800509
13050221700.0 0.8699317078 -0.4896786052
13100221400.0 0.8631474789 -0.5020905538
13150221100.0 0.8561927596 -0.5138232301
13200220800.0 0.849181577 -0.5256107024
13250220500.0 0.8418296302 -0.5381376594
13300220200.0 0.8343713853 -0.548773477
13350219900.0 0.8263950034 -0.5603953823
13400219600.0 0.8178891332 -0.5727838523
13450219300.0 0.8085140804 -0.5864882962
13500219000.0 0.7980924306 -0.6006455572
13550218700.0 0.7880238135 -0.6130875452
13600218400.0 0.7777015052 -0.6254818613
13650218100.0 0.7679636619 -0.6369250486
13700217800.0 0.7566668327 -0.6493823724
13750217500.0 0.7464300928 -0.660353273
13800217200.0 0.7357791418 -0.671881465
13850216900.0 0.7246853892 -0.6829806211
13900216600.0 0.7144818857 -0.6920344311
13950216300.0 0.70440127 -0.7028571626
14000216000.0 0.6935023938 -0.7120264767
14050215700.0 0.6841101683 -0.7203588431
14100215400.0 0.6745246919 -0.7291386
14150215100.0 0.6654374409 -0.7376343665
14200214800.0 0.6561190699 -0.7460902384
14250214500.0 0.6457499427 -0.7554507484
14300214200.0 0.6355946986 -0.7646151759
14350213900.0 0.6244597932 -0.774146715
14400213600.0 0.6126401001 -0.783900987
14450213300.0 0.5994249972 -0.7940162006
14500213000.0 0.5863448226 -0.8041997045
14550212700.0 0.5736162721 -0.8132716822
14600212400.0 0.5613964122 -0.8222568279
14650212100.0 0.5482910637 -0.8313691438
14700211800.0 0.5342284351 -0.8404460651
14750211500.0 0.5220887192 -0.8486797482
14800211200.0 0.5098822871 -0.8567103909
14850210900.0 0.497542066 -0.864143135
14900210600.0 0.4843663589 -0.8719833913
14950210300.0 0.4710000977 -0.8797725914
15000210000.0 0.4580550771 -0.8864520648
15050209700.0 0.4459810333 -0.8926341698
15100209400.0 0.4331353549 -0.8988407346
15150209100.0 0.4204866165 -0.9039678392
15200208800.0 0.4075925107 -0.9097589043
15250208500.0 0.3962933871 -0.9142071328
15300208200.0 0.3838165267 -0.9185521484
15350207900.0 0.371312854 -0.9230278289
15400207600.0 0.3559432937 -0.9289284782
15450207300.0 0.341660893 -0.9336590031
15500207000.0 0.3265601774 -0.9377675968
15550206700.0 0.3121439116 -0.943653475
15600206400.0 0.2963249692 -0.9481992214
15650206100.0 0.2803018088 -0.9519623273
15700205800.0 0.2665258995 -0.9561167514
15750205500.0 0.2518386094 -0.9593923554
15800205200.0 0.2374688711 -0.9626553459
15850204900.0 0.2231031372 -0.9659986703
15900204600.0 0.2080649681 -0.969659082
15950204300.0 0.1940062641 -0.9725576457
16000204000.0 0.1797356037 -0.9750599074
16050203700.0 0.1653108044 -0.9781825191
16100203400.0 0.1506864337 -0.9803599424
16150203100.0 0.1363817813 -0.9823788687
16200202800.0 0.1226126873 -0.9842353647
16250202500.0 0.1078465936 -0.9864674332
16300202200.0 0.0922278759 -0.9880107152
16350201900.0 0.0771611198 -0.9888288581
16400201600.0 0.0626849045 -0.9900741128
16450201300.0 0.0475278679 -0.9911194236
16500201000.0 0.0309410167 -0.9919180291
16550200700.0 0.0153265997 -0.9923246626
16600200400.0 -0.0004366882 -0.9926841723
16650200100.0 -0.0165224066 -0.9922940161
16700199800.0 -0.0332090039 -0.9919237882
16750199500.0 -0.0520177052 -0.9912119231
16800199200.0 -0.0675460663 -0.9902911503
16850198900.0 -0.0831325444 -0.9889900295
16900198600.0 -0.0959931118 -0.9886884853
16950198300.0 -0.1102460828 -0.9872597894
17000198000.0 -0.1233901747 -0.9860235617
17050197700.0 -0.1358890648 -0.9835663705
17100197400.0 -0.1483298462 -0.9823213403
17150197100.0 -0.1608295405 -0.9797417172
17200196800.0 -0.1742049639 -0.9773848476
17250196500.0 -0.1868248336 -0.9752598961
17300196200.0 -0.1992079016 -0.9729506992
17350195900.0 -0.2108979403 -0.9709225268
17400195600.0 -0.2230059165 -0.9683625486
17450195300.0 -0.2361921535 -0.9654947137
17500195000.0 -0.2497256685 -0.9621673471
17550194700.0 -0.2636002381 -0.958496584
17600194400.0 -0.2774449393 -0.9546970653
17650194100.0 -0.2913946908 -0.9506438489
17700193800.0 -0.3045784987 -0.9459393909
17750193500.0 -0.3185862058 -0.9417683071
17800193200.0 -0.3328936976 -0.9359839392
17850192900.0 -0.3477151478 -0.9306667149
17900192600.0 -0.3629909384 -0.924743693
17950192300.0 -0.3783807197 -0.9174918863
18000192000.0 -0.3933145522 -0.9102807481
18050191700.0 -0.40701263 -0.902265307
18100191400.0 -0.4213449248 -0.894739992
18150191100.0 -0.4363719396 -0.886630842
18200190800.0 -0.4532136369 -0.8772842506
18250190500.0 -0.4702108542 -0.867946821
18300190200.0 -0.4856190593 -0.858972551
18350189900.0 -0.5004421164 -0.8506543219
18400189600.0 -0.5154049654 -0.8421654855
18450189300.0 -0.5286950464 -0.8343654474
18500189000.0 -0.5414113528 -0.8262997752
18550188700.0 -0.554197472 -0.8189359561
18600188400.0 -0.5658601934 -0.8118917434
18650188100.0 -0.5771687401 -0.8058815531
18700187800.0 -0.5878415647 -0.7990287267
18750187500.0 -0.5986981919 -0.7925320364
18800187200.0 -0.6090757173 -0.7854231598
18850186900.0 -0.619222398 -0.7783942211
18900186600.0 -0.6296833387 -0.7709853366
18950186300.0 -0.6396352922 -0.7634369505
19000186000.0 -0.6468861835 -0.7573834571
19050185700.0 -0.6556209101 -0.7502336766
19100185400.0 -0.6663594979 -0.7417460342
19150185100.0 -0.6764742128 -0.733526325
19200184800.0 -0.6861791652 -0.7242051653
19250184500.0 -0.6954760556 -0.7156522393
19300184200.0 -0.7074529618 -0.7058260024
19350183900.0 -0.7181261917 -0.6960257453
19400183600.0 -0.7273856169 -0.6862590477
19450183300.0 -0.7366656568 -0.6758429648
19500183000.0 -0.7445872446 -0.6666442909
19550182700.0 -0.7547732715 -0.6555824247
19600182400.0 -0.7650063707 -0.6438297656
19650182100.0 -0.775768253 -0.6314856111
19700181800.0 -0.7862789085 -0.6179522284
19750181500.0 -0.7970829476 -0.60394166
19800181200.0 -0.8072510257 -0.5888384657
19850180900.0 -0.8169263573 -0.5735786167
19900180600.0 -0.8247241592 -0.559136148
19950180300.0 -0.8335763988 -0.5425089227
20000180000.0 -0.8267152963 -0.5447124996
20050179700.0 -0.8351670737 -0.5319658663
20100179400.0 -0.8430883528 -0.5187580177
20150179100.0 -0.8516593745 -0.5053946538
20200178800.0 -0.8610968814 -0.4939951564
20250178500.0 -0.8700813469 -0.4798708484
20300178200.0 -0.8792789586 -0.4651417738
20350177900.0 -0.8882395414 -0.4504132384
20400177600.0 -0.8972979676 -0.435899403
20450177300.0 -0.9053787102 -0.4215518435
20500177000.0 -0.9138314866 -0.4076093789
20550176700.0 -0.9213496982 -0.3940288647
20600176400.0 -0.9282545307 -0.3811095017
20650176100.0 -0.9353260469 -0.3685973021
20700175800.0 -0.9416172704 -0.3565304587
20750175500.0 -0.9482047696 -0.3445202702
20800175200.0 -0.9528257305 -0.3345569875
20850174900.0 -0.9578924273 -0.3228274352
20900174600.0 -0.9632777727 -0.3107295405
20950174300.0 -0.9663629625 -0.2995905275
21000174000.0 -0.9701788516 -0.2877100378
21050173700.0 -0.97347437 -0.2773447757
21100173400.0 -0.9768055785 -0.2647125184
21150173100.0 -0.9814698992 -0.2524396942
21200172800.0 -0.9846726308 -0.2389859364
21250172500.0 -0.9881541469 -0.2250655532
21300172200.0 -0.9906963577 -0.2106776978
21350171900.0 -0.9920447598 -0.196709254
21400171600.0 -0.9934555638 -0.1823907992
21450171300.0 -0.9935982012 -0.1678582237
21500171000.0 -0.9931915918 -0.1514624064
21550170700.0 -0.9928062523 -0.1366803927
21600170400.0 -0.9929410764 -0.1205419912
21650170100.0 -0.9922443823 -0.1052686259
21700169800.0 -0.9904810458 -0.0901174071
21750169500.0 -0.989053649 -0.0743957146
21800169200.0 -0.9879773091 -0.0576354909
21850168900.0 -0.9865092308 -0.0411255237
21900168600.0 -0.985678022 -0.0250569992
21950168300.0 -0.9841708269 -0.0093975882
22000168000.0 -0.982725194 0.0052909055
22050167700.0 -0.9824883176 0.0194919081
22100167400.0 -0.9824677325 0.0349809965
22150167100.0 -0.9831889049 0.0499333243
22200166800.0 -0.9834955998 0.0665626843
22250166500.0 -0.9826529032 0.0835873677
22300166200.0 -0.9822690434 0.1004038915
22350165900.0 -0.9813714561 0.1172183361
22400165600.0 -0.9790728512 0.1325340658
22450165300.0 -0.9763921111 0.1482403465
22500165000.0 -0.9752819587 0.1609598893
22550164700.0 -0.9750703563 0.1761455566
22600164400.0 -0.9730144286 0.1919847195
22650164100.0 -0.9707087203 0.2067035579
22700163800.0 -0.9686246821 0.2226581682
22750163500.0 -0.9648812856 0.2376046847
22800163200.0 -0.9623175155 0.2512113995
22850162900.0 -0.960052597 0.2648469572
22900162600.0 -0.9587933253 0.2781430936
22950162300.0 -0.9575199954 0.291135602
23000162000.0 -0.9565050732 0.302741921
23050161700.0 -0.9541196066 0.3156455083
23100161400.0 -0.9522556295 0.3277341807
23150161100.0 -0.9496473837 0.3400845921
23200160800.0 -0.9465979408 0.3524246076
23250160500.0 -0.943978191 0.3646322654
23300160200.0 -0.9420809913 0.3766341802
23350159900.0 -0.9375318693 0.389490063
23400159600.0 -0.9334815497 0.4023197454
23450159300.0 -0.9280541352 0.4151847777
23500159000.0 -0.9235505629 0.4283420977
23550158700.0 -0.9194244451 0.4415988603
23600158400.0 -0.913919082 0.4547195377
23650158100.0 -0.9079828425 0.4684895152
23700157800.0 -0.9000662635 0.4826544862
23750157500.0 -0.8912487808 0.4964534449
23800157200.0 -0.8824104095 0.5101458418
23850156900.0 -0.873935834 0.5222342836
23900156600.0 -0.8645816877 0.5348856047
23950156300.0 -0.8555332151 0.5470917063
24000156000.0 -0.8462251234 0.5594288546
24050155700.0 -0.8362700155 0.5714472532
24100155400.0 -0.8261577855 0.5831519618
24150155100.0 -0.8156505983 0.5946186343
24200154800.0 -0.8049343992 0.6060075894
24250154500.0 -0.792859659 0.6174222563
24300154200.0 -0.7819115271 0.6291043328
24350153900.0 -0.7696501743 0.639740545
24400153600.0 -0.7577682806 0.6496311798
24450153300.0 -0.7460487741 0.6596842841
24500153000.0 -0.7342180041 0.6690772506
24550152700.0 -0.7225551403 0.6790798277
24600152400.0 -0.711054891 0.6885318888
24650152100.0 -0.6996411787 0.6973126104
