!Created with skrf (http://scikit-rf.org).
# Hz S RI R 50.0 
!freq ReS11 ImS11
300000.0 -0.973034569 -0.1230173657
50299700.0 -0.9999418556 0.014928458
100299400.0 -0.9979155699 0.0279005361
150299100.0 -1.00255862 0.0448147317
200298800.0 -0.9995806977 0.0579981398
250298500.0 -0.9972666068 0.0714550019
300298200.0 -0.9856815084 0.0874031064
350297900.0 -0.994075034 0.0982188209
400297600.0 -0.9930177172 0.114822689
450297300.0 -0.9909554018 0.1286514465
500297000.0 -0.9895464442 0.1433597353
550296700.0 -0.9842746768 0.1557133825
600296400.0 -1.017366709 0.1891645795
650296100.0 -0.9822393235 0.1856164813
700295800.0 -0.9794025764 0.1998320379
750295500.0 -0.9763522846 0.2138697457
800295200.0 -0.9731099889 0.2280721066
850294900.0 -0.9695514129 0.241642772
900294600.0 -0.9656906754 0.2556282057
950294300.0 -0.9621856671 0.2692567788
1000294000.0 -0.9580597408 0.2830477636
1050293700.0 -0.9536860191 0.2971238669
1100293400.0 -0.9493080618 0.3113725329
1150293100.0 -0.9455711942 0.323340488
1200292800.0 -0.9402149613 0.3377621982
1250292500.0 -0.9347667065 0.3511372964
1300292200.0 -0.929117687 0.364584458
1350291900.0 -0.9233743385 0.3783673541
1400291600.0 -0.917924282 0.3914307096
1450291300.0 -0.9125634881 0.4038446782
1500291000.0 -0.9063243806 0.4173051527
1550290700.0 -0.8998010553 0.4306831623
1600290400.0 -0.8934481729 0.4436292695
1650290100.0 -0.8868783139 0.4556089264
1700289800.0 -0.8799421482 0.4691590391
1750289500.0 -0.8727964829 0.4812948532
1800289200.0 -0.8657090916 0.4944445588
1850288900.0 -0.8589088402 0.5056986132
1900288600.0 -0.8510148394 0.5186140196
1950288300.0 -0.8430110917 0.5312746158
2000288000.0 -0.8355952448 0.5426422341
2050287700.0 -0.8271523004 0.5552447886
2100287400.0 -0.8194156445 0.5665422394
2150287100.0 -0.8108595804 0.5784786486
2200286800.0 -0.8030399519 0.5890367844
2250286500.0 -0.7942122315 0.6013819015
2300286200.0 -0.7852282126 0.6128828332
2350285900.0 -0.7769819579 0.6234908633
2400285600.0 -0.7679009072 0.6342840913
2450285300.0 -0.7591862076 0.644960025
2500285000.0 -0.7491592331 0.6567169007
2550284700.0 -0.740195879 0.6670120354
2600284400.0 -0.7310365305 0.6769717376
2650284100.0 -0.7223397788 0.6870912954
2700283800.0 -0.712092546 0.6976503576
2750283500.0 -0.7015080593 0.708198665
2800283200.0 -0.6913998609 0.7178791336
2850282900.0 -0.6811651272 0.7279785211
2900282600.0 -0.67078752 0.7378183157
2950282300.0 -0.6603031207 0.7474891959
3000282000.0 -0.6497553501 0.7567003355
3050281700.0 -0.6383353598 0.7659486951
3100281400.0 -0.6270161762 0.7750104182
3150281100.0 -0.6157647721 0.7837275662
3200280800.0 -0.6042485361 0.7921734408
3250280500.0 -0.5930889442 0.8002321277
3300280200.0 -0.5815100483 0.8084165738
3350279900.0 -0.5694107612 0.8163200964
3400279600.0 -0.5565753642 0.8247389503
3450279300.0 -0.5455297805 0.8317145583
3500279000.0 -0.5339158265 0.8385116701
3550278700.0 -0.5217742624 0.8456472774
3600278400.0 -0.5098902865 0.8521809226
3650278100.0 -0.4967051219 0.859939645
3700277800.0 -0.4849719714 0.8668304041
3750277500.0 -0.4723577229 0.8732163326
3800277200.0 -0.4598800398 0.879614544
3850276900.0 -0.4479770792 0.8857338244
3900276600.0 -0.4368191342 0.8913947676
3950276300.0 -0.4249650472 0.8968993678
4000276000.0 -0.4131894895 0.9029045801
4050275700.0 -0.4006627935 0.9088154381
4100275400.0 -0.3895672245 0.9144271168
4150275100.0 -0.3763168098 0.9205810115
4200274800.0 -0.3626722335 0.9262762354
4250274500.0 -0.3500900702 0.9313764035
4300274200.0 -0.3367160129 0.9368164259
4350273900.0 -0.3222821348 0.9419825623
4400273600.0 -0.3077406831 0.9470573323
4450273300.0 -0.2930002337 0.9519434059
4500273000.0 -0.2797423514 0.9564232192
4550272700.0 -0.2661492537 0.9605115502
4600272400.0 -0.2511880238 0.9646182643
4650272100.0 -0.2396689611 0.9676727808
4700271800.0 -0.2270996671 0.9711383309
4750271500.0 -0.2153724829 0.9740298104
4800271200.0 -0.2031916292 0.9766175929
4850270900.0 -0.1893050402 0.9795741977
4900270600.0 -0.1755582027 0.9821139819
4950270300.0 -0.16105063 0.9846338933
5000270000.0 -0.1463774089 0.986663414
5050269700.0 -0.1330771942 0.9882624224
5100269400.0 -0.1186945757 0.9902374385
5150269100.0 -0.1047671153 0.9917691944
5200268800.0 -0.0914560537 0.9926875443
5250268500.0 -0.0783168923 0.9937233877
5300268200.0 -0.0646771396 0.9945624787
5350267900.0 -0.0519652497 0.9949753158
5400267600.0 -0.035708478 0.9962002398
5450267300.0 -0.022322545 0.996631696
5500267000.0 -0.0069305466 0.9969891981
5550266700.0 0.007903066 0.997179121
5600266400.0 0.0239459204 0.9972513561
5650266100.0 0.0405283774 0.9968671507
5700265800.0 0.0545642383 0.9960509491
5750265500.0 0.0698136919 0.9949136679
5800265200.0 0.0830495179 0.9938405784
5850264900.0 0.0963469871 0.9932013841
5900264600.0 0.1127242231 0.9910730204
5950264300.0 0.1245769633 0.9894709788
6000264000.0 0.1380744629 0.988192278
6050263700.0 0.1498391129 0.9864685066
6100263400.0 0.1615862307 0.9847240709
6150263100.0 0.1763625559 0.9825629562
6200262800.0 0.1858987761 0.9811750851
6250262500.0 0.198378051 0.9789042377
6300262200.0 0.2105473524 0.9763508162
6350261900.0 0.2234963659 0.9734896379
6400261600.0 0.237464197 0.9704151488
6450261300.0 0.2485198654 0.9676625102
6500261000.0 0.2617893198 0.9642302424
6550260700.0 0.2749891805 0.9602523656
6600260400.0 0.2885447729 0.9561418497
6650260100.0 0.302562245 0.9517826914
6700259800.0 0.3148756398 0.9474755512
6750259500.0 0.3283593029 0.9425648593
6800259200.0 0.3420996017 0.9375048148
6850258900.0 0.3544393536 0.932011293
6900258600.0 0.3670833113 0.9267524764
6950258300.0 0.3795841404 0.9215373045
7000258000.0 0.3909661533 0.9163804053
7050257700.0 0.4029436466 0.9104765601
7100257400.0 0.4165497489 0.9041128289
7150257100.0 0.4273141883 0.8986122987
7200256800.0 0.4404512156 0.8923007834
7250256500.0 0.452943481 0.8854311662
7300256200.0 0.466134033 0.8788477466
7350255900.0 0.4788664351 0.8717294458
7400255600.0 0.4927921651 0.8638614638
7450255300.0 0.5083859953 0.8548971034
7500255000.0 0.5212807654 0.8474682452
7550254700.0 0.5354720726 0.8380675024
7600254400.0 0.5479207843 0.8300418989
7650254100.0 0.5589696284 0.8219663372
7700253800.0 0.5713033844 0.814114235
7750253500.0 0.5820377919 0.8065189254
7800253200.0 0.5925221222 0.798462008
7850252900.0 0.6023559023 0.7913799139
7900252600.0 0.6138784639 0.7825298091
7950252300.0 0.622209381 0.7760950133
8000252000.0 0.6321139917 0.7686884003
8050251700.0 0.6425804001 0.7606908612
8100251400.0 0.6522772079 0.7525595549
8150251100.0 0.6621106159 0.7442905717
8200250800.0 0.671613941 0.735932101
8250250500.0 0.6806031222 0.7279683793
8300250200.0 0.6897169345 0.7195967792
8350249900.0 0.6992246847 0.7107751397
8400249600.0 0.7069712994 0.7028641715
8450249300.0 0.7156983793 0.6942271752
8500249000.0 0.7244428481 0.6854415948
8550248700.0 0.7326788032 0.6765209053
8600248400.0 0.7409352686 0.6668931044
8650248100.0 0.7484609591 0.6574709555
8700247800.0 0.7578022269 0.6465440768
8750247500.0 0.76629129 0.6363756904
8800247200.0 0.7741677449 0.626033179
8850246900.0 0.7828967402 0.6146359855
8900246600.0 0.7911209295 0.603176559
8950246300.0 0.8004932999 0.5906941432
9000246000.0 0.8091497219 0.5788088872
9050245700.0 0.8171380119 0.5665152771
9100245400.0 0.8259902362 0.5542696033
9150245100.0 0.8346645519 0.5413698852
9200244800.0 0.8441843407 0.5271696955
9250244500.0 0.8529983082 0.5125396094
9300244200.0 0.8611389336 0.498987221
9350243900.0 0.868627764 0.485773969
9400243600.0 0.8752512933 0.4741667189
9450243300.0 0.8808429293 0.4637899638
9500243000.0 0.8869566439 0.4522304993
9550242700.0 0.8910281504 0.44473276
9600242400.0 0.8952769539 0.4371824555
9650242100.0 0.8995638957 0.4301067325
9700241800.0 0.9044151484 0.4214626008
9750241500.0 0.9088594634 0.4139513735
9800241200.0 0.9133483357 0.4046414034
9850240900.0 0.9198814516 0.39259252
9900240600.0 0.9258688304 0.380253178
9950240300.0 0.9327928703 0.3638220684
10000240000.0 0.9376227934 0.3517341605
10050239700.0 0.944135609 0.3354292144
10100239400.0 0.9493707869 0.3191647561
10150239100.0 0.9540372687 0.3035320402
10200238800.0 0.9584671632 0.2878736647
10250238500.0 0.9614500451 0.2747012612
10300238200.0 0.9647481488 0.2605562418
10350237900.0 0.9676112538 0.2471988573
10400237600.0 0.9703016275 0.2335277648
10450237300.0 0.9727574645 0.2201602863
10500237000.0 0.9749157995 0.207327597
10550236700.0 0.9772570917 0.1931867687
10600236400.0 0.9793427202 0.1791373674
10650236100.0 0.9811423172 0.1649171403
10700235800.0 0.9838702257 0.1519883336
10750235500.0 0.9858964783 0.1388995928
10800235200.0 0.9879425162 0.1244713246
10850234900.0 0.9899491744 0.1096630397
10900234600.0 0.9924023367 0.0946587158
10950234300.0 0.9938082215 0.0811671516
11000234000.0 0.9956576618 0.0654629748
11050233700.0 0.9974205612 0.0489203271
11100233400.0 0.9990811709 0.0310790801
11150233100.0 0.9999600541 0.0145777842
11200232800.0 1.001176674 -0.0016242267
11250232500.0 1.001529213 -0.0200561124
11300232200.0 1.002598317 -0.0388517286
11350231900.0 1.002188178 -0.0546827328
11400231600.0 1.001521686 -0.0712321813
11450231300.0 1.001294339 -0.0859936713
11500231000.0 1.000236559 -0.1020616421
11550230700.0 0.9984179063 -0.1158578678
11600230400.0 0.99688959 -0.1282451553
11650230100.0 0.9943904068 -0.1401664234
11700229800.0 0.9923427142 -0.1546775197
11750229500.0 0.990097743 -0.1689140012
11800229200.0 0.9874208717 -0.1821033418
11850228900.0 0.9835656783 -0.1938160123
11900228600.0 0.9799698306 -0.2031564278
11950228300.0 0.9765542114 -0.2129755312
12000228000.0 0.9738076518 -0.2220419698
12050227700.0 0.9698272875 -0.234227692
12100227400.0 0.9670444943 -0.2453235197
12150227100.0 0.96122383 -0.2628463541
12200226800.0 0.9584739972 -0.27356268
12250226500.0 0.9538848933 -0.2864723797
12300226200.0 0.9497028658 -0.2983455046
12350225900.0 0.944926691 -0.3123725361
12400225600.0 0.9403787271 -0.3244683869
12450225300.0 0.9358034835 -0.3373924917
12500225000.0 0.9304066483 -0.3515226205
12550224700.0 0.9250069639 -0.36582013
12600224400.0 0.919938366 -0.3784531476
12650224100.0 0.913992258 -0.3926611602
12700223800.0 0.9087835275 -0.405589429
12750223500.0 0.9033996803 -0.4186581089
12800223200.0 0.8979611943 -0.4311900688
12850222900.0 0.8927087642 -0.4435443788
12900222600.0 0.886979542 -0.4551545993
12950222300.0 0.8809372969 -0.4681594488
13000222000.0 0.8748565351 -0.4793186276
13050221700.0 0.8682446336 -0.4926301936
13100221400.0 0.8613306443 -0.5046203176
13150221100.0 0.8544978598 -0.5173674747
13200220800.0 0.8477453563 -0.5280153122
13250220500.0 0.8404340672 -0.5403662534
13300220200.0 0.832684242 -0.5514861545
13350219900.0 0.824678575 -0.5631216821
13400219600.0 0.8163497539 -0.5753103459
13450219300.0 0.8071458544 -0.5882283102
13500219000.0 0.7964457961 -0.6015143858
13550218700.0 0.7875251944 -0.6136993713
13600218400.0 0.7771176014 -0.6254234484
13650218100.0 0.7677779146 -0.6361745883
13700217800.0 0.7575358083 -0.6480104769
13750217500.0 0.7476856069 -0.6592372914
13800217200.0 0.7365107834 -0.6697861346
13850216900.0 0.7258686463 -0.6814009255
13900216600.0 0.7161882213 -0.6902714711
13950216300.0 0.7055332934 -0.7005937789
14000216000.0 0.6953580102 -0.7097846773
14050215700.0 0.6860151448 -0.7174216238
14100215400.0 0.6769515871 -0.7261050767
14150215100.0 0.6678225388 -0.7351045898
14200214800.0 0.6582539814 -0.7439694244
14250214500.0 0.6477378786 -0.7533314038
14300214200.0 0.6373251032 -0.7626587976
14350213900.0 0.6264041123 -0.7726188559
14400213600.0 0.6143904595 -0.7822689952
14450213300.0 0.6012095275 -0.7926694601
14500213000.0 0.5883342874 -0.8024138597
14550212700.0 0.5755880141 -0.8118452559
14600212400.0 0.5628532884 -0.8202851181
14650212100.0 0.5507605166 -0.8298950482
14700211800.0 0.5373747842 -0.8387259051
14750211500.0 0.5249084581 -0.8470834442
14800211200.0 0.5126588891 -0.8553516625
14850210900.0 0.5000587912 -0.8631030475
14900210600.0 0.486743867 -0.8709754318
14950210300.0 0.4734790247 -0.8785414694
15000210000.0 0.4610125336 -0.8853080486
15050209700.0 0.4483093076 -0.8911505273
15100209400.0 0.4359005991 -0.8973775014
15150209100.0 0.4235758145 -0.9028996178
15200208800.0 0.4106630065 -0.9077989752
15250208500.0 0.399589632 -0.9125859439
15300208200.0 0.3872372391 -0.9169250426
15350207900.0 0.3748725517 -0.9223824729
15400207600.0 0.3596755081 -0.9274253288
15450207300.0 0.34467247 -0.9320530238
15500207000.0 0.329970016 -0.9368504791
15550206700.0 0.3153306855 -0.9420429085
15600206400.0 0.3000662765 -0.9468520647
15650206100.0 0.2839064034 -0.9508358129
15700205800.0 0.2706673511 -0.9544765055
15750205500.0 0.2566006418 -0.957791312
15800205200.0 0.2424932979 -0.9612488811
15850204900.0 0.2284926073 -0.9645737012
15900204600.0 0.2135238951 -0.9683298993
15950204300.0 0.1993665555 -0.9714672
16000204000.0 0.1846219962 -0.9746334303
16050203700.0 0.1691081333 -0.9773981501
16100203400.0 0.1546807821 -0.9796232524
16150203100.0 0.1396587374 -0.9820322685
16200202800.0 0.1253817346 -0.9839514143
16250202500.0 0.1104100633 -0.9855765983
16300202200.0 0.095330532 -0.9878633935
16350201900.0 0.0803777776 -0.9890648588
16400201600.0 0.0653518456 -0.9903198705
16450201300.0 0.0497286967 -0.9912471333
16500201000.0 0.0329038257 -0.9920042092
16550200700.0 0.0167340899 -0.9926046207
16600200400.0 0.0006798313 -0.9928000502
16650200100.0 -0.0153771238 -0.9928734988
16700199800.0 -0.0319919003 -0.9919694943
16750199500.0 -0.0503481892 -0.9914173139
16800199200.0 -0.066708259 -0.9905065134
16850198900.0 -0.081588364 -0.9900959031
16900198600.0 -0.0967602664 -0.9885633274
16950198300.0 -0.1104949867 -0.9878371972
17000198000.0 -0.1233215729 -0.9865765927
17050197700.0 -0.1361959573 -0.9843972559
17100197400.0 -0.1485264108 -0.9823348897
17150197100.0 -0.1617844233 -0.9802162968
17200196800.0 -0.1740739863 -0.9781953085
17250196500.0 -0.1872346446 -0.9757194121
17300196200.0 -0.1992615293 -0.9728885235
17350195900.0 -0.2112897643 -0.9707130358
17400195600.0 -0.2231819956 -0.9681999818
17450195300.0 -0.2360045979 -0.9653201904
17500195000.0 -0.2491764793 -0.9621327382
17550194700.0 -0.2630116538 -0.9585222384
17600194400.0 -0.2768568129 -0.9544878586
17650194100.0 -0.2903441418 -0.9504107027
17700193800.0 -0.3036262923 -0.9462164825
17750193500.0 -0.3177623087 -0.9418501885
17800193200.0 -0.3318437568 -0.9365707585
17850192900.0 -0.3468121491 -0.9308363063
17900192600.0 -0.3617779304 -0.9251972909
17950192300.0 -0.3772489672 -0.9178678523
18000192000.0 -0.3920194424 -0.9106793461
18050191700.0 -0.4058955228 -0.9025334666
18100191400.0 -0.4200139811 -0.8950599078
18150191100.0 -0.4347775164 -0.8868626344
18200190800.0 -0.4517460623 -0.8776458445
18250190500.0 -0.4686074193 -0.8680660336
18300190200.0 -0.4840569803 -0.8595886328
18350189900.0 -0.4993153875 -0.851294026
18400189600.0 -0.513915951 -0.8428210611
18450189300.0 -0.527465641 -0.8350110556
18500189000.0 -0.5407217549 -0.8270597345
18550188700.0 -0.5535980781 -0.8191004568
18600188400.0 -0.5655917222 -0.8119842097
18650188100.0 -0.5769727609 -0.8057274692
18700187800.0 -0.588234483 -0.7990997066
18750187500.0 -0.5984023914 -0.7923527278
18800187200.0 -0.6091823584 -0.7852992914
18850186900.0 -0.6195950756 -0.7783215266
18900186600.0 -0.6299512777 -0.7709109095
18950186300.0 -0.640154332 -0.7633122119
19000186000.0 -0.6477181791 -0.7565737691
19050185700.0 -0.6563938212 -0.7500576648
19100185400.0 -0.6665534508 -0.7416409947
19150185100.0 -0.6771296109 -0.7332571708
19200184800.0 -0.6865306753 -0.7254070102
19250184500.0 -0.6962545999 -0.7159972412
19300184200.0 -0.7079341962 -0.7062496973
19350183900.0 -0.7189139559 -0.6962824184
19400183600.0 -0.7282183575 -0.6869375249
19450183300.0 -0.7375273668 -0.6768218512
19500183000.0 -0.7456878159 -0.666412521
19550182700.0 -0.7552634771 -0.6557795213
19600182400.0 -0.7662507146 -0.6439991731
19650182100.0 -0.7762506343 -0.6312949666
19700181800.0 -0.7869139325 -0.6182443608
19750181500.0 -0.7973694729 -0.6041073621
19800181200.0 -0.8075163648 -0.5890408434
19850180900.0 -0.8170017279 -0.5738381111
19900180600.0 -0.8245884619 -0.5594801637
19950180300.0 -0.8338871872 -0.543159101
20000180000.0 -0.8233341103 -0.5469785886
20050179700.0 -0.8311429752 -0.5339375216
20100179400.0 -0.8384946935 -0.5213802945
20150179100.0 -0.8479026231 -0.5088989751
20200178800.0 -0.8560449527 -0.4980767692
20250178500.0 -0.8656913434 -0.4854758274
20300178200.0 -0.875051766 -0.4713157142
20350177900.0 -0.8844520034 -0.4582118265
20400177600.0 -0.8931758479 -0.4435738912
20450177300.0 -0.9016286708 -0.4293970409
20500177000.0 -0.9099962135 -0.415209507
20550176700.0 -0.9178791314 -0.4020622232
20600176400.0 -0.9248158194 -0.3890192079
20650176100.0 -0.930913376 -0.3769590099
20700175800.0 -0.9384883968 -0.3654022419
20750175500.0 -0.9448089671 -0.3527088776
20800175200.0 -0.9491779163 -0.3424845593
20850174900.0 -0.9527882958 -0.3318500698
20900174600.0 -0.958329101 -0.3211571894
20950174300.0 -0.9619471677 -0.3092129681
21000174000.0 -0.963062131 -0.2994902217
21050173700.0 -0.9654117582 -0.2895493722
21100173400.0 -0.9692060904 -0.2783991968
21150173100.0 -0.9732475536 -0.267428955
21200172800.0 -0.9772228896 -0.2535642733
21250172500.0 -0.9806333902 -0.2399410698
21300172200.0 -0.9842552737 -0.2257301544
21350171900.0 -0.9863634571 -0.2115960599
21400171600.0 -0.9883425162 -0.1970097633
21450171300.0 -0.9889579509 -0.1827532572
21500171000.0 -0.9894902076 -0.1688190391
21550170700.0 -0.9896497578 -0.153127319
21600170400.0 -0.9904297492 -0.1368952533
21650170100.0 -0.9919776682 -0.1219771465
21700169800.0 -0.9911307214 -0.1063281237
21750169500.0 -0.9898819547 -0.0911297052
21800169200.0 -0.9907343017 -0.0751761907
21850168900.0 -0.9896087549 -0.0575004144
21900168600.0 -0.9898724451 -0.041537945
21950168300.0 -0.9891852506 -0.0259148864
22000168000.0 -0.9892141226 -0.0105042318
22050167700.0 -0.9899036153 0.0038736343
22100167400.0 -0.9906337528 0.0196959921
22150167100.0 -0.9917507132 0.0358717684
22200166800.0 -0.9919801395 0.052439796
22250166500.0 -0.991422453 0.0697208516
22300166200.0 -0.9906882273 0.0858268917
22350165900.0 -0.9905182164 0.1020254032
22400165600.0 -0.9876328553 0.1175293277
22450165300.0 -0.9866720037 0.132141174
22500165000.0 -0.9849832581 0.1471112099
22550164700.0 -0.983420986 0.1640083082
22600164400.0 -0.9820341101 0.1794954222
22650164100.0 -0.9783146298 0.1953226474
22700163800.0 -0.9746765146 0.2119763455
22750163500.0 -0.9727495074 0.2263637585
22800163200.0 -0.9695223996 0.2396939188
22850162900.0 -0.9668117876 0.2530248589
22900162600.0 -0.9648678298 0.2669567401
22950162300.0 -0.9633209874 0.2805490757
23000162000.0 -0.9610695447 0.2931696388
23050161700.0 -0.9587315658 0.3069113664
23100161400.0 -0.9558926994 0.3203368612
23150161100.0 -0.9524576547 0.3332094489
23200160800.0 -0.9493451843 0.3461379925
23250160500.0 -0.9472681577 0.3587433509
23300160200.0 -0.9444114018 0.3709573106
23350159900.0 -0.9405151629 0.3850937646
23400159600.0 -0.935092684 0.3988583851
23450159300.0 -0.9301373359 0.4128890108
23500159000.0 -0.9250517087 0.4262642566
23550158700.0 -0.9202102119 0.4407056852
23600158400.0 -0.9139398172 0.4545935974
23650158100.0 -0.9067980037 0.4690912531
23700157800.0 -0.8979962479 0.4832680432
23750157500.0 -0.8885705686 0.4976312354
23800157200.0 -0.8785796827 0.511219732
23850156900.0 -0.8690928087 0.5231144016
23900156600.0 -0.8589110704 0.5360028036
23950156300.0 -0.849553102 0.5494140598
24000156000.0 -0.8402867717 0.5618755485
24050155700.0 -0.8285739326 0.5741554866
24100155400.0 -0.819320749 0.587110498
24150155100.0 -0.807271179 0.5995006633
24200154800.0 -0.796130414 0.6104055565
24250154500.0 -0.7852572752 0.6228890536
24300154200.0 -0.7741014779 0.6345735417
24350153900.0 -0.7620422741 0.645735495
24400153600.0 -0.7491899199 0.6566003316
24450153300.0 -0.7367931344 0.6668949272
24500153000.0 -0.7254764443 0.6768758875
24550152700.0 -0.71384156 0.6870079473
24600152400.0 -0.7021525126 0.6963117824
24650152100.0 -0.6895430143 0.7048676394
