!Created with skrf (http://scikit-rf.org).
# Hz S RI R 50.0 
!freq ReS11 ImS11
300000.0 -1.003776351 0.0136702882
50299700.0 -0.9980809525 0.0157285426
100299400.0 -0.9964025019 0.0280115105
150299100.0 -1.001172513 0.0446360143
200298800.0 -0.9976596108 0.0577518013
250298500.0 -0.9953479042 0.0710053892
300298200.0 -0.9837852222 0.086563845
350297900.0 -0.9917721315 0.0973769453
400297600.0 -0.9906303195 0.1137693763
450297300.0 -0.9883393155 0.1272035474
500297000.0 -0.9867562 0.1417536378
550296700.0 -0.9815996027 0.1538699913
600296400.0 -1.014207807 0.1866426191
650296100.0 -0.9792157386 0.1831535479
700295800.0 -0.9762095392 0.1973909264
750295500.0 -0.9732674212 0.2109709707
800295200.0 -0.9700558408 0.2250432794
850294900.0 -0.9666171456 0.238365805
900294600.0 -0.9630907339 0.2520345572
950294300.0 -0.9595141541 0.2654465861
1000294000.0 -0.9556155227 0.2793321709
1050293700.0 -0.9510389217 0.2930587562
1100293400.0 -0.9470761511 0.307413879
1150293100.0 -0.9433857759 0.3190225285
1200292800.0 -0.9382603334 0.333150139
1250292500.0 -0.9328367213 0.346931925
1300292200.0 -0.9275501671 0.3599810292
1350291900.0 -0.9222941578 0.3739149951
1400291600.0 -0.916916222 0.3869964261
1450291300.0 -0.9117293904 0.399105095
1500291000.0 -0.9054571334 0.4127039843
1550290700.0 -0.899235283 0.4256318116
1600290400.0 -0.8931562568 0.4387500495
1650290100.0 -0.8869029576 0.4505875738
1700289800.0 -0.8801824344 0.464220299
1750289500.0 -0.8733772747 0.4762057194
1800289200.0 -0.8664012172 0.4891272479
1850288900.0 -0.8598362659 0.5002909748
1900288600.0 -0.852453853 0.5133080117
1950288300.0 -0.8446147141 0.5257127357
2000288000.0 -0.8369356342 0.5372214919
2050287700.0 -0.828974315 0.5494441384
2100287400.0 -0.8215448791 0.5606604777
2150287100.0 -0.8128025513 0.5729616021
2200286800.0 -0.8052602365 0.583503853
2250286500.0 -0.7965532094 0.5950216917
2300286200.0 -0.7884691899 0.6063132931
2350285900.0 -0.7798367557 0.6170838332
2400285600.0 -0.7706747 0.6286898555
2450285300.0 -0.7617308272 0.6393803481
2500285000.0 -0.7526391186 0.6499744316
2550284700.0 -0.743485227 0.6604803853
2600284400.0 -0.7334456486 0.6709877972
2650284100.0 -0.7249774328 0.6806300973
2700283800.0 -0.7149703061 0.6910287689
2750283500.0 -0.7048330411 0.7013767364
2800283200.0 -0.6945743842 0.7110442786
2850282900.0 -0.6844184222 0.7213395436
2900282600.0 -0.6739697961 0.7307186605
2950282300.0 -0.6639126835 0.7402738375
3000282000.0 -0.6531113714 0.7497995099
3050281700.0 -0.6420678871 0.7590408321
3100281400.0 -0.6316992492 0.7678037665
3150281100.0 -0.6211784064 0.776283762
3200280800.0 -0.6095049399 0.7853226664
3250280500.0 -0.5983790408 0.7936487587
3300280200.0 -0.5865793567 0.8029567599
3350279900.0 -0.5755698065 0.8106283649
3400279600.0 -0.563506959 0.8190851646
3450279300.0 -0.5523380201 0.8271332891
3500279000.0 -0.5403551902 0.8347688391
3550278700.0 -0.528367564 0.8424076004
3600278400.0 -0.5176123641 0.8489522143
3650278100.0 -0.5046607066 0.8572462191
3700277800.0 -0.4929169165 0.8637713984
3750277500.0 -0.4807445738 0.8705703723
3800277200.0 -0.4685442868 0.8777130876
3850276900.0 -0.4558768078 0.8839869205
3900276600.0 -0.4444692915 0.8899865892
3950276300.0 -0.431118285 0.8965898093
4000276000.0 -0.4190330399 0.9024883983
4050275700.0 -0.4054896428 0.9083913591
4100275400.0 -0.3942315115 0.9138451091
4150275100.0 -0.381182743 0.9192608413
4200274800.0 -0.3673726864 0.9248927583
4250274500.0 -0.3552693778 0.9296624558
4300274200.0 -0.3423694342 0.9343578936
4350273900.0 -0.3287812022 0.9392475689
4400273600.0 -0.3161567057 0.9436329182
4450273300.0 -0.3026848131 0.9481434978
4500273000.0 -0.2900485038 0.9519008143
4550272700.0 -0.277582959 0.9556903308
4600272400.0 -0.2626633042 0.9598286481
4650272100.0 -0.2500825209 0.9630485737
4700271800.0 -0.2368546066 0.966383153
4750271500.0 -0.2232191312 0.9695945041
4800271200.0 -0.2092790272 0.9726390383
4850270900.0 -0.1953428285 0.9754741742
4900270600.0 -0.1820855784 0.9778393413
4950270300.0 -0.1689395797 0.9804187021
5000270000.0 -0.1551381995 0.9828812154
5050269700.0 -0.1414356833 0.9845845232
5100269400.0 -0.1270822651 0.9863678142
5150269100.0 -0.1129953516 0.9887438274
5200268800.0 -0.0991463319 0.9898754671
5250268500.0 -0.0859421748 0.9912588308
5300268200.0 -0.0716429813 0.9921716937
5350267900.0 -0.0589605665 0.9932234699
5400267600.0 -0.0428675638 0.9941269409
5450267300.0 -0.0306585019 0.9944710822
5500267000.0 -0.0166115481 0.9949277607
5550266700.0 -0.0042509392 0.9948899193
5600266400.0 0.0096636044 0.9950281219
5650266100.0 0.0244862744 0.9950424252
5700265800.0 0.0375097232 0.9941150567
5750265500.0 0.0511012379 0.9939408078
5800265200.0 0.0643085846 0.9929731474
5850264900.0 0.0773269527 0.9924406436
5900264600.0 0.0928296516 0.9907192052
5950264300.0 0.1047731916 0.9900063303
6000264000.0 0.1183342442 0.9884460663
6050263700.0 0.1313292434 0.9872236782
6100263400.0 0.1448068083 0.9849319451
6150263100.0 0.1603822257 0.9826740892
6200262800.0 0.1716874247 0.9807994972
6250262500.0 0.1851769248 0.9781436668
6300262200.0 0.1980856545 0.9756864193
6350261900.0 0.211245971 0.9730852852
6400261600.0 0.2261096712 0.9695896228
6450261300.0 0.2380452072 0.9666626615
6500261000.0 0.2517496855 0.9633930801
6550260700.0 0.2645889818 0.9595128505
6600260400.0 0.2776778084 0.9558328678
6650260100.0 0.2912229961 0.9519739491
6700259800.0 0.3035935424 0.947935311
6750259500.0 0.3165850542 0.9437460912
6800259200.0 0.3298681819 0.9388912643
6850258900.0 0.3424036829 0.934266618
6900258600.0 0.3552959682 0.9294748281
6950258300.0 0.3686590477 0.9245135804
7000258000.0 0.3809321862 0.9194284231
7050257700.0 0.3924750564 0.9143789784
7100257400.0 0.4066969879 0.9082756409
7150257100.0 0.4178661037 0.9032092895
7200256800.0 0.431682117 0.8970345404
7250256500.0 0.4432519953 0.8913581475
7300256200.0 0.4561330314 0.8849629702
7350255900.0 0.4680206273 0.8787166904
7400255600.0 0.4783075158 0.8732911551
7450255300.0 0.4913225704 0.8661012764
7500255000.0 0.5028312201 0.8595571339
7550254700.0 0.5138876838 0.8532281881
7600254400.0 0.5252054134 0.8460609141
7650254100.0 0.5361511406 0.8391548466
7700253800.0 0.5482520814 0.8318603554
7750253500.0 0.5592848174 0.8245240783
7800253200.0 0.5710321294 0.8161149742
7850252900.0 0.5804845873 0.8096501121
7900252600.0 0.5924276483 0.8010745418
7950252300.0 0.6026980152 0.7934503916
8000252000.0 0.6134173565 0.7850251849
8050251700.0 0.6241968464 0.7764203645
8100251400.0 0.6340578496 0.7686953009
8150251100.0 0.6449421405 0.7594247611
8200250800.0 0.6540679876 0.7513102072
8250250500.0 0.6649218887 0.7420402799
8300250200.0 0.6747409283 0.7324962568
8350249900.0 0.684427815 0.7236316733
8400249600.0 0.6938896661 0.7145475023
8450249300.0 0.703962201 0.704601606
8500249000.0 0.7139878709 0.6946211962
8550248700.0 0.7240278696 0.6838811024
8600248400.0 0.7337092378 0.6734138187
8650248100.0 0.741755781 0.664159868
8700247800.0 0.7510656292 0.6537004179
8750247500.0 0.7600362007 0.6432118062
8800247200.0 0.7691118561 0.6326774339
8850246900.0 0.7775143864 0.6218636311
8900246600.0 0.7857741113 0.6112361056
8950246300.0 0.7947204496 0.5996361843
9000246000.0 0.8022902939 0.5897175285
9050245700.0 0.8096958013 0.579600776
9100245400.0 0.8181696396 0.5674355459
9150245100.0 0.8254470259 0.5566948149
9200244800.0 0.8315784997 0.547297772
9250244500.0 0.8392311952 0.5358462246
9300244200.0 0.8459124357 0.5253845442
9350243900.0 0.8528216875 0.5137582952
9400243600.0 0.8599827282 0.5016884206
9450243300.0 0.8658857859 0.491768278
9500243000.0 0.8728677205 0.4798858446
9550242700.0 0.8796421739 0.4679585828
9600242400.0 0.886403833 0.4551537088
9650242100.0 0.8922547914 0.4432831206
9700241800.0 0.898429347 0.4311217963
9750241500.0 0.9050317391 0.4174113768
9800241200.0 0.9115915138 0.4027143942
9850240900.0 0.917134274 0.3896843169
9900240600.0 0.9215201114 0.3799538727
9950240300.0 0.9267536597 0.3664974409
10000240000.0 0.9316075486 0.3531656308
10050239700.0 0.9364516326 0.3406486325
10100239400.0 0.9410908612 0.3277677366
10150239100.0 0.9451127468 0.3151532641
10200238800.0 0.9496836732 0.3013800161
10250238500.0 0.9537650075 0.2882886731
10300238200.0 0.9577795865 0.2749372385
10350237900.0 0.9611535894 0.262018345
10400237600.0 0.9648972159 0.248865342
10450237300.0 0.9686024125 0.2346240627
10500237000.0 0.971420616 0.2218157783
10550236700.0 0.974603838 0.2076425236
10600236400.0 0.9774203663 0.1950268798
10650236100.0 0.9800524673 0.1790847444
10700235800.0 0.9825476967 0.1648121907
10750235500.0 0.9851391092 0.1519004802
10800235200.0 0.9869018533 0.1385872022
10850234900.0 0.988318484 0.1254607706
10900234600.0 0.9904503849 0.1110680051
10950234300.0 0.9918588859 0.0969193667
11000234000.0 0.9929257837 0.0833237847
11050233700.0 0.9938838211 0.070283389
11100233400.0 0.9949326931 0.0560788166
11150233100.0 0.9958474177 0.0421319844
11200232800.0 0.9962823061 0.0294428542
11250232500.0 0.9967236519 0.0155786673
11300232200.0 0.9960915391 0.0021003148
11350231900.0 0.9967107941 -0.0113685539
11400231600.0 0.9962117924 -0.0247578262
11450231300.0 0.9957433348 -0.0373605706
11500231000.0 0.9952280877 -0.0508119618
11550230700.0 0.9945148507 -0.0645805968
11600230400.0 0.993489294 -0.0790227266
11650230100.0 0.9922744364 -0.0907896852
11700229800.0 0.9914427793 -0.1061981518
11750229500.0 0.9892949732 -0.1187434674
11800229200.0 0.9876354195 -0.1311917954
11850228900.0 0.9856274169 -0.1460462768
11900228600.0 0.9836245883 -0.1601886823
11950228300.0 0.9810795355 -0.1751423296
12000228000.0 0.9787509339 -0.1888532952
12050227700.0 0.9760063374 -0.2018777526
12100227400.0 0.9738167604 -0.2134685788
12150227100.0 0.9692448668 -0.2325318005
12200226800.0 0.9668846331 -0.2441485187
12250226500.0 0.962356097 -0.2581686367
12300226200.0 0.9597317514 -0.270273108
12350225900.0 0.9551995502 -0.2862208106
12400225600.0 0.950529463 -0.3003823659
12450225300.0 0.9464927514 -0.3128306103
12500225000.0 0.941695295 -0.3262549688
12550224700.0 0.9365140176 -0.3411116908
12600224400.0 0.9323619073 -0.3526264824
12650224100.0 0.9266673432 -0.3668897799
12700223800.0 0.9213608909 -0.3799838624
12750223500.0 0.9157408336 -0.3933322973
12800223200.0 0.9098319415 -0.406739367
12850222900.0 0.9042402872 -0.4195501457
12900222600.0 0.8984711548 -0.4320293693
12950222300.0 0.8915521775 -0.4452783296
13000222000.0 0.8850135471 -0.4581791447
13050221700.0 0.8782198686 -0.471145175
13100221400.0 0.872026046 -0.4821389109
13150221100.0 0.8651289913 -0.4949481135
13200220800.0 0.8577946676 -0.5072928859
13250220500.0 0.8508202648 -0.5195159227
13300220200.0 0.8435268349 -0.5312721779
13350219900.0 0.8356026197 -0.543976155
13400219600.0 0.8281534218 -0.5553207762
13450219300.0 0.8207649535 -0.5663270428
13500219000.0 0.8130922396 -0.5771133664
13550218700.0 0.8048167533 -0.5884232431
13600218400.0 0.7964337514 -0.5996046763
13650218100.0 0.7886773972 -0.609695952
13700217800.0 0.7799108334 -0.6211414203
13750217500.0 0.7710574045 -0.6318937398
13800217200.0 0.7609547626 -0.6436838292
13850216900.0 0.7519233909 -0.6553464713
13900216600.0 0.7446836033 -0.6643068213
13950216300.0 0.7331308639 -0.6757389163
14000216000.0 0.7236363939 -0.6862556363
14050215700.0 0.7140536444 -0.6952899869
14100215400.0 0.7027582016 -0.7070190989
14150215100.0 0.6917415992 -0.7177682096
14200214800.0 0.6816237063 -0.7276968782
14250214500.0 0.6700768925 -0.7382624145
14300214200.0 0.6583080294 -0.7487317481
14350213900.0 0.6471467457 -0.7583489458
14400213600.0 0.6367536108 -0.7675037809
14450213300.0 0.6256808516 -0.7758511228
14500213000.0 0.6144240142 -0.7851658505
14550212700.0 0.6029722773 -0.7939505213
14600212400.0 0.5911029633 -0.8026138076
14650212100.0 0.5802051049 -0.8101866992
14700211800.0 0.5686682785 -0.8185408647
14750211500.0 0.556360783 -0.8265235162
14800211200.0 0.5436094079 -0.8351906887
14850210900.0 0.5320209889 -0.8428394548
14900210600.0 0.5197962029 -0.8505835473
14950210300.0 0.5073814427 -0.8580509342
15000210000.0 0.4951048697 -0.8652091442
15050209700.0 0.4821753294 -0.8724384063
15100209400.0 0.469125101 -0.8799008149
15150209100.0 0.4576961958 -0.885971577
15200208800.0 0.4442909606 -0.8927650567
15250208500.0 0.4306242293 -0.8988504462
15300208200.0 0.4170114301 -0.9054751998
15350207900.0 0.4045138903 -0.9118210358
15400207600.0 0.3912079867 -0.9177268103
15450207300.0 0.3775182837 -0.9232275461
15500207000.0 0.3645203773 -0.92825106
15550206700.0 0.3514105556 -0.9330367106
15600206400.0 0.3380623509 -0.9383078413
15650206100.0 0.3241492853 -0.943001648
15700205800.0 0.3104613409 -0.947744997
15750205500.0 0.2959345627 -0.9523099633
15800205200.0 0.2821630775 -0.9562080686
15850204900.0 0.2682559464 -0.9604572658
15900204600.0 0.2526375692 -0.9646691983
15950204300.0 0.2382187335 -0.968452876
16000204000.0 0.2234095044 -0.9717394762
16050203700.0 0.2085616082 -0.9751466704
16100203400.0 0.1947020857 -0.9777963249
16150203100.0 0.1793862563 -0.9810549589
16200202800.0 0.1637650547 -0.9836951215
16250202500.0 0.1491978213 -0.9853765121
16300202200.0 0.1339191559 -0.987469272
16350201900.0 0.1188380203 -0.989472583
16400201600.0 0.103674289 -0.9906836019
16450201300.0 0.0894569389 -0.9923804427
16500201000.0 0.0743258373 -0.9936768327
16550200700.0 0.0596338049 -0.9948308067
16600200400.0 0.0446903592 -0.995579674
16650200100.0 0.0293424297 -0.9961388394
16700199800.0 0.015848219 -0.9967288936
16750199500.0 0.0015926819 -0.9968511276
16800199200.0 -0.0122295 -0.9969555866
16850198900.0 -0.026891023 -0.9964394115
16900198600.0 -0.0412862006 -0.9962536264
16950198300.0 -0.056259641 -0.9953008202
17000198000.0 -0.0711148943 -0.9945219349
17050197700.0 -0.0853222414 -0.9929134924
17100197400.0 -0.1018261256 -0.9916207331
17150197100.0 -0.1168980476 -0.9896979501
17200196800.0 -0.1307135529 -0.9883264669
17250196500.0 -0.1457246373 -0.9857796006
17300196200.0 -0.1606606318 -0.9831526989
17350195900.0 -0.1760546872 -0.980410158
17400195600.0 -0.1909177867 -0.9775103294
17450195300.0 -0.2052519029 -0.9745450815
17500195000.0 -0.219861094 -0.9714303668
17550194700.0 -0.2344484694 -0.9680983513
17600194400.0 -0.2489893422 -0.9646435558
17650194100.0 -0.2631141448 -0.9603273013
17700193800.0 -0.2771362989 -0.9566793716
17750193500.0 -0.2907346937 -0.952483707
17800193200.0 -0.3048531472 -0.9482607319
17850192900.0 -0.3190239365 -0.9438151118
17900192600.0 -0.332483486 -0.9385459183
17950192300.0 -0.3470038482 -0.9331534633
18000192000.0 -0.3616811792 -0.927526034
18050191700.0 -0.3758482697 -0.9214651781
18100191400.0 -0.3899700525 -0.9157239024
18150191100.0 -0.403149031 -0.9098958594
18200190800.0 -0.4164004708 -0.9036480387
18250190500.0 -0.4302117591 -0.8972345574
18300190200.0 -0.4438799577 -0.8908666049
18350189900.0 -0.457456988 -0.8843699803
18400189600.0 -0.4712437961 -0.8778757924
18450189300.0 -0.4841392978 -0.8710310151
18500189000.0 -0.4964704033 -0.8637960577
18550188700.0 -0.5093276589 -0.8566955476
18600188400.0 -0.5217160462 -0.8487683168
18650188100.0 -0.5349429862 -0.8403917084
18700187800.0 -0.5469062591 -0.8328280821
18750187500.0 -0.5589561539 -0.8247683279
18800187200.0 -0.5711202481 -0.8159374685
18850186900.0 -0.5827502726 -0.8073228836
18900186600.0 -0.5937133307 -0.7989090436
18950186300.0 -0.6060085562 -0.7895163108
19000186000.0 -0.6175258963 -0.7807970757
19050185700.0 -0.6291942282 -0.7715931115
19100185400.0 -0.6405125904 -0.7622398098
19150185100.0 -0.6523043834 -0.7526365333
19200184800.0 -0.6622869003 -0.7430357511
19250184500.0 -0.6733859032 -0.7331500445
19300184200.0 -0.6845882568 -0.7229055366
19350183900.0 -0.6956674427 -0.7127332681
19400183600.0 -0.706669537 -0.7018830093
19450183300.0 -0.7169906531 -0.690992517
19500183000.0 -0.7273884562 -0.6797861502
19550182700.0 -0.7371774601 -0.6689955078
19600182400.0 -0.7469755553 -0.6569234991
19650182100.0 -0.7562335764 -0.6455292514
19700181800.0 -0.7662304905 -0.6340066011
19750181500.0 -0.7751656712 -0.6222870399
19800181200.0 -0.784398844 -0.6101388999
19850180900.0 -0.7936761763 -0.5980487675
19900180600.0 -0.8015227814 -0.5867954292
19950180300.0 -0.8112767998 -0.5741382346
20000180000.0 -0.8220673287 -0.5614384858
20050179700.0 -0.8300391191 -0.5493501963
20100179400.0 -0.8386385756 -0.5357379058
20150179100.0 -0.8462422526 -0.5238284333
20200178800.0 -0.8534926974 -0.5114122959
20250178500.0 -0.8609921468 -0.4989851764
20300178200.0 -0.8683580535 -0.4864522341
20350177900.0 -0.8751178361 -0.4742544508
20400177600.0 -0.8817761455 -0.4621062575
20450177300.0 -0.8874917442 -0.4495528429
20500177000.0 -0.8933568222 -0.4371072728
20550176700.0 -0.8995591759 -0.4247048269
20600176400.0 -0.9047786869 -0.4119989589
20650176100.0 -0.9099168546 -0.3992822579
20700175800.0 -0.9167946575 -0.3855337558
20750175500.0 -0.9219369153 -0.3730549461
20800175200.0 -0.9268828039 -0.3611008109
20850174900.0 -0.9310941492 -0.3477417946
20900174600.0 -0.9356456061 -0.3339465412
20950174300.0 -0.9397494069 -0.3206337803
21000174000.0 -0.9441707167 -0.3075932835
21050173700.0 -0.947544866 -0.2939307763
21100173400.0 -0.9515960406 -0.2805369266
21150173100.0 -0.9555465099 -0.2665366884
21200172800.0 -0.9583625122 -0.2525519001
21250172500.0 -0.9617044921 -0.2383049269
21300172200.0 -0.9659913432 -0.224685506
21350171900.0 -0.968466754 -0.2103560546
21400171600.0 -0.972283035 -0.1965265637
21450171300.0 -0.9740977097 -0.1817828043
21500171000.0 -0.9767843314 -0.1676105399
21550170700.0 -0.9798590226 -0.153398378
21600170400.0 -0.9840890276 -0.1388405352
21650170100.0 -0.9861740406 -0.1237992126
21700169800.0 -0.98755058 -0.109708174
21750169500.0 -0.9907929214 -0.0931860624
21800169200.0 -0.9921543586 -0.0790926102
21850168900.0 -0.9935850187 -0.0654294153
21900168600.0 -0.9953149937 -0.0504938449
21950168300.0 -0.9961191054 -0.0353647862
22000168000.0 -0.9974338188 -0.0210213209
22050167700.0 -0.9982285287 -0.0063007301
22100167400.0 -0.9983609017 0.0091492626
22150167100.0 -0.9981249199 0.023798806
22200166800.0 -0.9969715467 0.0383094752
22250166500.0 -0.9964414635 0.0525290656
22300166200.0 -0.9960014063 0.0662792842
22350165900.0 -0.9948466015 0.0803926455
22400165600.0 -0.9933010165 0.094085364
22450165300.0 -0.9924332944 0.1079295505
22500165000.0 -0.9900938457 0.1203918025
22550164700.0 -0.9897791225 0.135595167
22600164400.0 -0.9875256526 0.1487272381
22650164100.0 -0.9841557025 0.1605253913
22700163800.0 -0.9818998618 0.173838717
22750163500.0 -0.9790133495 0.1871355298
22800163200.0 -0.9766640471 0.1998988284
22850162900.0 -0.973136531 0.2126429188
22900162600.0 -0.9700578485 0.2258580167
22950162300.0 -0.9660945482 0.2396249731
23000162000.0 -0.96208947 0.2528372664
23050161700.0 -0.9572060756 0.2665940117
23100161400.0 -0.9534460546 0.2797160099
23150161100.0 -0.9487792082 0.2927774819
23200160800.0 -0.944620994 0.3069349041
23250160500.0 -0.9399862365 0.3213730247
23300160200.0 -0.9356796384 0.3347249428
23350159900.0 -0.9294126631 0.348666306
23400159600.0 -0.9249205877 0.3608803784
23450159300.0 -0.9200345825 0.3733444677
23500159000.0 -0.914603479 0.3857794023
23550158700.0 -0.9094622862 0.3992037963
23600158400.0 -0.9033169288 0.4114835594
23650158100.0 -0.8973809059 0.4239532126
23700157800.0 -0.8911300602 0.4358980694
23750157500.0 -0.8846999826 0.4483788426
23800157200.0 -0.8789084136 0.4607337413
23850156900.0 -0.8728142836 0.4723317043
23900156600.0 -0.8665647013 0.4840986222
23950156300.0 -0.8599558848 0.4963749076
24000156000.0 -0.8536764685 0.5081625252
24050155700.0 -0.8455808546 0.5201276369
24100155400.0 -0.8395387605 0.531192262
24150155100.0 -0.8325717649 0.542459049
24200154800.0 -0.8249050647 0.5529874959
24250154500.0 -0.8178076778 0.5642447259
24300154200.0 -0.8112954936 0.5756754081
24350153900.0 -0.8035183329 0.5861692068
24400153600.0 -0.7951295514 0.5971477496
24450153300.0 -0.7869503653 0.6081993306
24500153000.0 -0.7788147687 0.6188967216
24550152700.0 -0.7709150313 0.6290503671
24600152400.0 -0.7616134472 0.6394071004
24650152100.0 -0.7523348369 0.6498024324
