!Created with skrf (http://scikit-rf.org).
# Hz S RI R 50.0 
!freq ReS11 ImS11
300000.0 -0.9724611673 -0.1231294857
50299700.0 -0.9999099371 0.0150089955
100299400.0 -0.9979363161 0.0279559425
150299100.0 -1.002685487 0.0447321083
200298800.0 -0.9994420554 0.0581017182
250298500.0 -0.9972472949 0.0716929523
300298200.0 -0.9858316768 0.0874370351
350297900.0 -0.9938347995 0.0982225765
400297600.0 -0.9928654983 0.1149343139
450297300.0 -0.9910283012 0.1286185619
500297000.0 -0.9892803601 0.1434340813
550296700.0 -0.9843196954 0.1557494887
600296400.0 -1.01722447 0.1891885766
650296100.0 -0.982074404 0.1858710595
700295800.0 -0.9791924221 0.2001063487
750295500.0 -0.9762634292 0.213815209
800295200.0 -0.9729473367 0.2279126959
850294900.0 -0.9697749482 0.2419045603
900294600.0 -0.9658100544 0.2554851899
950294300.0 -0.9620046417 0.2692288778
1000294000.0 -0.9579957133 0.2832637401
1050293700.0 -0.953671104 0.2968481137
1100293400.0 -0.949396754 0.31159775
1150293100.0 -0.9455470941 0.3234449
1200292800.0 -0.9401268901 0.3377824668
1250292500.0 -0.9346117603 0.3509618515
1300292200.0 -0.9289609351 0.3643291971
1350291900.0 -0.923558074 0.378428585
1400291600.0 -0.9179204589 0.3915620779
1450291300.0 -0.9126144788 0.4038609794
1500291000.0 -0.9063408634 0.4172696692
1550290700.0 -0.8999232078 0.4305151204
1600290400.0 -0.8935011152 0.4436054355
1650290100.0 -0.8869485787 0.4557171369
1700289800.0 -0.8799435142 0.4692481441
1750289500.0 -0.8727892327 0.4814796123
1800289200.0 -0.8655756727 0.4944148998
1850288900.0 -0.8587502332 0.5056539256
1900288600.0 -0.8511628378 0.5186040629
1950288300.0 -0.8429501323 0.5312680567
2000288000.0 -0.8354466416 0.5426833154
2050287700.0 -0.8271821703 0.555156379
2100287400.0 -0.8195677749 0.56639107
2150287100.0 -0.8107811527 0.5785820523
2200286800.0 -0.8029231729 0.5890775302
2250286500.0 -0.7939690947 0.6013382477
2300286200.0 -0.7851429706 0.6126913405
2350285900.0 -0.7769726009 0.6234014084
2400285600.0 -0.7680785197 0.6342145625
2450285300.0 -0.7589440907 0.6450355329
2500285000.0 -0.7490549907 0.6565850305
2550284700.0 -0.7400970718 0.6670927332
2600284400.0 -0.7311736796 0.6767772372
2650284100.0 -0.7223722318 0.686983947
2700283800.0 -0.7119480156 0.6976193814
2750283500.0 -0.7017957237 0.708315029
2800283200.0 -0.6913984266 0.7181493553
2850282900.0 -0.6812304025 0.7282047615
2900282600.0 -0.6708198028 0.7377566386
2950282300.0 -0.6602561665 0.7473159518
3000282000.0 -0.6495617399 0.7564932653
3050281700.0 -0.6385950989 0.7658017364
3100281400.0 -0.6269406215 0.774929981
3150281100.0 -0.6156845676 0.7839699454
3200280800.0 -0.6041045093 0.7922667554
3250280500.0 -0.5929937422 0.8000736531
3300280200.0 -0.5814985208 0.808445356
3350279900.0 -0.569266573 0.8164026694
3400279600.0 -0.5567474086 0.8245456059
3450279300.0 -0.5455799497 0.8314989679
3500279000.0 -0.5339039414 0.8384468516
3550278700.0 -0.5216805116 0.845438609
3600278400.0 -0.5097842818 0.8524838711
3650278100.0 -0.4969043164 0.8599175633
3700277800.0 -0.4845911728 0.866177926
3750277500.0 -0.4723920033 0.8730388208
3800277200.0 -0.4597834734 0.8795367114
3850276900.0 -0.4477752971 0.8854963214
3900276600.0 -0.4370172471 0.8911423669
3950276300.0 -0.4248393836 0.8971291078
4000276000.0 -0.4130335943 0.9030112001
4050275700.0 -0.4005268303 0.9092501892
4100275400.0 -0.389204293 0.9145897118
4150275100.0 -0.3761725193 0.9203832572
4200274800.0 -0.3627412351 0.9260476781
4250274500.0 -0.3500696741 0.931314376
4300274200.0 -0.3369124078 0.9368667345
4350273900.0 -0.3224520927 0.9422121779
4400273600.0 -0.3077752268 0.9471149894
4450273300.0 -0.2929253232 0.9521282463
4500273000.0 -0.2797872001 0.9564003682
4550272700.0 -0.2660973964 0.9604499206
4600272400.0 -0.2510928401 0.9647328292
4650272100.0 -0.2397479379 0.9677156357
4700271800.0 -0.2269432394 0.9710770883
4750271500.0 -0.2152410291 0.9739555491
4800271200.0 -0.2030465153 0.9765365893
4850270900.0 -0.1892625333 0.9794186915
4900270600.0 -0.1755178489 0.9819645174
4950270300.0 -0.1606335856 0.9843698394
5000270000.0 -0.1462909462 0.9865913842
5050269700.0 -0.1330233627 0.9882802309
5100269400.0 -0.1187404889 0.989927192
5150269100.0 -0.1048354218 0.9916326718
5200268800.0 -0.0915778835 0.9926303964
5250268500.0 -0.0782391725 0.9936376244
5300268200.0 -0.0646384019 0.994360577
5350267900.0 -0.0515512369 0.9953697307
5400267600.0 -0.0355749705 0.9960957477
5450267300.0 -0.0222072987 0.9966684783
5500267000.0 -0.0071237465 0.9969654424
5550266700.0 0.0080107074 0.9971880869
5600266400.0 0.0237214698 0.9972939143
5650266100.0 0.0405510663 0.9967271659
5700265800.0 0.0546417717 0.9960472101
5750265500.0 0.069691501 0.9955754577
5800265200.0 0.0834741995 0.9943493003
5850264900.0 0.0965888467 0.9931982273
5900264600.0 0.112837127 0.9913645932
5950264300.0 0.1245026056 0.9899043725
6000264000.0 0.1381013521 0.9880621237
6050263700.0 0.1495649481 0.9868419168
6100263400.0 0.1616803274 0.9849941584
6150263100.0 0.1764218023 0.9828417435
6200262800.0 0.186018356 0.9812975133
6250262500.0 0.1986824613 0.9788548399
6300262200.0 0.21072856 0.9763170085
6350261900.0 0.2236944342 0.9735547903
6400261600.0 0.237543343 0.97022411
6450261300.0 0.2484748078 0.9679285157
6500261000.0 0.2622288655 0.9641729717
6550260700.0 0.2746884832 0.9599755806
6600260400.0 0.2885467771 0.9561660432
6650260100.0 0.302642394 0.9518132293
6700259800.0 0.3146363371 0.9474285548
6750259500.0 0.3283726401 0.9423908466
6800259200.0 0.3423146884 0.9374152013
6850258900.0 0.3542463844 0.9318089749
6900258600.0 0.3670816344 0.9268865222
6950258300.0 0.3798497831 0.9217693007
7000258000.0 0.3913612898 0.9161928667
7050257700.0 0.4031989326 0.9103955437
7100257400.0 0.416461822 0.9040144242
7150257100.0 0.4272675637 0.8985404729
7200256800.0 0.4404774403 0.89215049
7250256500.0 0.4528050816 0.8855617063
7300256200.0 0.4658326713 0.8786734904
7350255900.0 0.4789259782 0.8718505438
7400255600.0 0.4928596451 0.864254642
7450255300.0 0.5084825302 0.8550714067
7500255000.0 0.5205734341 0.8472443271
7550254700.0 0.5351884723 0.838190373
7600254400.0 0.5481990413 0.830264933
7650254100.0 0.5592562695 0.8222433772
7700253800.0 0.5710516899 0.8139967266
7750253500.0 0.5819803875 0.8065380452
7800253200.0 0.5925707117 0.7984088777
7850252900.0 0.6022694194 0.7914312662
7900252600.0 0.6136900534 0.7827944705
7950252300.0 0.6222190682 0.7762484241
8000252000.0 0.6321593348 0.7687774898
8050251700.0 0.642426327 0.7606438926
8100251400.0 0.6519506272 0.7528156501
8150251100.0 0.6623506877 0.7442387738
8200250800.0 0.6717771099 0.7359703555
8250250500.0 0.680694427 0.728120573
8300250200.0 0.6893364622 0.7197847159
8350249900.0 0.6991729166 0.7108401935
8400249600.0 0.7066517902 0.7030148218
8450249300.0 0.71584536 0.6941980886
8500249000.0 0.7241110364 0.6853615363
8550248700.0 0.7328864453 0.6763410995
8600248400.0 0.7410164428 0.6669061834
8650248100.0 0.7485843157 0.6575283972
8700247800.0 0.7576861507 0.6464637589
8750247500.0 0.7661019105 0.6363785108
8800247200.0 0.7740207575 0.6260565683
8850246900.0 0.783007337 0.6147200135
8900246600.0 0.7913423618 0.6033307635
8950246300.0 0.8005207301 0.5907175305
9000246000.0 0.8090538285 0.578735958
9050245700.0 0.8174841722 0.5662610637
9100245400.0 0.825889635 0.5540950812
9150245100.0 0.8346970628 0.541384338
9200244800.0 0.8442554847 0.5271399413
9250244500.0 0.853095656 0.5121283793
9300244200.0 0.861219559 0.4987416852
9350243900.0 0.8687684112 0.4854098623
9400243600.0 0.8755477841 0.4737652262
9450243300.0 0.881021678 0.463384298
9500243000.0 0.887248233 0.4517165004
9550242700.0 0.8914004379 0.4441326125
9600242400.0 0.8955898231 0.4366640891
9650242100.0 0.8997525951 0.429652478
9700241800.0 0.9046282731 0.4211424791
9750241500.0 0.9089756659 0.4135137942
9800241200.0 0.9142445065 0.4039565939
9850240900.0 0.9198532829 0.3921588165
9900240600.0 0.9257959066 0.3802120894
9950240300.0 0.9327676795 0.3633632179
10000240000.0 0.9377601164 0.3513878384
10050239700.0 0.9438168132 0.3356158575
10100239400.0 0.9491641921 0.3188786018
10150239100.0 0.9537762249 0.3032812246
10200238800.0 0.9584074113 0.287834606
10250238500.0 0.9614442427 0.274382125
10300238200.0 0.9644921607 0.2606089094
10350237900.0 0.9672708721 0.2470042228
10400237600.0 0.969963662 0.2335176938
10450237300.0 0.9726250818 0.2200475123
10500237000.0 0.9748156699 0.2078236629
10550236700.0 0.9772606826 0.1933780339
10600236400.0 0.9794738449 0.1787627003
10650236100.0 0.9813333587 0.1649813711
10700235800.0 0.9838078125 0.1523158962
10750235500.0 0.9861293203 0.1386133321
10800235200.0 0.9880479452 0.1246156256
10850234900.0 0.9898410251 0.1098072963
10900234600.0 0.9919003127 0.0949089412
10950234300.0 0.9937820743 0.0811022524
11000234000.0 0.9956432633 0.0657130178
11050233700.0 0.9972668643 0.0489684054
11100233400.0 0.9988750617 0.0313131717
11150233100.0 0.9998621106 0.0144676877
11200232800.0 1.000738841 -0.0019661402
11250232500.0 1.00182524 -0.0192657826
11300232200.0 1.001975354 -0.0378666066
11350231900.0 1.002163621 -0.0542154522
11400231600.0 1.001923438 -0.0704079617
11450231300.0 1.00125214 -0.085891517
11500231000.0 0.9997682057 -0.1015772713
11550230700.0 0.9979196672 -0.1143786624
11600230400.0 0.997313373 -0.1277521852
11650230100.0 0.9947281575 -0.1393627899
11700229800.0 0.9923682911 -0.1541322247
11750229500.0 0.9902324163 -0.1682706422
11800229200.0 0.9871258382 -0.182027314
11850228900.0 0.9831806941 -0.1935710392
11900228600.0 0.9798925467 -0.2026712566
11950228300.0 0.9765655921 -0.2128404293
12000228000.0 0.9739630951 -0.2219325357
12050227700.0 0.9698579383 -0.2346432631
12100227400.0 0.9666978439 -0.2453831474
12150227100.0 0.9621463549 -0.2617709141
12200226800.0 0.9578787744 -0.2726848799
12250226500.0 0.9539318472 -0.2861577548
12300226200.0 0.9495119007 -0.2989218645
12350225900.0 0.9446053383 -0.3118024958
12400225600.0 0.9403061941 -0.3243920215
12450225300.0 0.9356107716 -0.336984903
12500225000.0 0.930458976 -0.3520487575
12550224700.0 0.924855799 -0.3654703162
12600224400.0 0.9201060329 -0.378249486
12650224100.0 0.9141898171 -0.3924689371
12700223800.0 0.9087848194 -0.4054590525
12750223500.0 0.903256641 -0.4185247606
12800223200.0 0.8981480992 -0.4311213459
12850222900.0 0.8930583159 -0.4431043595
12900222600.0 0.8869835044 -0.4555117605
12950222300.0 0.8808885542 -0.4674123847
13000222000.0 0.8749465978 -0.4795113877
13050221700.0 0.8685067775 -0.4923089243
13100221400.0 0.8612456489 -0.5043432139
13150221100.0 0.8545250163 -0.5166896101
13200220800.0 0.8478400968 -0.5279561448
13250220500.0 0.8403989792 -0.5400293384
13300220200.0 0.8326783221 -0.5513842845
13350219900.0 0.8245140234 -0.5632529336
13400219600.0 0.8162209536 -0.5750030109
13450219300.0 0.8068929325 -0.5881417349
13500219000.0 0.7971849104 -0.6012619214
13550218700.0 0.7874876127 -0.6135905679
13600218400.0 0.7777357695 -0.6255147003
13650218100.0 0.7678097201 -0.6360917469
13700217800.0 0.756827329 -0.6479981088
13750217500.0 0.7472826578 -0.6589272147
13800217200.0 0.7366281309 -0.670135177
13850216900.0 0.7256499065 -0.6811509921
13900216600.0 0.7160062374 -0.6905985469
13950216300.0 0.7048550288 -0.7005884859
14000216000.0 0.6954941791 -0.7093348148
14050215700.0 0.6865198058 -0.7174781708
14100215400.0 0.6767065887 -0.7258594579
14150215100.0 0.6676407862 -0.735138993
14200214800.0 0.6580524712 -0.7437668035
14250214500.0 0.6477472534 -0.7533919056
14300214200.0 0.6373470318 -0.7629685648
14350213900.0 0.6262128247 -0.7724564622
14400213600.0 0.6142878266 -0.782494285
14450213300.0 0.6013936102 -0.7925944967
14500213000.0 0.5884425834 -0.8024285791
14550212700.0 0.5758626229 -0.8121103467
14600212400.0 0.5632635708 -0.8208372698
14650212100.0 0.5510656489 -0.8293401198
14700211800.0 0.5375771305 -0.8386382246
14750211500.0 0.5248309725 -0.846870039
14800211200.0 0.5124428899 -0.8553136483
14850210900.0 0.5002424403 -0.8627854282
14900210600.0 0.4867690005 -0.8707867166
14950210300.0 0.4733730094 -0.8784400313
15000210000.0 0.4609386076 -0.8854136477
15050209700.0 0.44842138 -0.8914124668
15100209400.0 0.4355708095 -0.8973430152
15150209100.0 0.4229322629 -0.9026887302
15200208800.0 0.4103979097 -0.9076358456
15250208500.0 0.399557937 -0.9127923554
15300208200.0 0.3878295282 -0.9174430869
15350207900.0 0.3748286422 -0.9220858195
15400207600.0 0.3599157546 -0.9272853857
15450207300.0 0.3448956522 -0.9324264064
15500207000.0 0.3301021328 -0.9371481258
15550206700.0 0.3154389724 -0.9419010571
15600206400.0 0.2996991457 -0.9462656864
15650206100.0 0.2837812152 -0.9505239912
15700205800.0 0.2707858511 -0.9542713272
15750205500.0 0.2564324067 -0.957711617
15800205200.0 0.2424516889 -0.9610543183
15850204900.0 0.2283106749 -0.9646425133
15900204600.0 0.2132502982 -0.9681989935
15950204300.0 0.1989111684 -0.9717019339
16000204000.0 0.1843290487 -0.9744899148
16050203700.0 0.1696121311 -0.9774229393
16100203400.0 0.1543505221 -0.9793002858
16150203100.0 0.1399749918 -0.9819988926
16200202800.0 0.1251368253 -0.9838779873
16250202500.0 0.1111192628 -0.9862640886
16300202200.0 0.0951433457 -0.9877655751
16350201900.0 0.0802962472 -0.9891140142
16400201600.0 0.0653597601 -0.990017443
16450201300.0 0.0499014067 -0.9910436998
16500201000.0 0.0328693324 -0.9918075186
16550200700.0 0.0168685827 -0.9924640611
16600200400.0 0.0007777334 -0.9926346047
16650200100.0 -0.015174188 -0.9925743957
16700199800.0 -0.0317383123 -0.992245308
16750199500.0 -0.0510168123 -0.9919101471
16800199200.0 -0.0665102119 -0.9909377588
16850198900.0 -0.0823227407 -0.989414319
16900198600.0 -0.0966972405 -0.9883178034
16950198300.0 -0.1104132168 -0.9871369189
17000198000.0 -0.1227426874 -0.9859974421
17050197700.0 -0.1356409665 -0.9840410633
17100197400.0 -0.1485513855 -0.9820049456
17150197100.0 -0.1610151942 -0.9807043368
17200196800.0 -0.1740612483 -0.9778599073
17250196500.0 -0.1871922695 -0.9754407991
17300196200.0 -0.199405602 -0.973156206
17350195900.0 -0.2109680728 -0.9707916353
17400195600.0 -0.2231249219 -0.9679617593
17450195300.0 -0.2360238044 -0.9653026473
17500195000.0 -0.2491626047 -0.9622013758
17550194700.0 -0.262682112 -0.9586096542
17600194400.0 -0.276519771 -0.9549508687
17650194100.0 -0.2904563012 -0.950359026
17700193800.0 -0.3031041396 -0.9463212251
17750193500.0 -0.3176248219 -0.941810131
17800193200.0 -0.3317583009 -0.9363238669
17850192900.0 -0.3464199759 -0.9309987171
17900192600.0 -0.3614824188 -0.9248331609
17950192300.0 -0.3769240437 -0.9176423385
18000192000.0 -0.3918628706 -0.910351999
18050191700.0 -0.4057199674 -0.9026611414
18100191400.0 -0.4199245008 -0.8949237424
18150191100.0 -0.4347093966 -0.8869581721
18200190800.0 -0.4516044378 -0.87773628
18250190500.0 -0.4684356743 -0.8684537372
18300190200.0 -0.4839737879 -0.85963558
18350189900.0 -0.4992317291 -0.8509254895
18400189600.0 -0.5140949304 -0.8426364983
18450189300.0 -0.527367125 -0.8347374859
18500189000.0 -0.5403725576 -0.8272023145
18550188700.0 -0.5530722576 -0.8190331161
18600188400.0 -0.5652356383 -0.8122326991
18650188100.0 -0.5765644611 -0.8055600261
18700187800.0 -0.5874339548 -0.7990109848
18750187500.0 -0.5986408693 -0.792288761
18800187200.0 -0.6092211615 -0.7854267736
18850186900.0 -0.6193753492 -0.7785045479
18900186600.0 -0.6297231172 -0.7711095032
18950186300.0 -0.6398532817 -0.7635386143
19000186000.0 -0.6473304667 -0.7570037706
19050185700.0 -0.6567150874 -0.7503103581
19100185400.0 -0.6663684866 -0.7418706657
19150185100.0 -0.6764995844 -0.7334199749
19200184800.0 -0.6863819148 -0.7252488471
19250184500.0 -0.6963464501 -0.7157757965
19300184200.0 -0.7079575334 -0.7069766265
19350183900.0 -0.7187888546 -0.6973380233
19400183600.0 -0.7284461074 -0.6866509197
19450183300.0 -0.7372843697 -0.6763061522
19500183000.0 -0.7454328691 -0.6665059286
19550182700.0 -0.7553407556 -0.6555501151
19600182400.0 -0.7653366048 -0.6439148457
19650182100.0 -0.7761116059 -0.6314253872
19700181800.0 -0.7865295086 -0.6184375534
19750181500.0 -0.7969402843 -0.604470432
19800181200.0 -0.8073873282 -0.589244545
19850180900.0 -0.8169322883 -0.5739098454
19900180600.0 -0.8247214533 -0.5593318077
19950180300.0 -0.8338517504 -0.5434101135
20000180000.0 -0.8230438497 -0.5471392561
20050179700.0 -0.8309797253 -0.5339102148
20100179400.0 -0.8401284247 -0.5214384149
20150179100.0 -0.8477479249 -0.5096416649
20200178800.0 -0.8565194815 -0.4975854261
20250178500.0 -0.8658676161 -0.4853247631
20300178200.0 -0.8753515119 -0.4717305377
20350177900.0 -0.8845197748 -0.4574818761
20400177600.0 -0.8937004031 -0.4434985153
20450177300.0 -0.9019165594 -0.4291048666
20500177000.0 -0.9100818103 -0.4152430903
20550176700.0 -0.9180592052 -0.4017678704
20600176400.0 -0.9251362097 -0.3888771606
20650176100.0 -0.9309725296 -0.3765321498
20700175800.0 -0.9376219859 -0.3644800783
20750175500.0 -0.9450107157 -0.3537000171
20800175200.0 -0.9495739347 -0.3424490075
20850174900.0 -0.9534588807 -0.3318970189
20900174600.0 -0.9582380666 -0.3210600837
20950174300.0 -0.9616861022 -0.3098616363
21000174000.0 -0.9640533281 -0.2984509632
21050173700.0 -0.9660269096 -0.2894081921
21100173400.0 -0.9692383689 -0.278577051
21150173100.0 -0.973088546 -0.2666518709
21200172800.0 -0.976836269 -0.2528181088
21250172500.0 -0.9808083697 -0.2394151298
21300172200.0 -0.9842712184 -0.2255118408
21350171900.0 -0.986438801 -0.2113274794
21400171600.0 -0.9881971421 -0.1978017781
21450171300.0 -0.98908634 -0.1826083449
21500171000.0 -0.9890767247 -0.168095402
21550170700.0 -0.989594114 -0.1534803893
21600170400.0 -0.9908008821 -0.1372533621
21650170100.0 -0.9911759917 -0.1221146273
21700169800.0 -0.9907312172 -0.1063760814
21750169500.0 -0.9908439223 -0.0911498525
21800169200.0 -0.9905204519 -0.0739660155
21850168900.0 -0.9902696943 -0.0579541564
21900168600.0 -0.9901763877 -0.0407387848
21950168300.0 -0.9888236063 -0.0252855743
22000168000.0 -0.9890810348 -0.0104538707
22050167700.0 -0.9897881991 0.0040999071
22100167400.0 -0.9904864128 0.0199272189
22150167100.0 -0.991074891 0.0364288406
22200166800.0 -0.9920026 0.052465701
22250166500.0 -0.992140441 0.069464058
22300166200.0 -0.9906571159 0.0865534442
22350165900.0 -0.9900411094 0.1018268636
22400165600.0 -0.9881802841 0.1187423596
22450165300.0 -0.9860134833 0.1337508069
22500165000.0 -0.9842386912 0.1484396845
22550164700.0 -0.9835899519 0.1641673124
22600164400.0 -0.9806690363 0.1799909306
22650164100.0 -0.9784126958 0.1960971968
22700163800.0 -0.9744758707 0.2121973828
22750163500.0 -0.9724925625 0.226545683
22800163200.0 -0.9688137124 0.2397209499
22850162900.0 -0.9663742445 0.2529675444
22900162600.0 -0.9644192733 0.2669657296
22950162300.0 -0.9629784476 0.2809232134
23000162000.0 -0.9612395458 0.2932207125
23050161700.0 -0.9580759866 0.306676442
23100161400.0 -0.9554817345 0.3204184321
23150161100.0 -0.9521252329 0.3336957122
23200160800.0 -0.9496426768 0.3462412164
23250160500.0 -0.9465387701 0.3583422822
23300160200.0 -0.9445750303 0.3712978626
23350159900.0 -0.9394751234 0.3849582968
23400159600.0 -0.9350488415 0.3982545945
23450159300.0 -0.9300373917 0.4123504362
23500159000.0 -0.9249427529 0.4259550097
23550158700.0 -0.9200237446 0.440078334
23600158400.0 -0.9140510701 0.4543816093
23650158100.0 -0.9070430996 0.4689091949
23700157800.0 -0.8982705334 0.4829347408
23750157500.0 -0.8887993906 0.4974916802
23800157200.0 -0.8788335864 0.5106755648
23850156900.0 -0.8693501535 0.523779616
23900156600.0 -0.8592947962 0.5362219364
23950156300.0 -0.8487964253 0.5490074465
24000156000.0 -0.8401881228 0.561065372
24050155700.0 -0.8293985266 0.5733112532
24100155400.0 -0.8186406742 0.5858300441
24150155100.0 -0.8083974922 0.5983738142
24200154800.0 -0.7974827552 0.6099238386
24250154500.0 -0.7858416285 0.6214226972
24300154200.0 -0.7747892845 0.6344275653
24350153900.0 -0.7625395795 0.6454542247
24400153600.0 -0.7497108707 0.6559637573
24450153300.0 -0.7379461884 0.6661209371
24500153000.0 -0.7261599772 0.6762964039
24550152700.0 -0.7147861196 0.6864508906
24600152400.0 -0.7027236013 0.6956378226
24650152100.0 -0.6909827837 0.7038957451
