!Created with skrf (http://scikit-rf.org).
# Hz S RI R 50.0 
!freq ReS11 ImS11
300000.0 -0.974089203 -0.1212591499
50299700.0 -1.000130158 0.0153146701
100299400.0 -0.9979436108 0.0282410283
150299100.0 -1.002730071 0.0450245603
200298800.0 -0.9993485664 0.058307662
250298500.0 -0.9974591513 0.0717516083
300298200.0 -0.9859856934 0.0878395251
350297900.0 -0.9939482835 0.0985831065
400297600.0 -0.9931430681 0.1150791098
450297300.0 -0.9910477003 0.1288654115
500297000.0 -0.9895105438 0.1437333083
550296700.0 -0.9842233329 0.1560868156
600296400.0 -1.017329391 0.1893809698
650296100.0 -0.9822299169 0.185982236
700295800.0 -0.9793221306 0.2002744678
750295500.0 -0.9761248166 0.2143591802
800295200.0 -0.9730786826 0.2283280004
850294900.0 -0.9697446646 0.2420926894
900294600.0 -0.965684781 0.2559508124
950294300.0 -0.962057923 0.2694372497
1000294000.0 -0.9580232963 0.2835090095
1050293700.0 -0.9537917832 0.2974661237
1100293400.0 -0.9492020465 0.3118095873
1150293100.0 -0.9455250841 0.3235712795
1200292800.0 -0.9402111094 0.3378869756
1250292500.0 -0.9346803267 0.3514206085
1300292200.0 -0.9290219653 0.3646870628
1350291900.0 -0.9234879088 0.3786228296
1400291600.0 -0.9178750777 0.3920461781
1450291300.0 -0.9124435508 0.4041550665
1500291000.0 -0.9060847773 0.4175335954
1550290700.0 -0.8998028712 0.4307897328
1600290400.0 -0.8935399199 0.443807788
1650290100.0 -0.8869982269 0.4559740998
1700289800.0 -0.8800053963 0.4695652137
1750289500.0 -0.8728575718 0.4817041365
1800289200.0 -0.8655690907 0.4946590768
1850288900.0 -0.8585813656 0.5060116045
1900288600.0 -0.8510443293 0.5190112367
1950288300.0 -0.843018576 0.5314777021
2000288000.0 -0.8353189067 0.5430527503
2050287700.0 -0.827214615 0.5553456394
2100287400.0 -0.8192231704 0.5668178109
2150287100.0 -0.8105547127 0.5789725306
2200286800.0 -0.8029795435 0.5892779145
2250286500.0 -0.7941400382 0.6013722638
2300286200.0 -0.785227144 0.6131237441
2350285900.0 -0.7765605632 0.6240387344
2400285600.0 -0.7677176978 0.6349534962
2450285300.0 -0.7590949865 0.6452456158
2500285000.0 -0.7492760587 0.6566767716
2550284700.0 -0.7404850218 0.6669820598
2600284400.0 -0.7309679588 0.6769865426
2650284100.0 -0.7218375881 0.6875770788
2700283800.0 -0.7114711427 0.6979921249
2750283500.0 -0.7010398904 0.7084306396
2800283200.0 -0.6915257243 0.7185459861
2850282900.0 -0.6810006868 0.7284243224
2900282600.0 -0.6710862419 0.737877185
2950282300.0 -0.6604832264 0.7472034237
3000282000.0 -0.6498774338 0.75670943
3050281700.0 -0.6385747056 0.7658093299
3100281400.0 -0.6268526857 0.7753242483
3150281100.0 -0.6150893338 0.7845661083
3200280800.0 -0.6035081465 0.7932642608
3250280500.0 -0.5925894135 0.8008352502
3300280200.0 -0.5811011385 0.8087824125
3350279900.0 -0.5697054894 0.8162668996
3400279600.0 -0.5574952415 0.8240041894
3450279300.0 -0.5463950753 0.8312046651
3500279000.0 -0.5344652769 0.8384202521
3550278700.0 -0.5220501855 0.8454717837
3600278400.0 -0.5098051045 0.8524908068
3650278100.0 -0.496642662 0.860222428
3700277800.0 -0.4844461603 0.8667144477
3750277500.0 -0.4722222878 0.8733741992
3800277200.0 -0.4596389877 0.8798585673
3850276900.0 -0.447714059 0.8857273273
3900276600.0 -0.4367789416 0.8912625562
3950276300.0 -0.4244400281 0.8972626225
4000276000.0 -0.4127231307 0.9033763714
4050275700.0 -0.3994598903 0.9093117222
4100275400.0 -0.3887256737 0.9149071281
4150275100.0 -0.3758709653 0.9205410833
4200274800.0 -0.3629437034 0.9263484586
4250274500.0 -0.3505105203 0.9313061616
4300274200.0 -0.3375330323 0.9367631564
4350273900.0 -0.3237949766 0.9418315332
4400273600.0 -0.3088039983 0.9470406677
4450273300.0 -0.2936527266 0.9521569398
4500273000.0 -0.2799810255 0.9565299378
4550272700.0 -0.2660099485 0.9607709689
4600272400.0 -0.2505043133 0.965009392
4650272100.0 -0.2388807545 0.9681834776
4700271800.0 -0.2255862129 0.9715917936
4750271500.0 -0.2140382643 0.9744552953
4800271200.0 -0.2014751761 0.9770648314
4850270900.0 -0.1873801691 0.979728817
4900270600.0 -0.1737059784 0.9822622486
4950270300.0 -0.1594523393 0.9846774068
5000270000.0 -0.14488046 0.9868803005
5050269700.0 -0.1314292753 0.9882488166
5100269400.0 -0.1177321321 0.9904424178
5150269100.0 -0.1044512452 0.9919184187
5200268800.0 -0.0910493252 0.9930766516
5250268500.0 -0.0782972265 0.9936580238
5300268200.0 -0.0649203136 0.9945682355
5350267900.0 -0.0524358435 0.9954479653
5400267600.0 -0.036370088 0.99628327
5450267300.0 -0.0233938031 0.9963816564
5500267000.0 -0.0080103288 0.9969887058
5550266700.0 0.0069067724 0.9972864194
5600266400.0 0.0222869199 0.9972107829
5650266100.0 0.0388280879 0.9969973691
5700265800.0 0.0531520696 0.9960080255
5750265500.0 0.0686651583 0.9954630212
5800265200.0 0.08246984 0.9942886554
5850264900.0 0.0955619854 0.993611975
5900264600.0 0.1124819734 0.991906914
5950264300.0 0.1240311296 0.9899190959
6000264000.0 0.1384576461 0.9884276466
6050263700.0 0.1503599753 0.9870797473
6100263400.0 0.1627079639 0.9851026836
6150263100.0 0.1774636726 0.9825627882
6200262800.0 0.1876331326 0.9809254741
6250262500.0 0.2004116451 0.9784890504
6300262200.0 0.2131940348 0.97602336
6350261900.0 0.2262119982 0.9728739163
6400261600.0 0.2401066124 0.9695815235
6450261300.0 0.2513703496 0.9669322483
6500261000.0 0.2643775711 0.9633371611
6550260700.0 0.2774148113 0.9595498449
6600260400.0 0.2904456547 0.9551998849
6650260100.0 0.3045451814 0.951142527
6700259800.0 0.316983392 0.9472278208
6750259500.0 0.3305755499 0.9417476793
6800259200.0 0.3433935037 0.936670556
6850258900.0 0.3557027127 0.9317379798
6900258600.0 0.3676645707 0.9264888151
6950258300.0 0.3802578825 0.9212442232
7000258000.0 0.3923228075 0.9159960595
7050257700.0 0.4044442949 0.9097897184
7100257400.0 0.4174117656 0.9035754012
7150257100.0 0.4276705684 0.8983326447
7200256800.0 0.4406956172 0.8920171163
7250256500.0 0.4527967849 0.8855024675
7300256200.0 0.465169507 0.8786330064
7350255900.0 0.4777268508 0.8717355086
7400255600.0 0.491622954 0.8648026251
7450255300.0 0.5070287139 0.8556119389
7500255000.0 0.518682095 0.8486069294
7550254700.0 0.5322768568 0.840015246
7600254400.0 0.5452570993 0.831711435
7650254100.0 0.5567240122 0.8239179112
7700253800.0 0.5683450199 0.8159822149
7750253500.0 0.5796072673 0.8083079449
7800253200.0 0.5905029337 0.8005762962
7850252900.0 0.599872392 0.7935428749
7900252600.0 0.61157033 0.7849458908
7950252300.0 0.6204446671 0.7782655087
8000252000.0 0.6305146269 0.7706232419
8050251700.0 0.6407983019 0.7624376145
8100251400.0 0.6510100431 0.7543786805
8150251100.0 0.6610860852 0.7459746996
8200250800.0 0.6704847986 0.7378758492
8250250500.0 0.6792353295 0.7299565147
8300250200.0 0.6886531334 0.7213043984
8350249900.0 0.6977021662 0.7123315858
8400249600.0 0.7060597952 0.7044852817
8450249300.0 0.7151345662 0.695118609
8500249000.0 0.7238620685 0.6862897008
8550248700.0 0.7320589659 0.6773251657
8600248400.0 0.7406803463 0.6679032777
8650248100.0 0.7483764465 0.6584182864
8700247800.0 0.7578215387 0.6471509902
8750247500.0 0.7660951053 0.6370736559
8800247200.0 0.7743173345 0.626714929
8850246900.0 0.782806931 0.6153103027
8900246600.0 0.7917503736 0.6038403416
8950246300.0 0.8010883626 0.5908678864
9000246000.0 0.8102526082 0.5782227874
9050245700.0 0.8193246194 0.5656162897
9100245400.0 0.8280659888 0.5530062844
9150245100.0 0.8371590343 0.5395364138
9200244800.0 0.8469739848 0.5243266539
9250244500.0 0.8564039639 0.5091038284
9300244200.0 0.8646695967 0.4947181173
9350243900.0 0.8724480197 0.4809175225
9400243600.0 0.8791292137 0.4684289898
9450243300.0 0.8849273373 0.4571850355
9500243000.0 0.891230449 0.4448984035
9550242700.0 0.8951275039 0.4371266256
9600242400.0 0.8991971282 0.4297580564
9650242100.0 0.9026881881 0.4232815889
9700241800.0 0.9074515352 0.4150059481
9750241500.0 0.9112903809 0.4076038097
9800241200.0 0.9160666072 0.3983601767
9850240900.0 0.9219781145 0.3865828459
9900240600.0 0.9272113591 0.3753166691
9950240300.0 0.9341998126 0.3587965874
10000240000.0 0.9390031506 0.3473184198
10050239700.0 0.9448612819 0.331767245
10100239400.0 0.9494995031 0.3162989525
10150239100.0 0.9537004556 0.3017142662
10200238800.0 0.9581089846 0.2866617877
10250238500.0 0.9614434209 0.2730719135
10300238200.0 0.9645896151 0.2593402092
10350237900.0 0.9672644599 0.2458750604
10400237600.0 0.9697621021 0.2327159366
10450237300.0 0.9725021151 0.2188948225
10500237000.0 0.9745550819 0.2066428672
10550236700.0 0.9766739057 0.193186794
10600236400.0 0.9792802092 0.178753043
10650236100.0 0.9810047984 0.1645110957
10700235800.0 0.9832907055 0.1524641255
10750235500.0 0.9858539977 0.1385383771
10800235200.0 0.9875340541 0.1249771878
10850234900.0 0.9895670038 0.1100142425
10900234600.0 0.9917171489 0.0953719392
10950234300.0 0.9934044515 0.0821615724
11000234000.0 0.9952354279 0.0670917634
11050233700.0 0.9969236158 0.0507264772
11100233400.0 0.9985928958 0.0332438747
11150233100.0 0.9993038064 0.0172268554
11200232800.0 1.000505319 0.0016997529
11250232500.0 1.001676716 -0.0146640355
11300232200.0 1.00162596 -0.0319846615
11350231900.0 1.001985104 -0.0480459654
11400231600.0 1.001224941 -0.0645155171
11450231300.0 1.000989 -0.0785023284
11500231000.0 0.9999203554 -0.0960714617
11550230700.0 0.9986597903 -0.1084148322
11600230400.0 0.9969758653 -0.1221254193
11650230100.0 0.994552733 -0.1331122078
11700229800.0 0.993074835 -0.147958926
11750229500.0 0.9909968814 -0.1624422493
11800229200.0 0.9880793855 -0.1758974415
11850228900.0 0.984510205 -0.1884410841
11900228600.0 0.9810777154 -0.1978139702
11950228300.0 0.977875669 -0.2082371377
12000228000.0 0.9749069286 -0.2177279473
12050227700.0 0.9714350183 -0.229798455
12100227400.0 0.9683025848 -0.2412754693
12150227100.0 0.9637393595 -0.2571368618
12200226800.0 0.9600228665 -0.2685005377
12250226500.0 0.9554356724 -0.2815005462
12300226200.0 0.9509233401 -0.2939422128
12350225900.0 0.9468940528 -0.3083808147
12400225600.0 0.9420927407 -0.3208813082
12450225300.0 0.9375215235 -0.3337013953
12500225000.0 0.9324595343 -0.3489210601
12550224700.0 0.926774326 -0.3621244289
12600224400.0 0.9220633714 -0.3751623649
12650224100.0 0.9162141686 -0.3893325747
12700223800.0 0.9109778997 -0.4022667223
12750223500.0 0.9052724576 -0.4153010283
12800223200.0 0.9001147224 -0.4276140624
12850222900.0 0.8947534352 -0.4401387736
12900222600.0 0.8888774806 -0.4518747555
12950222300.0 0.882530786 -0.4647336537
13000222000.0 0.8767210826 -0.4769527698
13050221700.0 0.8697168764 -0.488724489
13100221400.0 0.8636518163 -0.5006041476
13150221100.0 0.857046549 -0.5131812411
13200220800.0 0.8496114192 -0.5247373025
13250220500.0 0.842393582 -0.5368581315
13300220200.0 0.8349833155 -0.5474899632
13350219900.0 0.8272380097 -0.5593577152
13400219600.0 0.8187089914 -0.5714118625
13450219300.0 0.8092614946 -0.5851763425
13500219000.0 0.7993460868 -0.5987079594
13550218700.0 0.7892319376 -0.611546232
13600218400.0 0.7790054631 -0.6231396305
13650218100.0 0.7698636063 -0.6347720099
13700217800.0 0.7588065306 -0.6470800832
13750217500.0 0.7487941499 -0.6578523171
13800217200.0 0.7374757135 -0.6699220309
13850216900.0 0.7260770264 -0.6812469589
13900216600.0 0.7166717229 -0.6902649936
13950216300.0 0.7062205019 -0.700733511
14000216000.0 0.6954841128 -0.7099413247
14050215700.0 0.6867174409 -0.7177741326
14100215400.0 0.6762771495 -0.7273184862
14150215100.0 0.6672230976 -0.7357697594
14200214800.0 0.6578404274 -0.744582348
14250214500.0 0.6475295871 -0.7538207702
14300214200.0 0.636987082 -0.7633524295
14350213900.0 0.6259458208 -0.7728585
14400213600.0 0.614139417 -0.7826532543
14450213300.0 0.6008353872 -0.7927861679
14500213000.0 0.5877395213 -0.8028170091
14550212700.0 0.5757939111 -0.8123596534
14600212400.0 0.5631825465 -0.8212303747
14650212100.0 0.5495043764 -0.8301451298
14700211800.0 0.5358959302 -0.8394606173
14750211500.0 0.5241231275 -0.847430795
14800211200.0 0.511758217 -0.8553506292
14850210900.0 0.4997400165 -0.8632704233
14900210600.0 0.4864512062 -0.8709713973
14950210300.0 0.4730131767 -0.8785638835
15000210000.0 0.460509864 -0.8854535703
15050209700.0 0.4480704323 -0.8916782017
15100209400.0 0.4355290335 -0.8971230965
15150209100.0 0.4231268447 -0.9030067215
15200208800.0 0.4106354761 -0.9083337244
15250208500.0 0.3996882431 -0.9123770023
15300208200.0 0.387001668 -0.9172952414
15350207900.0 0.3737171051 -0.9227544454
15400207600.0 0.3593614064 -0.927930181
15450207300.0 0.3442180343 -0.932814767
15500207000.0 0.3298216588 -0.9374492004
15550206700.0 0.315612165 -0.9420923941
15600206400.0 0.2998931702 -0.9468823415
15650206100.0 0.2836357815 -0.9512619904
15700205800.0 0.2696253062 -0.9549722285
15750205500.0 0.2550887722 -0.9586035635
15800205200.0 0.2407720661 -0.961752712
15850204900.0 0.2265003798 -0.9652737173
15900204600.0 0.2115139803 -0.9689388607
15950204300.0 0.1972258928 -0.9719504359
16000204000.0 0.1830765419 -0.9750164065
16050203700.0 0.16827205 -0.9777953619
16100203400.0 0.1534398776 -0.9798825002
16150203100.0 0.1390169153 -0.9823505097
16200202800.0 0.1243322373 -0.9844974291
16250202500.0 0.1101291133 -0.9860439801
16300202200.0 0.0946350689 -0.9876744676
16350201900.0 0.0794631707 -0.989147376
16400201600.0 0.0649658583 -0.9904283255
16450201300.0 0.0494035295 -0.9911143942
16500201000.0 0.0329255081 -0.9920159461
16550200700.0 0.017297908 -0.992474079
16600200400.0 0.0016499398 -0.992723947
16650200100.0 -0.0144090141 -0.9930369398
16700199800.0 -0.0309209081 -0.9923259255
16750199500.0 -0.0491901351 -0.9916436166
16800199200.0 -0.0650981289 -0.990586271
16850198900.0 -0.0803097306 -0.9891266925
16900198600.0 -0.0941584895 -0.9886451849
16950198300.0 -0.1076352278 -0.9877130181
17000198000.0 -0.1201700288 -0.9859335701
17050197700.0 -0.1334632467 -0.9844853588
17100197400.0 -0.14593362 -0.9825833732
17150197100.0 -0.158831338 -0.9802769574
17200196800.0 -0.1710041689 -0.9780420944
17250196500.0 -0.1844626254 -0.9757649338
17300196200.0 -0.1964165268 -0.9735232792
17350195900.0 -0.2082156094 -0.9713213959
17400195600.0 -0.2203354811 -0.9687939262
17450195300.0 -0.2335953711 -0.9659710876
17500195000.0 -0.2470450335 -0.9626823594
17550194700.0 -0.2608276072 -0.9594264759
17600194400.0 -0.2747739361 -0.9549703431
17650194100.0 -0.2888128988 -0.950956087
17700193800.0 -0.3021908167 -0.9469487707
17750193500.0 -0.31651984 -0.9423333751
17800193200.0 -0.3305978443 -0.937026926
17850192900.0 -0.3457656553 -0.9312367221
17900192600.0 -0.3610841405 -0.9255821305
17950192300.0 -0.3763416185 -0.918431386
18000192000.0 -0.3911937726 -0.9112752315
18050191700.0 -0.405223652 -0.9032561542
18100191400.0 -0.4194111986 -0.8956672068
18150191100.0 -0.4343402447 -0.8876784019
18200190800.0 -0.4514241626 -0.8784273365
18250190500.0 -0.4681719536 -0.8690251785
18300190200.0 -0.4837145496 -0.8604375641
18350189900.0 -0.4987331867 -0.8518320253
18400189600.0 -0.513311757 -0.843782214
18450189300.0 -0.5262580289 -0.835580966
18500189000.0 -0.5399126731 -0.8277766884
18550188700.0 -0.552659289 -0.8207448633
18600188400.0 -0.5641437343 -0.8134665475
18650188100.0 -0.5751749395 -0.807166646
18700187800.0 -0.5858630095 -0.800800046
18750187500.0 -0.5965115464 -0.7941414421
18800187200.0 -0.6068471111 -0.7873508056
18850186900.0 -0.6170440192 -0.7803488353
18900186600.0 -0.6273105706 -0.7729863676
18950186300.0 -0.6371994808 -0.7653695628
19000186000.0 -0.6445155173 -0.7594355213
19050185700.0 -0.6541731486 -0.7520817411
19100185400.0 -0.663682462 -0.7436894708
19150185100.0 -0.6737015086 -0.7353525645
19200184800.0 -0.6830253333 -0.7267382788
19250184500.0 -0.6927743952 -0.7180448768
19300184200.0 -0.7048913513 -0.7085641354
19350183900.0 -0.7157549147 -0.6982815873
19400183600.0 -0.7253006565 -0.6884126599
19450183300.0 -0.7344488046 -0.6785089601
19500183000.0 -0.742500901 -0.6686912287
19550182700.0 -0.7525156099 -0.6577101021
19600182400.0 -0.7629840961 -0.6459465617
19650182100.0 -0.7738808979 -0.6336201988
19700181800.0 -0.7845963541 -0.6201538571
19750181500.0 -0.795272802 -0.6062149325
19800181200.0 -0.8057190217 -0.5911189173
19850180900.0 -0.8154365877 -0.5756101494
19900180600.0 -0.8231628355 -0.5610470871
19950180300.0 -0.8325355845 -0.544852698
20000180000.0 -0.8252282274 -0.5471224954
20050179700.0 -0.8333971155 -0.5341837767
20100179400.0 -0.8420076712 -0.5197675365
20150179100.0 -0.8504840203 -0.5075231056
20200178800.0 -0.8591280748 -0.495495384
20250178500.0 -0.8687439407 -0.4814898315
20300178200.0 -0.8784564622 -0.4673361281
20350177900.0 -0.8872988981 -0.4530357693
20400177600.0 -0.8963352203 -0.4386463556
20450177300.0 -0.9043441514 -0.4243729691
20500177000.0 -0.912339959 -0.4105129611
20550176700.0 -0.9203483094 -0.3970232316
20600176400.0 -0.927459177 -0.3839062607
20650176100.0 -0.9340747657 -0.3719548446
20700175800.0 -0.9401217966 -0.3599376667
20750175500.0 -0.9470961257 -0.3482651193
20800175200.0 -0.9516299773 -0.3366412737
20850174900.0 -0.9561442091 -0.3262504955
20900174600.0 -0.9605819922 -0.3142979845
20950174300.0 -0.9645951866 -0.3030109164
21000174000.0 -0.9684127512 -0.2918861187
21050173700.0 -0.9712719264 -0.2817869599
21100173400.0 -0.9751803026 -0.2693758917
21150173100.0 -0.9793266938 -0.2565576328
21200172800.0 -0.9825931751 -0.2438592801
21250172500.0 -0.9853366728 -0.229957103
21300172200.0 -0.9891199155 -0.2165473031
21350171900.0 -0.9904735188 -0.2012576733
21400171600.0 -0.9916114574 -0.1871451759
21450171300.0 -0.9919564222 -0.1728157069
21500171000.0 -0.9926257721 -0.1579111879
21550170700.0 -0.9932960816 -0.1422954378
21600170400.0 -0.9913502485 -0.1262677186
21650170100.0 -0.9904790466 -0.1109507815
21700169800.0 -0.9907823127 -0.0946318328
21750169500.0 -0.9894773332 -0.079946852
21800169200.0 -0.988096985 -0.0622713608
21850168900.0 -0.9875054439 -0.0468973621
21900168600.0 -0.9868580423 -0.0297908976
21950168300.0 -0.9853064956 -0.0142047006
22000168000.0 -0.9840302869 0.0007262492
22050167700.0 -0.9841125166 0.0151217541
22100167400.0 -0.9844621757 0.0304622153
22150167100.0 -0.985203744 0.0461324828
22200166800.0 -0.9856777612 0.0621244539
22250166500.0 -0.9841013454 0.0799036314
22300166200.0 -0.9844256984 0.0967172629
22350165900.0 -0.9831037525 0.1128397618
22400165600.0 -0.981798505 0.1280865031
22450165300.0 -0.9797036174 0.1435501562
22500165000.0 -0.9778056298 0.1571654418
22550164700.0 -0.9763564181 0.1724981296
22600164400.0 -0.9750638742 0.1885142628
22650164100.0 -0.9723679889 0.2028648586
22700163800.0 -0.9697592275 0.2184714442
22750163500.0 -0.9662638353 0.2333407511
22800163200.0 -0.9645457319 0.2473705532
22850162900.0 -0.9621300593 0.2606300144
22900162600.0 -0.9603592182 0.2737904494
22950162300.0 -0.9593264982 0.28660548
23000162000.0 -0.9581402393 0.2985379842
23050161700.0 -0.9562494887 0.3109456955
23100161400.0 -0.9535214707 0.3242022427
23150161100.0 -0.9512984263 0.3365433737
23200160800.0 -0.9482530697 0.349274084
23250160500.0 -0.9453310527 0.3612220391
23300160200.0 -0.9431084875 0.3732111133
23350159900.0 -0.9387715229 0.3864149849
23400159600.0 -0.9338187854 0.3993319569
23450159300.0 -0.9295524826 0.4125277663
23500159000.0 -0.9246764719 0.4258908752
23550158700.0 -0.9202539971 0.439101089
23600158400.0 -0.9147536875 0.4525456354
23650158100.0 -0.9085653503 0.4667680051
23700157800.0 -0.9008118232 0.4807210247
23750157500.0 -0.8920850583 0.494759305
23800157200.0 -0.883109551 0.5083132873
23850156900.0 -0.8745828924 0.5209982475
23900156600.0 -0.8648360298 0.5331653744
23950156300.0 -0.856488028 0.5456522651
24000156000.0 -0.8468302936 0.5579522931
24050155700.0 -0.8365268461 0.5697338311
24100155400.0 -0.8268581809 0.5815350548
24150155100.0 -0.8157507834 0.5940325295
24200154800.0 -0.8051818918 0.6046588897
24250154500.0 -0.7939581138 0.616158297
24300154200.0 -0.7827457705 0.6283152364
24350153900.0 -0.7708949081 0.6390598566
24400153600.0 -0.758271035 0.6492257778
24450153300.0 -0.7467886069 0.6589897415
24500153000.0 -0.7348698885 0.6686549654
24550152700.0 -0.7237598381 0.6782922928
24600152400.0 -0.7126844568 0.6878245723
24650152100.0 -0.700906511 0.6955034705
