!Created with skrf (http://scikit-rf.org).
# Hz S RI R 50.0 
!freq ReS11 ImS11
300000.0 -0.9971744049 -0.0261669724
50299700.0 -0.9988808416 0.0161266274
100299400.0 -0.9970764134 0.0286457632
150299100.0 -1.001780621 0.0455227838
200298800.0 -0.9985339414 0.0586763723
250298500.0 -0.996310952 0.0722217981
300298200.0 -0.9848500098 0.0877820534
350297900.0 -0.9927052778 0.098447765
400297600.0 -0.9918835325 0.1149942216
450297300.0 -0.9893753602 0.1287135949
500297000.0 -0.9876821027 0.1431693009
550296700.0 -0.9827119826 0.1555709132
600296400.0 -1.015612414 0.1885272233
650296100.0 -0.9802794659 0.1851128602
700295800.0 -0.9774833285 0.1994309923
750295500.0 -0.9745913979 0.2133595461
800295200.0 -0.9712205713 0.2274746734
850294900.0 -0.9675310759 0.2409130128
900294600.0 -0.9639693861 0.2546070786
950294300.0 -0.9603209085 0.2680748219
1000294000.0 -0.9564998606 0.2820098482
1050293700.0 -0.9519818237 0.295929464
1100293400.0 -0.9477909047 0.3104313277
1150293100.0 -0.9439077886 0.3221398854
1200292800.0 -0.9387728808 0.3362477468
1250292500.0 -0.9334593123 0.3497020161
1300292200.0 -0.9277560055 0.3626656265
1350291900.0 -0.9223130088 0.3769742027
1400291600.0 -0.9169605879 0.3899694158
1450291300.0 -0.9118313401 0.4021750738
1500291000.0 -0.9055568909 0.4156611734
1550290700.0 -0.8993454681 0.4287327209
1600290400.0 -0.8931864996 0.4416597066
1650290100.0 -0.8865827456 0.4537907885
1700289800.0 -0.8796760935 0.4672691717
1750289500.0 -0.8728559658 0.4794473383
1800289200.0 -0.8655782743 0.4922636025
1850288900.0 -0.8589284357 0.5032913437
1900288600.0 -0.8513272796 0.516397786
1950288300.0 -0.8432395048 0.5289971537
2000288000.0 -0.8359668496 0.5403768623
2050287700.0 -0.8278755618 0.5524976601
2100287400.0 -0.8201069791 0.5643538585
2150287100.0 -0.8113166669 0.5763606064
2200286800.0 -0.8035470083 0.5869780121
2250286500.0 -0.7949036828 0.5986985717
2300286200.0 -0.7861076368 0.6101635071
2350285900.0 -0.7775609001 0.6210117109
2400285600.0 -0.7681312221 0.6323246232
2450285300.0 -0.7597067636 0.6428819556
2500285000.0 -0.7504420349 0.6538191472
2550284700.0 -0.74112209 0.6640675645
2600284400.0 -0.731441876 0.6743303804
2650284100.0 -0.7226936192 0.6847077824
2700283800.0 -0.7122593036 0.6952569806
2750283500.0 -0.7020802845 0.7054579539
2800283200.0 -0.6923823082 0.7153157238
2850282900.0 -0.6819760715 0.7252068884
2900282600.0 -0.6715594748 0.7348057732
2950282300.0 -0.6614169009 0.7439089305
3000282000.0 -0.6506556195 0.7536545106
3050281700.0 -0.63983457 0.7625292497
3100281400.0 -0.628711674 0.7715754631
3150281100.0 -0.6177548894 0.780672389
3200280800.0 -0.6060455592 0.7893830843
3250280500.0 -0.5949000961 0.797585219
3300280200.0 -0.5835101672 0.8060448434
3350279900.0 -0.5723723612 0.8136413622
3400279600.0 -0.5602587263 0.8215540316
3450279300.0 -0.5490538023 0.8292431678
3500279000.0 -0.5372008679 0.8365109067
3550278700.0 -0.5251197659 0.843967857
3600278400.0 -0.5138023274 0.8508494161
3650278100.0 -0.5006179292 0.8587314225
3700277800.0 -0.4886993136 0.8654854556
3750277500.0 -0.4765237055 0.871903482
3800277200.0 -0.4642027664 0.8785157806
3850276900.0 -0.451617857 0.8848008783
3900276600.0 -0.4403681316 0.890760669
3950276300.0 -0.4274536882 0.897017546
4000276000.0 -0.4153449695 0.9029965911
4050275700.0 -0.4019548807 0.9090933563
4100275400.0 -0.390792387 0.9145089809
4150275100.0 -0.377798908 0.9199182981
4200274800.0 -0.3641433464 0.925753623
4250274500.0 -0.3520677984 0.9306403496
4300274200.0 -0.3390205628 0.9355145934
4350273900.0 -0.3253977317 0.9407111019
4400273600.0 -0.3117682612 0.9452628959
4450273300.0 -0.2974545458 0.9500647903
4500273000.0 -0.2843305785 0.9542519336
4550272700.0 -0.271016844 0.9582791979
4600272400.0 -0.2556510769 0.9622914828
4650272100.0 -0.2434715905 0.9656760399
4700271800.0 -0.2300050089 0.9689638638
4750271500.0 -0.2170772293 0.9720548786
4800271200.0 -0.2039376948 0.9749349048
4850270900.0 -0.1901887024 0.9777824307
4900270600.0 -0.1766227054 0.9801232207
4950270300.0 -0.1632110127 0.9827388955
5000270000.0 -0.1491985531 0.9848351689
5050269700.0 -0.1353506475 0.9864924548
5100269400.0 -0.1215154238 0.9884752908
5150269100.0 -0.1078284631 0.9899715653
5200268800.0 -0.0943834783 0.9916404899
5250268500.0 -0.0810231423 0.9927738844
5300268200.0 -0.0672974295 0.9934505201
5350267900.0 -0.0550836631 0.9939664203
5400267600.0 -0.0390886512 0.9955505283
5450267300.0 -0.0267313877 0.9956486663
5500267000.0 -0.0126552714 0.996109347
5550266700.0 0.0010315185 0.9960580071
5600266400.0 0.0159336642 0.9962609962
5650266100.0 0.0312256986 0.9958682632
5700265800.0 0.0448877132 0.9951289152
5750265500.0 0.0591526189 0.9947812727
5800265200.0 0.0730160919 0.9938319303
5850264900.0 0.0864161403 0.9929385774
5900264600.0 0.1023280838 0.9911929611
5950264300.0 0.1147280282 0.9897283819
6000264000.0 0.1283452542 0.9880339249
6050263700.0 0.1412671583 0.9865718014
6100263400.0 0.1545951997 0.9847455494
6150263100.0 0.1700681009 0.9822536692
6200262800.0 0.1809238706 0.9805190606
6250262500.0 0.1940892384 0.9779390559
6300262200.0 0.2069216632 0.9750466463
6350261900.0 0.2200284501 0.972177354
6400261600.0 0.2343382701 0.9688800095
6450261300.0 0.2461161239 0.9661240066
6500261000.0 0.2592773054 0.9626353845
6550260700.0 0.2723332285 0.9588650475
6600260400.0 0.2852258224 0.9548813704
6650260100.0 0.299084421 0.9507192996
6700259800.0 0.3111559197 0.9467775005
6750259500.0 0.3250441411 0.9421853954
6800259200.0 0.3380990113 0.9373577255
6850258900.0 0.3501945735 0.9324656013
6900258600.0 0.3625803812 0.9275557158
6950258300.0 0.3754779944 0.9225723958
7000258000.0 0.3877750655 0.9175236574
7050257700.0 0.3995272179 0.9120212484
7100257400.0 0.4132595797 0.9055602992
7150257100.0 0.423838388 0.9005570063
7200256800.0 0.4371090876 0.8945493194
7250256500.0 0.448370753 0.8883389791
7300256200.0 0.461034195 0.8819383491
7350255900.0 0.4734590482 0.8754003127
7400255600.0 0.4847757619 0.8694622139
7450255300.0 0.4987277143 0.8613355512
7500255000.0 0.5097840434 0.8544651588
7550254700.0 0.5225655517 0.8470789168
7600254400.0 0.5344305488 0.8393848277
7650254100.0 0.5461620562 0.8323141737
7700253800.0 0.5580064504 0.8245464276
7750253500.0 0.5690880224 0.8167133224
7800253200.0 0.5805338304 0.8084420463
7850252900.0 0.5898679608 0.8015491536
7900252600.0 0.601961164 0.7927607353
7950252300.0 0.6115675307 0.7854111559
8000252000.0 0.6219842677 0.7773764791
8050251700.0 0.6328271551 0.7689501126
8100251400.0 0.642769191 0.7608513846
8150251100.0 0.6532373591 0.7516712676
8200250800.0 0.6631704832 0.7433310736
8250250500.0 0.6725543506 0.7348618784
8300250200.0 0.6826446143 0.7256340088
8350249900.0 0.692002436 0.7167295772
8400249600.0 0.700947551 0.7080873517
8450249300.0 0.7106699165 0.6984278402
8500249000.0 0.7198560039 0.689058058
8550248700.0 0.7292938061 0.6792506669
8600248400.0 0.7382459706 0.6692074675
8650248100.0 0.7461875139 0.6599284319
8700247800.0 0.7553616093 0.6491840742
8750247500.0 0.7640176924 0.6391343704
8800247200.0 0.7723035462 0.6287805318
8850246900.0 0.7809497315 0.6177690582
8900246600.0 0.7892839262 0.6070351919
8950246300.0 0.7979121144 0.5953533317
9000246000.0 0.8062274563 0.5843209621
9050245700.0 0.8143845443 0.5727189363
9100245400.0 0.8227742352 0.5606172454
9150245100.0 0.8309913872 0.548959318
9200244800.0 0.8388747794 0.5369090201
9250244500.0 0.847129724 0.5237268001
9300244200.0 0.854619169 0.5116657195
9350243900.0 0.862263485 0.4987619215
9400243600.0 0.8692150474 0.4863564246
9450243300.0 0.8751899623 0.4752781119
9500243000.0 0.8822347521 0.4622978116
9550242700.0 0.8881021223 0.4512167322
9600242400.0 0.8936038986 0.4402272781
9650242100.0 0.8986226067 0.4302297485
9700241800.0 0.904104881 0.41963387
9750241500.0 0.9094192393 0.4087855537
9800241200.0 0.9145627184 0.3972066126
9850240900.0 0.9197731116 0.3852796241
9900240600.0 0.9245116201 0.3753382714
9950240300.0 0.9298018755 0.3608813617
10000240000.0 0.9349286353 0.34824694
10050239700.0 0.9400557125 0.334788457
10100239400.0 0.94501246 0.3205468629
10150239100.0 0.9491208957 0.3071858928
10200238800.0 0.9537394829 0.2923656334
10250238500.0 0.9576057359 0.2792737946
10300238200.0 0.9612648945 0.2655521068
10350237900.0 0.9644727123 0.252597521
10400237600.0 0.9674476594 0.23934539
10450237300.0 0.9707631681 0.2251665083
10500237000.0 0.973490104 0.2126755777
10550236700.0 0.9759506832 0.199475022
10600236400.0 0.9785988384 0.1858160369
10650236100.0 0.9805908448 0.1707539012
10700235800.0 0.9832248005 0.1578646924
10750235500.0 0.9853434075 0.1446164766
10800235200.0 0.9878092391 0.1308431566
10850234900.0 0.9891549037 0.1171246283
10900234600.0 0.9910920313 0.1027612201
10950234300.0 0.9923416279 0.0894137908
11000234000.0 0.993932241 0.0755347501
11050233700.0 0.995159736 0.0614470095
11100233400.0 0.9965201811 0.0455151719
11150233100.0 0.9973313086 0.0307840422
11200232800.0 0.9977411112 0.0176736674
11250232500.0 0.9983733925 0.0024597186
11300232200.0 0.9988251988 -0.0132686729
11350231900.0 0.998257097 -0.028645496
11400231600.0 0.9981710411 -0.0418862138
11450231300.0 0.9975679548 -0.0565715955
11500231000.0 0.9970976194 -0.0713352144
11550230700.0 0.9960232764 -0.0853059944
11600230400.0 0.9944741268 -0.0996135573
11650230100.0 0.9929660507 -0.111707862
11700229800.0 0.9915322288 -0.1261125733
11750229500.0 0.9895529916 -0.1407842544
11800229200.0 0.9874989256 -0.1541880501
11850228900.0 0.9846792008 -0.1681210686
11900228600.0 0.9819555235 -0.1805806596
11950228300.0 0.9788026085 -0.1933715735
12000228000.0 0.9759056186 -0.2053482251
12050227700.0 0.9730635849 -0.2180257506
12100227400.0 0.9707551184 -0.229136646
12150227100.0 0.9660149731 -0.2470341697
12200226800.0 0.9625514048 -0.2587303035
12250226500.0 0.9587992244 -0.2718171117
12300226200.0 0.9547492357 -0.2841784679
12350225900.0 0.9501101037 -0.2990962966
12400225600.0 0.9455618891 -0.3120279111
12450225300.0 0.9422512067 -0.3238734081
12500225000.0 0.9372101359 -0.3382703814
12550224700.0 0.9317299419 -0.3521011158
12600224400.0 0.9270123426 -0.3645915768
12650224100.0 0.9212269834 -0.3787808295
12700223800.0 0.9160070993 -0.3915295577
12750223500.0 0.9107307751 -0.4043302398
12800223200.0 0.9051894834 -0.4172841411
12850222900.0 0.8995945592 -0.4296946504
12900222600.0 0.8935083726 -0.4418107897
12950222300.0 0.8873589968 -0.4555444856
13000222000.0 0.8813008518 -0.4666632641
13050221700.0 0.8740045894 -0.4802486667
13100221400.0 0.8675344439 -0.4918494553
13150221100.0 0.8605842996 -0.5047401393
13200220800.0 0.8533995122 -0.5161719469
13250220500.0 0.8462686866 -0.5283746873
13300220200.0 0.8388146538 -0.5395901891
13350219900.0 0.8307268649 -0.5522925848
13400219600.0 0.822778326 -0.563710244
13450219300.0 0.8145757425 -0.5759075255
13500219000.0 0.8054508823 -0.5883671859
13550218700.0 0.7961697373 -0.6001887667
13600218400.0 0.787045014 -0.6115651808
13650218100.0 0.7788076925 -0.6220426921
13700217800.0 0.76868935 -0.6344968987
13750217500.0 0.7588184037 -0.6460884123
13800217200.0 0.7485048066 -0.6576809781
13850216900.0 0.7380853886 -0.6698017036
13900216600.0 0.7290467389 -0.6786492351
13950216300.0 0.7186506186 -0.6897403075
14000216000.0 0.7088173592 -0.6993008614
14050215700.0 0.6993734809 -0.7080950989
14100215400.0 0.6884827103 -0.7185330659
14150215100.0 0.6786309263 -0.727863881
14200214800.0 0.6687825918 -0.7372058461
14250214500.0 0.6581938364 -0.7468528677
14300214200.0 0.6472853441 -0.7567138864
14350213900.0 0.6363053848 -0.7660270012
14400213600.0 0.6255163304 -0.7752177563
14450213300.0 0.6135690711 -0.7842836346
14500213000.0 0.6015349245 -0.793974791
14550212700.0 0.5898772809 -0.8027201237
14600212400.0 0.5781897668 -0.8112666892
14650212100.0 0.5661750256 -0.8191442046
14700211800.0 0.5528671062 -0.8285846024
14750211500.0 0.540564658 -0.837445118
14800211200.0 0.5279606999 -0.8451970331
14850210900.0 0.5160441252 -0.852879008
14900210600.0 0.5034543783 -0.8606967686
14950210300.0 0.4902700275 -0.8681633591
15000210000.0 0.4775808784 -0.8755120919
15050209700.0 0.46469878 -0.8821351073
15100209400.0 0.4516236993 -0.8890831178
15150209100.0 0.4393111619 -0.8943741265
15200208800.0 0.4263034787 -0.9009946422
15250208500.0 0.4135986578 -0.9069262247
15300208200.0 0.4000662092 -0.9124733352
15350207900.0 0.3870630053 -0.9171622365
15400207600.0 0.3732211669 -0.9237306149
15450207300.0 0.3593122428 -0.9291041974
15500207000.0 0.3459645977 -0.9333297014
15550206700.0 0.3316382399 -0.9384708864
15600206400.0 0.316829555 -0.9432140749
15650206100.0 0.3025076686 -0.9479651684
15700205800.0 0.2882249629 -0.9516615682
15750205500.0 0.2741471922 -0.9558520106
15800205200.0 0.2601546905 -0.9597234696
15850204900.0 0.2463476485 -0.9632487614
15900204600.0 0.2313194268 -0.9671990599
15950204300.0 0.2173082525 -0.9702874627
16000204000.0 0.2028103143 -0.9735019084
16050203700.0 0.1878935476 -0.9765716809
16100203400.0 0.1742590279 -0.9790211064
16150203100.0 0.1594898344 -0.98126122
16200202800.0 0.1453502465 -0.9839496967
16250202500.0 0.1301748806 -0.985898816
16300202200.0 0.1151626989 -0.9877005551
16350201900.0 0.0998843511 -0.9894872438
16400201600.0 0.0850730062 -0.9905086285
16450201300.0 0.0705895724 -0.9918944953
16500201000.0 0.0546188777 -0.9928640028
16550200700.0 0.0395032605 -0.9938347042
16600200400.0 0.0240985835 -0.9943960651
16650200100.0 0.0084173396 -0.9946535543
16700199800.0 -0.0062608775 -0.9947294279
16750199500.0 -0.0228993784 -0.9946683477
16800199200.0 -0.0383379121 -0.9945330967
16850198900.0 -0.0539665018 -0.9933289364
16900198600.0 -0.0690323411 -0.9921586843
16950198300.0 -0.0834431086 -0.9910215356
17000198000.0 -0.0968301545 -0.9905465911
17050197700.0 -0.1107313193 -0.9882634232
17100197400.0 -0.1258332232 -0.9865363218
17150197100.0 -0.139495045 -0.9847895662
17200196800.0 -0.153117331 -0.9823251769
17250196500.0 -0.166646782 -0.9801754522
17300196200.0 -0.1809426371 -0.9775651122
17350195900.0 -0.1942474184 -0.9750113475
17400195600.0 -0.2075724884 -0.9722426617
17450195300.0 -0.2212198873 -0.9692983857
17500195000.0 -0.2348045249 -0.9661549607
17550194700.0 -0.2489314821 -0.9624744799
17600194400.0 -0.2633591876 -0.9587230797
17650194100.0 -0.2773356803 -0.954642328
17700193800.0 -0.2905816966 -0.9508371352
17750193500.0 -0.3042350638 -0.9465873473
17800193200.0 -0.3178025978 -0.9419136241
17850192900.0 -0.3328176423 -0.937070273
17900192600.0 -0.3466812218 -0.9317546658
17950192300.0 -0.3613935564 -0.9255344491
18000192000.0 -0.3762481723 -0.9194293978
18050191700.0 -0.3901856689 -0.9125066994
18100191400.0 -0.4044888478 -0.9058691142
18150191100.0 -0.4183101307 -0.8991013738
18200190800.0 -0.433297062 -0.891665531
18250190500.0 -0.4487328978 -0.884055005
18300190200.0 -0.4633067222 -0.8763641544
18350189900.0 -0.4783857663 -0.8690424967
18400189600.0 -0.492464649 -0.8616469551
18450189300.0 -0.5056838948 -0.8538053287
18500189000.0 -0.5190122251 -0.8460386426
18550188700.0 -0.5322463692 -0.8383994077
18600188400.0 -0.5447994877 -0.8302599912
18650188100.0 -0.5569714792 -0.8225968472
18700187800.0 -0.568742833 -0.8150973733
18750187500.0 -0.5800014119 -0.8073712715
18800187200.0 -0.5916238974 -0.7993557091
18850186900.0 -0.6027231268 -0.7914308378
18900186600.0 -0.6133969793 -0.7831694603
18950186300.0 -0.6246648513 -0.7746093891
19000186000.0 -0.6343095933 -0.7665591871
19050185700.0 -0.6448189146 -0.7581040689
19100185400.0 -0.6552865591 -0.7495297148
19150185100.0 -0.6656382166 -0.7395653537
19200184800.0 -0.6755955823 -0.7311986227
19250184500.0 -0.6853225521 -0.7219796665
19300184200.0 -0.6961107148 -0.7124671731
19350183900.0 -0.7062969228 -0.7020751171
19400183600.0 -0.7161905641 -0.692227756
19450183300.0 -0.7264536689 -0.6808197039
19500183000.0 -0.7347281232 -0.6715993737
19550182700.0 -0.7444442746 -0.6608672016
19600182400.0 -0.754134731 -0.6498201366
19650182100.0 -0.7636669855 -0.6381145296
19700181800.0 -0.7733619658 -0.6255877116
19750181500.0 -0.7829685404 -0.6134836785
19800181200.0 -0.7925320522 -0.6005527352
19850180900.0 -0.8021901404 -0.5871600525
19900180600.0 -0.8101706688 -0.5746954991
19950180300.0 -0.8199860938 -0.5604425747
20000180000.0 -0.8233718527 -0.5527704422
20050179700.0 -0.8318136271 -0.5402964761
20100179400.0 -0.8406523551 -0.5268598844
20150179100.0 -0.8485403402 -0.5146841989
20200178800.0 -0.856104691 -0.5020888701
20250178500.0 -0.8648148055 -0.4902088701
20300178200.0 -0.8726083414 -0.4761095415
20350177900.0 -0.8799546386 -0.4635999556
20400177600.0 -0.8879255767 -0.4500222583
20450177300.0 -0.8952656005 -0.4367832612
20500177000.0 -0.9022932892 -0.4233364536
20550176700.0 -0.9089222441 -0.4104782043
20600176400.0 -0.9154959756 -0.39691094
20650176100.0 -0.9213899692 -0.3841510428
20700175800.0 -0.9278172974 -0.3712473269
20750175500.0 -0.9334906416 -0.3593768831
20800175200.0 -0.9381480473 -0.3474249154
20850174900.0 -0.9429961863 -0.3354840152
20900174600.0 -0.9474576768 -0.3225811727
20950174300.0 -0.9516958876 -0.3095362235
21000174000.0 -0.9561501172 -0.2979554163
21050173700.0 -0.9580315311 -0.2853365132
21100173400.0 -0.9626854786 -0.2717521614
21150173100.0 -0.965964138 -0.2593604153
21200172800.0 -0.9696406775 -0.2459512574
21250172500.0 -0.9730024873 -0.2323767366
21300172200.0 -0.9764958675 -0.2187981538
21350171900.0 -0.9790742201 -0.2046517769
21400171600.0 -0.9816834706 -0.1893389428
21450171300.0 -0.9829028983 -0.1762612614
21500171000.0 -0.9843077779 -0.1611580119
21550170700.0 -0.9858948466 -0.1461582574
21600170400.0 -0.9878845227 -0.1318430766
21650170100.0 -0.9901307694 -0.1161931818
21700169800.0 -0.9894171834 -0.1009656583
21750169500.0 -0.9903125547 -0.0855937428
21800169200.0 -0.9910180028 -0.0712218156
21850168900.0 -0.9920278283 -0.0551829399
21900168600.0 -0.9914906144 -0.0401952329
21950168300.0 -0.9911509314 -0.0244258705
22000168000.0 -0.9910202464 -0.009328719
22050167700.0 -0.9907822325 0.0054247548
22100167400.0 -0.9903561009 0.020298481
22150167100.0 -0.9907287068 0.0354622752
22200166800.0 -0.990691699 0.0502751106
22250166500.0 -0.9895263936 0.0655859625
22300166200.0 -0.9885024317 0.0813142997
22350165900.0 -0.9873793912 0.095674554
22400165600.0 -0.9866863464 0.1110689538
22450165300.0 -0.9842989868 0.1259967206
22500165000.0 -0.9828800122 0.1390145791
22550164700.0 -0.981808008 0.1535135638
22600164400.0 -0.9791440797 0.1686753777
22650164100.0 -0.9769665595 0.1819031069
22700163800.0 -0.9740616306 0.195428933
22750163500.0 -0.9721241711 0.2097837904
22800163200.0 -0.9691116125 0.2235918235
22850162900.0 -0.9657161829 0.2365582439
22900162600.0 -0.9634522487 0.2498996073
22950162300.0 -0.9608476825 0.2630927956
23000162000.0 -0.9585480527 0.2757685384
23050161700.0 -0.9546374295 0.2884584721
23100161400.0 -0.9516867255 0.3018340014
23150161100.0 -0.9493256181 0.3144399178
23200160800.0 -0.9454023699 0.3275026559
23250160500.0 -0.9408794624 0.3396540849
23300160200.0 -0.9378865463 0.3533570214
23350159900.0 -0.9334757785 0.3660341885
23400159600.0 -0.9290742207 0.3781846949
23450159300.0 -0.9249049001 0.3920838545
23500159000.0 -0.9198914508 0.4039912314
23550158700.0 -0.9150577262 0.4169782059
23600158400.0 -0.9095642543 0.4291707175
23650158100.0 -0.9037608914 0.4419380372
23700157800.0 -0.8970966333 0.4549850867
23750157500.0 -0.8899334509 0.4682938195
23800157200.0 -0.8825270829 0.4811652515
23850156900.0 -0.8755191551 0.4937119762
23900156600.0 -0.8668255085 0.5052944567
23950156300.0 -0.859190457 0.5177616777
24000156000.0 -0.8512259054 0.5295488641
24050155700.0 -0.8431807659 0.5420943414
24100155400.0 -0.8354325249 0.5532331543
24150155100.0 -0.8258947601 0.5646973971
24200154800.0 -0.8169564159 0.5768404297
24250154500.0 -0.807594648 0.588382397
24300154200.0 -0.7985654474 0.5997768426
24350153900.0 -0.7892391222 0.6105158365
24400153600.0 -0.7782239916 0.6216080093
24450153300.0 -0.7681496388 0.6327845933
24500153000.0 -0.7584778343 0.6429188836
24550152700.0 -0.7485031679 0.6537784158
24600152400.0 -0.738376455 0.6633134364
