!Created with skrf (http://scikit-rf.org).
# Hz S RI R 50.0 
!freq ReS11 ImS11
300000.0 -0.973692836 -0.1215157675
50299700.0 -0.9998507335 0.0152378482
100299400.0 -0.9979953999 0.0281038155
150299100.0 -1.002747618 0.0449206555
200298800.0 -0.9995280441 0.0582588711
250298500.0 -0.997419915 0.0719158453
300298200.0 -0.9858828859 0.0878313382
350297900.0 -0.9939770547 0.0984715124
400297600.0 -0.9931429344 0.1152623119
450297300.0 -0.9910352495 0.1288885201
500297000.0 -0.9896256014 0.1436931049
550296700.0 -0.9844077134 0.1561837491
600296400.0 -1.017324469 0.1893324851
650296100.0 -0.982067764 0.1859895773
700295800.0 -0.9794356078 0.2002558156
750295500.0 -0.9764457723 0.2141693178
800295200.0 -0.973074515 0.2282815562
850294900.0 -0.9696269522 0.2421117853
900294600.0 -0.9658627876 0.2561224054
950294300.0 -0.9621697149 0.2696748351
1000294000.0 -0.9581986951 0.283713236
1050293700.0 -0.953709202 0.2974361377
1100293400.0 -0.949365166 0.3120051124
1150293100.0 -0.9455790088 0.3235820352
1200292800.0 -0.940247743 0.3380706231
1250292500.0 -0.9348963493 0.3514176326
1300292200.0 -0.9290339654 0.3646111956
1350291900.0 -0.9234863541 0.3787637758
1400291600.0 -0.918078152 0.3918555088
1450291300.0 -0.9125190603 0.404188339
1500291000.0 -0.9062935948 0.4175100362
1550290700.0 -0.8996122787 0.4309628535
1600290400.0 -0.8933309681 0.4438341591
1650290100.0 -0.8868872495 0.4559091289
1700289800.0 -0.8799970644 0.4693483796
1750289500.0 -0.8727666346 0.4817108035
1800289200.0 -0.8655984119 0.4945325759
1850288900.0 -0.8587042784 0.5059040854
1900288600.0 -0.8510785117 0.5189822836
1950288300.0 -0.8428427098 0.5312878973
2000288000.0 -0.8354395989 0.5428341472
2050287700.0 -0.8272250233 0.5552892519
2100287400.0 -0.8193877074 0.5667537588
2150287100.0 -0.8105815067 0.5789145263
2200286800.0 -0.8029693225 0.5893270579
2250286500.0 -0.794314259 0.6012129562
2300286200.0 -0.7851525851 0.6127615454
2350285900.0 -0.776667113 0.6238986194
2400285600.0 -0.7677860647 0.6349628405
2450285300.0 -0.7590927262 0.6453016074
2500285000.0 -0.7493268809 0.656515925
2550284700.0 -0.7404003113 0.6667912963
2600284400.0 -0.7311988153 0.676959583
2650284100.0 -0.7221721505 0.6875706664
2700283800.0 -0.7116238388 0.6979418539
2750283500.0 -0.7012031789 0.7086179993
2800283200.0 -0.691495466 0.718368548
2850282900.0 -0.6812569118 0.7283108816
2900282600.0 -0.6706886463 0.7378978026
2950282300.0 -0.6609014682 0.7471549442
3000282000.0 -0.6500008178 0.7564319548
3050281700.0 -0.6386251349 0.7657855723
3100281400.0 -0.6267292648 0.7751119891
3150281100.0 -0.6150479604 0.784429763
3200280800.0 -0.6035599744 0.793033383
3250280500.0 -0.5927757466 0.80089383
3300280200.0 -0.5811891329 0.8087427479
3350279900.0 -0.5697257184 0.8163141908
3400279600.0 -0.5574143705 0.8241140171
3450279300.0 -0.5463919467 0.8310929034
3500279000.0 -0.5343729129 0.8382155869
3550278700.0 -0.521838251 0.8456693265
3600278400.0 -0.5099981247 0.8527015108
3650278100.0 -0.4966130399 0.8601470623
3700277800.0 -0.4843770386 0.8666583254
3750277500.0 -0.4724187487 0.8732261896
3800277200.0 -0.459851813 0.8796668946
3850276900.0 -0.4477302501 0.8855430947
3900276600.0 -0.4371534923 0.8912331518
3950276300.0 -0.4248032051 0.8975361175
4000276000.0 -0.4125859911 0.9034346019
4050275700.0 -0.3998721742 0.909536753
4100275400.0 -0.3885352314 0.9149526336
4150275100.0 -0.3758367086 0.9203344559
4200274800.0 -0.3627843516 0.9261223723
4250274500.0 -0.3506572058 0.9314585983
4300274200.0 -0.3376461531 0.9366836852
4350273900.0 -0.3238659401 0.9417554818
4400273600.0 -0.3089528695 0.9471207579
4450273300.0 -0.2937270757 0.9521835241
4500273000.0 -0.280132658 0.9565507065
4550272700.0 -0.2661670222 0.9607197923
4600272400.0 -0.2507656489 0.9650706935
4650272100.0 -0.2390941114 0.9681775744
4700271800.0 -0.2257716317 0.9714652656
4750271500.0 -0.2140143939 0.97448721
4800271200.0 -0.2015315311 0.9769565668
4850270900.0 -0.1876088836 0.9799263221
4900270600.0 -0.1737745976 0.9823528475
4950270300.0 -0.1593718594 0.9848880821
5000270000.0 -0.1451449375 0.98673938
5050269700.0 -0.1317124297 0.9886525394
5100269400.0 -0.1177539358 0.9903811455
5150269100.0 -0.1044681932 0.9918969972
5200268800.0 -0.0909989538 0.9928110826
5250268500.0 -0.0780556339 0.9939211155
5300268200.0 -0.0648154133 0.994626665
5350267900.0 -0.0524033292 0.9953050205
5400267600.0 -0.0364093539 0.9960318426
5450267300.0 -0.0232745954 0.9967446462
5500267000.0 -0.0080644958 0.9970379293
5550266700.0 0.0070412858 0.9972350069
5600266400.0 0.0224292171 0.9971923339
5650266100.0 0.0390815943 0.9970700607
5700265800.0 0.0534949261 0.9959849463
5750265500.0 0.0683653664 0.9951930774
5800265200.0 0.0823342518 0.9945981061
5850264900.0 0.0956958988 0.993575067
5900264600.0 0.1119857948 0.9914512349
5950264300.0 0.1241927831 0.9903679501
6000264000.0 0.138158164 0.98861624
6050263700.0 0.1502918191 0.9867496676
6100263400.0 0.1628356808 0.9851239704
6150263100.0 0.1770756201 0.9827598256
6200262800.0 0.187566081 0.9809766568
6250262500.0 0.2003247247 0.9785726577
6300262200.0 0.2129346017 0.9758085288
6350261900.0 0.2259506285 0.9729259613
6400261600.0 0.2397835824 0.9696035929
6450261300.0 0.2510880765 0.9668757575
6500261000.0 0.2640179764 0.9634006631
6550260700.0 0.2770243527 0.9595366782
6600260400.0 0.2901995346 0.9552584454
6650260100.0 0.3043121201 0.9511805403
6700259800.0 0.3166480301 0.9468675424
6750259500.0 0.3300939112 0.9416987064
6800259200.0 0.3433468737 0.9368773444
6850258900.0 0.3554257463 0.9317031865
6900258600.0 0.3678338929 0.9266694662
6950258300.0 0.3802730554 0.9212911342
7000258000.0 0.3924560152 0.9160056068
7050257700.0 0.404431801 0.9100276622
7100257400.0 0.4172266427 0.9037499889
7150257100.0 0.4275616454 0.8983189447
7200256800.0 0.4407076585 0.8919569249
7250256500.0 0.4528724805 0.8854468907
7300256200.0 0.4656562584 0.8787244252
7350255900.0 0.4783523879 0.8721684653
7400255600.0 0.4915279022 0.8648119174
7450255300.0 0.5067685173 0.8555589567
7500255000.0 0.5184155691 0.8485174453
7550254700.0 0.5322999244 0.8399011016
7600254400.0 0.5448947873 0.8316657472
7650254100.0 0.5567058889 0.8239906166
7700253800.0 0.5686600204 0.8159604001
7750253500.0 0.5796733518 0.8081651468
7800253200.0 0.5902398716 0.8005189446
7850252900.0 0.6000831751 0.7936467605
7900252600.0 0.611795121 0.7847127395
7950252300.0 0.6204718863 0.7783565763
8000252000.0 0.6304479963 0.7707418652
8050251700.0 0.6411142942 0.7624621366
8100251400.0 0.6511675858 0.7542303128
8150251100.0 0.6610451549 0.7456958641
8200250800.0 0.6705383888 0.7376296195
8250250500.0 0.6797397106 0.729656744
8300250200.0 0.6886797745 0.7210507157
8350249900.0 0.6975617724 0.7126903515
8400249600.0 0.7062586165 0.7044633097
8450249300.0 0.7149852163 0.6953825776
8500249000.0 0.7237405837 0.6863265617
8550248700.0 0.7322125144 0.6773502811
8600248400.0 0.7405276634 0.6677838172
8650248100.0 0.7483678523 0.658358925
8700247800.0 0.7578926831 0.6473107569
8750247500.0 0.7661499717 0.6371989189
8800247200.0 0.7743060342 0.6269003829
8850246900.0 0.7830704775 0.6152849487
8900246600.0 0.7918782178 0.603846799
8950246300.0 0.8011636135 0.5908588528
9000246000.0 0.8101713421 0.5785615894
9050245700.0 0.8190839616 0.5657598609
9100245400.0 0.8277603917 0.5530227808
9150245100.0 0.8370555472 0.539737701
9200244800.0 0.8468646588 0.5243818951
9250244500.0 0.8559835746 0.5091434791
9300244200.0 0.8645560176 0.4946507311
9350243900.0 0.8722202061 0.4809443727
9400243600.0 0.8788527011 0.4689248716
9450243300.0 0.8848934239 0.4571610155
9500243000.0 0.8909486081 0.4451868212
9550242700.0 0.8948929614 0.4375242258
9600242400.0 0.8988866958 0.4301321299
9650242100.0 0.9024082758 0.4239118463
9700241800.0 0.9071501078 0.4153829096
9750241500.0 0.9109387964 0.4080125437
9800241200.0 0.9158155303 0.398582942
9850240900.0 0.9217756865 0.3867136767
9900240600.0 0.9273633194 0.3754022317
9950240300.0 0.9339599753 0.3591736019
10000240000.0 0.9381971492 0.3478219686
10050239700.0 0.9444110442 0.3322885527
10100239400.0 0.9495141339 0.3165385336
10150239100.0 0.9540210154 0.3014913541
10200238800.0 0.9579454024 0.2865245798
10250238500.0 0.9614333795 0.2732320748
10300238200.0 0.9645677003 0.2592166457
10350237900.0 0.9671839438 0.2460764293
10400237600.0 0.9698173438 0.2327729232
10450237300.0 0.9725894631 0.2190308765
10500237000.0 0.9746968594 0.2071117573
10550236700.0 0.9767257094 0.1933043955
10600236400.0 0.9793584166 0.1789767569
10650236100.0 0.9812066143 0.1649771575
10700235800.0 0.9835141859 0.1520508681
10750235500.0 0.985623518 0.1385830089
10800235200.0 0.9878066071 0.1244978833
10850234900.0 0.9896372335 0.1101225436
10900234600.0 0.9916210563 0.0954928375
10950234300.0 0.9933317086 0.0822639454
11000234000.0 0.9952657042 0.0669623409
11050233700.0 0.9970513183 0.0505113395
11100233400.0 0.9983813485 0.0329406194
11150233100.0 0.9998868658 0.0167269674
11200232800.0 0.9998400566 0.0020083528
11250232500.0 1.001538193 -0.0149061542
11300232200.0 1.001584475 -0.0332421123
11350231900.0 1.001804651 -0.0485048695
11400231600.0 1.00231034 -0.0644958077
11450231300.0 1.001419767 -0.0798583848
11500231000.0 1.000260747 -0.0964817252
11550230700.0 0.99868127 -0.1089456351
11600230400.0 0.9968535646 -0.1217124705
11650230100.0 0.9955815915 -0.1340112788
11700229800.0 0.9931647158 -0.1475470664
11750229500.0 0.9909833566 -0.1620227053
11800229200.0 0.9884013451 -0.1759398572
11850228900.0 0.9847763552 -0.1881417109
11900228600.0 0.9813767554 -0.1979041453
11950228300.0 0.9775969691 -0.2085598725
12000228000.0 0.9751115096 -0.2170166515
12050227700.0 0.9714906374 -0.2301556001
12100227400.0 0.9681948241 -0.2412416032
12150227100.0 0.9640240436 -0.2572025534
12200226800.0 0.9593100635 -0.269032848
12250226500.0 0.9551786459 -0.2827233729
12300226200.0 0.9513429858 -0.2938599291
12350225900.0 0.9464459577 -0.3076407804
12400225600.0 0.9422580257 -0.3203957746
12450225300.0 0.937680368 -0.3336316026
12500225000.0 0.9322711569 -0.3481161034
12550224700.0 0.9269518699 -0.3618280789
12600224400.0 0.9220403241 -0.375112717
12650224100.0 0.9161395963 -0.389484282
12700223800.0 0.9108846691 -0.4023793662
12750223500.0 0.9056521195 -0.415263575
12800223200.0 0.8998241615 -0.4281092277
12850222900.0 0.89458355 -0.4402673471
12900222600.0 0.8888912541 -0.4522693223
12950222300.0 0.8827411518 -0.465102801
13000222000.0 0.8768412608 -0.476400337
13050221700.0 0.869797487 -0.4898988982
13100221400.0 0.8637425906 -0.5009479507
13150221100.0 0.8570333754 -0.5132774179
13200220800.0 0.8497742217 -0.5247583656
13250220500.0 0.8424210925 -0.5370383686
13300220200.0 0.8351634166 -0.5477495458
13350219900.0 0.8271948647 -0.5597748883
13400219600.0 0.8189415666 -0.5715677902
13450219300.0 0.8094296846 -0.5850052883
13500219000.0 0.799379458 -0.5986196406
13550218700.0 0.7889201832 -0.6113790034
13600218400.0 0.7791073045 -0.6239248556
13650218100.0 0.7694593478 -0.6344058621
13700217800.0 0.7591961482 -0.6469548913
13750217500.0 0.7497926669 -0.6578219178
13800217200.0 0.7371421146 -0.6694728947
13850216900.0 0.7269854772 -0.6812236272
13900216600.0 0.716170088 -0.6903416944
13950216300.0 0.7057166376 -0.700730793
14000216000.0 0.6963915214 -0.7099803361
14050215700.0 0.6868225162 -0.71816481
14100215400.0 0.6763461314 -0.7274287253
14150215100.0 0.667485646 -0.7356941783
14200214800.0 0.6579911113 -0.7443271008
14250214500.0 0.6477406263 -0.7538976966
14300214200.0 0.6371505931 -0.7631353449
14350213900.0 0.6261144047 -0.7730586609
14400213600.0 0.6142517614 -0.7826365115
14450213300.0 0.6012066895 -0.7929535129
14500213000.0 0.587790852 -0.8027474875
14550212700.0 0.5756666505 -0.8128748259
14600212400.0 0.563594128 -0.8211348938
14650212100.0 0.5505474418 -0.8297134425
14700211800.0 0.5361753033 -0.8395755733
14750211500.0 0.5238834455 -0.847563403
14800211200.0 0.5121152718 -0.8556517622
14850210900.0 0.5000402625 -0.8632847273
14900210600.0 0.4866785102 -0.8710862235
14950210300.0 0.4734050113 -0.8786945346
15000210000.0 0.4605768062 -0.8856861894
15050209700.0 0.4485245651 -0.8915494532
15100209400.0 0.4354844501 -0.8978202986
15150209100.0 0.4237025294 -0.9031571695
15200208800.0 0.4106444286 -0.9084019101
15250208500.0 0.3991733613 -0.9134152651
15300208200.0 0.3872696755 -0.9169926022
15350207900.0 0.3744249857 -0.922453896
15400207600.0 0.3599212864 -0.9271870337
15450207300.0 0.345214103 -0.9322700112
15500207000.0 0.3300741991 -0.9369663446
15550206700.0 0.31544186 -0.9421371964
15600206400.0 0.299632419 -0.9466949604
15650206100.0 0.2837380388 -0.9508604282
15700205800.0 0.2698535728 -0.9546778795
15750205500.0 0.255162982 -0.9585023408
15800205200.0 0.2410561875 -0.9617874944
15850204900.0 0.2265361264 -0.9651502331
15900204600.0 0.2116500887 -0.9688342247
15950204300.0 0.1971278934 -0.9719603059
16000204000.0 0.1827570435 -0.9751716087
16050203700.0 0.1677428171 -0.9776774243
16100203400.0 0.1538351914 -0.9796869451
16150203100.0 0.1390540175 -0.9824500332
16200202800.0 0.1249438211 -0.9840564697
16250202500.0 0.1104268498 -0.9859578361
16300202200.0 0.0943036349 -0.9876395309
16350201900.0 0.0795946612 -0.9889339076
16400201600.0 0.0648963027 -0.9903242215
16450201300.0 0.0498193728 -0.9912868053
16500201000.0 0.0329795001 -0.9922552598
16550200700.0 0.0173487597 -0.9926096176
16600200400.0 0.0017161444 -0.9929471664
16650200100.0 -0.0143928953 -0.9930667173
16700199800.0 -0.0305494598 -0.9924106707
16750199500.0 -0.0493424123 -0.992114351
16800199200.0 -0.0652143889 -0.9910902528
16850198900.0 -0.0802043423 -0.9895335454
16900198600.0 -0.0949049031 -0.9882874563
16950198300.0 -0.1079537079 -0.9880650829
17000198000.0 -0.1208257308 -0.9860708858
17050197700.0 -0.1333678822 -0.9837035251
17100197400.0 -0.1457929997 -0.9823889063
17150197100.0 -0.1584427198 -0.9798376817
17200196800.0 -0.1713438426 -0.9784798369
17250196500.0 -0.1841217168 -0.9761234513
17300196200.0 -0.1964638722 -0.9735369041
17350195900.0 -0.2083936629 -0.9712233921
17400195600.0 -0.2206148663 -0.9687882255
17450195300.0 -0.2337728322 -0.9658264683
17500195000.0 -0.2470947446 -0.9625579229
17550194700.0 -0.2610058621 -0.9589982308
17600194400.0 -0.2753303383 -0.9550080059
17650194100.0 -0.2886059109 -0.9509533854
17700193800.0 -0.3017175933 -0.9465493578
17750193500.0 -0.315973223 -0.941991695
17800193200.0 -0.3303061198 -0.9370252727
17850192900.0 -0.3458696018 -0.9317336446
17900192600.0 -0.3607847897 -0.9254233916
17950192300.0 -0.3767117106 -0.9188079586
18000192000.0 -0.3913077567 -0.9110274976
18050191700.0 -0.405211307 -0.9035026804
18100191400.0 -0.419486957 -0.8958550739
18150191100.0 -0.4343890653 -0.8878905008
18200190800.0 -0.4514031581 -0.8787969757
18250190500.0 -0.4684292927 -0.8693562442
18300190200.0 -0.4836501706 -0.8603707567
18350189900.0 -0.4985355744 -0.8521704669
18400189600.0 -0.5134810561 -0.844131854
18450189300.0 -0.5261528406 -0.8359598657
18500189000.0 -0.5396735396 -0.8281280684
18550188700.0 -0.5523279228 -0.8205938268
18600188400.0 -0.5638975337 -0.8137701335
18650188100.0 -0.5749423595 -0.8071937878
18700187800.0 -0.5859889867 -0.8007826453
18750187500.0 -0.5964175671 -0.7943449984
18800187200.0 -0.6069313006 -0.7873790948
18850186900.0 -0.6171318596 -0.7804449934
18900186600.0 -0.6272771228 -0.7731421545
18950186300.0 -0.6373650802 -0.7652108677
19000186000.0 -0.6444505134 -0.7592326087
19050185700.0 -0.6537372815 -0.7520473836
19100185400.0 -0.6639456586 -0.7434328946
19150185100.0 -0.6737902919 -0.7353603073
19200184800.0 -0.6833150068 -0.7273770935
19250184500.0 -0.6943696923 -0.7184753888
19300184200.0 -0.7044939621 -0.7083587741
19350183900.0 -0.7160359406 -0.6983336243
19400183600.0 -0.7255579976 -0.6890719996
19450183300.0 -0.7346373445 -0.6786763927
19500183000.0 -0.7426557231 -0.6684566979
19550182700.0 -0.7520089804 -0.6573982829
19600182400.0 -0.7628898348 -0.645981323
19650182100.0 -0.7736482434 -0.6336722452
19700181800.0 -0.7842608815 -0.620160004
19750181500.0 -0.7948837427 -0.6063928161
19800181200.0 -0.8053493559 -0.5911164135
19850180900.0 -0.8152779338 -0.575864099
19900180600.0 -0.8231083677 -0.5612111699
19950180300.0 -0.8323308958 -0.5450733603
20000180000.0 -0.8255174387 -0.547241696
20050179700.0 -0.8334934509 -0.5342426009
20100179400.0 -0.8414510616 -0.5199679808
20150179100.0 -0.8499040573 -0.5080745873
20200178800.0 -0.859069856 -0.4949289292
20250178500.0 -0.8683333834 -0.4822373319
20300178200.0 -0.8776414585 -0.4680502855
20350177900.0 -0.8869902312 -0.4532119656
20400177600.0 -0.8958569363 -0.4389001578
20450177300.0 -0.9043770387 -0.4247372734
20500177000.0 -0.9123912091 -0.4108053679
20550176700.0 -0.9203600231 -0.3968457448
20600176400.0 -0.9271125241 -0.383942282
20650176100.0 -0.9337722731 -0.3720968919
20700175800.0 -0.9405423108 -0.3595120678
20750175500.0 -0.9467900557 -0.3484563122
20800175200.0 -0.9519490764 -0.337584031
20850174900.0 -0.95643728 -0.3267634035
20900174600.0 -0.9604292593 -0.3153700336
20950174300.0 -0.9662854003 -0.3035116785
21000174000.0 -0.9682173746 -0.2926674171
21050173700.0 -0.970852303 -0.2823846941
21100173400.0 -0.9753259454 -0.2695630942
21150173100.0 -0.9784793519 -0.2576531297
21200172800.0 -0.9824597417 -0.2444376279
21250172500.0 -0.9856012704 -0.2309245338
21300172200.0 -0.9884271642 -0.2166239573
21350171900.0 -0.9901649504 -0.2018792261
21400171600.0 -0.9920645461 -0.188310204
21450171300.0 -0.9921432298 -0.1740327578
21500171000.0 -0.9925444405 -0.1581985025
21550170700.0 -0.991830669 -0.1436222657
21600170400.0 -0.9918146187 -0.1273010144
21650170100.0 -0.992701282 -0.1121672789
21700169800.0 -0.9903697336 -0.0967507386
21750169500.0 -0.9893355754 -0.0809125741
21800169200.0 -0.9890776295 -0.0639774719
21850168900.0 -0.9879126966 -0.0466672961
21900168600.0 -0.9870127206 -0.0309959121
21950168300.0 -0.9856545994 -0.0148610507
22000168000.0 -0.9842759838 -0.0001173589
22050167700.0 -0.9847050832 0.0143237784
22100167400.0 -0.9848905506 0.0295994465
22150167100.0 -0.9855002675 0.0455343164
22200166800.0 -0.9861297425 0.0615759028
22250166500.0 -0.9850663675 0.0790362707
22300166200.0 -0.9847388509 0.0951134079
22350165900.0 -0.9829239764 0.1117222663
22400165600.0 -0.9821984874 0.1273387628
22450165300.0 -0.9796384376 0.1438602894
22500165000.0 -0.9773166481 0.1560108055
22550164700.0 -0.976664759 0.1723908187
22600164400.0 -0.9755022689 0.1868692541
22650164100.0 -0.9731518291 0.2036062945
22700163800.0 -0.9699363 0.2188363617
22750163500.0 -0.9675616794 0.2337415373
22800163200.0 -0.9646118478 0.2466138659
22850162900.0 -0.961920104 0.2603673735
22900162600.0 -0.9606963712 0.2737211525
22950162300.0 -0.9596736425 0.2865162255
23000162000.0 -0.9584968035 0.2982162157
23050161700.0 -0.9563043058 0.3110655559
23100161400.0 -0.9543115935 0.3236950041
23150161100.0 -0.9501610575 0.3367380905
23200160800.0 -0.9477360653 0.3487083869
23250160500.0 -0.9458572748 0.3608841588
23300160200.0 -0.9429178871 0.3731538728
23350159900.0 -0.9389705856 0.3862223749
23400159600.0 -0.9345636145 0.3986060379
23450159300.0 -0.9298920396 0.4126395633
23500159000.0 -0.924692946 0.4255250614
23550158700.0 -0.9202179079 0.4394499196
23600158400.0 -0.9147694133 0.4530319111
23650158100.0 -0.9085909473 0.4667302662
23700157800.0 -0.900491945 0.4807823458
23750157500.0 -0.8918829474 0.4947130102
23800157200.0 -0.8828115505 0.5077936181
23850156900.0 -0.8747279371 0.5209251154
23900156600.0 -0.8648921125 0.5340286758
23950156300.0 -0.8557604074 0.546855614
24000156000.0 -0.8469621267 0.558137444
24050155700.0 -0.8363226725 0.569890702
24100155400.0 -0.8264000069 0.5823718181
24150155100.0 -0.8154893362 0.5944389932
24200154800.0 -0.8045677198 0.6051957225
24250154500.0 -0.793482093 0.6170876462
24300154200.0 -0.7820984181 0.6283726385
24350153900.0 -0.7706543481 0.6390690312
24400153600.0 -0.7581373453 0.6495584367
24450153300.0 -0.7464168754 0.6595661826
24500153000.0 -0.7351596835 0.6690764184
24550152700.0 -0.7240099823 0.6789675583
24600152400.0 -0.7122188798 0.6884368664
24650152100.0 -0.7002892744 0.696879674
