!Created with skrf (http://scikit-rf.org).
# Hz S RI R 50.0 
!freq ReS11 ImS11
300000.0 -0.9754337866 -0.1190111912
50299700.0 -0.9999211212 0.0151165268
100299400.0 -0.9978343151 0.0279854485
150299100.0 -1.00271205 0.0449175224
200298800.0 -0.9996100311 0.0581124758
250298500.0 -0.9973550822 0.0718085815
300298200.0 -0.9858255909 0.0874229764
350297900.0 -0.9939123111 0.0983394823
400297600.0 -0.9931729933 0.1148623918
450297300.0 -0.9911443074 0.128930372
500297000.0 -0.9893978465 0.1436388445
550296700.0 -0.9844861858 0.1559802714
600296400.0 -1.0172128 0.1890363085
650296100.0 -0.9822224132 0.1858060255
700295800.0 -0.9793024839 0.2000440101
750295500.0 -0.976185051 0.214001919
800295200.0 -0.9728841111 0.2281446052
850294900.0 -0.9695315513 0.2419293642
900294600.0 -0.9657921145 0.255786848
950294300.0 -0.9619462858 0.2694095448
1000294000.0 -0.9580197049 0.2834171682
1050293700.0 -0.9537587259 0.2970962907
1100293400.0 -0.9492784009 0.3117259632
1150293100.0 -0.9453054191 0.3236552754
1200292800.0 -0.9400221785 0.337714153
1250292500.0 -0.9344749113 0.3511626041
1300292200.0 -0.9290567706 0.3644408273
1350291900.0 -0.9234405027 0.3784020352
1400291600.0 -0.9179802443 0.3916430355
1450291300.0 -0.9126031173 0.4040204973
1500291000.0 -0.9064247644 0.4175245273
1550290700.0 -0.8996845063 0.4305137012
1600290400.0 -0.8933567782 0.4437003731
1650290100.0 -0.8867626724 0.4558530406
1700289800.0 -0.8797647915 0.4693119144
1750289500.0 -0.873076671 0.4815755851
1800289200.0 -0.8654599152 0.4946392727
1850288900.0 -0.8587208812 0.5059092063
1900288600.0 -0.8510371435 0.518880084
1950288300.0 -0.8429437557 0.5314624482
2000288000.0 -0.835310868 0.5426618276
2050287700.0 -0.8270586011 0.5552026674
2100287400.0 -0.8193119324 0.5665536385
2150287100.0 -0.8108664311 0.5787645488
2200286800.0 -0.8028610456 0.5892899743
2250286500.0 -0.794084852 0.6015617729
2300286200.0 -0.7853039004 0.6127879346
2350285900.0 -0.7767932729 0.623677502
2400285600.0 -0.7677555581 0.6346049073
2450285300.0 -0.7590576869 0.6452062814
2500285000.0 -0.7490816239 0.656583687
2550284700.0 -0.7402950643 0.6669951845
2600284400.0 -0.7308438405 0.6767106049
2650284100.0 -0.7221957222 0.6869078732
2700283800.0 -0.7119216847 0.6977742314
2750283500.0 -0.701496148 0.7083371794
2800283200.0 -0.6914831421 0.7180238679
2850282900.0 -0.6811731117 0.7281770458
2900282600.0 -0.6707008224 0.7378319469
2950282300.0 -0.6604808389 0.7471925645
3000282000.0 -0.6495500212 0.7565187331
3050281700.0 -0.6384669021 0.7658370041
3100281400.0 -0.626766132 0.7749732064
3150281100.0 -0.6155087642 0.7839618595
3200280800.0 -0.6039818046 0.7924049397
3250280500.0 -0.5928476451 0.8004055117
3300280200.0 -0.581350291 0.8084110903
3350279900.0 -0.5693607728 0.8163968377
3400279600.0 -0.5568927777 0.824258849
3450279300.0 -0.5456901572 0.8313830688
3500279000.0 -0.5339953412 0.8384273654
3550278700.0 -0.5217975624 0.845476983
3600278400.0 -0.5099087324 0.8521817117
3650278100.0 -0.4968038277 0.8603063187
3700277800.0 -0.4846167575 0.8664393812
3750277500.0 -0.4721837357 0.8732156336
3800277200.0 -0.4596635379 0.8796657363
3850276900.0 -0.4480419544 0.8855799541
3900276600.0 -0.4369958927 0.8912459186
3950276300.0 -0.4247333532 0.8972667449
4000276000.0 -0.4129253643 0.9032279443
4050275700.0 -0.4001822749 0.9090163908
4100275400.0 -0.3891551867 0.9148361991
4150275100.0 -0.3762182372 0.9203972778
4200274800.0 -0.3628637035 0.9262395223
4250274500.0 -0.3502240953 0.9314321482
4300274200.0 -0.3368635571 0.9367434644
4350273900.0 -0.3230220817 0.9420617204
4400273600.0 -0.308274969 0.9470313444
4450273300.0 -0.292970797 0.9522767376
4500273000.0 -0.279726431 0.956313548
4550272700.0 -0.2662432994 0.9605441206
4600272400.0 -0.2509946724 0.9647466037
4650272100.0 -0.2395400954 0.9679364988
4700271800.0 -0.2265721661 0.9713104655
4750271500.0 -0.2147870066 0.9739832294
4800271200.0 -0.2026564425 0.9767010774
4850270900.0 -0.1889036182 0.9796937835
4900270600.0 -0.1749259411 0.9821084405
4950270300.0 -0.1603736162 0.9846943204
5000270000.0 -0.1459061158 0.986778753
5050269700.0 -0.132544264 0.9883711791
5100269400.0 -0.1185243691 0.9901099554
5150269100.0 -0.104584841 0.9915684799
5200268800.0 -0.0913775418 0.9929954973
5250268500.0 -0.0783111008 0.9940573967
5300268200.0 -0.0647765752 0.99436953
5350267900.0 -0.0519433839 0.9952776088
5400267600.0 -0.0357613985 0.9963270062
5450267300.0 -0.0226106432 0.9964107363
5500267000.0 -0.0073772583 0.9969306947
5550266700.0 0.0075282236 0.9972135061
5600266400.0 0.023410375 0.9971516547
5650266100.0 0.0399402647 0.9970086718
5700265800.0 0.0543560832 0.9959136099
5750265500.0 0.0691718365 0.995545933
5800265200.0 0.0825328388 0.9940380694
5850264900.0 0.0962431057 0.9933110008
5900264600.0 0.1126647535 0.9916061458
5950264300.0 0.1244510648 0.9898336751
6000264000.0 0.1378135804 0.9878889654
6050263700.0 0.1496291102 0.9864425107
6100263400.0 0.1622082472 0.9850701454
6150263100.0 0.176821321 0.9828220891
6200262800.0 0.1863788705 0.9810629798
6250262500.0 0.1991453728 0.9785765211
6300262200.0 0.211205414 0.9761297351
6350261900.0 0.2242736035 0.9732534712
6400261600.0 0.2383310182 0.9700335351
6450261300.0 0.2493241681 0.9674358041
6500261000.0 0.2628796521 0.9639383934
6550260700.0 0.2756950282 0.9598269517
6600260400.0 0.2894382224 0.9560958993
6650260100.0 0.3031558145 0.9515904911
6700259800.0 0.3153370991 0.9472576286
6750259500.0 0.3290897302 0.942220412
6800259200.0 0.342838847 0.9372618
6850258900.0 0.3551030905 0.9321539999
6900258600.0 0.3671458852 0.9267574705
6950258300.0 0.3794936074 0.9214223754
7000258000.0 0.3913284297 0.9163438268
7050257700.0 0.4035582367 0.9102163819
7100257400.0 0.4169113661 0.9039488802
7150257100.0 0.4273608239 0.8984499285
7200256800.0 0.4404407243 0.8921524585
7250256500.0 0.4528459646 0.885599362
7300256200.0 0.4657563495 0.8788678425
7350255900.0 0.4785819042 0.8720188005
7400255600.0 0.4923483772 0.8641785208
7450255300.0 0.5076124791 0.8551455516
7500255000.0 0.5202364308 0.8472849374
7550254700.0 0.5344065253 0.8389462113
7600254400.0 0.5466086879 0.8304774069
7650254100.0 0.5579514579 0.8222989608
7700253800.0 0.5701604611 0.8146161623
7750253500.0 0.5812769292 0.8070914308
7800253200.0 0.5917822278 0.7991596318
7850252900.0 0.601557695 0.7918964408
7900252600.0 0.6131197986 0.7834483988
7950252300.0 0.6215947299 0.7768996794
8000252000.0 0.6317557828 0.7691852342
8050251700.0 0.6421385393 0.7611802334
8100251400.0 0.6519883267 0.7530801081
8150251100.0 0.6621234549 0.7446326834
8200250800.0 0.6717201714 0.7363395755
8250250500.0 0.6804435803 0.7285009296
8300250200.0 0.6894120154 0.7202926731
8350249900.0 0.6985190722 0.7115288455
8400249600.0 0.7068663948 0.7033736227
8450249300.0 0.7157403179 0.6945516343
8500249000.0 0.7242986694 0.6856524128
8550248700.0 0.7324614743 0.6765735717
8600248400.0 0.7410317418 0.6672155485
8650248100.0 0.7486053801 0.6577100457
8700247800.0 0.7578638778 0.646651554
8750247500.0 0.7661244685 0.6366833824
8800247200.0 0.7741097281 0.626064311
8850246900.0 0.7829111111 0.6147223284
8900246600.0 0.7910850359 0.603665304
8950246300.0 0.8007891008 0.5906173686
9000246000.0 0.8094954665 0.5784579056
9050245700.0 0.8180778492 0.5659630382
9100245400.0 0.8267016641 0.5536858433
9150245100.0 0.8353800731 0.540874083
9200244800.0 0.844798996 0.526450601
9250244500.0 0.8540455687 0.5113530644
9300244200.0 0.8619559079 0.4977848964
9350243900.0 0.8697095607 0.4845104806
9400243600.0 0.876498773 0.4724910052
9450243300.0 0.8818903759 0.46177945
9500243000.0 0.8884428258 0.4499776044
9550242700.0 0.8924346363 0.442343884
9600242400.0 0.89639074 0.4346931449
9650242100.0 0.9005230871 0.4278683143
9700241800.0 0.905479236 0.4195267229
9750241500.0 0.9096484822 0.4119618183
9800241200.0 0.9145573093 0.4023422198
9850240900.0 0.9204050782 0.390880127
9900240600.0 0.9262973749 0.3788911471
9950240300.0 0.9331847732 0.3623552027
10000240000.0 0.9383955484 0.3502780269
10050239700.0 0.9442167107 0.3343653763
10100239400.0 0.9492383956 0.3183006938
10150239100.0 0.9538854084 0.3030576989
10200238800.0 0.9580289289 0.2875401334
10250238500.0 0.9614807522 0.2741441122
10300238200.0 0.9645053984 0.2601845194
10350237900.0 0.9673301621 0.2467900799
10400237600.0 0.969999342 0.2332497268
10450237300.0 0.9724598481 0.2199620721
10500237000.0 0.9749753168 0.2070687309
10550236700.0 0.9775517736 0.1925996515
10600236400.0 0.9791120427 0.1796008285
10650236100.0 0.9813309502 0.164799584
10700235800.0 0.983661118 0.1519472823
10750235500.0 0.9860183107 0.1387466632
10800235200.0 0.9882445317 0.1243363928
10850234900.0 0.9899321321 0.1096219524
10900234600.0 0.9919154843 0.0949773115
10950234300.0 0.9936343265 0.0814702193
11000234000.0 0.9954594653 0.0661192403
11050233700.0 0.9972390061 0.0494619337
11100233400.0 0.998814963 0.0317014168
11150233100.0 1.000082199 0.0150681547
11200232800.0 1.000574509 -0.000584236
11250232500.0 1.001529397 -0.0175254487
11300232200.0 1.00238434 -0.0363531435
11350231900.0 1.001811541 -0.0520293564
11400231600.0 1.001697428 -0.0682321871
11450231300.0 1.001298229 -0.0836424629
11500231000.0 0.9994862096 -0.1001546032
11550230700.0 0.9984148312 -0.1130995393
11600230400.0 0.9968044769 -0.1260528166
11650230100.0 0.9950497437 -0.1375094528
11700229800.0 0.9926968616 -0.1523931045
11750229500.0 0.9902923357 -0.1668240329
11800229200.0 0.9877046865 -0.1800469543
11850228900.0 0.983851411 -0.1918643041
11900228600.0 0.9800108725 -0.2014955915
11950228300.0 0.9765730655 -0.2117309452
12000228000.0 0.9737865975 -0.2205694351
12050227700.0 0.9698665963 -0.2341109548
12100227400.0 0.9665898882 -0.2449928001
12150227100.0 0.9619448056 -0.2606352153
12200226800.0 0.9590611267 -0.2719638303
12250226500.0 0.9542038495 -0.2848457122
12300226200.0 0.9502763084 -0.2968274964
12350225900.0 0.9453073666 -0.3108584257
12400225600.0 0.9407196647 -0.3234415425
12450225300.0 0.9363106875 -0.3358162221
12500225000.0 0.9305310501 -0.3505538391
12550224700.0 0.9256499548 -0.3645704477
12600224400.0 0.9205620929 -0.3774005103
12650224100.0 0.9146127477 -0.3916237174
12700223800.0 0.9093284254 -0.4045246422
12750223500.0 0.9038098068 -0.4177857985
12800223200.0 0.8984750218 -0.4299656251
12850222900.0 0.8933832526 -0.4423699698
12900222600.0 0.8877111939 -0.4540282592
12950222300.0 0.8812786444 -0.4667238697
13000222000.0 0.8755882633 -0.4787880615
13050221700.0 0.868600067 -0.491527075
13100221400.0 0.8621876001 -0.5038207366
13150221100.0 0.8551403389 -0.5153519612
13200220800.0 0.8481729228 -0.5273780568
13250220500.0 0.8409870563 -0.5390707137
13300220200.0 0.8335516301 -0.5502288341
13350219900.0 0.8253668638 -0.5621388668
13400219600.0 0.8171722867 -0.5740339296
13450219300.0 0.8073602801 -0.5874860469
13500219000.0 0.7979095933 -0.6006850008
13550218700.0 0.7883948741 -0.6128798936
13600218400.0 0.7779547231 -0.6248735564
13650218100.0 0.7684864899 -0.6355228619
13700217800.0 0.7580081397 -0.6478396557
13750217500.0 0.7482131736 -0.6585683088
13800217200.0 0.7372768437 -0.6695328136
13850216900.0 0.7257626142 -0.6813627578
13900216600.0 0.716058171 -0.6897777973
13950216300.0 0.705175081 -0.6998412056
14000216000.0 0.6952585828 -0.7091101292
14050215700.0 0.6857593886 -0.7171236365
14100215400.0 0.6762818411 -0.7265370848
14150215100.0 0.6675135979 -0.7353732061
14200214800.0 0.6579582129 -0.7441529674
14250214500.0 0.6475874171 -0.7536143014
14300214200.0 0.6372987267 -0.7629763078
14350213900.0 0.6261486361 -0.7727604319
14400213600.0 0.6142448896 -0.7822022311
14450213300.0 0.6012350556 -0.7929314955
14500213000.0 0.5879259888 -0.8020754683
14550212700.0 0.5764056335 -0.8116204691
14600212400.0 0.5637167839 -0.8201786537
14650212100.0 0.5514094086 -0.8297120822
14700211800.0 0.5370532369 -0.8389442331
14750211500.0 0.5248741777 -0.8470246751
14800211200.0 0.5125451453 -0.8554175425
14850210900.0 0.49999443 -0.8628905139
14900210600.0 0.4867533324 -0.8708773853
14950210300.0 0.4735944042 -0.8785921337
15000210000.0 0.4608204237 -0.8851799902
15050209700.0 0.4486484176 -0.8913463706
15100209400.0 0.435606348 -0.8973407078
15150209100.0 0.4238286431 -0.9026440399
15200208800.0 0.4113052886 -0.9076065789
15250208500.0 0.4001446187 -0.9125422583
15300208200.0 0.3872362814 -0.9171114808
15350207900.0 0.3744287141 -0.922107304
15400207600.0 0.3604396573 -0.9274421732
15450207300.0 0.3446242404 -0.9327963481
15500207000.0 0.3312420345 -0.9368540801
15550206700.0 0.3155931118 -0.9422058317
15600206400.0 0.2999379604 -0.9465277998
15650206100.0 0.2847478705 -0.9506245079
15700205800.0 0.2705074689 -0.9543692748
15750205500.0 0.2562722895 -0.9577086648
15800205200.0 0.2422161122 -0.9613579106
15850204900.0 0.2279862642 -0.9647917202
15900204600.0 0.2130074078 -0.9684170194
15950204300.0 0.1986533978 -0.9715573711
16000204000.0 0.1841375872 -0.9745861136
16050203700.0 0.1690515943 -0.9775885229
16100203400.0 0.1543856968 -0.9795767365
16150203100.0 0.1397968534 -0.9822996697
16200202800.0 0.1250773076 -0.9839354691
16250202500.0 0.1103729551 -0.9858631268
16300202200.0 0.095223092 -0.98789368
16350201900.0 0.0803862341 -0.9892466881
16400201600.0 0.0657232192 -0.9900050957
16450201300.0 0.0500272495 -0.9912767786
16500201000.0 0.0332746888 -0.9919374844
16550200700.0 0.0170754161 -0.9924604817
16600200400.0 0.0012835087 -0.9926492204
16650200100.0 -0.0147764308 -0.9926534537
16700199800.0 -0.0312099674 -0.9922486229
16750199500.0 -0.0502199015 -0.9916520035
16800199200.0 -0.0660512142 -0.990703371
16850198900.0 -0.0811164562 -0.9895843048
16900198600.0 -0.0955772563 -0.9887893655
16950198300.0 -0.1088969289 -0.987634162
17000198000.0 -0.1222526535 -0.9859165661
17050197700.0 -0.1351508518 -0.9841640392
17100197400.0 -0.1473652691 -0.9828871214
17150197100.0 -0.1606869575 -0.97994606
17200196800.0 -0.1730660569 -0.9785146486
17250196500.0 -0.186318169 -0.9757575837
17300196200.0 -0.1984003851 -0.9733805712
17350195900.0 -0.2103163192 -0.9709047378
17400195600.0 -0.2223608097 -0.9682655615
17450195300.0 -0.2351578226 -0.9655048183
17500195000.0 -0.2485382855 -0.9621652646
17550194700.0 -0.2621990142 -0.9586681173
17600194400.0 -0.2761298131 -0.9549056555
17650194100.0 -0.2896865355 -0.9507114041
17700193800.0 -0.3030170465 -0.9464026103
17750193500.0 -0.317017638 -0.9421548489
17800193200.0 -0.3313346963 -0.9367836245
17850192900.0 -0.346225056 -0.9315612104
17900192600.0 -0.3609827099 -0.9253178532
17950192300.0 -0.3768045293 -0.9181192285
18000192000.0 -0.3914290529 -0.9109241181
18050191700.0 -0.4054235337 -0.9028549478
18100191400.0 -0.4195285452 -0.8954146064
18150191100.0 -0.434371185 -0.8874045576
18200190800.0 -0.4511235395 -0.8783204746
18250190500.0 -0.4682611351 -0.868871085
18300190200.0 -0.4837836457 -0.8599073998
18350189900.0 -0.4987034654 -0.8518319523
18400189600.0 -0.5136483158 -0.8434022084
18450189300.0 -0.5263696776 -0.8349821911
18500189000.0 -0.5404762653 -0.8273207116
18550188700.0 -0.5529113091 -0.819481536
18600188400.0 -0.5646754045 -0.8128016478
18650188100.0 -0.5762254075 -0.8062873273
18700187800.0 -0.5870313482 -0.7995070662
18750187500.0 -0.5981080664 -0.7928653433
18800187200.0 -0.608652147 -0.7858635038
18850186900.0 -0.6188218905 -0.7789637834
18900186600.0 -0.6290126135 -0.7717210658
18950186300.0 -0.6390794167 -0.7641945153
19000186000.0 -0.6465743984 -0.7575063787
19050185700.0 -0.6557866699 -0.7507455528
19100185400.0 -0.666005201 -0.7419587414
19150185100.0 -0.6757138736 -0.7334604482
19200184800.0 -0.685417527 -0.7257078474
19250184500.0 -0.6957611832 -0.7165219395
19300184200.0 -0.7066544724 -0.7067907733
19350183900.0 -0.7175222747 -0.6977336934
19400183600.0 -0.7278199843 -0.6871411026
19450183300.0 -0.7361957222 -0.6769849408
19500183000.0 -0.7448071285 -0.6674383846
19550182700.0 -0.7546693596 -0.65651322
19600182400.0 -0.7644443781 -0.6445744155
19650182100.0 -0.7753560463 -0.632165585
19700181800.0 -0.7860516679 -0.6187601867
19750181500.0 -0.7962606498 -0.6050782548
19800181200.0 -0.8064756676 -0.5899029827
19850180900.0 -0.8160400283 -0.5746395334
19900180600.0 -0.8238891348 -0.5603630302
19950180300.0 -0.8330663942 -0.5440243932
20000180000.0 -0.8237576638 -0.5473162157
20050179700.0 -0.832022372 -0.534007172
20100179400.0 -0.839996559 -0.5217249838
20150179100.0 -0.8475772264 -0.5089506062
20200178800.0 -0.8574175201 -0.4976838233
20250178500.0 -0.8664406629 -0.4837525244
20300178200.0 -0.8761805145 -0.4708363138
20350177900.0 -0.8849745058 -0.4565840107
20400177600.0 -0.8940444433 -0.4424457052
20450177300.0 -0.9026698716 -0.4281482592
20500177000.0 -0.9105815069 -0.4140240632
20550176700.0 -0.9185238317 -0.4004926686
20600176400.0 -0.9252468121 -0.387805109
20650176100.0 -0.931911248 -0.3752178016
20700175800.0 -0.9385250238 -0.3639609624
20750175500.0 -0.944856379 -0.3522872216
20800175200.0 -0.9491354431 -0.3410544701
20850174900.0 -0.9546865249 -0.3295728809
20900174600.0 -0.9587783303 -0.3192108323
20950174300.0 -0.9621963431 -0.3081966387
21000174000.0 -0.9642619492 -0.2968303018
21050173700.0 -0.9666334806 -0.2875704172
21100173400.0 -0.9702783456 -0.2766477021
21150173100.0 -0.9745151957 -0.2645601763
21200172800.0 -0.9782611164 -0.2508341598
21250172500.0 -0.9819755997 -0.2374043251
21300172200.0 -0.9853044003 -0.2228758036
21350171900.0 -0.9867066739 -0.2088761581
21400171600.0 -0.9887784683 -0.1950721394
21450171300.0 -0.9898436868 -0.1809350219
21500171000.0 -0.9901873409 -0.1645960655
21550170700.0 -0.990483366 -0.1499570597
21600170400.0 -0.9913297547 -0.1358582726
21650170100.0 -0.990556745 -0.1186084057
21700169800.0 -0.9905173475 -0.1049147519
21750169500.0 -0.9888650899 -0.087680476
21800169200.0 -0.9899529588 -0.0717336578
21850168900.0 -0.9886956463 -0.053666308
21900168600.0 -0.9892244098 -0.0380332205
21950168300.0 -0.9885020329 -0.0224272256
22000168000.0 -0.9878435516 -0.0073815698
22050167700.0 -0.988202896 0.0070836716
22100167400.0 -0.9887138436 0.0228037589
22150167100.0 -0.9896811611 0.0386423143
22200166800.0 -0.9899372394 0.055282229
22250166500.0 -0.9895673705 0.0724363297
22300166200.0 -0.9886166725 0.0884175533
22350165900.0 -0.9876509758 0.1056888716
22400165600.0 -0.9858075433 0.1212673047
22450165300.0 -0.9849430311 0.1353613881
22500165000.0 -0.9830638647 0.1501609982
22550164700.0 -0.9818605566 0.1664848618
22600164400.0 -0.9798480898 0.1821402973
22650164100.0 -0.976796302 0.1972130089
22700163800.0 -0.9735557287 0.2134563946
22750163500.0 -0.9708621055 0.2277773718
22800163200.0 -0.9676794501 0.2412768952
22850162900.0 -0.9652925971 0.2546536935
22900162600.0 -0.9636592466 0.2685883948
22950162300.0 -0.9618878393 0.281685722
23000162000.0 -0.960502548 0.2943595528
23050161700.0 -0.9574740903 0.3074683802
23100161400.0 -0.9553637414 0.3206253948
23150161100.0 -0.9521135675 0.3337740556
23200160800.0 -0.9489254618 0.3462917176
23250160500.0 -0.9463720104 0.3588482837
23300160200.0 -0.9444938037 0.3713012034
23350159900.0 -0.9398531529 0.3842784057
23400159600.0 -0.9347957409 0.398467189
23450159300.0 -0.9299105417 0.4122226376
23500159000.0 -0.9248640963 0.4254736555
23550158700.0 -0.9201349656 0.4393605634
23600158400.0 -0.9144272744 0.4531887187
23650158100.0 -0.9071487075 0.4677747193
23700157800.0 -0.899093983 0.4820417121
23750157500.0 -0.8898939805 0.4959916799
23800157200.0 -0.8805723962 0.5095292634
23850156900.0 -0.8711392088 0.5225573472
23900156600.0 -0.8614548214 0.5343835457
23950156300.0 -0.8510045659 0.5474445872
24000156000.0 -0.842178991 0.5602949584
24050155700.0 -0.8314891318 0.5723132821
24100155400.0 -0.8216962522 0.5838876606
24150155100.0 -0.8111296263 0.5963533012
24200154800.0 -0.7995135296 0.6083366619
24250154500.0 -0.7885809406 0.6202098405
24300154200.0 -0.7773942087 0.6325975711
24350153900.0 -0.7652490535 0.6431911918
24400153600.0 -0.7527101275 0.6537703885
24450153300.0 -0.7407862026 0.6635650104
24500153000.0 -0.7295479068 0.6737252574
24550152700.0 -0.7182614881 0.6836790889
24600152400.0 -0.7062809865 0.69295712
24650152100.0 -0.6936265273 0.7014423618
