!Created with skrf (http://scikit-rf.org).
# Hz S RI R 50.0 
!freq ReS11 ImS11
300000.0 -0.9863889604 -0.0806737498
50299700.0 -0.9999012993 0.0165672881
100299400.0 -0.9979241549 0.029474775
150299100.0 -1.002718304 0.0462972508
200298800.0 -0.9993680623 0.0594472116
250298500.0 -0.9971527694 0.0729462189
300298200.0 -0.9856640753 0.088760135
350297900.0 -0.9937528914 0.0995733821
400297600.0 -0.9930951181 0.1163532159
450297300.0 -0.9907994417 0.130091384
500297000.0 -0.9890565708 0.1447584624
550296700.0 -0.9842065804 0.1571983186
600296400.0 -1.016915119 0.1906369082
650296100.0 -0.9816381402 0.1872719561
700295800.0 -0.9787582598 0.2016824028
750295500.0 -0.9757700694 0.21555939
800295200.0 -0.9725343666 0.2297188866
850294900.0 -0.9688809575 0.243465165
900294600.0 -0.9653325786 0.2570662973
950294300.0 -0.9614243209 0.270726079
1000294000.0 -0.9574852293 0.2849228731
1050293700.0 -0.9530463888 0.2987764858
1100293400.0 -0.9486997346 0.3131069418
1150293100.0 -0.9446597076 0.3248771111
1200292800.0 -0.9395105751 0.3391285417
1250292500.0 -0.9339239853 0.3525545199
1300292200.0 -0.9283692191 0.3657214101
1350291900.0 -0.9228903131 0.3797724337
1400291600.0 -0.9173776269 0.3927858859
1450291300.0 -0.911807814 0.4052744284
1500291000.0 -0.9056699001 0.4184813614
1550290700.0 -0.8991114695 0.4316820252
1600290400.0 -0.8930340126 0.4445194129
1650290100.0 -0.8862243836 0.4567227856
1700289800.0 -0.8793517503 0.470185164
1750289500.0 -0.8722886515 0.4823817015
1800289200.0 -0.8651762697 0.4952224234
1850288900.0 -0.8582663042 0.5065429926
1900288600.0 -0.8506819743 0.5196509311
1950288300.0 -0.8423568355 0.5319868493
2000288000.0 -0.8349429314 0.5435498994
2050287700.0 -0.8266338989 0.5559343791
2100287400.0 -0.818685837 0.5675127566
2150287100.0 -0.8101332753 0.5797184375
2200286800.0 -0.8022520077 0.5900060105
2250286500.0 -0.7933147916 0.6020426724
2300286200.0 -0.7843452418 0.6136633072
2350285900.0 -0.775477562 0.6247239987
2400285600.0 -0.7665858979 0.6360218399
2450285300.0 -0.7580012895 0.6459829403
2500285000.0 -0.7482914842 0.6574543077
2550284700.0 -0.7391435595 0.6677337694
2600284400.0 -0.7296313953 0.6778434424
2650284100.0 -0.7207833222 0.6883202233
2700283800.0 -0.7103350769 0.6989962434
2750283500.0 -0.6997868886 0.7092982618
2800283200.0 -0.689830106 0.719193843
2850282900.0 -0.6797792624 0.7287969723
2900282600.0 -0.6694314717 0.7385679015
2950282300.0 -0.6594301413 0.7476508652
3000282000.0 -0.6486773014 0.7572721109
3050281700.0 -0.6376277435 0.7665436878
3100281400.0 -0.6259586392 0.7755491663
3150281100.0 -0.6142560983 0.7849479166
3200280800.0 -0.602572806 0.793440911
3250280500.0 -0.59190761 0.8011718875
3300280200.0 -0.5806791465 0.8092498163
3350279900.0 -0.569255806 0.8166388742
3400279600.0 -0.5571943813 0.824281855
3450279300.0 -0.5462238427 0.8315188788
3500279000.0 -0.5339919276 0.8386852617
3550278700.0 -0.5217093721 0.8461129362
3600278400.0 -0.5098388186 0.8530858594
3650278100.0 -0.4964032875 0.8607482482
3700277800.0 -0.484530867 0.8672126431
3750277500.0 -0.4722874249 0.8739219617
3800277200.0 -0.45945329 0.8803870374
3850276900.0 -0.4474091373 0.8864435575
3900276600.0 -0.4363507191 0.8920443012
3950276300.0 -0.4237210157 0.8981929652
4000276000.0 -0.4117005242 0.9042315194
4050275700.0 -0.3982101715 0.9103924213
4100275400.0 -0.3869691582 0.9156471773
4150275100.0 -0.3739692182 0.9211973228
4200274800.0 -0.3611236366 0.9265142246
4250274500.0 -0.3485820544 0.9317622881
4300274200.0 -0.3357610202 0.9370112408
4350273900.0 -0.3220959076 0.9420836124
4400273600.0 -0.3073460337 0.9471993161
4450273300.0 -0.2921750577 0.9521625622
4500273000.0 -0.2786076047 0.9566331647
4550272700.0 -0.2646118286 0.9607912511
4600272400.0 -0.2489275769 0.9649487358
4650272100.0 -0.2372710828 0.9681612841
4700271800.0 -0.2237796461 0.9715189794
4750271500.0 -0.2119094616 0.9743011811
4800271200.0 -0.1992355429 0.977038612
4850270900.0 -0.185634905 0.9798786868
4900270600.0 -0.1716900833 0.9822796072
4950270300.0 -0.1578336496 0.9849462144
5000270000.0 -0.1435850588 0.9868135393
5050269700.0 -0.1301484164 0.9888202973
5100269400.0 -0.1165795154 0.9903570905
5150269100.0 -0.1034213783 0.9919215314
5200268800.0 -0.089958543 0.9930513863
5250268500.0 -0.0769250084 0.9937585082
5300268200.0 -0.0639678305 0.9947818973
5350267900.0 -0.0519547976 0.9950963128
5400267600.0 -0.0356779357 0.996483268
5450267300.0 -0.0228619613 0.9966103325
5500267000.0 -0.0079557038 0.9970020954
5550266700.0 0.0067670843 0.9973318386
5600266400.0 0.0223791339 0.9971022343
5650266100.0 0.0386495726 0.9967291202
5700265800.0 0.0530097747 0.9960639754
5750265500.0 0.0683014143 0.9951383574
5800265200.0 0.0822982788 0.994158824
5850264900.0 0.0955285637 0.9929385853
5900264600.0 0.1119579359 0.9912563647
5950264300.0 0.1246203794 0.9900882842
6000264000.0 0.1384549539 0.98826453
6050263700.0 0.1510976862 0.9862053878
6100263400.0 0.1636505303 0.9840015573
6150263100.0 0.1786629225 0.981912762
6200262800.0 0.1890252337 0.9799753537
6250262500.0 0.2018273614 0.9774549446
6300262200.0 0.2147695677 0.9746737241
6350261900.0 0.2279479285 0.9717977026
6400261600.0 0.2418091926 0.9685312826
6450261300.0 0.2533960108 0.9654909032
6500261000.0 0.2659370256 0.9620250397
6550260700.0 0.2791247006 0.9583266431
6600260400.0 0.2923025477 0.9542571771
6650260100.0 0.3063926299 0.9500780421
6700259800.0 0.317973027 0.9457141368
6750259500.0 0.3319194374 0.9409904413
6800259200.0 0.345174701 0.9361043525
6850258900.0 0.3569741927 0.9310265194
6900258600.0 0.3691700658 0.9259286006
6950258300.0 0.3817106051 0.9209184862
7000258000.0 0.3937922603 0.9155744927
7050257700.0 0.4057518489 0.9094886999
7100257400.0 0.4188144812 0.9033022503
7150257100.0 0.4290804786 0.8980321262
7200256800.0 0.441850265 0.8917642334
7250256500.0 0.4532532532 0.8857266826
7300256200.0 0.4665032757 0.8788847853
7350255900.0 0.4785597136 0.8718841737
7400255600.0 0.4918670549 0.8650510222
7450255300.0 0.506448527 0.8561450546
7500255000.0 0.5180510067 0.849318289
7550254700.0 0.5309358222 0.8408470021
7600254400.0 0.5440276364 0.8325998994
7650254100.0 0.5553468095 0.8247724425
7700253800.0 0.5675384098 0.8166875816
7750253500.0 0.5787880855 0.8090658493
7800253200.0 0.5898347683 0.8009934034
7850252900.0 0.5994157893 0.7938055846
7900252600.0 0.6112511036 0.7848335394
7950252300.0 0.6202958019 0.7781346493
8000252000.0 0.6307815691 0.7699978007
8050251700.0 0.6410568676 0.7616782127
8100251400.0 0.651116451 0.7534838823
8150251100.0 0.6616239054 0.7446177147
8200250800.0 0.6708934553 0.7365708388
8250250500.0 0.6799557466 0.7283037089
8300250200.0 0.6895670334 0.719586827
8350249900.0 0.6985939117 0.7109847334
8400249600.0 0.7070729991 0.7028284808
8450249300.0 0.716252211 0.6932811536
8500249000.0 0.7248460831 0.6848158098
8550248700.0 0.7335051931 0.6755656716
8600248400.0 0.742024971 0.6659068192
8650248100.0 0.7497679824 0.6565343454
8700247800.0 0.7592502207 0.6455730112
8750247500.0 0.7674431002 0.6355242105
8800247200.0 0.7754099116 0.6254452241
8850246900.0 0.7841477883 0.6141896323
8900246600.0 0.7924918506 0.6029857881
8950246300.0 0.8018067154 0.5903383635
9000246000.0 0.8110485036 0.578179139
9050245700.0 0.8194813951 0.5651948304
9100245400.0 0.8283569136 0.5530075059
9150245100.0 0.8371719246 0.539898988
9200244800.0 0.8464802095 0.5254349586
9250244500.0 0.8556381882 0.5103570284
9300244200.0 0.8639087031 0.4961987125
9350243900.0 0.8717983256 0.4822798212
9400243600.0 0.87867098 0.4693687446
9450243300.0 0.8847738378 0.4572827786
9500243000.0 0.8913690617 0.444487515
9550242700.0 0.895551157 0.4357694869
9600242400.0 0.8996440039 0.4276086906
9650242100.0 0.9036123339 0.4204584424
9700241800.0 0.9081942446 0.411544048
9750241500.0 0.9120983658 0.4035467453
9800241200.0 0.9169356543 0.3939190949
9850240900.0 0.9223692177 0.3822560574
9900240600.0 0.9277092417 0.371030283
9950240300.0 0.9340568858 0.3550074758
10000240000.0 0.9386611044 0.3435557523
10050239700.0 0.9442774061 0.3285244017
10100239400.0 0.949222415 0.3132589025
10150239100.0 0.9537103598 0.2987402938
10200238800.0 0.9577632822 0.2839926377
10250238500.0 0.9613259108 0.2706761264
10300238200.0 0.9644114144 0.2566811591
10350237900.0 0.9673188126 0.2434547139
10400237600.0 0.9700596024 0.2302908551
10450237300.0 0.9728820782 0.2167643555
10500237000.0 0.9750225305 0.2047738821
10550236700.0 0.9772467376 0.1911648095
10600236400.0 0.9796250509 0.177563095
10650236100.0 0.9813389674 0.1635108866
10700235800.0 0.9833823002 0.1511542136
10750235500.0 0.9860169944 0.1376533466
10800235200.0 0.9876816392 0.1243628481
10850234900.0 0.989775268 0.1098140894
10900234600.0 0.9916703289 0.0953161802
10950234300.0 0.9932884203 0.0820760274
11000234000.0 0.9949934531 0.0674508846
11050233700.0 0.9966192091 0.0516625666
11100233400.0 0.9979904425 0.0344091424
11150233100.0 0.9989398437 0.0184658977
11200232800.0 0.9994115585 0.0033355068
11250232500.0 1.000119313 -0.0129661776
11300232200.0 1.000483927 -0.0297417151
11350231900.0 1.000518381 -0.0459090238
11400231600.0 1.000473447 -0.0619421478
11450231300.0 0.9993485996 -0.0772573058
11500231000.0 0.9986833382 -0.094449303
11550230700.0 0.9966901083 -0.1080846813
11600230400.0 0.9957289785 -0.1210231265
11650230100.0 0.9935896779 -0.1323061424
11700229800.0 0.9918300498 -0.1478431663
11750229500.0 0.9890939971 -0.1621919822
11800229200.0 0.9866620904 -0.1759291862
11850228900.0 0.9831745582 -0.1887676408
11900228600.0 0.9797607882 -0.1991168772
11950228300.0 0.9765971935 -0.210488226
12000228000.0 0.9738434084 -0.2201726647
12050227700.0 0.9704475662 -0.2328023004
12100227400.0 0.9671408976 -0.2435048381
12150227100.0 0.9625668549 -0.2598519762
12200226800.0 0.9593145648 -0.2710998052
12250226500.0 0.9551577923 -0.2841385869
12300226200.0 0.9507900315 -0.2962494414
12350225900.0 0.9458680887 -0.3095555719
12400225600.0 0.9417936117 -0.3219910935
12450225300.0 0.9379082487 -0.3342068318
12500225000.0 0.9326917527 -0.3485295882
12550224700.0 0.9271552268 -0.3624804914
12600224400.0 0.922444056 -0.3750554238
12650224100.0 0.9165575657 -0.3891317827
12700223800.0 0.9114304266 -0.4016929241
12750223500.0 0.9059573484 -0.4145669515
12800223200.0 0.9007418045 -0.4268076331
12850222900.0 0.8949538802 -0.4388568491
12900222600.0 0.889680092 -0.4509430064
12950222300.0 0.8827495556 -0.464348994
13000222000.0 0.87729746 -0.4756684593
13050221700.0 0.8698753131 -0.4886757228
13100221400.0 0.8634806432 -0.5010088056
13150221100.0 0.8561343489 -0.5131232868
13200220800.0 0.8491246943 -0.5246318217
13250220500.0 0.841396618 -0.5374028502
13300220200.0 0.834064824 -0.5481671905
13350219900.0 0.8258832141 -0.5605569823
13400219600.0 0.81722897 -0.5726293324
13450219300.0 0.8078891784 -0.5861501855
13500219000.0 0.7978865418 -0.5993647816
13550218700.0 0.7873343633 -0.6127343439
13600218400.0 0.7778294483 -0.624737444
13650218100.0 0.7680645172 -0.6362069979
13700217800.0 0.7569195418 -0.6484554868
13750217500.0 0.7469964098 -0.6599882604
13800217200.0 0.7355401393 -0.6714668515
13850216900.0 0.7255912884 -0.683737628
13900216600.0 0.7158629275 -0.6917672251
13950216300.0 0.7039318412 -0.7023507928
14000216000.0 0.6945197394 -0.7118582898
14050215700.0 0.6855333732 -0.7197387798
14100215400.0 0.6752274882 -0.7289443753
14150215100.0 0.6662889726 -0.73741932
14200214800.0 0.6570208435 -0.7459312448
14250214500.0 0.6467707327 -0.7549833012
14300214200.0 0.6362980126 -0.764203229
14350213900.0 0.6255300734 -0.7737515545
14400213600.0 0.6139274546 -0.7831902019
14450213300.0 0.6012843046 -0.7929552675
14500213000.0 0.588306235 -0.8026746356
14550212700.0 0.5760296169 -0.8118765912
14600212400.0 0.5640126607 -0.8204731703
14650212100.0 0.550976101 -0.8290273837
14700211800.0 0.5372466934 -0.8382657009
14750211500.0 0.5251329272 -0.8470736346
14800211200.0 0.5126229195 -0.8547237057
14850210900.0 0.5003172719 -0.8622626754
14900210600.0 0.4870557137 -0.870194908
14950210300.0 0.473637766 -0.8778053087
15000210000.0 0.4606215092 -0.8848833784
15050209700.0 0.4475243671 -0.8909640886
15100209400.0 0.4351336599 -0.8972668653
15150209100.0 0.4222624046 -0.9030074928
15200208800.0 0.4090446839 -0.9083542326
15250208500.0 0.3973718814 -0.9138425631
15300208200.0 0.3848827035 -0.9177945379
15350207900.0 0.3712117768 -0.9227116982
15400207600.0 0.3570584973 -0.9285452124
15450207300.0 0.3414985252 -0.933611809
15500207000.0 0.327156304 -0.9380208723
15550206700.0 0.3125349594 -0.9435056368
15600206400.0 0.2968806748 -0.9482732619
15650206100.0 0.2809707427 -0.9520333452
15700205800.0 0.2674854713 -0.9554522969
15750205500.0 0.253166073 -0.9592587014
15800205200.0 0.2390289504 -0.9628599824
15850204900.0 0.224756357 -0.9661383648
15900204600.0 0.2099629381 -0.9697441258
15950204300.0 0.1960908701 -0.9726177768
16000204000.0 0.1820572269 -0.9755585787
16050203700.0 0.1677805033 -0.9782089778
16100203400.0 0.1533794474 -0.9801617287
16150203100.0 0.1391511572 -0.9825985081
16200202800.0 0.1253802641 -0.9847001155
16250202500.0 0.1106119124 -0.9858622894
16300202200.0 0.0956715808 -0.9875114194
16350201900.0 0.0809075578 -0.9892286131
16400201600.0 0.0664286956 -0.9902650252
16450201300.0 0.0515195714 -0.9915060199
16500201000.0 0.0349914584 -0.992231104
16550200700.0 0.0192784589 -0.9927940322
16600200400.0 0.0035686031 -0.9928626423
16650200100.0 -0.0129834148 -0.9929440525
16700199800.0 -0.0290366078 -0.9925012701
16750199500.0 -0.0476292855 -0.9921885128
16800199200.0 -0.0637468124 -0.9915050425
16850198900.0 -0.0788479069 -0.9902667092
16900198600.0 -0.0932627079 -0.9891991201
16950198300.0 -0.107345052 -0.9876001857
17000198000.0 -0.1205731984 -0.9858596532
17050197700.0 -0.1337319955 -0.9846460264
17100197400.0 -0.1471717061 -0.9818569327
17150197100.0 -0.1600381883 -0.9798586224
17200196800.0 -0.1728398298 -0.9780496842
17250196500.0 -0.1860775118 -0.9754601908
17300196200.0 -0.1983600981 -0.9731083491
17350195900.0 -0.2107130967 -0.9705302979
17400195600.0 -0.2230191435 -0.9680137707
17450195300.0 -0.2364066833 -0.9651093348
17500195000.0 -0.2495990511 -0.9620287278
17550194700.0 -0.2635284108 -0.9581264927
17600194400.0 -0.27750262 -0.9541263085
17650194100.0 -0.2913547937 -0.9502041746
17700193800.0 -0.3043711777 -0.9461504556
17750193500.0 -0.3185057719 -0.941558345
17800193200.0 -0.332593418 -0.9364555533
17850192900.0 -0.3468647555 -0.9310337204
17900192600.0 -0.3616247611 -0.9253085366
17950192300.0 -0.3771911913 -0.9183603724
18000192000.0 -0.3917078296 -0.9113570757
18050191700.0 -0.405377677 -0.9038194099
18100191400.0 -0.4194475366 -0.8962779608
18150191100.0 -0.4340090157 -0.8884145985
18200190800.0 -0.4503749578 -0.8796933404
18250190500.0 -0.4671224736 -0.8705607765
18300190200.0 -0.4823453785 -0.8620916215
18350189900.0 -0.4973004603 -0.8535608226
18400189600.0 -0.5117676138 -0.8452132837
18450189300.0 -0.525344291 -0.8373000856
18500189000.0 -0.5386145193 -0.8288488882
18550188700.0 -0.5513049469 -0.8210871176
18600188400.0 -0.5632158003 -0.8140077861
18650188100.0 -0.5749031304 -0.8069531728
18700187800.0 -0.5859995394 -0.7999911804
18750187500.0 -0.597263759 -0.7931082825
18800187200.0 -0.6080312564 -0.7856543902
18850186900.0 -0.61838614 -0.7783048874
18900186600.0 -0.6292400022 -0.7703075865
18950186300.0 -0.639477572 -0.7621135672
19000186000.0 -0.6474557052 -0.7556111514
19050185700.0 -0.6570964805 -0.748175353
19100185400.0 -0.6669052633 -0.7397049572
19150185100.0 -0.6773618491 -0.7307023019
19200184800.0 -0.686651722 -0.7221652451
19250184500.0 -0.6967177233 -0.7126459231
19300184200.0 -0.7086974912 -0.7027791031
19350183900.0 -0.719053229 -0.6929754059
19400183600.0 -0.7290113838 -0.6833745955
19450183300.0 -0.7372302705 -0.6729235688
19500183000.0 -0.7456671939 -0.663144065
19550182700.0 -0.7550839689 -0.6526530139
19600182400.0 -0.7649022983 -0.6411544858
19650182100.0 -0.7756515836 -0.6290505688
19700181800.0 -0.7856005569 -0.6166376737
19750181500.0 -0.7957875039 -0.6030346633
19800181200.0 -0.8057680181 -0.5887492921
19850180900.0 -0.8153558572 -0.5740808081
19900180600.0 -0.8228566484 -0.5601427034
19950180300.0 -0.832096316 -0.5444972274
20000180000.0 -0.8275722171 -0.5446147012
20050179700.0 -0.8367809074 -0.531794027
20100179400.0 -0.8432500995 -0.5185221379
20150179100.0 -0.8513152528 -0.5051968709
20200178800.0 -0.8607377029 -0.4934318137
20250178500.0 -0.8690815543 -0.4797411401
20300178200.0 -0.8787655164 -0.465041983
20350177900.0 -0.8872744038 -0.4517326433
20400177600.0 -0.8956997232 -0.4372864507
20450177300.0 -0.9033742682 -0.4229268471
20500177000.0 -0.9114596895 -0.4090138001
20550176700.0 -0.9186338453 -0.3953799586
20600176400.0 -0.9258646261 -0.3821234515
20650176100.0 -0.9327111593 -0.369331448
20700175800.0 -0.938840947 -0.3568958909
20750175500.0 -0.9450914534 -0.3444536688
20800175200.0 -0.9508455735 -0.3336946728
20850174900.0 -0.9549403482 -0.3222924772
20900174600.0 -0.9598054431 -0.3107145754
20950174300.0 -0.963836653 -0.2978951844
21000174000.0 -0.9670713251 -0.2861248001
21050173700.0 -0.9705677903 -0.2747758381
21100173400.0 -0.9744990156 -0.2617444224
21150173100.0 -0.9787636419 -0.2491650503
21200172800.0 -0.982285064 -0.2358853869
21250172500.0 -0.9853840165 -0.2216603852
21300172200.0 -0.9885278027 -0.2077167208
21350171900.0 -0.9901438576 -0.1934658647
21400171600.0 -0.9920578951 -0.1789373353
21450171300.0 -0.992852726 -0.1643692567
21500171000.0 -0.9925256573 -0.1492823321
21550170700.0 -0.9929278144 -0.1336095222
21600170400.0 -0.9928418858 -0.1197368369
21650170100.0 -0.9932196596 -0.1034565622
21700169800.0 -0.990590672 -0.0894124752
21750169500.0 -0.9900067292 -0.0731780997
21800169200.0 -0.9890525674 -0.0572193516
21850168900.0 -0.9872743424 -0.0410198025
21900168600.0 -0.9867235959 -0.0243698373
21950168300.0 -0.9855460253 -0.0096962988
22000168000.0 -0.9840446544 0.0052458878
22050167700.0 -0.983611074 0.0194590885
22100167400.0 -0.9835354835 0.0341025156
22150167100.0 -0.9834539314 0.0493262512
22200166800.0 -0.9836944445 0.065180139
22250166500.0 -0.9830234681 0.0825042402
22300166200.0 -0.9820570042 0.0986713871
22350165900.0 -0.980382915 0.1148796057
22400165600.0 -0.9793095025 0.1302575384
22450165300.0 -0.9772984401 0.1447194823
22500165000.0 -0.9751569154 0.1597177939
22550164700.0 -0.9733338385 0.1741320696
22600164400.0 -0.972071176 0.1894890462
22650164100.0 -0.9694476736 0.2038088999
22700163800.0 -0.9678830687 0.219869613
22750163500.0 -0.9646847575 0.2348678163
22800163200.0 -0.9623302268 0.248205478
22850162900.0 -0.9597028895 0.2619533528
22900162600.0 -0.9578046387 0.2752295149
22950162300.0 -0.9563996918 0.2882790967
23000162000.0 -0.9551011197 0.2999468412
23050161700.0 -0.9532532093 0.3131530024
23100161400.0 -0.9504800667 0.3251301193
23150161100.0 -0.9477080869 0.3373048976
23200160800.0 -0.9453005564 0.3492391673
23250160500.0 -0.9419526324 0.3616699542
23300160200.0 -0.9391672608 0.3733094705
23350159900.0 -0.9352589673 0.3865200617
23400159600.0 -0.9311930815 0.3996602221
23450159300.0 -0.9261464437 0.4129672439
23500159000.0 -0.9213758541 0.425259013
23550158700.0 -0.9172510072 0.4385026167
23600158400.0 -0.9118675095 0.4511071708
23650158100.0 -0.9054785869 0.4644489565
23700157800.0 -0.8982270294 0.4779007028
23750157500.0 -0.8904018388 0.4915649362
23800157200.0 -0.8815534906 0.5047758923
23850156900.0 -0.872891056 0.5169809464
23900156600.0 -0.8638871994 0.5303061433
23950156300.0 -0.8545710833 0.5418636148
24000156000.0 -0.8457988418 0.5539648541
24050155700.0 -0.8360638684 0.5653127767
24100155400.0 -0.8266551845 0.5773941886
24150155100.0 -0.815369565 0.5896202835
24200154800.0 -0.8050702319 0.6006870501
24250154500.0 -0.7940907295 0.6120113419
24300154200.0 -0.7832247451 0.6241446606
24350153900.0 -0.7712235114 0.6350498015
24400153600.0 -0.7595490009 0.645542126
24450153300.0 -0.7478714619 0.6557180246
24500153000.0 -0.7369397818 0.6657570392
24550152700.0 -0.725517061 0.6758335152
24600152400.0 -0.7137367403 0.6852896634
24650152100.0 -0.7023047969 0.6935800852
