!Created with skrf (http://scikit-rf.org).
# Hz S RI R 50.0 
!freq ReS11 ImS11
300000.0 -0.9757620414 -0.1175955161
50299700.0 -1.000045908 0.0156151927
100299400.0 -0.998039967 0.0283670778
150299100.0 -1.002699895 0.0453241224
200298800.0 -0.9996520861 0.0585414503
250298500.0 -0.997454474 0.0720239158
300298200.0 -0.9860260607 0.0876627119
350297900.0 -0.9941885747 0.098886718
400297600.0 -0.9932437252 0.1153238771
450297300.0 -0.991091406 0.1288901977
500297000.0 -0.9896112683 0.143985585
550296700.0 -0.984343006 0.1564299695
600296400.0 -1.017427685 0.1894711541
650296100.0 -0.9822694672 0.1862274913
700295800.0 -0.9794320335 0.2005868389
750295500.0 -0.9764244582 0.2145257022
800295200.0 -0.9730631791 0.2285504208
850294900.0 -0.969749383 0.2422686947
900294600.0 -0.9659403506 0.2560834546
950294300.0 -0.9621155927 0.2699483609
1000294000.0 -0.9580522365 0.2837389116
1050293700.0 -0.9535385756 0.2976980274
1100293400.0 -0.9492097664 0.3120528613
1150293100.0 -0.9455245599 0.3239171262
1200292800.0 -0.9401735855 0.338161342
1250292500.0 -0.9347715746 0.3517335963
1300292200.0 -0.9290528387 0.3648777489
1350291900.0 -0.9235669319 0.3790548633
1400291600.0 -0.9179252986 0.3920218481
1450291300.0 -0.9124035595 0.4044284341
1500291000.0 -0.9060847754 0.4179363785
1550290700.0 -0.8996592198 0.4310903582
1600290400.0 -0.8934346635 0.4439382937
1650290100.0 -0.8868201339 0.4562495917
1700289800.0 -0.8798520157 0.4696588129
1750289500.0 -0.8729580118 0.4819437454
1800289200.0 -0.8655017145 0.4947361489
1850288900.0 -0.8587368124 0.5060689899
1900288600.0 -0.850824924 0.5190468019
1950288300.0 -0.8428170464 0.531875182
2000288000.0 -0.8354002221 0.5430889788
2050287700.0 -0.827116463 0.5556486766
2100287400.0 -0.8192867282 0.5670614372
2150287100.0 -0.8106565287 0.5792765184
2200286800.0 -0.8028593763 0.5894539164
2250286500.0 -0.7941637939 0.601589381
2300286200.0 -0.7850833159 0.6130838208
2350285900.0 -0.7764725777 0.6240682422
2400285600.0 -0.7676884783 0.6351450884
2450285300.0 -0.7589249812 0.6453843836
2500285000.0 -0.7491157886 0.6568088386
2550284700.0 -0.7402525306 0.6670027941
2600284400.0 -0.7307019247 0.6773369469
2650284100.0 -0.7218909144 0.6877509804
2700283800.0 -0.7115094587 0.6983986585
2750283500.0 -0.7009640599 0.7087150997
2800283200.0 -0.691209537 0.7186052982
2850282900.0 -0.6812601044 0.7285832301
2900282600.0 -0.6707144555 0.738168802
2950282300.0 -0.6604068927 0.7474637846
3000282000.0 -0.6496177657 0.7568497873
3050281700.0 -0.6386501943 0.7659374587
3100281400.0 -0.6266275673 0.7753229918
3150281100.0 -0.614889029 0.7846777955
3200280800.0 -0.6033810796 0.7931739063
3250280500.0 -0.592353562 0.8010076893
3300280200.0 -0.5812775897 0.8088361072
3350279900.0 -0.5694744822 0.8162959291
3400279600.0 -0.557254159 0.8240777435
3450279300.0 -0.5462489443 0.8312390525
3500279000.0 -0.5344635561 0.8383125019
3550278700.0 -0.5219443232 0.8457598325
3600278400.0 -0.5097950494 0.85254647
3650278100.0 -0.4964805917 0.8601930732
3700277800.0 -0.4844053496 0.8668163158
3750277500.0 -0.4720752342 0.8734752943
3800277200.0 -0.4597741968 0.879886736
3850276900.0 -0.4478522488 0.885665428
3900276600.0 -0.4366751408 0.8914369387
3950276300.0 -0.4244884824 0.8975843602
4000276000.0 -0.412531995 0.9036239116
4050275700.0 -0.3995926615 0.9095198574
4100275400.0 -0.3885483265 0.915051122
4150275100.0 -0.375825583 0.9207148452
4200274800.0 -0.3626267454 0.9263809925
4250274500.0 -0.3505262365 0.9314292779
4300274200.0 -0.3375262113 0.9366905871
4350273900.0 -0.3235524327 0.9417021582
4400273600.0 -0.3087591544 0.9473430701
4450273300.0 -0.2933558347 0.952280037
4500273000.0 -0.2799116299 0.9567021588
4550272700.0 -0.2659486516 0.9608002058
4600272400.0 -0.2503250211 0.9651579972
4650272100.0 -0.2387390567 0.9683868103
4700271800.0 -0.2253276565 0.9717388236
4750271500.0 -0.2136603168 0.9744377618
4800271200.0 -0.2012808663 0.9772288819
4850270900.0 -0.1872029437 0.9801474731
4900270600.0 -0.1733310531 0.9825033786
4950270300.0 -0.1590775923 0.9848492686
5000270000.0 -0.1447282634 0.9869787873
5050269700.0 -0.1311992372 0.9888430095
5100269400.0 -0.1175771464 0.9905143376
5150269100.0 -0.1043098721 0.9920621326
5200268800.0 -0.0909688978 0.9929549288
5250268500.0 -0.0781282991 0.9939760576
5300268200.0 -0.0648881043 0.9942805965
5350267900.0 -0.052443717 0.9949399518
5400267600.0 -0.0363088731 0.9963430552
5450267300.0 -0.0232226957 0.9968025041
5500267000.0 -0.008041502 0.9970868842
5550266700.0 0.0068764457 0.9972112412
5600266400.0 0.0223769159 0.9971747558
5650266100.0 0.039126664 0.9971281954
5700265800.0 0.0534157912 0.9962130969
5750265500.0 0.0684532512 0.9954073854
5800265200.0 0.0824999737 0.9943497776
5850264900.0 0.0959665264 0.9935007016
5900264600.0 0.1120964363 0.9918802921
5950264300.0 0.1244951294 0.9900977288
6000264000.0 0.138627145 0.9885512023
6050263700.0 0.1507800281 0.9865899838
6100263400.0 0.1631651601 0.9851411966
6150263100.0 0.1776353914 0.9823653397
6200262800.0 0.1880838304 0.9810665376
6250262500.0 0.2008600606 0.9784940147
6300262200.0 0.2135007488 0.9757541588
6350261900.0 0.2266831575 0.9729007694
6400261600.0 0.2405029101 0.9695929118
6450261300.0 0.2517475936 0.9668937159
6500261000.0 0.2646547987 0.9634414185
6550260700.0 0.2776424302 0.9595152197
6600260400.0 0.2910213009 0.9553345079
6650260100.0 0.3047443222 0.9509301227
6700259800.0 0.3171888483 0.946835848
6750259500.0 0.3307103349 0.9416691977
6800259200.0 0.3438084172 0.9367306054
6850258900.0 0.356096185 0.9318611258
6900258600.0 0.3680894823 0.9264679724
6950258300.0 0.3806964517 0.9214114638
7000258000.0 0.3924979501 0.9158764084
7050257700.0 0.4049281556 0.9097789701
7100257400.0 0.4176907288 0.9036299949
7150257100.0 0.4279635657 0.8983161839
7200256800.0 0.4407792805 0.8919163117
7250256500.0 0.4527710032 0.8855958097
7300256200.0 0.4657187936 0.8788111172
7350255900.0 0.4781475358 0.8717609851
7400255600.0 0.4916703 0.8646641377
7450255300.0 0.5070891423 0.8558197753
7500255000.0 0.5189466161 0.8485458237
7550254700.0 0.5326119833 0.8399786888
7600254400.0 0.5447859531 0.8316538149
7650254100.0 0.5566608763 0.8239350581
7700253800.0 0.5683858881 0.8160263255
7750253500.0 0.5797142871 0.8081614216
7800253200.0 0.590450742 0.8005046823
7850252900.0 0.5999307558 0.7934587247
7900252600.0 0.6117653064 0.7848153097
7950252300.0 0.6204957585 0.7782118266
8000252000.0 0.6304658498 0.7706321273
8050251700.0 0.6412839624 0.7623302518
8100251400.0 0.6511143959 0.754251596
8150251100.0 0.661271027 0.7457101075
8200250800.0 0.6703285694 0.737545322
8250250500.0 0.6796955612 0.7298552283
8300250200.0 0.6895561046 0.7211860972
8350249900.0 0.6979399114 0.7124579301
8400249600.0 0.7062264414 0.7042529114
8450249300.0 0.715325026 0.6952112087
8500249000.0 0.7240051317 0.6862815712
8550248700.0 0.7323606276 0.6773714958
8600248400.0 0.7406351114 0.6676377913
8650248100.0 0.7483802805 0.6584251215
8700247800.0 0.7580754058 0.6469006056
8750247500.0 0.766233985 0.6369051726
8800247200.0 0.7742053765 0.6266869209
8850246900.0 0.7829185102 0.6153142844
8900246600.0 0.7916614168 0.6041423402
8950246300.0 0.8013122369 0.5909884644
9000246000.0 0.8101594583 0.5783466654
9050245700.0 0.8190862865 0.5655070095
9100245400.0 0.8280935683 0.5527175974
9150245100.0 0.8374002486 0.539130324
9200244800.0 0.8470944438 0.5239223518
9250244500.0 0.856344581 0.5087134013
9300244200.0 0.8649927872 0.4942298332
9350243900.0 0.8727917035 0.4803078445
9400243600.0 0.8793851345 0.4680685934
9450243300.0 0.8852563221 0.4564064284
9500243000.0 0.8915834146 0.4443304839
9550242700.0 0.8952023575 0.4366675172
9600242400.0 0.8989298045 0.4293575678
9650242100.0 0.9031081612 0.4228835787
9700241800.0 0.9076975841 0.4145274686
9750241500.0 0.911469403 0.4070136148
9800241200.0 0.9163939493 0.3978424204
9850240900.0 0.9219588468 0.386179248
9900240600.0 0.927752752 0.3745343308
9950240300.0 0.9341700339 0.358482226
10000240000.0 0.9385789654 0.3470714763
10050239700.0 0.9449577921 0.3309872066
10100239400.0 0.9495466271 0.3157557505
10150239100.0 0.9539745973 0.3012211637
10200238800.0 0.9580210733 0.2862547936
10250238500.0 0.9612290642 0.2726353756
10300238200.0 0.9646770357 0.2589571628
10350237900.0 0.9673234281 0.2457483304
10400237600.0 0.9698512641 0.2326140824
10450237300.0 0.9724796924 0.2187244023
10500237000.0 0.9747113558 0.2061088213
10550236700.0 0.9770410196 0.1924643203
10600236400.0 0.9792686819 0.1783456366
10650236100.0 0.9811656643 0.1641196668
10700235800.0 0.9840582036 0.1515819842
10750235500.0 0.9857060912 0.1385294802
10800235200.0 0.9876310843 0.1245378851
10850234900.0 0.9893801762 0.1099086361
10900234600.0 0.9918606288 0.0952158483
10950234300.0 0.9936477105 0.0818411821
11000234000.0 0.9952710471 0.066967327
11050233700.0 0.9970855534 0.0504897517
11100233400.0 0.9984041225 0.0330702903
11150233100.0 0.9995655776 0.0166937766
11200232800.0 1.000098283 0.0014655242
11250232500.0 1.001095743 -0.0147135392
11300232200.0 1.00162768 -0.0326719024
11350231900.0 1.00212038 -0.0491813778
11400231600.0 1.001816976 -0.063436859
11450231300.0 1.000527776 -0.0784888482
11500231000.0 1.000178859 -0.0958504356
11550230700.0 0.998472223 -0.1088210344
11600230400.0 0.997265764 -0.121956396
11650230100.0 0.9951190258 -0.1324842785
11700229800.0 0.9932055977 -0.1476425636
11750229500.0 0.9907794954 -0.1626050126
11800229200.0 0.9881401059 -0.1761103342
11850228900.0 0.9846333477 -0.1881128676
11900228600.0 0.980999933 -0.1979307311
11950228300.0 0.9780519731 -0.2082492115
12000228000.0 0.9746880171 -0.2178727295
12050227700.0 0.9717129382 -0.230055695
12100227400.0 0.9684262789 -0.2411350067
12150227100.0 0.963360937 -0.2586511219
12200226800.0 0.9600311671 -0.2684732066
12250226500.0 0.9556139586 -0.2818707953
12300226200.0 0.9509321223 -0.2944976571
12350225900.0 0.9464041159 -0.3078920154
12400225600.0 0.9422640626 -0.3209068176
12450225300.0 0.9381921476 -0.3335317093
12500225000.0 0.9325210387 -0.3483632428
12550224700.0 0.9271850419 -0.3620215573
12600224400.0 0.9222330332 -0.3748903852
12650224100.0 0.9163993699 -0.3894364246
12700223800.0 0.9111096621 -0.402348412
12750223500.0 0.90551778 -0.4152921079
12800223200.0 0.9000473112 -0.4281535991
12850222900.0 0.894837555 -0.4400800382
12900222600.0 0.8891862207 -0.4521258749
12950222300.0 0.8828388409 -0.4653183815
13000222000.0 0.8767600905 -0.4765059756
13050221700.0 0.870017182 -0.4891899503
13100221400.0 0.8633592121 -0.5010962861
13150221100.0 0.857001391 -0.5129966896
13200220800.0 0.8499897998 -0.5250467868
13250220500.0 0.8425975959 -0.536827969
13300220200.0 0.8352326732 -0.5476035444
13350219900.0 0.827236388 -0.5594366109
13400219600.0 0.818898687 -0.5715940347
13450219300.0 0.8094493774 -0.5850001434
13500219000.0 0.7988884523 -0.5989981962
13550218700.0 0.7890394846 -0.6117968427
13600218400.0 0.7787632008 -0.6237486275
13650218100.0 0.7699227705 -0.6348888289
13700217800.0 0.75867277 -0.6468935033
13750217500.0 0.7486686343 -0.6585519632
13800217200.0 0.7378849763 -0.6700361405
13850216900.0 0.7259792437 -0.6812985736
13900216600.0 0.7158849155 -0.6907996281
13950216300.0 0.7061440817 -0.7008614613
14000216000.0 0.6953511891 -0.7102750631
14050215700.0 0.6859745305 -0.7182056656
14100215400.0 0.6759420848 -0.727823108
14150215100.0 0.666973699 -0.7362625556
14200214800.0 0.6575869167 -0.7448544459
14250214500.0 0.6472916973 -0.7543023442
14300214200.0 0.6369190925 -0.7637262308
14350213900.0 0.6258763821 -0.7731864049
14400213600.0 0.6138216362 -0.7827341264
14450213300.0 0.6005850554 -0.7935804038
14500213000.0 0.5879807199 -0.8030019081
14550212700.0 0.5752145187 -0.8123402472
14600212400.0 0.5631996642 -0.8213222322
14650212100.0 0.5498638068 -0.8304340782
14700211800.0 0.5359891141 -0.839282652
14750211500.0 0.5240713206 -0.8477427538
14800211200.0 0.5118235721 -0.8559024873
14850210900.0 0.4996111159 -0.8634147342
14900210600.0 0.4862859521 -0.8711369449
14950210300.0 0.4727573034 -0.878778876
15000210000.0 0.4602002555 -0.8855827239
15050209700.0 0.4477126653 -0.8918356679
15100209400.0 0.4352421782 -0.8976001085
15150209100.0 0.4229756005 -0.9030120031
15200208800.0 0.4102314051 -0.9086375466
15250208500.0 0.3985355005 -0.9128287375
15300208200.0 0.3872030278 -0.9176927763
15350207900.0 0.3731811819 -0.9226420452
15400207600.0 0.3591242328 -0.9277941259
15450207300.0 0.3442051266 -0.9330212268
15500207000.0 0.3297156459 -0.9376505458
15550206700.0 0.3147132554 -0.9428582042
15600206400.0 0.2994728393 -0.9468003252
15650206100.0 0.2830076664 -0.9513777612
15700205800.0 0.26932979 -0.9553371329
15750205500.0 0.2548116756 -0.9587073191
15800205200.0 0.2404335729 -0.9619548615
15850204900.0 0.2259724721 -0.9655540095
15900204600.0 0.2107782259 -0.9692149878
15950204300.0 0.1969375267 -0.9719938056
16000204000.0 0.1825921364 -0.9747760137
16050203700.0 0.1676003466 -0.9779449078
16100203400.0 0.1530674056 -0.9797881427
16150203100.0 0.1387896704 -0.9824059321
16200202800.0 0.1247949888 -0.9842463926
16250202500.0 0.1095497356 -0.9864065065
16300202200.0 0.0942203812 -0.9878322367
16350201900.0 0.0793284078 -0.9891188931
16400201600.0 0.064778601 -0.9903127227
16450201300.0 0.04959726 -0.9914218302
16500201000.0 0.0328604877 -0.9921039364
16550200700.0 0.0171139562 -0.9925563704
16600200400.0 0.0014920707 -0.9926877409
16650200100.0 -0.0145007452 -0.9926706536
16700199800.0 -0.0308069155 -0.9921807609
16750199500.0 -0.0499878418 -0.991845428
16800199200.0 -0.0654253272 -0.9910485947
16850198900.0 -0.0804169634 -0.9901965091
16900198600.0 -0.0937420252 -0.9889440242
16950198300.0 -0.1078217083 -0.9878774744
17000198000.0 -0.120734857 -0.9864741768
17050197700.0 -0.1335253978 -0.983704538
17100197400.0 -0.1456337983 -0.9828663987
17150197100.0 -0.1588400196 -0.9806100718
17200196800.0 -0.1713916877 -0.9780481047
17250196500.0 -0.1847265605 -0.9759158345
17300196200.0 -0.1969090009 -0.9736039518
17350195900.0 -0.208559418 -0.9713497324
17400195600.0 -0.2208389943 -0.9688136895
17450195300.0 -0.2339020317 -0.9659920403
17500195000.0 -0.2474507329 -0.9628325049
17550194700.0 -0.2615330739 -0.9591214464
17600194400.0 -0.2751991648 -0.9552631544
17650194100.0 -0.2890739677 -0.9509279021
17700193800.0 -0.3018357124 -0.9468079167
17750193500.0 -0.3166077111 -0.9422759687
17800193200.0 -0.3309733952 -0.9371802618
17850192900.0 -0.346194866 -0.9317400474
17900192600.0 -0.3611935879 -0.9254408345
17950192300.0 -0.3767773313 -0.9182521841
18000192000.0 -0.3912681961 -0.9111550613
18050191700.0 -0.4054162522 -0.9032947671
18100191400.0 -0.4195158626 -0.8956479943
18150191100.0 -0.4345665408 -0.8876297459
18200190800.0 -0.4514243799 -0.8784478767
18250190500.0 -0.4684397475 -0.8689198067
18300190200.0 -0.4836188002 -0.8605408466
18350189900.0 -0.4990668944 -0.8521851328
18400189600.0 -0.5131503063 -0.8439700796
18450189300.0 -0.5265724078 -0.8356790589
18500189000.0 -0.5398599798 -0.8277517855
18550188700.0 -0.5526474943 -0.8203150063
18600188400.0 -0.5644594425 -0.8133698989
18650188100.0 -0.5753413584 -0.8069955669
18700187800.0 -0.5864557415 -0.8005702718
18750187500.0 -0.596666678 -0.7939708211
18800187200.0 -0.607181104 -0.7869727018
18850186900.0 -0.6175799503 -0.7800566639
18900186600.0 -0.627777598 -0.7726703082
18950186300.0 -0.6375213796 -0.7651707474
19000186000.0 -0.6449478018 -0.7586695471
19050185700.0 -0.6543249098 -0.7518055172
19100185400.0 -0.6642986764 -0.7437324331
19150185100.0 -0.6744835007 -0.7349912739
19200184800.0 -0.6831576387 -0.726336203
19250184500.0 -0.6939522021 -0.7172887541
19300184200.0 -0.7053513315 -0.7075499869
19350183900.0 -0.7162463607 -0.6980818196
19400183600.0 -0.7258236194 -0.6882282492
19450183300.0 -0.7351048687 -0.6782110655
19500183000.0 -0.7433605325 -0.6678389143
19550182700.0 -0.7527231158 -0.6568700577
19600182400.0 -0.7632622672 -0.6457776332
19650182100.0 -0.7742313446 -0.6329815547
19700181800.0 -0.7848037263 -0.6197173249
19750181500.0 -0.7955931158 -0.6056774086
19800181200.0 -0.8057052861 -0.5906987164
19850180900.0 -0.8154983162 -0.5754123333
19900180600.0 -0.8232579761 -0.5607436376
19950180300.0 -0.8325908192 -0.5444795084
20000180000.0 -0.8254515361 -0.5461148969
20050179700.0 -0.8342849819 -0.5332403902
20100179400.0 -0.8419470307 -0.5192942863
20150179100.0 -0.8508292357 -0.5069687121
20200178800.0 -0.8591142784 -0.4947987307
20250178500.0 -0.8690595218 -0.4806265732
20300178200.0 -0.8789415807 -0.4666073676
20350177900.0 -0.8878320492 -0.4520894413
20400177600.0 -0.8967953156 -0.4376657229
20450177300.0 -0.9048838608 -0.4234368473
20500177000.0 -0.9127261349 -0.4096772463
20550176700.0 -0.9210124994 -0.3959776482
20600176400.0 -0.9278369555 -0.3829279898
20650176100.0 -0.9345988828 -0.370361398
20700175800.0 -0.940650928 -0.3586109002
20750175500.0 -0.9477440045 -0.347669207
20800175200.0 -0.9520298614 -0.336781425
20850174900.0 -0.9569144158 -0.32599769
20900174600.0 -0.9619464928 -0.3140123254
20950174300.0 -0.9651414737 -0.3015705259
21000174000.0 -0.9690334203 -0.2913761912
21050173700.0 -0.9719362919 -0.2803805129
21100173400.0 -0.9761287638 -0.2688269447
21150173100.0 -0.9799016709 -0.2560965695
21200172800.0 -0.9834822443 -0.2425335241
21250172500.0 -0.9865101643 -0.2287317067
21300172200.0 -0.9895154434 -0.2142591966
21350171900.0 -0.990869451 -0.1999462797
21400171600.0 -0.9923062159 -0.1862704858
21450171300.0 -0.9929470524 -0.1720821277
21500171000.0 -0.9928626453 -0.1562515993
21550170700.0 -0.9928302847 -0.1405549932
21600170400.0 -0.9928542657 -0.124477204
21650170100.0 -0.9918569968 -0.1087477412
21700169800.0 -0.990345143 -0.0938003889
21750169500.0 -0.9889823623 -0.0784176355
21800169200.0 -0.9883288509 -0.0616562269
21850168900.0 -0.9873001729 -0.0445077855
21900168600.0 -0.9867882363 -0.0282195224
21950168300.0 -0.9849100103 -0.0130014705
22000168000.0 -0.9840615101 0.0024776107
22050167700.0 -0.9838043777 0.0166473122
22100167400.0 -0.9838316933 0.0319821896
22150167100.0 -0.9845931591 0.0479362151
22200166800.0 -0.9850385809 0.0636671004
22250166500.0 -0.984530535 0.0810449985
22300166200.0 -0.9841469772 0.0970907393
22350165900.0 -0.9826678373 0.1139968515
22400165600.0 -0.9804990661 0.1295306306
22450165300.0 -0.9784346326 0.1448105161
22500165000.0 -0.9766591151 0.1574290472
22550164700.0 -0.9764032226 0.1740298541
22600164400.0 -0.9749641713 0.1893145526
22650164100.0 -0.971364509 0.203575257
22700163800.0 -0.969518081 0.2193875539
22750163500.0 -0.966603945 0.2355461853
22800163200.0 -0.9639947873 0.2478799731
22850162900.0 -0.9615791782 0.2617016813
22900162600.0 -0.9598891507 0.2748846351
22950162300.0 -0.9585947394 0.2878490902
23000162000.0 -0.9575206843 0.2998795318
23050161700.0 -0.955546186 0.3118412642
23100161400.0 -0.9530381603 0.3251277085
23150161100.0 -0.9505029863 0.3376866808
23200160800.0 -0.9471738615 0.3503475902
23250160500.0 -0.9447034027 0.3618424126
23300160200.0 -0.9423332544 0.3748635427
23350159900.0 -0.938817688 0.3863116294
23400159600.0 -0.9336337145 0.3997236597
23450159300.0 -0.9285775488 0.4132881595
23500159000.0 -0.9245255947 0.4263760576
23550158700.0 -0.9198889603 0.4397800293
23600158400.0 -0.914558897 0.4531144607
23650158100.0 -0.9083048432 0.4672466634
23700157800.0 -0.9005568167 0.4809621273
23750157500.0 -0.8920653042 0.495074174
23800157200.0 -0.882858393 0.508508012
23850156900.0 -0.8742362531 0.5210140039
23900156600.0 -0.8651993959 0.5337782368
23950156300.0 -0.8558704966 0.5458829434
24000156000.0 -0.8472843107 0.5579829369
24050155700.0 -0.8370462209 0.5699734974
24100155400.0 -0.8266104241 0.5821473297
24150155100.0 -0.8168233124 0.5941876177
24200154800.0 -0.8056571722 0.6041661972
24250154500.0 -0.7939290104 0.6165468164
24300154200.0 -0.7826718255 0.6286038931
24350153900.0 -0.7710770078 0.6388406172
24400153600.0 -0.7584317824 0.6490293162
24450153300.0 -0.7465552292 0.6588094691
24500153000.0 -0.7353432861 0.6683218224
24550152700.0 -0.7245301844 0.6784927521
24600152400.0 -0.7122748618 0.6872553389
24650152100.0 -0.7002549601 0.695822016
