!Created with skrf (http://scikit-rf.org).
# Hz S RI R 50.0 
!freq ReS11 ImS11
300000.0 -0.9787747551 -0.1083366809
50299700.0 -0.9999383227 0.0159210385
100299400.0 -0.9979520515 0.028994809
150299100.0 -1.002765242 0.0458498483
200298800.0 -0.9997524587 0.0591423416
250298500.0 -0.997406704 0.0726869577
300298200.0 -0.9858827398 0.0882025302
350297900.0 -0.9940323958 0.0993875441
400297600.0 -0.9932237326 0.1158604772
450297300.0 -0.9910642816 0.129677767
500297000.0 -0.9894956762 0.1443890686
550296700.0 -0.9842859597 0.1566800048
600296400.0 -1.017292746 0.190386378
650296100.0 -0.9820825331 0.186910886
700295800.0 -0.9792557763 0.2011499769
750295500.0 -0.9761119736 0.2149459001
800295200.0 -0.9728629248 0.2293564019
850294900.0 -0.9694906696 0.2430669873
900294600.0 -0.9657294597 0.2566888712
950294300.0 -0.961819454 0.2706267778
1000294000.0 -0.9580002318 0.2846406176
1050293700.0 -0.9534723731 0.298388499
1100293400.0 -0.9488373735 0.3128156073
1150293100.0 -0.9453559506 0.3246701463
1200292800.0 -0.9400544927 0.3390012893
1250292500.0 -0.9344874628 0.352435157
1300292200.0 -0.9287858956 0.3656989689
1350291900.0 -0.923125778 0.3796566618
1400291600.0 -0.9177601995 0.3927176344
1450291300.0 -0.9122554636 0.4051643982
1500291000.0 -0.9059981595 0.4185964792
1550290700.0 -0.8991168414 0.4316955939
1600290400.0 -0.8933216668 0.4446801055
1650290100.0 -0.8864965446 0.4568420321
1700289800.0 -0.8795981411 0.4703635028
1750289500.0 -0.872631548 0.4825955223
1800289200.0 -0.8651426754 0.4953482745
1850288900.0 -0.8584506642 0.5066749203
1900288600.0 -0.850476147 0.5198819612
1950288300.0 -0.8425269167 0.5326287748
2000288000.0 -0.8349458679 0.5437408462
2050287700.0 -0.8266541195 0.5561142513
2100287400.0 -0.8187380086 0.5677705837
2150287100.0 -0.8102327593 0.579718223
2200286800.0 -0.8024792305 0.5902224535
2250286500.0 -0.7935998663 0.6021668897
2300286200.0 -0.7846712961 0.6138764258
2350285900.0 -0.7759641313 0.624750858
2400285600.0 -0.7668735482 0.6358139482
2450285300.0 -0.7581273268 0.6460919856
2500285000.0 -0.7484516321 0.6573913557
2550284700.0 -0.7397333545 0.6676492237
2600284400.0 -0.7299930455 0.6778505637
2650284100.0 -0.7208916363 0.6883370947
2700283800.0 -0.710332029 0.6989320455
2750283500.0 -0.7002371484 0.7093328457
2800283200.0 -0.6902557593 0.7191980003
2850282900.0 -0.6802803983 0.7292156713
2900282600.0 -0.6701501062 0.7387697217
2950282300.0 -0.6596365783 0.7478288117
3000282000.0 -0.6491714543 0.7572762025
3050281700.0 -0.6378683627 0.7666343204
3100281400.0 -0.6258266387 0.7760405503
3150281100.0 -0.6143235159 0.7854545498
3200280800.0 -0.6025115988 0.7940328095
3250280500.0 -0.591872189 0.8015051194
3300280200.0 -0.5805962305 0.8092848035
3350279900.0 -0.5691408312 0.817066619
3400279600.0 -0.5570300614 0.8246578287
3450279300.0 -0.5459038916 0.8315998914
3500279000.0 -0.5339649705 0.8387811188
3550278700.0 -0.5213467212 0.8461265024
3600278400.0 -0.5089178029 0.8532395688
3650278100.0 -0.4958100877 0.8609403863
3700277800.0 -0.4836617139 0.8676409129
3750277500.0 -0.4717020394 0.8739180252
3800277200.0 -0.4589784555 0.880202691
3850276900.0 -0.4470425133 0.8862387297
3900276600.0 -0.4359862615 0.8918074012
3950276300.0 -0.4234409466 0.8980200285
4000276000.0 -0.4113209872 0.9040278764
4050275700.0 -0.3985152506 0.9100293952
4100275400.0 -0.3873762275 0.915366884
4150275100.0 -0.3743390466 0.9211702016
4200274800.0 -0.3615689844 0.9266815601
4250274500.0 -0.3493077357 0.9314921036
4300274200.0 -0.3363339965 0.9370954072
4350273900.0 -0.3224604217 0.9421569658
4400273600.0 -0.307676739 0.9474572105
4450273300.0 -0.2921853731 0.9526981835
4500273000.0 -0.2786386382 0.9570637367
4550272700.0 -0.2644807731 0.9611541055
4600272400.0 -0.2488920746 0.965237709
4650272100.0 -0.237296438 0.968437467
4700271800.0 -0.2237844414 0.9718473253
4750271500.0 -0.2122338118 0.9746805417
4800271200.0 -0.1996277092 0.9774217358
4850270900.0 -0.1856951542 0.9802572397
4900270600.0 -0.1717742079 0.9826890291
4950270300.0 -0.1576197594 0.9852364095
5000270000.0 -0.1432634969 0.9871843938
5050269700.0 -0.1301372013 0.9889776987
5100269400.0 -0.1165384403 0.9908732992
5150269100.0 -0.1032008259 0.9920426212
5200268800.0 -0.0898481945 0.9933458616
5250268500.0 -0.0771088377 0.9940947213
5300268200.0 -0.0639547806 0.9952884725
5350267900.0 -0.0517236385 0.9952731534
5400267600.0 -0.0353603308 0.9963509943
5450267300.0 -0.0224225594 0.9967792565
5500267000.0 -0.0072153924 0.997070933
5550266700.0 0.0076856569 0.9974311555
5600266400.0 0.0233758242 0.9974660278
5650266100.0 0.0397235946 0.9968715952
5700265800.0 0.0543460311 0.9960787703
5750265500.0 0.0694543258 0.995245252
5800265200.0 0.0832133795 0.9940274008
5850264900.0 0.0967979246 0.9930247461
5900264600.0 0.1136945196 0.9916354468
5950264300.0 0.1258072559 0.9900864295
6000264000.0 0.1394167198 0.9878024018
6050263700.0 0.1518806652 0.9865718616
6100263400.0 0.1648083011 0.9849748678
6150263100.0 0.178961168 0.982064875
6200262800.0 0.1895686948 0.9805030433
6250262500.0 0.2024058347 0.9780542154
6300262200.0 0.2151613912 0.9752137623
6350261900.0 0.2284019636 0.9721283175
6400261600.0 0.2422206763 0.9691163571
6450261300.0 0.253444825 0.9661777036
6500261000.0 0.2662665287 0.9627476436
6550260700.0 0.2793814482 0.9589866554
6600260400.0 0.2924954438 0.954811653
6650260100.0 0.30649846 0.9504083963
6700259800.0 0.3186053848 0.9460683788
6750259500.0 0.3322785846 0.9411771163
6800259200.0 0.3453107409 0.9362053073
6850258900.0 0.3572455676 0.931007107
6900258600.0 0.3693075199 0.9261591994
6950258300.0 0.3818584316 0.9207737115
7000258000.0 0.393774029 0.9153377267
7050257700.0 0.406188066 0.9093951009
7100257400.0 0.4189510527 0.9031132046
7150257100.0 0.4290703839 0.897698696
7200256800.0 0.4422155843 0.8914201114
7250256500.0 0.4537350904 0.8851766399
7300256200.0 0.4665541247 0.878251443
7350255900.0 0.479380835 0.8714028633
7400255600.0 0.4925189962 0.8641000777
7450255300.0 0.5075097697 0.8552936501
7500255000.0 0.5192513223 0.8483096505
7550254700.0 0.5328607538 0.8396777483
7600254400.0 0.5461225091 0.8311680854
7650254100.0 0.557262148 0.8235212733
7700253800.0 0.5691380032 0.8153339224
7750253500.0 0.5801980258 0.8077442944
7800253200.0 0.5910238085 0.7998221743
7850252900.0 0.6009359008 0.7928131011
7900252600.0 0.6125851979 0.7840158957
7950252300.0 0.6214844349 0.7773771803
8000252000.0 0.6314884159 0.7696436637
8050251700.0 0.6420218662 0.7614233079
8100251400.0 0.65208272 0.753223868
8150251100.0 0.6625557959 0.7444342032
8200250800.0 0.6715575386 0.7364895554
8250250500.0 0.6805763817 0.7286145883
8300250200.0 0.6900968059 0.719949025
8350249900.0 0.6991822322 0.7114936089
8400249600.0 0.7070480989 0.7032974275
8450249300.0 0.7164792947 0.6939201978
8500249000.0 0.7252780957 0.6850745816
8550248700.0 0.7330949632 0.6760722788
8600248400.0 0.741725418 0.6665197075
8650248100.0 0.7495626992 0.6572945515
8700247800.0 0.7589363082 0.6459503592
8750247500.0 0.7672463102 0.635984968
8800247200.0 0.7751434731 0.6257104329
8850246900.0 0.7843190417 0.6142979491
8900246600.0 0.7925893667 0.6031043601
8950246300.0 0.8021876727 0.5898811878
9000246000.0 0.8113640591 0.5771712632
9050245700.0 0.820324348 0.5640671877
9100245400.0 0.8294021713 0.5516562244
9150245100.0 0.8385843603 0.5377530731
9200244800.0 0.8481632117 0.5226508652
9250244500.0 0.8577653482 0.5071213693
9300244200.0 0.8662425716 0.492427008
9350243900.0 0.8740006657 0.4783725606
9400243600.0 0.8804604852 0.4658539988
9450243300.0 0.8864214196 0.4541613623
9500243000.0 0.8927942278 0.4418782578
9550242700.0 0.8968078446 0.4338505061
9600242400.0 0.9004616222 0.4267490285
9650242100.0 0.9041532476 0.4201640047
9700241800.0 0.9088522712 0.4117836274
9750241500.0 0.9128068849 0.40413144
9800241200.0 0.9171681786 0.3952799971
9850240900.0 0.9227887895 0.3834588095
9900240600.0 0.9283387524 0.3718236333
9950240300.0 0.9350911316 0.3557312985
10000240000.0 0.9399422387 0.3442952013
10050239700.0 0.9454361677 0.3291482935
10100239400.0 0.9500840754 0.3136137369
10150239100.0 0.9545997157 0.2990215386
10200238800.0 0.9585513785 0.2840694059
10250238500.0 0.961704076 0.270771277
10300238200.0 0.9649038103 0.2568082667
10350237900.0 0.9675580759 0.2439589675
10400237600.0 0.9701895401 0.2304524892
10450237300.0 0.9726666274 0.2170430952
10500237000.0 0.974961185 0.2047915206
10550236700.0 0.9774218805 0.1908297002
10600236400.0 0.979115826 0.1776560021
10650236100.0 0.9814608091 0.1626816954
10700235800.0 0.9838571908 0.1505965131
10750235500.0 0.9863224574 0.1368449877
10800235200.0 0.9878633574 0.1234055221
10850234900.0 0.9898947339 0.1087249198
10900234600.0 0.9917452166 0.0942649385
10950234300.0 0.9934541267 0.0810016232
11000234000.0 0.9952172637 0.0660904352
11050233700.0 0.9970753458 0.049591042
11100233400.0 0.9983735334 0.0322823642
11150233100.0 0.9993129087 0.0164539059
11200232800.0 1.000042061 0.0009091322
11250232500.0 1.001212939 -0.015593364
11300232200.0 1.001162628 -0.0332146866
11350231900.0 1.001547208 -0.0495379316
11400231600.0 1.001702154 -0.0647567712
11450231300.0 1.000736775 -0.0809100107
11500231000.0 0.9990690341 -0.0966092521
11550230700.0 0.9983935632 -0.1104763011
11600230400.0 0.9963799211 -0.1231085706
11650230100.0 0.9946314939 -0.135003655
11700229800.0 0.9926165572 -0.149614646
11750229500.0 0.9902416786 -0.1642796397
11800229200.0 0.9875159792 -0.178228263
11850228900.0 0.9839647653 -0.1903015328
11900228600.0 0.980348289 -0.2002766237
11950228300.0 0.977562007 -0.2101280516
12000228000.0 0.9744829577 -0.2196811805
12050227700.0 0.9707072987 -0.2322524447
12100227400.0 0.9675464715 -0.2433260079
12150227100.0 0.9625525636 -0.2600127187
12200226800.0 0.9582052187 -0.2715084041
12250226500.0 0.9556380384 -0.2833088513
12300226200.0 0.9511181843 -0.2956543107
12350225900.0 0.9461749062 -0.3090742136
12400225600.0 0.9422254271 -0.3222699952
12450225300.0 0.9375193918 -0.335189446
12500225000.0 0.9316154383 -0.349983332
12550224700.0 0.9266290146 -0.3636686851
12600224400.0 0.9216742502 -0.3758639123
12650224100.0 0.9159051944 -0.3901651873
12700223800.0 0.9106721848 -0.4029733351
12750223500.0 0.9052070667 -0.4159325441
12800223200.0 0.9000714836 -0.4283790601
12850222900.0 0.8947739458 -0.4406393165
12900222600.0 0.8887988434 -0.4522711324
12950222300.0 0.8823769763 -0.4660100479
13000222000.0 0.8764269629 -0.4770070967
13050221700.0 0.8698418617 -0.489541084
13100221400.0 0.8630731422 -0.5016905822
13150221100.0 0.8561456649 -0.5137494923
13200220800.0 0.8489042856 -0.525755081
13250220500.0 0.8417563366 -0.5376051319
13300220200.0 0.8343589518 -0.5486202261
13350219900.0 0.8262835262 -0.5606515716
13400219600.0 0.8177721788 -0.5729997141
13450219300.0 0.8081304148 -0.5864892494
13500219000.0 0.798176039 -0.6005640061
13550218700.0 0.7872617429 -0.6137708495
13600218400.0 0.7774163882 -0.6257686483
13650218100.0 0.7684292394 -0.6367005889
13700217800.0 0.7561716694 -0.6490389944
13750217500.0 0.7463158828 -0.6608320936
13800217200.0 0.7357028013 -0.6726342093
13850216900.0 0.7239071242 -0.6838648506
13900216600.0 0.7144162921 -0.6931980588
13950216300.0 0.7036342113 -0.7032082768
14000216000.0 0.6936534987 -0.7119870932
14050215700.0 0.6838158701 -0.7203089766
14100215400.0 0.6739378038 -0.7293586866
14150215100.0 0.665115217 -0.7377679631
14200214800.0 0.6557851324 -0.7463688599
14250214500.0 0.6455018372 -0.7557822111
14300214200.0 0.6354077524 -0.764876471
14350213900.0 0.6243189645 -0.7742416036
14400213600.0 0.6121407989 -0.7842376723
14450213300.0 0.5993976294 -0.794004942
14500213000.0 0.5860777938 -0.8040787424
14550212700.0 0.574100756 -0.8130718388
14600212400.0 0.5615995799 -0.8218874065
14650212100.0 0.5482830101 -0.8307150388
14700211800.0 0.5345563493 -0.8401265176
14750211500.0 0.5221989875 -0.8484900174
14800211200.0 0.5101811053 -0.8566308302
14850210900.0 0.4978977465 -0.8638887237
14900210600.0 0.4845866715 -0.8720303459
14950210300.0 0.4710442027 -0.8796689153
15000210000.0 0.458107309 -0.8864221795
15050209700.0 0.4461030352 -0.8927409316
15100209400.0 0.4328664801 -0.8984456495
15150209100.0 0.4206094293 -0.9037042051
15200208800.0 0.4076974998 -0.9092255582
15250208500.0 0.396549339 -0.9140174959
15300208200.0 0.3828416939 -0.9187394623
15350207900.0 0.3711113766 -0.9231952321
15400207600.0 0.3556497663 -0.9292514254
15450207300.0 0.3420204239 -0.9334280305
15500207000.0 0.3264200287 -0.9381804074
15550206700.0 0.3120788121 -0.9435809841
15600206400.0 0.2962082784 -0.9481172575
15650206100.0 0.2797716492 -0.9520066503
15700205800.0 0.2657868182 -0.9557261504
15750205500.0 0.2513156379 -0.9595566565
15800205200.0 0.2369024451 -0.9628817612
15850204900.0 0.2228412877 -0.9662011791
15900204600.0 0.2077055639 -0.969726657
15950204300.0 0.1938815197 -0.9726484272
16000204000.0 0.1796209946 -0.9754936243
16050203700.0 0.1653559718 -0.9782127504
16100203400.0 0.1508115546 -0.9802964504
16150203100.0 0.1366126786 -0.9824576261
16200202800.0 0.1225484614 -0.98500769
16250202500.0 0.1073981707 -0.9861924663
16300202200.0 0.0926795242 -0.9878734384
16350201900.0 0.0775883216 -0.9893239489
16400201600.0 0.0631532524 -0.9899123063
16450201300.0 0.0480841338 -0.991152247
16500201000.0 0.0313380001 -0.9919494528
16550200700.0 0.0155818672 -0.9924807996
16600200400.0 -0.0002052825 -0.9926655447
16650200100.0 -0.0162033979 -0.9928075276
16700199800.0 -0.0328947964 -0.9921663573
16750199500.0 -0.0521640796 -0.991500772
16800199200.0 -0.0669517019 -0.9904004421
16850198900.0 -0.0825314375 -0.9895359806
16900198600.0 -0.0967164769 -0.987986828
16950198300.0 -0.1104893255 -0.9867058129
17000198000.0 -0.1235868441 -0.9854930232
17050197700.0 -0.1354728537 -0.9835077476
17100197400.0 -0.1488004918 -0.9818977288
17150197100.0 -0.1620001755 -0.9793847496
17200196800.0 -0.1741118483 -0.9777843356
17250196500.0 -0.1868294035 -0.9751510854
17300196200.0 -0.1994030898 -0.9727609239
17350195900.0 -0.211530252 -0.9704654438
17400195600.0 -0.2233706851 -0.9680336879
17450195300.0 -0.2366541863 -0.9654251114
17500195000.0 -0.2500129631 -0.9620244188
17550194700.0 -0.2638081382 -0.9584951972
17600194400.0 -0.2777544494 -0.9542306952
17650194100.0 -0.291697778 -0.9500234985
17700193800.0 -0.3045926703 -0.9459692977
17750193500.0 -0.318604077 -0.94113355
17800193200.0 -0.3336270006 -0.9364157378
17850192900.0 -0.3479723861 -0.9306359474
17900192600.0 -0.3628875117 -0.9248154605
17950192300.0 -0.3786530752 -0.9175946982
18000192000.0 -0.3933779079 -0.9105167287
18050191700.0 -0.4071146625 -0.9024944213
18100191400.0 -0.4211861001 -0.8948313579
18150191100.0 -0.4362168332 -0.8868818778
18200190800.0 -0.4531584982 -0.8775864204
18250190500.0 -0.4699513853 -0.868183782
18300190200.0 -0.4855055893 -0.8594270797
18350189900.0 -0.500162943 -0.8509491545
18400189600.0 -0.5140427551 -0.8427971004
18450189300.0 -0.5281595844 -0.83477391
18500189000.0 -0.5414045819 -0.8262315142
18550188700.0 -0.5543607021 -0.818607154
18600188400.0 -0.5658370116 -0.811627263
18650188100.0 -0.5768352112 -0.8054273075
18700187800.0 -0.5877400575 -0.7990655118
18750187500.0 -0.5986443675 -0.7920873638
18800187200.0 -0.6090326702 -0.7850657847
18850186900.0 -0.6195562846 -0.7781189058
18900186600.0 -0.6300053706 -0.7704200401
18950186300.0 -0.6402216962 -0.7625138401
19000186000.0 -0.6475954148 -0.7565171467
19050185700.0 -0.6565301258 -0.7491529903
19100185400.0 -0.6665377023 -0.7407438546
19150185100.0 -0.6774116733 -0.7322516004
19200184800.0 -0.6868661798 -0.7231870487
19250184500.0 -0.6968058407 -0.7140904758
19300184200.0 -0.7083793488 -0.7052431832
19350183900.0 -0.7190145837 -0.6950347628
19400183600.0 -0.72927171 -0.6856721231
19450183300.0 -0.7378209781 -0.6751543438
19500183000.0 -0.7462960813 -0.6654534912
19550182700.0 -0.7556615 -0.6542312775
19600182400.0 -0.7655965332 -0.6426422719
19650182100.0 -0.776185008 -0.6304081917
19700181800.0 -0.7871258116 -0.617261876
19750181500.0 -0.7977098309 -0.6035077578
19800181200.0 -0.8076757293 -0.5885617644
19850180900.0 -0.8170835212 -0.5733386141
19900180600.0 -0.8251030375 -0.5587696076
19950180300.0 -0.8339419611 -0.5425594743
20000180000.0 -0.8271025657 -0.5451802801
20050179700.0 -0.8356117781 -0.531959955
20100179400.0 -0.8439406303 -0.5186147975
20150179100.0 -0.8515795326 -0.5056969295
20200178800.0 -0.8606892043 -0.4930468281
20250178500.0 -0.8692334543 -0.478908934
20300178200.0 -0.8792713722 -0.4648958321
20350177900.0 -0.888374656 -0.4504469514
20400177600.0 -0.8971014176 -0.4359152079
20450177300.0 -0.9054737854 -0.4211989807
20500177000.0 -0.9132904548 -0.4074210747
20550176700.0 -0.9209966162 -0.3936968153
20600176400.0 -0.9282928667 -0.3799652216
20650176100.0 -0.9343651018 -0.3684316225
20700175800.0 -0.9413108123 -0.3560112784
20750175500.0 -0.9483033001 -0.3442721265
20800175200.0 -0.9517030936 -0.3336290706
20850174900.0 -0.9578695373 -0.3224886459
20900174600.0 -0.9631232359 -0.3106136371
20950174300.0 -0.9669851026 -0.2987056918
21000174000.0 -0.9700509532 -0.2879634245
21050173700.0 -0.9732312378 -0.2764699219
21100173400.0 -0.9774588698 -0.2646937987
21150173100.0 -0.9813397856 -0.251692802
21200172800.0 -0.9844903274 -0.2380891853
21250172500.0 -0.9881177277 -0.2239516653
21300172200.0 -0.9907049113 -0.2100714907
21350171900.0 -0.9924725973 -0.196120363
21400171600.0 -0.9941742875 -0.1808828531
21450171300.0 -0.9932745073 -0.1675253306
21500171000.0 -0.993913834 -0.1517620516
21550170700.0 -0.9930518775 -0.1365608793
21600170400.0 -0.9937993793 -0.1198931987
21650170100.0 -0.9925355499 -0.1048742758
21700169800.0 -0.9909493478 -0.0901910226
21750169500.0 -0.9891113973 -0.0737097514
21800169200.0 -0.9868944865 -0.0577020335
21850168900.0 -0.986269504 -0.0407329557
21900168600.0 -0.9856228113 -0.0251421053
21950168300.0 -0.9835657406 -0.0097514488
22000168000.0 -0.9825513201 0.0059871619
22050167700.0 -0.9823424532 0.0199972569
22100167400.0 -0.982368864 0.0350100985
22150167100.0 -0.9828567797 0.0510009963
22200166800.0 -0.9831457022 0.0668194811
22250166500.0 -0.9829521938 0.0840465729
22300166200.0 -0.9825018266 0.1009788229
22350165900.0 -0.9805881852 0.1171647872
22400165600.0 -0.9786557788 0.1329010354
22450165300.0 -0.9768469794 0.1476745319
22500165000.0 -0.9740453202 0.161129373
22550164700.0 -0.9741448754 0.1772753496
22600164400.0 -0.972065952 0.1920303886
22650164100.0 -0.9705662658 0.2058351401
22700163800.0 -0.9677958031 0.2230042542
22750163500.0 -0.9651082116 0.2379426901
22800163200.0 -0.9629268459 0.2513853865
22850162900.0 -0.960279876 0.2646959558
22900162600.0 -0.9586696844 0.2780951555
22950162300.0 -0.9574501014 0.2910634533
23000162000.0 -0.9564597554 0.3025579657
23050161700.0 -0.9545357275 0.3151352662
23100161400.0 -0.9514869494 0.3280906999
23150161100.0 -0.9498769044 0.3399920716
23200160800.0 -0.9464099691 0.3522839963
23250160500.0 -0.9439931034 0.3639932134
23300160200.0 -0.9405842161 0.3761225655
23350159900.0 -0.937895537 0.3889489343
23400159600.0 -0.9326405513 0.4023566578
23450159300.0 -0.9272209751 0.415971543
23500159000.0 -0.9230714214 0.4285274774
23550158700.0 -0.9189755836 0.4413492847
23600158400.0 -0.913612745 0.4545524382
23650158100.0 -0.9072050309 0.4684366542
23700157800.0 -0.8998297058 0.4822958788
23750157500.0 -0.8912164507 0.4961554065
23800157200.0 -0.8817914852 0.5093325738
23850156900.0 -0.8733067875 0.5225156255
23900156600.0 -0.8647375638 0.5349010761
23950156300.0 -0.854987421 0.5470319229
24000156000.0 -0.8455242115 0.5588116827
24050155700.0 -0.8352500488 0.5704748524
24100155400.0 -0.8262958523 0.5830923361
24150155100.0 -0.8151947707 0.5942081624
24200154800.0 -0.8040943605 0.6055087021
24250154500.0 -0.7927528983 0.6173068096
24300154200.0 -0.7816709926 0.6290824414
24350153900.0 -0.7695895841 0.6393572393
24400153600.0 -0.7574783357 0.6495648167
24450153300.0 -0.7458522409 0.6597631834
24500153000.0 -0.7341796486 0.669544143
24550152700.0 -0.7225529679 0.6796245902
24600152400.0 -0.7113345494 0.6880210149
24650152100.0 -0.6996747448 0.6968210581
