!Created with skrf (http://scikit-rf.org).
# Hz S RI R 50.0 
!freq ReS11 ImS11
300000.0 -1.003692958 -0.0098751758
50299700.0 -0.9987759759 0.0161669441
100299400.0 -0.9966934367 0.0283981899
150299100.0 -1.001615343 0.0452474197
200298800.0 -0.9982332656 0.0582439882
250298500.0 -0.9960813318 0.0718220095
300298200.0 -0.9845205995 0.0874774385
350297900.0 -0.992328704 0.0980822755
400297600.0 -0.9913377068 0.1144738865
450297300.0 -0.9890893496 0.1281708416
500297000.0 -0.9873346189 0.1426806644
550296700.0 -0.9823020536 0.1548476343
600296400.0 -1.014927362 0.1880613322
650296100.0 -0.9802345362 0.1845730554
700295800.0 -0.976945733 0.198625087
750295500.0 -0.9738533043 0.2122946419
800295200.0 -0.9707342506 0.2263374363
850294900.0 -0.9675249355 0.2400630525
900294600.0 -0.9636805949 0.2534991019
950294300.0 -0.9597452803 0.2670323147
1000294000.0 -0.9561532946 0.2810663371
1050293700.0 -0.9518422734 0.2947501475
1100293400.0 -0.9472750769 0.3090086246
1150293100.0 -0.9438271654 0.320890368
1200292800.0 -0.9384558279 0.3352746531
1250292500.0 -0.9332754685 0.3486168153
1300292200.0 -0.9277939968 0.3617163051
1350291900.0 -0.9224097672 0.3757829197
1400291600.0 -0.9169628888 0.3887440962
1450291300.0 -0.9117205888 0.401119941
1500291000.0 -0.9055604636 0.4144409035
1550290700.0 -0.8992924866 0.4276801589
1600290400.0 -0.8930328149 0.4406032486
1650290100.0 -0.886761255 0.4524704875
1700289800.0 -0.8799089451 0.4660784405
1750289500.0 -0.8730342933 0.4783093517
1800289200.0 -0.8658764918 0.4910009605
1850288900.0 -0.8592798016 0.5023720152
1900288600.0 -0.8518591472 0.5151289725
1950288300.0 -0.8435664006 0.527798984
2000288000.0 -0.8363851138 0.5391817454
2050287700.0 -0.828322392 0.5515594067
2100287400.0 -0.8206408588 0.5630291251
2150287100.0 -0.8118116319 0.5751457431
2200286800.0 -0.8043693836 0.5856727254
2250286500.0 -0.7954058807 0.597421187
2300286200.0 -0.7870144267 0.6088051056
2350285900.0 -0.7783290599 0.6195140066
2400285600.0 -0.7691930094 0.6309661018
2450285300.0 -0.7603932046 0.6416862211
2500285000.0 -0.7510874454 0.652339008
2550284700.0 -0.7420264725 0.6628283428
2600284400.0 -0.7320013428 0.6733900923
2650284100.0 -0.7235024369 0.6833338354
2700283800.0 -0.7132489835 0.693480565
2750283500.0 -0.7031692629 0.7041125646
2800283200.0 -0.6933061209 0.7136905356
2850282900.0 -0.6828499361 0.7237965714
2900282600.0 -0.6725842647 0.7333518291
2950282300.0 -0.6622862541 0.7426291229
3000282000.0 -0.651450159 0.7523636527
3050281700.0 -0.6405581013 0.761277063
3100281400.0 -0.6297349242 0.7702094716
3150281100.0 -0.6190128841 0.7791893581
3200280800.0 -0.6073206166 0.7879362677
3250280500.0 -0.5961217095 0.7962460019
3300280200.0 -0.5845281478 0.8047091697
3350279900.0 -0.5736960934 0.8123518686
3400279600.0 -0.5614944447 0.8204198373
3450279300.0 -0.5502949565 0.8283666823
3500279000.0 -0.5385195317 0.8357048901
3550278700.0 -0.5263405524 0.8433713428
3600278400.0 -0.5152591699 0.850213382
3650278100.0 -0.5022020449 0.8579663574
3700277800.0 -0.4904808188 0.8646446586
3750277500.0 -0.4783921137 0.8714670037
3800277200.0 -0.4658010618 0.8781125496
3850276900.0 -0.4532930892 0.884481133
3900276600.0 -0.4419259083 0.8905160871
3950276300.0 -0.428981322 0.8965001637
4000276000.0 -0.4169588672 0.9027089573
4050275700.0 -0.4035657382 0.9087443571
4100275400.0 -0.3920577345 0.9141429744
4150275100.0 -0.3791563359 0.9197767992
4200274800.0 -0.3653818982 0.9252654909
4250274500.0 -0.3533069445 0.9301734265
4300274200.0 -0.3405309978 0.9349922646
4350273900.0 -0.3269246713 0.9401244344
4400273600.0 -0.31354914 0.9445976468
4450273300.0 -0.2993580677 0.9493169539
4500273000.0 -0.2864502151 0.9533507892
4550272700.0 -0.2732804967 0.9573425344
4600272400.0 -0.2581762279 0.9615561524
4650272100.0 -0.2459053329 0.964643526
4700271800.0 -0.2325604917 0.9680791274
4750271500.0 -0.2193386217 0.9710421445
4800271200.0 -0.205863863 0.9741475857
4850270900.0 -0.1920561218 0.9769452031
4900270600.0 -0.1786537945 0.9793049993
4950270300.0 -0.1652978914 0.9818203113
5000270000.0 -0.15130619 0.9840818854
5050269700.0 -0.1376885187 0.9855974327
5100269400.0 -0.1235383905 0.987621278
5150269100.0 -0.1099105608 0.9895321109
5200268800.0 -0.0962849838 0.991075598
5250268500.0 -0.082766939 0.992129861
5300268200.0 -0.0689367674 0.9930852457
5350267900.0 -0.0566980632 0.9935829199
5400267600.0 -0.0407312029 0.9949866568
5450267300.0 -0.0284623383 0.9951885792
5500267000.0 -0.0142860317 0.9955735992
5550266700.0 -0.0012025917 0.9956475989
5600266400.0 0.0132865686 0.9959223968
5650266100.0 0.0285359967 0.9956549826
5700265800.0 0.0422476709 0.9946953383
5750265500.0 0.0560550293 0.9946305807
5800265200.0 0.0696603082 0.9933489496
5850264900.0 0.0829114908 0.9929270243
5900264600.0 0.0985855232 0.9910655032
5950264300.0 0.1110860185 0.9900561476
6000264000.0 0.1246917949 0.9881272128
6050263700.0 0.1376975442 0.9868111784
6100263400.0 0.1509662669 0.9848320528
6150263100.0 0.1662548418 0.9823388445
6200262800.0 0.1775192323 0.9804861188
6250262500.0 0.1909241027 0.9779027145
6300262200.0 0.2037092449 0.9754332085
6350261900.0 0.2166678298 0.9727090003
6400261600.0 0.2313190631 0.9690504304
6450261300.0 0.2432595832 0.9663748657
6500261000.0 0.2562201965 0.9629721505
6550260700.0 0.2694413175 0.9589863337
6600260400.0 0.2822176723 0.9552674782
6650260100.0 0.2964670634 0.9513434227
6700259800.0 0.3084075269 0.9471192784
6750259500.0 0.3215453722 0.9429105694
6800259200.0 0.3351785246 0.9381582998
6850258900.0 0.3473450361 0.9330398338
6900258600.0 0.3602241628 0.9285322441
6950258300.0 0.372987049 0.9233017561
7000258000.0 0.385040757 0.9180106875
7050257700.0 0.3969567421 0.9128201535
7100257400.0 0.4108476845 0.9066289724
7150257100.0 0.4217927832 0.9013719868
7200256800.0 0.4349646856 0.8953498698
7250256500.0 0.4464869187 0.8896157496
7300256200.0 0.4595189601 0.8831383821
7350255900.0 0.4712191688 0.8767740931
7400255600.0 0.4822221846 0.8710307978
7450255300.0 0.4964174964 0.8633244023
7500255000.0 0.5071347782 0.8562726875
7550254700.0 0.5195315095 0.8493106747
7600254400.0 0.5309644903 0.8421725993
7650254100.0 0.5422145302 0.835068078
7700253800.0 0.5540780378 0.827156837
7750253500.0 0.5654755934 0.8195229524
7800253200.0 0.5769717922 0.8114138554
7850252900.0 0.5863395438 0.8044846232
7900252600.0 0.5984076997 0.7958599485
7950252300.0 0.608036053 0.788442583
8000252000.0 0.6188325394 0.7802901048
8050251700.0 0.6295040619 0.7717028568
8100251400.0 0.6394350302 0.7638390248
8150251100.0 0.6503094867 0.7544395756
8200250800.0 0.6599814159 0.7462574447
8250250500.0 0.6701076131 0.7373988088
8300250200.0 0.6799583921 0.7281887683
8350249900.0 0.6892312593 0.7193423921
8400249600.0 0.6983319543 0.7105006444
8450249300.0 0.708083412 0.7006075147
8500249000.0 0.7174727497 0.6910900671
8550248700.0 0.7272951469 0.6810436883
8600248400.0 0.7363791384 0.6707615463
8650248100.0 0.7444664795 0.661464166
8700247800.0 0.7537984646 0.6507733701
8750247500.0 0.7625599624 0.6406397825
8800247200.0 0.7710375333 0.6303009145
8850246900.0 0.7797658478 0.6192217053
8900246600.0 0.7880243739 0.6086576691
8950246300.0 0.7968245505 0.5968477678
9000246000.0 0.8045503394 0.5861868551
9050245700.0 0.8129729695 0.5751582002
9100245400.0 0.820654802 0.5634855494
9150245100.0 0.8286667744 0.5518865608
9200244800.0 0.8362363291 0.5408184227
9250244500.0 0.8443495585 0.5281925023
9300244200.0 0.8514041826 0.5164532318
9350243900.0 0.8589277592 0.5041983845
9400243600.0 0.8658661201 0.4920327177
9450243300.0 0.871761092 0.4809931128
9500243000.0 0.8788721952 0.4685849832
9550242700.0 0.884964951 0.4572205298
9600242400.0 0.8909612694 0.4453742722
9650242100.0 0.8962155925 0.4347933814
9700241800.0 0.9018954834 0.4237272352
9750241500.0 0.907680367 0.4116292871
9800241200.0 0.9135739807 0.3987781615
9850240900.0 0.9188647563 0.3866688441
9900240600.0 0.9230461806 0.3771052187
9950240300.0 0.9288224149 0.3629425669
10000240000.0 0.9338419417 0.3503627922
10050239700.0 0.9388327724 0.336855621
10100239400.0 0.9434051561 0.3234575599
10150239100.0 0.9475588219 0.3102432458
10200238800.0 0.9520394262 0.2959260988
10250238500.0 0.9561660386 0.2826289831
10300238200.0 0.9598340055 0.2690383969
10350237900.0 0.9632919527 0.2559223287
10400237600.0 0.9665265489 0.2428617491
10450237300.0 0.9700002777 0.2286288427
10500237000.0 0.9729600021 0.2158450042
10550236700.0 0.9754263903 0.2020129847
10600236400.0 0.9779060808 0.1888237539
10650236100.0 0.980305426 0.1737003879
10700235800.0 0.9828443569 0.1606362984
10750235500.0 0.9853734908 0.1471739191
10800235200.0 0.9870204454 0.1340072682
10850234900.0 0.98899304 0.1199129944
10900234600.0 0.9904777533 0.1058369757
10950234300.0 0.9921870458 0.0919620685
11000234000.0 0.9934624094 0.0784175285
11050233700.0 0.9945623214 0.0647762928
11100233400.0 0.9957181021 0.049846557
11150233100.0 0.9968609497 0.0353524061
11200232800.0 0.9968244434 0.0223449914
11250232500.0 0.9974858413 0.0077911025
11300232200.0 0.9979993697 -0.0077046616
11350231900.0 0.9978032059 -0.0217350637
11400231600.0 0.9972327749 -0.03571761
11450231300.0 0.9966416715 -0.0495628411
11500231000.0 0.9955636349 -0.0632558751
11550230700.0 0.9953813451 -0.0765904176
11600230400.0 0.9940154665 -0.0916036243
11650230100.0 0.9926931517 -0.1036889863
11700229800.0 0.9913710804 -0.1184984844
11750229500.0 0.989178515 -0.131852787
11800229200.0 0.9874772357 -0.1455869362
11850228900.0 0.9852272865 -0.1596504688
11900228600.0 0.982640691 -0.1731203596
11950228300.0 0.9799941647 -0.1863493546
12000228000.0 0.9771159131 -0.1988309638
12050227700.0 0.9742327534 -0.2118529434
12100227400.0 0.9717781062 -0.2237704163
12150227100.0 0.9674226706 -0.2410977455
12200226800.0 0.9642601767 -0.2532677398
12250226500.0 0.9600816353 -0.2663237003
12300226200.0 0.9563310444 -0.2790256683
12350225900.0 0.9515505263 -0.2936909823
12400225600.0 0.9480053515 -0.3071043168
12450225300.0 0.9438033148 -0.3191794232
12500225000.0 0.9389788845 -0.3340316933
12550224700.0 0.9334214428 -0.34794044
12600224400.0 0.9291268237 -0.3600495176
12650224100.0 0.9233081573 -0.3743615949
12700223800.0 0.9181513728 -0.3871570089
12750223500.0 0.9123402343 -0.4006163047
12800223200.0 0.9068979702 -0.4134748139
12850222900.0 0.9015835541 -0.4257119348
12900222600.0 0.8955504689 -0.4384097931
12950222300.0 0.8887054265 -0.4517872429
13000222000.0 0.8826213349 -0.4636334587
13050221700.0 0.8758812483 -0.476173576
13100221400.0 0.8692106395 -0.487891734
13150221100.0 0.8624909557 -0.5003821396
13200220800.0 0.8552840092 -0.5123565741
13250220500.0 0.8479971717 -0.5247529745
13300220200.0 0.8407095685 -0.5360788464
13350219900.0 0.8326185601 -0.5489421632
13400219600.0 0.8246410361 -0.5605103472
13450219300.0 0.8167676778 -0.571877521
13500219000.0 0.8083137047 -0.5838883061
13550218700.0 0.7993424257 -0.5957409825
13600218400.0 0.7907768143 -0.6067295796
13650218100.0 0.7826234308 -0.6170092975
13700217800.0 0.7727903196 -0.6290473334
13750217500.0 0.764104914 -0.6399435037
13800217200.0 0.7529584614 -0.6519194954
13850216900.0 0.7434651467 -0.6638396756
13900216600.0 0.7339865671 -0.6732791863
13950216300.0 0.7240378627 -0.684358843
14000216000.0 0.7137380708 -0.6937358145
14050215700.0 0.7045953329 -0.7032865169
14100215400.0 0.6935442947 -0.7140548189
14150215100.0 0.6833026646 -0.7243445719
14200214800.0 0.6734258847 -0.733682559
14250214500.0 0.6625766048 -0.743830607
14300214200.0 0.6512867155 -0.7538194911
14350213900.0 0.6403032195 -0.7631367204
14400213600.0 0.6293691575 -0.7723227966
14450213300.0 0.6181475228 -0.7818661252
14500213000.0 0.6064151158 -0.7906628643
14550212700.0 0.594302477 -0.8000559699
14600212400.0 0.5828310341 -0.8078435048
14650212100.0 0.5715034319 -0.815659253
14700211800.0 0.5585123831 -0.8249361263
14750211500.0 0.5461091312 -0.8330973158
14800211200.0 0.5338168995 -0.8414943351
14850210900.0 0.5219270004 -0.849212386
14900210600.0 0.5094591062 -0.8568058036
14950210300.0 0.4964963354 -0.8644462699
15000210000.0 0.483961434 -0.8716831715
15050209700.0 0.4712922152 -0.8786747655
15100209400.0 0.4580628902 -0.8855014856
15150209100.0 0.4461142038 -0.8917727594
15200208800.0 0.4331680481 -0.8971532231
15250208500.0 0.4204585422 -0.9041620263
15300208200.0 0.4066137842 -0.9099594551
15350207900.0 0.3934008969 -0.9151647414
15400207600.0 0.3803215612 -0.9211303363
15450207300.0 0.3662528992 -0.9268635548
15500207000.0 0.3518466676 -0.9315737306
15550206700.0 0.3382141765 -0.9368728272
15600206400.0 0.3247404473 -0.9413823674
15650206100.0 0.3099689865 -0.9461234757
15700205800.0 0.2963873964 -0.9502372547
15750205500.0 0.2821835918 -0.9545403146
15800205200.0 0.2682183946 -0.958223862
15850204900.0 0.2543174995 -0.9622249504
15900204600.0 0.2390954349 -0.9663371026
15950204300.0 0.2247421443 -0.9695761475
16000204000.0 0.2106123615 -0.9727255063
16050203700.0 0.195862365 -0.9758980504
16100203400.0 0.1816253838 -0.9782387013
16150203100.0 0.1663798421 -0.9812356605
16200202800.0 0.152012052 -0.9836975715
16250202500.0 0.1373404278 -0.9854994904
16300202200.0 0.1222132396 -0.9873939654
16350201900.0 0.1066080375 -0.9895214609
16400201600.0 0.0918835654 -0.9905506128
16450201300.0 0.0772475368 -0.9919352649
16500201000.0 0.0616336241 -0.9931853214
16550200700.0 0.0468596372 -0.9940735006
16600200400.0 0.0315872385 -0.9947556108
16650200100.0 0.0161627945 -0.9951927422
16700199800.0 0.0019842603 -0.9955601446
16750199500.0 -0.0137272884 -0.9955473923
16800199200.0 -0.0288026361 -0.9953286613
16850198900.0 -0.0445756625 -0.9946384725
16900198600.0 -0.0588821764 -0.9937281821
16950198300.0 -0.0733843171 -0.9927245643
17000198000.0 -0.0874447478 -0.9914691523
17050197700.0 -0.1017258595 -0.9901995948
17100197400.0 -0.1169791914 -0.9884326281
17150197100.0 -0.1316207434 -0.9861120602
17200196800.0 -0.1456405423 -0.9844193782
17250196500.0 -0.1594286918 -0.9819518032
17300196200.0 -0.1736176851 -0.9795450528
17350195900.0 -0.1877093679 -0.9769635867
17400195600.0 -0.2015427106 -0.9742101786
17450195300.0 -0.2152374078 -0.9711898177
17500195000.0 -0.229514066 -0.9680102156
17550194700.0 -0.2436372853 -0.9645966008
17600194400.0 -0.2579308119 -0.9606308073
17650194100.0 -0.2720636639 -0.9565940654
17700193800.0 -0.285477959 -0.9529389911
17750193500.0 -0.2995300741 -0.9485399106
17800193200.0 -0.3131447512 -0.9442466937
17850192900.0 -0.3270059268 -0.9395093916
17900192600.0 -0.3410724173 -0.9339168177
17950192300.0 -0.356011515 -0.9282827983
18000192000.0 -0.3706555627 -0.9221234476
18050191700.0 -0.3848002694 -0.915745839
18100191400.0 -0.3990929329 -0.9093356423
18150191100.0 -0.4128048327 -0.9028805066
18200190800.0 -0.4270779946 -0.8958120853
18250190500.0 -0.4420683648 -0.8886425344
18300190200.0 -0.4564503412 -0.8814156224
18350189900.0 -0.471061352 -0.8747894605
18400189600.0 -0.4847747116 -0.8671602747
18450189300.0 -0.4980983162 -0.8597175733
18500189000.0 -0.5109427347 -0.8522993888
18550188700.0 -0.524017986 -0.8447564948
18600188400.0 -0.5369833554 -0.8368623083
18650188100.0 -0.5491284641 -0.8290115329
18700187800.0 -0.5615225773 -0.8213256511
18750187500.0 -0.5728197602 -0.8134455124
18800187200.0 -0.5846970722 -0.8051632189
18850186900.0 -0.5956659763 -0.7969420125
18900186600.0 -0.6066494394 -0.7887616666
18950186300.0 -0.6183690428 -0.7795994746
19000186000.0 -0.6282715937 -0.7714054549
19050185700.0 -0.6391627947 -0.7629033279
19100185400.0 -0.6496891094 -0.7541047058
19150185100.0 -0.6608071028 -0.7449239894
19200184800.0 -0.6705198356 -0.7355845035
19250184500.0 -0.68102343 -0.7255022548
19300184200.0 -0.6917167031 -0.7166406278
19350183900.0 -0.7019957424 -0.7066847631
19400183600.0 -0.7125179888 -0.6958572036
19450183300.0 -0.7221777912 -0.6854110159
19500183000.0 -0.7309974045 -0.6742568314
19550182700.0 -0.7413870786 -0.6642857807
19600182400.0 -0.7504686043 -0.6523863809
19650182100.0 -0.7598771106 -0.6410635781
19700181800.0 -0.7697461335 -0.6292271789
19750181500.0 -0.7792784319 -0.6170893653
19800181200.0 -0.7887862045 -0.6043592825
19850180900.0 -0.7982315136 -0.5914198146
19900180600.0 -0.8063939932 -0.5795830963
19950180300.0 -0.8164317781 -0.5659886478
20000180000.0 -0.822544695 -0.5563059677
20050179700.0 -0.8304360175 -0.544524148
20100179400.0 -0.8393501498 -0.5303851376
20150179100.0 -0.8479168895 -0.5174603734
20200178800.0 -0.8550590956 -0.5062024872
20250178500.0 -0.8630466853 -0.4935966118
20300178200.0 -0.8710109739 -0.479785143
20350177900.0 -0.8783166425 -0.4672313448
20400177600.0 -0.8856626919 -0.4539535788
20450177300.0 -0.8923353458 -0.4414578417
20500177000.0 -0.8989260009 -0.4283581191
20550176700.0 -0.905700166 -0.4151324875
20600176400.0 -0.9119790515 -0.4022157258
20650176100.0 -0.9172199753 -0.3897747363
20700175800.0 -0.9233588093 -0.3769092723
20750175500.0 -0.929995704 -0.3642583172
20800175200.0 -0.9338443754 -0.352382533
20850174900.0 -0.9380593252 -0.3391853424
20900174600.0 -0.9442602281 -0.3263702934
20950174300.0 -0.9476471885 -0.3140972122
21000174000.0 -0.9515096187 -0.3013472399
21050173700.0 -0.9546245778 -0.2884159403
21100173400.0 -0.9582624813 -0.275840237
21150173100.0 -0.9620861546 -0.2625625454
21200172800.0 -0.965277706 -0.2488756781
21250172500.0 -0.9688933594 -0.2356071951
21300172200.0 -0.9718315263 -0.2214362821
21350171900.0 -0.9749172058 -0.2068875197
21400171600.0 -0.9779361855 -0.1929507615
21450171300.0 -0.979995324 -0.1782618183
21500171000.0 -0.9825107769 -0.1638033854
21550170700.0 -0.9837945325 -0.1499726068
21600170400.0 -0.9866265985 -0.1351629282
21650170100.0 -0.9896773311 -0.1199976206
21700169800.0 -0.9896950363 -0.1044771174
21750169500.0 -0.9902214386 -0.0890211307
21800169200.0 -0.9910355752 -0.0749294735
21850168900.0 -0.9919861894 -0.059757928
21900168600.0 -0.9931615621 -0.0441823827
21950168300.0 -0.9930681352 -0.0286782143
22000168000.0 -0.9931275812 -0.0139525271
22050167700.0 -0.9934099486 0.0010804902
22100167400.0 -0.9932728272 0.0161297303
22150167100.0 -0.993236166 0.0309290497
22200166800.0 -0.9927080993 0.045575782
22250166500.0 -0.9920370493 0.0604683917
22300166200.0 -0.9916722289 0.0755568099
22350165900.0 -0.9906790296 0.0901262836
22400165600.0 -0.9892394431 0.1046401246
22450165300.0 -0.9877459867 0.1192442867
22500165000.0 -0.985682962 0.13241308
22550164700.0 -0.9838534209 0.1474067511
22600164400.0 -0.9819988145 0.1611499013
22650164100.0 -0.9799186109 0.1743875192
22700163800.0 -0.9777939351 0.1876410291
22750163500.0 -0.974429537 0.2014255663
22800163200.0 -0.9714858461 0.215025818
22850162900.0 -0.9684445283 0.2277947014
22900162600.0 -0.9658336108 0.241322606
22950162300.0 -0.9623801728 0.2544562421
23000162000.0 -0.9592988391 0.2673702493
23050161700.0 -0.9556368729 0.2807144176
23100161400.0 -0.9529542255 0.2940624279
23150161100.0 -0.9486927539 0.3066318664
23200160800.0 -0.9451505349 0.3201555003
23250160500.0 -0.9413901369 0.3328737681
23300160200.0 -0.9373368162 0.34562223
23350159900.0 -0.9327431615 0.35930113
23400159600.0 -0.92785922 0.3724473935
23450159300.0 -0.9230668152 0.3843673985
23500159000.0 -0.9180844306 0.3970796337
23550158700.0 -0.9133972145 0.4102571183
23600158400.0 -0.9078533498 0.4223566498
23650158100.0 -0.9018763787 0.4350765214
23700157800.0 -0.8954918252 0.4479408144
23750157500.0 -0.8884699649 0.4607302035
23800157200.0 -0.8815702858 0.4730315373
23850156900.0 -0.8749848187 0.4849968332
23900156600.0 -0.8678119866 0.4973734728
23950156300.0 -0.8603827014 0.5100995197
24000156000.0 -0.8528491299 0.5219257402
24050155700.0 -0.8447806831 0.53407567
24100155400.0 -0.8373030814 0.5452487761
24150155100.0 -0.8281805041 0.557311316
24200154800.0 -0.8191845779 0.5677269869
24250154500.0 -0.8113475913 0.5798175533
24300154200.0 -0.80327785 0.5915351179
24350153900.0 -0.7944230096 0.6022784746
24400153600.0 -0.7841562505 0.6132744611
24450153300.0 -0.7749961257 0.6240632843
24500153000.0 -0.7656524136 0.634259816
24550152700.0 -0.7563139682 0.6450590247
24600152400.0 -0.7462373638 0.6553749761
24650152100.0 -0.7365956816 0.6656407513
