!Created with skrf (http://scikit-rf.org).
# Hz S RI R 50.0 
!freq ReS11 ImS11
300000.0 -0.9792693224 -0.1106048014
50299700.0 -1.000037784 0.0158728988
100299400.0 -0.998172092 0.0289647776
150299100.0 -1.002929622 0.0458486228
200298800.0 -0.999625766 0.0589686882
250298500.0 -0.9973201579 0.0724598945
300298200.0 -0.9859795581 0.0884691692
350297900.0 -0.9941086482 0.099194363
400297600.0 -0.9932921074 0.1156675009
450297300.0 -0.9911002746 0.1297818576
500297000.0 -0.9893313884 0.1444611693
550296700.0 -0.9844133228 0.1566607776
600296400.0 -1.017319152 0.1902004258
650296100.0 -0.982438385 0.1868789199
700295800.0 -0.9793285121 0.2010138812
750295500.0 -0.9761635225 0.2151950042
800295200.0 -0.9731561843 0.229194548
850294900.0 -0.9695060333 0.2431077799
900294600.0 -0.965618313 0.2567839619
950294300.0 -0.9618595018 0.2705070681
1000294000.0 -0.9580344913 0.284573239
1050293700.0 -0.9535134244 0.298401167
1100293400.0 -0.9491830309 0.3127424119
1150293100.0 -0.9453786078 0.3245602508
1200292800.0 -0.9399772804 0.3388923382
1250292500.0 -0.9345217602 0.3523080376
1300292200.0 -0.9286986814 0.3656132358
1350291900.0 -0.923355773 0.3794879763
1400291600.0 -0.917677456 0.3926235641
1450291300.0 -0.9124095863 0.4051015136
1500291000.0 -0.9059485452 0.4183270892
1550290700.0 -0.8994931413 0.4317181891
1600290400.0 -0.8929994541 0.4445360238
1650290100.0 -0.8865397385 0.4567591276
1700289800.0 -0.8797505254 0.4701689527
1750289500.0 -0.8724245949 0.482372201
1800289200.0 -0.8652213309 0.4953427532
1850288900.0 -0.8583644934 0.5067483239
1900288600.0 -0.8506256079 0.5196214809
1950288300.0 -0.8425642153 0.5322896357
2000288000.0 -0.8351056469 0.543518413
2050287700.0 -0.826668047 0.5559702774
2100287400.0 -0.8189047032 0.5677184031
2150287100.0 -0.8102946744 0.5797854592
2200286800.0 -0.802452552 0.5901551072
2250286500.0 -0.7938194337 0.6021436955
2300286200.0 -0.7845808952 0.6137542644
2350285900.0 -0.7758917263 0.6247328379
2400285600.0 -0.7670410915 0.6357513472
2450285300.0 -0.7581605256 0.6460653457
2500285000.0 -0.7486108416 0.6576148454
2550284700.0 -0.7397203194 0.6678326308
2600284400.0 -0.730152218 0.6778115627
2650284100.0 -0.7210968887 0.6884630361
2700283800.0 -0.7105426449 0.6988986668
2750283500.0 -0.7004997338 0.7094392945
2800283200.0 -0.690382342 0.7191646903
2850282900.0 -0.6803203077 0.7288616896
2900282600.0 -0.6698945234 0.7386480735
2950282300.0 -0.6598411957 0.747865879
3000282000.0 -0.6489994169 0.7573987312
3050281700.0 -0.6379910039 0.7666043658
3100281400.0 -0.6260262232 0.7759876167
3150281100.0 -0.6141781364 0.7853413697
3200280800.0 -0.6024617101 0.793761344
3250280500.0 -0.5918855831 0.8015158588
3300280200.0 -0.5806134784 0.8092700206
3350279900.0 -0.5690516744 0.8169133683
3400279600.0 -0.5569942451 0.8245272851
3450279300.0 -0.5459320884 0.8316476637
3500279000.0 -0.5337199183 0.8387138993
3550278700.0 -0.5211738547 0.8460011988
3600278400.0 -0.5091081089 0.8533565941
3650278100.0 -0.4957995283 0.8608869276
3700277800.0 -0.4835764111 0.8673361547
3750277500.0 -0.4715501304 0.8738143856
3800277200.0 -0.4589632308 0.8801175391
3850276900.0 -0.4468429815 0.8864140167
3900276600.0 -0.4362013638 0.8918961648
3950276300.0 -0.4235302175 0.897970118
4000276000.0 -0.4113769693 0.9039621236
4050275700.0 -0.398601726 0.9102406512
4100275400.0 -0.3871349779 0.9155541103
4150275100.0 -0.3747555818 0.9213027916
4200274800.0 -0.3617581871 0.9265661351
4250274500.0 -0.3494735964 0.9318874234
4300274200.0 -0.336383428 0.9370867151
4350273900.0 -0.3225856262 0.9421869905
4400273600.0 -0.3077968132 0.9473905814
4450273300.0 -0.2924095714 0.9526535918
4500273000.0 -0.2786485229 0.9570074464
4550272700.0 -0.2646655123 0.9611636341
4600272400.0 -0.2490476523 0.96543696
4650272100.0 -0.2373286039 0.9686750708
4700271800.0 -0.2239717402 0.9718931188
4750271500.0 -0.2123138787 0.974837375
4800271200.0 -0.1999573499 0.9772647216
4850270900.0 -0.1859643567 0.9802237368
4900270600.0 -0.1720307175 0.9828142508
4950270300.0 -0.1577409412 0.9851757986
5000270000.0 -0.1435873902 0.9873874395
5050269700.0 -0.1300805141 0.9888156444
5100269400.0 -0.1165558369 0.9902080214
5150269100.0 -0.103115391 0.9923317167
5200268800.0 -0.0902030277 0.9930690153
5250268500.0 -0.0771652971 0.9940146253
5300268200.0 -0.0639587432 0.9949016497
5350267900.0 -0.0517752837 0.9954949376
5400267600.0 -0.0355653126 0.9962999293
5450267300.0 -0.0224512747 0.9966978359
5500267000.0 -0.007183676 0.997246402
5550266700.0 0.0077976202 0.9975195919
5600266400.0 0.0233908174 0.9974749223
5650266100.0 0.0401076488 0.9968208756
5700265800.0 0.054325591 0.9961594884
5750265500.0 0.0695804607 0.9956946266
5800265200.0 0.0835110742 0.9939246841
5850264900.0 0.0970728959 0.9936919593
5900264600.0 0.1136476079 0.9914774738
5950264300.0 0.1256771591 0.9899264584
6000264000.0 0.13985216 0.988100277
6050263700.0 0.1521167843 0.9866445297
6100263400.0 0.1644969112 0.984501767
6150263100.0 0.1791002248 0.9827102996
6200262800.0 0.1897932221 0.9805774264
6250262500.0 0.2022752776 0.9781656248
6300262200.0 0.2151537895 0.9753599625
6350261900.0 0.2281251527 0.9723457106
6400261600.0 0.2419755304 0.969162313
6450261300.0 0.2533582569 0.9664205515
6500261000.0 0.266048987 0.9629098252
6550260700.0 0.279141447 0.9588216761
6600260400.0 0.2922402173 0.9546672265
6650260100.0 0.3061186094 0.9504305949
6700259800.0 0.3180930367 0.9459994465
6750259500.0 0.3324248764 0.9413597569
6800259200.0 0.3449412086 0.9361754415
6850258900.0 0.3569291482 0.9310253184
6900258600.0 0.3692547019 0.9263464429
6950258300.0 0.381809566 0.9208975427
7000258000.0 0.393792072 0.9153548706
7050257700.0 0.4060926202 0.9092801576
7100257400.0 0.4188384531 0.9030696566
7150257100.0 0.4290108452 0.8977577764
7200256800.0 0.4417587427 0.8915196671
7250256500.0 0.4535577396 0.8851426244
7300256200.0 0.4669045279 0.8784468497
7350255900.0 0.4792194859 0.8717309011
7400255600.0 0.492334668 0.8640439137
7450255300.0 0.5076882286 0.8553128111
7500255000.0 0.5191395491 0.8480154468
7550254700.0 0.5332264264 0.8396588157
7600254400.0 0.5456757279 0.8311953915
7650254100.0 0.5574411569 0.8235415272
7700253800.0 0.5693134774 0.8156607554
7750253500.0 0.5804091848 0.8077961806
7800253200.0 0.5910084698 0.7998286449
7850252900.0 0.6010089536 0.7929155206
7900252600.0 0.6126816226 0.7839567752
7950252300.0 0.6215329175 0.777419045
8000252000.0 0.6315860215 0.7696936758
8050251700.0 0.6422414389 0.7615579017
8100251400.0 0.6521062814 0.753245495
8150251100.0 0.6621337497 0.7445671463
8200250800.0 0.671430849 0.7365721663
8250250500.0 0.6802629192 0.728792699
8300250200.0 0.6897250717 0.7201551946
8350249900.0 0.6991965855 0.7114148262
8400249600.0 0.7069798911 0.7035207578
8450249300.0 0.7163353843 0.6941253895
8500249000.0 0.7248072363 0.6853883067
8550248700.0 0.7329314287 0.6763307907
8600248400.0 0.7415840649 0.6668288457
8650248100.0 0.7493163015 0.657435349
8700247800.0 0.7588913968 0.6461126675
8750247500.0 0.7669460657 0.6360786813
8800247200.0 0.7750294321 0.6258844847
8850246900.0 0.7840538003 0.6144107003
8900246600.0 0.7923432941 0.6030901385
8950246300.0 0.8022295843 0.5900111991
9000246000.0 0.8113699916 0.5773941262
9050245700.0 0.8205548084 0.5643850409
9100245400.0 0.829176102 0.5516087707
9150245100.0 0.8382490404 0.5380051308
9200244800.0 0.8483539648 0.5226225497
9250244500.0 0.8576428587 0.5068304393
9300244200.0 0.8661606186 0.492270284
9350243900.0 0.8740594243 0.4784103261
9400243600.0 0.8806433593 0.466017451
9450243300.0 0.8865777155 0.4542180757
9500243000.0 0.8926905781 0.4417991621
9550242700.0 0.8964154832 0.4342784813
9600242400.0 0.9004851977 0.4269817735
9650242100.0 0.9038398949 0.4204975684
9700241800.0 0.9084438602 0.4121587102
9750241500.0 0.9124719609 0.4047666276
9800241200.0 0.9168142989 0.3957114491
9850240900.0 0.9226477069 0.3841434742
9900240600.0 0.928240927 0.3721823667
9950240300.0 0.9347156178 0.3561436836
10000240000.0 0.9391103346 0.3444647503
10050239700.0 0.9447661326 0.3294848386
10100239400.0 0.9499576782 0.3139947887
10150239100.0 0.9544032919 0.2989623997
10200238800.0 0.9584919897 0.2841256678
10250238500.0 0.9618507444 0.2709900592
10300238200.0 0.9649149007 0.2570291935
10350237900.0 0.9676347742 0.2439047321
10400237600.0 0.9702043617 0.2308119214
10450237300.0 0.9728578859 0.2171472095
10500237000.0 0.9750344594 0.204676758
10550236700.0 0.9770813048 0.1913344555
10600236400.0 0.9794847957 0.1776027848
10650236100.0 0.9815064905 0.1630927272
10700235800.0 0.983519707 0.1510437761
10750235500.0 0.9856063919 0.1372413939
10800235200.0 0.988146479 0.1232931436
10850234900.0 0.9896593416 0.1090209394
10900234600.0 0.9918218954 0.0944850422
10950234300.0 0.9936972058 0.0810597493
11000234000.0 0.9952706423 0.0659714
11050233700.0 0.9970710122 0.0496187191
11100233400.0 0.9982652435 0.0320137458
11150233100.0 0.9998909492 0.0154804916
11200232800.0 1.00012155 0.0011578804
11250232500.0 1.001216021 -0.0154678255
11300232200.0 1.001651311 -0.0336926651
11350231900.0 1.001364847 -0.0492424891
11400231600.0 1.00162298 -0.0655342032
11450231300.0 1.001037415 -0.0815863269
11500231000.0 0.9996620186 -0.0974763988
11550230700.0 0.998432741 -0.1112024463
11600230400.0 0.9970315502 -0.1232106833
11650230100.0 0.9945667036 -0.1348414275
11700229800.0 0.992526379 -0.1490227182
11750229500.0 0.9901729795 -0.1640015794
11800229200.0 0.9875122814 -0.1779470494
11850228900.0 0.9841940499 -0.1902419967
11900228600.0 0.9807280645 -0.1999094587
11950228300.0 0.9772367594 -0.210412038
12000228000.0 0.974624243 -0.2189979832
12050227700.0 0.9709256814 -0.2326483521
12100227400.0 0.967699308 -0.2441175432
12150227100.0 0.9628334276 -0.2593433661
12200226800.0 0.9590805409 -0.2707683112
12250226500.0 0.9543006536 -0.2841435607
12300226200.0 0.9510165764 -0.2949896129
12350225900.0 0.9467473408 -0.308272972
12400225600.0 0.9415037736 -0.3227124925
12450225300.0 0.937436772 -0.3345664086
12500225000.0 0.9320090093 -0.3496386108
12550224700.0 0.9268499376 -0.3631710465
12600224400.0 0.9217669194 -0.3759644181
12650224100.0 0.9159467268 -0.3902496357
12700223800.0 0.9106765421 -0.4029596694
12750223500.0 0.9051978202 -0.4159052515
12800223200.0 0.8997782137 -0.4284904989
12850222900.0 0.8946412265 -0.4407391577
12900222600.0 0.888393141 -0.4534483065
12950222300.0 0.8825061553 -0.465745631
13000222000.0 0.8764409421 -0.4768892584
13050221700.0 0.8694913154 -0.4901499342
13100221400.0 0.8630986628 -0.5014429541
13150221100.0 0.8561589027 -0.5138336812
13200220800.0 0.8490152032 -0.5257937885
13250220500.0 0.8418168574 -0.5375107706
13300220200.0 0.8342500543 -0.5487494481
13350219900.0 0.826234892 -0.56053325
13400219600.0 0.8175958862 -0.5730786249
13450219300.0 0.8082639943 -0.5866564632
13500219000.0 0.7979968917 -0.6007157216
13550218700.0 0.7877842649 -0.6137103966
13600218400.0 0.7776083754 -0.625731937
13650218100.0 0.7673402547 -0.6367549334
13700217800.0 0.7562506887 -0.6494141119
13750217500.0 0.7469715852 -0.66046486
13800217200.0 0.7357200113 -0.6718059468
13850216900.0 0.7247359378 -0.6837118262
13900216600.0 0.7142799733 -0.6933506496
13950216300.0 0.7036698887 -0.7028639971
14000216000.0 0.6935490192 -0.7118371547
14050215700.0 0.6836069242 -0.7202739477
14100215400.0 0.6740473507 -0.7290301804
14150215100.0 0.6652743029 -0.73782341
14200214800.0 0.6559713882 -0.7463224964
14250214500.0 0.6456804863 -0.7556357782
14300214200.0 0.635412283 -0.7647767606
14350213900.0 0.6243533187 -0.7743111642
14400213600.0 0.6124429182 -0.7839724096
14450213300.0 0.5997899589 -0.7940026295
14500213000.0 0.5863512972 -0.8040629344
14550212700.0 0.5736519028 -0.8132263953
14600212400.0 0.5616328442 -0.8221336158
14650212100.0 0.5482144029 -0.8311410625
14700211800.0 0.5340943319 -0.8403658086
14750211500.0 0.5224387603 -0.848677873
14800211200.0 0.5102754077 -0.8568615945
14850210900.0 0.4977866435 -0.8641829957
14900210600.0 0.4844832226 -0.8719780323
14950210300.0 0.4710180739 -0.8797179832
15000210000.0 0.4581939487 -0.8865361499
15050209700.0 0.4459561512 -0.892587678
15100209400.0 0.4331901226 -0.8986582412
15150209100.0 0.4204861703 -0.904094143
15200208800.0 0.407616386 -0.9091175419
15250208500.0 0.3960431212 -0.9135743538
15300208200.0 0.3843676752 -0.9184228227
15350207900.0 0.3714752306 -0.9231006486
15400207600.0 0.356280193 -0.9285744536
15450207300.0 0.3413331587 -0.9336448506
15500207000.0 0.3269042736 -0.9385238775
15550206700.0 0.3128352019 -0.943732092
15600206400.0 0.2956703354 -0.947880786
15650206100.0 0.2804340405 -0.9521957036
15700205800.0 0.2664390549 -0.955963984
15750205500.0 0.2516934902 -0.9593102277
15800205200.0 0.2371684496 -0.9626767399
15850204900.0 0.2229346706 -0.9662164335
15900204600.0 0.2078849121 -0.9698346588
15950204300.0 0.1938479577 -0.9724115761
16000204000.0 0.1799650765 -0.9752507637
16050203700.0 0.1650340069 -0.9784631536
16100203400.0 0.1512655092 -0.9801592033
16150203100.0 0.1366325796 -0.9825082605
16200202800.0 0.1220628728 -0.9843889343
16250202500.0 0.1075155318 -0.9865755391
16300202200.0 0.0924136242 -0.987820412
16350201900.0 0.0774754338 -0.9888918285
16400201600.0 0.0630927836 -0.9900730696
16450201300.0 0.0477169291 -0.9913651568
16500201000.0 0.0313035619 -0.9921331808
16550200700.0 0.0156815396 -0.9925041483
16600200400.0 -0.0002042447 -0.9926232205
16650200100.0 -0.0162752951 -0.9926459122
16700199800.0 -0.0331742774 -0.9923738696
16750199500.0 -0.0517791238 -0.9915653652
16800199200.0 -0.0679609826 -0.9902869127
16850198900.0 -0.0828779235 -0.9893582837
16900198600.0 -0.0974187938 -0.9884071791
16950198300.0 -0.1100263664 -0.9868468695
17000198000.0 -0.1234362666 -0.9859878381
17050197700.0 -0.1361779393 -0.983195046
17100197400.0 -0.1487483199 -0.981849086
17150197100.0 -0.161332368 -0.9799224773
17200196800.0 -0.1739055381 -0.977700929
17250196500.0 -0.1868309991 -0.9749636614
17300196200.0 -0.1993363089 -0.9727936335
17350195900.0 -0.2110440334 -0.9706486588
17400195600.0 -0.2233335203 -0.9681674105
17450195300.0 -0.2363431584 -0.9653590234
17500195000.0 -0.249680508 -0.9620828495
17550194700.0 -0.2635500696 -0.9582911225
17600194400.0 -0.2779995199 -0.9544927208
17650194100.0 -0.291192847 -0.9504055311
17700193800.0 -0.3040898003 -0.9457624133
17750193500.0 -0.3190577319 -0.9415365147
17800193200.0 -0.3327834363 -0.9363604896
17850192900.0 -0.3478388763 -0.9310459284
17900192600.0 -0.3631158394 -0.9248880132
17950192300.0 -0.3787863958 -0.9180970492
18000192000.0 -0.3932027665 -0.9103285064
18050191700.0 -0.4069459332 -0.9024088063
18100191400.0 -0.4213011953 -0.8947677833
18150191100.0 -0.4362415721 -0.8866128742
18200190800.0 -0.4530455138 -0.8774944272
18250190500.0 -0.4699159859 -0.8678461831
18300190200.0 -0.4854728379 -0.8591225612
18350189900.0 -0.5005991763 -0.850538323
18400189600.0 -0.5145750668 -0.8425115363
18450189300.0 -0.5278390086 -0.8345119314
18500189000.0 -0.5418226921 -0.8260074978
18550188700.0 -0.5541117823 -0.8189041124
18600188400.0 -0.5661606854 -0.8121098743
18650188100.0 -0.5769792609 -0.805078675
18700187800.0 -0.5879069587 -0.7989031708
18750187500.0 -0.5985329968 -0.7923149836
18800187200.0 -0.6091471232 -0.7854000356
18850186900.0 -0.6192959001 -0.7783131678
18900186600.0 -0.6295927469 -0.77074988
18950186300.0 -0.6396881631 -0.7630131575
19000186000.0 -0.6468510541 -0.7568640001
19050185700.0 -0.6564792881 -0.7495878553
19100185400.0 -0.6662544349 -0.7407957992
19150185100.0 -0.6764893757 -0.732171311
19200184800.0 -0.6859749479 -0.7244392371
19250184500.0 -0.696579474 -0.7149155424
19300184200.0 -0.7074718078 -0.7056611956
19350183900.0 -0.718754437 -0.6950133483
19400183600.0 -0.7276702499 -0.6859298695
19450183300.0 -0.7368746577 -0.6749470055
19500183000.0 -0.7451574035 -0.6658241005
19550182700.0 -0.7549380155 -0.654557231
19600182400.0 -0.7653144751 -0.6425375241
19650182100.0 -0.776386436 -0.6308348871
19700181800.0 -0.7867529396 -0.6176260602
19750181500.0 -0.7972589526 -0.6034078288
19800181200.0 -0.8075126982 -0.5884529825
19850180900.0 -0.8171192392 -0.5734550969
19900180600.0 -0.8248018877 -0.5586964025
19950180300.0 -0.8340812292 -0.5426186189
20000180000.0 -0.8268763297 -0.5445863372
20050179700.0 -0.8352062966 -0.5314309067
20100179400.0 -0.8436908173 -0.5182712949
20150179100.0 -0.8520822989 -0.5056067182
20200178800.0 -0.8602111916 -0.4930322263
20250178500.0 -0.8694808859 -0.479518823
20300178200.0 -0.8795936543 -0.4642264746
20350177900.0 -0.8886283858 -0.4500926368
20400177600.0 -0.8973413528 -0.4356596291
20450177300.0 -0.9054364206 -0.4213844353
20500177000.0 -0.9135877334 -0.4072156029
20550176700.0 -0.9216375104 -0.393589766
20600176400.0 -0.9286388028 -0.3806657915
20650176100.0 -0.9349368868 -0.3680090873
20700175800.0 -0.9415979959 -0.356107284
20750175500.0 -0.9483042018 -0.344117728
20800175200.0 -0.9531856629 -0.333399151
20850174900.0 -0.958315106 -0.3228206736
20900174600.0 -0.9635015831 -0.3110281562
20950174300.0 -0.9663805204 -0.2994532398
21000174000.0 -0.9705187645 -0.2871150029
21050173700.0 -0.9733297429 -0.2764963744
21100173400.0 -0.9779080272 -0.2644635987
21150173100.0 -0.9817824833 -0.2517027813
21200172800.0 -0.9855143548 -0.2385135728
21250172500.0 -0.988297688 -0.2244513622
21300172200.0 -0.9910964032 -0.2102946957
21350171900.0 -0.9923078377 -0.1951980822
21400171600.0 -0.993659179 -0.1813407885
21450171300.0 -0.9937572659 -0.1666058735
21500171000.0 -0.9931506286 -0.1517088049
21550170700.0 -0.9933830818 -0.1357379026
21600170400.0 -0.9935819546 -0.1206176656
21650170100.0 -0.9923406599 -0.1039326002
21700169800.0 -0.9901184243 -0.0903082659
21750169500.0 -0.9890108504 -0.0739671282
21800169200.0 -0.9879619214 -0.0579030259
21850168900.0 -0.987101641 -0.0408763792
21900168600.0 -0.9853161536 -0.0245729098
21950168300.0 -0.9835631739 -0.0088646788
22000168000.0 -0.9829637209 0.0057488382
22050167700.0 -0.9827131824 0.0202607677
22100167400.0 -0.9823760394 0.0354973598
22150167100.0 -0.9827948528 0.0505855487
22200166800.0 -0.9838574047 0.0665461041
22250166500.0 -0.9829479619 0.0836504514
22300166200.0 -0.982409074 0.1001555766
22350165900.0 -0.9809643336 0.1170760152
22400165600.0 -0.9775668115 0.1328420344
22450165300.0 -0.9765614241 0.1490269835
22500165000.0 -0.9744438305 0.1617804404
22550164700.0 -0.9738588535 0.1767292744
22600164400.0 -0.9730108005 0.191459114
22650164100.0 -0.9698218642 0.2074727949
22700163800.0 -0.96774166 0.2229946795
22750163500.0 -0.9649230676 0.2384543969
22800163200.0 -0.9618813685 0.2519333603
22850162900.0 -0.9596532099 0.2651320503
22900162600.0 -0.9586639679 0.2783100622
22950162300.0 -0.9573126744 0.2912120118
23000162000.0 -0.9562194949 0.3030872811
23050161700.0 -0.9543480388 0.3154149894
23100161400.0 -0.951974121 0.3283671585
23150161100.0 -0.9490742111 0.3400280123
23200160800.0 -0.9470259589 0.3516618116
23250160500.0 -0.9435714202 0.3641895909
23300160200.0 -0.9410880079 0.3759788108
23350159900.0 -0.9377381932 0.3889254647
23400159600.0 -0.9327537702 0.4028356846
23450159300.0 -0.928297649 0.4160372504
23500159000.0 -0.9232587811 0.428191096
23550158700.0 -0.9192230265 0.4416306015
23600158400.0 -0.9139214732 0.4546799544
23650158100.0 -0.9075199458 0.4686879553
23700157800.0 -0.8998455085 0.4823899456
23750157500.0 -0.8913874353 0.4963376741
23800157200.0 -0.88258854 0.5098808503
23850156900.0 -0.8738470833 0.5226289214
23900156600.0 -0.8638417189 0.5346530894
23950156300.0 -0.8549896239 0.5469768062
24000156000.0 -0.8457704529 0.5587187404
24050155700.0 -0.8353832106 0.570971156
24100155400.0 -0.8262496753 0.5825510044
24150155100.0 -0.8152959256 0.5946808529
24200154800.0 -0.8046903173 0.6057665948
24250154500.0 -0.7926998236 0.6171828223
24300154200.0 -0.7813131232 0.6294682671
24350153900.0 -0.7692572056 0.6396719694
24400153600.0 -0.7572162675 0.6499552278
24450153300.0 -0.7452033082 0.6598585855
24500153000.0 -0.7338004571 0.6697677635
24550152700.0 -0.7225098529 0.6792864873
24600152400.0 -0.7109478713 0.6884218393
24650152100.0 -0.6989464926 0.6965135872
