!Created with skrf (http://scikit-rf.org).
# Hz S RI R 50.0 
!freq ReS11 ImS11
300000.0 -0.974842855 -0.1190021905
50299700.0 -0.9998635519 0.0151427737
100299400.0 -0.9978801954 0.0279719158
150299100.0 -1.002693786 0.0448796832
200298800.0 -0.9994558156 0.0583139372
250298500.0 -0.9973934083 0.0718520154
300298200.0 -0.9859733474 0.0874980041
350297900.0 -0.9939720911 0.0985685035
400297600.0 -0.9931313188 0.1150214232
450297300.0 -0.9909331944 0.1286135309
500297000.0 -0.989365575 0.1435506927
550296700.0 -0.9843170104 0.155952836
600296400.0 -1.016962616 0.189411263
650296100.0 -0.9820695678 0.1859759863
700295800.0 -0.9790317444 0.2002771798
750295500.0 -0.9761378047 0.2141033205
800295200.0 -0.9728668418 0.2282041204
850294900.0 -0.969763549 0.2420735182
900294600.0 -0.9656151339 0.2558766279
950294300.0 -0.9619881301 0.2695927874
1000294000.0 -0.9581958688 0.2833908186
1050293700.0 -0.9536624223 0.2973242226
1100293400.0 -0.9491906104 0.3117410977
1150293100.0 -0.945599816 0.3234872048
1200292800.0 -0.9400522092 0.3376810014
1250292500.0 -0.9346471838 0.3513244412
1300292200.0 -0.9290528902 0.3646841032
1350291900.0 -0.92332879 0.3786894474
1400291600.0 -0.9180161699 0.391715221
1450291300.0 -0.9124113692 0.4041449001
1500291000.0 -0.90627145 0.4174968178
1550290700.0 -0.8994895194 0.4308063747
1600290400.0 -0.8934115271 0.4437325619
1650290100.0 -0.8866912012 0.4559494957
1700289800.0 -0.8798303301 0.4692895269
1750289500.0 -0.8729901808 0.4817353355
1800289200.0 -0.8654582546 0.4945571991
1850288900.0 -0.8585693383 0.5058753797
1900288600.0 -0.8510538267 0.5189398656
1950288300.0 -0.8427893379 0.5313876813
2000288000.0 -0.8353238785 0.5428725457
2050287700.0 -0.8270620928 0.5552488965
2100287400.0 -0.8192894241 0.5667617993
2150287100.0 -0.8108866442 0.5786890497
2200286800.0 -0.8028254345 0.5892016735
2250286500.0 -0.7940361253 0.6013295535
2300286200.0 -0.7850580212 0.6128776716
2350285900.0 -0.7766009125 0.6236844846
2400285600.0 -0.7678262421 0.6346834599
2450285300.0 -0.7590643203 0.645273777
2500285000.0 -0.7492332941 0.6567935027
2550284700.0 -0.7401730825 0.6668860085
2600284400.0 -0.7308033846 0.6768614346
2650284100.0 -0.7222159815 0.68731795
2700283800.0 -0.7117323208 0.6976259607
2750283500.0 -0.7013103441 0.7083492204
2800283200.0 -0.6915839845 0.7184252269
2850282900.0 -0.6813049731 0.728405586
2900282600.0 -0.6706010993 0.7379189302
2950282300.0 -0.6602419018 0.7472827221
3000282000.0 -0.6493679715 0.7566371154
3050281700.0 -0.6384618763 0.7659106255
3100281400.0 -0.6268310565 0.775109471
3150281100.0 -0.6153610177 0.7841157504
3200280800.0 -0.6038631382 0.7925367935
3250280500.0 -0.5927056121 0.8005382943
3300280200.0 -0.5811179314 0.8085605555
3350279900.0 -0.5694786782 0.8164436653
3400279600.0 -0.5569586892 0.8245248048
3450279300.0 -0.5457796226 0.8312917315
3500279000.0 -0.5336481672 0.8384802535
3550278700.0 -0.5217783495 0.8457073388
3600278400.0 -0.5097343142 0.8524515099
3650278100.0 -0.4963974217 0.8598555116
3700277800.0 -0.4844564215 0.8666071202
3750277500.0 -0.4720950766 0.8732726433
3800277200.0 -0.459685579 0.8799045822
3850276900.0 -0.4477882989 0.8855572497
3900276600.0 -0.4369405074 0.8914159671
3950276300.0 -0.4246524595 0.8973743783
4000276000.0 -0.412696929 0.9033360211
4050275700.0 -0.4000527093 0.9093931356
4100275400.0 -0.3887774609 0.9147175634
4150275100.0 -0.3757693558 0.9206706892
4200274800.0 -0.362583513 0.9259898361
4250274500.0 -0.3501463507 0.9314698984
4300274200.0 -0.3369497596 0.9369639396
4350273900.0 -0.3228001828 0.9418300079
4400273600.0 -0.3080667418 0.9472373654
4450273300.0 -0.2930417301 0.9521183985
4500273000.0 -0.2797781847 0.9565298204
4550272700.0 -0.2660060658 0.9607702353
4600272400.0 -0.2507323146 0.9649711441
4650272100.0 -0.2391833501 0.9678132661
4700271800.0 -0.2261868771 0.971198896
4750271500.0 -0.2146548192 0.974075509
4800271200.0 -0.2024840225 0.9768534568
4850270900.0 -0.1884547808 0.9797286777
4900270600.0 -0.1746877994 0.9820506823
4950270300.0 -0.1601264863 0.9846927991
5000270000.0 -0.1459056951 0.9867079678
5050269700.0 -0.132362262 0.9882160654
5100269400.0 -0.1181726445 0.9900011686
5150269100.0 -0.1043377101 0.991801862
5200268800.0 -0.0912440503 0.9927992481
5250268500.0 -0.0780066338 0.9937638336
5300268200.0 -0.0644319848 0.9947337077
5350267900.0 -0.0517677411 0.9952417536
5400267600.0 -0.0356706303 0.9964025543
5450267300.0 -0.0223613437 0.9965979994
5500267000.0 -0.0072799472 0.9969011087
5550266700.0 0.0077672004 0.9970243547
5600266400.0 0.0234625017 0.997069972
5650266100.0 0.0403016879 0.9966369475
5700265800.0 0.0543016684 0.9960101292
5750265500.0 0.0696804794 0.9952352044
5800265200.0 0.0828998832 0.9940657114
5850264900.0 0.096123502 0.9930957884
5900264600.0 0.1127549512 0.9913710926
5950264300.0 0.1249229266 0.9899050738
6000264000.0 0.138058172 0.9880136463
6050263700.0 0.1502562523 0.9867105166
6100263400.0 0.1624494653 0.9850801546
6150263100.0 0.1770129402 0.9826828212
6200262800.0 0.1865757432 0.9810649307
6250262500.0 0.1994548686 0.9787874856
6300262200.0 0.2118783423 0.9759471117
6350261900.0 0.2248068057 0.9733542957
6400261600.0 0.2386325901 0.9700152805
6450261300.0 0.2498512424 0.9674562015
6500261000.0 0.2629305083 0.963734688
6550260700.0 0.2757313004 0.9597550286
6600260400.0 0.2893757775 0.9557200224
6650260100.0 0.3036133975 0.9511885837
6700259800.0 0.3156494824 0.9469403848
6750259500.0 0.3293849363 0.9419901959
6800259200.0 0.3431757494 0.9370343947
6850258900.0 0.3548678296 0.9317770826
6900258600.0 0.3674827027 0.9266999211
6950258300.0 0.3802470806 0.9215121791
7000258000.0 0.3916178769 0.916274815
7050257700.0 0.4037754315 0.9101274327
7100257400.0 0.4170225854 0.9038018577
7150257100.0 0.427610633 0.8984702858
7200256800.0 0.4405519329 0.8920067697
7250256500.0 0.4532192668 0.8854513046
7300256200.0 0.4660455868 0.8787578457
7350255900.0 0.4785528833 0.8716701453
7400255600.0 0.4928570469 0.8644915877
7450255300.0 0.5078385759 0.8553514004
7500255000.0 0.5206857334 0.8476877674
7550254700.0 0.5346765158 0.8388302133
7600254400.0 0.5471931951 0.8306383583
7650254100.0 0.5584715003 0.8226097948
7700253800.0 0.5701539104 0.814486972
7750253500.0 0.5813197349 0.806864625
7800253200.0 0.5917506233 0.7991603055
7850252900.0 0.6015416354 0.7919095284
7900252600.0 0.6133497641 0.7833329306
7950252300.0 0.6216753396 0.7768698179
8000252000.0 0.6315577291 0.7692783041
8050251700.0 0.6420320389 0.7610476842
8100251400.0 0.6520766732 0.7533743642
8150251100.0 0.6619493171 0.7445534215
8200250800.0 0.6716668161 0.7363300357
8250250500.0 0.6802483632 0.7285743435
8300250200.0 0.6894542336 0.7200339293
8350249900.0 0.6987410714 0.7112338079
8400249600.0 0.7068833836 0.7032712401
8450249300.0 0.7157458124 0.6944672306
8500249000.0 0.7241855897 0.6854373601
8550248700.0 0.7326780979 0.676470329
8600248400.0 0.7407941734 0.6669361239
8650248100.0 0.7487006585 0.6575748163
8700247800.0 0.7580244181 0.6463247529
8750247500.0 0.7662944911 0.636341313
8800247200.0 0.7741445994 0.6262549554
8850246900.0 0.7829732502 0.6145623056
8900246600.0 0.7915711048 0.6032857842
8950246300.0 0.8006556622 0.5906372202
9000246000.0 0.8098662351 0.5785030586
9050245700.0 0.8185563477 0.5658363588
9100245400.0 0.8268961616 0.5535413638
9150245100.0 0.8356858241 0.5406052429
9200244800.0 0.8454633139 0.5259296786
9250244500.0 0.8541669016 0.5108013153
9300244200.0 0.8625737568 0.4971759431
9350243900.0 0.8702641559 0.4836809961
9400243600.0 0.876887409 0.4717486393
9450243300.0 0.8826185274 0.4609463257
9500243000.0 0.8887127032 0.4491026112
9550242700.0 0.8928490966 0.4412682198
9600242400.0 0.8969365167 0.4340632104
9650242100.0 0.900911959 0.4271294232
9700241800.0 0.9056946656 0.4184928072
9750241500.0 0.9098560621 0.4109737937
9800241200.0 0.9146314505 0.401775411
9850240900.0 0.9202228575 0.3901432899
9900240600.0 0.9266712128 0.3781111103
9950240300.0 0.9332549173 0.3617477696
10000240000.0 0.9380954167 0.3498603294
10050239700.0 0.94417583 0.3339126327
10100239400.0 0.9495687533 0.3177868502
10150239100.0 0.9539319089 0.3023392827
10200238800.0 0.9581022695 0.2872311646
10250238500.0 0.9615272813 0.2737910071
10300238200.0 0.9645480675 0.2598168069
10350237900.0 0.9674135959 0.2465801025
10400237600.0 0.9698903527 0.2331730893
10450237300.0 0.9727369226 0.2193983145
10500237000.0 0.9747619629 0.2072380621
10550236700.0 0.9773634328 0.1925187306
10600236400.0 0.9797184386 0.1783541195
10650236100.0 0.9812199913 0.1646090347
10700235800.0 0.9834995521 0.1520326497
10750235500.0 0.9857446551 0.1388446903
10800235200.0 0.9881880308 0.1240611827
10850234900.0 0.9899212818 0.1095525575
10900234600.0 0.9917837146 0.0946542805
10950234300.0 0.9935904773 0.0814208065
11000234000.0 0.9953770487 0.0659283326
11050233700.0 0.997185923 0.0493321814
11100233400.0 0.998826486 0.0315370476
11150233100.0 1.000086293 0.0152176636
11200232800.0 1.000662573 -0.0004850158
11250232500.0 1.001288576 -0.0180706203
11300232200.0 1.002225077 -0.0361469645
11350231900.0 1.002027675 -0.0526565864
11400231600.0 1.001543965 -0.0677383744
11450231300.0 1.00062714 -0.0830679911
11500231000.0 0.9998697103 -0.0995820319
11550230700.0 0.9988702501 -0.1138240799
11600230400.0 0.9969438769 -0.1252705475
11650230100.0 0.9950178683 -0.1377907967
11700229800.0 0.9925746758 -0.152269774
11750229500.0 0.9902829199 -0.1663550998
11800229200.0 0.9875957062 -0.1799993001
11850228900.0 0.9840683272 -0.1920244881
11900228600.0 0.980185118 -0.2015633455
11950228300.0 0.976889165 -0.2117800298
12000228000.0 0.9739397092 -0.2208800524
12050227700.0 0.9704843877 -0.2327748792
12100227400.0 0.9673610088 -0.2440185658
12150227100.0 0.9623758063 -0.2606097653
12200226800.0 0.9580168925 -0.2720759522
12250226500.0 0.9548866774 -0.2844952738
12300226200.0 0.9497333806 -0.2969425472
12350225900.0 0.9451796739 -0.3104454097
12400225600.0 0.9408415056 -0.3230033962
12450225300.0 0.9363870888 -0.3361834718
12500225000.0 0.930866127 -0.3509323617
12550224700.0 0.925577644 -0.3646351858
12600224400.0 0.9206236908 -0.3773461615
12650224100.0 0.9147205993 -0.3916772337
12700223800.0 0.9094115001 -0.4043960011
12750223500.0 0.9039238912 -0.4175359395
12800223200.0 0.8985547458 -0.4302777189
12850222900.0 0.8933249448 -0.4421368819
12900222600.0 0.887881831 -0.454677284
12950222300.0 0.8815519498 -0.4673537129
13000222000.0 0.875994406 -0.4782408495
13050221700.0 0.8687524846 -0.4920145241
13100221400.0 0.8623674346 -0.5034273621
13150221100.0 0.8551914278 -0.5157897111
13200220800.0 0.8484220281 -0.5272070763
13250220500.0 0.840964835 -0.5393966216
13300220200.0 0.8335257022 -0.5503760394
13350219900.0 0.8255795872 -0.5620454732
13400219600.0 0.8170232176 -0.5740418367
13450219300.0 0.8076155671 -0.5873927651
13500219000.0 0.7977812354 -0.6007250547
13550218700.0 0.7880846089 -0.6130913826
13600218400.0 0.7778114827 -0.6251443536
13650218100.0 0.7681188456 -0.6358917024
13700217800.0 0.7572321609 -0.6475959352
13750217500.0 0.7473614595 -0.6588597291
13800217200.0 0.7362410584 -0.6700484486
13850216900.0 0.7258441005 -0.6812165978
13900216600.0 0.7157508532 -0.690675304
13950216300.0 0.7048140562 -0.700239988
14000216000.0 0.6954514251 -0.7094706946
14050215700.0 0.686229287 -0.7174845303
14100215400.0 0.6762127999 -0.7272830659
14150215100.0 0.6671725955 -0.7354470337
14200214800.0 0.6576842758 -0.7443047241
14250214500.0 0.6474295408 -0.7537780949
14300214200.0 0.6369674605 -0.7632386203
14350213900.0 0.6258915628 -0.7726753862
14400213600.0 0.6140288282 -0.7824888979
14450213300.0 0.6009549336 -0.7930379039
14500213000.0 0.5880054742 -0.8024635971
14550212700.0 0.5754530111 -0.8119582482
14600212400.0 0.5634874213 -0.8207403478
14650212100.0 0.5501094551 -0.8297563148
14700211800.0 0.5367213573 -0.8392222378
14750211500.0 0.5243449866 -0.847287198
14800211200.0 0.5118138083 -0.8556504705
14850210900.0 0.4994751682 -0.8631801807
14900210600.0 0.4864152792 -0.8711758612
14950210300.0 0.4731029038 -0.8786998325
15000210000.0 0.4603983048 -0.8855277308
15050209700.0 0.4478364016 -0.891639664
15100209400.0 0.4353612738 -0.8974553152
15150209100.0 0.4231419823 -0.9032722114
15200208800.0 0.4105431296 -0.9083459221
15250208500.0 0.3990989751 -0.9125977171
15300208200.0 0.3867255187 -0.9179478011
15350207900.0 0.3737061911 -0.9221328122
15400207600.0 0.3594757876 -0.9278742251
15450207300.0 0.3438837843 -0.9326485102
15500207000.0 0.3294064562 -0.9371183681
15550206700.0 0.3150823837 -0.9419826791
15600206400.0 0.2991548173 -0.946988897
15650206100.0 0.2836343712 -0.9510526726
15700205800.0 0.2699110876 -0.9545269435
15750205500.0 0.2559439648 -0.9576185243
15800205200.0 0.2415410398 -0.9614609413
15850204900.0 0.227335622 -0.9648707182
15900204600.0 0.2121701984 -0.968625306
15950204300.0 0.198074879 -0.9718305365
16000204000.0 0.1836163135 -0.9744718018
16050203700.0 0.1687602829 -0.9776353688
16100203400.0 0.1536782832 -0.9797989146
16150203100.0 0.1386341449 -0.9819958075
16200202800.0 0.125116359 -0.9842018756
16250202500.0 0.1099153607 -0.9858886491
16300202200.0 0.0946104848 -0.9876709873
16350201900.0 0.0798704672 -0.9888115109
16400201600.0 0.0652585129 -0.9900905153
16450201300.0 0.0494599661 -0.9911902494
16500201000.0 0.0325221281 -0.992024037
16550200700.0 0.0166988892 -0.9926165165
16600200400.0 0.000765092 -0.9927185073
16650200100.0 -0.015213073 -0.992567969
16700199800.0 -0.0314880926 -0.9921213137
16750199500.0 -0.0507365799 -0.99183792
16800199200.0 -0.0663054402 -0.990509835
16850198900.0 -0.0814131819 -0.9890717683
16900198600.0 -0.0959414353 -0.9886981943
16950198300.0 -0.1091782905 -0.9876524942
17000198000.0 -0.1219777779 -0.9857061898
17050197700.0 -0.1344908354 -0.9843366121
17100197400.0 -0.1480314356 -0.9821114276
17150197100.0 -0.1608349311 -0.9799294058
17200196800.0 -0.173451169 -0.978031477
17250196500.0 -0.186502684 -0.9756456514
17300196200.0 -0.1982123142 -0.9730905409
17350195900.0 -0.210238211 -0.9708306282
17400195600.0 -0.2225055117 -0.9682201597
17450195300.0 -0.2354264677 -0.9655717546
17500195000.0 -0.2486786038 -0.9623904934
17550194700.0 -0.2623423578 -0.9587431358
17600194400.0 -0.2760494435 -0.9549394765
17650194100.0 -0.2901406018 -0.9503020542
17700193800.0 -0.3028204297 -0.9468037742
17750193500.0 -0.3172604505 -0.9417183743
17800193200.0 -0.3312945729 -0.936555837
17850192900.0 -0.3462757443 -0.9312013943
17900192600.0 -0.361285366 -0.9251570764
17950192300.0 -0.3766567343 -0.9178830916
18000192000.0 -0.3919514118 -0.9106649349
18050191700.0 -0.4058269229 -0.9028681927
18100191400.0 -0.4199963173 -0.8952458927
18150191100.0 -0.4347947041 -0.8872456045
18200190800.0 -0.4518091296 -0.8778430024
18250190500.0 -0.4686148199 -0.8686793731
18300190200.0 -0.4840849592 -0.8598973185
18350189900.0 -0.4990660357 -0.8513661227
18400189600.0 -0.5140707059 -0.8431611471
18450189300.0 -0.5273552562 -0.8348982086
18500189000.0 -0.5408796872 -0.8270538918
18550188700.0 -0.5530590137 -0.8190149031
18600188400.0 -0.5647160221 -0.8122552582
18650188100.0 -0.5765529406 -0.8057051497
18700187800.0 -0.587707648 -0.7991047599
18750187500.0 -0.5980732411 -0.7925356106
18800187200.0 -0.6087988808 -0.7857294324
18850186900.0 -0.6189243512 -0.7788342386
18900186600.0 -0.629392404 -0.7714656122
18950186300.0 -0.6395545389 -0.7636776757
19000186000.0 -0.6468307235 -0.7573465456
19050185700.0 -0.6561112462 -0.7503458422
19100185400.0 -0.6666073439 -0.7417084339
19150185100.0 -0.6763226274 -0.73345293
19200184800.0 -0.6855556868 -0.7254470923
19250184500.0 -0.6966874703 -0.7162845306
19300184200.0 -0.7077774324 -0.7062556745
19350183900.0 -0.7176250522 -0.6970791813
19400183600.0 -0.7280631192 -0.6872993125
19450183300.0 -0.7363225386 -0.6769294454
19500183000.0 -0.7451130626 -0.6671793907
19550182700.0 -0.7549765114 -0.6562786203
19600182400.0 -0.7653702582 -0.6441786845
19650182100.0 -0.7759694938 -0.631871099
19700181800.0 -0.7861707036 -0.6190790112
19750181500.0 -0.7966460007 -0.6047968655
19800181200.0 -0.8070101097 -0.5899329062
19850180900.0 -0.8164659576 -0.5743565455
19900180600.0 -0.8242184214 -0.5599985691
19950180300.0 -0.8334434657 -0.5435735716
20000180000.0 -0.8243466005 -0.547473569
20050179700.0 -0.8320635644 -0.5340975515
20100179400.0 -0.8395694707 -0.5208586605
20150179100.0 -0.8488912804 -0.5087427276
20200178800.0 -0.857636666 -0.4971032229
20250178500.0 -0.866504357 -0.484190839
20300178200.0 -0.8760705638 -0.4697021451
20350177900.0 -0.885230296 -0.4560888995
20400177600.0 -0.8943812665 -0.441708808
20450177300.0 -0.9029971076 -0.4272820911
20500177000.0 -0.9109120724 -0.4135749382
20550176700.0 -0.9190838594 -0.4001208161
20600176400.0 -0.9256632149 -0.3863791314
20650176100.0 -0.9322698332 -0.3745927683
20700175800.0 -0.9389923058 -0.3629251155
20750175500.0 -0.9454212211 -0.3513372755
20800175200.0 -0.9498672739 -0.3404396842
20850174900.0 -0.9545256092 -0.329675452
20900174600.0 -0.9592709124 -0.3181916384
20950174300.0 -0.9633073911 -0.3077137127
21000174000.0 -0.9651792039 -0.2958394765
21050173700.0 -0.9677436949 -0.2861701163
21100173400.0 -0.970917541 -0.2753413177
21150173100.0 -0.9748403399 -0.263395604
21200172800.0 -0.9792545379 -0.2497121936
21250172500.0 -0.9827632878 -0.2359034065
21300172200.0 -0.9855455544 -0.2221473093
21350171900.0 -0.9876085392 -0.2074644308
21400171600.0 -0.9891797067 -0.1941259238
21450171300.0 -0.9902725676 -0.1790753292
21500171000.0 -0.9907589865 -0.1639724448
21550170700.0 -0.9904531833 -0.1481870905
21600170400.0 -0.9913685381 -0.1331338449
21650170100.0 -0.9906609785 -0.1174697092
21700169800.0 -0.9900930069 -0.1023029383
21750169500.0 -0.9902627222 -0.0863585412
21800169200.0 -0.9893530288 -0.069550704
21850168900.0 -0.9899749178 -0.0531004348
21900168600.0 -0.9882091046 -0.03742349
21950168300.0 -0.987825265 -0.021047021
22000168000.0 -0.9872080875 -0.0061421591
22050167700.0 -0.98754347 0.0084304403
22100167400.0 -0.9878841719 0.0238592785
22150167100.0 -0.9890237385 0.039916839
22200166800.0 -0.9891878985 0.0563419663
22250166500.0 -0.9889621739 0.0736092943
22300166200.0 -0.987886437 0.0899812111
22350165900.0 -0.9869051168 0.105893058
22400165600.0 -0.9852463504 0.1214338869
22450165300.0 -0.9842762638 0.1372270238
22500165000.0 -0.9816621874 0.1509766182
22550164700.0 -0.9806977411 0.1669998422
22600164400.0 -0.9782522608 0.1826682302
22650164100.0 -0.9767232117 0.1985455533
22700163800.0 -0.9724931352 0.2145529653
22750163500.0 -0.9699928483 0.2294145228
22800163200.0 -0.9675080244 0.2419135736
22850162900.0 -0.9649248304 0.2560425718
22900162600.0 -0.9634490814 0.2697284471
22950162300.0 -0.9613693373 0.2829125493
23000162000.0 -0.9602207803 0.2956547067
23050161700.0 -0.9573312788 0.3083081816
23100161400.0 -0.955072296 0.3220213541
23150161100.0 -0.9521489536 0.3348087311
23200160800.0 -0.9490705594 0.3475073285
23250160500.0 -0.9465434532 0.3591501978
23300160200.0 -0.9440378066 0.3721392862
23350159900.0 -0.9393032674 0.3860139272
23400159600.0 -0.9344362617 0.3992243146
23450159300.0 -0.9297126309 0.4126492999
23500159000.0 -0.9246512155 0.4260561711
23550158700.0 -0.9200197368 0.4397012477
23600158400.0 -0.9140604946 0.4535710055
23650158100.0 -0.9073011352 0.4681104072
23700157800.0 -0.8989861758 0.4822302107
23750157500.0 -0.8900256137 0.4964731932
23800157200.0 -0.8805866967 0.5102162562
23850156900.0 -0.8713392139 0.522933116
23900156600.0 -0.8613457974 0.5347386716
23950156300.0 -0.8521012122 0.5477436597
24000156000.0 -0.8430873006 0.5600130461
24050155700.0 -0.8321335613 0.5718360567
24100155400.0 -0.8211870975 0.5847262496
24150155100.0 -0.8107233638 0.5971620134
24200154800.0 -0.7995832285 0.6082319324
24250154500.0 -0.7888034896 0.6194592437
24300154200.0 -0.7766451657 0.6320873149
24350153900.0 -0.7650569486 0.6427894453
24400153600.0 -0.7529702084 0.6536660052
24450153300.0 -0.740758272 0.6640312152
24500153000.0 -0.729183008 0.6734747363
24550152700.0 -0.7182407255 0.683447493
24600152400.0 -0.7060767109 0.6926605229
24650152100.0 -0.6942849101 0.7014270026
