!Created with skrf (http://scikit-rf.org).
# Hz S RI R 50.0 
!freq ReS11 ImS11
300000.0 -0.9759961869 -0.1125978643
50299700.0 -1.000030732 0.0158842166
100299400.0 -0.998053912 0.0286639962
150299100.0 -1.002748457 0.0457052458
200298800.0 -0.9997034131 0.0588770274
250298500.0 -0.9976226187 0.0724386886
300298200.0 -0.9861152373 0.088313843
350297900.0 -0.9937923847 0.0990253814
400297600.0 -0.9931946598 0.1156208862
450297300.0 -0.9910928385 0.1295369431
500297000.0 -0.9895291533 0.1441403968
550296700.0 -0.9842445155 0.156746508
600296400.0 -1.017359764 0.1899042211
650296100.0 -0.9822232518 0.1867243276
700295800.0 -0.9791629555 0.200919853
750295500.0 -0.9761192785 0.2149941137
800295200.0 -0.9730494346 0.2292633614
850294900.0 -0.9696723194 0.2430681643
900294600.0 -0.9656368405 0.2565674491
950294300.0 -0.9619518238 0.270453057
1000294000.0 -0.9579169495 0.2843658012
1050293700.0 -0.9534616159 0.298231738
1100293400.0 -0.9492423398 0.3128025944
1150293100.0 -0.9452472109 0.3245385179
1200292800.0 -0.9401181231 0.3387472025
1250292500.0 -0.9345619892 0.3521263698
1300292200.0 -0.9287936182 0.3654076595
1350291900.0 -0.9234525056 0.3795115081
1400291600.0 -0.9178263684 0.3926470379
1450291300.0 -0.9123506546 0.4049928843
1500291000.0 -0.9060260143 0.4183005084
1550290700.0 -0.8994519889 0.4315747379
1600290400.0 -0.8934042769 0.4444153826
1650290100.0 -0.8866374134 0.4566725737
1700289800.0 -0.8798187864 0.4703048059
1750289500.0 -0.872649674 0.4824365802
1800289200.0 -0.8652940792 0.4954996263
1850288900.0 -0.8584247682 0.5067394841
1900288600.0 -0.850850363 0.5197111081
1950288300.0 -0.8426261906 0.5322084227
2000288000.0 -0.8351167376 0.5436854466
2050287700.0 -0.8270634331 0.5560614177
2100287400.0 -0.8189215753 0.567602472
2150287100.0 -0.8101886136 0.5796710157
2200286800.0 -0.8025483243 0.5898799527
2250286500.0 -0.7936993221 0.6019077116
2300286200.0 -0.7845132117 0.6137058901
2350285900.0 -0.7759731728 0.6246575982
2400285600.0 -0.7671449555 0.6355208854
2450285300.0 -0.7583498978 0.6460142058
2500285000.0 -0.7488017282 0.6573142144
2550284700.0 -0.7399466522 0.6675188946
2600284400.0 -0.7305706247 0.6776941273
2650284100.0 -0.7214676715 0.6882643109
2700283800.0 -0.710875615 0.6988595972
2750283500.0 -0.7003375937 0.7093502828
2800283200.0 -0.6905412094 0.7191939012
2850282900.0 -0.6807644846 0.7290600319
2900282600.0 -0.6702095938 0.7383979753
2950282300.0 -0.6600784832 0.7476475084
3000282000.0 -0.6492686148 0.7571577772
3050281700.0 -0.6382756403 0.7663357836
3100281400.0 -0.6260272914 0.7759298343
3150281100.0 -0.614345855 0.7852539864
3200280800.0 -0.6027118546 0.793653588
3250280500.0 -0.5918516337 0.8015219676
3300280200.0 -0.5808060807 0.8093320902
3350279900.0 -0.5693136049 0.8166749843
3400279600.0 -0.55692242 0.8241761739
3450279300.0 -0.5459996822 0.8313398378
3500279000.0 -0.5338139191 0.8388164108
3550278700.0 -0.5215036178 0.8459905515
3600278400.0 -0.5088396171 0.852801823
3650278100.0 -0.4957225367 0.8608614969
3700277800.0 -0.4838435805 0.8671587641
3750277500.0 -0.4713481421 0.8738278872
3800277200.0 -0.4591220202 0.880061084
3850276900.0 -0.4468700606 0.8863153129
3900276600.0 -0.4361853155 0.8918139058
3950276300.0 -0.423610437 0.8977499359
4000276000.0 -0.4115806058 0.9038004658
4050275700.0 -0.3985130853 0.9100905988
4100275400.0 -0.3874737199 0.9153099625
4150275100.0 -0.3750435758 0.9209044143
4200274800.0 -0.3618776197 0.926468786
4250274500.0 -0.3496329185 0.9315199048
4300274200.0 -0.3364838394 0.93686709
4350273900.0 -0.3228971096 0.9421007828
4400273600.0 -0.3078857387 0.9475314287
4450273300.0 -0.2928543542 0.9524371197
4500273000.0 -0.2789624943 0.9568750485
4550272700.0 -0.2648346957 0.9611410547
4600272400.0 -0.2492710363 0.9654557502
4650272100.0 -0.2375521105 0.9685007575
4700271800.0 -0.2243108547 0.9719830948
4750271500.0 -0.212610599 0.9748580119
4800271200.0 -0.200075878 0.9774168078
4850270900.0 -0.1860362563 0.9801980585
4900270600.0 -0.1722493545 0.9826152486
4950270300.0 -0.1580105344 0.9852197703
5000270000.0 -0.1437804609 0.9870225317
5050269700.0 -0.1304145219 0.9886157575
5100269400.0 -0.1169147211 0.9902527435
5150269100.0 -0.1033230639 0.9922173992
5200268800.0 -0.0900861353 0.9932816798
5250268500.0 -0.0770202978 0.9939099436
5300268200.0 -0.0639197862 0.9946811407
5350267900.0 -0.0517369928 0.9950528591
5400267600.0 -0.0355562352 0.9964898012
5450267300.0 -0.0226009154 0.9966489896
5500267000.0 -0.007377174 0.9971130213
5550266700.0 0.0077232519 0.99724446
5600266400.0 0.0231800078 0.9970642801
5650266100.0 0.0397688474 0.996943802
5700265800.0 0.0542375144 0.9960039199
5750265500.0 0.0693456696 0.9952845899
5800265200.0 0.0834738223 0.9941696308
5850264900.0 0.0966656339 0.9932117971
5900264600.0 0.1130991594 0.9914719663
5950264300.0 0.1253653293 0.9899204971
6000264000.0 0.1392549025 0.9880640756
6050263700.0 0.1520656365 0.9866371205
6100263400.0 0.1644439972 0.9851148094
6150263100.0 0.1788312483 0.9826444265
6200262800.0 0.1892353827 0.9808667974
6250262500.0 0.2020747553 0.9781816186
6300262200.0 0.2148558624 0.9752543321
6350261900.0 0.2279967725 0.9725231899
6400261600.0 0.2419167869 0.9692208741
6450261300.0 0.2530814501 0.9664762857
6500261000.0 0.2659511654 0.9628150068
6550260700.0 0.2789446307 0.9590474333
6600260400.0 0.2922258952 0.9549231893
6650260100.0 0.3061034756 0.9505173973
6700259800.0 0.318209922 0.9459707086
6750259500.0 0.3317794029 0.9410900534
6800259200.0 0.3448208975 0.9361609504
6850258900.0 0.3569503735 0.931107194
6900258600.0 0.3687233114 0.926163447
6950258300.0 0.3819167868 0.9207667108
7000258000.0 0.3937749759 0.9152644749
7050257700.0 0.4060486864 0.9092992133
7100257400.0 0.4185471496 0.9031604854
7150257100.0 0.4289497001 0.8979413577
7200256800.0 0.4416223444 0.8914500335
7250256500.0 0.4536002964 0.8851938094
7300256200.0 0.4666618486 0.8782207285
7350255900.0 0.4789140564 0.8715446191
7400255600.0 0.4922274762 0.8641937349
7450255300.0 0.5077224173 0.8553424146
7500255000.0 0.5187848055 0.8481079116
7550254700.0 0.5328409361 0.8399664278
7600254400.0 0.5458501109 0.8313842383
7650254100.0 0.5569379146 0.8237163833
7700253800.0 0.5687583847 0.815480587
7750253500.0 0.5803087912 0.8078235487
7800253200.0 0.591033242 0.800254925
7850252900.0 0.6007533033 0.7928507821
7900252600.0 0.6122937674 0.7841991747
7950252300.0 0.6210584884 0.7776549942
8000252000.0 0.6311379083 0.7700111272
8050251700.0 0.6419063564 0.7617097234
8100251400.0 0.6519262265 0.7536529862
8150251100.0 0.6621196872 0.7446853317
8200250800.0 0.6716186789 0.7368368135
8250250500.0 0.6806601042 0.728919559
8300250200.0 0.689760771 0.7203745044
8350249900.0 0.6987190761 0.7117274438
8400249600.0 0.7070503716 0.7037638777
8450249300.0 0.7162887085 0.694302176
8500249000.0 0.7245824917 0.685583999
8550248700.0 0.7329207096 0.676489236
8600248400.0 0.7413378918 0.6671261013
8650248100.0 0.7490676839 0.657766621
8700247800.0 0.7588067724 0.6463674353
8750247500.0 0.7669691845 0.6362707839
8800247200.0 0.7751269842 0.6258684407
8850246900.0 0.7839121105 0.6144452646
8900246600.0 0.7922517931 0.6031327899
8950246300.0 0.8021707792 0.5902510205
9000246000.0 0.8114018207 0.5775005919
9050245700.0 0.8202644341 0.5645100939
9100245400.0 0.8287922883 0.5518323697
9150245100.0 0.838463005 0.5381408771
9200244800.0 0.8484616654 0.5225741379
9250244500.0 0.8577963145 0.506883205
9300244200.0 0.8662347047 0.4923949108
9350243900.0 0.8737213095 0.4785548442
9400243600.0 0.8805961274 0.465990748
9450243300.0 0.8864519433 0.4542897552
9500243000.0 0.8927215879 0.4421325097
9550242700.0 0.8962998889 0.4345131977
9600242400.0 0.8999402123 0.4271793163
9650242100.0 0.9035922106 0.4205874796
9700241800.0 0.9083557838 0.4126243489
9750241500.0 0.9123120463 0.4049363866
9800241200.0 0.9169816927 0.3956161914
9850240900.0 0.922476803 0.3843216658
9900240600.0 0.9281204794 0.3725818102
9950240300.0 0.9346100382 0.3563866928
10000240000.0 0.9388543298 0.3452761708
10050239700.0 0.9448757187 0.3295447091
10100239400.0 0.9497273092 0.3143550484
10150239100.0 0.954310309 0.2994640402
10200238800.0 0.9585615238 0.2845335281
10250238500.0 0.9617370041 0.2712324149
10300238200.0 0.9650295988 0.257294721
10350237900.0 0.9675254162 0.2443432793
10400237600.0 0.969971577 0.2312159227
10450237300.0 0.9728781325 0.2174289368
10500237000.0 0.9747717032 0.2051346942
10550236700.0 0.9770844152 0.1914520106
10600236400.0 0.9792503192 0.1777398296
10650236100.0 0.9815247552 0.1630986222
10700235800.0 0.9835233172 0.1507531354
10750235500.0 0.985578686 0.1380782179
10800235200.0 0.9878520472 0.1233903194
10850234900.0 0.9894117027 0.1088951961
10900234600.0 0.9915710828 0.0947416261
10950234300.0 0.9934129721 0.0811826507
11000234000.0 0.9952326592 0.066135875
11050233700.0 0.9970382395 0.0498386636
11100233400.0 0.9984254418 0.0322745036
11150233100.0 0.9994971799 0.0163945707
11200232800.0 1.000475089 0.0011360554
11250232500.0 1.001128634 -0.0154900762
11300232200.0 1.001247166 -0.0327298384
11350231900.0 1.001357251 -0.049060678
11400231600.0 1.001324486 -0.0640458396
11450231300.0 1.000676378 -0.0794289018
11500231000.0 0.9997033544 -0.0968926282
11550230700.0 0.9986960175 -0.1100222653
11600230400.0 0.9972282625 -0.1218924185
11650230100.0 0.9950010505 -0.1345901114
11700229800.0 0.993002776 -0.1488219834
11750229500.0 0.9904215559 -0.1635513334
11800229200.0 0.9876428146 -0.1773841424
11850228900.0 0.9842070711 -0.1896943171
11900228600.0 0.9807564907 -0.1998824394
11950228300.0 0.9774318398 -0.2099723978
12000228000.0 0.9746096416 -0.2193486001
12050227700.0 0.9713176869 -0.2312640899
12100227400.0 0.9681106416 -0.2431884553
12150227100.0 0.9627937474 -0.2598723071
12200226800.0 0.9594155091 -0.2698125803
12250226500.0 0.955406068 -0.283016768
12300226200.0 0.9510738216 -0.2942265454
12350225900.0 0.9465999879 -0.3086702592
12400225600.0 0.9416448073 -0.3221187816
12450225300.0 0.9377840018 -0.3343861648
12500225000.0 0.9321144985 -0.3493232917
12550224700.0 0.9268529508 -0.3629664998
12600224400.0 0.921885146 -0.3758525656
12650224100.0 0.91606814 -0.3899791588
12700223800.0 0.9108849792 -0.4028399654
12750223500.0 0.905358835 -0.4156850813
12800223200.0 0.9000532704 -0.4282379744
12850222900.0 0.8946164103 -0.440707971
12900222600.0 0.8886959362 -0.4529556468
12950222300.0 0.8825213667 -0.4658300865
13000222000.0 0.8768233685 -0.4768060736
13050221700.0 0.8696886636 -0.4895653195
13100221400.0 0.8631637115 -0.5014905684
13150221100.0 0.8567125362 -0.5138054876
13200220800.0 0.8494484455 -0.5251724902
13250220500.0 0.841726161 -0.5373494905
13300220200.0 0.8344498084 -0.5483354168
13350219900.0 0.8263626271 -0.560504247
13400219600.0 0.8180768808 -0.5727107149
13450219300.0 0.8086976031 -0.5862460064
13500219000.0 0.7983739749 -0.6002815433
13550218700.0 0.7877365809 -0.6131730651
13600218400.0 0.7776931175 -0.6257158997
13650218100.0 0.7674133356 -0.6364244078
13700217800.0 0.7572314442 -0.6485803404
13750217500.0 0.7465790606 -0.6606027878
13800217200.0 0.7358521121 -0.6713056837
13850216900.0 0.7245923369 -0.6835367691
13900216600.0 0.7153791137 -0.6923832277
13950216300.0 0.704414455 -0.7020395174
14000216000.0 0.6943956556 -0.7123783996
14050215700.0 0.6845629248 -0.7200284241
14100215400.0 0.6743196019 -0.7289576664
14150215100.0 0.6656350219 -0.7373671772
14200214800.0 0.6561285181 -0.7460688657
14250214500.0 0.6459380625 -0.7552495963
14300214200.0 0.6355384519 -0.7645738372
14350213900.0 0.6245851917 -0.7740112249
14400213600.0 0.612769893 -0.7840008238
14450213300.0 0.5997679897 -0.7939546206
14500213000.0 0.5867072266 -0.8036483858
14550212700.0 0.5737509919 -0.8132010009
14600212400.0 0.5613614178 -0.821726103
14650212100.0 0.5484363366 -0.8307891995
14700211800.0 0.5346923322 -0.8402147246
14750211500.0 0.5224982774 -0.8485837327
14800211200.0 0.5102247582 -0.8565779975
14850210900.0 0.498080216 -0.8640763104
14900210600.0 0.4847122679 -0.8719032544
14950210300.0 0.4713661851 -0.8795060272
15000210000.0 0.4585475384 -0.8863504962
15050209700.0 0.4458099615 -0.8923997402
15100209400.0 0.4333476816 -0.8985670592
15150209100.0 0.4207944024 -0.9034997236
15200208800.0 0.4075184538 -0.9090613523
15250208500.0 0.3971222544 -0.9134087192
15300208200.0 0.3845796614 -0.9183557767
15350207900.0 0.3714613115 -0.9233205212
15400207600.0 0.3569558093 -0.9288318451
15450207300.0 0.3420758858 -0.9337668479
15500207000.0 0.3273526242 -0.9391872262
15550206700.0 0.312417707 -0.9432466433
15600206400.0 0.2966032525 -0.947677205
15650206100.0 0.280849553 -0.9516824212
15700205800.0 0.2667049771 -0.9557349759
15750205500.0 0.2524640251 -0.9592365994
15800205200.0 0.2377599852 -0.962759789
15850204900.0 0.2234302479 -0.9660478691
15900204600.0 0.2084085498 -0.9694390022
15950204300.0 0.194481429 -0.9723969894
16000204000.0 0.1803039748 -0.9751462834
16050203700.0 0.1654548285 -0.9779845715
16100203400.0 0.1511285985 -0.9802408158
16150203100.0 0.136421646 -0.9822122019
16200202800.0 0.1225440395 -0.9842737223
16250202500.0 0.1079321998 -0.9861460328
16300202200.0 0.092686177 -0.9877969958
16350201900.0 0.0777315182 -0.988928909
16400201600.0 0.0629902843 -0.9900052533
16450201300.0 0.0479194807 -0.9913331357
16500201000.0 0.0313451084 -0.992001257
16550200700.0 0.0154842689 -0.9924370852
16600200400.0 -4.95128e-05 -0.9924983846
16650200100.0 -0.01625074 -0.9923187062
16700199800.0 -0.0328258242 -0.9923074256
16750199500.0 -0.0515499569 -0.9918875202
16800199200.0 -0.0677148094 -0.9909638493
16850198900.0 -0.082297597 -0.9896130499
16900198600.0 -0.0965218205 -0.9883629127
16950198300.0 -0.10986301 -0.9875885179
17000198000.0 -0.1227896625 -0.9857292419
17050197700.0 -0.1353403509 -0.9841784311
17100197400.0 -0.1483069204 -0.9816723507
17150197100.0 -0.1611168578 -0.9797556922
17200196800.0 -0.1734088214 -0.9777466313
17250196500.0 -0.1863473591 -0.9753220743
17300196200.0 -0.198276956 -0.9731069061
17350195900.0 -0.2103856442 -0.9708487198
17400195600.0 -0.2225375613 -0.9682666127
17450195300.0 -0.2358012459 -0.965487392
17500195000.0 -0.2492794683 -0.9623169975
17550194700.0 -0.2632261115 -0.9586737217
17600194400.0 -0.2772850734 -0.9548106334
17650194100.0 -0.2909545682 -0.9500103555
17700193800.0 -0.3036322326 -0.9461303134
17750193500.0 -0.3180362398 -0.941365209
17800193200.0 -0.3328846792 -0.9364461873
17850192900.0 -0.3475933013 -0.9308735074
17900192600.0 -0.3626605043 -0.9248366041
17950192300.0 -0.3782414178 -0.9177151785
18000192000.0 -0.3928431185 -0.9105597481
18050191700.0 -0.4069485573 -0.9025652395
18100191400.0 -0.4210332343 -0.8949705054
18150191100.0 -0.4359751832 -0.886763116
18200190800.0 -0.4529621653 -0.8777895
18250190500.0 -0.4699946964 -0.8681002652
18300190200.0 -0.4852018222 -0.8595710028
18350189900.0 -0.5004136355 -0.8513399024
18400189600.0 -0.5145739715 -0.8428364378
18450189300.0 -0.5281325607 -0.8348903832
18500189000.0 -0.5410526175 -0.8267992901
18550188700.0 -0.5541735744 -0.8189809366
18600188400.0 -0.5657902495 -0.812330969
18650188100.0 -0.5766645869 -0.8058880558
18700187800.0 -0.5875390702 -0.7993899814
18750187500.0 -0.5981712485 -0.7929169755
18800187200.0 -0.6087158568 -0.7857019036
18850186900.0 -0.6188536753 -0.7786797556
18900186600.0 -0.6290608665 -0.7713368819
18950186300.0 -0.6389644651 -0.7633918788
19000186000.0 -0.6462375418 -0.7576751181
19050185700.0 -0.6561131273 -0.7500545119
19100185400.0 -0.6656777238 -0.7417117776
19150185100.0 -0.6764387896 -0.7331060266
19200184800.0 -0.6850128031 -0.7245598787
19250184500.0 -0.6955766691 -0.7160245938
19300184200.0 -0.7077089913 -0.7065213894
19350183900.0 -0.717587436 -0.6964332967
19400183600.0 -0.7275764417 -0.6866402624
19450183300.0 -0.7360910625 -0.6766937456
19500183000.0 -0.7446424158 -0.666351441
19550182700.0 -0.7542562209 -0.6557036731
19600182400.0 -0.7651083384 -0.6437609066
19650182100.0 -0.7758205309 -0.6312659616
19700181800.0 -0.786363974 -0.618172688
19750181500.0 -0.7968525492 -0.604021936
19800181200.0 -0.8071895924 -0.5890799273
19850180900.0 -0.8167400437 -0.5737616338
19900180600.0 -0.8246294642 -0.5593507787
19950180300.0 -0.8338112557 -0.542912776
20000180000.0 -0.8269542284 -0.5454689571
20050179700.0 -0.8354093459 -0.531970422
20100179400.0 -0.8430558405 -0.5184366952
20150179100.0 -0.8512707108 -0.5056523898
20200178800.0 -0.8611104885 -0.4927932797
20250178500.0 -0.8696493391 -0.4786971158
20300178200.0 -0.8795431979 -0.4645092617
20350177900.0 -0.889086669 -0.4506105026
20400177600.0 -0.8975336678 -0.4357031308
20450177300.0 -0.9054148293 -0.421055151
20500177000.0 -0.9133552603 -0.4074417154
20550176700.0 -0.9211821325 -0.3941962778
20600176400.0 -0.9284272429 -0.3806664952
20650176100.0 -0.9348182028 -0.3685160797
20700175800.0 -0.9416692924 -0.3562517204
20750175500.0 -0.9484950848 -0.3449043127
20800175200.0 -0.9532128036 -0.3339026724
20850174900.0 -0.9584516985 -0.3228590585
20900174600.0 -0.9629814895 -0.3110480533
20950174300.0 -0.9670954906 -0.2988363574
21000174000.0 -0.9703057208 -0.2877953024
21050173700.0 -0.9734269672 -0.2764597432
21100173400.0 -0.977236999 -0.2650375437
21150173100.0 -0.9815459552 -0.2512744549
21200172800.0 -0.984757565 -0.2386802374
21250172500.0 -0.9880218353 -0.2252336864
21300172200.0 -0.990957079 -0.2108242015
21350171900.0 -0.9919257681 -0.1964038438
21400171600.0 -0.9935439045 -0.1818609562
21450171300.0 -0.9934851853 -0.1675689964
21500171000.0 -0.9939278704 -0.1509860537
21550170700.0 -0.9936348194 -0.1364923973
21600170400.0 -0.993170773 -0.1207202422
21650170100.0 -0.991325247 -0.10526357
21700169800.0 -0.9906950401 -0.0907070965
21750169500.0 -0.9883938366 -0.0738477637
21800169200.0 -0.9877930733 -0.0572802644
21850168900.0 -0.987119818 -0.0406573
21900168600.0 -0.9854285072 -0.0247082816
21950168300.0 -0.9836308335 -0.0091121106
22000168000.0 -0.9829097708 0.0055642483
22050167700.0 -0.9823988917 0.0200199607
22100167400.0 -0.9822188295 0.0349738242
22150167100.0 -0.98280763 0.0503214586
22200166800.0 -0.9833845868 0.0670225401
22250166500.0 -0.9825075955 0.0843416573
22300166200.0 -0.9827367649 0.1013668504
22350165900.0 -0.9806936968 0.1174402347
22400165600.0 -0.9790864217 0.132875072
22450165300.0 -0.9765926594 0.1479279455
22500165000.0 -0.9757234333 0.161763397
22550164700.0 -0.973846569 0.1761914208
22600164400.0 -0.9729469266 0.1917659274
22650164100.0 -0.9697602429 0.2062921281
22700163800.0 -0.9677438871 0.2233186977
22750163500.0 -0.9655434281 0.238215943
22800163200.0 -0.9620402848 0.2514955935
22850162900.0 -0.960067982 0.2649058562
22900162600.0 -0.9589053306 0.277944783
22950162300.0 -0.9577576705 0.2908455002
23000162000.0 -0.9567947962 0.3023085957
23050161700.0 -0.9546006811 0.3152663927
23100161400.0 -0.9520028304 0.3280370362
23150161100.0 -0.9498360246 0.3403664211
23200160800.0 -0.9474047101 0.3524417045
23250160500.0 -0.9436492308 0.3636786623
23300160200.0 -0.9416284309 0.3758157033
23350159900.0 -0.9377018168 0.3885917806
23400159600.0 -0.9336819345 0.4019254814
23450159300.0 -0.9286966725 0.4152328711
23500159000.0 -0.9235173241 0.4277343185
23550158700.0 -0.9195341846 0.4410968291
23600158400.0 -0.9139476397 0.4545797461
23650158100.0 -0.9078211499 0.468607292
23700157800.0 -0.9002173613 0.4819619908
23750157500.0 -0.8916514174 0.4963048495
23800157200.0 -0.8829791018 0.5092941756
23850156900.0 -0.874428252 0.5223257926
23900156600.0 -0.8651124584 0.5344982592
23950156300.0 -0.8558229618 0.546727616
24000156000.0 -0.8467822316 0.557983319
24050155700.0 -0.8363971298 0.5709171118
24100155400.0 -0.8263339401 0.5827626772
24150155100.0 -0.8156868299 0.5934024177
24200154800.0 -0.8046083734 0.6055972027
24250154500.0 -0.7931868558 0.6172902714
24300154200.0 -0.7818702595 0.6292960176
24350153900.0 -0.7699665211 0.6395734612
24400153600.0 -0.7577445962 0.6497224393
24450153300.0 -0.7460506553 0.659391872
24500153000.0 -0.7343040636 0.6694269753
24550152700.0 -0.7234390427 0.6788765524
24600152400.0 -0.7115342552 0.688430107
24650152100.0 -0.7002237508 0.696606585
