!Created with skrf (http://scikit-rf.org).
# Hz S RI R 50.0 
!freq ReS11 ImS11
300000.0 -0.9730462465 -0.1236371501
50299700.0 -0.9999833332 0.0148738781
100299400.0 -0.9978439356 0.0278314064
150299100.0 -1.002823798 0.04482851
200298800.0 -0.9994890381 0.0582080241
250298500.0 -0.9973979078 0.0715328881
300298200.0 -0.9859437695 0.0874838762
350297900.0 -0.9939280381 0.0985048737
400297600.0 -0.992999791 0.1147510768
450297300.0 -0.9910264757 0.128742383
500297000.0 -0.9894499666 0.1433541174
550296700.0 -0.9842034425 0.1559083059
600296400.0 -1.017526444 0.1892946436
650296100.0 -0.982084865 0.1858314222
700295800.0 -0.9792536891 0.1998277574
750295500.0 -0.9762247631 0.2138890512
800295200.0 -0.972873567 0.2281275141
850294900.0 -0.9697835273 0.2417126491
900294600.0 -0.9658809127 0.2555039638
950294300.0 -0.962420142 0.2692977988
1000294000.0 -0.9581885441 0.2829835819
1050293700.0 -0.9536214942 0.2970174805
1100293400.0 -0.9493861486 0.3115680668
1150293100.0 -0.9455182619 0.3233204903
1200292800.0 -0.9402867542 0.3377981881
1250292500.0 -0.9347874415 0.3510718323
1300292200.0 -0.9290277013 0.3642731006
1350291900.0 -0.9235918145 0.3782614662
1400291600.0 -0.9178884912 0.3915201782
1450291300.0 -0.9123651481 0.4039529749
1500291000.0 -0.9061874838 0.4172726764
1550290700.0 -0.8996247479 0.4306888011
1600290400.0 -0.8933649073 0.443621142
1650290100.0 -0.8867484893 0.4557127249
1700289800.0 -0.8798365065 0.4691764022
1750289500.0 -0.8729094392 0.4814186032
1800289200.0 -0.8656688261 0.4943039117
1850288900.0 -0.8587926316 0.5055999005
1900288600.0 -0.8509209319 0.5186442652
1950288300.0 -0.8430087153 0.5311697019
2000288000.0 -0.8355364592 0.5427295451
2050287700.0 -0.8271467169 0.5551630079
2100287400.0 -0.8195284229 0.5665678053
2150287100.0 -0.8109174813 0.5786042193
2200286800.0 -0.8029815754 0.5892409614
2250286500.0 -0.7940119352 0.601406695
2300286200.0 -0.7852329379 0.6127930718
2350285900.0 -0.7768944565 0.6234736262
2400285600.0 -0.7680721578 0.6342675357
2450285300.0 -0.7591275019 0.6449291651
2500285000.0 -0.7490972199 0.6568307217
2550284700.0 -0.7401666167 0.6670870005
2600284400.0 -0.7310154639 0.6769412247
2650284100.0 -0.7223963968 0.6872366796
2700283800.0 -0.7120149181 0.697262391
2750283500.0 -0.7015830339 0.7079466028
2800283200.0 -0.6918126271 0.7181645721
2850282900.0 -0.681042659 0.7281204545
2900282600.0 -0.6708949028 0.737826222
2950282300.0 -0.6601824169 0.7471608912
3000282000.0 -0.649521804 0.756634656
3050281700.0 -0.6383431465 0.7657931236
3100281400.0 -0.626958484 0.7751412155
3150281100.0 -0.6155926001 0.7839151297
3200280800.0 -0.6040811721 0.792343084
3250280500.0 -0.5931531172 0.8002052795
3300280200.0 -0.5813219565 0.8084816027
3350279900.0 -0.5691229463 0.8164826567
3400279600.0 -0.5565570071 0.824441098
3450279300.0 -0.5454879856 0.8315764977
3500279000.0 -0.5337393376 0.838635797
3550278700.0 -0.5216612856 0.8455119137
3600278400.0 -0.5099340209 0.8525680975
3650278100.0 -0.4968514246 0.8598049239
3700277800.0 -0.4846357522 0.8663695382
3750277500.0 -0.4723857271 0.8733652703
3800277200.0 -0.4600030026 0.8796112478
3850276900.0 -0.4479778128 0.8856925774
3900276600.0 -0.4367497736 0.8913572407
3950276300.0 -0.4247589583 0.8970842293
4000276000.0 -0.4135499994 0.9031243441
4050275700.0 -0.4003142276 0.9088857122
4100275400.0 -0.3894613356 0.9145264287
4150275100.0 -0.3761243402 0.9203143884
4200274800.0 -0.3626919278 0.9262285989
4250274500.0 -0.349953498 0.9316683977
4300274200.0 -0.3368819625 0.9367212794
4350273900.0 -0.3224783574 0.9420606041
4400273600.0 -0.3076911586 0.9470742112
4450273300.0 -0.2929705686 0.9523345484
4500273000.0 -0.2797550225 0.9563307306
4550272700.0 -0.26615102 0.9604989141
4600272400.0 -0.2510506772 0.9645781694
4650272100.0 -0.2397662168 0.9678494146
4700271800.0 -0.2267181182 0.971042796
4750271500.0 -0.2151368278 0.9738955216
4800271200.0 -0.2029876729 0.976482342
4850270900.0 -0.1891215834 0.9795475685
4900270600.0 -0.1753060062 0.9820105167
4950270300.0 -0.1608581087 0.9846082951
5000270000.0 -0.1462154034 0.9865107203
5050269700.0 -0.1327960063 0.9882432466
5100269400.0 -0.1184933798 0.9899359724
5150269100.0 -0.1047095674 0.9915319051
5200268800.0 -0.0913282919 0.9926056424
5250268500.0 -0.07815939 0.9940691141
5300268200.0 -0.0644713197 0.9945279527
5350267900.0 -0.0515497485 0.9957139713
5400267600.0 -0.0354821979 0.9963371929
5450267300.0 -0.0221645161 0.9966836558
5500267000.0 -0.0069074881 0.9969947828
5550266700.0 0.0080584601 0.99739944
5600266400.0 0.0239328271 0.9969568471
5650266100.0 0.0404001389 0.9966603537
5700265800.0 0.0547810587 0.9961683299
5750265500.0 0.0696469199 0.9953293464
5800265200.0 0.0832537913 0.9939958017
5850264900.0 0.0962409473 0.9929343775
5900264600.0 0.1132040592 0.9916062643
5950264300.0 0.1244487837 0.9898755994
6000264000.0 0.1379319522 0.9877912637
6050263700.0 0.1496792207 0.986688703
6100263400.0 0.1618970837 0.9851331537
6150263100.0 0.1766018476 0.9824906718
6200262800.0 0.1862114931 0.9811707504
6250262500.0 0.1987409039 0.9787589079
6300262200.0 0.2108378432 0.9760208874
6350261900.0 0.2237439241 0.9733829681
6400261600.0 0.2374042714 0.9701702738
6450261300.0 0.2488786972 0.9677144337
6500261000.0 0.2618762301 0.9639700738
6550260700.0 0.2751934202 0.9600384608
6600260400.0 0.288731746 0.9559221521
6650260100.0 0.3026832722 0.9514312427
6700259800.0 0.3150631408 0.9474045575
6750259500.0 0.3284552243 0.9424036311
6800259200.0 0.342166626 0.9373202671
6850258900.0 0.354617536 0.9318737466
6900258600.0 0.3674407819 0.9269355586
6950258300.0 0.3795536734 0.9214389855
7000258000.0 0.3911597017 0.9161942567
7050257700.0 0.4032837768 0.910347831
7100257400.0 0.4165759136 0.9039904262
7150257100.0 0.4274123857 0.8984836557
7200256800.0 0.4404684734 0.8919146228
7250256500.0 0.453280434 0.8853928084
7300256200.0 0.4658213934 0.8788448737
7350255900.0 0.4788722984 0.8717425484
7400255600.0 0.493075062 0.8640978806
7450255300.0 0.5084623106 0.854945165
7500255000.0 0.5210870985 0.8472981945
7550254700.0 0.5352506108 0.8382061351
7600254400.0 0.5479092766 0.8299174673
7650254100.0 0.5595168806 0.8220050211
7700253800.0 0.571005737 0.8139382654
7750253500.0 0.5819988114 0.8063105311
7800253200.0 0.5926981363 0.7984938402
7850252900.0 0.6024368802 0.7914212275
7900252600.0 0.6137945579 0.7825251349
7950252300.0 0.6222330896 0.7761563981
8000252000.0 0.6320901529 0.7686141466
8050251700.0 0.642661855 0.7604843561
8100251400.0 0.6522545282 0.7525923806
8150251100.0 0.6623201524 0.7440813697
8200250800.0 0.6718815731 0.7359061059
8250250500.0 0.6808574201 0.7279090529
8300250200.0 0.6896268146 0.7197452328
8350249900.0 0.6990017017 0.7108191783
8400249600.0 0.7072763259 0.7026852089
8450249300.0 0.7160156893 0.6939712342
8500249000.0 0.7245768356 0.6852413987
8550248700.0 0.7329852596 0.6761969946
8600248400.0 0.7410902139 0.6667003627
8650248100.0 0.7486971001 0.6573230274
8700247800.0 0.7579063937 0.6462496683
8750247500.0 0.7662445385 0.6360848431
8800247200.0 0.7741297831 0.6258172069
8850246900.0 0.782824052 0.6144473613
8900246600.0 0.7913516349 0.6030082389
8950246300.0 0.8004655581 0.5904197114
9000246000.0 0.8092499807 0.5783869583
9050245700.0 0.8177551706 0.5660803385
9100245400.0 0.826016999 0.5539584978
9150245100.0 0.8352259475 0.5412368112
9200244800.0 0.8439903666 0.526805639
9250244500.0 0.8532367541 0.5121964752
9300244200.0 0.861341816 0.4985781563
9350243900.0 0.8689257694 0.4853902227
9400243600.0 0.8755057649 0.4736577935
9450243300.0 0.8811611003 0.4631750731
9500243000.0 0.8874683569 0.4516817866
9550242700.0 0.8913152742 0.4440675832
9600242400.0 0.8954208898 0.4365559701
9650242100.0 0.8997559012 0.4296088528
9700241800.0 0.9051075635 0.4208158218
9750241500.0 0.9088620879 0.4133716274
9800241200.0 0.914032772 0.404004816
9850240900.0 0.9197428832 0.3922641438
9900240600.0 0.9260317628 0.3804085301
9950240300.0 0.9330716256 0.3633307622
10000240000.0 0.937945856 0.3514474597
10050239700.0 0.9439137446 0.3351558367
10100239400.0 0.9493585444 0.3188035243
10150239100.0 0.9540940759 0.3033256155
10200238800.0 0.9583009386 0.2876897923
10250238500.0 0.9615220628 0.2744215975
10300238200.0 0.9645813404 0.2605108798
10350237900.0 0.96746581 0.2469390758
10400237600.0 0.9701441896 0.2334969132
10450237300.0 0.9726672471 0.2197155136
10500237000.0 0.9752113271 0.2072354048
10550236700.0 0.9772041185 0.1932205844
10600236400.0 0.9794107944 0.1794400229
10650236100.0 0.981579718 0.1644825839
10700235800.0 0.9837082312 0.1523781866
10750235500.0 0.9859133875 0.1387671268
10800235200.0 0.9881037408 0.1240584272
10850234900.0 0.9900212273 0.1094593138
10900234600.0 0.9922302313 0.0943374839
10950234300.0 0.9937805149 0.0810014697
11000234000.0 0.9956581588 0.0655536883
11050233700.0 0.9972967243 0.0487430048
11100233400.0 0.9990716459 0.0308489206
11150233100.0 0.9997834607 0.0144502579
11200232800.0 1.00074158 -0.0020427713
11250232500.0 1.001961905 -0.0195970933
11300232200.0 1.001847507 -0.0380683346
11350231900.0 1.001775999 -0.0546563589
11400231600.0 1.001891396 -0.0704687789
11450231300.0 1.0006421 -0.0860702038
11500231000.0 0.9994143793 -0.1023923553
11550230700.0 0.9978635391 -0.1151224849
11600230400.0 0.9969116674 -0.128545552
11650230100.0 0.9948027193 -0.140097406
11700229800.0 0.9924904187 -0.1554131754
11750229500.0 0.9900767515 -0.1687157427
11800229200.0 0.9872634358 -0.1822207955
11850228900.0 0.9835568451 -0.1939328716
11900228600.0 0.9797258699 -0.2032068337
11950228300.0 0.9763497281 -0.2136851807
12000228000.0 0.9733213961 -0.2221401967
12050227700.0 0.9696268442 -0.2347920557
12100227400.0 0.9665508316 -0.2464217616
12150227100.0 0.9615913882 -0.2629816771
12200226800.0 0.9579306471 -0.2737979222
12250226500.0 0.9536352772 -0.2861969622
12300226200.0 0.9491992275 -0.2991082493
12350225900.0 0.9443010404 -0.3124715272
12400225600.0 0.9402200545 -0.3244688101
12450225300.0 0.9355969819 -0.3373429815
12500225000.0 0.9301362019 -0.352137963
12550224700.0 0.9246553156 -0.3660658126
12600224400.0 0.9199866422 -0.3785442303
12650224100.0 0.9139527563 -0.3926898827
12700223800.0 0.9087495459 -0.4056274536
12750223500.0 0.9034909134 -0.418553408
12800223200.0 0.8979277578 -0.4311283514
12850222900.0 0.8926217673 -0.4432296453
12900222600.0 0.8873066204 -0.4550754575
12950222300.0 0.8812036006 -0.4678758832
13000222000.0 0.8752989541 -0.4797161455
13050221700.0 0.8680032069 -0.4923493543
13100221400.0 0.8615251437 -0.5043148138
13150221100.0 0.8545812859 -0.516694996
13200220800.0 0.8472605585 -0.5283192656
13250220500.0 0.840348168 -0.5405860708
13300220200.0 0.8327960487 -0.5513977241
13350219900.0 0.8245985969 -0.5635058556
13400219600.0 0.8161535178 -0.5752145934
13450219300.0 0.8067842535 -0.5882138606
13500219000.0 0.7970153303 -0.6014514411
13550218700.0 0.7871797544 -0.6135277776
13600218400.0 0.7768500346 -0.625982503
13650218100.0 0.7678290831 -0.6358108221
13700217800.0 0.7572598194 -0.6478188285
13750217500.0 0.7478369757 -0.6587420243
13800217200.0 0.7366050956 -0.6706644208
13850216900.0 0.7258747593 -0.6812160962
13900216600.0 0.7157749721 -0.6906674595
13950216300.0 0.7046965085 -0.7000427773
14000216000.0 0.6949364454 -0.709846084
14050215700.0 0.6863542809 -0.7171946422
14100215400.0 0.6763476598 -0.7265373329
14150215100.0 0.6676204008 -0.7349506716
14200214800.0 0.6579130642 -0.7440990459
14250214500.0 0.647603234 -0.7534358336
14300214200.0 0.6372000634 -0.7628967165
14350213900.0 0.6259567065 -0.7727115876
14400213600.0 0.6140930333 -0.7826682701
14450213300.0 0.6012646444 -0.7927209327
14500213000.0 0.5882497199 -0.8022579925
14550212700.0 0.5756869699 -0.81191105
14600212400.0 0.5636992047 -0.820465611
14650212100.0 0.550983362 -0.8291561367
14700211800.0 0.5367974053 -0.8389632873
14750211500.0 0.5247018173 -0.8472988118
14800211200.0 0.5121186908 -0.8555640881
14850210900.0 0.4997875175 -0.8629760166
14900210600.0 0.4865670545 -0.8710299058
14950210300.0 0.4733911449 -0.8786173763
15000210000.0 0.4604433484 -0.8851953583
15050209700.0 0.4481102226 -0.8915588341
15100209400.0 0.4351957787 -0.8972705352
15150209100.0 0.4227834749 -0.9026684153
15200208800.0 0.41111284 -0.9080094534
15250208500.0 0.4000550205 -0.912347471
15300208200.0 0.3864653526 -0.9172358688
15350207900.0 0.3740894231 -0.9223431548
15400207600.0 0.3594731081 -0.9281497611
15450207300.0 0.3451465851 -0.9328474041
15500207000.0 0.3301242202 -0.9369393514
15550206700.0 0.3152687297 -0.9418731578
15600206400.0 0.2990642569 -0.9469375824
15650206100.0 0.2837756689 -0.9509185597
15700205800.0 0.2702143813 -0.9541071918
15750205500.0 0.2560791183 -0.9577602942
15800205200.0 0.2422280869 -0.961297166
15850204900.0 0.2280494114 -0.964559401
15900204600.0 0.2129997387 -0.9683411505
15950204300.0 0.198772995 -0.9712660792
16000204000.0 0.1844937444 -0.9744133356
16050203700.0 0.1688435344 -0.9771633541
16100203400.0 0.1538466914 -0.979536416
16150203100.0 0.139462116 -0.9823087189
16200202800.0 0.1249262583 -0.9839168517
16250202500.0 0.1103902962 -0.9858432587
16300202200.0 0.094590219 -0.9873240157
16350201900.0 0.079852985 -0.9890134503
16400201600.0 0.0651708497 -0.9901299592
16450201300.0 0.0498423057 -0.9911586032
16500201000.0 0.0326876405 -0.9920498291
16550200700.0 0.0165060947 -0.9925710194
16600200400.0 0.0006462195 -0.9927281059
16650200100.0 -0.0154720433 -0.9927065802
16700199800.0 -0.0320104254 -0.9919338592
16750199500.0 -0.0507194018 -0.9916787171
16800199200.0 -0.0668952411 -0.9910600056
16850198900.0 -0.0825059234 -0.9894942208
16900198600.0 -0.0965517267 -0.9882711381
16950198300.0 -0.110201303 -0.987755071
17000198000.0 -0.1233411644 -0.9855625401
17050197700.0 -0.1362737318 -0.9835463275
17100197400.0 -0.1492266683 -0.9818629665
17150197100.0 -0.161292048 -0.9799179372
17200196800.0 -0.1744166718 -0.9776316897
17250196500.0 -0.1877193302 -0.9754338302
17300196200.0 -0.1997295282 -0.9730188029
17350195900.0 -0.2115314346 -0.9707599504
17400195600.0 -0.2234430354 -0.9680485529
17450195300.0 -0.2363046575 -0.9653146055
17500195000.0 -0.2496316038 -0.9619413132
17550194700.0 -0.2634619339 -0.9583851313
17600194400.0 -0.2768706907 -0.9543895094
17650194100.0 -0.290685792 -0.9504239179
17700193800.0 -0.3036789858 -0.9462797612
17750193500.0 -0.3177503331 -0.9418081797
17800193200.0 -0.3319048074 -0.9367010732
17850192900.0 -0.3469224523 -0.9309053253
17900192600.0 -0.3619646225 -0.9251556062
17950192300.0 -0.3777239319 -0.9177735092
18000192000.0 -0.3922202499 -0.9106405646
18050191700.0 -0.4060514643 -0.9027029053
18100191400.0 -0.4200358702 -0.8949567903
18150191100.0 -0.434937209 -0.8868885693
18200190800.0 -0.4516346778 -0.8779081532
18250190500.0 -0.4686815658 -0.8684586991
18300190200.0 -0.4843029331 -0.8595980684
18350189900.0 -0.4997688972 -0.8508976976
18400189600.0 -0.514060959 -0.8428069582
18450189300.0 -0.5274642018 -0.8348734884
18500189000.0 -0.5408525552 -0.8262047221
18550188700.0 -0.5537874746 -0.819316062
18600188400.0 -0.5656991617 -0.811913246
18650188100.0 -0.5767963226 -0.8052544173
18700187800.0 -0.5879868123 -0.7986942869
18750187500.0 -0.5985870655 -0.7921948366
18800187200.0 -0.609366347 -0.7851183829
18850186900.0 -0.6196095873 -0.7781706281
18900186600.0 -0.6298916989 -0.7708500119
18950186300.0 -0.6401852892 -0.7634462509
19000186000.0 -0.6475848572 -0.7567779352
19050185700.0 -0.6570137491 -0.7499285808
19100185400.0 -0.667070497 -0.741875313
19150185100.0 -0.6769581902 -0.7330126089
19200184800.0 -0.6866263313 -0.7247973352
19250184500.0 -0.6970529528 -0.715647485
19300184200.0 -0.7076313289 -0.7061747325
19350183900.0 -0.718770841 -0.6962808295
19400183600.0 -0.7287046727 -0.6868171533
19450183300.0 -0.7375753269 -0.676838802
19500183000.0 -0.7456970753 -0.6667965185
19550182700.0 -0.7559254587 -0.655294522
19600182400.0 -0.7655078968 -0.6436350602
19650182100.0 -0.7762865269 -0.6319103693
19700181800.0 -0.7869050561 -0.6184888191
19750181500.0 -0.7970031996 -0.6042802983
19800181200.0 -0.8073226772 -0.5894127764
19850180900.0 -0.8167182205 -0.5739656015
19900180600.0 -0.8245002717 -0.5595652624
19950180300.0 -0.8336834186 -0.543460582
20000180000.0 -0.8232668538 -0.5469142481
20050179700.0 -0.8305760819 -0.5350686105
20100179400.0 -0.8398477959 -0.5217828761
20150179100.0 -0.847098754 -0.5093848626
20200178800.0 -0.8560033999 -0.4975593398
20250178500.0 -0.8655389226 -0.4851966046
20300178200.0 -0.8749577806 -0.4717549671
20350177900.0 -0.8847227007 -0.4579414553
20400177600.0 -0.893341448 -0.4433275916
20450177300.0 -0.9016916775 -0.4291638268
20500177000.0 -0.910198405 -0.4153534143
20550176700.0 -0.9181662842 -0.4017044083
20600176400.0 -0.9249149194 -0.3885060657
20650176100.0 -0.9317607261 -0.3762640178
20700175800.0 -0.938238348 -0.3648415131
20750175500.0 -0.9437147736 -0.353049171
20800175200.0 -0.9483710854 -0.3418682598
20850174900.0 -0.9534581009 -0.3315589757
20900174600.0 -0.9575350392 -0.3211350584
20950174300.0 -0.9610177799 -0.3095870001
21000174000.0 -0.9641760779 -0.2993675921
21050173700.0 -0.9653262092 -0.2888505721
21100173400.0 -0.9694552994 -0.2784174179
21150173100.0 -0.9728988057 -0.2667704807
21200172800.0 -0.9769774054 -0.2534556357
21250172500.0 -0.9808815367 -0.239633923
21300172200.0 -0.9838151461 -0.2254423304
21350171900.0 -0.9865409962 -0.211740259
21400171600.0 -0.9882124235 -0.1972346157
21450171300.0 -0.9888117833 -0.1834075827
21500171000.0 -0.9891798778 -0.1684688981
21550170700.0 -0.9900570103 -0.1532464192
21600170400.0 -0.9905940553 -0.1375885243
21650170100.0 -0.9903740439 -0.1223661726
21700169800.0 -0.9898697007 -0.1069310943
21750169500.0 -0.9893147996 -0.0902047737
21800169200.0 -0.9903575643 -0.0746118435
21850168900.0 -0.9906272939 -0.056717768
21900168600.0 -0.9888109228 -0.0415093901
21950168300.0 -0.9887728162 -0.0253104063
22000168000.0 -0.9889788978 -0.0103055415
22050167700.0 -0.9897751783 0.0042613277
22100167400.0 -0.9905026007 0.0199297671
22150167100.0 -0.9910994867 0.0363498219
22200166800.0 -0.9916659283 0.0527756785
22250166500.0 -0.9914713037 0.0700902114
22300166200.0 -0.990233439 0.0862955969
22350165900.0 -0.9894590011 0.1021693623
22400165600.0 -0.9874140635 0.1183241569
22450165300.0 -0.9854158356 0.1336979638
22500165000.0 -0.9841266266 0.1474018314
22550164700.0 -0.9831677713 0.1642076587
22600164400.0 -0.9816206151 0.1801578396
22650164100.0 -0.9778367997 0.1957397754
22700163800.0 -0.9756233961 0.2116385932
22750163500.0 -0.9721004094 0.2262720221
22800163200.0 -0.9692344003 0.2388110494
22850162900.0 -0.9666124206 0.252998451
22900162600.0 -0.9644875956 0.2669133643
22950162300.0 -0.9628649388 0.2803610209
23000162000.0 -0.9613350771 0.2933322765
23050161700.0 -0.9582993408 0.3065891258
23100161400.0 -0.9557413333 0.3202485155
23150161100.0 -0.952597284 0.3328851042
23200160800.0 -0.9496062996 0.3457469702
23250160500.0 -0.9459711611 0.3582244189
23300160200.0 -0.9437825798 0.3710791913
23350159900.0 -0.9402869499 0.385407506
23400159600.0 -0.9348694537 0.3984661484
23450159300.0 -0.9297854506 0.4126809632
23500159000.0 -0.9252845884 0.4259813143
23550158700.0 -0.920185775 0.4401458052
23600158400.0 -0.9140514522 0.4540681365
23650158100.0 -0.9068582292 0.4687919279
23700157800.0 -0.8981387907 0.4830059159
23750157500.0 -0.8888167761 0.4972525444
23800157200.0 -0.8793506926 0.5112364026
23850156900.0 -0.8694745449 0.5236451154
23900156600.0 -0.8596074026 0.5360864173
23950156300.0 -0.8504089775 0.5484221857
24000156000.0 -0.8401485706 0.5609845162
24050155700.0 -0.8295000112 0.5737848132
24100155400.0 -0.819602176 0.5862957179
24150155100.0 -0.8086487175 0.598102264
24200154800.0 -0.7971606543 0.6094549939
24250154500.0 -0.7862207504 0.6223623093
24300154200.0 -0.7739712624 0.6340964884
24350153900.0 -0.7626924359 0.6452462076
24400153600.0 -0.7504039463 0.6557760411
24450153300.0 -0.7382539026 0.6658664981
24500153000.0 -0.7262595617 0.6757372805
24550152700.0 -0.7154913365 0.6861540334
24600152400.0 -0.7030528678 0.6956536303
24650152100.0 -0.6907107237 0.7042457816
