!Created with skrf (http://scikit-rf.org).
# Hz S RI R 50.0 
!freq ReS11 ImS11
300000.0 -0.9793336152 -0.1034446195
50299700.0 -0.9999460438 0.016122662
100299400.0 -0.99789104 0.0290560339
150299100.0 -1.002847482 0.045844118
200298800.0 -0.9996307062 0.059228317
250298500.0 -0.9974300185 0.0726348289
300298200.0 -0.9859181643 0.0884459909
350297900.0 -0.9939422614 0.0995336408
400297600.0 -0.993079765 0.1161261421
450297300.0 -0.9909513185 0.1297805254
500297000.0 -0.9893328158 0.1445942191
550296700.0 -0.9844039205 0.1568833919
600296400.0 -1.017302353 0.1903918868
650296100.0 -0.9818417897 0.1871182316
700295800.0 -0.9790933927 0.2014285601
750295500.0 -0.9761384444 0.2154880241
800295200.0 -0.9726743042 0.2297120931
850294900.0 -0.9694254142 0.2433715173
900294600.0 -0.9655917866 0.2570139389
950294300.0 -0.9618352126 0.270826671
1000294000.0 -0.9578564994 0.284588384
1050293700.0 -0.9532560346 0.2987592838
1100293400.0 -0.9490477668 0.3129542127
1150293100.0 -0.9451824646 0.3249168101
1200292800.0 -0.9397466005 0.3390760559
1250292500.0 -0.9342363509 0.3525597299
1300292200.0 -0.928540755 0.3657577092
1350291900.0 -0.9231431627 0.3798223669
1400291600.0 -0.9173559834 0.3928334522
1450291300.0 -0.912154736 0.4051606022
1500291000.0 -0.9057927245 0.418489083
1550290700.0 -0.8991372207 0.4320245131
1600290400.0 -0.8931585649 0.4448227651
1650290100.0 -0.8864637038 0.4569278961
1700289800.0 -0.8796141519 0.4704997632
1750289500.0 -0.8725183681 0.4824667756
1800289200.0 -0.8650991692 0.4956436914
1850288900.0 -0.8582231128 0.5067600609
1900288600.0 -0.8505597038 0.5199336212
1950288300.0 -0.842494891 0.5326670665
2000288000.0 -0.8348842842 0.543724093
2050287700.0 -0.8268009072 0.5561812253
2100287400.0 -0.8187158506 0.5677828423
2150287100.0 -0.8101829089 0.5797510445
2200286800.0 -0.8023573528 0.5903007791
2250286500.0 -0.793512502 0.6023144227
2300286200.0 -0.7844958046 0.6141500548
2350285900.0 -0.775591794 0.625039873
2400285600.0 -0.7665998261 0.6360303087
2450285300.0 -0.7583407138 0.6462999782
2500285000.0 -0.7484173733 0.6576024047
2550284700.0 -0.7395081441 0.6679198652
2600284400.0 -0.7299990165 0.6780014033
2650284100.0 -0.7208126038 0.6887459084
2700283800.0 -0.7104638502 0.6993540935
2750283500.0 -0.7000657845 0.7097403181
2800283200.0 -0.6904001329 0.7195196728
2850282900.0 -0.6802176555 0.7292932017
2900282600.0 -0.6698388374 0.7389354716
2950282300.0 -0.6594998011 0.7482064929
3000282000.0 -0.648865283 0.7576453689
3050281700.0 -0.6377304219 0.7667011325
3100281400.0 -0.6255861309 0.7762533735
3150281100.0 -0.6138468239 0.7855104012
3200280800.0 -0.6023564475 0.7939025262
3250280500.0 -0.5915986479 0.8016779839
3300280200.0 -0.5803739934 0.8093007022
3350279900.0 -0.5687825287 0.816990689
3400279600.0 -0.5568407186 0.8246377964
3450279300.0 -0.5456887862 0.8317826681
3500279000.0 -0.5335728015 0.8388996821
3550278700.0 -0.5212131472 0.8462213874
3600278400.0 -0.5090637273 0.8533676414
3650278100.0 -0.4957169132 0.8608429809
3700277800.0 -0.4834169215 0.867289252
3750277500.0 -0.4713063891 0.8739492422
3800277200.0 -0.4588143693 0.8802632554
3850276900.0 -0.4467635835 0.8863351753
3900276600.0 -0.4359076043 0.8919171622
3950276300.0 -0.4232923016 0.898265961
4000276000.0 -0.4111015509 0.9040347536
4050275700.0 -0.3981452967 0.9101337068
4100275400.0 -0.387058968 0.9156325918
4150275100.0 -0.3745437857 0.9213844349
4200274800.0 -0.3612585297 0.9266732988
4250274500.0 -0.348954974 0.931791233
4300274200.0 -0.3358915803 0.937083763
4350273900.0 -0.3222465033 0.9423388745
4400273600.0 -0.3074322457 0.9471244145
4450273300.0 -0.2917386504 0.9525587618
4500273000.0 -0.2785001198 0.9568102579
4550272700.0 -0.2639898113 0.9612012428
4600272400.0 -0.248717552 0.965388456
4650272100.0 -0.2367690708 0.9685601924
4700271800.0 -0.2235328196 0.9718221513
4750271500.0 -0.2118368873 0.974726087
4800271200.0 -0.1993622333 0.9775206312
4850270900.0 -0.1855397936 0.9802742974
4900270600.0 -0.1715955056 0.982693977
4950270300.0 -0.157346505 0.9851326722
5000270000.0 -0.1432010264 0.9874127125
5050269700.0 -0.1296952233 0.9886846681
5100269400.0 -0.1161843678 0.9906874701
5150269100.0 -0.103107608 0.9920121741
5200268800.0 -0.0896598091 0.9933037544
5250268500.0 -0.0765408362 0.9940667507
5300268200.0 -0.0636352473 0.9949269009
5350267900.0 -0.0514277357 0.9950887395
5400267600.0 -0.0352354775 0.9965948704
5450267300.0 -0.0221216373 0.9968387751
5500267000.0 -0.0069690121 0.9969273055
5550266700.0 0.0079884239 0.9974045549
5600266400.0 0.0234361805 0.9971798211
5650266100.0 0.0400123489 0.9968542104
5700265800.0 0.0544717353 0.9959511284
5750265500.0 0.0696093395 0.9954861164
5800265200.0 0.0837611064 0.9940371264
5850264900.0 0.0969909559 0.9930711173
5900264600.0 0.1136498858 0.9917600272
5950264300.0 0.1258510249 0.9900667435
6000264000.0 0.1399997586 0.9880660744
6050263700.0 0.1524526969 0.986615621
6100263400.0 0.1648043944 0.984410084
6150263100.0 0.179437333 0.9819702881
6200262800.0 0.1900477682 0.9804908889
6250262500.0 0.2026081721 0.9777435897
6300262200.0 0.2157587572 0.9751074866
6350261900.0 0.2286171097 0.9720680889
6400261600.0 0.2423968081 0.9688645721
6450261300.0 0.2538127764 0.9659933474
6500261000.0 0.2666877788 0.9626721951
6550260700.0 0.2796107231 0.9586875691
6600260400.0 0.2929869345 0.9547203763
6650260100.0 0.3068208812 0.9500216376
6700259800.0 0.3185902431 0.9457501302
6750259500.0 0.332550961 0.9409468956
6800259200.0 0.3455472919 0.9362727266
6850258900.0 0.3574995478 0.9308862127
6900258600.0 0.3693690167 0.9258844554
6950258300.0 0.3822078446 0.9208365169
7000258000.0 0.3942873492 0.9153543991
7050257700.0 0.4065494522 0.9091587143
7100257400.0 0.4192065932 0.9028938863
7150257100.0 0.429286756 0.8976893903
7200256800.0 0.4420745554 0.8914938189
7250256500.0 0.4540274931 0.8851553461
7300256200.0 0.4668870377 0.8781164283
7350255900.0 0.4794396526 0.8713798217
7400255600.0 0.4926232368 0.8641095208
7450255300.0 0.5076147812 0.8550264347
7500255000.0 0.5187454809 0.8476881025
7550254700.0 0.5329637544 0.8392443202
7600254400.0 0.5457900761 0.8310122507
7650254100.0 0.5573213334 0.82338922
7700253800.0 0.5693390006 0.8153195128
7750253500.0 0.580643052 0.8074942492
7800253200.0 0.5911732631 0.7998597512
7850252900.0 0.6010502188 0.7924858639
7900252600.0 0.6126802174 0.7838018228
7950252300.0 0.6214785159 0.7772935562
8000252000.0 0.6318056846 0.7693374782
8050251700.0 0.6422462329 0.761179577
8100251400.0 0.6526634897 0.7528385373
8150251100.0 0.6621357525 0.7441759258
8200250800.0 0.6721979847 0.7361991777
8250250500.0 0.6806208615 0.7282145202
8300250200.0 0.6899868248 0.7194753883
8350249900.0 0.6992875697 0.7108606861
8400249600.0 0.7074834823 0.7028084426
8450249300.0 0.7166452016 0.6934677544
8500249000.0 0.7253776169 0.6847471665
8550248700.0 0.733471968 0.6756846612
8600248400.0 0.7418818208 0.6662676201
8650248100.0 0.7495587919 0.6569732013
8700247800.0 0.7591320561 0.6458237425
8750247500.0 0.7674329351 0.6355653667
8800247200.0 0.7756600806 0.6253764828
8850246900.0 0.7842144578 0.6139676115
8900246600.0 0.7927414629 0.6024654272
8950246300.0 0.8022175488 0.5896717168
9000246000.0 0.8115821291 0.576835351
9050245700.0 0.8206469095 0.5640580525
9100245400.0 0.829070839 0.5515120461
9150245100.0 0.8384939646 0.5377664916
9200244800.0 0.848364743 0.5225067919
9250244500.0 0.8579802943 0.5068816148
9300244200.0 0.8662760111 0.492228372
9350243900.0 0.8738977871 0.4783652196
9400243600.0 0.8807110413 0.4657893
9450243300.0 0.8866206124 0.4539732229
9500243000.0 0.8927182769 0.4415639356
9550242700.0 0.8966652621 0.4336984721
9600242400.0 0.9005307535 0.4264128856
9650242100.0 0.9039745263 0.4198582597
9700241800.0 0.9086529153 0.4115100764
9750241500.0 0.9124333747 0.4041567887
9800241200.0 0.917090331 0.3950433247
9850240900.0 0.9228077708 0.3828374321
9900240600.0 0.9284410709 0.3713328802
9950240300.0 0.9350117386 0.3552233749
10000240000.0 0.9394098237 0.3438623221
10050239700.0 0.9451175213 0.3281693918
10100239400.0 0.9500446566 0.3131158057
10150239100.0 0.9543469732 0.2985193997
10200238800.0 0.9584442089 0.2833832477
10250238500.0 0.9617637876 0.270171299
10300238200.0 0.9650371478 0.2563043117
10350237900.0 0.9676312196 0.2434655994
10400237600.0 0.9700756246 0.2298377888
10450237300.0 0.9729204579 0.2165326698
10500237000.0 0.9748692609 0.2046589173
10550236700.0 0.9774572488 0.1900647323
10600236400.0 0.9793615458 0.1774875356
10650236100.0 0.9813070412 0.1628422805
10700235800.0 0.9834017238 0.1509813884
10750235500.0 0.9857617465 0.1373872287
10800235200.0 0.9877377704 0.123390933
10850234900.0 0.9895247287 0.1087457683
10900234600.0 0.9918152227 0.0941321304
10950234300.0 0.9933980572 0.080948556
11000234000.0 0.9952403285 0.0657962057
11050233700.0 0.9969418395 0.0494901516
11100233400.0 0.9983817243 0.0320291349
11150233100.0 0.9992475586 0.0165278938
11200232800.0 1.000126542 0.0008839614
11250232500.0 1.001036294 -0.0152295493
11300232200.0 1.001334248 -0.0335241443
11350231900.0 1.001681883 -0.0498461756
11400231600.0 1.001197762 -0.0651378281
11450231300.0 1.000730703 -0.0809105738
11500231000.0 0.999064169 -0.0981244414
11550230700.0 0.9979698431 -0.1113851612
11600230400.0 0.9967839487 -0.1238043704
11650230100.0 0.9940005273 -0.1346317214
11700229800.0 0.9922688757 -0.1500276204
11750229500.0 0.9900987111 -0.1646326331
11800229200.0 0.9870606518 -0.1788529633
11850228900.0 0.9835054272 -0.1909665545
11900228600.0 0.980282059 -0.2010556829
11950228300.0 0.9768574263 -0.2115377941
12000228000.0 0.9741530348 -0.2205232934
12050227700.0 0.9702728241 -0.2335331251
12100227400.0 0.9675857499 -0.2437341777
12150227100.0 0.9628865142 -0.2604179229
12200226800.0 0.9583573856 -0.2711024848
12250226500.0 0.9542561115 -0.2842636027
12300226200.0 0.9509043788 -0.2966039015
12350225900.0 0.9460741023 -0.3100407688
12400225600.0 0.9414618957 -0.3227572508
12450225300.0 0.9374508944 -0.3358845376
12500225000.0 0.9315070384 -0.3502396281
12550224700.0 0.9263723097 -0.3638213362
12600224400.0 0.921617342 -0.3763468398
12650224100.0 0.9157877542 -0.3906107015
12700223800.0 0.910529965 -0.4032847168
12750223500.0 0.9049036709 -0.4163198257
12800223200.0 0.9000317522 -0.4285243641
12850222900.0 0.8944436283 -0.4408995345
12900222600.0 0.888520832 -0.4524656734
12950222300.0 0.882281649 -0.4657955677
13000222000.0 0.8763068314 -0.4776898149
13050221700.0 0.8693232989 -0.4893598361
13100221400.0 0.8625325218 -0.5025975716
13150221100.0 0.8553911857 -0.514464808
13200220800.0 0.8487989024 -0.5260934677
13250220500.0 0.8413697237 -0.5382136869
13300220200.0 0.8340171623 -0.5491955972
13350219900.0 0.8254992189 -0.5612457302
13400219600.0 0.8169155646 -0.5735386484
13450219300.0 0.8076768275 -0.5872677422
13500219000.0 0.797076947 -0.6012297731
13550218700.0 0.786958601 -0.6142353972
13600218400.0 0.7768546005 -0.6261872012
13650218100.0 0.766964297 -0.6372130981
13700217800.0 0.7564846246 -0.6496225858
13750217500.0 0.746391164 -0.6609584531
13800217200.0 0.7341302711 -0.6726560715
13850216900.0 0.7234537763 -0.6840612743
13900216600.0 0.7137816244 -0.693688123
13950216300.0 0.7029413211 -0.7037688194
14000216000.0 0.6931862857 -0.7126666263
14050215700.0 0.6838044583 -0.720530829
14100215400.0 0.6736373896 -0.7301621157
14150215100.0 0.6646165969 -0.7384695821
14200214800.0 0.655373755 -0.7466749397
14250214500.0 0.6452659673 -0.7559948988
14300214200.0 0.6350938616 -0.7651709582
14350213900.0 0.6240857053 -0.7745188921
14400213600.0 0.6119970303 -0.7841307107
14450213300.0 0.5987892477 -0.7941033801
14500213000.0 0.5861032578 -0.80400162
14550212700.0 0.573871991 -0.8141302108
14600212400.0 0.5614502696 -0.8227651106
14650212100.0 0.5480371686 -0.8312837637
14700211800.0 0.5343214001 -0.8409028201
14750211500.0 0.5223003544 -0.8486357424
14800211200.0 0.5098983421 -0.8565211615
14850210900.0 0.4977809689 -0.8640497693
14900210600.0 0.4841705848 -0.8718669389
14950210300.0 0.4707384718 -0.8797349042
15000210000.0 0.4577576532 -0.8864574861
15050209700.0 0.4457099042 -0.8928431067
15100209400.0 0.4325169754 -0.8987095211
15150209100.0 0.4203088692 -0.9044236821
15200208800.0 0.4073557026 -0.9103323603
15250208500.0 0.395496986 -0.9141392458
15300208200.0 0.383439283 -0.9194619365
15350207900.0 0.3701451001 -0.9237855401
15400207600.0 0.3549583922 -0.9290369014
15450207300.0 0.3403373078 -0.9345249847
15500207000.0 0.3260803769 -0.9385470154
15550206700.0 0.3097429854 -0.9441157737
15600206400.0 0.2949669639 -0.9484018596
15650206100.0 0.2792925608 -0.9527062114
15700205800.0 0.2654007719 -0.9559678924
15750205500.0 0.2510402587 -0.9593743757
15800205200.0 0.2364774733 -0.96307397
15850204900.0 0.2221168662 -0.9664110745
15900204600.0 0.2073964782 -0.9698810002
15950204300.0 0.1933252083 -0.9729187805
16000204000.0 0.17948325 -0.97535032
16050203700.0 0.1647326448 -0.9782990742
16100203400.0 0.1506677803 -0.9801597852
16150203100.0 0.1362903656 -0.9826273691
16200202800.0 0.1221236752 -0.9846204031
16250202500.0 0.1078278297 -0.9859300536
16300202200.0 0.0922573959 -0.9875940604
16350201900.0 0.0773952414 -0.9892821802
16400201600.0 0.0626945106 -0.9902134259
16450201300.0 0.0475448744 -0.9912346503
16500201000.0 0.0310461196 -0.9919230347
16550200700.0 0.0153424866 -0.9923146275
16600200400.0 -0.0004897845 -0.9924983908
16650200100.0 -0.0166168588 -0.9922422797
16700199800.0 -0.0334623636 -0.9918244548
16750199500.0 -0.0525999585 -0.9910744725
16800199200.0 -0.0677044912 -0.9903519638
16850198900.0 -0.0831452834 -0.98917482
16900198600.0 -0.0977201652 -0.9880388169
16950198300.0 -0.1100870934 -0.9865379915
17000198000.0 -0.1241024148 -0.9848533655
17050197700.0 -0.1360339258 -0.9829100942
17100197400.0 -0.1493228224 -0.9810818209
17150197100.0 -0.1621718158 -0.9794006583
17200196800.0 -0.1746098303 -0.977462134
17250196500.0 -0.1877968082 -0.9748136645
17300196200.0 -0.1998908366 -0.9725837986
17350195900.0 -0.2121184411 -0.9703300187
17400195600.0 -0.2240707762 -0.9680573205
17450195300.0 -0.2371294783 -0.9650559986
17500195000.0 -0.2507516108 -0.9616024969
17550194700.0 -0.2646075833 -0.9582591342
17600194400.0 -0.278322756 -0.9543795668
17650194100.0 -0.2920505012 -0.9502629641
17700193800.0 -0.3049882787 -0.9458048312
17750193500.0 -0.319484276 -0.9409295606
17800193200.0 -0.3331575211 -0.9362054589
17850192900.0 -0.3483572145 -0.9302799409
17900192600.0 -0.3636842024 -0.9246659585
17950192300.0 -0.3790979041 -0.9173803485
18000192000.0 -0.3934608661 -0.9101872012
18050191700.0 -0.4074730707 -0.9023775623
18100191400.0 -0.4214891117 -0.8946639156
18150191100.0 -0.4365331046 -0.8864699272
18200190800.0 -0.4533406109 -0.8772365449
18250190500.0 -0.4699118262 -0.8681003253
18300190200.0 -0.4854126716 -0.859036156
18350189900.0 -0.5004820961 -0.8505097706
18400189600.0 -0.5153864514 -0.8423383401
18450189300.0 -0.5285030868 -0.8344556092
18500189000.0 -0.5418051279 -0.8260385496
18550188700.0 -0.5544721688 -0.8182092034
18600188400.0 -0.5664358644 -0.8114653534
18650188100.0 -0.5773156835 -0.8052090293
18700187800.0 -0.5882941133 -0.7985344672
18750187500.0 -0.5989857251 -0.7918095292
18800187200.0 -0.6098680569 -0.7843234059
18850186900.0 -0.6200718694 -0.77741752
18900186600.0 -0.6303552839 -0.7697742684
18950186300.0 -0.6405871305 -0.7622592407
19000186000.0 -0.6480612274 -0.7559547456
19050185700.0 -0.6573197832 -0.7483232004
19100185400.0 -0.6672326954 -0.7397467946
19150185100.0 -0.6775861976 -0.731233639
19200184800.0 -0.6871969469 -0.7230611429
19250184500.0 -0.6964633124 -0.713520274
19300184200.0 -0.7092902496 -0.7044420003
19350183900.0 -0.7197650738 -0.6942442672
19400183600.0 -0.7297313021 -0.684339408
19450183300.0 -0.7374888826 -0.6738863716
19500183000.0 -0.7465222184 -0.6645561203
19550182700.0 -0.7558610781 -0.6531615217
19600182400.0 -0.7663252062 -0.6426429985
19650182100.0 -0.7768186993 -0.6295337944
19700181800.0 -0.7874011136 -0.6169914897
19750181500.0 -0.7975843086 -0.6026002102
19800181200.0 -0.8076234743 -0.5878431606
19850180900.0 -0.8172457281 -0.5724962177
19900180600.0 -0.8250199757 -0.5583057508
19950180300.0 -0.8342000435 -0.5422141208
20000180000.0 -0.827491447 -0.5444436155
20050179700.0 -0.8353901343 -0.5314831781
20100179400.0 -0.8439267362 -0.5183028178
20150179100.0 -0.851672594 -0.5054825526
20200178800.0 -0.8611074573 -0.4921046046
20250178500.0 -0.8696981804 -0.4790202226
20300178200.0 -0.8793864092 -0.4639087701
20350177900.0 -0.8883025671 -0.4497146161
20400177600.0 -0.8971733611 -0.4354203855
20450177300.0 -0.9056074579 -0.4206513663
20500177000.0 -0.9132223258 -0.406877084
20550176700.0 -0.9212407825 -0.3932809785
20600176400.0 -0.9283344157 -0.3801250544
20650176100.0 -0.9352732471 -0.3678217036
20700175800.0 -0.941892579 -0.3556791234
20750175500.0 -0.9480299904 -0.3441473168
20800175200.0 -0.952680232 -0.332523875
20850174900.0 -0.9577865026 -0.3217616934
20900174600.0 -0.9629258204 -0.3089165541
20950174300.0 -0.9665822787 -0.2981253334
21000174000.0 -0.9703760492 -0.2864259113
21050173700.0 -0.9731414818 -0.2755549483
21100173400.0 -0.977133105 -0.2628622644
21150173100.0 -0.981285172 -0.2505293396
21200172800.0 -0.9848118572 -0.2369883648
21250172500.0 -0.9885258313 -0.2233148977
21300172200.0 -0.9907308991 -0.2088182299
21350171900.0 -0.9924008928 -0.1943386457
21400171600.0 -0.9935778409 -0.1796606034
21450171300.0 -0.9941834676 -0.1658035547
21500171000.0 -0.9934677646 -0.1509051106
21550170700.0 -0.9931154762 -0.1347690893
21600170400.0 -0.9934858554 -0.1181359449
21650170100.0 -0.9921573331 -0.1034353615
21700169800.0 -0.9900956823 -0.0875847951
21750169500.0 -0.9890434777 -0.0729036541
21800169200.0 -0.9883845548 -0.0563314246
21850168900.0 -0.9862316614 -0.0403885265
21900168600.0 -0.9855683376 -0.0240951366
21950168300.0 -0.984106364 -0.007515839
22000168000.0 -0.9825409284 0.0071194318
22050167700.0 -0.9822222248 0.0207564259
22100167400.0 -0.9824201886 0.0361004455
22150167100.0 -0.9830530311 0.0513431678
22200166800.0 -0.9836546584 0.0670585165
22250166500.0 -0.9821621379 0.0849762153
22300166200.0 -0.9816891393 0.1002929059
22350165900.0 -0.9801799119 0.1182907744
22400165600.0 -0.9787180162 0.1327649395
22450165300.0 -0.9752856118 0.1485416596
22500165000.0 -0.9752943663 0.1624660385
22550164700.0 -0.9736478345 0.1764428479
22600164400.0 -0.971439575 0.192384478
22650164100.0 -0.969727691 0.2072302146
22700163800.0 -0.9666756227 0.2233504175
22750163500.0 -0.964523641 0.2384759398
22800163200.0 -0.9621352221 0.251980346
22850162900.0 -0.9594137517 0.2657124452
22900162600.0 -0.9578413626 0.2788734912
22950162300.0 -0.9567653072 0.2917820803
23000162000.0 -0.9559907082 0.3033769477
23050161700.0 -0.9536895923 0.3159352948
23100161400.0 -0.9513558525 0.3288034032
23150161100.0 -0.9487327193 0.3411264112
23200160800.0 -0.9461562864 0.3534577568
23250160500.0 -0.9435626662 0.3654340239
23300160200.0 -0.9403430064 0.3770526318
23350159900.0 -0.9370091491 0.3899258604
23400159600.0 -0.9325239353 0.4029361424
23450159300.0 -0.9275329509 0.4155540283
23500159000.0 -0.9228704345 0.4288018572
23550158700.0 -0.9183745527 0.4420228434
23600158400.0 -0.9130765191 0.4550752262
23650158100.0 -0.9070253387 0.4690062542
23700157800.0 -0.8992453139 0.4823821388
23750157500.0 -0.8908280474 0.4964483293
23800157200.0 -0.8817216138 0.5098975551
23850156900.0 -0.8731053405 0.5223868392
23900156600.0 -0.8640083866 0.5343370155
23950156300.0 -0.8549895926 0.5471034919
24000156000.0 -0.8456382147 0.5591069465
24050155700.0 -0.8354899073 0.5701556852
24100155400.0 -0.825822931 0.5834106878
24150155100.0 -0.8146541693 0.5945071361
24200154800.0 -0.8036367108 0.6056150869
24250154500.0 -0.7925989087 0.617223295
24300154200.0 -0.7810335409 0.629005027
24350153900.0 -0.768952207 0.6399854175
24400153600.0 -0.7563366677 0.6500178919
24450153300.0 -0.744692862 0.6598489013
24500153000.0 -0.733112058 0.6698728304
24550152700.0 -0.721557074 0.6797537806
24600152400.0 -0.7104609455 0.6884270043
24650152100.0 -0.6984702933 0.697388184
