!Created with skrf (http://scikit-rf.org).
# Hz S RI R 50.0 
!freq ReS11 ImS11
300000.0 -0.9748035684 -0.1171011238
50299700.0 -0.9999929246 0.0156021292
100299400.0 -0.9981349267 0.0283264684
150299100.0 -1.002947039 0.0453572389
200298800.0 -0.9998403489 0.0588062766
250298500.0 -0.9974012731 0.072120543
300298200.0 -0.9860959308 0.0880632057
350297900.0 -0.9941375113 0.0990408649
400297600.0 -0.99332044 0.1154642306
450297300.0 -0.9912627871 0.1292208976
500297000.0 -0.9895251371 0.1439314436
550296700.0 -0.9843920361 0.1564447235
600296400.0 -1.017545641 0.1895090982
650296100.0 -0.9823050089 0.1862553596
700295800.0 -0.9794644739 0.2005089154
750295500.0 -0.9763438798 0.2146339649
800295200.0 -0.9728901165 0.2288769618
850294900.0 -0.969522667 0.2425310925
900294600.0 -0.9659037475 0.2564674129
950294300.0 -0.9622034396 0.2700335345
1000294000.0 -0.9581444608 0.2839772488
1050293700.0 -0.953388846 0.2979255992
1100293400.0 -0.9493929876 0.3121860059
1150293100.0 -0.9455463598 0.3241023453
1200292800.0 -0.940206742 0.33860236
1250292500.0 -0.9345850577 0.3519833453
1300292200.0 -0.9289862729 0.3650315786
1350291900.0 -0.9236114304 0.3790219427
1400291600.0 -0.9180773536 0.3921929142
1450291300.0 -0.9125282354 0.4047109538
1500291000.0 -0.9061652354 0.4181335162
1550290700.0 -0.8996179002 0.4314805204
1600290400.0 -0.8934001303 0.4441730217
1650290100.0 -0.886663337 0.4566413701
1700289800.0 -0.8798508388 0.4699255865
1750289500.0 -0.8728722484 0.482146013
1800289200.0 -0.8655012829 0.4949695145
1850288900.0 -0.8585777577 0.5064682078
1900288600.0 -0.8508234007 0.5192812891
1950288300.0 -0.8427385765 0.5318501312
2000288000.0 -0.8354343256 0.5431513517
2050287700.0 -0.8270209554 0.5554604012
2100287400.0 -0.8189914986 0.5674280126
2150287100.0 -0.8103887213 0.5793494205
2200286800.0 -0.8028635047 0.5896708489
2250286500.0 -0.794066196 0.6015983042
2300286200.0 -0.7850453861 0.6134718282
2350285900.0 -0.7764119236 0.624392675
2400285600.0 -0.7673533892 0.6353967863
2450285300.0 -0.7588536763 0.6458072187
2500285000.0 -0.7490126685 0.6569806981
2550284700.0 -0.7399801199 0.6674548521
2600284400.0 -0.7307984689 0.6774797093
2650284100.0 -0.721640558 0.6880159655
2700283800.0 -0.7111284035 0.6986500145
2750283500.0 -0.7009897939 0.709234699
2800283200.0 -0.6911925806 0.7189753243
2850282900.0 -0.6807006986 0.7285736975
2900282600.0 -0.6705468158 0.7384197588
2950282300.0 -0.6604050435 0.7475149881
3000282000.0 -0.6496208742 0.7569384399
3050281700.0 -0.6382695466 0.7661215969
3100281400.0 -0.6264418832 0.7756642983
3150281100.0 -0.6146655818 0.7848485098
3200280800.0 -0.6028615019 0.7935383403
3250280500.0 -0.5922677465 0.8013091315
3300280200.0 -0.5810456823 0.8088867922
3350279900.0 -0.5692325504 0.8164626301
3400279600.0 -0.5572618082 0.8244625152
3450279300.0 -0.5460585542 0.8313740714
3500279000.0 -0.5341460517 0.8385771747
3550278700.0 -0.5217378219 0.8458480979
3600278400.0 -0.5093752496 0.8530223974
3650278100.0 -0.4960800769 0.8606552495
3700277800.0 -0.4842270619 0.8672070077
3750277500.0 -0.4720153344 0.8735658247
3800277200.0 -0.4594589291 0.8800862382
3850276900.0 -0.4474355773 0.8860190688
3900276600.0 -0.4365208407 0.8914761739
3950276300.0 -0.4240757964 0.8977416232
4000276000.0 -0.4120612864 0.9036706636
4050275700.0 -0.3993451962 0.9097969435
4100275400.0 -0.3879630316 0.9151427068
4150275100.0 -0.3751069571 0.9206788353
4200274800.0 -0.3622738508 0.9262900482
4250274500.0 -0.3502813087 0.9314944476
4300274200.0 -0.3371503458 0.9367992313
4350273900.0 -0.3232242373 0.9419507811
4400273600.0 -0.3083186173 0.9472782869
4450273300.0 -0.2929845546 0.9523271144
4500273000.0 -0.2792488908 0.9568944991
4550272700.0 -0.2654112484 0.9609565954
4600272400.0 -0.2499421399 0.9652667627
4650272100.0 -0.2381441599 0.9683782924
4700271800.0 -0.2248929325 0.9717657833
4750271500.0 -0.2131623716 0.9746021575
4800271200.0 -0.2005991832 0.9772355489
4850270900.0 -0.1867041772 0.9802334521
4900270600.0 -0.1728243045 0.9825673942
4950270300.0 -0.1585275641 0.9848639475
5000270000.0 -0.1443784356 0.987255115
5050269700.0 -0.1308202988 0.988863639
5100269400.0 -0.1172800358 0.9904155225
5150269100.0 -0.1038168761 0.9917810019
5200268800.0 -0.0905350548 0.9929786005
5250268500.0 -0.0774216232 0.9938066885
5300268200.0 -0.0643852099 0.9945920804
5350267900.0 -0.0520821228 0.9950578723
5400267600.0 -0.0359748809 0.9962163796
5450267300.0 -0.0228767818 0.9966344319
5500267000.0 -0.0076440749 0.9970739584
5550266700.0 0.0072995139 0.9971391796
5600266400.0 0.0228362238 0.9971298084
5650266100.0 0.0392583903 0.9970776632
5700265800.0 0.0536532992 0.9962064352
5750265500.0 0.0692320706 0.9954825771
5800265200.0 0.0831568434 0.9944311725
5850264900.0 0.0961501426 0.9931394465
5900264600.0 0.1131265677 0.9919160433
5950264300.0 0.1250003803 0.99014673
6000264000.0 0.1389889764 0.9883067826
6050263700.0 0.1509162496 0.9864098577
6100263400.0 0.1636659035 0.9846601018
6150263100.0 0.1783439289 0.9827392465
6200262800.0 0.188824263 0.9808728477
6250262500.0 0.2012083153 0.9784350424
6300262200.0 0.2144489615 0.9754685703
6350261900.0 0.2272100948 0.9727266823
6400261600.0 0.2410668955 0.9693701519
6450261300.0 0.2523832986 0.9667573237
6500261000.0 0.2651784085 0.9630094831
6550260700.0 0.2783917249 0.9592219875
6600260400.0 0.2915656801 0.9552037174
6650260100.0 0.3056593281 0.9509801025
6700259800.0 0.3174558748 0.9465595579
6750259500.0 0.3312938107 0.9415243871
6800259200.0 0.3442578396 0.9366012905
6850258900.0 0.3565592334 0.931407486
6900258600.0 0.3684719506 0.9263374483
6950258300.0 0.3810275109 0.9210168736
7000258000.0 0.3929463102 0.9157220383
7050257700.0 0.4054250858 0.9095034286
7100257400.0 0.418025941 0.9034075289
7150257100.0 0.4286131801 0.8979405263
7200256800.0 0.4413194637 0.8917661384
7250256500.0 0.4531763794 0.8853200848
7300256200.0 0.4664986208 0.8785125822
7350255900.0 0.4784362549 0.8714935011
7400255600.0 0.4919494581 0.8643532576
7450255300.0 0.5072398794 0.8554625115
7500255000.0 0.5190325101 0.8481851186
7550254700.0 0.5327688878 0.8396108539
7600254400.0 0.5456207591 0.8313467642
7650254100.0 0.557314216 0.8235800837
7700253800.0 0.5690052327 0.8157286384
7750253500.0 0.5802729316 0.8079216404
7800253200.0 0.5909368129 0.8003502252
7850252900.0 0.600406027 0.7931752894
7900252600.0 0.6122347484 0.7844610938
7950252300.0 0.6209605642 0.7778279875
8000252000.0 0.6309891513 0.7700268959
8050251700.0 0.641620593 0.7619986248
8100251400.0 0.6518823874 0.7538650759
8150251100.0 0.6620097308 0.7452072502
8200250800.0 0.671170759 0.7371413841
8250250500.0 0.6798751156 0.7292373489
8300250200.0 0.6895584071 0.7204197638
8350249900.0 0.698425592 0.7118147878
8400249600.0 0.7065869564 0.7038070161
8450249300.0 0.7157881649 0.6947754094
8500249000.0 0.7242032125 0.6857125477
8550248700.0 0.7324670871 0.676750897
8600248400.0 0.740911724 0.6674372656
8650248100.0 0.7487377711 0.65800633
8700247800.0 0.7584230348 0.6467663086
8750247500.0 0.7664096252 0.6366041959
8800247200.0 0.7746704105 0.6262139015
8850246900.0 0.7838476259 0.614622349
8900246600.0 0.7921858284 0.6035333581
8950246300.0 0.801569225 0.5904978338
9000246000.0 0.8106617091 0.5779115702
9050245700.0 0.8199821416 0.5647974442
9100245400.0 0.8285531769 0.5522421938
9150245100.0 0.8379362477 0.5385225294
9200244800.0 0.8476736532 0.5233555281
9250244500.0 0.8569119101 0.5078828958
9300244200.0 0.8655372133 0.4932605635
9350243900.0 0.87324678 0.4793493918
9400243600.0 0.8799505386 0.4670983096
9450243300.0 0.8858422079 0.4552452533
9500243000.0 0.8920136571 0.4431775203
9550242700.0 0.8957962626 0.4356639419
9600242400.0 0.8997209219 0.4282508239
9650242100.0 0.9035641437 0.4216602664
9700241800.0 0.9079454406 0.4135369648
9750241500.0 0.9116685722 0.4062497713
9800241200.0 0.9169560243 0.3970688973
9850240900.0 0.9222532975 0.3853159691
9900240600.0 0.9278365545 0.3736474664
9950240300.0 0.9346565042 0.3575636691
10000240000.0 0.9393569479 0.3459087638
10050239700.0 0.944728471 0.3309071242
10100239400.0 0.9496517676 0.3152155065
10150239100.0 0.9542425213 0.3005241133
10200238800.0 0.9584794639 0.2852428463
10250238500.0 0.9617271389 0.2720528795
10300238200.0 0.9646412022 0.2580785442
10350237900.0 0.967324612 0.2453654896
10400237600.0 0.969662854 0.2321372801
10450237300.0 0.9725026332 0.2182149533
10500237000.0 0.974794558 0.2064683642
10550236700.0 0.977305206 0.1915133619
10600236400.0 0.9796022303 0.1777943577
10650236100.0 0.9815456472 0.1631625007
10700235800.0 0.9836247117 0.1511787888
10750235500.0 0.985575539 0.1380456975
10800235200.0 0.9877301841 0.1244051967
10850234900.0 0.9897559552 0.1093465621
10900234600.0 0.9917805804 0.094738649
10950234300.0 0.9933981039 0.081428546
11000234000.0 0.9952187549 0.0663514861
11050233700.0 0.997070367 0.0498529714
11100233400.0 0.9984877435 0.0323938649
11150233100.0 0.9993962472 0.0159617865
11200232800.0 1.000170739 0.0006302137
11250232500.0 1.000801349 -0.0152120718
11300232200.0 1.002085969 -0.0333202599
11350231900.0 1.001674271 -0.0496824805
11400231600.0 1.001212411 -0.0647276796
11450231300.0 1.001085964 -0.0795291501
11500231000.0 1.000232134 -0.0963498541
11550230700.0 0.9984489271 -0.1096975595
11600230400.0 0.9972294898 -0.1223775926
11650230100.0 0.9952697156 -0.1341489796
11700229800.0 0.9929172305 -0.1487897553
11750229500.0 0.9905116835 -0.1632244703
11800229200.0 0.9880823387 -0.1768169724
11850228900.0 0.984422711 -0.1894956532
11900228600.0 0.9809134553 -0.198823571
11950228300.0 0.9774215693 -0.2094048996
12000228000.0 0.9747339823 -0.2184534179
12050227700.0 0.9713812863 -0.2311830594
12100227400.0 0.9684718422 -0.242328109
12150227100.0 0.963144101 -0.2588617708
12200226800.0 0.9597889299 -0.2692409745
12250226500.0 0.9555894089 -0.2820472431
12300226200.0 0.9515736297 -0.2945068991
12350225900.0 0.9467362854 -0.3083256574
12400225600.0 0.9419376655 -0.321044174
12450225300.0 0.9379256996 -0.3347412019
12500225000.0 0.9321112216 -0.3490007922
12550224700.0 0.9265621126 -0.3627002014
12600224400.0 0.9218407113 -0.3755631978
12650224100.0 0.9159373485 -0.3901503284
12700223800.0 0.91070458 -0.4028506889
12750223500.0 0.9051884632 -0.4158648765
12800223200.0 0.8998549954 -0.4285982153
12850222900.0 0.8946221706 -0.4406428354
12900222600.0 0.8886526987 -0.4531400544
12950222300.0 0.8826378028 -0.4655623144
13000222000.0 0.8770320223 -0.4765664585
13050221700.0 0.8701644836 -0.4899903759
13100221400.0 0.8632154139 -0.501507941
13150221100.0 0.8566119851 -0.5131158084
13200220800.0 0.8495427336 -0.5251440703
13250220500.0 0.8419983743 -0.5373771428
13300220200.0 0.8348606399 -0.5483069817
13350219900.0 0.8267112308 -0.5602210452
13400219600.0 0.818321644 -0.5726145412
13450219300.0 0.8087701758 -0.5859861644
13500219000.0 0.7983868596 -0.5999117201
13550218700.0 0.7882083888 -0.6127274292
13600218400.0 0.7781343436 -0.6248743863
13650218100.0 0.768644546 -0.6351685806
13700217800.0 0.7572614951 -0.6478698258
13750217500.0 0.7473741969 -0.6596229139
13800217200.0 0.736276642 -0.6713369876
13850216900.0 0.7249978038 -0.6823043014
13900216600.0 0.7153453645 -0.6910553845
13950216300.0 0.7046165441 -0.7015333467
14000216000.0 0.6943940054 -0.7114966987
14050215700.0 0.6848946503 -0.719237268
14100215400.0 0.6749498916 -0.7279864535
14150215100.0 0.6659389037 -0.7371519066
14200214800.0 0.6567231921 -0.7457134161
14250214500.0 0.6464158537 -0.7550069976
14300214200.0 0.6359322435 -0.7641565218
14350213900.0 0.6249550624 -0.7737697733
14400213600.0 0.612998018 -0.7834155571
14450213300.0 0.6001238708 -0.79383193
14500213000.0 0.5868421715 -0.8034916187
14550212700.0 0.5745087882 -0.8129988289
14600212400.0 0.5618010798 -0.8217597931
14650212100.0 0.5488607125 -0.8308197164
14700211800.0 0.5348029883 -0.8400445577
14750211500.0 0.5227252668 -0.8482624955
14800211200.0 0.5105816693 -0.8564695059
14850210900.0 0.4985760159 -0.8638229985
14900210600.0 0.485259343 -0.8716383904
14950210300.0 0.4719468354 -0.8793018647
15000210000.0 0.4592751852 -0.8860882163
15050209700.0 0.4467672557 -0.8923246739
15100209400.0 0.4341878522 -0.8981570156
15150209100.0 0.4213560012 -0.9032563606
15200208800.0 0.4087210354 -0.9091753039
15250208500.0 0.397910892 -0.9135164874
15300208200.0 0.3851731568 -0.917898634
15350207900.0 0.372202661 -0.9230850102
15400207600.0 0.3573773847 -0.9285738872
15450207300.0 0.3425188997 -0.9330751562
15500207000.0 0.3284401724 -0.9376394786
15550206700.0 0.3134106708 -0.9433869106
15600206400.0 0.2974557412 -0.9475137266
15650206100.0 0.2819304411 -0.9513467742
15700205800.0 0.2675099052 -0.9553941598
15750205500.0 0.2534115997 -0.9586571027
15800205200.0 0.2389886162 -0.9622665244
15850204900.0 0.2245745139 -0.9657354638
15900204600.0 0.2094900273 -0.9694565566
15950204300.0 0.1952909972 -0.9722938726
16000204000.0 0.1809192929 -0.9750434438
16050203700.0 0.1660784433 -0.9781536263
16100203400.0 0.1517050503 -0.9799087015
16150203100.0 0.1370603127 -0.9825980168
16200202800.0 0.1228405519 -0.9849517574
16250202500.0 0.1083893089 -0.9860920296
16300202200.0 0.0928020555 -0.9876429051
16350201900.0 0.0781509968 -0.9889359835
16400201600.0 0.0636001205 -0.9902453527
16450201300.0 0.048140811 -0.991326245
16500201000.0 0.031594177 -0.9920357108
16550200700.0 0.0160086008 -0.9925425897
16600200400.0 0.000312267 -0.9929691233
16650200100.0 -0.0158980072 -0.9927125534
16700199800.0 -0.0322033701 -0.9923779706
16750199500.0 -0.0509992784 -0.9916009684
16800199200.0 -0.0667965383 -0.9907253235
16850198900.0 -0.0824374991 -0.9895002601
16900198600.0 -0.0961508194 -0.9887704511
16950198300.0 -0.1094866654 -0.9873438841
17000198000.0 -0.1222582037 -0.986045181
17050197700.0 -0.1340284412 -0.9841537263
17100197400.0 -0.1468645102 -0.9818122885
17150197100.0 -0.1600435333 -0.979956727
17200196800.0 -0.1732224587 -0.9778784632
17250196500.0 -0.1859407375 -0.975717512
17300196200.0 -0.1979405998 -0.9733141195
17350195900.0 -0.2098763264 -0.9709593101
17400195600.0 -0.2219378279 -0.9684478596
17450195300.0 -0.2350585995 -0.965830928
17500195000.0 -0.2486982918 -0.9624119338
17550194700.0 -0.262618307 -0.958622807
17600194400.0 -0.2762388371 -0.9546629103
17650194100.0 -0.2898662036 -0.950696311
17700193800.0 -0.3031739867 -0.9460657759
17750193500.0 -0.3173092289 -0.9417179422
17800193200.0 -0.331730315 -0.9366614051
17850192900.0 -0.3466201649 -0.9314894875
17900192600.0 -0.3619547474 -0.9249513668
17950192300.0 -0.3775507647 -0.9182579827
18000192000.0 -0.3923752613 -0.9106578724
18050191700.0 -0.4060084839 -0.9028717099
18100191400.0 -0.4202429534 -0.8952437272
18150191100.0 -0.435323766 -0.8871769455
18200190800.0 -0.4522474985 -0.8777777566
18250190500.0 -0.4692118498 -0.8682962738
18300190200.0 -0.4844999234 -0.8598888742
18350189900.0 -0.4992223818 -0.8510677349
18400189600.0 -0.5140578544 -0.8434251701
18450189300.0 -0.5273991754 -0.8350173229
18500189000.0 -0.5403755787 -0.827289519
18550188700.0 -0.5534223404 -0.8195800323
18600188400.0 -0.5652265803 -0.8132055185
18650188100.0 -0.5759554396 -0.8066898392
18700187800.0 -0.5870280566 -0.7998982774
18750187500.0 -0.597624383 -0.7932968259
18800187200.0 -0.6081709258 -0.7860692704
18850186900.0 -0.618389602 -0.7792315129
18900186600.0 -0.6287918224 -0.7718373044
18950186300.0 -0.6386816829 -0.764355533
19000186000.0 -0.6459937156 -0.7581691905
19050185700.0 -0.655250388 -0.7510100096
19100185400.0 -0.6654200993 -0.7423314578
19150185100.0 -0.6754571299 -0.7346456628
19200184800.0 -0.6848524202 -0.7256092128
19250184500.0 -0.6952832309 -0.7164216491
19300184200.0 -0.7062009865 -0.706659916
19350183900.0 -0.716715351 -0.6972485632
19400183600.0 -0.7267389317 -0.6869876325
19450183300.0 -0.7357867734 -0.6770684561
19500183000.0 -0.7445049604 -0.6672386857
19550182700.0 -0.7535916618 -0.6566570073
19600182400.0 -0.7640751706 -0.6441715566
19650182100.0 -0.7751397828 -0.6322199333
19700181800.0 -0.7854680292 -0.6190774773
19750181500.0 -0.7963201206 -0.6046381952
19800181200.0 -0.8064682091 -0.589771116
19850180900.0 -0.8160553281 -0.5743370918
19900180600.0 -0.8239950812 -0.559890761
19950180300.0 -0.8332071875 -0.5433571504
20000180000.0 -0.825715332 -0.5465865562
20050179700.0 -0.8345157927 -0.5324395442
20100179400.0 -0.8432748476 -0.5188517276
20150179100.0 -0.8501733555 -0.5067549296
20200178800.0 -0.8596602565 -0.4945595987
20250178500.0 -0.8699616527 -0.4809030256
20300178200.0 -0.8795512397 -0.4664342781
20350177900.0 -0.8878969925 -0.4518811899
20400177600.0 -0.896853896 -0.4369509215
20450177300.0 -0.9054434687 -0.4226091224
20500177000.0 -0.913194762 -0.4088533424
20550176700.0 -0.9211332135 -0.3951480976
20600176400.0 -0.9283968256 -0.3821569215
20650176100.0 -0.9344336424 -0.3700692631
20700175800.0 -0.9412377886 -0.358016827
20750175500.0 -0.948083778 -0.3463756005
20800175200.0 -0.951435738 -0.3354540381
20850174900.0 -0.957010734 -0.3239209262
20900174600.0 -0.9620599645 -0.3134760059
20950174300.0 -0.966070734 -0.3011623747
21000174000.0 -0.9698699327 -0.2899700226
21050173700.0 -0.9722668858 -0.27945164
21100173400.0 -0.9761865433 -0.2670781895
21150173100.0 -0.9799005504 -0.2554359125
21200172800.0 -0.9834278994 -0.2411819266
21250172500.0 -0.9866638923 -0.2279691113
21300172200.0 -0.9898575415 -0.2133903513
21350171900.0 -0.9914395665 -0.1990288994
21400171600.0 -0.9928937151 -0.1850231413
21450171300.0 -0.9929085283 -0.1705267469
21500171000.0 -0.9913012953 -0.1544704613
21550170700.0 -0.9928854273 -0.1390808353
21600170400.0 -0.9936215601 -0.1244054636
21650170100.0 -0.9909003406 -0.1090180807
21700169800.0 -0.990249114 -0.0936031411
21750169500.0 -0.988851889 -0.0766125612
21800169200.0 -0.9880054171 -0.060958985
21850168900.0 -0.9871004951 -0.0437467754
21900168600.0 -0.9856287555 -0.0279161253
21950168300.0 -0.9846309947 -0.0113846565
22000168000.0 -0.9838528537 0.0030485882
22050167700.0 -0.983002487 0.0177027127
22100167400.0 -0.983471671 0.0331151972
22150167100.0 -0.9837126504 0.0483892474
22200166800.0 -0.9847197216 0.0645204987
22250166500.0 -0.9839906036 0.0815250779
22300166200.0 -0.9830358781 0.0988003466
22350165900.0 -0.9817579963 0.1146019904
22400165600.0 -0.9801229526 0.1304444362
22450165300.0 -0.9786432763 0.1463333199
22500165000.0 -0.9756299337 0.160024766
22550164700.0 -0.9755062884 0.1746562446
22600164400.0 -0.9736498993 0.1898384248
22650164100.0 -0.9709677159 0.2053359711
22700163800.0 -0.9691962168 0.2212931145
22750163500.0 -0.9663806129 0.2360528614
22800163200.0 -0.9637170236 0.2493323363
22850162900.0 -0.9612923559 0.2629355292
22900162600.0 -0.9595649522 0.2762904442
22950162300.0 -0.9585220871 0.2892416179
23000162000.0 -0.9575397917 0.3008130622
23050161700.0 -0.9554140703 0.3137851785
23100161400.0 -0.9529274485 0.3263273527
23150161100.0 -0.9502378726 0.3389607413
23200160800.0 -0.9468107577 0.3516329519
23250160500.0 -0.9442889275 0.362883744
23300160200.0 -0.9426609037 0.3742907247
23350159900.0 -0.937602853 0.3877740669
23400159600.0 -0.934159871 0.4014933254
23450159300.0 -0.928850699 0.4150324003
23500159000.0 -0.9240598202 0.4275750086
23550158700.0 -0.9196675715 0.4407876597
23600158400.0 -0.9144651487 0.4541446105
23650158100.0 -0.9077234598 0.4681488843
23700157800.0 -0.900282905 0.4819512137
23750157500.0 -0.8919633795 0.4960308355
23800157200.0 -0.8829087498 0.5092049773
23850156900.0 -0.8742867871 0.5224141779
23900156600.0 -0.864623442 0.5344236507
23950156300.0 -0.8557944725 0.5476312747
24000156000.0 -0.846409448 0.5592253613
24050155700.0 -0.8361671215 0.570867123
24100155400.0 -0.8265222373 0.583005477
24150155100.0 -0.815746107 0.5939393615
24200154800.0 -0.80488231 0.6057069582
24250154500.0 -0.7927586895 0.6177303553
24300154200.0 -0.7816092647 0.629329213
24350153900.0 -0.770203011 0.639722214
24400153600.0 -0.757236122 0.6500245108
24450153300.0 -0.7460338494 0.659913283
24500153000.0 -0.7342943077 0.669244403
24550152700.0 -0.7231603862 0.6791721564
24600152400.0 -0.7106270289 0.6883459726
24650152100.0 -0.7001261735 0.6964740239
