!Created with skrf (http://scikit-rf.org).
# Hz S RI R 50.0 
!freq ReS11 ImS11
300000.0 -1.004329349 0.0374744211
50299700.0 -0.9975162478 0.0149868044
100299400.0 -0.9956447247 0.027383303
150299100.0 -1.000356979 0.0438354972
200298800.0 -0.9969031027 0.0568539457
250298500.0 -0.9945761067 0.0702950487
300298200.0 -0.9828095449 0.0856260178
350297900.0 -0.9905890052 0.0961448001
400297600.0 -0.9894701172 0.1123469126
450297300.0 -0.9870652929 0.1256348827
500297000.0 -0.9855367413 0.1399156549
550296700.0 -0.9799634518 0.1520341263
600296400.0 -1.013139038 0.1848559217
650296100.0 -0.9778912039 0.1811708276
700295800.0 -0.9750851226 0.1950416092
750295500.0 -0.971952569 0.2087744125
800295200.0 -0.9687714061 0.2224912936
850294900.0 -0.9656439385 0.2358428968
900294600.0 -0.9618136344 0.2493458969
950294300.0 -0.9582647314 0.2623945838
1000294000.0 -0.9546009705 0.276605672
1050293700.0 -0.9502134906 0.2901019607
1100293400.0 -0.9463232535 0.3044715807
1150293100.0 -0.9426628441 0.3162430252
1200292800.0 -0.9375957811 0.3302723171
1250292500.0 -0.9325163197 0.3436705896
1300292200.0 -0.9269704807 0.3567761653
1350291900.0 -0.9216986843 0.3710121377
1400291600.0 -0.9168724816 0.3840436373
1450291300.0 -0.9113807017 0.3961751005
1500291000.0 -0.9054493169 0.4094633403
1550290700.0 -0.8993467782 0.4227813289
1600290400.0 -0.8934582344 0.4356105252
1650290100.0 -0.8873117527 0.4474111422
1700289800.0 -0.8806470051 0.4610632443
1750289500.0 -0.874124068 0.4731525563
1800289200.0 -0.8672012655 0.4858447587
1850288900.0 -0.8608844625 0.4970282599
1900288600.0 -0.8533652885 0.5098719368
1950288300.0 -0.8458448578 0.5223038702
2000288000.0 -0.8384714386 0.5339417969
2050287700.0 -0.8306848684 0.5459547656
2100287400.0 -0.8234118787 0.5571533211
2150287100.0 -0.8149950034 0.5694233227
2200286800.0 -0.807291274 0.5801311912
2250286500.0 -0.7989310131 0.5917985349
2300286200.0 -0.790625224 0.6026551436
2350285900.0 -0.782319029 0.6133079742
2400285600.0 -0.7730525851 0.6246772582
2450285300.0 -0.763768941 0.6358031973
2500285000.0 -0.7551298322 0.6460410776
2550284700.0 -0.7461061074 0.6566919299
2600284400.0 -0.7356731814 0.6676930488
2650284100.0 -0.7273233125 0.6771287661
2700283800.0 -0.7172682161 0.6871353196
2750283500.0 -0.7076322803 0.6973130624
2800283200.0 -0.6972851034 0.7070555671
2850282900.0 -0.6868980038 0.7173135728
2900282600.0 -0.6762743552 0.7268860592
2950282300.0 -0.6661695914 0.736060922
3000282000.0 -0.6553374464 0.7456162133
3050281700.0 -0.644542173 0.7553316426
3100281400.0 -0.6342146627 0.763825318
3150281100.0 -0.6245247411 0.7722182284
3200280800.0 -0.6132984904 0.7813331186
3250280500.0 -0.60189607 0.790085099
3300280200.0 -0.5894570858 0.8000529023
3350279900.0 -0.578752082 0.8079840571
3400279600.0 -0.5666064463 0.8167920707
3450279300.0 -0.5551146792 0.8254515862
3500279000.0 -0.5431070289 0.8335279985
3550278700.0 -0.531235601 0.8414567651
3600278400.0 -0.5210421538 0.8479573151
3650278100.0 -0.5082244474 0.8563059901
3700277800.0 -0.4961064264 0.8633432043
3750277500.0 -0.4840394724 0.8703707467
3800277200.0 -0.4717985453 0.8771502311
3850276900.0 -0.4591932491 0.8837428053
3900276600.0 -0.4472654521 0.8898110596
3950276300.0 -0.4337794449 0.8963702242
4000276000.0 -0.4215068203 0.9023216028
4050275700.0 -0.4084567638 0.9084699461
4100275400.0 -0.3968765748 0.9132219059
4150275100.0 -0.3835936822 0.9187688202
4200274800.0 -0.3694584851 0.9243546865
4250274500.0 -0.3577755799 0.9286214208
4300274200.0 -0.3448797263 0.9332636183
4350273900.0 -0.331088794 0.9379442432
4400273600.0 -0.3188640478 0.9419804462
4450273300.0 -0.3065783227 0.9460137246
4500273000.0 -0.2946892088 0.9498985055
4550272700.0 -0.2831222691 0.9530764474
4600272400.0 -0.2689447664 0.9571063803
4650272100.0 -0.2566083029 0.9604986822
4700271800.0 -0.2434494777 0.9637186249
4750271500.0 -0.2293296994 0.9670174262
4800271200.0 -0.2144592705 0.970440034
4850270900.0 -0.2005015806 0.9732126065
4900270600.0 -0.1871023928 0.9757132057
4950270300.0 -0.1745735434 0.9782150695
5000270000.0 -0.1611240286 0.9805781904
5050269700.0 -0.1474019285 0.9823195699
5100269400.0 -0.1325731047 0.98455868
5150269100.0 -0.1182756892 0.9867973887
5200268800.0 -0.1041869358 0.9881772071
5250268500.0 -0.0908593409 0.9891673954
5300268200.0 -0.0758948454 0.9907138162
5350267900.0 -0.0626609499 0.9914777902
5400267600.0 -0.046421446 0.9926707358
5450267300.0 -0.0338376158 0.9930411315
5500267000.0 -0.0199305348 0.9932676036
5550266700.0 -0.0087224865 0.9932816655
5600266400.0 0.0048842877 0.9933196609
5650266100.0 0.0185332925 0.9929947822
5700265800.0 0.0305970246 0.9925846028
5750265500.0 0.0436880216 0.9922941184
5800265200.0 0.0558109043 0.9912026194
5850264900.0 0.0692523946 0.991011136
5900264600.0 0.0839047521 0.9896003135
5950264300.0 0.094967258 0.9889288017
6000264000.0 0.1079249932 0.9876359314
6050263700.0 0.1203923843 0.9865855967
6100263400.0 0.1344810154 0.9845578596
6150263100.0 0.1506062459 0.9821488253
6200262800.0 0.1619630482 0.9804342942
6250262500.0 0.1762245756 0.9782654521
6300262200.0 0.1891943394 0.9758120568
6350261900.0 0.2025724262 0.9733279394
6400261600.0 0.2175018008 0.9699510909
6450261300.0 0.2304031448 0.9671112097
6500261000.0 0.2435929155 0.9637008185
6550260700.0 0.2573082888 0.959883845
6600260400.0 0.2702144051 0.956747189
6650260100.0 0.2835328001 0.9528371233
6700259800.0 0.2962720896 0.9489434932
6750259500.0 0.3087841154 0.944928328
6800259200.0 0.3224678608 0.9406528958
6850258900.0 0.3346488203 0.936053378
6900258600.0 0.3480990333 0.9312870748
6950258300.0 0.3619159592 0.9262798039
7000258000.0 0.3741592845 0.9216077057
7050257700.0 0.3851867058 0.9168336284
7100257400.0 0.3995897002 0.9111372121
7150257100.0 0.4116791332 0.9058978707
7200256800.0 0.4257402776 0.8999722831
7250256500.0 0.4378756319 0.8944175762
7300256200.0 0.4507273926 0.8881354458
7350255900.0 0.4632388017 0.8819438867
7400255600.0 0.4725296465 0.8769718027
7450255300.0 0.4845164845 0.8703886593
7500255000.0 0.4960830002 0.863988921
7550254700.0 0.5057651394 0.8582008956
7600254400.0 0.5167217434 0.852157093
7650254100.0 0.5274172232 0.8456987031
7700253800.0 0.5385709989 0.8385953087
7750253500.0 0.5494642334 0.8317702108
7800253200.0 0.5617333547 0.8232908779
7850252900.0 0.5706834504 0.8170386053
7900252600.0 0.5822595352 0.8089733798
7950252300.0 0.5931046501 0.8010689947
8000252000.0 0.6040520768 0.7924300893
8050251700.0 0.6152581197 0.7839148986
8100251400.0 0.6248919148 0.7762303158
8150251100.0 0.6362258852 0.7667345129
8200250800.0 0.6456972796 0.7584306571
8250250500.0 0.6568629594 0.7488432184
8300250200.0 0.6674660494 0.7392905691
8350249900.0 0.6769165155 0.7302623157
8400249600.0 0.6869823934 0.7207036207
8450249300.0 0.6976937048 0.7102203032
8500249000.0 0.7081331047 0.6999410593
8550248700.0 0.7190797816 0.6884685019
8600248400.0 0.7296216435 0.6774787619
8650248100.0 0.7377554791 0.6680785025
8700247800.0 0.7471398037 0.6578316033
8750247500.0 0.7565048431 0.6473684536
8800247200.0 0.7660981205 0.6362878622
8850246900.0 0.7747600782 0.6252672572
8900246600.0 0.7836234592 0.6142839351
8950246300.0 0.7922379348 0.6032116909
9000246000.0 0.7988462246 0.5942831785
9050245700.0 0.8056013647 0.5850690511
9100245400.0 0.813792527 0.5734628974
9150245100.0 0.8208398121 0.5630982966
9200244800.0 0.8257738854 0.5557654645
9250244500.0 0.8319408034 0.5464487843
9300244200.0 0.8371167233 0.5381828657
9350243900.0 0.8433441936 0.5284128659
9400243600.0 0.8502680111 0.5171268547
9450243300.0 0.8549686285 0.5092527041
9500243000.0 0.8613075406 0.4990822266
9550242700.0 0.8691465699 0.4866301441
9600242400.0 0.8770641257 0.4725477799
9650242100.0 0.8843612572 0.4582352843
9700241800.0 0.8920532378 0.4443723461
9750241500.0 0.8997170355 0.4280356163
9800241200.0 0.9080865816 0.4091848242
9850240900.0 0.9141413977 0.3942194406
9900240600.0 0.9182922883 0.384317016
9950240300.0 0.9232303554 0.3715194007
10000240000.0 0.9288707369 0.3575953134
10050239700.0 0.9332640766 0.3452490697
10100239400.0 0.9374080629 0.3341574003
10150239100.0 0.9413206425 0.3222380251
10200238800.0 0.94566951 0.3090536672
10250238500.0 0.9498374762 0.2962579709
10300238200.0 0.9540502191 0.2834902385
10350237900.0 0.9579146432 0.2708532319
10400237600.0 0.9618211563 0.2577055192
10450237300.0 0.9658169598 0.2438919065
10500237000.0 0.9698030804 0.2296202207
10550236700.0 0.9727382103 0.2164127005
10600236400.0 0.9760400198 0.2035113316
10650236100.0 0.979358062 0.1867979197
10700235800.0 0.9815804689 0.1728209595
10750235500.0 0.9845759185 0.1591797744
10800235200.0 0.9863746356 0.1455051246
10850234900.0 0.9881743065 0.1325750297
10900234600.0 0.9900662426 0.1189016986
10950234300.0 0.991187727 0.104391537
11000234000.0 0.9922054536 0.0908289271
11050233700.0 0.9927203341 0.0788588842
11100233400.0 0.9934874645 0.0658955581
11150233100.0 0.9942871319 0.0531814338
11200232800.0 0.9943839429 0.0409859878
11250232500.0 0.9938191372 0.0284529488
11300232200.0 0.9943636105 0.0167210643
11350231900.0 0.9941337524 0.0040350839
11400231600.0 0.9938525801 -0.0081084087
11450231300.0 0.9929785961 -0.0191215452
11500231000.0 0.9916741823 -0.0297126269
11550230700.0 0.9920622772 -0.0423363654
11600230400.0 0.9917887503 -0.0587887001
11650230100.0 0.9902810515 -0.0705691956
11700229800.0 0.9898244525 -0.0851117204
11750229500.0 0.9884271407 -0.0977668678
11800229200.0 0.9869411576 -0.1087525129
11850228900.0 0.9856105378 -0.1231327647
11900228600.0 0.9844167482 -0.1391391697
11950228300.0 0.9824705857 -0.1559527152
12000228000.0 0.9808591611 -0.1706261606
12050227700.0 0.978251783 -0.1865210732
12100227400.0 0.9758065869 -0.1986468582
12150227100.0 0.9724731119 -0.2172591914
12200226800.0 0.9695478365 -0.229630762
12250226500.0 0.9665007512 -0.2438138061
12300226200.0 0.963865997 -0.2568686827
12350225900.0 0.9588701469 -0.2743100157
12400225600.0 0.9546305843 -0.2886940105
12450225300.0 0.9509692797 -0.3014956496
12500225000.0 0.9459639471 -0.3163053267
12550224700.0 0.9404732033 -0.3313367935
12600224400.0 0.9367671492 -0.3424350485
12650224100.0 0.931639428 -0.3560587141
12700223800.0 0.9265835197 -0.3685183729
12750223500.0 0.9210734656 -0.3816654394
12800223200.0 0.9148838889 -0.3958178224
12850222900.0 0.9091716999 -0.4089358846
12900222600.0 0.9029785339 -0.422386504
12950222300.0 0.8960341546 -0.43585519
13000222000.0 0.8898696584 -0.4482211906
13050221700.0 0.8826971778 -0.4618030847
13100221400.0 0.8764245121 -0.4738104776
13150221100.0 0.869560606 -0.4866273087
13200220800.0 0.8623234489 -0.4990093295
13250220500.0 0.8553978681 -0.5108929058
13300220200.0 0.8482501651 -0.5230018791
13350219900.0 0.8398653162 -0.53700288
13400219600.0 0.8326559612 -0.5481503321
13450219300.0 0.8260217569 -0.5582281845
13500219000.0 0.8196082935 -0.5679726884
13550218700.0 0.8113357633 -0.578730068
13600218400.0 0.8037986022 -0.5889745782
13650218100.0 0.7975924435 -0.5980447019
13700217800.0 0.789885884 -0.6090512537
13750217500.0 0.781376316 -0.619666825
13800217200.0 0.7734857951 -0.630542636
13850216900.0 0.7643289599 -0.6417167639
13900216600.0 0.7565454391 -0.6505242382
13950216300.0 0.7472490201 -0.6618603803
14000216000.0 0.7371112402 -0.6730956611
14050215700.0 0.7278593075 -0.6829557876
14100215400.0 0.7161477744 -0.6960289562
14150215100.0 0.7040564542 -0.708295666
14200214800.0 0.692945691 -0.7192698449
14250214500.0 0.6805077504 -0.730670863
14300214200.0 0.6681665744 -0.7420335719
14350213900.0 0.6561965643 -0.7519845314
14400213600.0 0.6458638787 -0.7609205066
14450213300.0 0.6361119984 -0.7689258951
14500213000.0 0.6258456482 -0.7773178123
14550212700.0 0.6152222117 -0.7862188243
14600212400.0 0.6036702761 -0.7947057665
14650212100.0 0.5944115748 -0.8011852351
14700211800.0 0.5828257289 -0.8091498678
14750211500.0 0.5717929738 -0.8165749065
14800211200.0 0.5594828493 -0.8251631648
14850210900.0 0.548258325 -0.83242557
14900210600.0 0.5369706926 -0.8399075174
14950210300.0 0.5253547499 -0.8471551482
15000210000.0 0.5137946739 -0.8540189476
15050209700.0 0.5006161458 -0.8616133569
15100209400.0 0.487411625 -0.8696051258
15150209100.0 0.4760254656 -0.8764820556
15200208800.0 0.4631374775 -0.8837381085
15250208500.0 0.4497352944 -0.8905547316
15300208200.0 0.4338068287 -0.8987925472
15350207900.0 0.4210215383 -0.9052236799
15400207600.0 0.4085703293 -0.9114213245
15450207300.0 0.3957006565 -0.9166679363
15500207000.0 0.3838718366 -0.9224243882
15550206700.0 0.3712596593 -0.9279878876
15600206400.0 0.3586280504 -0.9330525298
15650206100.0 0.3450270172 -0.9382880801
15700205800.0 0.3313192626 -0.9434869191
15750205500.0 0.3166034757 -0.9485879117
15800205200.0 0.3025511694 -0.9532224602
15850204900.0 0.2886158335 -0.9577088285
15900204600.0 0.2722598442 -0.9626765592
15950204300.0 0.2575510025 -0.9667649272
16000204000.0 0.242053222 -0.9709341095
16050203700.0 0.2268506397 -0.9742681526
16100203400.0 0.212914934 -0.9777612638
16150203100.0 0.19714071 -0.980367959
16200202800.0 0.181031679 -0.983298864
16250202500.0 0.1666765755 -0.9857022927
16300202200.0 0.1513412656 -0.9878943259
16350201900.0 0.1358658427 -0.989803047
16400201600.0 0.1208035404 -0.9913295721
16450201300.0 0.1073750426 -0.9926436939
16500201000.0 0.0933971501 -0.9942595669
16550200700.0 0.0797779784 -0.9955065924
16600200400.0 0.0656137589 -0.9966176952
16650200100.0 0.0504564255 -0.9977568343
16700199800.0 0.0378001686 -0.9980118313
16750199500.0 0.0261495101 -0.9989334994
16800199200.0 0.01479489 -0.9995848556
16850198900.0 0.0015384709 -0.9991416853
16900198600.0 -0.0115675899 -0.9990602152
16950198300.0 -0.0257208877 -0.998791772
17000198000.0 -0.0405745456 -0.9980620337
17050197700.0 -0.0563730685 -0.9972763566
17100197400.0 -0.0729381136 -0.9965224933
17150197100.0 -0.0904621029 -0.9954340511
17200196800.0 -0.1057920698 -0.9939755113
17250196500.0 -0.1215159935 -0.9916912882
17300196200.0 -0.1388686644 -0.9891946547
17350195900.0 -0.1566151845 -0.9863498887
17400195600.0 -0.1736136283 -0.9834258938
17450195300.0 -0.1897534869 -0.9802463232
17500195000.0 -0.205858221 -0.9770882637
17550194700.0 -0.2216548522 -0.9737133145
17600194400.0 -0.2364952907 -0.9703728087
17650194100.0 -0.2526069448 -0.9664702262
17700193800.0 -0.2666766055 -0.962785167
17750193500.0 -0.2814329382 -0.9586848984
17800193200.0 -0.2954335765 -0.9542858062
17850192900.0 -0.3096823519 -0.9497551023
17900192600.0 -0.3227610042 -0.9453921519
17950192300.0 -0.3367326481 -0.9405666593
18000192000.0 -0.3505977997 -0.93529941
18050191700.0 -0.3642444763 -0.9299461651
18100191400.0 -0.3781465445 -0.9249299453
18150191100.0 -0.3906539021 -0.9199020341
18200190800.0 -0.402023661 -0.9148069979
18250190500.0 -0.4135728597 -0.9099992992
18300190200.0 -0.4255448838 -0.9047605355
18350189900.0 -0.4372894583 -0.9001716485
18400189600.0 -0.4490140541 -0.8942006769
18450189300.0 -0.4604248553 -0.8886892654
18500189000.0 -0.4713473915 -0.8825619599
18550188700.0 -0.4826994944 -0.8764910189
18600188400.0 -0.4956531139 -0.8688465434
18650188100.0 -0.5079768134 -0.8608692188
18700187800.0 -0.5206331521 -0.8526175981
18750187500.0 -0.5329453948 -0.8443319433
18800187200.0 -0.5456084241 -0.8350914862
18850186900.0 -0.5584928883 -0.8257688124
18900186600.0 -0.570146546 -0.8167223537
18950186300.0 -0.5832021424 -0.8068734898
19000186000.0 -0.5971019572 -0.7965291583
19050185700.0 -0.6117923489 -0.7863090263
19100185400.0 -0.6248011758 -0.7763013914
19150185100.0 -0.6382794241 -0.7658397831
19200184800.0 -0.6504595755 -0.7550376744
19250184500.0 -0.6629179102 -0.743321198
19300184200.0 -0.6752217236 -0.7333463158
19350183900.0 -0.6870077897 -0.7221741214
19400183600.0 -0.6995393814 -0.7107801895
19450183300.0 -0.7124015676 -0.6986790921
19500183000.0 -0.7242442062 -0.6870471755
19550182700.0 -0.7365024289 -0.6738630523
19600182400.0 -0.7467920338 -0.6618128451
19650182100.0 -0.7574083754 -0.6497889831
19700181800.0 -0.7666937278 -0.6378662845
19750181500.0 -0.7755976749 -0.6260510589
19800181200.0 -0.7841935721 -0.6145517653
19850180900.0 -0.7927465991 -0.6033394747
19900180600.0 -0.7998972257 -0.5935857104
19950180300.0 -0.8091125125 -0.5821324385
20000180000.0 -0.8235370373 -0.5651362543
20050179700.0 -0.8310679783 -0.5543798562
20100179400.0 -0.8407690106 -0.5419972895
20150179100.0 -0.8482187032 -0.5294966793
20200178800.0 -0.854991803 -0.5178504363
20250178500.0 -0.8605286885 -0.5064285573
20300178200.0 -0.8663691931 -0.494583398
20350177900.0 -0.8714472475 -0.4833496891
20400177600.0 -0.8760624504 -0.4723926787
20450177300.0 -0.880515431 -0.4616674542
20500177000.0 -0.8851398043 -0.4501001514
20550176700.0 -0.8897163106 -0.4387029632
20600176400.0 -0.8941216045 -0.4260592464
20650176100.0 -0.8986878124 -0.4135767601
20700175800.0 -0.9044880206 -0.3998144981
20750175500.0 -0.9097049932 -0.386637475
20800175200.0 -0.9145153106 -0.3730506024
20850174900.0 -0.918813297 -0.3593782583
20900174600.0 -0.9238182114 -0.3442288489
20950174300.0 -0.9287342672 -0.3298691014
21000174000.0 -0.9325634578 -0.3147112337
21050173700.0 -0.9357206022 -0.2991830571
21100173400.0 -0.9413258606 -0.2839505167
21150173100.0 -0.9454174254 -0.2681565068
21200172800.0 -0.9490671586 -0.2517462368
21250172500.0 -0.9522634131 -0.2363465725
21300172200.0 -0.9562826356 -0.2216917592
21350171900.0 -0.9600709765 -0.2067352393
21400171600.0 -0.9642220455 -0.1916471104
21450171300.0 -0.967106975 -0.1768816303
21500171000.0 -0.9702809322 -0.1616633383
21550170700.0 -0.9745023117 -0.1484673283
21600170400.0 -0.9781080371 -0.1345919641
21650170100.0 -0.9832876484 -0.1206811771
21700169800.0 -0.9856105409 -0.1072937478
21750169500.0 -0.9894836845 -0.0914442064
21800169200.0 -0.9943990895 -0.0777795267
21850168900.0 -0.996619888 -0.0650626357
21900168600.0 -0.9989460352 -0.05351109
21950168300.0 -1.002836471 -0.0398461241
22000168000.0 -1.004499499 -0.026621203
22050167700.0 -1.006674659 -0.0123750499
22100167400.0 -1.007630199 0.0034446743
22150167100.0 -1.007621265 0.0177359954
22200166800.0 -1.006482958 0.0307341262
22250166500.0 -1.005040669 0.0438790156
22300166200.0 -1.004377649 0.054909249
22350165900.0 -1.003799288 0.0670463415
22400165600.0 -1.003222624 0.0783633382
22450165300.0 -1.003114507 0.091237005
22500165000.0 -1.000205866 0.103590938
22550164700.0 -0.9989212848 0.1172824484
22600164400.0 -0.9971780658 0.1301493984
22650164100.0 -0.9938417339 0.1395909162
22700163800.0 -0.9920422956 0.1508299505
22750163500.0 -0.9887619681 0.1640102922
22800163200.0 -0.985157641 0.1756400888
22850162900.0 -0.9823679425 0.1885997311
22900162600.0 -0.9780360495 0.2013641795
22950162300.0 -0.9727526135 0.2157064398
23000162000.0 -0.9668482539 0.2301065801
23050161700.0 -0.9605472013 0.245006086
23100161400.0 -0.9540561629 0.2599218118
23150161100.0 -0.9478805024 0.2735020842
23200160800.0 -0.9422753127 0.2894577342
23250160500.0 -0.935710395 0.3046663523
23300160200.0 -0.928692447 0.3199777434
23350159900.0 -0.9225212593 0.3355613857
23400159600.0 -0.9161710462 0.3490552173
23450159300.0 -0.9106429804 0.3613995433
23500159000.0 -0.9043274025 0.3742341714
23550158700.0 -0.8975737183 0.3885670723
23600158400.0 -0.8904771298 0.4008235309
23650158100.0 -0.8840262485 0.4128431049
23700157800.0 -0.8776098228 0.4243849416
23750157500.0 -0.8717404334 0.4359449017
23800157200.0 -0.8668053873 0.4467939312
23850156900.0 -0.8624702751 0.4576518651
23900156600.0 -0.8574117481 0.4686560746
23950156300.0 -0.8527609673 0.4800119861
24000156000.0 -0.8475787558 0.4909797018
24050155700.0 -0.8418349866 0.501135154
24100155400.0 -0.8379538844 0.5115883506
24150155100.0 -0.8329019251 0.52187281
24200154800.0 -0.8281087002 0.5324227799
24250154500.0 -0.823796831 0.5421557098
24300154200.0 -0.8194349456 0.5520701124
24350153900.0 -0.8147372129 0.5619257028
24400153600.0 -0.8090310289 0.5725215629
24450153300.0 -0.8036740271 0.5829677689
24500153000.0 -0.7980199566 0.5925995324
24550152700.0 -0.7916817031 0.6034364557
24600152400.0 -0.7850289378 0.61325959
24650152100.0 -0.7775596561 0.623867103
