!Created with skrf (http://scikit-rf.org).
# Hz S RI R 50.0 
!freq ReS11 ImS11
300000.0 -0.9809071101 -0.1032874204
50299700.0 -0.9999039658 0.0162835273
100299400.0 -0.998067488 0.0289982694
150299100.0 -1.002673491 0.0458699373
200298800.0 -0.999519567 0.0593183295
250298500.0 -0.9975169977 0.0727095531
300298200.0 -0.985987725 0.0885747685
350297900.0 -0.9938761208 0.0996056928
400297600.0 -0.9931052364 0.1161130182
450297300.0 -0.9909248181 0.1299617081
500297000.0 -0.9893777313 0.1447006421
550296700.0 -0.9842014392 0.1572102605
600296400.0 -1.017194821 0.1904603504
650296100.0 -0.9821027486 0.1870531051
700295800.0 -0.9789340137 0.2015142749
750295500.0 -0.9761936072 0.2155367247
800295200.0 -0.972747457 0.2293990349
850294900.0 -0.9694134228 0.2434664784
900294600.0 -0.9655743472 0.2570189672
950294300.0 -0.9616482011 0.270658023
1000294000.0 -0.9578607851 0.2849145928
1050293700.0 -0.9534709762 0.2984786773
1100293400.0 -0.9492780287 0.313036882
1150293100.0 -0.9451591624 0.3248715221
1200292800.0 -0.9397331855 0.3393013707
1250292500.0 -0.9342505825 0.3528201022
1300292200.0 -0.9285629466 0.3659119576
1350291900.0 -0.9230293064 0.3798871516
1400291600.0 -0.9174933624 0.3931329879
1450291300.0 -0.9121803813 0.4051694066
1500291000.0 -0.9058626538 0.4184588887
1550290700.0 -0.8993520664 0.4318823309
1600290400.0 -0.893016317 0.4447905036
1650290100.0 -0.8866182422 0.456857845
1700289800.0 -0.8795356427 0.4704787369
1750289500.0 -0.8724177218 0.4827269507
1800289200.0 -0.8652255828 0.4956700611
1850288900.0 -0.8585854505 0.5068701053
1900288600.0 -0.8505267669 0.5198983049
1950288300.0 -0.8425285625 0.532255204
2000288000.0 -0.8351046185 0.5437836387
2050287700.0 -0.8268181379 0.5559811125
2100287400.0 -0.8187808097 0.5679196745
2150287100.0 -0.8102384242 0.5799097979
2200286800.0 -0.8023923271 0.5900970906
2250286500.0 -0.793612729 0.6023072874
2300286200.0 -0.7845331101 0.614021843
2350285900.0 -0.775715129 0.6248790791
2400285600.0 -0.7666203581 0.6361205275
2450285300.0 -0.7581707991 0.6462650294
2500285000.0 -0.7485258994 0.6575762606
2550284700.0 -0.7394381334 0.6677968604
2600284400.0 -0.7299049602 0.6783437293
2650284100.0 -0.7211050754 0.6885891488
2700283800.0 -0.7103100033 0.6991511692
2750283500.0 -0.7002227303 0.7097068335
2800283200.0 -0.6901376926 0.7193090325
2850282900.0 -0.6801573733 0.7293241617
2900282600.0 -0.6696532044 0.738681564
2950282300.0 -0.6598185744 0.7479371427
3000282000.0 -0.6487760722 0.7573461814
3050281700.0 -0.6377037421 0.7666865085
3100281400.0 -0.6257479021 0.7760657487
3150281100.0 -0.6139399123 0.7854623406
3200280800.0 -0.6021652656 0.7940331269
3250280500.0 -0.5916087013 0.8015456994
3300280200.0 -0.5802628045 0.809363617
3350279900.0 -0.56889861 0.8169763956
3400279600.0 -0.5570265502 0.8246261828
3450279300.0 -0.545707361 0.8317234147
3500279000.0 -0.5335993263 0.8390839878
3550278700.0 -0.5214192135 0.846248805
3600278400.0 -0.5088754069 0.8533720195
3650278100.0 -0.4957561237 0.8609681164
3700277800.0 -0.4837079741 0.8676251091
3750277500.0 -0.4716449722 0.873948311
3800277200.0 -0.4589766757 0.8804627409
3850276900.0 -0.4466733831 0.886635347
3900276600.0 -0.4358172743 0.8919549616
3950276300.0 -0.423070877 0.8981940207
4000276000.0 -0.4109707227 0.9040216937
4050275700.0 -0.3979782621 0.9100895501
4100275400.0 -0.3867871566 0.9153482586
4150275100.0 -0.3741800823 0.9212549886
4200274800.0 -0.3612304889 0.9266472661
4250274500.0 -0.3490632628 0.9318737321
4300274200.0 -0.3359320005 0.9371776461
4350273900.0 -0.3222010122 0.9424046559
4400273600.0 -0.3073812062 0.9474468796
4450273300.0 -0.2918926808 0.952756021
4500273000.0 -0.2783101882 0.956884832
4550272700.0 -0.2641803917 0.9612504925
4600272400.0 -0.2485585623 0.9653161549
4650272100.0 -0.2368447375 0.9686482994
4700271800.0 -0.2236391111 0.9719296746
4750271500.0 -0.2119319306 0.974800537
4800271200.0 -0.1993985938 0.9774277984
4850270900.0 -0.1855583678 0.9801314405
4900270600.0 -0.1717374181 0.9826867935
4950270300.0 -0.1573794283 0.9852963838
5000270000.0 -0.1431933652 0.9871568944
5050269700.0 -0.129693895 0.9889666193
5100269400.0 -0.1164570786 0.9907642036
5150269100.0 -0.1031485199 0.9922636462
5200268800.0 -0.0896890073 0.9933874882
5250268500.0 -0.0767632955 0.9940422906
5300268200.0 -0.0637393745 0.9948634252
5350267900.0 -0.051624973 0.9953389976
5400267600.0 -0.0353351906 0.9963137315
5450267300.0 -0.0224180147 0.9968266801
5500267000.0 -0.0070907405 0.9970411753
5550266700.0 0.007811105 0.9972797906
5600266400.0 0.0232814498 0.9974491509
5650266100.0 0.0397849152 0.9969407915
5700265800.0 0.0543677081 0.9960874351
5750265500.0 0.0694312957 0.9954566928
5800265200.0 0.083516055 0.9941045542
5850264900.0 0.096775281 0.9930284839
5900264600.0 0.1136746192 0.9915390987
5950264300.0 0.1254605921 0.9898819589
6000264000.0 0.1400346232 0.9882722697
6050263700.0 0.1520564253 0.9865170222
6100263400.0 0.164821171 0.9846872178
6150263100.0 0.1794128945 0.9821180372
6200262800.0 0.1899296699 0.9802462188
6250262500.0 0.2026576749 0.9777956661
6300262200.0 0.2154992543 0.975205079
6350261900.0 0.2285693711 0.9721027981
6400261600.0 0.2424046172 0.9687245157
6450261300.0 0.2537886217 0.9660394275
6500261000.0 0.266478585 0.9626870794
6550260700.0 0.279382976 0.9584872809
6600260400.0 0.2929332384 0.9547529306
6650260100.0 0.3068730918 0.9505719509
6700259800.0 0.3185677891 0.9459674093
6750259500.0 0.3325696818 0.9408787989
6800259200.0 0.3458536995 0.9362137674
6850258900.0 0.3574610276 0.9310479922
6900258600.0 0.3694099086 0.9260378613
6950258300.0 0.3824103432 0.9209577476
7000258000.0 0.3942438211 0.9151064396
7050257700.0 0.4063995204 0.909393313
7100257400.0 0.4189922289 0.9029822325
7150257100.0 0.4294115766 0.8977122396
7200256800.0 0.4420603778 0.8914013165
7250256500.0 0.4539971725 0.8852293939
7300256200.0 0.467098317 0.8783490509
7350255900.0 0.4797091301 0.871412353
7400255600.0 0.4922625702 0.863941322
7450255300.0 0.5075475153 0.855306763
7500255000.0 0.5197680604 0.8484542052
7550254700.0 0.5330471701 0.8397880587
7600254400.0 0.5455877735 0.8312246201
7650254100.0 0.5570729959 0.8236938483
7700253800.0 0.5693169442 0.8154232682
7750253500.0 0.5806759386 0.8076920419
7800253200.0 0.5911178785 0.8000003109
7850252900.0 0.6010042498 0.7927512145
7900252600.0 0.6125102711 0.7839924007
7950252300.0 0.6214515975 0.777323403
8000252000.0 0.6316794261 0.7693852782
8050251700.0 0.6423740667 0.7612617091
8100251400.0 0.6522365082 0.7529164019
8150251100.0 0.6623843143 0.7442627837
8200250800.0 0.6717890977 0.7363138723
8250250500.0 0.6808558253 0.728138132
8300250200.0 0.6902610817 0.7197561342
8350249900.0 0.6992607615 0.7110567843
8400249600.0 0.7075648512 0.7031709887
8450249300.0 0.7165609329 0.6937511245
8500249000.0 0.7250334585 0.6849555414
8550248700.0 0.7334085133 0.6759128768
8600248400.0 0.7419123836 0.6664530625
8650248100.0 0.7497036395 0.6570912011
8700247800.0 0.7592165124 0.6459103683
8750247500.0 0.7673347868 0.6358017915
8800247200.0 0.7753834279 0.6254624092
8850246900.0 0.7842235356 0.6141006865
8900246600.0 0.7927133769 0.6027794347
8950246300.0 0.8021152244 0.5898455061
9000246000.0 0.8116292243 0.5771258096
9050245700.0 0.8208060352 0.564008103
9100245400.0 0.829125514 0.5517209378
9150245100.0 0.8383608645 0.5380183365
9200244800.0 0.8482362936 0.5228567253
9250244500.0 0.8578294928 0.5072372417
9300244200.0 0.8662558946 0.4925301334
9350243900.0 0.8739356042 0.4784732821
9400243600.0 0.8804772456 0.4660466084
9450243300.0 0.8865033811 0.4541125394
9500243000.0 0.8928814857 0.4417147777
9550242700.0 0.89658718 0.4338884057
9600242400.0 0.900509872 0.4261815476
9650242100.0 0.9041557917 0.4197064845
9700241800.0 0.908938919 0.4112422309
9750241500.0 0.9123341086 0.4039538756
9800241200.0 0.9172806175 0.3944993525
9850240900.0 0.9228621448 0.3827129427
9900240600.0 0.9284673335 0.3714785683
9950240300.0 0.9350254354 0.3552682708
10000240000.0 0.9397065257 0.3436030147
10050239700.0 0.9450527337 0.32863883
10100239400.0 0.9503982073 0.3129543425
10150239100.0 0.9546000456 0.2986329935
10200238800.0 0.958561274 0.2836630238
10250238500.0 0.9617787021 0.270323042
10300238200.0 0.9649183242 0.2566014141
10350237900.0 0.967550983 0.2434664318
10400237600.0 0.9703574652 0.2299322023
10450237300.0 0.9727153124 0.2168961508
10500237000.0 0.9748755449 0.2042421313
10550236700.0 0.977101615 0.1910037389
10600236400.0 0.979100367 0.1775772092
10650236100.0 0.9815130231 0.1626842992
10700235800.0 0.9836188833 0.1506935358
10750235500.0 0.9861149157 0.1373118468
10800235200.0 0.9877591698 0.1234411091
10850234900.0 0.9899639505 0.1085910594
10900234600.0 0.9916425518 0.0942093068
10950234300.0 0.9934258751 0.080915307
11000234000.0 0.9952192404 0.0658681036
11050233700.0 0.996955572 0.0496924155
11100233400.0 0.9983858679 0.0324092793
11150233100.0 0.9993561294 0.0160780242
11200232800.0 1.000014302 0.0009830191
11250232500.0 1.000717922 -0.0153191092
11300232200.0 1.00141449 -0.03326522
11350231900.0 1.001478967 -0.0491853825
11400231600.0 1.000795728 -0.0651148845
11450231300.0 1.000736101 -0.0817776992
11500231000.0 0.9994752139 -0.0972949574
11550230700.0 0.9977361565 -0.110242294
11600230400.0 0.9962876957 -0.123911422
11650230100.0 0.9947272884 -0.1344339266
11700229800.0 0.9921062896 -0.1495831845
11750229500.0 0.9900851998 -0.164476084
11800229200.0 0.9874260205 -0.1781121453
11850228900.0 0.9836534473 -0.1903477564
11900228600.0 0.9802512013 -0.2003950924
11950228300.0 0.9769459096 -0.2102492246
12000228000.0 0.9745616088 -0.2196592557
12050227700.0 0.9701887438 -0.2333228804
12100227400.0 0.9677096185 -0.2437760506
12150227100.0 0.9632748765 -0.2601644533
12200226800.0 0.9589220372 -0.2714298565
12250226500.0 0.9548333336 -0.2839249184
12300226200.0 0.9503779362 -0.2966336563
12350225900.0 0.9462035706 -0.3095016993
12400225600.0 0.9421199602 -0.322292011
12450225300.0 0.9371307491 -0.3347576662
12500225000.0 0.931657223 -0.3496241676
12550224700.0 0.9263359461 -0.3632559905
12600224400.0 0.9216704751 -0.3763819059
12650224100.0 0.915922655 -0.3905018351
12700223800.0 0.9107585777 -0.4029749921
12750223500.0 0.9051659217 -0.41602901
12800223200.0 0.8998894899 -0.4284850527
12850222900.0 0.8944111415 -0.440317647
12900222600.0 0.8889282498 -0.4523070719
12950222300.0 0.8827393439 -0.4652788751
13000222000.0 0.8766287352 -0.477038795
13050221700.0 0.8694056229 -0.4897562861
13100221400.0 0.8629271068 -0.5015100362
13150221100.0 0.8557357456 -0.514275339
13200220800.0 0.848772765 -0.5255968339
13250220500.0 0.8415282512 -0.537833855
13300220200.0 0.8340017173 -0.5492256499
13350219900.0 0.8257697879 -0.5612687399
13400219600.0 0.8175637448 -0.5733859017
13450219300.0 0.8077676636 -0.5871456305
13500219000.0 0.7975951681 -0.6011424502
13550218700.0 0.7873184319 -0.6140337097
13600218400.0 0.7773106652 -0.6259095488
13650218100.0 0.7671128492 -0.6369623931
13700217800.0 0.7559262375 -0.6492766434
13750217500.0 0.7465949794 -0.6604899543
13800217200.0 0.7348496341 -0.6725805403
13850216900.0 0.7242711703 -0.6836325512
13900216600.0 0.7137758684 -0.6933506055
13950216300.0 0.703150661 -0.7036345317
14000216000.0 0.6930977091 -0.7129700734
14050215700.0 0.683772905 -0.7210591338
14100215400.0 0.6739164738 -0.7296902333
14150215100.0 0.6649136004 -0.7384030335
14200214800.0 0.6554921025 -0.7466483217
14250214500.0 0.6453365316 -0.7558549086
14300214200.0 0.6351470855 -0.7651106902
14350213900.0 0.6241797007 -0.7744518688
14400213600.0 0.6122192091 -0.7840540492
14450213300.0 0.5994280752 -0.7945689045
14500213000.0 0.5863342972 -0.8038227781
14550212700.0 0.5736793224 -0.8133483496
14600212400.0 0.5614253068 -0.82221537
14650212100.0 0.5482115431 -0.83081641
14700211800.0 0.5347226861 -0.8406162325
14750211500.0 0.5220534015 -0.848582115
14800211200.0 0.5102492253 -0.8566095735
14850210900.0 0.4979150806 -0.8638905503
14900210600.0 0.4846816453 -0.8719893612
14950210300.0 0.4708896202 -0.8795514302
15000210000.0 0.4580629235 -0.88635038
15050209700.0 0.4457239998 -0.8925879187
15100209400.0 0.4326925959 -0.8988128606
15150209100.0 0.4196790808 -0.904088936
15200208800.0 0.4068756074 -0.9102188955
15250208500.0 0.395523349 -0.9137057061
15300208200.0 0.3831954084 -0.9186755745
15350207900.0 0.3702096033 -0.9236636189
15400207600.0 0.3555916755 -0.9287386209
15450207300.0 0.341005929 -0.9337371345
15500207000.0 0.3256806312 -0.9387554956
15550206700.0 0.3109639769 -0.9435315433
15600206400.0 0.2944998909 -0.9482535728
15650206100.0 0.2793030239 -0.9523640438
15700205800.0 0.2654891767 -0.9557109123
15750205500.0 0.2509730516 -0.9595402295
15800205200.0 0.2366649172 -0.9628665473
15850204900.0 0.2223666764 -0.9663319529
15900204600.0 0.2074155274 -0.9699318178
15950204300.0 0.193506423 -0.9728382335
16000204000.0 0.179379914 -0.9753981756
16050203700.0 0.1646213374 -0.978480161
16100203400.0 0.1502033868 -0.9803742646
16150203100.0 0.1363301803 -0.982914115
16200202800.0 0.1219942718 -0.9849275185
16250202500.0 0.1077065037 -0.9863060635
16300202200.0 0.0922328901 -0.9880447954
16350201900.0 0.0777224526 -0.989335236
16400201600.0 0.0630960851 -0.9904969026
16450201300.0 0.0480120122 -0.9911981052
16500201000.0 0.0313557563 -0.9920589218
16550200700.0 0.0156659564 -0.992602966
16600200400.0 6.26e-07 -0.9926746327
16650200100.0 -0.0164743223 -0.9927034018
16700199800.0 -0.032955596 -0.9919792227
16750199500.0 -0.0515471555 -0.9916577068
16800199200.0 -0.0677450142 -0.9904453342
16850198900.0 -0.0831680978 -0.989241244
16900198600.0 -0.0965805038 -0.9884564132
16950198300.0 -0.1100330707 -0.9868152258
17000198000.0 -0.1233372948 -0.9861553193
17050197700.0 -0.1363211573 -0.983445238
17100197400.0 -0.1489829287 -0.981905261
17150197100.0 -0.1617678434 -0.9798974051
17200196800.0 -0.1744909645 -0.9775504175
17250196500.0 -0.1876019206 -0.9750198597
17300196200.0 -0.1998633241 -0.9727231448
17350195900.0 -0.2117852407 -0.9704896419
17400195600.0 -0.2239018768 -0.9680030606
17450195300.0 -0.2370097974 -0.9651531547
17500195000.0 -0.2506894989 -0.961856095
17550194700.0 -0.2643572795 -0.9583070557
17600194400.0 -0.2785646369 -0.9544210258
17650194100.0 -0.2920274919 -0.9496355623
17700193800.0 -0.3047681414 -0.9460491633
17750193500.0 -0.3196131095 -0.9414212711
17800193200.0 -0.3334646794 -0.9362424998
17850192900.0 -0.348405131 -0.9306036535
17900192600.0 -0.363442432 -0.9247534567
17950192300.0 -0.3791209715 -0.9174987201
18000192000.0 -0.3935264282 -0.9102754944
18050191700.0 -0.4071838302 -0.902497042
18100191400.0 -0.4213925027 -0.8948385097
18150191100.0 -0.4363624784 -0.8867133901
18200190800.0 -0.4532014822 -0.8775261206
18250190500.0 -0.4697277137 -0.8683590108
18300190200.0 -0.4852840484 -0.8592690537
18350189900.0 -0.5002247747 -0.8510223338
18400189600.0 -0.5145729826 -0.8427283696
18450189300.0 -0.5281142475 -0.8348249706
18500189000.0 -0.5415689115 -0.82605775
18550188700.0 -0.5540730313 -0.8184141011
18600188400.0 -0.5656037351 -0.8116193745
18650188100.0 -0.5771611101 -0.8057616711
18700187800.0 -0.5879661643 -0.7986535528
18750187500.0 -0.598816521 -0.7919069185
18800187200.0 -0.6094008429 -0.7847708254
18850186900.0 -0.6197728303 -0.7774718388
18900186600.0 -0.630435138 -0.76999179
18950186300.0 -0.6406602666 -0.7620451146
19000186000.0 -0.6477238934 -0.7556832172
19050185700.0 -0.6574003856 -0.7482132999
19100185400.0 -0.6672769679 -0.7398989362
19150185100.0 -0.677594137 -0.7313015668
19200184800.0 -0.6872239121 -0.7230399977
19250184500.0 -0.6970103551 -0.7139444037
19300184200.0 -0.7088887363 -0.7043461197
19350183900.0 -0.7191420605 -0.6944512123
19400183600.0 -0.7293688665 -0.6846947949
19450183300.0 -0.7379397473 -0.674228035
19500183000.0 -0.7469000559 -0.6644555679
19550182700.0 -0.7554963398 -0.653716086
19600182400.0 -0.7662068781 -0.6421487159
19650182100.0 -0.7771034927 -0.6299903465
19700181800.0 -0.787396764 -0.6168841993
19750181500.0 -0.797508703 -0.6029199202
19800181200.0 -0.807628237 -0.5881261828
19850180900.0 -0.8172785123 -0.5727727724
19900180600.0 -0.8249341963 -0.5585429762
19950180300.0 -0.8342019045 -0.5423174318
20000180000.0 -0.8278489455 -0.5442539854
20050179700.0 -0.8353237137 -0.5313103926
20100179400.0 -0.8435334805 -0.5169854432
20150179100.0 -0.8518425447 -0.5046138117
20200178800.0 -0.8604780291 -0.4925254663
20250178500.0 -0.8705867098 -0.479190566
20300178200.0 -0.879103866 -0.4643624785
20350177900.0 -0.8882232139 -0.4502085039
20400177600.0 -0.8976249208 -0.4352714178
20450177300.0 -0.9051124291 -0.4210486166
20500177000.0 -0.9133612202 -0.4068424693
20550176700.0 -0.9211729485 -0.3930737266
20600176400.0 -0.9285153391 -0.3799197009
20650176100.0 -0.934643554 -0.3675273223
20700175800.0 -0.9409593612 -0.3551831047
20750175500.0 -0.9478116088 -0.3436115114
20800175200.0 -0.9530356441 -0.3325109571
20850174900.0 -0.9577435465 -0.3203868618
20900174600.0 -0.9623445266 -0.3102131389
20950174300.0 -0.9671829581 -0.2978473156
21000174000.0 -0.970422071 -0.2863192862
21050173700.0 -0.9731681523 -0.2754990048
21100173400.0 -0.977735752 -0.2634153972
21150173100.0 -0.981209163 -0.2504818348
21200172800.0 -0.9849664965 -0.2367379705
21250172500.0 -0.9881476216 -0.2227255648
21300172200.0 -0.9906984993 -0.208801295
21350171900.0 -0.9920988074 -0.1943445761
21400171600.0 -0.9937496501 -0.1801807846
21450171300.0 -0.994271288 -0.1655473951
21500171000.0 -0.9936144703 -0.1499047862
21550170700.0 -0.993622711 -0.1342358773
21600170400.0 -0.993702246 -0.119206999
21650170100.0 -0.9927363771 -0.103300693
21700169800.0 -0.990893533 -0.087563205
21750169500.0 -0.9896460246 -0.07277627
21800169200.0 -0.9881434096 -0.0567782025
21850168900.0 -0.9869147152 -0.0399779951
21900168600.0 -0.9858253911 -0.0237939702
21950168300.0 -0.9841964046 -0.0083333893
22000168000.0 -0.9826209707 0.0062927703
22050167700.0 -0.9822038408 0.0212635168
22100167400.0 -0.9826607461 0.0358005647
22150167100.0 -0.9827946838 0.0514004281
22200166800.0 -0.9831146739 0.067257626
22250166500.0 -0.9824131564 0.0848629142
22300166200.0 -0.9818121198 0.1005851557
22350165900.0 -0.9798650872 0.1176600379
22400165600.0 -0.9795032814 0.133250786
22450165300.0 -0.9767630129 0.1481414001
22500165000.0 -0.9741420971 0.161452935
22550164700.0 -0.9745059773 0.1768297207
22600164400.0 -0.9720132198 0.1928903086
22650164100.0 -0.9697630394 0.2072298488
22700163800.0 -0.9674576774 0.2234200077
22750163500.0 -0.964792598 0.2383207065
22800163200.0 -0.9622480245 0.2518395038
22850162900.0 -0.9593395189 0.2650929233
22900162600.0 -0.9584384457 0.2787987888
22950162300.0 -0.9571653257 0.2917333032
23000162000.0 -0.956288152 0.3034693101
23050161700.0 -0.9538996573 0.3158869074
23100161400.0 -0.9515308183 0.3286992232
23150161100.0 -0.9487530648 0.3413478161
23200160800.0 -0.9467896709 0.3531516087
23250160500.0 -0.9428041548 0.3643961331
23300160200.0 -0.9413745328 0.37658788
23350159900.0 -0.9365390255 0.3897584395
23400159600.0 -0.9315496419 0.4030720162
23450159300.0 -0.9272385444 0.4158179154
23500159000.0 -0.9225212074 0.4286227149
23550158700.0 -0.9186374592 0.4418725254
23600158400.0 -0.912902511 0.4550704183
23650158100.0 -0.9068014206 0.4689009667
23700157800.0 -0.8992623939 0.4825403079
23750157500.0 -0.8906233145 0.496642562
23800157200.0 -0.8819524199 0.5093715025
23850156900.0 -0.8735991543 0.5224699937
23900156600.0 -0.8640617511 0.5349733308
23950156300.0 -0.8546167075 0.5467382049
24000156000.0 -0.8453641714 0.5584262013
24050155700.0 -0.8351655277 0.5708949078
24100155400.0 -0.8255759067 0.5830536222
24150155100.0 -0.8150029793 0.5943101531
24200154800.0 -0.8041401027 0.6054816678
24250154500.0 -0.7927649291 0.6171714647
24300154200.0 -0.781172682 0.6290267342
24350153900.0 -0.769257338 0.63976448
24400153600.0 -0.7570539006 0.6496344235
24450153300.0 -0.7450097716 0.6600436866
24500153000.0 -0.7336884311 0.6695640711
24550152700.0 -0.7222014124 0.6793598395
24600152400.0 -0.7105678323 0.6887444384
24650152100.0 -0.6991862997 0.696633199
24700151800.0 -0.6885559257 0.7050064307
