!Created with skrf (http://scikit-rf.org).
# Hz S RI R 50.0 
!freq ReS11 ImS11
300000.0 -0.9749716667 -0.1203403697
50299700.0 -0.9999097883 0.0151792003
100299400.0 -0.9978561211 0.0280124811
150299100.0 -1.00280788 0.0449295075
200298800.0 -0.9995894605 0.0583327946
250298500.0 -0.9973424963 0.0715915523
300298200.0 -0.9860147171 0.0875059787
350297900.0 -0.9938699116 0.0983734004
400297600.0 -0.993153382 0.1150002171
450297300.0 -0.9908259277 0.1288701087
500297000.0 -0.9896547121 0.1437017218
550296700.0 -0.9841816407 0.1558457746
600296400.0 -1.01726664 0.1892536959
650296100.0 -0.9819891583 0.1858407433
700295800.0 -0.9795276501 0.2003747907
750295500.0 -0.9761677579 0.2140927668
800295200.0 -0.9728492979 0.228260415
850294900.0 -0.9695447798 0.2419516234
900294600.0 -0.9657618018 0.2558982881
950294300.0 -0.9622568674 0.2695381182
1000294000.0 -0.9581790025 0.2835560658
1050293700.0 -0.9536248378 0.2971428395
1100293400.0 -0.9492650638 0.3117418884
1150293100.0 -0.9453636169 0.3234569956
1200292800.0 -0.9402562232 0.3378353843
1250292500.0 -0.9345974996 0.3513884076
1300292200.0 -0.929044831 0.364515375
1350291900.0 -0.9233295798 0.3787226801
1400291600.0 -0.917883571 0.3916664031
1450291300.0 -0.9124098934 0.4041462383
1500291000.0 -0.9062236584 0.4175572564
1550290700.0 -0.899863211 0.4308940585
1600290400.0 -0.8934062221 0.4438191814
1650290100.0 -0.8866820706 0.4559968709
1700289800.0 -0.879963386 0.4692892348
1750289500.0 -0.8728114483 0.481599429
1800289200.0 -0.8654351165 0.4945949882
1850288900.0 -0.8587461209 0.5060247461
1900288600.0 -0.8511238748 0.5188390269
1950288300.0 -0.8428844384 0.5314955777
2000288000.0 -0.8352568806 0.5429939859
2050287700.0 -0.8271571061 0.555156172
2100287400.0 -0.8193244669 0.5667834914
2150287100.0 -0.8109028118 0.5786978344
2200286800.0 -0.8029568834 0.5891603879
2250286500.0 -0.7941327812 0.6011918728
2300286200.0 -0.785299814 0.6129605021
2350285900.0 -0.7766454677 0.6234504748
2400285600.0 -0.7677882197 0.6345814536
2450285300.0 -0.7589874433 0.6451151281
2500285000.0 -0.7490838849 0.6566836492
2550284700.0 -0.7401638373 0.6670697767
2600284400.0 -0.7310872501 0.6769904941
2650284100.0 -0.7223284098 0.6872985697
2700283800.0 -0.7115466918 0.6976628723
2750283500.0 -0.7012545475 0.7085538418
2800283200.0 -0.691682499 0.7180767747
2850282900.0 -0.6810808027 0.7283816738
2900282600.0 -0.6707338494 0.7375959174
2950282300.0 -0.6603632612 0.747420892
3000282000.0 -0.64954877 0.7564814339
3050281700.0 -0.6384482927 0.7659631337
3100281400.0 -0.626792158 0.7751660739
3150281100.0 -0.6153244504 0.7841658169
3200280800.0 -0.6038353859 0.7926217531
3250280500.0 -0.5927826446 0.8004530395
3300280200.0 -0.5812795765 0.8084571512
3350279900.0 -0.5695879144 0.8164263565
3400279600.0 -0.5569803923 0.8244104142
3450279300.0 -0.5458604993 0.8313943778
3500279000.0 -0.5340427759 0.8382860084
3550278700.0 -0.5217700295 0.8456470242
3600278400.0 -0.5100004052 0.8526373438
3650278100.0 -0.4966229241 0.8601657025
3700277800.0 -0.4846031398 0.8664221942
3750277500.0 -0.4723041442 0.8730957252
3800277200.0 -0.459793491 0.8795598092
3850276900.0 -0.4477871951 0.8856333312
3900276600.0 -0.4369027772 0.8914138211
3950276300.0 -0.4246098114 0.8972818082
4000276000.0 -0.4128911667 0.9032156631
4050275700.0 -0.4001190799 0.9090353658
4100275400.0 -0.3890450745 0.9146040138
4150275100.0 -0.3758275843 0.9205939457
4200274800.0 -0.362780328 0.9259297332
4250274500.0 -0.3503739534 0.9314910588
4300274200.0 -0.3370697762 0.9370074444
4350273900.0 -0.3229138298 0.9419420894
4400273600.0 -0.3080778536 0.9471746141
4450273300.0 -0.2930799033 0.9520638291
4500273000.0 -0.2797944602 0.9566579634
4550272700.0 -0.2660369543 0.9607744404
4600272400.0 -0.2507155091 0.9650025058
4650272100.0 -0.2391667656 0.9679494503
4700271800.0 -0.2262535268 0.9713246947
4750271500.0 -0.2143740754 0.9741938724
4800271200.0 -0.2020499304 0.9769336189
4850270900.0 -0.188223383 0.9797052438
4900270600.0 -0.1744419349 0.9822227668
4950270300.0 -0.1600513381 0.9845826181
5000270000.0 -0.1456981555 0.986692628
5050269700.0 -0.131974293 0.98841047
5100269400.0 -0.1182433824 0.9899634931
5150269100.0 -0.1044079459 0.9918067921
5200268800.0 -0.0910121239 0.993022667
5250268500.0 -0.0779312529 0.993926793
5300268200.0 -0.0644293202 0.9946779344
5350267900.0 -0.0520294815 0.99504122
5400267600.0 -0.0357661143 0.9959955638
5450267300.0 -0.0225682062 0.9966362907
5500267000.0 -0.007256679 0.9969935484
5550266700.0 0.007683536 0.9970887633
5600266400.0 0.0234590737 0.9971598724
5650266100.0 0.0399864973 0.9968893724
5700265800.0 0.0542301831 0.9959929734
5750265500.0 0.0693128878 0.9950908837
5800265200.0 0.0826452867 0.9942329522
5850264900.0 0.0962378172 0.9932794241
5900264600.0 0.1125030394 0.9915612835
5950264300.0 0.1242687795 0.9894556693
6000264000.0 0.1381025654 0.987598731
6050263700.0 0.1500295013 0.9867902364
6100263400.0 0.1622639709 0.9850169855
6150263100.0 0.1772404797 0.9825354012
6200262800.0 0.1870924176 0.9811544339
6250262500.0 0.1996490479 0.9786609105
6300262200.0 0.2122473257 0.975935859
6350261900.0 0.2252360445 0.9730755228
6400261600.0 0.2388145207 0.9698445263
6450261300.0 0.2502368703 0.9674469059
6500261000.0 0.2631195068 0.9635106091
6550260700.0 0.2763398686 0.959909097
6600260400.0 0.2898441061 0.9557385051
6650260100.0 0.3038859713 0.9514422482
6700259800.0 0.3158769093 0.9473466587
6750259500.0 0.3296554119 0.9420044638
6800259200.0 0.3429091553 0.9369195833
6850258900.0 0.3549928267 0.9316590876
6900258600.0 0.3676997029 0.9267901762
6950258300.0 0.3799974424 0.9213040156
7000258000.0 0.3918911591 0.9160055673
7050257700.0 0.4039615822 0.9100542315
7100257400.0 0.4170734357 0.903556559
7150257100.0 0.4277153033 0.8982306705
7200256800.0 0.4404694133 0.8918892213
7250256500.0 0.4532261871 0.8858076365
7300256200.0 0.4660545163 0.8789155669
7350255900.0 0.4787563087 0.8718117796
7400255600.0 0.4921247612 0.8644686788
7450255300.0 0.5079997521 0.8550064795
7500255000.0 0.5199274649 0.8478940256
7550254700.0 0.5336561592 0.8388479397
7600254400.0 0.5463783285 0.8307344346
7650254100.0 0.558424779 0.8227896736
7700253800.0 0.5700150114 0.8148978212
7750253500.0 0.5806823019 0.8069724366
7800253200.0 0.5917398722 0.799415529
7850252900.0 0.6013166837 0.7921783128
7900252600.0 0.6129337668 0.7834277329
7950252300.0 0.6214449668 0.7770920827
8000252000.0 0.6314849788 0.7694550213
8050251700.0 0.6418705826 0.761380864
8100251400.0 0.6518389894 0.7534663774
8150251100.0 0.6619191009 0.744880676
8200250800.0 0.6711029803 0.7366750033
8250250500.0 0.6802204356 0.7287861288
8300250200.0 0.6894632534 0.720442348
8350249900.0 0.698393331 0.7112584116
8400249600.0 0.7068368471 0.7034815257
8450249300.0 0.7155655243 0.6945457088
8500249000.0 0.7240729108 0.6855431643
8550248700.0 0.7325234872 0.6767698262
8600248400.0 0.7409629174 0.6672389862
8650248100.0 0.7486163601 0.657757615
8700247800.0 0.758033504 0.6464164627
8750247500.0 0.7666058356 0.636396468
8800247200.0 0.7743680161 0.6261603262
8850246900.0 0.7829681408 0.6146681808
8900246600.0 0.791233791 0.6034364363
8950246300.0 0.8011525904 0.5904658506
9000246000.0 0.8095840549 0.5783280778
9050245700.0 0.8186321893 0.5656199434
9100245400.0 0.8270787702 0.5533534752
9150245100.0 0.8360453658 0.5402271145
9200244800.0 0.8456683654 0.5255768479
9250244500.0 0.8548687855 0.5106124978
9300244200.0 0.8630206074 0.4965344077
9350243900.0 0.8707692491 0.483035181
9400243600.0 0.8772780724 0.4711184191
9450243300.0 0.8829330795 0.4601110652
9500243000.0 0.8894363523 0.4482025756
9550242700.0 0.8932003587 0.4404994801
9600242400.0 0.8971076397 0.4331312523
9650242100.0 0.9011647414 0.4262678281
9700241800.0 0.9060278023 0.4180508466
9750241500.0 0.9103349639 0.4102940222
9800241200.0 0.9154117442 0.4007981611
9850240900.0 0.9208754512 0.3894891391
9900240600.0 0.9269147852 0.3775529055
9950240300.0 0.9335414266 0.3610784072
10000240000.0 0.9383383402 0.3495042431
10050239700.0 0.9441008946 0.3334881902
10100239400.0 0.9492807495 0.3178551065
10150239100.0 0.9539744076 0.3024142526
10200238800.0 0.9582514925 0.2869525221
10250238500.0 0.9614683667 0.2735369335
10300238200.0 0.9645493496 0.2595402541
10350237900.0 0.9674209489 0.2463094873
10400237600.0 0.9699760289 0.2327004229
10450237300.0 0.9726057938 0.2193136148
10500237000.0 0.9748481296 0.2072915768
10550236700.0 0.9776170071 0.1922023861
10600236400.0 0.9794163023 0.1787916216
10650236100.0 0.9817664925 0.1642041787
10700235800.0 0.9834094041 0.1521934119
10750235500.0 0.9858442275 0.1384583364
10800235200.0 0.9878204508 0.1240655288
10850234900.0 0.989770033 0.1095535408
10900234600.0 0.9916835573 0.0949448719
10950234300.0 0.9938337718 0.0813997233
11000234000.0 0.9955218063 0.0660176943
11050233700.0 0.9971756581 0.0495424155
11100233400.0 0.9988181084 0.0319004499
11150233100.0 0.9997645518 0.0154539168
11200232800.0 1.000447857 -0.0002137619
11250232500.0 1.001341749 -0.0177007936
11300232200.0 1.001663738 -0.0354431396
11350231900.0 1.001974739 -0.0524556743
11400231600.0 1.001496312 -0.0670528049
11450231300.0 1.000569746 -0.0832562437
11500231000.0 0.9996475987 -0.099216013
11550230700.0 0.9981800452 -0.1122735777
11600230400.0 0.9968775362 -0.1249728294
11650230100.0 0.9952155329 -0.1368361914
11700229800.0 0.9927966028 -0.1518804356
11750229500.0 0.9903087918 -0.1656894435
11800229200.0 0.9877033073 -0.1794298184
11850228900.0 0.9839937097 -0.1914205701
11900228600.0 0.9803279967 -0.2010057846
11950228300.0 0.9770656516 -0.2115032063
12000228000.0 0.9742928209 -0.2200399929
12050227700.0 0.9705504743 -0.2329558213
12100227400.0 0.9674831334 -0.2439236806
12150227100.0 0.9619726308 -0.2604401549
12200226800.0 0.9589559542 -0.2713883334
12250226500.0 0.955029253 -0.2835565609
12300226200.0 0.950691527 -0.296245437
12350225900.0 0.9454948941 -0.3111529004
12400225600.0 0.941166623 -0.3227371774
12450225300.0 0.9362930934 -0.3351672015
12500225000.0 0.931263489 -0.3504598835
12550224700.0 0.9258676726 -0.3643129859
12600224400.0 0.9207891843 -0.3768809515
12650224100.0 0.9149199437 -0.3914174487
12700223800.0 0.9097270081 -0.4041404233
12750223500.0 0.9042418104 -0.4170739362
12800223200.0 0.8990418033 -0.4297254201
12850222900.0 0.893462356 -0.4423048664
12900222600.0 0.8879453672 -0.453789624
12950222300.0 0.8813441979 -0.4669980044
13000222000.0 0.8757978064 -0.4777294255
13050221700.0 0.8687286107 -0.4912735176
13100221400.0 0.8621352409 -0.5033111428
13150221100.0 0.8552151372 -0.5152732489
13200220800.0 0.8484776496 -0.5267472342
13250220500.0 0.8410433778 -0.5392402812
13300220200.0 0.8338218712 -0.5498709439
13350219900.0 0.8256364102 -0.5619111153
13400219600.0 0.8171618462 -0.573849683
13450219300.0 0.8080251923 -0.58691501
13500219000.0 0.797886263 -0.600233257
13550218700.0 0.7882151285 -0.6130933591
13600218400.0 0.7776687229 -0.6248521135
13650218100.0 0.7687712843 -0.6356795038
13700217800.0 0.757492317 -0.6476274638
13750217500.0 0.747630079 -0.6592205278
13800217200.0 0.7361114749 -0.6706459207
13850216900.0 0.7256847927 -0.6817613369
13900216600.0 0.7162887281 -0.6901589814
13950216300.0 0.7052589948 -0.7001245258
14000216000.0 0.6955400646 -0.7096640987
14050215700.0 0.6860533839 -0.7180733605
14100215400.0 0.6765972963 -0.7268141208
14150215100.0 0.6672153278 -0.7354983602
14200214800.0 0.6576891064 -0.7444460014
14250214500.0 0.6473457723 -0.753837314
14300214200.0 0.6368362913 -0.7632833209
14350213900.0 0.625823076 -0.7726759048
14400213600.0 0.61395647 -0.7825417108
14450213300.0 0.6010756688 -0.7929509261
14500213000.0 0.5883462744 -0.8027217798
14550212700.0 0.5756434728 -0.8120426082
14600212400.0 0.5633341296 -0.8213141922
14650212100.0 0.5505331463 -0.8296090669
14700211800.0 0.5367457422 -0.8392744561
14750211500.0 0.5243612806 -0.8476594548
14800211200.0 0.512050571 -0.8556906519
14850210900.0 0.4994837951 -0.8629840619
14900210600.0 0.4863717112 -0.8711939115
14950210300.0 0.4729392235 -0.8787293092
15000210000.0 0.460320347 -0.8854322836
15050209700.0 0.4480641368 -0.8915897421
15100209400.0 0.4350989489 -0.8975146968
15150209100.0 0.4231935609 -0.9029283593
15200208800.0 0.4102850689 -0.9086975456
15250208500.0 0.398801466 -0.912848035
15300208200.0 0.3869010588 -0.9171560183
15350207900.0 0.3735576847 -0.9221958472
15400207600.0 0.3580360195 -0.9283457607
15450207300.0 0.3443680327 -0.9328129719
15500207000.0 0.3301880182 -0.9378664669
15550206700.0 0.3147362212 -0.9426110868
15600206400.0 0.2990679859 -0.9461899449
15650206100.0 0.2832985641 -0.9509848458
15700205800.0 0.2696987291 -0.9546540064
15750205500.0 0.2554997274 -0.9580896876
15800205200.0 0.2413865551 -0.9615897469
15850204900.0 0.2271138568 -0.9650575659
15900204600.0 0.2120168076 -0.9687617721
15950204300.0 0.1977196564 -0.9716050647
16000204000.0 0.183361495 -0.9746009336
16050203700.0 0.1685475236 -0.9775401837
16100203400.0 0.1535963572 -0.9798227268
16150203100.0 0.1386256297 -0.9822224492
16200202800.0 0.1244945647 -0.9836836264
16250202500.0 0.1102541128 -0.9860665932
16300202200.0 0.0945509155 -0.9874777281
16350201900.0 0.079524372 -0.9889611754
16400201600.0 0.064872532 -0.9900957646
16450201300.0 0.049245323 -0.9912817662
16500201000.0 0.032503953 -0.9920802783
16550200700.0 0.0166557417 -0.9925465073
16600200400.0 0.0008582715 -0.99276354
16650200100.0 -0.0152085875 -0.9926130359
16700199800.0 -0.0317970464 -0.9919386105
16750199500.0 -0.0503277656 -0.9917585077
16800199200.0 -0.0660398544 -0.9904065764
16850198900.0 -0.0818638257 -0.9894507783
16900198600.0 -0.0959940002 -0.9888736483
16950198300.0 -0.1095995528 -0.9867689632
17000198000.0 -0.122585366 -0.9856905726
17050197700.0 -0.1355620408 -0.9840485822
17100197400.0 -0.1475934517 -0.982197206
17150197100.0 -0.160425556 -0.9802598502
17200196800.0 -0.1735785312 -0.9777989243
17250196500.0 -0.1860959851 -0.9757106079
17300196200.0 -0.1983036871 -0.9733245001
17350195900.0 -0.2102148577 -0.9709500395
17400195600.0 -0.2223087855 -0.9684790216
17450195300.0 -0.23517515 -0.9656099728
17500195000.0 -0.2484731418 -0.9621607586
17550194700.0 -0.2625719875 -0.9585594535
17600194400.0 -0.2762516705 -0.9550021879
17650194100.0 -0.2901551608 -0.9506943936
17700193800.0 -0.3029144958 -0.9465940625
17750193500.0 -0.3171369551 -0.9414469972
17800193200.0 -0.3310452586 -0.9362218191
17850192900.0 -0.3465414563 -0.9315539059
17900192600.0 -0.3614977951 -0.9252836604
17950192300.0 -0.3772732295 -0.9181146382
18000192000.0 -0.3917453293 -0.9108087697
18050191700.0 -0.4057902329 -0.902960141
18100191400.0 -0.4200434744 -0.895183101
18150191100.0 -0.4349630556 -0.8873415572
18200190800.0 -0.4519202145 -0.8778388827
18250190500.0 -0.4687177827 -0.8686403537
18300190200.0 -0.4839679061 -0.8596032405
18350189900.0 -0.4992771938 -0.8515471675
18400189600.0 -0.5139364683 -0.8431161903
18450189300.0 -0.5271494873 -0.835156943
18500189000.0 -0.540382499 -0.8274545004
18550188700.0 -0.5534669511 -0.8197974794
18600188400.0 -0.5650934143 -0.8127473864
18650188100.0 -0.5763856721 -0.8061101548
18700187800.0 -0.587454007 -0.7995943344
18750187500.0 -0.598002736 -0.7929328255
18800187200.0 -0.6086047618 -0.78576805
18850186900.0 -0.6189559994 -0.7790059031
18900186600.0 -0.629011437 -0.771549223
18950186300.0 -0.6394892284 -0.7639807439
19000186000.0 -0.6468688006 -0.7574517893
19050185700.0 -0.6561147264 -0.7504050346
19100185400.0 -0.6660505474 -0.742194183
19150185100.0 -0.6762500243 -0.7335538559
19200184800.0 -0.6857076088 -0.725748032
19250184500.0 -0.6955619618 -0.7159307564
19300184200.0 -0.7072763358 -0.7066746664
19350183900.0 -0.7183840555 -0.6968890429
19400183600.0 -0.7281323344 -0.6871240144
19450183300.0 -0.7364580894 -0.6773182916
19500183000.0 -0.7444123735 -0.6673154482
19550182700.0 -0.7548950049 -0.6559405448
19600182400.0 -0.7650590034 -0.6445347229
19650182100.0 -0.7757395617 -0.6319935188
19700181800.0 -0.7861014396 -0.6188594958
19750181500.0 -0.7966588515 -0.60474414
19800181200.0 -0.8068589224 -0.5898139629
19850180900.0 -0.8165599336 -0.5744634914
19900180600.0 -0.8243281941 -0.5599646119
19950180300.0 -0.8333504355 -0.5437079773
20000180000.0 -0.8247000443 -0.5465823435
20050179700.0 -0.8326252355 -0.5334912294
20100179400.0 -0.8402435071 -0.5210458124
20150179100.0 -0.8491002313 -0.5094325924
20200178800.0 -0.8574637711 -0.4960944831
20250178500.0 -0.8661396839 -0.4838465321
20300178200.0 -0.8765223818 -0.4696878846
20350177900.0 -0.8862179518 -0.4548349578
20400177600.0 -0.8947492813 -0.4413070068
20450177300.0 -0.9030757606 -0.4266560681
20500177000.0 -0.9110881027 -0.4130379932
20550176700.0 -0.9192381151 -0.3994276787
20600176400.0 -0.9259035903 -0.3863907304
20650176100.0 -0.9328869027 -0.3743881075
20700175800.0 -0.9389143825 -0.3622693371
20750175500.0 -0.9457151387 -0.3506217936
20800175200.0 -0.9503403881 -0.3391840859
20850174900.0 -0.9541394369 -0.3288754802
20900174600.0 -0.9595226834 -0.3182047575
20950174300.0 -0.9628079174 -0.3064302917
21000174000.0 -0.9652330932 -0.2957577085
21050173700.0 -0.9678775699 -0.2861233204
21100173400.0 -0.9718298361 -0.273949263
21150173100.0 -0.9759029842 -0.2623018861
21200172800.0 -0.9796392595 -0.2489609984
21250172500.0 -0.9828555086 -0.2350735268
21300172200.0 -0.9862873614 -0.2207753498
21350171900.0 -0.9880299201 -0.2067936026
21400171600.0 -0.989835958 -0.1926405971
21450171300.0 -0.9906893633 -0.1783454726
21500171000.0 -0.990501983 -0.1631817579
21550170700.0 -0.9908352895 -0.1486059026
21600170400.0 -0.9910351964 -0.1310233613
21650170100.0 -0.9914048261 -0.1160923386
21700169800.0 -0.9897529642 -0.101932236
21750169500.0 -0.989641521 -0.0851865599
21800169200.0 -0.9894282184 -0.0686305867
21850168900.0 -0.9887087107 -0.0526312766
21900168600.0 -0.9881150277 -0.0354173047
21950168300.0 -0.9869937201 -0.020019087
22000168000.0 -0.9868480586 -0.0050090687
22050167700.0 -0.9870256634 0.0097941148
22100167400.0 -0.9874901538 0.0251466793
22150167100.0 -0.9882150346 0.0406746635
22200166800.0 -0.9888903129 0.0570380432
22250166500.0 -0.9880574613 0.0741310932
22300166200.0 -0.987155728 0.091115916
22350165900.0 -0.9861311029 0.1066484481
22400165600.0 -0.9846202636 0.1223510921
22450165300.0 -0.9831507996 0.1378157684
22500165000.0 -0.9810904517 0.1524729794
22550164700.0 -0.9799633926 0.1675780343
22600164400.0 -0.9780003872 0.1837801164
22650164100.0 -0.9750940599 0.1995558077
22700163800.0 -0.972161277 0.2155512349
22750163500.0 -0.9696791774 0.2298013516
22800163200.0 -0.9668329866 0.243235062
22850162900.0 -0.9640755892 0.2567077667
22900162600.0 -0.9622501818 0.2700535568
22950162300.0 -0.9612510164 0.2838236511
23000162000.0 -0.9599607311 0.295994903
23050161700.0 -0.9569177379 0.3093766301
23100161400.0 -0.954230333 0.3224714442
23150161100.0 -0.9518181074 0.3357572112
23200160800.0 -0.9489881049 0.3477964081
23250160500.0 -0.9459288279 0.3600721594
23300160200.0 -0.9427724844 0.3718087882
23350159900.0 -0.9394126972 0.385424882
23400159600.0 -0.9345834718 0.3988856806
23450159300.0 -0.929584065 0.4122009665
23500159000.0 -0.9243315333 0.4258445
23550158700.0 -0.920322182 0.4399316203
23600158400.0 -0.9141302486 0.4536494546
23650158100.0 -0.9074185087 0.4676309067
23700157800.0 -0.8992184725 0.4818064465
23750157500.0 -0.8903416722 0.4959549222
23800157200.0 -0.8809206038 0.5095848269
23850156900.0 -0.8719714027 0.5218511549
23900156600.0 -0.8621024892 0.5346827027
23950156300.0 -0.8525417492 0.5475753847
24000156000.0 -0.8431030912 0.560305703
24050155700.0 -0.8333865606 0.5717914022
24100155400.0 -0.822745914 0.584215239
24150155100.0 -0.8117263544 0.5961553557
24200154800.0 -0.801054776 0.6072584894
24250154500.0 -0.789540354 0.6197557364
24300154200.0 -0.778248956 0.631531851
24350153900.0 -0.7661811445 0.6422918143
24400153600.0 -0.7539458806 0.6529485173
24450153300.0 -0.7420740106 0.6630451833
24500153000.0 -0.7299901895 0.6727973777
24550152700.0 -0.7190109157 0.6827255186
24600152400.0 -0.706678087 0.6919544433
24650152100.0 -0.6953065432 0.7003482524
