!Created with skrf (http://scikit-rf.org).
# Hz S RI R 50.0 
!freq ReS11 ImS11
300000.0 -0.973603585 -0.1228608395
50299700.0 -0.9998777208 0.0148569334
100299400.0 -0.9979682795 0.0280257579
150299100.0 -1.002695501 0.0448271623
200298800.0 -0.9994365262 0.058166159
250298500.0 -0.9972899912 0.0715289887
300298200.0 -0.9859847616 0.0873950963
350297900.0 -0.9938811462 0.0982827853
400297600.0 -0.9932726058 0.1146361447
450297300.0 -0.9909187556 0.1286944508
500297000.0 -0.9892235856 0.1432739132
550296700.0 -0.9842816994 0.155881785
600296400.0 -1.017202564 0.1890305934
650296100.0 -0.9820949818 0.1854934304
700295800.0 -0.9795058476 0.1999441101
750295500.0 -0.9762998639 0.2139086575
800295200.0 -0.9726552991 0.2280528146
850294900.0 -0.9696514518 0.2419970859
900294600.0 -0.9658477641 0.2555425577
950294300.0 -0.9619766659 0.2692208587
1000294000.0 -0.9581132903 0.283333644
1050293700.0 -0.9536390839 0.2972896914
1100293400.0 -0.9492784854 0.3116246695
1150293100.0 -0.9454640291 0.3234256198
1200292800.0 -0.940072495 0.3377359861
1250292500.0 -0.93469057 0.3511404108
1300292200.0 -0.9290392695 0.3644815318
1350291900.0 -0.923529551 0.3784906274
1400291600.0 -0.917912194 0.3914271456
1450291300.0 -0.9123881615 0.4039810741
1500291000.0 -0.9062869182 0.4174285704
1550290700.0 -0.8999106161 0.4306497465
1600290400.0 -0.8935704786 0.4437063716
1650290100.0 -0.8867973575 0.4557493028
1700289800.0 -0.8800818575 0.4691470652
1750289500.0 -0.872868415 0.4814094735
1800289200.0 -0.8654447107 0.4946553876
1850288900.0 -0.8588014924 0.5056620858
1900288600.0 -0.8510151459 0.5187708638
1950288300.0 -0.8427587071 0.5311027635
2000288000.0 -0.8355317582 0.5429648718
2050287700.0 -0.8272543249 0.5552970909
2100287400.0 -0.81938945 0.5665358437
2150287100.0 -0.8108271442 0.5786229047
2200286800.0 -0.8029160247 0.5891549914
2250286500.0 -0.7939675384 0.6013112694
2300286200.0 -0.7851525464 0.6129379083
2350285900.0 -0.7768344777 0.6234123327
2400285600.0 -0.767944934 0.6342947006
2450285300.0 -0.7592649707 0.6452182281
2500285000.0 -0.7491353934 0.6568486754
2550284700.0 -0.7400833438 0.6668783202
2600284400.0 -0.7308258387 0.6770701348
2650284100.0 -0.7224348266 0.6870256788
2700283800.0 -0.7118662366 0.697515025
2750283500.0 -0.7014822385 0.7081594084
2800283200.0 -0.691561276 0.7183073573
2850282900.0 -0.681118049 0.7282573986
2900282600.0 -0.6705298951 0.7378220383
2950282300.0 -0.6602216723 0.7472319421
3000282000.0 -0.6495316049 0.756635638
3050281700.0 -0.6382250547 0.7659997454
3100281400.0 -0.6268151878 0.7751150477
3150281100.0 -0.615616735 0.7839438987
3200280800.0 -0.6039803271 0.7922559767
3250280500.0 -0.5930724914 0.8003021709
3300280200.0 -0.5813751419 0.8084355935
3350279900.0 -0.5694389022 0.8163812614
3400279600.0 -0.5565157015 0.8245062508
3450279300.0 -0.5455184734 0.8316751464
3500279000.0 -0.5340052026 0.8384570051
3550278700.0 -0.5217264629 0.8458304215
3600278400.0 -0.5096243063 0.8523367241
3650278100.0 -0.4968132808 0.8600965002
3700277800.0 -0.4846032642 0.8667351626
3750277500.0 -0.4721519509 0.8732751197
3800277200.0 -0.4597205835 0.8799666701
3850276900.0 -0.4477430981 0.8857784242
3900276600.0 -0.4368614618 0.8913366188
3950276300.0 -0.4247292516 0.8970234571
4000276000.0 -0.4129518679 0.9029925252
4050275700.0 -0.4004514881 0.9088435803
4100275400.0 -0.3894935802 0.9146649993
4150275100.0 -0.3761150747 0.9205135235
4200274800.0 -0.3625368107 0.9261759118
4250274500.0 -0.3498947084 0.9313763807
4300274200.0 -0.336793543 0.936623749
4350273900.0 -0.32244996 0.9421381224
4400273600.0 -0.3079472316 0.9470049729
4450273300.0 -0.2929276737 0.9521544042
4500273000.0 -0.2795655927 0.9566259587
4550272700.0 -0.2659943311 0.9605267585
4600272400.0 -0.2509071147 0.9647982998
4650272100.0 -0.2394951329 0.9678213005
4700271800.0 -0.2265775258 0.9710829984
4750271500.0 -0.2149401139 0.9740912246
4800271200.0 -0.2028988402 0.9766739246
4850270900.0 -0.1892113241 0.9795081521
4900270600.0 -0.1752815508 0.9821081033
4950270300.0 -0.1607144911 0.9845127767
5000270000.0 -0.1462126714 0.9866899175
5050269700.0 -0.132595092 0.9882290047
5100269400.0 -0.1184608564 0.9898780014
5150269100.0 -0.1046142263 0.9917730685
5200268800.0 -0.0912657109 0.9928697397
5250268500.0 -0.0782344027 0.9934116664
5300268200.0 -0.0646773102 0.9942749453
5350267900.0 -0.0518830776 0.9951207015
5400267600.0 -0.0355224488 0.9962749632
5450267300.0 -0.0220165138 0.99658508
5500267000.0 -0.0068947741 0.99692845
5550266700.0 0.0082440928 0.9971400054
5600266400.0 0.0238893033 0.9972446422
5650266100.0 0.0406349877 0.9967439303
5700265800.0 0.054666503 0.9962210639
5750265500.0 0.0695605567 0.9950787489
5800265200.0 0.0829966326 0.9942159191
5850264900.0 0.0962482354 0.9930845537
5900264600.0 0.1131335357 0.9915982771
5950264300.0 0.1243179366 0.9897879338
6000264000.0 0.1379578893 0.9877382247
6050263700.0 0.1500246696 0.986916414
6100263400.0 0.1622618015 0.98522047
6150263100.0 0.1769427172 0.9827015591
6200262800.0 0.1862021914 0.9809286739
6250262500.0 0.1988156401 0.9785856457
6300262200.0 0.2110843943 0.9761693908
6350261900.0 0.2238675006 0.9734239389
6400261600.0 0.2377394569 0.9701299124
6450261300.0 0.2488555232 0.9675809135
6500261000.0 0.2620873982 0.9640584867
6550260700.0 0.275473047 0.9604184781
6600260400.0 0.2887499565 0.9559771553
6650260100.0 0.3028154968 0.9516702364
6700259800.0 0.3148928781 0.9473072225
6750259500.0 0.3287801859 0.9426397933
6800259200.0 0.3424079992 0.937303364
6850258900.0 0.3548457093 0.9320735322
6900258600.0 0.3673655532 0.9269161356
6950258300.0 0.3796427907 0.9215663449
7000258000.0 0.3912564756 0.9163034796
7050257700.0 0.4032191943 0.9105034781
7100257400.0 0.416795058 0.9039010719
7150257100.0 0.4273507136 0.8985575413
7200256800.0 0.4406577746 0.8921652448
7250256500.0 0.4530902896 0.8855994966
7300256200.0 0.4659883303 0.8786254362
7350255900.0 0.4788038587 0.8715859264
7400255600.0 0.4929731123 0.8638167876
7450255300.0 0.5086176893 0.8549599901
7500255000.0 0.5205104004 0.8469167728
7550254700.0 0.5351145232 0.8382902521
7600254400.0 0.5478185813 0.8301081874
7650254100.0 0.5592756231 0.822153475
7700253800.0 0.5711761665 0.8141782738
7750253500.0 0.5818516366 0.8063998089
7800253200.0 0.5925986727 0.7985833439
7850252900.0 0.6022254209 0.7912962192
7900252600.0 0.613680303 0.7826400064
7950252300.0 0.6222438236 0.7762510164
8000252000.0 0.6322910579 0.7685836468
8050251700.0 0.6424010829 0.7606353214
8100251400.0 0.652545512 0.7526208145
8150251100.0 0.6624043153 0.7441514938
8200250800.0 0.6720072683 0.735859002
8250250500.0 0.6806910698 0.728014201
8300250200.0 0.6899323074 0.7196296187
8350249900.0 0.6988907088 0.7107636867
8400249600.0 0.7071133994 0.702873446
8450249300.0 0.7160661795 0.6941106816
8500249000.0 0.724593804 0.685185169
8550248700.0 0.7329586637 0.6763430075
8600248400.0 0.740999897 0.666711038
8650248100.0 0.7488104792 0.6573027553
8700247800.0 0.7581677586 0.6461676822
8750247500.0 0.7662899114 0.6362113168
8800247200.0 0.7742968078 0.6258893691
8850246900.0 0.7830854915 0.6142394567
8900246600.0 0.7914141807 0.6031118493
8950246300.0 0.8005659596 0.5901864688
9000246000.0 0.8095692324 0.5783058558
9050245700.0 0.8179767538 0.566110784
9100245400.0 0.8259995191 0.5539989236
9150245100.0 0.8349813935 0.5409827772
9200244800.0 0.8442958665 0.5267862319
9250244500.0 0.8533755347 0.5118086997
9300244200.0 0.8612655402 0.498288693
9350243900.0 0.8690641283 0.485214709
9400243600.0 0.8757984784 0.4734367112
9450243300.0 0.8812859668 0.46293965
9500243000.0 0.8875025991 0.4514587296
9550242700.0 0.8914576727 0.443696537
9600242400.0 0.8958141355 0.4362165181
9650242100.0 0.899760606 0.4292726876
9700241800.0 0.904942901 0.4206673517
9750241500.0 0.909018623 0.4130952549
9800241200.0 0.9140887364 0.4036247094
9850240900.0 0.9200418651 0.3919123831
9900240600.0 0.9259232186 0.379889142
9950240300.0 0.9329217928 0.3629583943
10000240000.0 0.9378032898 0.350933839
10050239700.0 0.944053586 0.3348406967
10100239400.0 0.9491999187 0.3186629679
10150239100.0 0.9540009245 0.3031239452
10200238800.0 0.9581436313 0.2878105394
10250238500.0 0.9616814448 0.2742590398
10300238200.0 0.9647578943 0.2603100869
10350237900.0 0.9674582038 0.2470901595
10400237600.0 0.9700166683 0.2335220548
10450237300.0 0.9728549077 0.2197056762
10500237000.0 0.9753023514 0.2072282701
10550236700.0 0.9774987627 0.1926957688
10600236400.0 0.9796706518 0.1791821472
10650236100.0 0.9813613533 0.1645031628
10700235800.0 0.9836833301 0.1526318304
10750235500.0 0.986020416 0.1389350239
10800235200.0 0.9878677906 0.1244951048
10850234900.0 0.9898502383 0.1092970746
10900234600.0 0.9919477273 0.0944811007
10950234300.0 0.9938055228 0.0811278984
11000234000.0 0.9956760904 0.0655178444
11050233700.0 0.9974226464 0.0488684073
11100233400.0 0.9989230747 0.0309512504
11150233100.0 1.00000874 0.0143132083
11200232800.0 1.001109547 -0.0015526735
11250232500.0 1.002105518 -0.0196744426
11300232200.0 1.002298029 -0.0378001613
11350231900.0 1.001882376 -0.0536993717
11400231600.0 1.001900187 -0.069847571
11450231300.0 1.001314736 -0.0856007037
11500231000.0 0.9991526215 -0.1015606831
11550230700.0 0.9983605474 -0.1147319916
11600230400.0 0.9973664568 -0.128047452
11650230100.0 0.9947186539 -0.1396453973
11700229800.0 0.9923660058 -0.1546034891
11750229500.0 0.9901645255 -0.1687351705
11800229200.0 0.9872432255 -0.1819514007
11850228900.0 0.9835544409 -0.1939069358
11900228600.0 0.9798865291 -0.2033435504
11950228300.0 0.9761269998 -0.2135832059
12000228000.0 0.9739024573 -0.2216741799
12050227700.0 0.9697784413 -0.234693637
12100227400.0 0.9668588521 -0.2457506992
12150227100.0 0.9614945774 -0.261788928
12200226800.0 0.9577828405 -0.2733662508
12250226500.0 0.9540367446 -0.2865247139
12300226200.0 0.9502385631 -0.298324458
12350225900.0 0.9446517811 -0.3119472786
12400225600.0 0.9403949022 -0.3245851062
12450225300.0 0.9355228718 -0.3370912947
12500225000.0 0.9300594986 -0.3521098251
12550224700.0 0.9249600033 -0.3656759075
12600224400.0 0.9198283144 -0.3781642671
12650224100.0 0.9140280903 -0.3928208668
12700223800.0 0.9087650514 -0.4056619365
12750223500.0 0.9032432597 -0.4186229293
12800223200.0 0.8981134024 -0.4310724633
12850222900.0 0.8928207832 -0.4429917215
12900222600.0 0.8873108104 -0.455647346
12950222300.0 0.8808387377 -0.4682571185
13000222000.0 0.8752126634 -0.4796841598
13050221700.0 0.8683967028 -0.4922361519
13100221400.0 0.8614896573 -0.5045209751
13150221100.0 0.8545430686 -0.5170530707
13200220800.0 0.8475417225 -0.528543782
13250220500.0 0.840163349 -0.5404358814
13300220200.0 0.8325760319 -0.5513307684
13350219900.0 0.8246254539 -0.5633131661
13400219600.0 0.816196192 -0.5752390666
13450219300.0 0.8067602173 -0.5884199685
13500219000.0 0.7969777285 -0.6015897352
13550218700.0 0.7870480115 -0.6138850687
13600218400.0 0.7768633621 -0.6258162756
13650218100.0 0.7679453656 -0.6360304799
13700217800.0 0.7568612399 -0.6485197243
13750217500.0 0.7470563481 -0.6594306789
13800217200.0 0.7366669903 -0.6705938781
13850216900.0 0.7257270238 -0.6815898528
13900216600.0 0.715572676 -0.6907127566
13950216300.0 0.7052788743 -0.7005933326
14000216000.0 0.6944576012 -0.7098075552
14050215700.0 0.6862731864 -0.717465557
14100215400.0 0.676576574 -0.7264162894
14150215100.0 0.6673979546 -0.7351985772
14200214800.0 0.6576751599 -0.7440867374
14250214500.0 0.6473809442 -0.7536057188
14300214200.0 0.6369598751 -0.7630677381
14350213900.0 0.6257636706 -0.7726090207
14400213600.0 0.6138834569 -0.7825356328
14450213300.0 0.6004434639 -0.7928803624
14500213000.0 0.5880707761 -0.8028991723
14550212700.0 0.5756689912 -0.8115442714
14600212400.0 0.5629862818 -0.8205498024
14650212100.0 0.5504619908 -0.8290416424
14700211800.0 0.5371642762 -0.8388266837
14750211500.0 0.5245502361 -0.8469344428
14800211200.0 0.5122169264 -0.8556099632
14850210900.0 0.4996361857 -0.8634379317
14900210600.0 0.4863988997 -0.8710925369
14950210300.0 0.4732215195 -0.8788759111
15000210000.0 0.4604347376 -0.8855311407
15050209700.0 0.4481130933 -0.8914331443
15100209400.0 0.4352423688 -0.8975769888
15150209100.0 0.4233624965 -0.9026417114
15200208800.0 0.4103557506 -0.9080254716
15250208500.0 0.4001831206 -0.9124304755
15300208200.0 0.3866559263 -0.9171373707
15350207900.0 0.373887299 -0.9222997044
15400207600.0 0.3595729439 -0.9279200669
15450207300.0 0.3448406861 -0.9331029409
15500207000.0 0.3298567945 -0.9374560647
15550206700.0 0.3153114433 -0.9426409687
15600206400.0 0.299400485 -0.9467354404
15650206100.0 0.2843293634 -0.9505374135
15700205800.0 0.2700275983 -0.9543389102
15750205500.0 0.2561149117 -0.9578721968
15800205200.0 0.2419823555 -0.9613420658
15850204900.0 0.2278685545 -0.9647043478
15900204600.0 0.2128849931 -0.968402652
15950204300.0 0.1984936855 -0.9714985544
16000204000.0 0.1841951778 -0.9744091678
16050203700.0 0.1687710037 -0.977466205
16100203400.0 0.1539500182 -0.9796611112
16150203100.0 0.1394378078 -0.9821514504
16200202800.0 0.1250417015 -0.9841960596
16250202500.0 0.109983317 -0.9854010713
16300202200.0 0.0946510066 -0.9874371832
16350201900.0 0.0797909119 -0.9890087196
16400201600.0 0.0650276242 -0.9904595191
16450201300.0 0.0495150438 -0.9913929774
16500201000.0 0.0324892889 -0.9921493875
16550200700.0 0.0166624197 -0.9926261581
16600200400.0 0.0005921533 -0.9928725562
16650200100.0 -0.0153616665 -0.9928123754
16700199800.0 -0.0320146786 -0.9921964734
16750199500.0 -0.0507288567 -0.9916448827
16800199200.0 -0.0671692001 -0.9903168267
16850198900.0 -0.0824190898 -0.9897657271
16900198600.0 -0.0962178059 -0.9887155614
16950198300.0 -0.1107163603 -0.9870221275
17000198000.0 -0.1232818695 -0.9854773454
17050197700.0 -0.1357466761 -0.9838606002
17100197400.0 -0.1488598987 -0.9814079177
17150197100.0 -0.1615997384 -0.9802244115
17200196800.0 -0.1744851597 -0.978158556
17250196500.0 -0.1874647804 -0.9755368573
17300196200.0 -0.1995984794 -0.9732718215
17350195900.0 -0.211371102 -0.9706550821
17400195600.0 -0.2232504119 -0.968178439
17450195300.0 -0.2359800283 -0.9653850059
17500195000.0 -0.249243562 -0.9621202448
17550194700.0 -0.263158883 -0.9583814627
17600194400.0 -0.2769879839 -0.9547591255
17650194100.0 -0.2904732619 -0.9504376047
17700193800.0 -0.3033493573 -0.9464605212
17750193500.0 -0.3176340477 -0.9417692838
17800193200.0 -0.3320599689 -0.9363537391
17850192900.0 -0.3468975113 -0.9314637164
17900192600.0 -0.3618161959 -0.9250865349
17950192300.0 -0.3774824637 -0.9177018823
18000192000.0 -0.3922287139 -0.9107424403
18050191700.0 -0.4060642676 -0.9026250472
18100191400.0 -0.4201768165 -0.8951097638
18150191100.0 -0.4348980828 -0.8870842133
18200190800.0 -0.4519754485 -0.8778994385
18250190500.0 -0.4688740799 -0.8680820813
18300190200.0 -0.4842923556 -0.8594469017
18350189900.0 -0.4996388887 -0.8509003366
18400189600.0 -0.5139118028 -0.8428181431
18450189300.0 -0.5271723142 -0.8349276172
18500189000.0 -0.5410428752 -0.8270188031
18550188700.0 -0.5537053127 -0.8189942155
18600188400.0 -0.5662380453 -0.8120615658
18650188100.0 -0.5769088285 -0.8052174054
18700187800.0 -0.5880964369 -0.798973678
18750187500.0 -0.5990579638 -0.7922169947
18800187200.0 -0.6095655867 -0.7851705829
18850186900.0 -0.6197794046 -0.7780950522
18900186600.0 -0.6301825077 -0.7707426328
18950186300.0 -0.6403045016 -0.7631348309
19000186000.0 -0.6477022071 -0.7568824109
19050185700.0 -0.6571041345 -0.7496886828
19100185400.0 -0.66699835 -0.7413576187
19150185100.0 -0.6773984609 -0.7328839731
19200184800.0 -0.6866890501 -0.7249644618
19250184500.0 -0.6967219071 -0.7158311448
19300184200.0 -0.7074189262 -0.7056780475
19350183900.0 -0.7185184262 -0.6967037308
19400183600.0 -0.7283769774 -0.6870851888
19450183300.0 -0.7372960715 -0.6767794819
19500183000.0 -0.7455109573 -0.6665002746
19550182700.0 -0.7556048634 -0.6558766507
19600182400.0 -0.7660146468 -0.6438411059
19650182100.0 -0.7765199692 -0.6317009285
19700181800.0 -0.7864599551 -0.6186112873
19750181500.0 -0.7970189993 -0.6043783215
19800181200.0 -0.8071380326 -0.5895778772
19850180900.0 -0.8167586181 -0.5742637646
19900180600.0 -0.8244779595 -0.5598085312
19950180300.0 -0.8335057751 -0.5434771172
20000180000.0 -0.8235776001 -0.5473916857
20050179700.0 -0.8320463493 -0.5349040762
20100179400.0 -0.8400511932 -0.5218033913
20150179100.0 -0.8478418842 -0.5092270172
20200178800.0 -0.8554729937 -0.4983182967
20250178500.0 -0.8664141862 -0.4852779144
20300178200.0 -0.8756209067 -0.4713783788
20350177900.0 -0.8848245446 -0.4574038944
20400177600.0 -0.8935729677 -0.4436070675
20450177300.0 -0.9020829667 -0.4292324592
20500177000.0 -0.9100675618 -0.4153399407
20550176700.0 -0.918128263 -0.4016852995
20600176400.0 -0.924461795 -0.3885582059
20650176100.0 -0.9308379994 -0.3771010836
20700175800.0 -0.9386275806 -0.3646011015
20750175500.0 -0.9452634547 -0.3530301021
20800175200.0 -0.9486120408 -0.3423761308
20850174900.0 -0.9540712189 -0.3322864091
20900174600.0 -0.9582357618 -0.3205202294
20950174300.0 -0.9610481336 -0.3098086028
21000174000.0 -0.9635925186 -0.2987960516
21050173700.0 -0.965536755 -0.2890132763
21100173400.0 -0.9692375878 -0.2786649364
21150173100.0 -0.9724462108 -0.2666706585
21200172800.0 -0.9769397527 -0.2532792614
21250172500.0 -0.9804002688 -0.2393102595
21300172200.0 -0.9839569579 -0.2254210894
21350171900.0 -0.9861844136 -0.2114299242
21400171600.0 -0.988530468 -0.1976839727
21450171300.0 -0.9891388228 -0.1830627712
21500171000.0 -0.9889374103 -0.1678782889
21550170700.0 -0.9893580475 -0.1529598065
21600170400.0 -0.9902702296 -0.1374318136
21650170100.0 -0.9917099774 -0.1227802119
21700169800.0 -0.9895333509 -0.1061049938
21750169500.0 -0.990837699 -0.0901424817
21800169200.0 -0.9898590438 -0.0731313222
21850168900.0 -0.9902999938 -0.0570791627
21900168600.0 -0.9894860762 -0.0409948645
21950168300.0 -0.9890895371 -0.0252636424
22000168000.0 -0.9894617277 -0.0102038356
22050167700.0 -0.9896239822 0.0040512159
22100167400.0 -0.9902691004 0.0200866279
22150167100.0 -0.9911629925 0.0363783706
22200166800.0 -0.9920491273 0.0528560889
22250166500.0 -0.9907497758 0.070271043
22300166200.0 -0.989954039 0.0869416
22350165900.0 -0.9897980836 0.1020124003
22400165600.0 -0.9878780477 0.1182312841
22450165300.0 -0.9862039926 0.1332895186
22500165000.0 -0.9840087595 0.1478432269
22550164700.0 -0.9833599274 0.1638712711
22600164400.0 -0.9812677249 0.1803909092
22650164100.0 -0.9782241057 0.1960077673
22700163800.0 -0.9749881592 0.2115766906
22750163500.0 -0.9715814879 0.2259852428
22800163200.0 -0.9690816777 0.2395087238
22850162900.0 -0.9667003252 0.2529042472
22900162600.0 -0.9649803128 0.2669575957
22950162300.0 -0.9630114784 0.2807660782
23000162000.0 -0.9612579256 0.2929411932
23050161700.0 -0.9584446546 0.3063218514
23100161400.0 -0.9557694446 0.3196175816
23150161100.0 -0.952234357 0.3324358038
23200160800.0 -0.9499294354 0.3460725464
23250160500.0 -0.9477256147 0.3587457331
23300160200.0 -0.9442479741 0.3710721925
23350159900.0 -0.9399624442 0.3846683105
23400159600.0 -0.934898309 0.3978526121
23450159300.0 -0.930132103 0.4126823233
23500159000.0 -0.9244262752 0.4258440319
23550158700.0 -0.9200762281 0.439910606
23600158400.0 -0.9143080858 0.4540337057
23650158100.0 -0.9067880416 0.4685264719
23700157800.0 -0.8983900556 0.4826944396
23750157500.0 -0.8890723281 0.4973697613
23800157200.0 -0.8793567765 0.5104280383
23850156900.0 -0.8699802721 0.5235632773
23900156600.0 -0.8598782986 0.5356754774
23950156300.0 -0.8498789465 0.5490009042
24000156000.0 -0.8410687137 0.5616204725
24050155700.0 -0.8297730451 0.5734541035
24100155400.0 -0.8200767364 0.5859044995
24150155100.0 -0.808592962 0.5981251101
24200154800.0 -0.7978210492 0.6090543682
24250154500.0 -0.7861778056 0.6219049755
24300154200.0 -0.774865888 0.6341057836
24350153900.0 -0.7629127284 0.6448139054
24400153600.0 -0.7500496532 0.6555247168
24450153300.0 -0.7385543668 0.6654903394
24500153000.0 -0.7266301973 0.6758581179
24550152700.0 -0.7150582137 0.6862778303
24600152400.0 -0.7035827409 0.69539046
24650152100.0 -0.6914007477 0.7032970795
