!Created with skrf (http://scikit-rf.org).
# Hz S RI R 50.0 
!freq ReS11 ImS11
300000.0 -1.00148625 0.0388192199
50299700.0 -0.9974963092 0.0148395395
100299400.0 -0.9954173614 0.0271922826
150299100.0 -0.9999658426 0.0436670456
200298800.0 -0.9966004875 0.0567316819
250298500.0 -0.9942466489 0.0697962226
300298200.0 -0.9823833072 0.0854737951
350297900.0 -0.9901914332 0.0961022692
400297600.0 -0.9891873132 0.1120736477
450297300.0 -0.9867765765 0.1253611307
500297000.0 -0.9850544724 0.1396494127
550296700.0 -0.9798144578 0.1515342952
600296400.0 -1.012538117 0.1840995278
650296100.0 -0.9775293429 0.1807558103
700295800.0 -0.974556582 0.1943464847
750295500.0 -0.9715892131 0.2081587106
800295200.0 -0.9685178181 0.2216561974
850294900.0 -0.9651988881 0.2349674771
900294600.0 -0.9615343675 0.2486879921
950294300.0 -0.9578734678 0.2620456207
1000294000.0 -0.9543000463 0.2758074088
1050293700.0 -0.9501268401 0.2895170765
1100293400.0 -0.9459438205 0.3038376302
1150293100.0 -0.942446128 0.3154617601
1200292800.0 -0.9376081207 0.3295410794
1250292500.0 -0.9322518482 0.3430000114
1300292200.0 -0.9267833966 0.3560244641
1350291900.0 -0.9216823442 0.3701971153
1400291600.0 -0.9164676938 0.3830976939
1450291300.0 -0.9115799384 0.3953535028
1500291000.0 -0.9056486928 0.4087305555
1550290700.0 -0.8994138922 0.4219098273
1600290400.0 -0.8933402678 0.434941888
1650290100.0 -0.8875789233 0.4465742959
1700289800.0 -0.8808242764 0.4603679187
1750289500.0 -0.8742468906 0.472277925
1800289200.0 -0.8674522549 0.4849072074
1850288900.0 -0.8610934061 0.495972068
1900288600.0 -0.853732578 0.5089464487
1950288300.0 -0.8462651579 0.5213183583
2000288000.0 -0.8387781704 0.5329851037
2050287700.0 -0.8311546282 0.545225648
2100287400.0 -0.823896061 0.5561541322
2150287100.0 -0.8156412661 0.5684989275
2200286800.0 -0.8079024571 0.5791674544
2250286500.0 -0.7992354088 0.590875873
2300286200.0 -0.7913382323 0.6020170158
2350285900.0 -0.7829453724 0.6125128783
2400285600.0 -0.7737757015 0.6237818837
2450285300.0 -0.7646481204 0.6352310177
2500285000.0 -0.7559041186 0.6453683
2550284700.0 -0.7466880914 0.6555901097
2600284400.0 -0.7363130023 0.6669150443
2650284100.0 -0.7280331205 0.6762352457
2700283800.0 -0.7178144404 0.6861262057
2750283500.0 -0.7084988881 0.6959948791
2800283200.0 -0.698256259 0.7060177337
2850282900.0 -0.6874321206 0.7162515028
2900282600.0 -0.6767486149 0.7257658287
2950282300.0 -0.6667910322 0.7352076066
3000282000.0 -0.6559806607 0.7445416018
3050281700.0 -0.644931143 0.7542649813
3100281400.0 -0.634889485 0.762703261
3150281100.0 -0.6252815002 0.7711196503
3200280800.0 -0.6140951198 0.7800387528
3250280500.0 -0.6027506059 0.7892201703
3300280200.0 -0.590297324 0.7992057081
3350279900.0 -0.5794633272 0.8074065654
3400279600.0 -0.5674092013 0.8162348951
3450279300.0 -0.5556099874 0.8249352507
3500279000.0 -0.5436170758 0.8332620225
3550278700.0 -0.5318764708 0.8411754508
3600278400.0 -0.5218287199 0.8478444831
3650278100.0 -0.5088932108 0.856024938
3700277800.0 -0.4969902508 0.8633175318
3750277500.0 -0.4847601364 0.8703406465
3800277200.0 -0.4725311365 0.8769903667
3850276900.0 -0.4598534517 0.8836067037
3900276600.0 -0.4477787581 0.8899638999
3950276300.0 -0.4343515995 0.8965376985
4000276000.0 -0.4221608722 0.9025534305
4050275700.0 -0.4088555674 0.9082091085
4100275400.0 -0.3974977178 0.912986252
4150275100.0 -0.3840428987 0.9184820892
4200274800.0 -0.3698354378 0.92414507
4250274500.0 -0.3584932648 0.9283181366
4300274200.0 -0.3454883168 0.9330174066
4350273900.0 -0.3316981035 0.9376300847
4400273600.0 -0.3197378352 0.9414099151
4450273300.0 -0.3076778946 0.945292184
4500273000.0 -0.2955867605 0.949028217
4550272700.0 -0.2845725249 0.9524280566
4600272400.0 -0.2705057772 0.9564154184
4650272100.0 -0.2582615578 0.9596699424
4700271800.0 -0.2454781169 0.962871144
4750271500.0 -0.2308825783 0.9663852829
4800271200.0 -0.2158728466 0.9697366382
4850270900.0 -0.2016498137 0.9724982666
4900270600.0 -0.1884570804 0.9751722543
4950270300.0 -0.1761238889 0.9774881554
5000270000.0 -0.1627023526 0.9797722761
5050269700.0 -0.148883542 0.9817808969
5100269400.0 -0.1338584256 0.9839974477
5150269100.0 -0.1196821267 0.9858675835
5200268800.0 -0.1054179016 0.9872276483
5250268500.0 -0.0920547517 0.9887451894
5300268200.0 -0.0774714934 0.9903791577
5350267900.0 -0.0635107076 0.9905441737
5400267600.0 -0.0474321028 0.9921560792
5450267300.0 -0.0348210419 0.9927524279
5500267000.0 -0.0206916292 0.9929263031
5550266700.0 -0.0097249805 0.9926262309
5600266400.0 0.0037636713 0.9926609738
5650266100.0 0.0171727497 0.9927982672
5700265800.0 0.029208504 0.9918703523
5750265500.0 0.0414562488 0.9915182942
5800265200.0 0.0538944305 0.9909129373
5850264900.0 0.06706928 0.9902277849
5900264600.0 0.0819814626 0.9894599543
5950264300.0 0.0927392704 0.9885658683
6000264000.0 0.1051527857 0.9871167665
6050263700.0 0.1178267456 0.9862649825
6100263400.0 0.1319164243 0.984452724
6150263100.0 0.1479956873 0.982180523
6200262800.0 0.1592365886 0.9807928562
6250262500.0 0.1735730441 0.9780378324
6300262200.0 0.1868534385 0.975660516
6350261900.0 0.1999134521 0.9731393572
6400261600.0 0.2153644341 0.969912456
6450261300.0 0.2280473035 0.9672665919
6500261000.0 0.2417150985 0.9639078739
6550260700.0 0.2555850275 0.9601942258
6600260400.0 0.2679498639 0.9566704846
6650260100.0 0.2815081474 0.9528855861
6700259800.0 0.2942525447 0.9493164109
6750259500.0 0.3060540167 0.9450085057
6800259200.0 0.3201374968 0.940908109
6850258900.0 0.3327703758 0.9366876428
6900258600.0 0.3462140535 0.9318488196
6950258300.0 0.3599712201 0.9268643076
7000258000.0 0.3724535867 0.9219712095
7050257700.0 0.3830667272 0.9175351537
7100257400.0 0.3977582451 0.9118411003
7150257100.0 0.4099451855 0.9067953383
7200256800.0 0.4239037937 0.9011289405
7250256500.0 0.4362690191 0.8950894856
7300256200.0 0.4491803928 0.8888579257
7350255900.0 0.462163673 0.8828120268
7400255600.0 0.4711658656 0.8779209032
7450255300.0 0.4830069292 0.8714042361
7500255000.0 0.4941679503 0.8649702949
7550254700.0 0.5041244071 0.859347477
7600254400.0 0.5142230311 0.8533995268
7650254100.0 0.5249222485 0.8472353428
7700253800.0 0.5361266192 0.8404960794
7750253500.0 0.5465776549 0.833344772
7800253200.0 0.5592938538 0.8250477919
7850252900.0 0.5681416094 0.8187810376
7900252600.0 0.5795644258 0.8109022872
7950252300.0 0.590636692 0.803004636
8000252000.0 0.6017705552 0.7943311529
8050251700.0 0.6129104973 0.7857369233
8100251400.0 0.622357968 0.7781663995
8150251100.0 0.6339475506 0.7686380827
8200250800.0 0.6434941955 0.7605707851
8250250500.0 0.6548026501 0.7506603765
8300250200.0 0.6650964023 0.7410965885
8350249900.0 0.6745374458 0.7321904029
8400249600.0 0.6850372083 0.7223675153
8450249300.0 0.6959381082 0.7118556794
8500249000.0 0.7064810105 0.7012833096
8550248700.0 0.7177876143 0.6898541406
8600248400.0 0.7281129948 0.6785925389
8650248100.0 0.7365894324 0.669220579
8700247800.0 0.7458732843 0.6590437437
8750247500.0 0.7553262969 0.6483908215
8800247200.0 0.7649774301 0.6370572641
8850246900.0 0.774301582 0.6261875069
8900246600.0 0.7827594159 0.6151708224
8950246300.0 0.7912873802 0.6041262814
9000246000.0 0.7981646945 0.595362968
9050245700.0 0.8045684092 0.5863636245
9100245400.0 0.8128701035 0.5747975847
9150245100.0 0.8200896475 0.5643178437
9200244800.0 0.8244646346 0.5577052012
9250244500.0 0.830441228 0.5486518988
9300244200.0 0.8349094803 0.5412251896
9350243900.0 0.8411586869 0.5320266075
9400243600.0 0.8479167839 0.5208645662
9450243300.0 0.8524060003 0.5133934636
9500243000.0 0.858358515 0.5039045864
9550242700.0 0.8660098216 0.4914787195
9600242400.0 0.8743368951 0.4773842602
9650242100.0 0.8822943705 0.4623211733
9700241800.0 0.8897338013 0.4481594593
9750241500.0 0.8982896981 0.4310609408
9800241200.0 0.9073027955 0.4107296047
9850240900.0 0.913391096 0.3954239017
9900240600.0 0.9174148651 0.3855243741
9950240300.0 0.9224933775 0.3728006742
10000240000.0 0.9279185133 0.3584592512
10050239700.0 0.9326588617 0.3461700776
10100239400.0 0.9363678778 0.3357832949
10150239100.0 0.940112642 0.3243971298
10200238800.0 0.9446287703 0.3111577858
10250238500.0 0.9489849281 0.2985879079
10300238200.0 0.9530652335 0.2857653502
10350237900.0 0.9569327141 0.2735194164
10400237600.0 0.9608067156 0.2602847215
10450237300.0 0.965301203 0.2462732198
10500237000.0 0.9687824451 0.2325483389
10550236700.0 0.9724560623 0.2186515144
10600236400.0 0.9756207746 0.2061448854
10650236100.0 0.9790312983 0.1892167105
10700235800.0 0.9816985857 0.1747668124
10750235500.0 0.9845594062 0.1609802789
10800235200.0 0.9861204545 0.1478064703
10850234900.0 0.9879380477 0.1348513155
10900234600.0 0.9899436517 0.1210909158
10950234300.0 0.9911843799 0.1061187759
11000234000.0 0.9920203406 0.0925795489
11050233700.0 0.9924722086 0.0810653051
11100233400.0 0.9930440379 0.0678933764
11150233100.0 0.9937985121 0.0560663079
11200232800.0 0.993621398 0.0439465166
11250232500.0 0.993702093 0.031325913
11300232200.0 0.9939898001 0.0197447145
11350231900.0 0.993343862 0.0085973235
11400231600.0 0.9924253945 -0.0035005733
11450231300.0 0.9921060974 -0.0150625843
11500231000.0 0.9916389219 -0.0253514383
11550230700.0 0.9908909684 -0.0371921178
11600230400.0 0.9908024703 -0.0533321134
11650230100.0 0.9897589048 -0.0653878255
11700229800.0 0.9891466425 -0.0804021666
11750229500.0 0.9875597041 -0.0925167475
11800229200.0 0.986341715 -0.102947654
11850228900.0 0.9854439531 -0.1176319089
11900228600.0 0.984485857 -0.1335786866
11950228300.0 0.9828804792 -0.1503312032
12000228000.0 0.980825966 -0.166464754
12050227700.0 0.9783549249 -0.1815945497
12100227400.0 0.9767885055 -0.193326508
12150227100.0 0.9731701327 -0.2133011519
12200226800.0 0.9703532957 -0.2263628466
12250226500.0 0.9671503699 -0.2403371361
12300226200.0 0.964152919 -0.2531356556
12350225900.0 0.9598725313 -0.270048823
12400225600.0 0.9555422776 -0.286080747
12450225300.0 0.9520012765 -0.2988491234
12500225000.0 0.9471639955 -0.3136277094
12550224700.0 0.9418053531 -0.3288405505
12600224400.0 0.9379112171 -0.3397749219
12650224100.0 0.9327546905 -0.3532058608
12700223800.0 0.9278585153 -0.3654304376
12750223500.0 0.9225978511 -0.3782066178
12800223200.0 0.9165099134 -0.3923554212
12850222900.0 0.9105636767 -0.4062349146
12900222600.0 0.9042950208 -0.4190778455
12950222300.0 0.8973164596 -0.432708606
13000222000.0 0.89082079 -0.4455913449
13050221700.0 0.8844536922 -0.4588508285
13100221400.0 0.877155632 -0.4715516572
13150221100.0 0.8707700149 -0.4842826141
13200220800.0 0.8634787747 -0.496449604
13250220500.0 0.8566379688 -0.5087473168
13300220200.0 0.8491690852 -0.5208695698
13350219900.0 0.8408419003 -0.5354857818
13400219600.0 0.833434139 -0.546835149
13450219300.0 0.8267209787 -0.5567129865
13500219000.0 0.8205240449 -0.5659334325
13550218700.0 0.8135539157 -0.5761972
13600218400.0 0.8059408781 -0.5866354725
13650218100.0 0.799777249 -0.595170973
13700217800.0 0.7917587508 -0.6063780398
13750217500.0 0.783707858 -0.6170785842
13800217200.0 0.7756856687 -0.6267895678
13850216900.0 0.7682255843 -0.637876448
13900216600.0 0.7592826322 -0.6470155905
13950216300.0 0.7500041756 -0.6581554096
14000216000.0 0.7409669127 -0.669491368
14050215700.0 0.7316790921 -0.6792059011
14100215400.0 0.7195061163 -0.6926162608
14150215100.0 0.7073312268 -0.7054046682
14200214800.0 0.6959296813 -0.7165449618
14250214500.0 0.6834282205 -0.7282918905
14300214200.0 0.6706868007 -0.7399879518
14350213900.0 0.6588396263 -0.7501507284
14400213600.0 0.6479611818 -0.7593342557
14450213300.0 0.6383973921 -0.7673189151
14500213000.0 0.6287719844 -0.7750776217
14550212700.0 0.6186250223 -0.7835770426
14600212400.0 0.6070318834 -0.7920144145
14650212100.0 0.5969603385 -0.7987210344
14700211800.0 0.5869643723 -0.8067163523
14750211500.0 0.5759881938 -0.8142003025
14800211200.0 0.5638001768 -0.8221864901
14850210900.0 0.5524996274 -0.8298437728
14900210600.0 0.5409390341 -0.8371299901
14950210300.0 0.5298405925 -0.8442231057
15000210000.0 0.5184713537 -0.8510506619
15050209700.0 0.50544732 -0.8586546309
15100209400.0 0.4925980858 -0.8669462948
15150209100.0 0.4810749894 -0.8735641174
15200208800.0 0.4679181949 -0.8812454739
15250208500.0 0.4545934666 -0.889012117
15300208200.0 0.438475621 -0.8967511174
15350207900.0 0.4259056714 -0.9032151356
15400207600.0 0.4128511379 -0.9095629811
15450207300.0 0.4005421159 -0.9151893244
15500207000.0 0.3887216211 -0.9203551314
15550206700.0 0.3759876393 -0.9262252546
15600206400.0 0.3633880367 -0.931062339
15650206100.0 0.3503173323 -0.9365976634
15700205800.0 0.3368465038 -0.9422452428
15750205500.0 0.3219183478 -0.9474976527
15800205200.0 0.3079144328 -0.9520853778
15850204900.0 0.2941329486 -0.9566225509
15900204600.0 0.2777928724 -0.9619517416
15950204300.0 0.262675241 -0.9660324127
16000204000.0 0.2474319949 -0.9702729337
16050203700.0 0.2315873307 -0.9741085755
16100203400.0 0.2182107197 -0.976827778
16150203100.0 0.2017560352 -0.9799253727
16200202800.0 0.1858744803 -0.9830306203
16250202500.0 0.1710499142 -0.9854144268
16300202200.0 0.1560216596 -0.9877116574
16350201900.0 0.1404579159 -0.9894665423
16400201600.0 0.1253555527 -0.9913699538
16450201300.0 0.1120336042 -0.9928099843
16500201000.0 0.098368776 -0.9942700371
16550200700.0 0.0848894413 -0.995585352
16600200400.0 0.0709471608 -0.9967373559
16650200100.0 0.0560524583 -0.9974432826
16700199800.0 0.0433955511 -0.9983894096
16750199500.0 0.0324060589 -0.9989464844
16800199200.0 0.021699349 -0.999427468
16850198900.0 0.0090479603 -0.9997224517
16900198600.0 -0.0031426554 -0.9993577693
16950198300.0 -0.0177076522 -0.999409034
17000198000.0 -0.032717983 -0.9988174504
17050197700.0 -0.047697587 -0.9981188028
17100197400.0 -0.0658888356 -0.9975496786
17150197100.0 -0.0831863952 -0.995821846
17200196800.0 -0.0990973294 -0.9949985756
17250196500.0 -0.1149863673 -0.9927587245
17300196200.0 -0.1327575775 -0.9907053683
17350195900.0 -0.1513247084 -0.9878176728
17400195600.0 -0.1686946161 -0.9848243477
17450195300.0 -0.1854311307 -0.981952856
17500195000.0 -0.2018576913 -0.9784954753
17550194700.0 -0.2179169832 -0.9751224141
17600194400.0 -0.2334927688 -0.9715999372
17650194100.0 -0.2490940587 -0.9682706358
17700193800.0 -0.2639608205 -0.9642987657
17750193500.0 -0.2783743825 -0.9599646719
17800193200.0 -0.2929687662 -0.9558453401
17850192900.0 -0.3070741848 -0.951320651
17900192600.0 -0.320386923 -0.9469290931
17950192300.0 -0.3339918526 -0.9421408885
18000192000.0 -0.3476912853 -0.9371918777
18050191700.0 -0.3612330826 -0.9319779982
18100191400.0 -0.3749366392 -0.9273998472
18150191100.0 -0.3872493887 -0.9224952063
18200190800.0 -0.3983414311 -0.9176614236
18250190500.0 -0.4093332635 -0.9132281631
18300190200.0 -0.4207160027 -0.9082626318
18350189900.0 -0.4321703674 -0.9036780219
18400189600.0 -0.4432217158 -0.8983429035
18450189300.0 -0.4546817341 -0.8927038065
18500189000.0 -0.4650914353 -0.887506145
18550188700.0 -0.4757784111 -0.8814770208
18600188400.0 -0.4879338691 -0.8736591657
18650188100.0 -0.5006292043 -0.8659295991
18700187800.0 -0.5130919308 -0.8575538264
18750187500.0 -0.5256404226 -0.8493059631
18800187200.0 -0.538119793 -0.8400467743
18850186900.0 -0.5514156565 -0.8305732498
18900186600.0 -0.5631321356 -0.8214898081
18950186300.0 -0.5764721028 -0.8115005984
19000186000.0 -0.5908735603 -0.8009156003
19050185700.0 -0.6063691607 -0.7904046574
19100185400.0 -0.6200358123 -0.7802131807
19150185100.0 -0.6332344399 -0.7697125995
19200184800.0 -0.6469463144 -0.7579640034
19250184500.0 -0.6596628223 -0.7469098204
19300184200.0 -0.6718477453 -0.7358480614
19350183900.0 -0.6849084649 -0.7250979864
19400183600.0 -0.6976480487 -0.7130498483
19450183300.0 -0.7101386185 -0.7008061888
19500183000.0 -0.7231104851 -0.6884920501
19550182700.0 -0.7351759912 -0.675794493
19600182400.0 -0.7459148832 -0.6637887329
19650182100.0 -0.7567705674 -0.651109585
19700181800.0 -0.7666512586 -0.6388507435
19750181500.0 -0.7755891328 -0.6272357651
19800181200.0 -0.7841798584 -0.6158945944
19850180900.0 -0.7924604816 -0.6050487395
19900180600.0 -0.7994634768 -0.5954859518
19950180300.0 -0.8086730367 -0.5842627057
20000180000.0 -0.823875138 -0.5670110225
20050179700.0 -0.8320206218 -0.5566366603
20100179400.0 -0.8401733272 -0.5439410048
20150179100.0 -0.8483802531 -0.5314942478
20200178800.0 -0.8547140166 -0.5194384571
20250178500.0 -0.8606575127 -0.5079030249
20300178200.0 -0.8656235517 -0.4962749017
20350177900.0 -0.8702683408 -0.4855448736
20400177600.0 -0.8745611265 -0.4753573558
20450177300.0 -0.8787738563 -0.4642031938
20500177000.0 -0.8829476097 -0.4533667152
20550176700.0 -0.8874551912 -0.441568692
20600176400.0 -0.8915249674 -0.4296821467
20650176100.0 -0.8962131439 -0.4167663047
20700175800.0 -0.9014355079 -0.4039014104
20750175500.0 -0.9066706161 -0.3895372233
20800175200.0 -0.9109819296 -0.3758941774
20850174900.0 -0.9152774585 -0.3620808476
20900174600.0 -0.9199595606 -0.3467352561
20950174300.0 -0.9251637069 -0.3313166287
21000174000.0 -0.9302968755 -0.3160837124
21050173700.0 -0.9345748043 -0.300435819
21100173400.0 -0.9391060272 -0.2835067187
21150173100.0 -0.9431138517 -0.2673524155
21200172800.0 -0.9466456929 -0.2509736663
21250172500.0 -0.9505079409 -0.235422853
21300172200.0 -0.9546534142 -0.2205809729
21350171900.0 -0.9578922487 -0.2052223518
21400171600.0 -0.9621463377 -0.1903585811
21450171300.0 -0.965612908 -0.1754383342
21500171000.0 -0.9681919095 -0.1602634693
21550170700.0 -0.9729081244 -0.1465464258
21600170400.0 -0.9774008429 -0.1324472015
21650170100.0 -0.982533241 -0.1203532857
21700169800.0 -0.9861779976 -0.1067682077
21750169500.0 -0.9903938199 -0.0918497835
21800169200.0 -0.9937408952 -0.0775489304
21850168900.0 -0.9974458706 -0.0651674063
21900168600.0 -1.000536287 -0.0548213359
21950168300.0 -1.004012163 -0.0414047961
22000168000.0 -1.006877555 -0.0285867024
22050167700.0 -1.009079511 -0.0139303722
22100167400.0 -1.010078558 0.0015572246
22150167100.0 -1.009970223 0.0159951451
22200166800.0 -1.008939932 0.0290250705
22250166500.0 -1.007743253 0.0412866853
22300166200.0 -1.006490792 0.0519524086
22350165900.0 -1.006540954 0.0634830903
22400165600.0 -1.005981283 0.0752299043
22450165300.0 -1.004450224 0.0868345486
22500165000.0 -1.003609153 0.0991156445
22550164700.0 -1.001686902 0.1127661326
22600164400.0 -0.9988678295 0.1250693366
22650164100.0 -0.99591203 0.1352901081
22700163800.0 -0.9938926062 0.1461471993
22750163500.0 -0.9915272096 0.1584356799
22800163200.0 -0.9878458121 0.1694680774
22850162900.0 -0.9845687409 0.1819312279
22900162600.0 -0.9798551311 0.1955296375
22950162300.0 -0.9742431804 0.2099887122
23000162000.0 -0.9679185927 0.2248041234
23050161700.0 -0.9609782522 0.2403062442
23100161400.0 -0.9546478413 0.2549013961
23150161100.0 -0.9481269306 0.2689399086
23200160800.0 -0.942208592 0.2846724193
23250160500.0 -0.9347072604 0.3005136782
23300160200.0 -0.9278517402 0.3172903151
23350159900.0 -0.9205266085 0.3327000331
23400159600.0 -0.9141442633 0.3461793007
23450159300.0 -0.9080537322 0.3579263094
23500159000.0 -0.9015835923 0.3717200333
23550158700.0 -0.8948626551 0.3859756876
23600158400.0 -0.8874505178 0.3985343349
23650158100.0 -0.8807556338 0.4103213098
23700157800.0 -0.8741712491 0.4217081312
23750157500.0 -0.8682901869 0.4329027337
23800157200.0 -0.8634249601 0.4438021428
23850156900.0 -0.8592687663 0.4540447576
23900156600.0 -0.8548680245 0.4646973775
23950156300.0 -0.8505540402 0.4758325827
24000156000.0 -0.8458480924 0.4861633234
24050155700.0 -0.8409614264 0.4965535871
24100155400.0 -0.83672418 0.5069455691
24150155100.0 -0.8332251783 0.5171296385
24200154800.0 -0.828628874 0.5267141335
24250154500.0 -0.824152093 0.5360487313
24300154200.0 -0.8207751403 0.54663403
24350153900.0 -0.8168155339 0.5560540727
24400153600.0 -0.8119396804 0.5661262485
24450153300.0 -0.8072156754 0.5761351371
24500153000.0 -0.8018641639 0.5860370933
24550152700.0 -0.796227723 0.596074398
24600152400.0 -0.7902991464 0.6054057638
24650152100.0 -0.7834872808 0.6161804394
