!Created with skrf (http://scikit-rf.org).
# Hz S RI R 50.0 
!freq ReS11 ImS11
300000.0 -0.9763070806 -0.1188148763
50299700.0 -1.000019763 0.0154167493
100299400.0 -0.9979592963 0.0282698379
150299100.0 -1.002623051 0.0451899316
200298800.0 -0.9994852664 0.0584678989
250298500.0 -0.9973112341 0.0719818608
300298200.0 -0.9859478974 0.0878517723
350297900.0 -0.9941785356 0.0984992571
400297600.0 -0.993051981 0.1153262661
450297300.0 -0.9909537772 0.1290766565
500297000.0 -0.9893713863 0.1438966214
550296700.0 -0.9843798114 0.1560656183
600296400.0 -1.017271283 0.1895913611
650296100.0 -0.9820804322 0.1860087969
700295800.0 -0.9790426267 0.2003605442
750295500.0 -0.9762772706 0.2143578029
800295200.0 -0.9729260415 0.2284979644
850294900.0 -0.969670414 0.2422176937
900294600.0 -0.9657918271 0.2560955093
950294300.0 -0.9620878194 0.2695216326
1000294000.0 -0.9580938656 0.2838959252
1050293700.0 -0.9535532362 0.2973839374
1100293400.0 -0.9492354268 0.3119807819
1150293100.0 -0.9455522519 0.3238702264
1200292800.0 -0.9401355366 0.3382487548
1250292500.0 -0.9345544117 0.3516660152
1300292200.0 -0.9290905339 0.3647100689
1350291900.0 -0.9232927136 0.3790041529
1400291600.0 -0.9177726736 0.3920327642
1450291300.0 -0.9124398174 0.4043624695
1500291000.0 -0.9060942494 0.4177170112
1550290700.0 -0.8995818703 0.4310747951
1600290400.0 -0.893533176 0.4439477542
1650290100.0 -0.8866590884 0.4560616332
1700289800.0 -0.8798229431 0.4695387093
1750289500.0 -0.8728061664 0.4819653562
1800289200.0 -0.8654105706 0.4946002999
1850288900.0 -0.8584218567 0.5060603604
1900288600.0 -0.8507203838 0.5191503274
1950288300.0 -0.8428267114 0.5316941964
2000288000.0 -0.8355403699 0.543006907
2050287700.0 -0.8269993857 0.5554201629
2100287400.0 -0.8191953758 0.5670369858
2150287100.0 -0.8106442424 0.5788697596
2200286800.0 -0.8030149649 0.5893536213
2250286500.0 -0.7941108947 0.6013601206
2300286200.0 -0.7851467305 0.6130768364
2350285900.0 -0.7763709011 0.624032403
2400285600.0 -0.7674956058 0.6348740337
2450285300.0 -0.7588306312 0.645491213
2500285000.0 -0.7492296028 0.6565649075
2550284700.0 -0.7404853613 0.6668631434
2600284400.0 -0.7308924622 0.676999351
2650284100.0 -0.7220954788 0.6877101491
2700283800.0 -0.7112992539 0.6980153869
2750283500.0 -0.7012481592 0.7087206782
2800283200.0 -0.6911635647 0.7184180195
2850282900.0 -0.6811618004 0.7285634256
2900282600.0 -0.67076116 0.7379274475
2950282300.0 -0.660518529 0.7472274402
3000282000.0 -0.6497116056 0.7566708733
3050281700.0 -0.6385290952 0.7659616872
3100281400.0 -0.6265464989 0.7753131164
3150281100.0 -0.6148430336 0.7846182911
3200280800.0 -0.6031881506 0.7931318923
3250280500.0 -0.5923898334 0.8008487723
3300280200.0 -0.581029755 0.8088309346
3350279900.0 -0.5695752809 0.8163124328
3400279600.0 -0.5574795051 0.8239753273
3450279300.0 -0.5462207864 0.8310206952
3500279000.0 -0.5342529155 0.8383192133
3550278700.0 -0.5218653924 0.8456286274
3600278400.0 -0.5096216454 0.8525632757
3650278100.0 -0.4964852733 0.8603010249
3700277800.0 -0.4843784029 0.866886915
3750277500.0 -0.4721596792 0.8733589761
3800277200.0 -0.4597913403 0.8799790115
3850276900.0 -0.4477357928 0.8860473355
3900276600.0 -0.4368734547 0.891381013
3950276300.0 -0.4244039437 0.8974408144
4000276000.0 -0.4124888661 0.903560491
4050275700.0 -0.399318264 0.909545227
4100275400.0 -0.3883984061 0.9146794587
4150275100.0 -0.3756469522 0.9204484236
4200274800.0 -0.3627038045 0.9264002788
4250274500.0 -0.350472086 0.931364618
4300274200.0 -0.3374906325 0.9363776545
4350273900.0 -0.3236100521 0.9420203762
4400273600.0 -0.3087331038 0.9471040744
4450273300.0 -0.2933900624 0.9522766557
4500273000.0 -0.2799837398 0.9564974531
4550272700.0 -0.2659602508 0.9606950865
4600272400.0 -0.2502985764 0.965030287
4650272100.0 -0.2388042907 0.968210282
4700271800.0 -0.2252761372 0.9714352827
4750271500.0 -0.2136234123 0.9744201766
4800271200.0 -0.2010051495 0.9772110255
4850270900.0 -0.1871254556 0.9799967096
4900270600.0 -0.1733380167 0.9823399147
4950270300.0 -0.158921495 0.9849234814
5000270000.0 -0.1448030258 0.9870492152
5050269700.0 -0.1312090163 0.9883719259
5100269400.0 -0.1172979319 0.9896862989
5150269100.0 -0.104343786 0.9920273211
5200268800.0 -0.0909968525 0.9929936166
5250268500.0 -0.0777989121 0.9936071603
5300268200.0 -0.0648187817 0.9946451672
5350267900.0 -0.052279157 0.995465323
5400267600.0 -0.0363011789 0.9963319079
5450267300.0 -0.0231756369 0.9965027631
5500267000.0 -0.0078803666 0.9970378977
5550266700.0 0.0070843853 0.9972708765
5600266400.0 0.022622692 0.9972517571
5650266100.0 0.039092041 0.9971424527
5700265800.0 0.0534319663 0.9960959384
5750265500.0 0.0688679914 0.9957317276
5800265200.0 0.0826031626 0.993935569
5850264900.0 0.0958793316 0.9939430234
5900264600.0 0.1124941309 0.9915421012
5950264300.0 0.1242418208 0.9899390395
6000264000.0 0.1384987785 0.9881884451
6050263700.0 0.1509110777 0.9864544796
6100263400.0 0.162907338 0.9845676559
6150263100.0 0.1778642669 0.982715421
6200262800.0 0.1879682681 0.9807268113
6250262500.0 0.2006484078 0.9784204472
6300262200.0 0.2136399302 0.9756400645
6350261900.0 0.2265396923 0.9728060534
6400261600.0 0.2403198643 0.9695738457
6450261300.0 0.2514111274 0.9668031733
6500261000.0 0.2644759076 0.9632278894
6550260700.0 0.2777054839 0.9592086964
6600260400.0 0.2909784909 0.9550899789
6650260100.0 0.3045886887 0.9506999272
6700259800.0 0.3164881424 0.9464809339
6750259500.0 0.3307692065 0.9417512126
6800259200.0 0.3438590882 0.9364260006
6850258900.0 0.3561391196 0.9315979824
6900258600.0 0.3680406456 0.9264252561
6950258300.0 0.3804891342 0.9211291012
7000258000.0 0.3926448627 0.9156743186
7050257700.0 0.4048954058 0.9098103684
7100257400.0 0.4177938038 0.9034429524
7150257100.0 0.4280061505 0.8982580851
7200256800.0 0.4411231528 0.8918372972
7250256500.0 0.4527774859 0.8855416915
7300256200.0 0.4659010094 0.8787658176
7350255900.0 0.4781757781 0.871969714
7400255600.0 0.4912708855 0.8645410547
7450255300.0 0.5067248563 0.8557339676
7500255000.0 0.5188489282 0.8486242087
7550254700.0 0.5323785903 0.8399713069
7600254400.0 0.5449044109 0.8315899614
7650254100.0 0.5566804281 0.8236384313
7700253800.0 0.5686722418 0.8159939576
7750253500.0 0.5795353131 0.8083719596
7800253200.0 0.5903708764 0.8005330723
7850252900.0 0.6001425901 0.7934136769
7900252600.0 0.6119128375 0.7846588145
7950252300.0 0.62057251 0.7781398861
8000252000.0 0.6305326275 0.7704296694
8050251700.0 0.6410267975 0.7623637982
8100251400.0 0.651029556 0.7541565657
8150251100.0 0.6612370628 0.7454679262
8200250800.0 0.6707877748 0.7375736636
8250250500.0 0.6796217353 0.7296193493
8300250200.0 0.6890628256 0.7210277635
8350249900.0 0.6982309194 0.7124837766
8400249600.0 0.7058631283 0.7042895807
8450249300.0 0.7151514367 0.6949835701
8500249000.0 0.7238316611 0.6862518741
8550248700.0 0.7321921269 0.677102935
8600248400.0 0.740744438 0.6677229109
8650248100.0 0.7484879028 0.6582588421
8700247800.0 0.7580504552 0.647138381
8750247500.0 0.7661661638 0.6370010007
8800247200.0 0.774623468 0.6262801935
8850246900.0 0.7833495798 0.6151626992
8900246600.0 0.7917328872 0.6036264174
8950246300.0 0.8011909682 0.5905248489
9000246000.0 0.8106349061 0.5781844834
9050245700.0 0.8195081879 0.5651697021
9100245400.0 0.8280576497 0.5527137109
9150245100.0 0.8373344222 0.5390635221
9200244800.0 0.8472328844 0.5240094636
9250244500.0 0.8566302209 0.50867679
9300244200.0 0.8649786443 0.4940931511
9350243900.0 0.8725451588 0.4803771126
9400243600.0 0.8793217574 0.468069491
9450243300.0 0.885150801 0.4564274129
9500243000.0 0.8915522886 0.444352533
9550242700.0 0.8950565866 0.4365960474
9600242400.0 0.8992272454 0.4292947072
9650242100.0 0.9028908051 0.4227749817
9700241800.0 0.9075476585 0.4145876606
9750241500.0 0.9116101914 0.406987108
9800241200.0 0.9164529191 0.3976037831
9850240900.0 0.9222330951 0.3860562795
9900240600.0 0.9276242331 0.3745349054
9950240300.0 0.9340859861 0.3584506817
10000240000.0 0.9389425491 0.3469548023
10050239700.0 0.9447686594 0.3314819715
10100239400.0 0.9499180983 0.315673512
10150239100.0 0.954081859 0.3012240994
10200238800.0 0.958222077 0.2862716533
10250238500.0 0.9614450886 0.2728275702
10300238200.0 0.9646259758 0.2589708106
10350237900.0 0.9671679344 0.2458803326
10400237600.0 0.9698587273 0.232273032
10450237300.0 0.9724913624 0.2185978035
10500237000.0 0.9744655666 0.2072542827
10550236700.0 0.9771282823 0.1922002438
10600236400.0 0.9793264479 0.1786547869
10650236100.0 0.9812678322 0.1637179614
10700235800.0 0.9832783076 0.1518439222
10750235500.0 0.9857080868 0.1388303894
10800235200.0 0.9874989798 0.1248750446
10850234900.0 0.9898126245 0.1097818594
10900234600.0 0.9917019176 0.0952991177
10950234300.0 0.9933352613 0.0818149014
11000234000.0 0.9951237459 0.0667567757
11050233700.0 0.9968927102 0.0503122135
11100233400.0 0.9983664509 0.0329836776
11150233100.0 0.9995155444 0.0167875058
11200232800.0 0.9999723577 0.0015139589
11250232500.0 1.0009572 -0.0149169396
11300232200.0 1.001836177 -0.0326102708
11350231900.0 1.00162788 -0.0485585044
11400231600.0 1.001528932 -0.0640778403
11450231300.0 1.000755237 -0.078545505
11500231000.0 0.9999746566 -0.0956387356
11550230700.0 0.9987723739 -0.1085466586
11600230400.0 0.9972729215 -0.1214266066
11650230100.0 0.9951247622 -0.1324396281
11700229800.0 0.9929795407 -0.1476398343
11750229500.0 0.9907285689 -0.1625136545
11800229200.0 0.9881764487 -0.1760211506
11850228900.0 0.9843798055 -0.1884081594
11900228600.0 0.9811413577 -0.1978540978
11950228300.0 0.9776820229 -0.2084837455
12000228000.0 0.9752580834 -0.2169196773
12050227700.0 0.9712180934 -0.2305786214
12100227400.0 0.9681121437 -0.2411768263
12150227100.0 0.9631786841 -0.2580346558
12200226800.0 0.9588818084 -0.2692096035
12250226500.0 0.9556933653 -0.2810190793
12300226200.0 0.9515802762 -0.2943177032
12350225900.0 0.9466916143 -0.3086764248
12400225600.0 0.9426700623 -0.320401301
12450225300.0 0.93751726 -0.3330991545
12500225000.0 0.9324511652 -0.3482978626
12550224700.0 0.9270196099 -0.362380803
12600224400.0 0.9220480283 -0.374964142
12650224100.0 0.9161913425 -0.3895841498
12700223800.0 0.9110140883 -0.4022597687
12750223500.0 0.9052124331 -0.4155131593
12800223200.0 0.9002308081 -0.4276364116
12850222900.0 0.8949034421 -0.4402346027
12900222600.0 0.889277606 -0.452007811
12950222300.0 0.8831030226 -0.4648896848
13000222000.0 0.876627383 -0.4766683983
13050221700.0 0.870240374 -0.4890625103
13100221400.0 0.8635497253 -0.5011226968
13150221100.0 0.8566915561 -0.5130625982
13200220800.0 0.8497303522 -0.5246141043
13250220500.0 0.842503452 -0.5368258366
13300220200.0 0.83485789 -0.5476220369
13350219900.0 0.8270343458 -0.5596652583
13400219600.0 0.818513497 -0.5717678023
13450219300.0 0.8095454492 -0.5852568255
13500219000.0 0.7993435843 -0.5991608857
13550218700.0 0.7889695194 -0.61193175
13600218400.0 0.7792233751 -0.624476737
13650218100.0 0.7693361029 -0.6353828189
13700217800.0 0.7587377261 -0.6474223084
13750217500.0 0.7482913774 -0.658472141
13800217200.0 0.737287248 -0.6702060295
13850216900.0 0.7271146001 -0.6817346848
13900216600.0 0.7164376423 -0.6911148492
13950216300.0 0.7056202811 -0.7005954063
14000216000.0 0.6957838852 -0.7105082419
14050215700.0 0.6861220699 -0.7180768081
14100215400.0 0.6763389896 -0.7274250629
14150215100.0 0.6670441911 -0.7360834008
14200214800.0 0.6575374504 -0.7449238742
14250214500.0 0.6471451067 -0.7543169227
14300214200.0 0.636545162 -0.7637111508
14350213900.0 0.6258116959 -0.7732772524
14400213600.0 0.6137501013 -0.7829362674
14450213300.0 0.600601684 -0.7933013915
14500213000.0 0.5879009187 -0.802989563
14550212700.0 0.5750569991 -0.8127575718
14600212400.0 0.5626795743 -0.8213720996
14650212100.0 0.54989935 -0.8302733895
14700211800.0 0.5359399737 -0.8394576244
14750211500.0 0.5238695165 -0.8479817583
14800211200.0 0.511568811 -0.8557569184
14850210900.0 0.4994614414 -0.8632950633
14900210600.0 0.4862146274 -0.8711594968
14950210300.0 0.4726877999 -0.8788502436
15000210000.0 0.4599523524 -0.8856837701
15050209700.0 0.4478698211 -0.891898873
15100209400.0 0.4351781061 -0.8975483649
15150209100.0 0.4226323099 -0.9029465485
15200208800.0 0.4102606097 -0.908855134
15250208500.0 0.3986412667 -0.913109157
15300208200.0 0.3860541903 -0.9178589709
15350207900.0 0.3733016839 -0.9227697422
15400207600.0 0.358278646 -0.9276007834
15450207300.0 0.3440617827 -0.9327245749
15500207000.0 0.3291734633 -0.9371232857
15550206700.0 0.3145017709 -0.9426986181
15600206400.0 0.2987491121 -0.9470952716
15650206100.0 0.2832951241 -0.9511459276
15700205800.0 0.2693711692 -0.9551271965
15750205500.0 0.2546844755 -0.9585270974
15800205200.0 0.24031589 -0.9619560164
15850204900.0 0.2259798919 -0.9654643507
15900204600.0 0.2108902641 -0.9691963056
15950204300.0 0.1965720794 -0.9718994806
16000204000.0 0.1826875892 -0.9749970321
16050203700.0 0.1677171646 -0.9777767116
16100203400.0 0.1530208785 -0.9799084882
16150203100.0 0.1387177622 -0.9822838471
16200202800.0 0.123902681 -0.9844229536
16250202500.0 0.1097204688 -0.9857442138
16300202200.0 0.0941994825 -0.9872693541
16350201900.0 0.079126441 -0.9889159008
16400201600.0 0.0645927084 -0.9900052682
16450201300.0 0.0492531529 -0.9913285257
16500201000.0 0.0326286161 -0.9922501129
16550200700.0 0.0170578954 -0.9925984151
16600200400.0 0.0015000912 -0.9929518282
16650200100.0 -0.0146495255 -0.992771067
16700199800.0 -0.0308127104 -0.9921591426
16750199500.0 -0.0491109647 -0.9917353945
16800199200.0 -0.0654326501 -0.9911979303
16850198900.0 -0.0809890565 -0.9896644171
16900198600.0 -0.0948677845 -0.9886457814
16950198300.0 -0.1081909873 -0.9876964987
17000198000.0 -0.1211652067 -0.985637049
17050197700.0 -0.133484058 -0.9845666736
17100197400.0 -0.1461748539 -0.9818900586
17150197100.0 -0.159258182 -0.9800719668
17200196800.0 -0.1717003585 -0.9781006746
17250196500.0 -0.1847569174 -0.9759406653
17300196200.0 -0.1969643641 -0.9732489874
17350195900.0 -0.2086544415 -0.9712628479
17400195600.0 -0.2210413166 -0.9686340074
17450195300.0 -0.2341737427 -0.9658926504
17500195000.0 -0.247659903 -0.9626745538
17550194700.0 -0.261640559 -0.9589544251
17600194400.0 -0.2756228729 -0.9551327345
17650194100.0 -0.2892879557 -0.9506750054
17700193800.0 -0.3020284887 -0.9464806534
17750193500.0 -0.316954696 -0.9422657202
17800193200.0 -0.3312404026 -0.9370455104
17850192900.0 -0.3457957481 -0.9318297336
17900192600.0 -0.3611570948 -0.9254988211
17950192300.0 -0.3767268746 -0.91801138
18000192000.0 -0.3915710117 -0.9113164508
18050191700.0 -0.4053602843 -0.9032896458
18100191400.0 -0.4196891068 -0.8957120833
18150191100.0 -0.4346551317 -0.8876593042
18200190800.0 -0.4515115853 -0.8783975522
18250190500.0 -0.4685406685 -0.8690970061
18300190200.0 -0.4837297696 -0.860148997
18350189900.0 -0.4991359667 -0.8522514553
18400189600.0 -0.5135183451 -0.843733752
18450189300.0 -0.5266641565 -0.8359254937
18500189000.0 -0.5398186242 -0.827445663
18550188700.0 -0.5526008986 -0.8200002526
18600188400.0 -0.5644862392 -0.8131843011
18650188100.0 -0.5754893121 -0.8068118956
18700187800.0 -0.5861016795 -0.8004628757
18750187500.0 -0.5969708736 -0.7938780183
18800187200.0 -0.6075785237 -0.7870792671
18850186900.0 -0.6177264585 -0.7799953849
18900186600.0 -0.6278866371 -0.7727207917
18950186300.0 -0.6375768901 -0.765074015
19000186000.0 -0.6451630131 -0.7590152668
19050185700.0 -0.6542630764 -0.7514720363
19100185400.0 -0.6642882056 -0.7432597921
19150185100.0 -0.6741055962 -0.7352469721
19200184800.0 -0.6842482848 -0.7266068655
19250184500.0 -0.6936004606 -0.717339724
19300184200.0 -0.7056752518 -0.7075809946
19350183900.0 -0.7162412405 -0.6977685147
19400183600.0 -0.7254772147 -0.6878176164
19450183300.0 -0.7347444124 -0.6785836754
19500183000.0 -0.7428505309 -0.66819855
19550182700.0 -0.7529619135 -0.6571419188
19600182400.0 -0.7632814169 -0.6456114614
19650182100.0 -0.7742303819 -0.6334635913
19700181800.0 -0.784798279 -0.6199034323
19750181500.0 -0.7953206689 -0.6059100107
19800181200.0 -0.8056199501 -0.5908385894
19850180900.0 -0.8156715495 -0.5756744562
19900180600.0 -0.8233999884 -0.5610416344
19950180300.0 -0.8325039642 -0.5447653092
20000180000.0 -0.8253662182 -0.5465375004
20050179700.0 -0.8337474616 -0.533335194
20100179400.0 -0.8423913662 -0.5201476871
20150179100.0 -0.8506323384 -0.5086859617
20200178800.0 -0.8595647517 -0.4950223943
20250178500.0 -0.8693555295 -0.4818518906
20300178200.0 -0.878271459 -0.4674491095
20350177900.0 -0.8870810361 -0.4529119319
20400177600.0 -0.8963494446 -0.4381673913
20450177300.0 -0.9046891991 -0.4238999391
20500177000.0 -0.9127124995 -0.4097537071
20550176700.0 -0.9205397419 -0.3966647089
20600176400.0 -0.9274175398 -0.3832553981
20650176100.0 -0.9345165918 -0.3710239454
20700175800.0 -0.9403732057 -0.3590621491
20750175500.0 -0.9478345945 -0.3482003032
20800175200.0 -0.9515938398 -0.3370239081
20850174900.0 -0.9572854631 -0.3259418762
20900174600.0 -0.9614735981 -0.314983093
20950174300.0 -0.9650596442 -0.3027494179
21000174000.0 -0.9688687843 -0.2912650512
21050173700.0 -0.9710382102 -0.2804435849
21100173400.0 -0.9752538368 -0.2691345231
21150173100.0 -0.9794899318 -0.2559860884
21200172800.0 -0.983271585 -0.242964771
21250172500.0 -0.9859617881 -0.229382089
21300172200.0 -0.9889703291 -0.2147588294
21350171900.0 -0.9904289394 -0.2004836852
21400171600.0 -0.9922372161 -0.1859630007
21450171300.0 -0.9924264754 -0.1720238813
21500171000.0 -0.9919071883 -0.1566334292
21550170700.0 -0.9922025515 -0.1420882088
21600170400.0 -0.9917861203 -0.1265085913
21650170100.0 -0.9917679205 -0.1105186218
21700169800.0 -0.9895048248 -0.0951183697
21750169500.0 -0.9887348184 -0.0781604034
21800169200.0 -0.9889199016 -0.0625264869
21850168900.0 -0.9875036792 -0.045305861
21900168600.0 -0.9858810116 -0.0291899406
21950168300.0 -0.9843645601 -0.0130465221
22000168000.0 -0.9838392405 0.0017865614
22050167700.0 -0.9839254785 0.0162800026
22100167400.0 -0.9840455447 0.0315708265
22150167100.0 -0.9847695903 0.0470592483
22200166800.0 -0.9846073515 0.0636077721
22250166500.0 -0.9847118188 0.0798147401
22300166200.0 -0.9843482638 0.0972092594
22350165900.0 -0.9824744229 0.1134660242
22400165600.0 -0.9802574566 0.1298118288
22450165300.0 -0.9780972001 0.1438551472
22500165000.0 -0.9777600288 0.1579451379
22550164700.0 -0.9752661158 0.1725406015
22600164400.0 -0.974155588 0.1885340276
22650164100.0 -0.9723492269 0.2037066862
22700163800.0 -0.9691740308 0.2200199946
22750163500.0 -0.9662790818 0.2346946633
22800163200.0 -0.9639618622 0.2477319864
22850162900.0 -0.9618570683 0.2613875503
22900162600.0 -0.9602334054 0.2743441705
22950162300.0 -0.9589734338 0.2870889801
23000162000.0 -0.9578405898 0.2993656377
23050161700.0 -0.9556329466 0.3117885864
23100161400.0 -0.9527998262 0.3245925506
23150161100.0 -0.9501573714 0.3367889882
23200160800.0 -0.9473759243 0.3495370017
23250160500.0 -0.9446776365 0.3602666128
23300160200.0 -0.9424213297 0.3730152167
23350159900.0 -0.9384421798 0.3867909338
23400159600.0 -0.9344770015 0.3992324964
23450159300.0 -0.9289224964 0.4127246213
23500159000.0 -0.9249904473 0.4259253005
23550158700.0 -0.9202208159 0.4394155395
23600158400.0 -0.9147989559 0.4523420777
23650158100.0 -0.9085298499 0.4667545983
23700157800.0 -0.9006625513 0.4805335755
23750157500.0 -0.892536152 0.4946740518
23800157200.0 -0.8835587242 0.5079410153
23850156900.0 -0.8741471443 0.5209840668
23900156600.0 -0.8648908602 0.5331816015
23950156300.0 -0.8566228106 0.5459547801
24000156000.0 -0.8470056579 0.5579690958
24050155700.0 -0.8366058411 0.5691642586
24100155400.0 -0.8269607533 0.5819360875
24150155100.0 -0.8161651512 0.5931885225
24200154800.0 -0.8060773593 0.6041475393
24250154500.0 -0.7941702022 0.6166040215
24300154200.0 -0.7828336619 0.6277648078
24350153900.0 -0.7707850897 0.6385362793
24400153600.0 -0.7586421391 0.6486629612
24450153300.0 -0.7468242767 0.6587418346
24500153000.0 -0.7354128252 0.6683236916
24550152700.0 -0.7239798942 0.678177866
24600152400.0 -0.7126411597 0.6874550744
24650152100.0 -0.7008113812 0.6956775423
