!Created with skrf (http://scikit-rf.org).
# Hz S RI R 50.0 
!freq ReS11 ImS11
300000.0 -0.9739861795 -0.1206063077
50299700.0 -1.000078761 0.0151834448
100299400.0 -0.9979418284 0.0281732455
150299100.0 -1.002699799 0.0449184163
200298800.0 -0.9996212607 0.0583014873
250298500.0 -0.9972578139 0.0718950434
300298200.0 -0.9860046766 0.0877852649
350297900.0 -0.9939073487 0.0985776613
400297600.0 -0.9932245901 0.1151879285
450297300.0 -0.9912258714 0.1289035133
500297000.0 -0.989409727 0.1435277077
550296700.0 -0.9845108651 0.1559749525
600296400.0 -1.017347822 0.1894867207
650296100.0 -0.9821565879 0.1860096076
700295800.0 -0.9792399544 0.2003101043
750295500.0 -0.9764263204 0.2142885178
800295200.0 -0.9732815109 0.2282777963
850294900.0 -0.9697174753 0.2422236306
900294600.0 -0.9657225116 0.2558718449
950294300.0 -0.9620989504 0.2697293171
1000294000.0 -0.9579692083 0.2835399168
1050293700.0 -0.9536746383 0.2974519882
1100293400.0 -0.9493909921 0.3119248252
1150293100.0 -0.9454452656 0.3236336718
1200292800.0 -0.9401298229 0.3378865246
1250292500.0 -0.9346965031 0.3515204494
1300292200.0 -0.9290370696 0.3645678485
1350291900.0 -0.923499307 0.3786975475
1400291600.0 -0.9179336223 0.3918885906
1450291300.0 -0.9126050294 0.4040382715
1500291000.0 -0.9062987513 0.4175573959
1550290700.0 -0.899744414 0.4310986303
1600290400.0 -0.8933500795 0.4437057878
1650290100.0 -0.8867305214 0.4560793014
1700289800.0 -0.8799355309 0.4695267089
1750289500.0 -0.8730208059 0.4817923111
1800289200.0 -0.8656759143 0.4948122478
1850288900.0 -0.8588813145 0.5058734608
1900288600.0 -0.8510308687 0.5187892424
1950288300.0 -0.8427218032 0.5316450746
2000288000.0 -0.835686353 0.5428076972
2050287700.0 -0.8272513002 0.5554339462
2100287400.0 -0.8192236058 0.5670342506
2150287100.0 -0.8106606291 0.5788579885
2200286800.0 -0.803027566 0.5892329604
2250286500.0 -0.7939576934 0.6012591144
2300286200.0 -0.7851972006 0.6129599065
2350285900.0 -0.776638638 0.6237549237
2400285600.0 -0.7677659305 0.6348185539
2450285300.0 -0.7590110063 0.6452415905
2500285000.0 -0.7492049971 0.6565763729
2550284700.0 -0.7402654371 0.6667613309
2600284400.0 -0.7310270551 0.6772093798
2650284100.0 -0.722154103 0.6875433254
2700283800.0 -0.7117130198 0.6981430749
2750283500.0 -0.7011870588 0.7083071926
2800283200.0 -0.6912484212 0.7182431134
2850282900.0 -0.6810577177 0.7283975091
2900282600.0 -0.6707968924 0.7378044078
2950282300.0 -0.660423776 0.7470283337
3000282000.0 -0.649888952 0.7567120762
3050281700.0 -0.6385842664 0.765854786
3100281400.0 -0.6268132584 0.7751259751
3150281100.0 -0.6151198712 0.7843737104
3200280800.0 -0.6034603294 0.7928134531
3250280500.0 -0.5924785372 0.8008117828
3300280200.0 -0.5813063437 0.8087029881
3350279900.0 -0.5696839886 0.8163031803
3400279600.0 -0.5572372486 0.8239971172
3450279300.0 -0.5462464888 0.8311733357
3500279000.0 -0.5343550529 0.8381981896
3550278700.0 -0.5218974185 0.8456689825
3600278400.0 -0.5097438614 0.8524890465
3650278100.0 -0.4967687372 0.8602868031
3700277800.0 -0.4845762391 0.8665926658
3750277500.0 -0.4723577933 0.8731602393
3800277200.0 -0.4597795384 0.8798144848
3850276900.0 -0.4474967113 0.8858399318
3900276600.0 -0.4366698599 0.891351714
3950276300.0 -0.4245416116 0.897551943
4000276000.0 -0.4129499801 0.9035195351
4050275700.0 -0.3998404482 0.909353164
4100275400.0 -0.3889109288 0.914836928
4150275100.0 -0.3758607898 0.9205363608
4200274800.0 -0.3626505453 0.9261329193
4250274500.0 -0.3503997623 0.9312786063
4300274200.0 -0.3375392486 0.9366167231
4350273900.0 -0.3235581728 0.9419021156
4400273600.0 -0.3087502533 0.9470677587
4450273300.0 -0.2934568218 0.9522706907
4500273000.0 -0.2800514545 0.9566690395
4550272700.0 -0.2661009002 0.9608074299
4600272400.0 -0.2506314648 0.9649307077
4650272100.0 -0.2390091789 0.9680429241
4700271800.0 -0.2255968167 0.9716109046
4750271500.0 -0.2140685564 0.9743439248
4800271200.0 -0.2017177159 0.9770095395
4850270900.0 -0.1877227206 0.9797868584
4900270600.0 -0.1738843919 0.9823651213
4950270300.0 -0.1596247251 0.9849092623
5000270000.0 -0.1452610045 0.9870171943
5050269700.0 -0.1316765138 0.988321048
5100269400.0 -0.1178863843 0.9900648313
5150269100.0 -0.1043979529 0.9920165735
5200268800.0 -0.0910292936 0.9928254234
5250268500.0 -0.0782043478 0.9939453055
5300268200.0 -0.0646339189 0.9945092929
5350267900.0 -0.0524450529 0.9949732286
5400267600.0 -0.0363548567 0.9964237538
5450267300.0 -0.0231725707 0.9967311578
5500267000.0 -0.0079563937 0.9971189853
5550266700.0 0.0069396092 0.9972573143
5600266400.0 0.0226288329 0.9971980124
5650266100.0 0.0389918866 0.9968907841
5700265800.0 0.0536057867 0.9960867308
5750265500.0 0.0682722018 0.9951205087
5800265200.0 0.0825954077 0.9944993898
5850264900.0 0.0958423982 0.9931077553
5900264600.0 0.1122192802 0.9913798875
5950264300.0 0.1245140069 0.9901689396
6000264000.0 0.138261648 0.9884468837
6050263700.0 0.1504975582 0.9868678209
6100263400.0 0.1626175203 0.9849809517
6150263100.0 0.1776371109 0.982524072
6200262800.0 0.1875106875 0.9809270825
6250262500.0 0.2002156233 0.9785520486
6300262200.0 0.212945205 0.9759871619
6350261900.0 0.2259654261 0.9731391394
6400261600.0 0.2396743381 0.9698243987
6450261300.0 0.2510049584 0.9670383674
6500261000.0 0.2637829979 0.9633926878
6550260700.0 0.2769052818 0.9595981762
6600260400.0 0.2903910709 0.9553268297
6650260100.0 0.3045103459 0.9513496288
6700259800.0 0.3164442666 0.9467842261
6750259500.0 0.3303253813 0.9420151579
6800259200.0 0.3431005127 0.9368065235
6850258900.0 0.3554059743 0.9316251801
6900258600.0 0.3679356099 0.9266453986
6950258300.0 0.3803143575 0.9212589167
7000258000.0 0.3922696826 0.9159412082
7050257700.0 0.4044933404 0.9098414769
7100257400.0 0.4174480505 0.9036575154
7150257100.0 0.4275528886 0.8983969952
7200256800.0 0.4409133148 0.8918860655
7250256500.0 0.4528201884 0.8856560129
7300256200.0 0.4660396352 0.8789541161
7350255900.0 0.4779116821 0.8717839859
7400255600.0 0.4915741942 0.864571486
7450255300.0 0.5068265845 0.8553922355
7500255000.0 0.5190457995 0.8482681204
7550254700.0 0.5328367331 0.8398212005
7600254400.0 0.5455177942 0.8313598814
7650254100.0 0.5568582296 0.8237250263
7700253800.0 0.5688880064 0.8157222685
7750253500.0 0.5799737066 0.8081458248
7800253200.0 0.5905322943 0.8004588467
7850252900.0 0.6004094019 0.7933876824
7900252600.0 0.6120263374 0.7845743301
7950252300.0 0.6207381632 0.7781073086
8000252000.0 0.6308771745 0.7703060294
8050251700.0 0.6412484934 0.7620196364
8100251400.0 0.6513646845 0.7541702998
8150251100.0 0.6612781101 0.7455472057
8200250800.0 0.6707891185 0.7373298828
8250250500.0 0.6799897548 0.7295868419
8300250200.0 0.6889951959 0.7210922106
8350249900.0 0.6980704041 0.7120019187
8400249600.0 0.7061955569 0.7043727313
8450249300.0 0.7152518211 0.6952201401
8500249000.0 0.7239134534 0.6862547414
8550248700.0 0.7320618624 0.677249146
8600248400.0 0.7405862728 0.6675510989
8650248100.0 0.7483596646 0.6582371491
8700247800.0 0.7578043061 0.6471491563
8750247500.0 0.7662509012 0.636784445
8800247200.0 0.7744027564 0.6264980768
8850246900.0 0.7828954864 0.6151737939
8900246600.0 0.7916313606 0.6036752336
8950246300.0 0.8010366 0.590719333
9000246000.0 0.8100668433 0.5781953938
9050245700.0 0.8189181669 0.5656810191
9100245400.0 0.8275488121 0.5528779492
9150245100.0 0.8368681662 0.539764773
9200244800.0 0.8466569922 0.5247399189
9250244500.0 0.8560068519 0.5094828373
9300244200.0 0.8642330089 0.4950270682
9350243900.0 0.8717579264 0.4813657233
9400243600.0 0.8786105989 0.4691208775
9450243300.0 0.8845347175 0.4577932837
9500243000.0 0.8908404095 0.4457338887
9550242700.0 0.8945277481 0.4382409828
9600242400.0 0.8984234813 0.4307458403
9650242100.0 0.9022825807 0.4243192182
9700241800.0 0.9068556453 0.4159811902
9750241500.0 0.9111310569 0.4081789538
9800241200.0 0.9159157461 0.3990740615
9850240900.0 0.9215696287 0.3873140763
9900240600.0 0.927343719 0.375671809
9950240300.0 0.933776117 0.3594920795
10000240000.0 0.9385204295 0.3476696151
10050239700.0 0.9440863597 0.3327002462
10100239400.0 0.9494156533 0.3168024596
10150239100.0 0.9539842136 0.3016877657
10200238800.0 0.9581674553 0.2866373981
10250238500.0 0.9612864846 0.2732450018
10300238200.0 0.9645647829 0.2592751181
10350237900.0 0.9671847829 0.2463154129
10400237600.0 0.9698441334 0.2328813483
10450237300.0 0.9725521128 0.2190520942
10500237000.0 0.9746255606 0.2067210162
10550236700.0 0.9774438443 0.1924420281
10600236400.0 0.979284493 0.1787612459
10650236100.0 0.9811446381 0.1647653327
10700235800.0 0.9835068564 0.1517496493
10750235500.0 0.9855930597 0.1383174155
10800235200.0 0.9876402639 0.1249411553
10850234900.0 0.9894482924 0.1099313463
10900234600.0 0.9916842252 0.0951009975
10950234300.0 0.9934576342 0.0818835225
11000234000.0 0.995162193 0.0667799447
11050233700.0 0.9970725688 0.0502825783
11100233400.0 0.9983678512 0.032987194
11150233100.0 0.9994561853 0.0165741669
11200232800.0 1.000527244 0.0009058459
11250232500.0 1.001256956 -0.0154441991
11300232200.0 1.001642828 -0.0333734189
11350231900.0 1.001752332 -0.0491606168
11400231600.0 1.001742005 -0.065216176
11450231300.0 1.001149143 -0.0808779533
11500231000.0 0.9997765061 -0.0966612388
11550230700.0 0.9982262086 -0.1101489198
11600230400.0 0.9969859808 -0.1227893931
11650230100.0 0.9954513844 -0.13400292
11700229800.0 0.9932154312 -0.1487297333
11750229500.0 0.9910448731 -0.1625207063
11800229200.0 0.9881800888 -0.1764579745
11850228900.0 0.9847324969 -0.1888890639
11900228600.0 0.9808934867 -0.1988418121
11950228300.0 0.9777628527 -0.2091132235
12000228000.0 0.9752593571 -0.2174047018
12050227700.0 0.9714833395 -0.2301743713
12100227400.0 0.9680551145 -0.2419148001
12150227100.0 0.9636077689 -0.2580029154
12200226800.0 0.9600624523 -0.2693239793
12250226500.0 0.9553830941 -0.2824795082
12300226200.0 0.9506192504 -0.2944455651
12350225900.0 0.9462670601 -0.3082148377
12400225600.0 0.9416736556 -0.321476674
12450225300.0 0.9372060819 -0.3338167144
12500225000.0 0.9320432983 -0.3486893191
12550224700.0 0.9267107348 -0.3626955241
12600224400.0 0.9216750821 -0.3753787717
12650224100.0 0.9158985315 -0.3899194229
12700223800.0 0.9106651711 -0.4026537796
12750223500.0 0.9051447019 -0.4158103049
12800223200.0 0.8996911767 -0.4283396662
12850222900.0 0.8944652667 -0.4403148967
12900222600.0 0.8885749266 -0.4526527281
12950222300.0 0.8820252475 -0.4652632762
13000222000.0 0.8765156372 -0.4765652478
13050221700.0 0.8699170787 -0.489560925
13100221400.0 0.8631779063 -0.5016595062
13150221100.0 0.8561703688 -0.5141076443
13200220800.0 0.8494535686 -0.5254157362
13250220500.0 0.8419677024 -0.5376058505
13300220200.0 0.834668117 -0.548264495
13350219900.0 0.826909905 -0.5601856193
13400219600.0 0.8186461578 -0.5718620918
13450219300.0 0.8091960118 -0.5856316117
13500219000.0 0.7990528339 -0.5991421266
13550218700.0 0.7888285155 -0.611832382
13600218400.0 0.7790046727 -0.6237829086
13650218100.0 0.7692281875 -0.6348099347
13700217800.0 0.7594715285 -0.6469625265
13750217500.0 0.7493833945 -0.6577715893
13800217200.0 0.7376463666 -0.6697519024
13850216900.0 0.7260625527 -0.6809981649
13900216600.0 0.7160676933 -0.6901307334
13950216300.0 0.7055364538 -0.7005452627
14000216000.0 0.6965231695 -0.7097112183
14050215700.0 0.6862248801 -0.7180354435
14100215400.0 0.6763487616 -0.7270765477
14150215100.0 0.6672808527 -0.7356491142
14200214800.0 0.6579640825 -0.7444022775
14250214500.0 0.6475861654 -0.7538530185
14300214200.0 0.6371288488 -0.7633245289
14350213900.0 0.6259245067 -0.7729495536
14400213600.0 0.6141362156 -0.7826506295
14450213300.0 0.6011443122 -0.7930128145
14500213000.0 0.5880413415 -0.8032103455
14550212700.0 0.5758474436 -0.8121070124
14600212400.0 0.5633090231 -0.8210964675
14650212100.0 0.5505057637 -0.8299575685
14700211800.0 0.5365050751 -0.8393358297
14750211500.0 0.5242000584 -0.847527717
14800211200.0 0.511944922 -0.8556760099
14850210900.0 0.4997128475 -0.8631289582
14900210600.0 0.4863678071 -0.8710824172
14950210300.0 0.4731401445 -0.8786507767
15000210000.0 0.4603415641 -0.8853971645
15050209700.0 0.447968829 -0.8915001945
15100209400.0 0.4351488913 -0.8977231041
15150209100.0 0.4234157752 -0.9025226437
15200208800.0 0.4108950274 -0.9084793048
15250208500.0 0.3988951944 -0.9132682996
15300208200.0 0.3866196193 -0.9177015977
15350207900.0 0.3742007075 -0.921737436
15400207600.0 0.3587344453 -0.9280508211
15450207300.0 0.3447333878 -0.9327307584
15500207000.0 0.3299863887 -0.9372209939
15550206700.0 0.3157234598 -0.9426284986
15600206400.0 0.299254764 -0.946867694
15650206100.0 0.2839828902 -0.9507516369
15700205800.0 0.2699327187 -0.9546794852
15750205500.0 0.255326072 -0.9582974514
15800205200.0 0.2411116657 -0.9619284938
15850204900.0 0.2266862964 -0.9652689271
15900204600.0 0.2115182617 -0.968876924
15950204300.0 0.1973251916 -0.9718756896
16000204000.0 0.1829985671 -0.9747342939
16050203700.0 0.1681168651 -0.977619866
16100203400.0 0.1541064146 -0.9804760966
16150203100.0 0.1393244569 -0.9827032164
16200202800.0 0.1246796694 -0.9846644057
16250202500.0 0.1101761726 -0.9857244613
16300202200.0 0.0943687626 -0.9876905475
16350201900.0 0.07950272 -0.9888512565
16400201600.0 0.0645333895 -0.9899773517
16450201300.0 0.0493052549 -0.9912353183
16500201000.0 0.0328263747 -0.9920728139
16550200700.0 0.0170423647 -0.9926499838
16600200400.0 0.0014370358 -0.9928325643
16650200100.0 -0.0145436686 -0.9926952086
16700199800.0 -0.0310308387 -0.9925249856
16750199500.0 -0.0499613397 -0.9917695513
16800199200.0 -0.0656544333 -0.9911423799
16850198900.0 -0.0809062528 -0.9897775133
16900198600.0 -0.0950249287 -0.988931386
16950198300.0 -0.1080722714 -0.9873305752
17000198000.0 -0.1209555936 -0.986677118
17050197700.0 -0.1334187279 -0.9841896754
17100197400.0 -0.1467517458 -0.9823207904
17150197100.0 -0.159368116 -0.9801510845
17200196800.0 -0.1723750313 -0.9782150501
17250196500.0 -0.1848720935 -0.9756303774
17300196200.0 -0.197189466 -0.973383413
17350195900.0 -0.208909596 -0.9713861699
17400195600.0 -0.2211210684 -0.9686895857
17450195300.0 -0.2342982782 -0.9659353713
17500195000.0 -0.2477724904 -0.9625108527
17550194700.0 -0.2615457476 -0.9589855288
17600194400.0 -0.2754000955 -0.9551924643
17650194100.0 -0.2894757716 -0.9505787586
17700193800.0 -0.3024862731 -0.9469059102
17750193500.0 -0.3166314956 -0.942004956
17800193200.0 -0.3309798343 -0.9366584195
17850192900.0 -0.3461770201 -0.9316365491
17900192600.0 -0.3611676632 -0.9255999469
17950192300.0 -0.3768553402 -0.9184601901
18000192000.0 -0.3913974153 -0.9110047823
18050191700.0 -0.4053933029 -0.9032360991
18100191400.0 -0.4196503994 -0.8955173725
18150191100.0 -0.4346521295 -0.8875419761
18200190800.0 -0.4515398107 -0.8783802644
18250190500.0 -0.4685524899 -0.8689472136
18300190200.0 -0.4836254203 -0.8601135469
18350189900.0 -0.4993127244 -0.8518544318
18400189600.0 -0.5131806221 -0.8432897333
18450189300.0 -0.5265982472 -0.8358556794
18500189000.0 -0.5399859107 -0.8276467293
18550188700.0 -0.5530941401 -0.820071985
18600188400.0 -0.5642306332 -0.8131452904
18650188100.0 -0.5755355993 -0.806976538
18700187800.0 -0.5861090607 -0.8002585861
18750187500.0 -0.5970158226 -0.7938269429
18800187200.0 -0.6076080652 -0.7865868477
18850186900.0 -0.617673245 -0.7798916516
18900186600.0 -0.6280341271 -0.7724587299
18950186300.0 -0.6379349157 -0.7651135865
19000186000.0 -0.6450952149 -0.7588576082
19050185700.0 -0.6546834099 -0.7518252694
19100185400.0 -0.6642643486 -0.7434168511
19150185100.0 -0.6740851938 -0.734830242
19200184800.0 -0.6837525377 -0.7264448944
19250184500.0 -0.694790348 -0.7172023701
19300184200.0 -0.7062216832 -0.7077555057
19350183900.0 -0.7156995193 -0.6980715081
19400183600.0 -0.7255668053 -0.6878574837
19450183300.0 -0.7348959963 -0.6783588097
19500183000.0 -0.7432009558 -0.6683958744
19550182700.0 -0.7531029312 -0.6572917617
19600182400.0 -0.763324725 -0.6453651688
19650182100.0 -0.774345142 -0.6332929514
19700181800.0 -0.7848095888 -0.6199789284
19750181500.0 -0.7952483076 -0.6056915806
19800181200.0 -0.805775602 -0.5908666568
19850180900.0 -0.8153810345 -0.5753737409
19900180600.0 -0.8233344752 -0.5609387499
19950180300.0 -0.8325333168 -0.5444694466
20000180000.0 -0.8253210654 -0.5472579556
20050179700.0 -0.8331284654 -0.5341152734
20100179400.0 -0.8416529707 -0.5207550936
20150179100.0 -0.8499191422 -0.5080945967
20200178800.0 -0.8587298843 -0.4963926747
20250178500.0 -0.8683043336 -0.4826275737
20300178200.0 -0.8771556848 -0.4681923039
20350177900.0 -0.8872337168 -0.4538769351
20400177600.0 -0.8960146124 -0.4394440221
20450177300.0 -0.9041499769 -0.4252404872
20500177000.0 -0.9122654663 -0.4112546694
20550176700.0 -0.919783523 -0.3977213797
20600176400.0 -0.9269436977 -0.3848503862
20650176100.0 -0.9333947675 -0.37272565
20700175800.0 -0.9398449073 -0.3603371439
20750175500.0 -0.9465416903 -0.3495617573
20800175200.0 -0.9518037791 -0.3381257518
20850174900.0 -0.9550258762 -0.3263978957
20900174600.0 -0.9603747994 -0.3161647148
20950174300.0 -0.9635833765 -0.3053395681
21000174000.0 -0.9678051895 -0.2939190314
21050173700.0 -0.9702477666 -0.283226061
21100173400.0 -0.974053547 -0.2709600737
21150173100.0 -0.9777484081 -0.2585543503
21200172800.0 -0.9818186769 -0.2454453803
21250172500.0 -0.9844073475 -0.2314124629
21300172200.0 -0.9878149131 -0.2178153407
21350171900.0 -0.9896212367 -0.2033234133
21400171600.0 -0.9910246827 -0.1888778662
21450171300.0 -0.9916918316 -0.1745317316
21500171000.0 -0.9920972012 -0.1589347937
21550170700.0 -0.9912317361 -0.1442019255
21600170400.0 -0.9917442189 -0.1275143294
21650170100.0 -0.9908962284 -0.1120662705
21700169800.0 -0.9896413819 -0.0959258057
21750169500.0 -0.9887876922 -0.0812668374
21800169200.0 -0.9878873957 -0.0662866441
21850168900.0 -0.9878969007 -0.0481413326
21900168600.0 -0.9864963603 -0.0313946214
21950168300.0 -0.985436727 -0.0156104646
22000168000.0 -0.9853016787 -0.0007420059
22050167700.0 -0.9850733116 0.0131953952
22100167400.0 -0.9853550236 0.0283395167
22150167100.0 -0.9861486693 0.0442583524
22200166800.0 -0.9865155123 0.061029532
22250166500.0 -0.9858079936 0.0782904693
22300166200.0 -0.985029521 0.0947787243
22350165900.0 -0.9839323155 0.1105837142
22400165600.0 -0.9818911195 0.1266722012
22450165300.0 -0.9801850375 0.1423909104
22500165000.0 -0.9787240862 0.1559142524
22550164700.0 -0.9771255672 0.1709042723
22600164400.0 -0.9756716137 0.1874026026
22650164100.0 -0.9734675599 0.2013998883
22700163800.0 -0.9708539064 0.2176614326
22750163500.0 -0.9679820788 0.2328268595
22800163200.0 -0.9649279441 0.2453914037
22850162900.0 -0.9626584986 0.2590296379
22900162600.0 -0.9609942802 0.2727362102
22950162300.0 -0.9597819282 0.2855550984
23000162000.0 -0.9584735988 0.2976900904
23050161700.0 -0.9568411077 0.3103320089
23100161400.0 -0.9538234419 0.3231830276
23150161100.0 -0.9507594377 0.3356751979
23200160800.0 -0.9483847997 0.3478724396
23250160500.0 -0.9459548035 0.3598991156
23300160200.0 -0.9430309353 0.3716435919
23350159900.0 -0.9387998503 0.3857123462
23400159600.0 -0.9349629152 0.3990085227
23450159300.0 -0.9296109356 0.4123165652
23500159000.0 -0.9248201503 0.4256012023
23550158700.0 -0.9202103205 0.4390466871
23600158400.0 -0.9151011723 0.4524886486
23650158100.0 -0.9083079118 0.4666798254
23700157800.0 -0.900619342 0.4807786569
23750157500.0 -0.8916174106 0.4952001108
23800157200.0 -0.8826316849 0.5083526653
23850156900.0 -0.8738770726 0.5212910716
23900156600.0 -0.8644149335 0.5341790098
23950156300.0 -0.8547116587 0.5463656114
24000156000.0 -0.8459271408 0.5577435971
24050155700.0 -0.8349055099 0.5706973309
24100155400.0 -0.8250381761 0.5824251809
24150155100.0 -0.8147743501 0.5942469747
24200154800.0 -0.8036323729 0.6055302751
24250154500.0 -0.7929099933 0.6172168249
24300154200.0 -0.7813576648 0.6293107154
24350153900.0 -0.7695533944 0.6397971636
24400153600.0 -0.7574112682 0.6501016668
24450153300.0 -0.7453878784 0.6601278893
24500153000.0 -0.7338126863 0.6696964322
24550152700.0 -0.723008774 0.6793937717
24600152400.0 -0.7105202473 0.6886624349
