!Created with skrf (http://scikit-rf.org).
# Hz S RI R 50.0 
!freq ReS11 ImS11
300000.0 -0.9737686988 -0.1231194925
50299700.0 -0.9999688129 0.0149108803
100299400.0 -0.997856372 0.0277736216
150299100.0 -1.002632282 0.0446844382
200298800.0 -0.9995314777 0.0581732032
250298500.0 -0.9972617571 0.0717141841
300298200.0 -0.9858735269 0.0873374235
350297900.0 -0.9941251435 0.0982933315
400297600.0 -0.9930190153 0.1147156389
450297300.0 -0.9909572664 0.1287814326
500297000.0 -0.9893675897 0.1432917215
550296700.0 -0.9841466223 0.1557537505
600296400.0 -1.017411465 0.1889778355
650296100.0 -0.9821778995 0.1858082272
700295800.0 -0.9792975765 0.1998790348
750295500.0 -0.9763567701 0.2138746115
800295200.0 -0.973020414 0.2280924521
850294900.0 -0.9696215795 0.2416722152
900294600.0 -0.9658798006 0.2555587311
950294300.0 -0.9621738061 0.2691262428
1000294000.0 -0.9581789916 0.2832281981
1050293700.0 -0.9535058875 0.2970619612
1100293400.0 -0.9492859863 0.3114512549
1150293100.0 -0.9452376671 0.3233033221
1200292800.0 -0.9401071129 0.3375347577
1250292500.0 -0.9346235101 0.3510201579
1300292200.0 -0.9290118579 0.3644033842
1350291900.0 -0.9235989711 0.3784529038
1400291600.0 -0.9179469892 0.3914711897
1450291300.0 -0.9126010639 0.4040260305
1500291000.0 -0.9062156672 0.4171861711
1550290700.0 -0.8995180237 0.4306166208
1600290400.0 -0.8933415472 0.4435546065
1650290100.0 -0.886771031 0.4557026167
1700289800.0 -0.8799324885 0.4692043568
1750289500.0 -0.8729503575 0.4815221256
1800289200.0 -0.8656270179 0.494422066
1850288900.0 -0.8587661998 0.5057726412
1900288600.0 -0.8511355556 0.5186974096
1950288300.0 -0.8429065252 0.5313027451
2000288000.0 -0.835346034 0.54272549
2050287700.0 -0.8271545338 0.5552384324
2100287400.0 -0.819350704 0.5666345909
2150287100.0 -0.8108584075 0.5784092965
2200286800.0 -0.8029036592 0.5892610633
2250286500.0 -0.7940094449 0.6012643958
2300286200.0 -0.785360019 0.6127788039
2350285900.0 -0.7767483529 0.6235102266
2400285600.0 -0.7680932813 0.6344894395
2450285300.0 -0.7591364391 0.6449800011
2500285000.0 -0.7490612624 0.6565796812
2550284700.0 -0.7402661644 0.6668667547
2600284400.0 -0.7309952156 0.6768840752
2650284100.0 -0.7224093527 0.6869479872
2700283800.0 -0.7117680141 0.6973524362
2750283500.0 -0.7016379092 0.7081328846
2800283200.0 -0.6915612012 0.7178840609
2850282900.0 -0.6810707575 0.7281732074
2900282600.0 -0.6709469615 0.7379034571
2950282300.0 -0.6602454246 0.7471978838
3000282000.0 -0.6496696711 0.7566583542
3050281700.0 -0.6384104926 0.7658224085
3100281400.0 -0.6269486675 0.7747934621
3150281100.0 -0.6156738356 0.7837860682
3200280800.0 -0.6041553397 0.7922643068
3250280500.0 -0.5932793918 0.80023572
3300280200.0 -0.5815456009 0.8084857128
3350279900.0 -0.5693204615 0.8164662182
3400279600.0 -0.5565484638 0.8244923396
3450279300.0 -0.545298118 0.8316418342
3500279000.0 -0.5336139653 0.8385989853
3550278700.0 -0.5216654294 0.8456415193
3600278400.0 -0.509894027 0.8523823852
3650278100.0 -0.4969807903 0.8596720897
3700277800.0 -0.4845980782 0.8663786757
3750277500.0 -0.4722411177 0.8731680889
3800277200.0 -0.4599285863 0.8796731704
3850276900.0 -0.4477827931 0.8857066304
3900276600.0 -0.4368226267 0.8911381351
3950276300.0 -0.4249494856 0.8971425034
4000276000.0 -0.4131222848 0.9029632953
4050275700.0 -0.4004817428 0.9089499489
4100275400.0 -0.3895274771 0.91429231
4150275100.0 -0.3760239356 0.9202615619
4200274800.0 -0.3628185229 0.926055612
4250274500.0 -0.3502337923 0.9315440896
4300274200.0 -0.3366800661 0.9367204039
4350273900.0 -0.32251136 0.9417670558
4400273600.0 -0.3077017123 0.9472085985
4450273300.0 -0.2929117504 0.9523665248
4500273000.0 -0.279860918 0.9564797193
4550272700.0 -0.2661492236 0.9605600951
4600272400.0 -0.2510460877 0.9647323463
4650272100.0 -0.23976961 0.9677600781
4700271800.0 -0.2269100141 0.9711821245
4750271500.0 -0.215348354 0.9740418528
4800271200.0 -0.203152461 0.9765969014
4850270900.0 -0.1894115978 0.9794579179
4900270600.0 -0.1755210582 0.9819491203
4950270300.0 -0.1608320473 0.9845051388
5000270000.0 -0.1464333414 0.9866009956
5050269700.0 -0.1328862522 0.9883619804
5100269400.0 -0.1188510938 0.9901501304
5150269100.0 -0.1046469221 0.9919071177
5200268800.0 -0.0915312821 0.9924287799
5250268500.0 -0.0783031757 0.9934320465
5300268200.0 -0.0647312936 0.9942608749
5350267900.0 -0.051574468 0.995163042
5400267600.0 -0.0354615531 0.9964227124
5450267300.0 -0.0221578877 0.9966937269
5500267000.0 -0.0066814279 0.9970973427
5550266700.0 0.0082053495 0.9972199474
5600266400.0 0.0238400729 0.9974552625
5650266100.0 0.0404818656 0.9965502673
5700265800.0 0.054849025 0.9959875242
5750265500.0 0.0700645965 0.995386422
5800265200.0 0.0830145049 0.9938582119
5850264900.0 0.0966971765 0.9932884402
5900264600.0 0.1129996239 0.9914028905
5950264300.0 0.1241618692 0.9897011629
6000264000.0 0.1380371952 0.9879828314
6050263700.0 0.1497669669 0.9865894105
6100263400.0 0.1619746951 0.9849281489
6150263100.0 0.1763740189 0.982459875
6200262800.0 0.1857842268 0.9809112783
6250262500.0 0.198375345 0.9787158528
6300262200.0 0.2106929969 0.9762413304
6350261900.0 0.2236100044 0.9735348949
6400261600.0 0.2373145847 0.9702617491
6450261300.0 0.2483782963 0.9678052294
6500261000.0 0.2618589255 0.9642977542
6550260700.0 0.275146657 0.9603910318
6600260400.0 0.2883877247 0.9561226606
6650260100.0 0.3028657884 0.9520924701
6700259800.0 0.3148811705 0.9475517409
6750259500.0 0.3284625178 0.9426661287
6800259200.0 0.3419811651 0.9374075533
6850258900.0 0.3544468154 0.932097346
6900258600.0 0.367245847 0.9270196245
6950258300.0 0.3794811879 0.9216788815
7000258000.0 0.3910175441 0.9162338949
7050257700.0 0.4031479537 0.9105761361
7100257400.0 0.4165346 0.9039725875
7150257100.0 0.4274565666 0.8986033943
7200256800.0 0.4404052573 0.8922005427
7250256500.0 0.4527504058 0.8854118574
7300256200.0 0.4660257393 0.8788632989
7350255900.0 0.4788386663 0.8717510325
7400255600.0 0.4927725113 0.8640135746
7450255300.0 0.5088731459 0.8550677097
7500255000.0 0.5210211502 0.8472817203
7550254700.0 0.5353612652 0.8380700639
7600254400.0 0.5479744009 0.8298862427
7650254100.0 0.5595670162 0.8217398288
7700253800.0 0.5714800553 0.8139199592
7750253500.0 0.5822402776 0.8063956546
7800253200.0 0.5928574949 0.7983995431
7850252900.0 0.6025844987 0.7910016466
7900252600.0 0.6139061483 0.7824614359
7950252300.0 0.6223115814 0.7763153237
8000252000.0 0.6322323934 0.7685759896
8050251700.0 0.6428587248 0.7603439963
8100251400.0 0.6523908257 0.7526232453
8150251100.0 0.6624202141 0.7440729934
8200250800.0 0.6720537242 0.735833227
8250250500.0 0.6808645164 0.7279910182
8300250200.0 0.6897190107 0.7197237299
8350249900.0 0.6992151732 0.7105570006
8400249600.0 0.7071369245 0.7027579586
8450249300.0 0.7159424592 0.6941355435
8500249000.0 0.7244855993 0.6851755889
8550248700.0 0.7327544071 0.6763176615
8600248400.0 0.741120923 0.6666264203
8650248100.0 0.7486808739 0.6571226954
8700247800.0 0.7580924182 0.6461502358
8750247500.0 0.7662198425 0.6361889083
8800247200.0 0.7742028488 0.6259883441
8850246900.0 0.782749377 0.6146413478
8900246600.0 0.7913607364 0.6030367237
8950246300.0 0.8005762079 0.5903968696
9000246000.0 0.8093079453 0.5787222734
9050245700.0 0.8174010117 0.5663596357
9100245400.0 0.8259910911 0.5540296513
9150245100.0 0.8345523753 0.5414393543
9200244800.0 0.8440673306 0.5268255228
9250244500.0 0.8528735817 0.5123481225
9300244200.0 0.8610672754 0.4990271898
9350243900.0 0.8686349896 0.4856468027
9400243600.0 0.875181002 0.4741326109
9450243300.0 0.8807217261 0.4637979818
9500243000.0 0.8871558903 0.4520600648
9550242700.0 0.8910624033 0.4446295113
9600242400.0 0.8954077779 0.4370915789
9650242100.0 0.8995273332 0.4301679921
9700241800.0 0.904811079 0.421291504
9750241500.0 0.9087643005 0.4138975367
9800241200.0 0.9138697477 0.4043170482
9850240900.0 0.9195744558 0.3925310388
9900240600.0 0.9256325236 0.3806888242
9950240300.0 0.9328248708 0.3639152192
10000240000.0 0.9378946949 0.3514683638
10050239700.0 0.9438327052 0.3355009351
10100239400.0 0.9490772153 0.319340794
10150239100.0 0.9539509905 0.3035280858
10200238800.0 0.958250825 0.2878548072
10250238500.0 0.961620848 0.2742651539
10300238200.0 0.964782676 0.260538717
10350237900.0 0.9674132011 0.2470188882
10400237600.0 0.9699333149 0.233820817
10450237300.0 0.9728363165 0.2199004606
10500237000.0 0.9751481183 0.2077932261
10550236700.0 0.9773246031 0.1931290629
10600236400.0 0.9795944552 0.1790839739
10650236100.0 0.9815479267 0.1648804079
10700235800.0 0.9838496741 0.1522079205
10750235500.0 0.9859934664 0.1386175718
10800235200.0 0.98817788 0.1243503855
10850234900.0 0.9900949407 0.1093438385
10900234600.0 0.9918904041 0.0947930658
10950234300.0 0.9937726625 0.0810528619
11000234000.0 0.9956574541 0.0653243911
11050233700.0 0.9973394323 0.0488581107
11100233400.0 0.9988849724 0.0309593724
11150233100.0 0.9997959818 0.01408392
11200232800.0 1.001122229 -0.002011538
11250232500.0 1.001829617 -0.0201012029
11300232200.0 1.002557803 -0.039232631
11350231900.0 1.00220673 -0.0540271063
11400231600.0 1.001968567 -0.0702084596
11450231300.0 1.001566222 -0.0865528209
11500231000.0 1.000057009 -0.1029654978
11550230700.0 0.9981421788 -0.1152122047
11600230400.0 0.9972278956 -0.1284034958
11650230100.0 0.9951818571 -0.1397761216
11700229800.0 0.9926596398 -0.1550133766
11750229500.0 0.9898020835 -0.1690311193
11800229200.0 0.9870798761 -0.1823877587
11850228900.0 0.9833181645 -0.1942209313
11900228600.0 0.9796462201 -0.2036479941
11950228300.0 0.9763988073 -0.2138375816
12000228000.0 0.9733408208 -0.2226200743
12050227700.0 0.9698643656 -0.2344750581
12100227400.0 0.9664380365 -0.2462978298
12150227100.0 0.9611838266 -0.263148804
12200226800.0 0.9574920025 -0.2739743032
12250226500.0 0.9535062517 -0.2866211066
12300226200.0 0.9492124084 -0.2992445469
12350225900.0 0.9443126922 -0.312709679
12400225600.0 0.9402227902 -0.3251201633
12450225300.0 0.9353858597 -0.3375070256
12500225000.0 0.9300263845 -0.3521188902
12550224700.0 0.9246526094 -0.3658708536
12600224400.0 0.9197233112 -0.3786417052
12650224100.0 0.9139116772 -0.392853018
12700223800.0 0.9085579694 -0.4058307669
12750223500.0 0.9030553239 -0.4189126368
12800223200.0 0.8980581758 -0.4313682508
12850222900.0 0.8924195815 -0.443771055
12900222600.0 0.886916474 -0.4558671791
12950222300.0 0.8807088135 -0.4683113669
13000222000.0 0.8751976271 -0.4798875121
13050221700.0 0.8677675714 -0.4925773252
13100221400.0 0.861120764 -0.5052837568
13150221100.0 0.8546262935 -0.5165799038
13200220800.0 0.84740497 -0.5285724708
13250220500.0 0.840081224 -0.5408845258
13300220200.0 0.8326902185 -0.5516894311
13350219900.0 0.8245929259 -0.5636139903
13400219600.0 0.8160040874 -0.575396215
13450219300.0 0.8069491467 -0.58825326
13500219000.0 0.7967248534 -0.6017669193
13550218700.0 0.7872798818 -0.6137696039
13600218400.0 0.7772198 -0.6254334875
13650218100.0 0.7680574835 -0.6361824018
13700217800.0 0.7573456959 -0.6478880863
13750217500.0 0.7481795347 -0.6593197062
13800217200.0 0.736141521 -0.6704811598
13850216900.0 0.7258180111 -0.6813150067
13900216600.0 0.7160246147 -0.6904137638
13950216300.0 0.7049391289 -0.7004249751
14000216000.0 0.6956347473 -0.7090525258
14050215700.0 0.6857651792 -0.717010412
14100215400.0 0.6763480121 -0.7261919216
14150215100.0 0.667770662 -0.7346854429
14200214800.0 0.6580710841 -0.7440906869
14250214500.0 0.6477083973 -0.7534138349
14300214200.0 0.6372093666 -0.7629136884
14350213900.0 0.6261726294 -0.7723725812
14400213600.0 0.614334392 -0.7819565304
14450213300.0 0.6015417147 -0.7925882906
14500213000.0 0.5885184357 -0.8022190168
14550212700.0 0.5759711272 -0.8118881398
14600212400.0 0.5639679289 -0.8206028334
14650212100.0 0.5509334986 -0.8287455845
14700211800.0 0.5370716171 -0.8386789074
14750211500.0 0.5252095467 -0.8475466135
14800211200.0 0.5127348836 -0.8554123678
14850210900.0 0.5000456857 -0.8631104455
14900210600.0 0.4867213847 -0.8710723349
14950210300.0 0.4734217194 -0.8785991979
15000210000.0 0.4605219549 -0.8853278379
15050209700.0 0.4486219752 -0.8912941676
15100209400.0 0.4354343175 -0.8972846336
15150209100.0 0.4237371444 -0.9032180504
15200208800.0 0.41052071 -0.9079773685
15250208500.0 0.3995030867 -0.9120144668
15300208200.0 0.387264628 -0.9172376176
15350207900.0 0.3745914075 -0.9218867106
15400207600.0 0.3591641005 -0.9273498438
15450207300.0 0.3449131114 -0.9329712421
15500207000.0 0.3298311201 -0.9370587626
15550206700.0 0.3156523419 -0.9421215742
15600206400.0 0.2992708803 -0.946537118
15650206100.0 0.2842432557 -0.9504821653
15700205800.0 0.2705966257 -0.954525751
15750205500.0 0.2565300476 -0.95770303
15800205200.0 0.2426385765 -0.9612275617
15850204900.0 0.2282462864 -0.9646122548
15900204600.0 0.213290293 -0.9682745364
15950204300.0 0.1989761927 -0.9713931776
16000204000.0 0.1847779699 -0.9742211309
16050203700.0 0.1694190068 -0.9774200408
16100203400.0 0.154330725 -0.9798201595
16150203100.0 0.139453834 -0.9823990971
16200202800.0 0.1254395909 -0.9837448214
16250202500.0 0.1107666465 -0.9857299957
16300202200.0 0.0949207718 -0.9875583432
16350201900.0 0.0803122283 -0.9888060489
16400201600.0 0.0652188709 -0.9901366068
16450201300.0 0.0499550698 -0.9908883369
16500201000.0 0.0324785946 -0.9919168207
16550200700.0 0.0165621794 -0.9924742302
16600200400.0 0.0006138072 -0.9924923418
16650200100.0 -0.0156418238 -0.9927165638
16700199800.0 -0.0316480604 -0.9923838521
16750199500.0 -0.0510777939 -0.9915350932
16800199200.0 -0.0666670899 -0.9909321736
16850198900.0 -0.0818559509 -0.9900136224
16900198600.0 -0.0965958112 -0.9885944284
16950198300.0 -0.1107143897 -0.9872206342
17000198000.0 -0.1233343487 -0.9863494847
17050197700.0 -0.1359283181 -0.9840664511
17100197400.0 -0.1491983274 -0.981858002
17150197100.0 -0.1617445344 -0.9795534927
17200196800.0 -0.1746383923 -0.9782837168
17250196500.0 -0.1877556157 -0.975485669
17300196200.0 -0.1997634913 -0.9729715651
17350195900.0 -0.2114645913 -0.9706696743
17400195600.0 -0.2234064831 -0.9681973297
17450195300.0 -0.2362492197 -0.9652290941
17500195000.0 -0.2495032826 -0.9620325206
17550194700.0 -0.2633235734 -0.9586212059
17600194400.0 -0.2771132816 -0.9543025443
17650194100.0 -0.2906895202 -0.950367329
17700193800.0 -0.3034812171 -0.9462157969
17750193500.0 -0.3180451139 -0.9413621884
17800193200.0 -0.3319428236 -0.9362864987
17850192900.0 -0.3469344241 -0.9315461252
17900192600.0 -0.361812116 -0.9247805815
17950192300.0 -0.3774095607 -0.9177278487
18000192000.0 -0.3923405989 -0.9106118638
18050191700.0 -0.4059702474 -0.9026943942
18100191400.0 -0.4200627281 -0.8949118406
18150191100.0 -0.4349270786 -0.8869062421
18200190800.0 -0.4518712153 -0.8779649701
18250190500.0 -0.468676753 -0.8682647371
18300190200.0 -0.4842550583 -0.8593339929
18350189900.0 -0.4997797765 -0.8512036653
18400189600.0 -0.5140962773 -0.8427889922
18450189300.0 -0.5276917485 -0.8344527944
18500189000.0 -0.5407236703 -0.82704869
18550188700.0 -0.5536741055 -0.8193753069
18600188400.0 -0.5656863724 -0.8120964132
18650188100.0 -0.5770725314 -0.8052730616
18700187800.0 -0.5879167686 -0.7987642701
18750187500.0 -0.5986405972 -0.7921775518
18800187200.0 -0.6092562947 -0.7853157916
18850186900.0 -0.6195350411 -0.778257583
18900186600.0 -0.6299422186 -0.7709463637
18950186300.0 -0.6400647664 -0.7635644987
19000186000.0 -0.6477469133 -0.7571896643
19050185700.0 -0.6570082299 -0.750107045
19100185400.0 -0.6672143837 -0.7417111784
19150185100.0 -0.677101085 -0.7330597798
19200184800.0 -0.6862748204 -0.7248615072
19250184500.0 -0.6968661155 -0.7159911569
19300184200.0 -0.7080739775 -0.7067742087
19350183900.0 -0.7192519074 -0.6964820501
19400183600.0 -0.7287346056 -0.6868280693
19450183300.0 -0.7377480774 -0.6761369717
19500183000.0 -0.7460800788 -0.6662431646
19550182700.0 -0.7557361739 -0.6554110836
19600182400.0 -0.7655826746 -0.6438512092
19650182100.0 -0.7761615762 -0.6316646018
19700181800.0 -0.7867992835 -0.6184164457
19750181500.0 -0.797230893 -0.6040112567
19800181200.0 -0.8073439983 -0.5892931634
19850180900.0 -0.8169156 -0.5738493495
19900180600.0 -0.8245170939 -0.55962878
19950180300.0 -0.8337406223 -0.5431771484
20000180000.0 -0.8234678823 -0.546968928
20050179700.0 -0.8314848796 -0.5338698779
20100179400.0 -0.8392259016 -0.5217694384
20150179100.0 -0.8475567196 -0.5097270852
20200178800.0 -0.855625531 -0.4974035691
20250178500.0 -0.8644965975 -0.4861917853
20300178200.0 -0.8745429249 -0.472121543
20350177900.0 -0.8841650798 -0.4578674312
20400177600.0 -0.8931870123 -0.4440724453
20450177300.0 -0.9017275221 -0.4295939382
20500177000.0 -0.9099288165 -0.4156165329
20550176700.0 -0.9181876187 -0.4021304448
20600176400.0 -0.9249609853 -0.38964535
20650176100.0 -0.9310828133 -0.3774927166
20700175800.0 -0.9381626607 -0.3650821816
20750175500.0 -0.9442426513 -0.3539505541
20800175200.0 -0.9482291787 -0.3430622326
20850174900.0 -0.9535401492 -0.3328310109
20900174600.0 -0.9582782582 -0.3216960846
20950174300.0 -0.9613206833 -0.3109098447
21000174000.0 -0.963467845 -0.2996084951
21050173700.0 -0.9657249038 -0.2899921905
21100173400.0 -0.9683739365 -0.2787327098
21150173100.0 -0.972762966 -0.2672579211
21200172800.0 -0.9765896147 -0.2539067736
21250172500.0 -0.9802977458 -0.2404830434
21300172200.0 -0.9836813526 -0.2260177734
21350171900.0 -0.9858123386 -0.2123007004
21400171600.0 -0.9876169651 -0.1980790006
21450171300.0 -0.9887887925 -0.1842029256
21500171000.0 -0.989636254 -0.168583657
21550170700.0 -0.989748986 -0.1537022772
21600170400.0 -0.9908569121 -0.1376478202
21650170100.0 -0.9909549843 -0.1229013551
21700169800.0 -0.9897802485 -0.1073700906
21750169500.0 -0.9896547716 -0.0907042267
21800169200.0 -0.990401371 -0.074661349
21850168900.0 -0.9901732423 -0.0580803862
21900168600.0 -0.9901430677 -0.0417409352
21950168300.0 -0.9896980034 -0.0265914254
22000168000.0 -0.9894513781 -0.0107493749
22050167700.0 -0.9902047315 0.0033438706
22100167400.0 -0.9907480686 0.0191869996
22150167100.0 -0.9915397308 0.0352987013
22200166800.0 -0.9918972616 0.0516244089
22250166500.0 -0.9914662303 0.0690098243
22300166200.0 -0.9913927245 0.0848107489
22350165900.0 -0.9897977505 0.1014444063
22400165600.0 -0.9885000268 0.1169385804
22450165300.0 -0.9877772039 0.131778761
22500165000.0 -0.985888194 0.1466118611
22550164700.0 -0.9838933458 0.162919314
22600164400.0 -0.9817952901 0.1790192236
22650164100.0 -0.9780805349 0.1951442109
22700163800.0 -0.9746501455 0.2112152734
22750163500.0 -0.9727751442 0.2259231063
22800163200.0 -0.9696434687 0.2392562834
22850162900.0 -0.9670160675 0.2525836271
22900162600.0 -0.9649753907 0.2664833861
22950162300.0 -0.9631939373 0.2801772422
23000162000.0 -0.9615379233 0.2927391885
23050161700.0 -0.958565272 0.3062434868
23100161400.0 -0.9559364251 0.319482854
23150161100.0 -0.9524508215 0.3328486316
23200160800.0 -0.9498942297 0.3460167018
23250160500.0 -0.9472248872 0.3576172939
23300160200.0 -0.9439557284 0.3705192091
23350159900.0 -0.9400980078 0.385546954
23400159600.0 -0.9346525981 0.3986523611
23450159300.0 -0.9299990892 0.4121098174
23500159000.0 -0.9250088635 0.4258600606
23550158700.0 -0.9202041701 0.4400376636
23600158400.0 -0.9139174385 0.4540171436
23650158100.0 -0.9067735989 0.4687445618
23700157800.0 -0.8980872326 0.4831233613
23750157500.0 -0.8885699314 0.4974330626
23800157200.0 -0.8790285777 0.5108772432
23850156900.0 -0.8689482389 0.5236005643
23900156600.0 -0.8588611705 0.5369678673
23950156300.0 -0.8494481825 0.5486671709
24000156000.0 -0.8402301017 0.5612688163
24050155700.0 -0.8288316241 0.5733301875
24100155400.0 -0.8191469367 0.5861358696
24150155100.0 -0.8079457758 0.5985404486
24200154800.0 -0.7966901025 0.6098861958
24250154500.0 -0.7855799363 0.623015029
24300154200.0 -0.7739731767 0.6344491935
24350153900.0 -0.7619881579 0.6457966237
24400153600.0 -0.7495699009 0.6564232034
24450153300.0 -0.7373438547 0.6664312725
24500153000.0 -0.7256446037 0.676681129
24550152700.0 -0.7148111166 0.6871883834
24600152400.0 -0.7020915047 0.6958496146
24650152100.0 -0.6900268007 0.7043155358
