!Created with skrf (http://scikit-rf.org).
# Hz S RI R 50.0 
!freq ReS11 ImS11
300000.0 -0.986577804 -0.0796526954
50299700.0 -0.9998777499 0.0165303817
100299400.0 -0.9978611535 0.0292590489
150299100.0 -1.002714398 0.0461772371
200298800.0 -0.9995570177 0.0593861993
250298500.0 -0.9972204872 0.0729437072
300298200.0 -0.9856724243 0.0888076797
350297900.0 -0.9937388459 0.0996537075
400297600.0 -0.9927853001 0.1162946107
450297300.0 -0.9905386724 0.1300372685
500297000.0 -0.9890726639 0.1446886766
550296700.0 -0.9838001648 0.1574289405
600296400.0 -1.016802284 0.1906164563
650296100.0 -0.9818187364 0.1872278415
700295800.0 -0.9786808812 0.2013453597
750295500.0 -0.9756413689 0.2155890811
800295200.0 -0.9722497022 0.2293118292
850294900.0 -0.968953877 0.2432790889
900294600.0 -0.9649637777 0.2570973163
950294300.0 -0.9612159452 0.2706160901
1000294000.0 -0.9573477717 0.2845907631
1050293700.0 -0.9529099282 0.2986387683
1100293400.0 -0.9484805666 0.3128696368
1150293100.0 -0.9446438968 0.325005732
1200292800.0 -0.9393588658 0.3390532749
1250292500.0 -0.9339259044 0.352482868
1300292200.0 -0.9281979664 0.3656549429
1350291900.0 -0.9227957215 0.3797432994
1400291600.0 -0.9173147184 0.3927618824
1450291300.0 -0.9118762705 0.4051021337
1500291000.0 -0.9055866508 0.4184059629
1550290700.0 -0.899097382 0.431654122
1600290400.0 -0.8930141564 0.4446125056
1650290100.0 -0.8864516911 0.4566465071
1700289800.0 -0.8793876081 0.4700739297
1750289500.0 -0.8724744437 0.4825361588
1800289200.0 -0.8651358239 0.4952819272
1850288900.0 -0.8583506824 0.5065270409
1900288600.0 -0.850514177 0.5195390666
1950288300.0 -0.8422100345 0.53226332
2000288000.0 -0.8349101793 0.543539781
2050287700.0 -0.8266068062 0.5558199039
2100287400.0 -0.8187861401 0.5675348857
2150287100.0 -0.8100180749 0.5796269828
2200286800.0 -0.8022190729 0.5902019829
2250286500.0 -0.793273781 0.6019356685
2300286200.0 -0.7846234672 0.6136288555
2350285900.0 -0.7756647282 0.624768068
2400285600.0 -0.7667013629 0.6357048448
2450285300.0 -0.7578794723 0.6462952986
2500285000.0 -0.7482023615 0.6574736697
2550284700.0 -0.7390166275 0.6675789448
2600284400.0 -0.7296139204 0.6777927239
2650284100.0 -0.7206767273 0.6884459603
2700283800.0 -0.710255599 0.6987368784
2750283500.0 -0.6999995073 0.7092944772
2800283200.0 -0.6901834466 0.7190976267
2850282900.0 -0.6801544237 0.7291197615
2900282600.0 -0.6693079924 0.7386849954
2950282300.0 -0.6593128629 0.7475583323
3000282000.0 -0.6489348431 0.7573801529
3050281700.0 -0.637626689 0.7664758197
3100281400.0 -0.625838403 0.7754176017
3150281100.0 -0.6142659768 0.7848784148
3200280800.0 -0.602626862 0.7933998685
3250280500.0 -0.5917464794 0.8011969253
3300280200.0 -0.5804831514 0.8090411464
3350279900.0 -0.5692008692 0.8165665589
3400279600.0 -0.5572827657 0.8242612955
3450279300.0 -0.5459242635 0.8315868829
3500279000.0 -0.5340316866 0.8385364657
3550278700.0 -0.5217105953 0.845957534
3600278400.0 -0.5096104024 0.8530563626
3650278100.0 -0.4963553848 0.860710519
3700277800.0 -0.4844596336 0.8672770834
3750277500.0 -0.4721758505 0.8736885395
3800277200.0 -0.4597349145 0.8805857595
3850276900.0 -0.4471084616 0.8863159452
3900276600.0 -0.4361879336 0.892029554
3950276300.0 -0.423550547 0.8979859875
4000276000.0 -0.4114671113 0.9038960384
4050275700.0 -0.3981126312 0.9101486778
4100275400.0 -0.3868697445 0.9153741071
4150275100.0 -0.37407398 0.9210148918
4200274800.0 -0.3610127171 0.9266653196
4250274500.0 -0.3485877509 0.9318774912
4300274200.0 -0.3358728811 0.9368869208
4350273900.0 -0.3218221467 0.9421676451
4400273600.0 -0.3072256632 0.9473485093
4450273300.0 -0.2919693993 0.9523109466
4500273000.0 -0.2785244289 0.9567563751
4550272700.0 -0.2644674707 0.9606580612
4600272400.0 -0.2490275622 0.9649214707
4650272100.0 -0.2371995288 0.9681421923
4700271800.0 -0.2239749308 0.9714500748
4750271500.0 -0.2120034568 0.9743011125
4800271200.0 -0.1991706981 0.9771576476
4850270900.0 -0.1854993657 0.9800154416
4900270600.0 -0.1717099023 0.9821736075
4950270300.0 -0.1579127101 0.9847120287
5000270000.0 -0.143554757 0.9870506197
5050269700.0 -0.1302716164 0.9882515424
5100269400.0 -0.1164391599 0.9901329136
5150269100.0 -0.1030622521 0.9918382425
5200268800.0 -0.0900232913 0.9931394047
5250268500.0 -0.0766647518 0.9938848587
5300268200.0 -0.063628097 0.9945020705
5350267900.0 -0.0515680363 0.9951617325
5400267600.0 -0.035495242 0.9962636305
5450267300.0 -0.0225532307 0.9965717977
5500267000.0 -0.007816455 0.9970508246
5550266700.0 0.0069665836 0.9970283682
5600266400.0 0.0223389726 0.9970693152
5650266100.0 0.038641233 0.9967043243
5700265800.0 0.0529368128 0.9957410454
5750265500.0 0.0679270915 0.9950121151
5800265200.0 0.0819381174 0.994066115
5850264900.0 0.095342042 0.9931270975
5900264600.0 0.1121444795 0.9912301046
5950264300.0 0.1243138136 0.9897473819
6000264000.0 0.1384016688 0.9876948809
6050263700.0 0.15088654 0.9860976949
6100263400.0 0.1637794328 0.9842639101
6150263100.0 0.1786049224 0.9819202472
6200262800.0 0.1889974489 0.979975951
6250262500.0 0.2020401067 0.9775066926
6300262200.0 0.214888312 0.9746637192
6350261900.0 0.2279293314 0.9717278892
6400261600.0 0.2417132475 0.9684634878
6450261300.0 0.2532546809 0.9656184412
6500261000.0 0.2662260562 0.9621577379
6550260700.0 0.2789818179 0.95834049
6600260400.0 0.2924725238 0.9543412182
6650260100.0 0.3061376728 0.9500199515
6700259800.0 0.3180762412 0.9456853713
6750259500.0 0.3315248902 0.9407633968
6800259200.0 0.344749223 0.9359607014
6850258900.0 0.3571210771 0.9311156104
6900258600.0 0.3691825528 0.9260225918
6950258300.0 0.38164714 0.9209743407
7000258000.0 0.3936240474 0.9155245565
7050257700.0 0.405726112 0.9094930436
7100257400.0 0.4186766303 0.9032647763
7150257100.0 0.4291271355 0.8980300687
7200256800.0 0.4418403621 0.8918430652
7250256500.0 0.4536208473 0.8857486041
7300256200.0 0.4664951657 0.8787361932
7350255900.0 0.4784680649 0.8720823297
7400255600.0 0.49142726 0.8651367457
7450255300.0 0.5060422063 0.8559675866
7500255000.0 0.5182026122 0.8493405862
7550254700.0 0.5313821088 0.8409643286
7600254400.0 0.5437307812 0.83272206
7650254100.0 0.5559988601 0.8249529469
7700253800.0 0.5673894918 0.8164364929
7750253500.0 0.5787834526 0.8089204367
7800253200.0 0.5895820643 0.800945122
7850252900.0 0.599540627 0.7937843499
7900252600.0 0.6113548722 0.78496749
7950252300.0 0.6203049108 0.7781096306
8000252000.0 0.6306941648 0.7700627478
8050251700.0 0.6412602778 0.7617506715
8100251400.0 0.6513897813 0.7534840028
8150251100.0 0.6614557993 0.7446754972
8200250800.0 0.6710908253 0.7366094168
8250250500.0 0.6800094584 0.7284732503
8300250200.0 0.6896235596 0.7197367425
8350249900.0 0.6988602561 0.7109511093
8400249600.0 0.7071482732 0.7027478411
8450249300.0 0.7161555299 0.6933389194
8500249000.0 0.7248049983 0.6844485855
8550248700.0 0.733535379 0.675391527
8600248400.0 0.7420364143 0.6657904199
8650248100.0 0.7498345489 0.6564055585
8700247800.0 0.7591698444 0.6455953341
8750247500.0 0.7673813296 0.6356090826
8800247200.0 0.7754196477 0.6254054423
8850246900.0 0.7842739695 0.6141641171
8900246600.0 0.792479191 0.6032629492
8950246300.0 0.8018478589 0.5903572565
9000246000.0 0.8109634807 0.5780438507
9050245700.0 0.8197558808 0.5655545653
9100245400.0 0.8278858712 0.5533274689
9150245100.0 0.8371045903 0.54015692
9200244800.0 0.8461078903 0.5256661183
9250244500.0 0.8555667622 0.5106547609
9300244200.0 0.863730171 0.4964887814
9350243900.0 0.8715690738 0.4826633425
9400243600.0 0.8785304009 0.4698007745
9450243300.0 0.8846729521 0.4575806919
9500243000.0 0.891231556 0.4447692952
9550242700.0 0.8954722469 0.4359195871
9600242400.0 0.8997227317 0.4276550322
9650242100.0 0.9035805565 0.4202944003
9700241800.0 0.9081785943 0.4116652623
9750241500.0 0.9122951996 0.4032344228
9800241200.0 0.9170969876 0.3936969361
9850240900.0 0.9223651369 0.3822922575
9900240600.0 0.9276004164 0.3708566739
9950240300.0 0.9341519709 0.3549346302
10000240000.0 0.938535729 0.3429729957
10050239700.0 0.9441282546 0.3283409364
10100239400.0 0.9492404508 0.3134427668
10150239100.0 0.9535850505 0.2987173931
10200238800.0 0.9579958323 0.2840228674
10250238500.0 0.9613428235 0.270627431
10300238200.0 0.9645352437 0.2566579102
10350237900.0 0.9673694579 0.2437520228
10400237600.0 0.9699431214 0.2304965229
10450237300.0 0.9727746406 0.2168357854
10500237000.0 0.9751848097 0.2045883318
10550236700.0 0.9773574377 0.1910603441
10600236400.0 0.979455582 0.177806896
10650236100.0 0.9815867829 0.1630567513
10700235800.0 0.9838098829 0.1509868097
10750235500.0 0.9858429325 0.1379304404
10800235200.0 0.9878538147 0.1243586968
10850234900.0 0.9897230198 0.1097926071
10900234600.0 0.9916509189 0.0953933825
10950234300.0 0.9933509972 0.0823375205
11000234000.0 0.9950629575 0.0675502361
11050233700.0 0.9965523392 0.0515244504
11100233400.0 0.9978926891 0.0346325833
11150233100.0 0.9990707161 0.0188159233
11200232800.0 0.9996308213 0.0036263736
11250232500.0 1.000452084 -0.0129955694
11300232200.0 1.001192523 -0.0303758135
11350231900.0 1.000719421 -0.0462492744
11400231600.0 1.000222022 -0.0607577467
11450231300.0 0.9991977725 -0.0769551917
11500231000.0 0.9983757089 -0.0930615449
11550230700.0 0.9971439134 -0.106932029
11600230400.0 0.9956768875 -0.1202797942
11650230100.0 0.9934564729 -0.1323792477
11700229800.0 0.9917123904 -0.1465678939
11750229500.0 0.9893659589 -0.1614960856
11800229200.0 0.9866587444 -0.1756634144
11850228900.0 0.9831308612 -0.1885820971
11900228600.0 0.9798561163 -0.1990895234
11950228300.0 0.976869948 -0.2095432199
12000228000.0 0.9739335126 -0.2193650592
12050227700.0 0.9704914391 -0.2314915215
12100227400.0 0.9676795875 -0.2429351334
12150227100.0 0.9627383333 -0.2595899745
12200226800.0 0.9589573203 -0.2702244078
12250226500.0 0.9555756656 -0.2830796686
12300226200.0 0.9513991984 -0.2952302078
12350225900.0 0.9462268698 -0.3098078024
12400225600.0 0.9422670165 -0.3217077551
12450225300.0 0.9377649753 -0.3345864482
12500225000.0 0.9322902065 -0.3489143211
12550224700.0 0.927062973 -0.362245479
12600224400.0 0.9224610907 -0.3746951072
12650224100.0 0.9165965899 -0.3888477871
12700223800.0 0.9116035844 -0.4014031071
12750223500.0 0.9059775772 -0.4143871004
12800223200.0 0.9005920366 -0.4269278199
12850222900.0 0.8950482139 -0.4389902219
12900222600.0 0.8892993797 -0.4513280075
12950222300.0 0.8828422498 -0.4643522442
13000222000.0 0.8770722162 -0.4755761615
13050221700.0 0.8696951137 -0.4889198528
13100221400.0 0.8633286699 -0.5001903392
13150221100.0 0.8563456587 -0.5130069818
13200220800.0 0.8489072095 -0.5249004712
13250220500.0 0.8416164624 -0.5372624685
13300220200.0 0.8340823363 -0.5482071303
13350219900.0 0.8257328398 -0.5604749748
13400219600.0 0.8173895169 -0.5726440539
13450219300.0 0.807916373 -0.5862019304
13500219000.0 0.7977824796 -0.6000866622
13550218700.0 0.7875409286 -0.6125585076
13600218400.0 0.7771813332 -0.6246595146
13650218100.0 0.7676450925 -0.6360489071
13700217800.0 0.7565842384 -0.648005404
13750217500.0 0.7479816164 -0.6594814071
13800217200.0 0.7355181003 -0.6715666743
13850216900.0 0.725279511 -0.6831424442
13900216600.0 0.7156624694 -0.6909924378
13950216300.0 0.7046135713 -0.7018699628
14000216000.0 0.6947356599 -0.7106905015
14050215700.0 0.6852843568 -0.7191107584
14100215400.0 0.6754742958 -0.7287237781
14150215100.0 0.6661505899 -0.7373789715
14200214800.0 0.6570481181 -0.7458697401
14250214500.0 0.6467949553 -0.7550040319
14300214200.0 0.6366242297 -0.7641343599
14350213900.0 0.6254720589 -0.7734666302
14400213600.0 0.6142050295 -0.7829430946
14450213300.0 0.601718219 -0.7926422119
14500213000.0 0.5885146912 -0.8025453827
14550212700.0 0.5760332652 -0.8116319634
14600212400.0 0.5643483784 -0.8203539357
14650212100.0 0.5517714719 -0.8291653535
14700211800.0 0.53701948 -0.8382654235
14750211500.0 0.5252952321 -0.8463405428
14800211200.0 0.5128154391 -0.8548006454
14850210900.0 0.500684014 -0.861999315
14900210600.0 0.4873218238 -0.8701786758
14950210300.0 0.4738998428 -0.8777568877
15000210000.0 0.4611202192 -0.884667839
15050209700.0 0.4481126402 -0.890994521
15100209400.0 0.4347938389 -0.897562044
15150209100.0 0.42243431 -0.902259067
15200208800.0 0.4093938611 -0.9087729213
15250208500.0 0.3975749209 -0.9138174831
15300208200.0 0.3850074212 -0.9179968154
15350207900.0 0.3716277107 -0.9230141746
15400207600.0 0.3568707229 -0.9289422573
15450207300.0 0.3420628733 -0.9336927821
15500207000.0 0.327609175 -0.9389791809
15550206700.0 0.3127150625 -0.9438492428
15600206400.0 0.2971356455 -0.9480115753
15650206100.0 0.2816058406 -0.9520950296
15700205800.0 0.2677404596 -0.9557485715
15750205500.0 0.2534436814 -0.9595430596
15800205200.0 0.2392257812 -0.9627958191
15850204900.0 0.2249773031 -0.9662354806
15900204600.0 0.2101762784 -0.9697232725
15950204300.0 0.1964683394 -0.9726640562
16000204000.0 0.182571004 -0.97534643
16050203700.0 0.1676836768 -0.9783732074
16100203400.0 0.1534397407 -0.9803582978
16150203100.0 0.1394902812 -0.982654595
16200202800.0 0.1253360167 -0.9850137066
16250202500.0 0.1108408173 -0.9862527494
16300202200.0 0.095961049 -0.9878607858
16350201900.0 0.0811689339 -0.9893839124
16400201600.0 0.0669238815 -0.9902761455
16450201300.0 0.0517639975 -0.9915346468
16500201000.0 0.0353946073 -0.9922735159
16550200700.0 0.0196402944 -0.9926891042
16600200400.0 0.0037841773 -0.9928562943
16650200100.0 -0.0124854567 -0.9928753671
16700199800.0 -0.0290083454 -0.9924135925
16750199500.0 -0.0470017101 -0.9919538236
16800199200.0 -0.0635189973 -0.9911452963
16850198900.0 -0.0793035808 -0.9896042304
16900198600.0 -0.093169527 -0.9884664072
16950198300.0 -0.1073949845 -0.9874604838
17000198000.0 -0.1199371849 -0.9856068781
17050197700.0 -0.1337075907 -0.9840596394
17100197400.0 -0.1466735839 -0.9819175234
17150197100.0 -0.1595820568 -0.9802021253
17200196800.0 -0.1728076161 -0.9774848584
17250196500.0 -0.1859089002 -0.9752895638
17300196200.0 -0.1983592047 -0.9729156025
17350195900.0 -0.2105358034 -0.9706231852
17400195600.0 -0.2229659223 -0.9680006804
17450195300.0 -0.2360519633 -0.9651105093
17500195000.0 -0.2495074661 -0.9617166422
17550194700.0 -0.2632440606 -0.9582783022
17600194400.0 -0.2771475582 -0.9544636698
17650194100.0 -0.2913103795 -0.9502449668
17700193800.0 -0.3037777985 -0.9461414373
17750193500.0 -0.3181446445 -0.9414725721
17800193200.0 -0.3321873405 -0.9363177486
17850192900.0 -0.346645646 -0.9315690081
17900192600.0 -0.3615732764 -0.9252731971
17950192300.0 -0.3769243033 -0.9185401468
18000192000.0 -0.3913063122 -0.9114786052
18050191700.0 -0.4053049203 -0.9039841387
18100191400.0 -0.4191251482 -0.8964985656
18150191100.0 -0.433853584 -0.8887945441
18200190800.0 -0.4500600656 -0.8797533449
18250190500.0 -0.466932742 -0.870753259
18300190200.0 -0.4819341383 -0.8624487745
18350189900.0 -0.4968451494 -0.8535855746
18400189600.0 -0.5116284242 -0.8455040756
18450189300.0 -0.5247768564 -0.837483526
18500189000.0 -0.5382419738 -0.8292425839
18550188700.0 -0.5513452126 -0.8213204909
18600188400.0 -0.5634055992 -0.8141873252
18650188100.0 -0.5744476751 -0.8075613531
18700187800.0 -0.5859404069 -0.8003898958
18750187500.0 -0.5966359411 -0.7931720437
18800187200.0 -0.6077597345 -0.785713726
18850186900.0 -0.6184822921 -0.7782359762
18900186600.0 -0.629095481 -0.7705624123
18950186300.0 -0.6395380076 -0.7623736583
19000186000.0 -0.6474104234 -0.7555198486
19050185700.0 -0.6570435069 -0.7478744383
19100185400.0 -0.6677195894 -0.7388742549
19150185100.0 -0.6774826114 -0.7304942398
19200184800.0 -0.6876466639 -0.7220106557
19250184500.0 -0.69739375 -0.7128721964
19300184200.0 -0.708803619 -0.7027923667
19350183900.0 -0.7190938385 -0.6931359463
19400183600.0 -0.7287665601 -0.6830614602
19450183300.0 -0.7374468357 -0.6735802558
19500183000.0 -0.7455621304 -0.6632808181
19550182700.0 -0.7551692051 -0.6520495407
19600182400.0 -0.7655262538 -0.6413624105
19650182100.0 -0.7753606958 -0.6296252557
19700181800.0 -0.7858292929 -0.6167296807
19750181500.0 -0.7956702267 -0.6031754728
19800181200.0 -0.8057885514 -0.5888071674
19850180900.0 -0.8150875521 -0.5740516522
19900180600.0 -0.8226524412 -0.5602510261
19950180300.0 -0.8320676231 -0.5446519121
20000180000.0 -0.8277246287 -0.5449331236
20050179700.0 -0.8354787759 -0.5320287954
20100179400.0 -0.8441345518 -0.5178743326
20150179100.0 -0.8512695209 -0.5060455753
20200178800.0 -0.860163269 -0.492958905
20250178500.0 -0.8685424645 -0.4805497341
20300178200.0 -0.8779767134 -0.4659172508
20350177900.0 -0.8870082439 -0.4515609856
20400177600.0 -0.8955624101 -0.4374360767
20450177300.0 -0.9032883393 -0.4232436259
20500177000.0 -0.9111642874 -0.4094693767
20550176700.0 -0.918814914 -0.3956251375
20600176400.0 -0.9252767259 -0.3820919344
20650176100.0 -0.9319047339 -0.3699623315
20700175800.0 -0.9385327109 -0.3579025832
20750175500.0 -0.9448089405 -0.3447005932
20800175200.0 -0.9499420915 -0.3343007321
20850174900.0 -0.9551070868 -0.3229323021
20900174600.0 -0.9593076677 -0.3106333109
20950174300.0 -0.9640955537 -0.2974700881
21000174000.0 -0.9679940696 -0.2861363885
21050173700.0 -0.9703908451 -0.2756764315
21100173400.0 -0.9749573736 -0.263061784
21150173100.0 -0.9786044592 -0.2498003311
21200172800.0 -0.9815835108 -0.2364368929
21250172500.0 -0.9853459559 -0.2223225976
21300172200.0 -0.9879072435 -0.2082998432
21350171900.0 -0.9900881357 -0.1937181234
21400171600.0 -0.9915723084 -0.1797080191
21450171300.0 -0.9920445244 -0.1658227806
21500171000.0 -0.9924967115 -0.1495087931
21550170700.0 -0.9928632958 -0.1355401964
21600170400.0 -0.9930645032 -0.1207449419
21650170100.0 -0.9919423814 -0.1044956828
21700169800.0 -0.9900561483 -0.0892520408
21750169500.0 -0.9888474857 -0.0727130529
21800169200.0 -0.9893842502 -0.057755094
21850168900.0 -0.988130053 -0.0418445346
21900168600.0 -0.9863879684 -0.0253911275
21950168300.0 -0.9852743845 -0.0098987205
22000168000.0 -0.9842949434 0.0041642536
22050167700.0 -0.9835845969 0.0187618691
22100167400.0 -0.9836484001 0.033680712
22150167100.0 -0.9837743939 0.0490218854
22200166800.0 -0.9840975879 0.0648135245
22250166500.0 -0.9835812396 0.0810771599
22300166200.0 -0.9832056906 0.0980491477
22350165900.0 -0.9813139536 0.113783799
22400165600.0 -0.9790247141 0.1300431361
22450165300.0 -0.9767590638 0.1437241158
22500165000.0 -0.9756315835 0.1585113893
22550164700.0 -0.9747465458 0.1728072714
22600164400.0 -0.972740359 0.1899355243
22650164100.0 -0.9707868819 0.2031337691
22700163800.0 -0.9667748716 0.2189064974
22750163500.0 -0.965662231 0.2341917232
22800163200.0 -0.961832204 0.2473534237
22850162900.0 -0.9598671182 0.2609239473
22900162600.0 -0.957898436 0.2744447438
22950162300.0 -0.9565345113 0.2873896318
23000162000.0 -0.9553819429 0.2993595748
23050161700.0 -0.9531483094 0.3120321877
23100161400.0 -0.9507087804 0.3248185145
23150161100.0 -0.9476219721 0.3371053051
23200160800.0 -0.9453218067 0.349602578
23250160500.0 -0.9421837384 0.3611912143
23300160200.0 -0.9396299967 0.3729700087
23350159900.0 -0.9357656956 0.3857690768
23400159600.0 -0.9309242813 0.3993222572
23450159300.0 -0.9259734654 0.4122329241
23500159000.0 -0.9214033546 0.4244010154
23550158700.0 -0.9173329254 0.437760174
23600158400.0 -0.9115836886 0.4503221688
23650158100.0 -0.9054304298 0.4640302069
23700157800.0 -0.8983556389 0.4776715144
23750157500.0 -0.889894468 0.4910094486
23800157200.0 -0.8815543607 0.5042418478
23850156900.0 -0.8729565313 0.5167746738
23900156600.0 -0.8631873097 0.5292330156
23950156300.0 -0.8545509952 0.5416670219
24000156000.0 -0.8458077667 0.5529047172
24050155700.0 -0.8361336855 0.5653114423
24100155400.0 -0.8255606415 0.5775996569
24150155100.0 -0.8153042329 0.5891785905
24200154800.0 -0.8048225551 0.6004330772
24250154500.0 -0.7943048997 0.6119116096
24300154200.0 -0.7829117548 0.6240185644
24350153900.0 -0.7715770837 0.6347090697
24400153600.0 -0.7595255107 0.6452169284
24450153300.0 -0.7483688829 0.6553903104
24500153000.0 -0.7367726275 0.6655634707
24550152700.0 -0.7259280024 0.6753754559
24600152400.0 -0.7137241508 0.6849163477
24650152100.0 -0.7025806663 0.6942634381
