!Created with skrf (http://scikit-rf.org).
# Hz S RI R 50.0 
!freq ReS11 ImS11
300000.0 -0.9732516965 -0.1234971637
50299700.0 -0.9999900711 0.0149902148
100299400.0 -0.9978843611 0.0277551143
150299100.0 -1.002684103 0.0447933847
200298800.0 -0.9994598394 0.0580250309
250298500.0 -0.9972800992 0.0715160928
300298200.0 -0.9857716317 0.0873439469
350297900.0 -0.9940600925 0.0983764517
400297600.0 -0.9933109304 0.1147785237
450297300.0 -0.9909772977 0.1286677555
500297000.0 -0.9894222269 0.1433813689
550296700.0 -0.9843330452 0.155853658
600296400.0 -1.017359873 0.1891114511
650296100.0 -0.9820951812 0.1856553982
700295800.0 -0.9793378879 0.1998218799
750295500.0 -0.9764224478 0.2138370564
800295200.0 -0.9729434075 0.2280387662
850294900.0 -0.9695500926 0.2418433734
900294600.0 -0.9657546071 0.2554759991
950294300.0 -0.962228455 0.2692222136
1000294000.0 -0.9580700502 0.2833413137
1050293700.0 -0.9535530264 0.2972080007
1100293400.0 -0.9494171455 0.3115462142
1150293100.0 -0.9455309794 0.323263193
1200292800.0 -0.940239956 0.3375115491
1250292500.0 -0.9347602603 0.3513113748
1300292200.0 -0.9290609595 0.3643011932
1350291900.0 -0.9235109598 0.3785249434
1400291600.0 -0.9179877687 0.3916059628
1450291300.0 -0.9126929562 0.4040850184
1500291000.0 -0.9064087585 0.4173188335
1550290700.0 -0.8997226582 0.4305686363
1600290400.0 -0.8935277459 0.4435295432
1650290100.0 -0.886843283 0.4558232838
1700289800.0 -0.8799296296 0.4692997006
1750289500.0 -0.8729731114 0.4814227377
1800289200.0 -0.8657278843 0.4944569303
1850288900.0 -0.8584998012 0.5057333036
1900288600.0 -0.8511553412 0.5188474261
1950288300.0 -0.843020521 0.5311997478
2000288000.0 -0.8356248304 0.542973957
2050287700.0 -0.8273729532 0.5553320104
2100287400.0 -0.8195506628 0.5666017632
2150287100.0 -0.8109886067 0.5785885591
2200286800.0 -0.8030307767 0.5892405145
2250286500.0 -0.7941491304 0.6013481854
2300286200.0 -0.7851825752 0.6129245046
2350285900.0 -0.7769829825 0.6235426178
2400285600.0 -0.7681262324 0.6343172782
2450285300.0 -0.7592262154 0.6450775101
2500285000.0 -0.7490049602 0.6566151111
2550284700.0 -0.7401472455 0.6670552268
2600284400.0 -0.7310669158 0.6767350885
2650284100.0 -0.7224448294 0.6870753868
2700283800.0 -0.71202823 0.6975640702
2750283500.0 -0.7014240718 0.7080798116
2800283200.0 -0.6915811002 0.7179688945
2850282900.0 -0.6812728416 0.7282945406
2900282600.0 -0.6707577013 0.7374480496
2950282300.0 -0.6600949057 0.7473171037
3000282000.0 -0.6496181561 0.7566391371
3050281700.0 -0.6385129894 0.7661392085
3100281400.0 -0.626888641 0.7748812538
3150281100.0 -0.6157298715 0.7839114123
3200280800.0 -0.6042271876 0.7922025828
3250280500.0 -0.593170261 0.8003034417
3300280200.0 -0.5814766892 0.8083751665
3350279900.0 -0.5691808234 0.8165090238
3400279600.0 -0.5566870401 0.8246356584
3450279300.0 -0.5454133301 0.8316249823
3500279000.0 -0.5339992234 0.8385157788
3550278700.0 -0.5215856236 0.8457290607
3600278400.0 -0.5097122136 0.8523978357
3650278100.0 -0.4967884054 0.8597394383
3700277800.0 -0.4848448671 0.8663888791
3750277500.0 -0.4723768489 0.8731598091
3800277200.0 -0.459952911 0.8797763031
3850276900.0 -0.4477511319 0.8853283506
3900276600.0 -0.436884574 0.8914837467
3950276300.0 -0.4248381193 0.8972817241
4000276000.0 -0.4132071957 0.9029979803
4050275700.0 -0.4007562391 0.908841643
4100275400.0 -0.3894342437 0.914418888
4150275100.0 -0.3763605284 0.9202857638
4200274800.0 -0.3628478509 0.9261258014
4250274500.0 -0.3501543614 0.931376847
4300274200.0 -0.3368019916 0.9367674846
4350273900.0 -0.3223591589 0.9421250152
4400273600.0 -0.307792818 0.9471573969
4450273300.0 -0.2928123309 0.9521256626
4500273000.0 -0.2797293441 0.9562957113
4550272700.0 -0.2660137665 0.9608107418
4600272400.0 -0.2510803923 0.9648150974
4650272100.0 -0.2398256169 0.9678029693
4700271800.0 -0.2268304568 0.9711724465
4750271500.0 -0.2151173798 0.9740250727
4800271200.0 -0.2031175885 0.9766366377
4850270900.0 -0.1893877978 0.979515832
4900270600.0 -0.1754856571 0.9819810215
4950270300.0 -0.1608599311 0.9845675802
5000270000.0 -0.1463874062 0.9868647463
5050269700.0 -0.1330002598 0.9884862481
5100269400.0 -0.1185855389 0.9901391331
5150269100.0 -0.1048066225 0.9919052032
5200268800.0 -0.0913770946 0.9926331796
5250268500.0 -0.0780557874 0.9932559122
5300268200.0 -0.0648848305 0.994527917
5350267900.0 -0.0518691742 0.9952737857
5400267600.0 -0.035540567 0.9965295614
5450267300.0 -0.0223421376 0.9966565352
5500267000.0 -0.0069244933 0.9971879494
5550266700.0 0.0080386468 0.9972216806
5600266400.0 0.023825278 0.9970316799
5650266100.0 0.0406044473 0.9969004464
5700265800.0 0.0545190899 0.9956536605
5750265500.0 0.0698421434 0.9953222093
5800265200.0 0.0832027339 0.9940346644
5850264900.0 0.0965786168 0.9931491096
5900264600.0 0.1128097985 0.9911464477
5950264300.0 0.1246720278 0.9898642387
6000264000.0 0.1378429266 0.9878765217
6050263700.0 0.1496159983 0.9870325594
6100263400.0 0.1617749254 0.984791767
6150263100.0 0.1762000292 0.9823824909
6200262800.0 0.1861136737 0.9810463519
6250262500.0 0.1986448771 0.9789087589
6300262200.0 0.2108839078 0.9763741405
6350261900.0 0.2235757789 0.9735430416
6400261600.0 0.237376798 0.9702753441
6450261300.0 0.2485641853 0.967904243
6500261000.0 0.2618533496 0.964077225
6550260700.0 0.2749740787 0.960048124
6600260400.0 0.2886302613 0.9562390873
6650260100.0 0.3023993847 0.9516052575
6700259800.0 0.3147826917 0.947605067
6750259500.0 0.3283558161 0.9424879312
6800259200.0 0.3422004091 0.9374345369
6850258900.0 0.3547335993 0.9323594651
6900258600.0 0.3668562118 0.9268102525
6950258300.0 0.3795408219 0.9217377657
7000258000.0 0.3913204766 0.916185866
7050257700.0 0.4029637767 0.9105491044
7100257400.0 0.4164264742 0.9040012664
7150257100.0 0.4269957074 0.8985524464
7200256800.0 0.4404601273 0.8920439738
7250256500.0 0.4527685076 0.8854785974
7300256200.0 0.4658332385 0.8788800182
7350255900.0 0.4789265329 0.8717180001
7400255600.0 0.4925607958 0.8639289116
7450255300.0 0.5084035436 0.8548333073
7500255000.0 0.521378477 0.847336093
7550254700.0 0.5350157928 0.8380248368
7600254400.0 0.5478572916 0.8299904372
7650254100.0 0.559408643 0.8220704044
7700253800.0 0.5710859397 0.8139804077
7750253500.0 0.5819569194 0.8064317387
7800253200.0 0.5926564464 0.7984598937
7850252900.0 0.6024457362 0.7912235947
7900252600.0 0.6138284619 0.7826022621
7950252300.0 0.6223082108 0.7761973369
8000252000.0 0.6323335046 0.7685135821
8050251700.0 0.6426015885 0.7605983566
8100251400.0 0.6523749679 0.7526165013
8150251100.0 0.6626831965 0.7440914757
8200250800.0 0.6717849281 0.7358513275
8250250500.0 0.6808716703 0.7281232281
8300250200.0 0.6896412377 0.7196435229
8350249900.0 0.6990355889 0.7107614467
8400249600.0 0.7070362828 0.7029780512
8450249300.0 0.7158022523 0.6940210523
8500249000.0 0.7244411971 0.685369208
8550248700.0 0.73272243 0.6762090164
8600248400.0 0.7409719245 0.6668357037
8650248100.0 0.7487572116 0.6574881445
8700247800.0 0.7580044539 0.646437304
8750247500.0 0.7662683227 0.6361865611
8800247200.0 0.7742350575 0.625935533
8850246900.0 0.7829064165 0.6146947593
8900246600.0 0.791228922 0.603072195
8950246300.0 0.800305972 0.590630081
9000246000.0 0.8090979567 0.5786422746
9050245700.0 0.8176614966 0.5663289542
9100245400.0 0.8260695128 0.5542260615
9150245100.0 0.8349687931 0.5412613483
9200244800.0 0.8440509316 0.5268819026
9250244500.0 0.8529529123 0.5121746203
9300244200.0 0.8612135579 0.4988077375
9350243900.0 0.8686693142 0.4856541384
9400243600.0 0.8754392341 0.4741498321
9450243300.0 0.8808222599 0.4636039192
9500243000.0 0.8870523586 0.4520880107
9550242700.0 0.8911844587 0.4444753021
9600242400.0 0.8954287501 0.4369368773
9650242100.0 0.8997947854 0.4299286312
9700241800.0 0.9046274885 0.4215627361
9750241500.0 0.9088831155 0.413917386
9800241200.0 0.9141124103 0.404200187
9850240900.0 0.9196741141 0.3925742564
9900240600.0 0.9260104458 0.3805071235
9950240300.0 0.9328111804 0.3637711374
10000240000.0 0.9377226337 0.3517626108
10050239700.0 0.9441770965 0.3353201556
10100239400.0 0.9491967379 0.3190945769
10150239100.0 0.9540236611 0.3035784587
10200238800.0 0.9582669782 0.2878731644
10250238500.0 0.96162087 0.2743627876
10300238200.0 0.9647519116 0.2606020673
10350237900.0 0.9674383306 0.2474112187
10400237600.0 0.9701151863 0.2338729131
10450237300.0 0.9725233277 0.2204282699
10500237000.0 0.9750977807 0.2075142018
10550236700.0 0.9773692824 0.1934934197
10600236400.0 0.9797818503 0.1793982187
10650236100.0 0.9816040679 0.1647010588
10700235800.0 0.9836108191 0.1525358477
10750235500.0 0.986142529 0.1385335274
10800235200.0 0.9881139724 0.1244121294
10850234900.0 0.9901652121 0.1095695942
10900234600.0 0.9921572425 0.0947853522
10950234300.0 0.9937445326 0.0811090323
11000234000.0 0.9955809169 0.0654113329
11050233700.0 0.997490057 0.0486993111
11100233400.0 0.99889368 0.0310095163
11150233100.0 0.9999850814 0.0142257897
11200232800.0 1.000709384 -0.0014488944
11250232500.0 1.001997104 -0.0200944688
11300232200.0 1.001969146 -0.0378578403
11350231900.0 1.002405541 -0.054489305
11400231600.0 1.001708315 -0.0691908899
11450231300.0 1.000985744 -0.0856726257
11500231000.0 1.000092662 -0.1024763873
11550230700.0 0.9991469956 -0.1144978949
11600230400.0 0.9969336135 -0.1276341279
11650230100.0 0.9948657835 -0.1393189868
11700229800.0 0.9926273304 -0.1549186672
11750229500.0 0.9902895575 -0.1691590517
11800229200.0 0.9874702344 -0.1822716371
11850228900.0 0.9836059716 -0.1939811159
11900228600.0 0.9799059124 -0.2033218119
11950228300.0 0.976303225 -0.2136761728
12000228000.0 0.9737875588 -0.222488093
12050227700.0 0.9695687742 -0.2354337449
12100227400.0 0.966077854 -0.2470114118
12150227100.0 0.9613271445 -0.263450228
12200226800.0 0.9580540859 -0.2733270309
12250226500.0 0.953895281 -0.2864033649
12300226200.0 0.9497609052 -0.2985553484
12350225900.0 0.9447831357 -0.3127065173
12400225600.0 0.9397472661 -0.3247603721
12450225300.0 0.935918957 -0.3371445528
12500225000.0 0.9302509457 -0.3520784955
12550224700.0 0.924682926 -0.3656728379
12600224400.0 0.919862419 -0.3785439375
12650224100.0 0.9139336909 -0.3927994895
12700223800.0 0.9087400259 -0.4055615259
12750223500.0 0.9030904249 -0.4186490698
12800223200.0 0.8978927652 -0.431529592
12850222900.0 0.8925668667 -0.4433805888
12900222600.0 0.8870992926 -0.4549395222
12950222300.0 0.8811162699 -0.4679071664
13000222000.0 0.8749468076 -0.4792845085
13050221700.0 0.8681761735 -0.492289901
13100221400.0 0.8615661517 -0.5052270126
13150221100.0 0.8543962676 -0.5169039443
13200220800.0 0.8475264215 -0.5287482578
13250220500.0 0.8402745492 -0.5404856446
13300220200.0 0.8328633597 -0.5515636125
13350219900.0 0.8246668898 -0.5633692536
13400219600.0 0.8160955684 -0.5751115574
13450219300.0 0.8067167971 -0.5882383399
13500219000.0 0.7971054592 -0.6014422568
13550218700.0 0.7874417439 -0.6134083165
13600218400.0 0.7774845143 -0.6252507515
13650218100.0 0.7680862458 -0.6365209221
13700217800.0 0.7564276778 -0.6478609364
13750217500.0 0.7468561551 -0.6589375442
13800217200.0 0.7364556797 -0.6706893913
13850216900.0 0.7256719347 -0.6816675945
13900216600.0 0.7161657383 -0.6904994964
13950216300.0 0.7058103407 -0.6996358829
14000216000.0 0.6950709102 -0.7091585275
14050215700.0 0.686410943 -0.7169258495
14100215400.0 0.6766807084 -0.7259880483
14150215100.0 0.6675230801 -0.7353729626
14200214800.0 0.6580813644 -0.7438308868
14250214500.0 0.6476543225 -0.7534251423
14300214200.0 0.6371857408 -0.762879305
14350213900.0 0.625840516 -0.7725911207
14400213600.0 0.6142498126 -0.7822619408
14450213300.0 0.60126056 -0.792407257
14500213000.0 0.5881917259 -0.802344839
14550212700.0 0.5751550519 -0.8116699541
14600212400.0 0.5633397795 -0.8204099334
14650212100.0 0.5512557121 -0.8294232059
14700211800.0 0.5370038939 -0.838889198
14750211500.0 0.5251425304 -0.8474607723
14800211200.0 0.5124584084 -0.8555648913
14850210900.0 0.5002039225 -0.8629889343
14900210600.0 0.4867675555 -0.8711117213
14950210300.0 0.4735879811 -0.8786612126
15000210000.0 0.4609521946 -0.885170334
15050209700.0 0.4487242819 -0.891356414
15100209400.0 0.4357426915 -0.897102847
15150209100.0 0.4233538111 -0.9024800533
15200208800.0 0.4107246645 -0.9079327804
15250208500.0 0.4001943962 -0.9121474307
15300208200.0 0.3873145065 -0.9172930498
15350207900.0 0.3747081011 -0.9227211131
15400207600.0 0.3597409113 -0.9277400692
15450207300.0 0.3453261932 -0.9322391265
15500207000.0 0.3313711833 -0.9363479099
15550206700.0 0.315695355 -0.9418480885
15600206400.0 0.3000514239 -0.9464393433
15650206100.0 0.2838887705 -0.9509687586
15700205800.0 0.2708781785 -0.9541165925
15750205500.0 0.2565946165 -0.9578660286
15800205200.0 0.2426013367 -0.9611683631
15850204900.0 0.2283872424 -0.9645959779
15900204600.0 0.2131628902 -0.9682744224
15950204300.0 0.1989431076 -0.9714106137
16000204000.0 0.1845736971 -0.9744526898
16050203700.0 0.1692868397 -0.9776275745
16100203400.0 0.1546062679 -0.9799707625
16150203100.0 0.1398268449 -0.9818738104
16200202800.0 0.1255256699 -0.9839856874
16250202500.0 0.1104572558 -0.9860606451
16300202200.0 0.0954701707 -0.9871387314
16350201900.0 0.0800028971 -0.9889921722
16400201600.0 0.0652385889 -0.9899096551
16450201300.0 0.0498395868 -0.9913318328
16500201000.0 0.0326885479 -0.992117269
16550200700.0 0.0165852868 -0.9924970001
16600200400.0 0.0007924453 -0.9926918604
16650200100.0 -0.0155459732 -0.9928988661
16700199800.0 -0.0321019109 -0.992148227
16750199500.0 -0.0511374725 -0.9915048109
16800199200.0 -0.0669100411 -0.9905994604
16850198900.0 -0.0820706674 -0.9892193182
16900198600.0 -0.0967782375 -0.988180619
16950198300.0 -0.1103266222 -0.9873160616
17000198000.0 -0.1232749873 -0.9856187908
17050197700.0 -0.1363844881 -0.9840984238
17100197400.0 -0.1487046443 -0.9816002537
17150197100.0 -0.1620633438 -0.9799881184
17200196800.0 -0.1742979565 -0.977714817
17250196500.0 -0.1873817927 -0.9753439411
17300196200.0 -0.1996632915 -0.9731272536
17350195900.0 -0.2115732336 -0.970739101
17400195600.0 -0.2233239347 -0.9679663365
17450195300.0 -0.2362170148 -0.9653411466
17500195000.0 -0.2493508917 -0.9619850677
17550194700.0 -0.2634628109 -0.9584271349
17600194400.0 -0.2770127468 -0.954637646
17650194100.0 -0.2906711416 -0.9502931263
17700193800.0 -0.303180577 -0.946512936
17750193500.0 -0.3176149607 -0.9418964387
17800193200.0 -0.3316672205 -0.9359900482
17850192900.0 -0.346733645 -0.930944316
17900192600.0 -0.3623024223 -0.9246078804
17950192300.0 -0.377247519 -0.9178790297
18000192000.0 -0.3920126198 -0.9104484311
18050191700.0 -0.4059476039 -0.9025966411
18100191400.0 -0.4201327247 -0.8949898567
18150191100.0 -0.4349515029 -0.8870471271
18200190800.0 -0.4517677954 -0.8775533557
18250190500.0 -0.4687479827 -0.8683574497
18300190200.0 -0.4841753189 -0.8594722251
18350189900.0 -0.4992631438 -0.8512069253
18400189600.0 -0.5138989942 -0.8423409373
18450189300.0 -0.5275017983 -0.8345221643
18500189000.0 -0.5407852221 -0.8266295129
18550188700.0 -0.5535495375 -0.8189931181
18600188400.0 -0.5654099104 -0.8124739124
18650188100.0 -0.5768286568 -0.8054377969
18700187800.0 -0.5879164287 -0.7987466539
18750187500.0 -0.5987818481 -0.7918894297
18800187200.0 -0.6095288298 -0.785171568
18850186900.0 -0.6195916893 -0.7782193006
18900186600.0 -0.6300374798 -0.7708553851
18950186300.0 -0.640398047 -0.7631692859
19000186000.0 -0.6476252829 -0.7568251948
19050185700.0 -0.6566975019 -0.7498887834
19100185400.0 -0.6672312274 -0.7417579127
19150185100.0 -0.6769609306 -0.7331563016
19200184800.0 -0.6864721535 -0.7249605741
19250184500.0 -0.6966574077 -0.7159717791
19300184200.0 -0.7082368496 -0.7058437695
19350183900.0 -0.718479333 -0.696742449
19400183600.0 -0.7281143524 -0.6863268183
19450183300.0 -0.7371777997 -0.6762702834
19500183000.0 -0.7453487494 -0.6666496232
19550182700.0 -0.7553033955 -0.6558565168
19600182400.0 -0.7652394071 -0.6436182224
19650182100.0 -0.7762941772 -0.6315760217
19700181800.0 -0.7864821604 -0.6184103873
19750181500.0 -0.7970273397 -0.6043789234
19800181200.0 -0.8071939419 -0.5892987946
19850180900.0 -0.81678872 -0.5741390538
19900180600.0 -0.8244215942 -0.5594371458
19950180300.0 -0.8335318347 -0.5433447374
20000180000.0 -0.823925926 -0.5459767554
20050179700.0 -0.8315282701 -0.5341142578
20100179400.0 -0.8385201114 -0.5214709579
20150179100.0 -0.8477933511 -0.5094269195
20200178800.0 -0.8561404395 -0.4975409348
20250178500.0 -0.8653822473 -0.4856009796
20300178200.0 -0.8751494576 -0.4719538234
20350177900.0 -0.8844795872 -0.4576043796
20400177600.0 -0.8935200952 -0.4438059292
20450177300.0 -0.9021641232 -0.4294774962
20500177000.0 -0.9100055486 -0.4154804014
20550176700.0 -0.9178172762 -0.4018162318
20600176400.0 -0.9250590083 -0.3889526718
20650176100.0 -0.9315490599 -0.376795233
20700175800.0 -0.9380402385 -0.3646919853
20750175500.0 -0.9452434819 -0.3536780489
20800175200.0 -0.9490380406 -0.3423953833
20850174900.0 -0.9530047217 -0.3318887633
20900174600.0 -0.9570265007 -0.3206936321
20950174300.0 -0.960425288 -0.3105773756
21000174000.0 -0.9642914006 -0.2995436459
21050173700.0 -0.9664461093 -0.2892765019
21100173400.0 -0.969011134 -0.27839004
21150173100.0 -0.9732912248 -0.2670586155
21200172800.0 -0.9770395508 -0.2537055176
21250172500.0 -0.9802522207 -0.2398566464
21300172200.0 -0.9841074455 -0.2258919143
21350171900.0 -0.985593577 -0.2114033124
21400171600.0 -0.9880684741 -0.1982792034
21450171300.0 -0.9889150659 -0.1835902835
21500171000.0 -0.9888181025 -0.1682169916
21550170700.0 -0.9899804139 -0.1535324995
21600170400.0 -0.9914380861 -0.137607343
21650170100.0 -0.9903699573 -0.1226366862
21700169800.0 -0.9902855022 -0.1077038927
21750169500.0 -0.9911092538 -0.0911296336
21800169200.0 -0.9905519698 -0.0759650622
21850168900.0 -0.9908432175 -0.0583995789
21900168600.0 -0.9889317988 -0.0409371038
21950168300.0 -0.9893047043 -0.0258721383
22000168000.0 -0.9896269064 -0.0107818043
22050167700.0 -0.9899445239 0.0039078419
22100167400.0 -0.9908981315 0.0197710066
22150167100.0 -0.9914633125 0.0360475907
22200166800.0 -0.9920252555 0.0524233526
22250166500.0 -0.9917930196 0.0696003578
22300166200.0 -0.9906972659 0.0869056139
22350165900.0 -0.9899018083 0.1022240875
22400165600.0 -0.9878020317 0.1170312963
22450165300.0 -0.9868995394 0.133537266
22500165000.0 -0.9837499648 0.1471188373
22550164700.0 -0.9844009214 0.1635439336
22600164400.0 -0.9817481445 0.1793589414
22650164100.0 -0.9784197177 0.1954970008
22700163800.0 -0.9757219651 0.2117144273
22750163500.0 -0.9727748367 0.2263328842
22800163200.0 -0.969462576 0.2395650968
22850162900.0 -0.9669271898 0.2529407404
22900162600.0 -0.9649469896 0.2669740886
22950162300.0 -0.9631901578 0.2802895463
23000162000.0 -0.96170741 0.2932820711
23050161700.0 -0.958468862 0.3068144168
23100161400.0 -0.9559702957 0.3201965848
23150161100.0 -0.9517773007 0.3332833786
23200160800.0 -0.9499751859 0.3456649366
23250160500.0 -0.9472647077 0.3583051667
23300160200.0 -0.9438278935 0.3705168983
23350159900.0 -0.9398672833 0.3849542239
23400159600.0 -0.935036219 0.3985454675
23450159300.0 -0.9301876348 0.4120860544
23500159000.0 -0.9247092425 0.4260394444
23550158700.0 -0.9202105374 0.4402261472
23600158400.0 -0.9137813755 0.4540802827
23650158100.0 -0.9067844722 0.4690024843
23700157800.0 -0.898025287 0.4832201088
23750157500.0 -0.8887516257 0.4977443813
23800157200.0 -0.8793055749 0.5108957274
23850156900.0 -0.8692640269 0.5240343664
23900156600.0 -0.8595294326 0.5360022873
23950156300.0 -0.8497129419 0.5495990185
24000156000.0 -0.8397347861 0.5610532173
24050155700.0 -0.8290518553 0.5738639313
24100155400.0 -0.8194137944 0.586418754
24150155100.0 -0.8078401814 0.5982304479
24200154800.0 -0.7972310563 0.6105013167
24250154500.0 -0.7856735777 0.6224198595
24300154200.0 -0.7737900371 0.6342272783
24350153900.0 -0.7619148508 0.6459058704
24400153600.0 -0.7493946432 0.6564352989
24450153300.0 -0.7373851555 0.6668694692
24500153000.0 -0.7254693048 0.6767726337
24550152700.0 -0.7142243337 0.6867700277
24600152400.0 -0.7025211553 0.6963259139
24650152100.0 -0.6909995314 0.7054153604
