!Created with skrf (http://scikit-rf.org).
# Hz S RI R 50.0 
!freq ReS11 ImS11
300000.0 -0.9755939511 -0.11838971
50299700.0 -1.000015897 0.0152998277
100299400.0 -0.9980972 0.0282971588
150299100.0 -1.002776055 0.0451210256
200298800.0 -0.9995557352 0.0584389068
250298500.0 -0.9974761517 0.0717950467
300298200.0 -0.9859201462 0.0877369768
350297900.0 -0.9941374276 0.0987994806
400297600.0 -0.9932574392 0.1152669928
450297300.0 -0.9909015782 0.1291184829
500297000.0 -0.9895196089 0.1438856583
550296700.0 -0.9843630633 0.156357433
600296400.0 -1.017118191 0.1897275401
650296100.0 -0.982152817 0.1861383194
700295800.0 -0.9793718621 0.2004663157
750295500.0 -0.9762585073 0.2144339518
800295200.0 -0.9728988066 0.2287925577
850294900.0 -0.9695872926 0.242425975
900294600.0 -0.9657297197 0.2562266108
950294300.0 -0.9621440258 0.2697388604
1000294000.0 -0.9581454819 0.2836433101
1050293700.0 -0.9536049143 0.2977945837
1100293400.0 -0.9493953595 0.3119902461
1150293100.0 -0.9453762655 0.3240398777
1200292800.0 -0.9401493965 0.3383488737
1250292500.0 -0.9346438658 0.3515688256
1300292200.0 -0.9288423825 0.3648822227
1350291900.0 -0.9234145885 0.3791836527
1400291600.0 -0.9178205419 0.3920314742
1450291300.0 -0.9123921551 0.4044695792
1500291000.0 -0.9062445453 0.4178686445
1550290700.0 -0.8996028486 0.431163496
1600290400.0 -0.8933423267 0.4439723931
1650290100.0 -0.8869385196 0.4562256022
1700289800.0 -0.8798277524 0.4695145932
1750289500.0 -0.8729482101 0.4819627056
1800289200.0 -0.8656033401 0.4949271426
1850288900.0 -0.8586740916 0.5061329999
1900288600.0 -0.8510275759 0.519135186
1950288300.0 -0.8428353349 0.5315787278
2000288000.0 -0.8354099395 0.543212301
2050287700.0 -0.827230052 0.5553267962
2100287400.0 -0.819321482 0.5670108904
2150287100.0 -0.8105405097 0.5791386211
2200286800.0 -0.8030165637 0.5894870754
2250286500.0 -0.7939386305 0.6016556971
2300286200.0 -0.7852058144 0.613235219
2350285900.0 -0.7765984657 0.6240992326
2400285600.0 -0.7674360678 0.6350221764
2450285300.0 -0.7589807411 0.6456127544
2500285000.0 -0.7491453285 0.6567879494
2550284700.0 -0.7402127327 0.6669423296
2600284400.0 -0.7308470922 0.6771353151
2650284100.0 -0.7219121684 0.6877645574
2700283800.0 -0.7112101966 0.6981342894
2750283500.0 -0.7012608119 0.708953454
2800283200.0 -0.6910912019 0.7185295839
2850282900.0 -0.6809302609 0.728539785
2900282600.0 -0.6706005701 0.7380851919
2950282300.0 -0.660409036 0.7474243047
3000282000.0 -0.6498076151 0.7567379093
3050281700.0 -0.6384312337 0.7660022283
3100281400.0 -0.6266527777 0.7754558615
3150281100.0 -0.6149496613 0.7847099127
3200280800.0 -0.6031644315 0.793191388
3250280500.0 -0.5923265236 0.8011409456
3300280200.0 -0.5810279368 0.8087426378
3350279900.0 -0.5694136586 0.8163827342
3400279600.0 -0.5573043578 0.8242951292
3450279300.0 -0.5462836389 0.8312712397
3500279000.0 -0.5340006529 0.8382405121
3550278700.0 -0.5217595277 0.8456996814
3600278400.0 -0.5095037069 0.8527547709
3650278100.0 -0.4963337181 0.8603428427
3700277800.0 -0.4844938296 0.8668918591
3750277500.0 -0.471966248 0.873430343
3800277200.0 -0.4596501745 0.879872036
3850276900.0 -0.4476409482 0.8857858754
3900276600.0 -0.436794935 0.8915670235
3950276300.0 -0.4243569238 0.8975864728
4000276000.0 -0.412429505 0.903589939
4050275700.0 -0.3994904765 0.9096342444
4100275400.0 -0.3882267984 0.9149976352
4150275100.0 -0.3757109885 0.9205031885
4200274800.0 -0.3624387329 0.9261441499
4250274500.0 -0.350226505 0.9312676685
4300274200.0 -0.337209444 0.9368083973
4350273900.0 -0.3233697938 0.9417784273
4400273600.0 -0.3087124722 0.9472941962
4450273300.0 -0.2932860128 0.9523221019
4500273000.0 -0.2796433885 0.9566727569
4550272700.0 -0.2655948012 0.9609685592
4600272400.0 -0.2501810725 0.9651039883
4650272100.0 -0.2384882723 0.9683489108
4700271800.0 -0.225234146 0.9716370488
4750271500.0 -0.2135130971 0.9746966609
4800271200.0 -0.2010331649 0.9772844427
4850270900.0 -0.1870888016 0.9799996925
4900270600.0 -0.173030876 0.9825823628
4950270300.0 -0.1587394251 0.9850671245
5000270000.0 -0.1446633636 0.9871840127
5050269700.0 -0.1312224264 0.9889058248
5100269400.0 -0.1174000343 0.9904182244
5150269100.0 -0.1041994457 0.9922441283
5200268800.0 -0.0908149041 0.9928239119
5250268500.0 -0.0777320113 0.9941672156
5300268200.0 -0.0646425678 0.9945243812
5350267900.0 -0.0520815382 0.9953388457
5400267600.0 -0.0360106034 0.9964426073
5450267300.0 -0.0229812203 0.996875762
5500267000.0 -0.0078713766 0.9971391809
5550266700.0 0.00695734 0.9971490401
5600266400.0 0.0224909971 0.9973865702
5650266100.0 0.038881946 0.9969185542
5700265800.0 0.0536070711 0.9960292246
5750265500.0 0.0688247272 0.9955150139
5800265200.0 0.0824646722 0.9940962408
5850264900.0 0.0960806519 0.9932713853
5900264600.0 0.1126111776 0.9919421385
5950264300.0 0.124672667 0.9900687463
6000264000.0 0.1384521067 0.9882667069
6050263700.0 0.1507783221 0.9866844505
6100263400.0 0.1632823623 0.9849134355
6150263100.0 0.1779463467 0.9825835183
6200262800.0 0.1884355672 0.9808853834
6250262500.0 0.200831149 0.9785637257
6300262200.0 0.2137228998 0.9757328951
6350261900.0 0.2267118301 0.9728240646
6400261600.0 0.2404033457 0.9694051389
6450261300.0 0.2518582048 0.9668591315
6500261000.0 0.2648968743 0.9633343855
6550260700.0 0.2778153392 0.9594400129
6600260400.0 0.29104799 0.9551929451
6650260100.0 0.3049222512 0.9509283635
6700259800.0 0.3169214387 0.9465354627
6750259500.0 0.3309465295 0.9418975423
6800259200.0 0.3441972123 0.9366944655
6850258900.0 0.3561321736 0.9311863481
6900258600.0 0.3682328798 0.9265773931
6950258300.0 0.3805873951 0.9210564034
7000258000.0 0.392789402 0.9159352561
7050257700.0 0.4050357056 0.9096970018
7100257400.0 0.4177683815 0.9035931917
7150257100.0 0.4281613295 0.8982097453
7200256800.0 0.4411718563 0.8919458623
7250256500.0 0.4530141624 0.8854634163
7300256200.0 0.465848919 0.8784967947
7350255900.0 0.478516811 0.8717101356
7400255600.0 0.4917328478 0.8643629338
7450255300.0 0.5067131582 0.8552555519
7500255000.0 0.5188724478 0.8483943367
7550254700.0 0.5329651311 0.839750665
7600254400.0 0.5452942948 0.8313512175
7650254100.0 0.5570756595 0.8237843961
7700253800.0 0.5687793658 0.8159589037
7750253500.0 0.5801321425 0.8080722634
7800253200.0 0.590634738 0.8004573006
7850252900.0 0.600225731 0.7931298641
7900252600.0 0.6119610374 0.7845293488
7950252300.0 0.6207058482 0.7780219208
8000252000.0 0.6309879603 0.7703524358
8050251700.0 0.6413871225 0.7621654675
8100251400.0 0.6515907504 0.7541124301
8150251100.0 0.6615380664 0.7453822221
8200250800.0 0.6713383426 0.7373798436
8250250500.0 0.6798282069 0.7295397036
8300250200.0 0.6896338373 0.7209070721
8350249900.0 0.6978418274 0.7121639605
8400249600.0 0.706374431 0.7043587383
8450249300.0 0.7157850551 0.6948476334
8500249000.0 0.7239513349 0.6861771008
8550248700.0 0.7324475024 0.6770686737
8600248400.0 0.740840413 0.6677781335
8650248100.0 0.7485717469 0.658275051
8700247800.0 0.7580858481 0.6469120799
8750247500.0 0.7664300447 0.6368731972
8800247200.0 0.7745296742 0.6265141304
8850246900.0 0.7836064683 0.6148785624
8900246600.0 0.7917737735 0.6036519992
8950246300.0 0.8013558694 0.5904258598
9000246000.0 0.8107693968 0.5779303607
9050245700.0 0.8196264458 0.5651688678
9100245400.0 0.8282211654 0.5527725377
9150245100.0 0.837463584 0.5388777664
9200244800.0 0.8470356156 0.5239578403
9250244500.0 0.8567117357 0.5085010615
9300244200.0 0.8652899096 0.4939156415
9350243900.0 0.8727574479 0.4801470135
9400243600.0 0.8794344938 0.4679197041
9450243300.0 0.8853789185 0.4561879267
9500243000.0 0.8915968614 0.4440652408
9550242700.0 0.8955557442 0.436589372
9600242400.0 0.8993589683 0.4291339929
9650242100.0 0.9029483848 0.4226475924
9700241800.0 0.9077593394 0.4145946708
9750241500.0 0.9115303226 0.4069592304
9800241200.0 0.9163532517 0.397759679
9850240900.0 0.9222369655 0.3860305581
9900240600.0 0.9278551077 0.3744398079
9950240300.0 0.9341658557 0.3587618246
10000240000.0 0.9389387591 0.3470264176
10050239700.0 0.9447590131 0.3313273076
10100239400.0 0.9500413521 0.3157221774
10150239100.0 0.9543564807 0.3008886915
10200238800.0 0.9583665316 0.2861946844
10250238500.0 0.9616095917 0.2726217313
10300238200.0 0.9647476522 0.258751177
10350237900.0 0.9673416105 0.2457020579
10400237600.0 0.9697813379 0.2323220341
10450237300.0 0.9726447645 0.2190639305
10500237000.0 0.974591307 0.2062636519
10550236700.0 0.9770347507 0.1920298278
10600236400.0 0.9787436975 0.1788443566
10650236100.0 0.9815365807 0.1638627179
10700235800.0 0.9835312253 0.1516406842
10750235500.0 0.9856246592 0.1385125933
10800235200.0 0.9876609825 0.1241360457
10850234900.0 0.9897543372 0.1093834961
10900234600.0 0.991661627 0.0951783447
10950234300.0 0.9934308545 0.0818015992
11000234000.0 0.9952410957 0.0665949495
11050233700.0 0.9969916943 0.05019007
11100233400.0 0.9984186139 0.0326480926
11150233100.0 0.9997846392 0.0167249102
11200232800.0 1.000340692 0.0011826649
11250232500.0 1.001153368 -0.0157890711
11300232200.0 1.001306756 -0.0328126
11350231900.0 1.002000566 -0.0494076532
11400231600.0 1.001502723 -0.0647242464
11450231300.0 1.001496979 -0.0796094634
11500231000.0 1.000107655 -0.0952612147
11550230700.0 0.9987717686 -0.1099556453
11600230400.0 0.9970333088 -0.1227622784
11650230100.0 0.9950454871 -0.1338280629
11700229800.0 0.9930810103 -0.1481054488
11750229500.0 0.9908959063 -0.1625278488
11800229200.0 0.9881516335 -0.1765344923
11850228900.0 0.9846192558 -0.1887780875
11900228600.0 0.9811028057 -0.1984664788
11950228300.0 0.977647195 -0.2085088053
12000228000.0 0.9748290881 -0.2177460801
12050227700.0 0.9713683 -0.2306813286
12100227400.0 0.9680525917 -0.2421151224
12150227100.0 0.9628449445 -0.2587952719
12200226800.0 0.9593050916 -0.2697026186
12250226500.0 0.9557093741 -0.2821774178
12300226200.0 0.9512004887 -0.2947933943
12350225900.0 0.9467015509 -0.3082688929
12400225600.0 0.9419268948 -0.3212536396
12450225300.0 0.9373575662 -0.3344017957
12500225000.0 0.9320534153 -0.3482836271
12550224700.0 0.9267203643 -0.3624907034
12600224400.0 0.9221156675 -0.3755143
12650224100.0 0.916067515 -0.3897622353
12700223800.0 0.9108962755 -0.4026007866
12750223500.0 0.9053333535 -0.4156493614
12800223200.0 0.8998715533 -0.4284238235
12850222900.0 0.8947274855 -0.4405562488
12900222600.0 0.8888274572 -0.4526239565
12950222300.0 0.8825287846 -0.4661511295
13000222000.0 0.8764591976 -0.476818703
13050221700.0 0.869985992 -0.4895539756
13100221400.0 0.8634877703 -0.5015695535
13150221100.0 0.856619214 -0.5136026785
13200220800.0 0.8496091817 -0.5245647904
13250220500.0 0.842382503 -0.5373550845
13300220200.0 0.8349277723 -0.5481120546
13350219900.0 0.8269732012 -0.5600753545
13400219600.0 0.8186180258 -0.5722799562
13450219300.0 0.8089898853 -0.5858796382
13500219000.0 0.7990045979 -0.5995377797
13550218700.0 0.7887162988 -0.6122146478
13600218400.0 0.7790302229 -0.6239607844
13650218100.0 0.7688402816 -0.6356523482
13700217800.0 0.7584378476 -0.6474036915
13750217500.0 0.7483303087 -0.6587556191
13800217200.0 0.7367830582 -0.6703217725
13850216900.0 0.7263934777 -0.6816968025
13900216600.0 0.7162083614 -0.6904357931
13950216300.0 0.7049701053 -0.7016427855
14000216000.0 0.6951007808 -0.7106287394
14050215700.0 0.6853216963 -0.7181985579
14100215400.0 0.6756277258 -0.7282130535
14150215100.0 0.6662338108 -0.7367153473
14200214800.0 0.657102602 -0.7450983241
14250214500.0 0.6468081373 -0.7544546184
14300214200.0 0.6363474844 -0.763946019
14350213900.0 0.6253932708 -0.7735803027
14400213600.0 0.6135155265 -0.7836214545
14450213300.0 0.6004923027 -0.7933616886
14500213000.0 0.5872845313 -0.8034784715
14550212700.0 0.5747895115 -0.8128292706
14600212400.0 0.5625842797 -0.8216817151
14650212100.0 0.5490091473 -0.8304560288
14700211800.0 0.5356185944 -0.8399410698
14750211500.0 0.5234969501 -0.8479409481
14800211200.0 0.5113604573 -0.8561339234
14850210900.0 0.4990546779 -0.8637152027
14900210600.0 0.4859079728 -0.8714102534
14950210300.0 0.472314496 -0.8791400409
15000210000.0 0.459716599 -0.8858365194
15050209700.0 0.4473102581 -0.8921297838
15100209400.0 0.4343243075 -0.898118789
15150209100.0 0.4218150277 -0.903414055
15200208800.0 0.4097642705 -0.9086812137
15250208500.0 0.398320515 -0.9135998672
15300208200.0 0.3859527314 -0.9183088429
15350207900.0 0.3724620379 -0.9228791739
15400207600.0 0.3584606947 -0.9283513492
15450207300.0 0.3434638099 -0.9327477092
15500207000.0 0.3288595807 -0.9381957706
15550206700.0 0.3143329456 -0.942716292
15600206400.0 0.2979819032 -0.9472620056
15650206100.0 0.2830086516 -0.9516738414
15700205800.0 0.2686183779 -0.9551997357
15750205500.0 0.2539640369 -0.9587370373
15800205200.0 0.2395111418 -0.9621640107
15850204900.0 0.2253557794 -0.9654812949
15900204600.0 0.210288499 -0.9691995483
15950204300.0 0.1965164577 -0.9721979709
16000204000.0 0.1820358521 -0.9751499524
16050203700.0 0.1671011174 -0.9779541882
16100203400.0 0.1525373072 -0.9802296009
16150203100.0 0.1379749244 -0.9823572967
16200202800.0 0.1239276928 -0.9845225873
16250202500.0 0.1086885301 -0.9856835507
16300202200.0 0.0934594543 -0.9876725712
16350201900.0 0.0787443145 -0.9893358853
16400201600.0 0.0644097242 -0.9903142481
16450201300.0 0.0488633526 -0.9912162631
16500201000.0 0.0322929451 -0.9921282074
16550200700.0 0.0165253352 -0.9926233148
16600200400.0 0.0010791412 -0.9928178245
16650200100.0 -0.0149654871 -0.9927510253
16700199800.0 -0.031541244 -0.9922875431
16750199500.0 -0.0503015557 -0.991680828
16800199200.0 -0.0660590251 -0.9907723611
16850198900.0 -0.080956679 -0.9896432186
16900198600.0 -0.0949278397 -0.9886025589
16950198300.0 -0.1082155559 -0.9877076902
17000198000.0 -0.1221319791 -0.9862344209
17050197700.0 -0.1342884454 -0.9844200092
17100197400.0 -0.1463301105 -0.9823812751
17150197100.0 -0.1596958108 -0.9800082403
17200196800.0 -0.1719554798 -0.9779496109
17250196500.0 -0.1852522742 -0.9757053578
17300196200.0 -0.1973723647 -0.9733645951
17350195900.0 -0.2093342987 -0.9711037431
17400195600.0 -0.2215150622 -0.9686507571
17450195300.0 -0.2347412291 -0.9657828542
17500195000.0 -0.2479659211 -0.9626586778
17550194700.0 -0.2619636324 -0.9592527033
17600194400.0 -0.2755036017 -0.9550613061
17650194100.0 -0.2895165709 -0.9508722092
17700193800.0 -0.3026605301 -0.9466754256
17750193500.0 -0.3174790841 -0.9424437643
17800193200.0 -0.3315489873 -0.9370935721
17850192900.0 -0.3464489482 -0.9314719841
17900192600.0 -0.3613011542 -0.9253886184
17950192300.0 -0.3771086682 -0.9182729783
18000192000.0 -0.3916359586 -0.9110948753
18050191700.0 -0.4056952661 -0.9034070365
18100191400.0 -0.4199726479 -0.8955537798
18150191100.0 -0.4349230488 -0.8875011827
18200190800.0 -0.4516810739 -0.8782836187
18250190500.0 -0.4687996184 -0.8689281972
18300190200.0 -0.4844248124 -0.8606889287
18350189900.0 -0.4993794479 -0.8518294334
18400189600.0 -0.5138675556 -0.8435213616
18450189300.0 -0.5271561614 -0.835397652
18500189000.0 -0.5405573425 -0.8275126225
18550188700.0 -0.5530606668 -0.8196739197
18600188400.0 -0.5647715917 -0.8130923496
18650188100.0 -0.5759596356 -0.8068126437
18700187800.0 -0.5864189177 -0.8002050914
18750187500.0 -0.5972833181 -0.7934647146
18800187200.0 -0.6078692557 -0.7866777142
18850186900.0 -0.6179935107 -0.7796581772
18900186600.0 -0.6283960121 -0.7722577013
18950186300.0 -0.6384750727 -0.764672242
19000186000.0 -0.6457028262 -0.7590247956
19050185700.0 -0.6547075017 -0.7513080278
19100185400.0 -0.6649601312 -0.7438242798
19150185100.0 -0.6746598981 -0.7347134686
19200184800.0 -0.6842923749 -0.7264343669
19250184500.0 -0.694806811 -0.7168243636
19300184200.0 -0.7062585329 -0.7077132501
19350183900.0 -0.7172937734 -0.6984395515
19400183600.0 -0.7270026155 -0.6882027068
19450183300.0 -0.7355723661 -0.6776274374
19500183000.0 -0.7435390906 -0.6682480882
19550182700.0 -0.7535144437 -0.6570831885
19600182400.0 -0.7631412928 -0.6456392868
19650182100.0 -0.7744051786 -0.6327632257
19700181800.0 -0.785303845 -0.6196656894
19750181500.0 -0.7957041854 -0.6054228819
19800181200.0 -0.8060398074 -0.5905891791
19850180900.0 -0.8158021678 -0.5751564747
19900180600.0 -0.8234714765 -0.5607391568
19950180300.0 -0.8327955152 -0.5441450978
20000180000.0 -0.8259248746 -0.5469860365
20050179700.0 -0.8336149857 -0.5334960903
20100179400.0 -0.8413014984 -0.5200956867
20150179100.0 -0.8500419257 -0.5076587745
20200178800.0 -0.858988836 -0.4946169686
20250178500.0 -0.8690845731 -0.4810622114
20300178200.0 -0.8787213804 -0.4668795664
20350177900.0 -0.8877740311 -0.4526379242
20400177600.0 -0.8961697639 -0.4381309278
20450177300.0 -0.9047523184 -0.4236163908
20500177000.0 -0.9128375513 -0.4094617797
20550176700.0 -0.9207744038 -0.3961368701
20600176400.0 -0.9279531357 -0.3828836715
20650176100.0 -0.9349108437 -0.3706300397
20700175800.0 -0.9413679968 -0.3589056822
20750175500.0 -0.9478803846 -0.3470459364
20800175200.0 -0.9517455306 -0.3361968674
20850174900.0 -0.9561581791 -0.3256810597
20900174600.0 -0.9621585716 -0.3137957536
20950174300.0 -0.9659735793 -0.3025453343
21000174000.0 -0.9692305279 -0.291060018
21050173700.0 -0.9713640934 -0.2802965647
21100173400.0 -0.9756956545 -0.2691686685
21150173100.0 -0.9793758482 -0.2565873582
21200172800.0 -0.9829249215 -0.2431634665
21250172500.0 -0.9863940979 -0.2292690478
21300172200.0 -0.9885169645 -0.2153242456
21350171900.0 -0.9900942832 -0.2013054206
21400171600.0 -0.9921179836 -0.1863941922
21450171300.0 -0.9923145878 -0.172276115
21500171000.0 -0.9918205582 -0.1567652546
21550170700.0 -0.992280344 -0.1408160221
21600170400.0 -0.9925373115 -0.1262273408
21650170100.0 -0.991308775 -0.1095786334
21700169800.0 -0.9901230061 -0.0946534537
21750169500.0 -0.9876413081 -0.0785733831
21800169200.0 -0.9889164699 -0.0627635035
21850168900.0 -0.9878333426 -0.0452991494
21900168600.0 -0.985736841 -0.0294423204
21950168300.0 -0.9847831392 -0.0138140961
22000168000.0 -0.9843935235 0.0019341813
22050167700.0 -0.9839390373 0.0162038003
22100167400.0 -0.9835828446 0.0316210439
22150167100.0 -0.9843481568 0.0469109161
22200166800.0 -0.9855353179 0.0634493084
22250166500.0 -0.984558931 0.0806298216
22300166200.0 -0.9836087937 0.0969737262
22350165900.0 -0.9823251542 0.1134106572
22400165600.0 -0.9812040442 0.1298681205
22450165300.0 -0.9783585295 0.1443666806
22500165000.0 -0.9772231329 0.1578429153
22550164700.0 -0.9758519533 0.1738982265
22600164400.0 -0.9746336785 0.1890371774
22650164100.0 -0.9722202914 0.2032554415
22700163800.0 -0.9685933633 0.2197949027
22750163500.0 -0.9669097753 0.2347515141
22800163200.0 -0.9639198861 0.2476992657
22850162900.0 -0.9616016538 0.2613915325
22900162600.0 -0.9602219915 0.2744537174
22950162300.0 -0.9590453021 0.2871376314
23000162000.0 -0.957819513 0.2989267391
23050161700.0 -0.9560360108 0.3119660391
23100161400.0 -0.9535661959 0.3251483791
23150161100.0 -0.9510026536 0.3372909015
23200160800.0 -0.9474716975 0.3495555977
23250160500.0 -0.9454866944 0.3610901779
23300160200.0 -0.9428645631 0.3741806566
23350159900.0 -0.9384194911 0.386634805
23400159600.0 -0.9339746508 0.4003152183
23450159300.0 -0.9288354004 0.4132106115
23500159000.0 -0.9247825041 0.4259994521
23550158700.0 -0.9195124171 0.4400048208
23600158400.0 -0.9145489777 0.4530132765
23650158100.0 -0.9081357396 0.4672633939
23700157800.0 -0.9003667237 0.481097084
23750157500.0 -0.8919614592 0.4953387813
23800157200.0 -0.8829436095 0.5087116581
23850156900.0 -0.8740573698 0.5213183238
23900156600.0 -0.8648765235 0.5339804188
23950156300.0 -0.8556612974 0.5463004941
24000156000.0 -0.846937258 0.5581847219
24050155700.0 -0.8362881342 0.5699652468
24100155400.0 -0.8268931454 0.5823868107
24150155100.0 -0.8164709355 0.5940228886
24200154800.0 -0.8056550053 0.6051229946
24250154500.0 -0.7942651853 0.6164541547
24300154200.0 -0.7822875001 0.6283026132
24350153900.0 -0.7706438191 0.6391094787
24400153600.0 -0.7585026462 0.6490013105
24450153300.0 -0.7468468526 0.6590766628
24500153000.0 -0.735214372 0.6687575716
24550152700.0 -0.7239235778 0.6787490073
24600152400.0 -0.7125579334 0.6872545096
24650152100.0 -0.7003570745 0.6960886503
