!Created with skrf (http://scikit-rf.org).
# Hz S RI R 50.0 
!freq ReS11 ImS11
300000.0 -0.9736218115 -0.1218355693
50299700.0 -0.9999228229 0.0150430589
100299400.0 -0.9979774011 0.0279405578
150299100.0 -1.002659111 0.0447965791
200298800.0 -0.9994970299 0.0580723297
250298500.0 -0.9972083995 0.0714826562
300298200.0 -0.9860912848 0.0872815784
350297900.0 -0.9938494928 0.0982619836
400297600.0 -0.9930368043 0.1147484192
450297300.0 -0.990842184 0.1287501083
500297000.0 -0.9892821728 0.1435006044
550296700.0 -0.9843784123 0.1557497495
600296400.0 -1.017202474 0.18918759
650296100.0 -0.982104923 0.1859712477
700295800.0 -0.9792304452 0.2001262872
750295500.0 -0.9762513815 0.2140187813
800295200.0 -0.9730207769 0.2280693066
850294900.0 -0.9694890201 0.2416739519
900294600.0 -0.9658148159 0.2556285607
950294300.0 -0.9620594518 0.2692658842
1000294000.0 -0.9581133676 0.2830917282
1050293700.0 -0.9534870791 0.2970981189
1100293400.0 -0.9493568453 0.3114240651
1150293100.0 -0.9455690249 0.3234405464
1200292800.0 -0.9400729936 0.3378211387
1250292500.0 -0.9346997392 0.3513331241
1300292200.0 -0.9290864217 0.364367825
1350291900.0 -0.9234788624 0.3785143628
1400291600.0 -0.9179189716 0.391593422
1450291300.0 -0.912617458 0.4038888568
1500291000.0 -0.906210128 0.417192299
1550290700.0 -0.8996898948 0.4307157682
1600290400.0 -0.8934609162 0.4435262399
1650290100.0 -0.8869773274 0.4556650729
1700289800.0 -0.8798847839 0.4693102243
1750289500.0 -0.8731000341 0.4815350275
1800289200.0 -0.8655799009 0.4943330893
1850288900.0 -0.8586301753 0.5056406843
1900288600.0 -0.8510627761 0.5185642044
1950288300.0 -0.8429582942 0.5313647784
2000288000.0 -0.835339473 0.5424630635
2050287700.0 -0.8270545471 0.5551580417
2100287400.0 -0.8191399733 0.5665509241
2150287100.0 -0.8109813318 0.578576506
2200286800.0 -0.802935001 0.5892516861
2250286500.0 -0.7940889449 0.6014042607
2300286200.0 -0.7854185059 0.6128373738
2350285900.0 -0.7768673309 0.6234625199
2400285600.0 -0.7678829955 0.6343335643
2450285300.0 -0.7589244678 0.6451591852
2500285000.0 -0.749070478 0.6566279151
2550284700.0 -0.7400530196 0.667007306
2600284400.0 -0.7310458281 0.6768932564
2650284100.0 -0.7221397721 0.6869526595
2700283800.0 -0.7117725194 0.6975592265
2750283500.0 -0.7014446973 0.7079615347
2800283200.0 -0.6914913853 0.717861672
2850282900.0 -0.6811104813 0.7281737226
2900282600.0 -0.6706977003 0.7379129988
2950282300.0 -0.660313165 0.7473095496
3000282000.0 -0.6495289445 0.7565644368
3050281700.0 -0.6384167415 0.7659738967
3100281400.0 -0.6268836314 0.7750365053
3150281100.0 -0.6156333513 0.7839412425
3200280800.0 -0.6040168854 0.7923054258
3250280500.0 -0.5928943423 0.8002502879
3300280200.0 -0.5814489363 0.8083197991
3350279900.0 -0.569141803 0.8165607175
3400279600.0 -0.5566127228 0.8245885675
3450279300.0 -0.5453085479 0.8315815941
3500279000.0 -0.5336032275 0.8385010323
3550278700.0 -0.5216678034 0.8454846003
3600278400.0 -0.5098674394 0.8525494432
3650278100.0 -0.4967916536 0.8599755508
3700277800.0 -0.4846709672 0.8664995458
3750277500.0 -0.4723919525 0.873149206
3800277200.0 -0.4596286179 0.879851498
3850276900.0 -0.4477577578 0.8857126011
3900276600.0 -0.4368806821 0.8911586335
3950276300.0 -0.4247953146 0.8970242799
4000276000.0 -0.413083486 0.9031132954
4050275700.0 -0.4004791392 0.9091257392
4100275400.0 -0.3894245211 0.9143461797
4150275100.0 -0.3760784432 0.9203069003
4200274800.0 -0.3626024561 0.9261167335
4250274500.0 -0.3500196546 0.9314046395
4300274200.0 -0.3366409204 0.9369389499
4350273900.0 -0.3225550588 0.9420076604
4400273600.0 -0.3077635369 0.9473567275
4450273300.0 -0.2928425196 0.952082426
4500273000.0 -0.2797617025 0.9564184986
4550272700.0 -0.2660319428 0.9604502544
4600272400.0 -0.251159398 0.9646297944
4650272100.0 -0.2396964653 0.9678328522
4700271800.0 -0.2266877405 0.9709780236
4750271500.0 -0.215268087 0.9741021408
4800271200.0 -0.2027862562 0.9766721601
4850270900.0 -0.1891455503 0.979507517
4900270600.0 -0.1752679396 0.9819955624
4950270300.0 -0.1606719182 0.9845941343
5000270000.0 -0.1462857171 0.9865138865
5050269700.0 -0.1329006201 0.9883571198
5100269400.0 -0.118814778 0.9904151721
5150269100.0 -0.10463269 0.9919336327
5200268800.0 -0.0912934957 0.9931832495
5250268500.0 -0.0781485626 0.9939773862
5300268200.0 -0.0647143191 0.9944529486
5350267900.0 -0.0516236114 0.9952268007
5400267600.0 -0.0355139372 0.9964001028
5450267300.0 -0.0221436278 0.9965768809
5500267000.0 -0.0068608265 0.997152499
5550266700.0 0.0079381352 0.9969338444
5600266400.0 0.0239202681 0.9972583652
5650266100.0 0.0403884358 0.9968263817
5700265800.0 0.0545901201 0.9960018149
5750265500.0 0.0698159418 0.9952253627
5800265200.0 0.0834248654 0.9944770232
5850264900.0 0.0965699458 0.9931063597
5900264600.0 0.1127786194 0.9909717492
5950264300.0 0.1244869899 0.9896250964
6000264000.0 0.1381764056 0.9880235779
6050263700.0 0.1498163712 0.9863834481
6100263400.0 0.1617283826 0.9848732667
6150263100.0 0.1765628922 0.9826904204
6200262800.0 0.1860075306 0.9808506864
6250262500.0 0.1988252946 0.9788391766
6300262200.0 0.2109124494 0.9761266022
6350261900.0 0.2239217164 0.9733044433
6400261600.0 0.2377117787 0.9702150962
6450261300.0 0.2486913881 0.9677102545
6500261000.0 0.2620335304 0.96404541
6550260700.0 0.2751706414 0.9601353928
6600260400.0 0.2886775499 0.9562416644
6650260100.0 0.3030223963 0.95195053
6700259800.0 0.3147078318 0.9471184817
6750259500.0 0.3283712114 0.9423651913
6800259200.0 0.3423995494 0.9374180204
6850258900.0 0.3545792848 0.9320755666
6900258600.0 0.3673387268 0.926860609
6950258300.0 0.3797679308 0.9215844279
7000258000.0 0.3912785812 0.9161879891
7050257700.0 0.4031676194 0.9105073615
7100257400.0 0.4166386933 0.9039133207
7150257100.0 0.4272103731 0.8985878774
7200256800.0 0.4403157138 0.8921457961
7250256500.0 0.4531621187 0.8856285576
7300256200.0 0.4662432741 0.8786668287
7350255900.0 0.4788940163 0.8717047549
7400255600.0 0.4930625871 0.8639806869
7450255300.0 0.5086768555 0.8550669301
7500255000.0 0.5208734937 0.8470807083
7550254700.0 0.535605249 0.8380877592
7600254400.0 0.5478080818 0.8299679825
7650254100.0 0.559300036 0.8221957212
7700253800.0 0.5712960227 0.8141743889
7750253500.0 0.5819799138 0.8064376089
7800253200.0 0.5926004176 0.798480658
7850252900.0 0.602260389 0.7912661123
7900252600.0 0.6138560328 0.7825607729
7950252300.0 0.622255455 0.7761341815
8000252000.0 0.6322222389 0.7688412597
8050251700.0 0.6424017023 0.7605808064
8100251400.0 0.6529230106 0.7526468915
8150251100.0 0.6623840584 0.744032732
8200250800.0 0.6721354559 0.7358574199
8250250500.0 0.6806713172 0.7280658871
8300250200.0 0.6898072308 0.7196400755
8350249900.0 0.6993523216 0.710883912
8400249600.0 0.7071584181 0.702870761
8450249300.0 0.7158048476 0.6941253016
8500249000.0 0.7243589452 0.6852452419
8550248700.0 0.7324426075 0.6762242374
8600248400.0 0.7411132746 0.6666401199
8650248100.0 0.7485516693 0.6571878368
8700247800.0 0.7579557212 0.6464764429
8750247500.0 0.7662846175 0.6361122582
8800247200.0 0.7742269374 0.6258906381
8850246900.0 0.7829976219 0.6145807384
8900246600.0 0.7911818105 0.6031481404
8950246300.0 0.8008017917 0.5904415498
9000246000.0 0.8091293698 0.5785660531
9050245700.0 0.8177123143 0.5662325412
9100245400.0 0.8259393125 0.5541633066
9150245100.0 0.8350345588 0.5408652063
9200244800.0 0.8441009593 0.5268508026
9250244500.0 0.8532267174 0.5120221681
9300244200.0 0.8611666652 0.4984774995
9350243900.0 0.8689663706 0.485204986
9400243600.0 0.8755664161 0.4736174077
9450243300.0 0.8811168795 0.4632779966
9500243000.0 0.8874275145 0.4514679781
9550242700.0 0.8913481981 0.4440195879
9600242400.0 0.8955971209 0.4364771989
9650242100.0 0.8998759367 0.4295932394
9700241800.0 0.9050805383 0.4207367756
9750241500.0 0.9088081463 0.4132135189
9800241200.0 0.9142101939 0.4035619412
9850240900.0 0.919808524 0.3919619511
9900240600.0 0.9257599857 0.380200305
9950240300.0 0.932983431 0.3633541896
10000240000.0 0.9381522092 0.3511827915
10050239700.0 0.9440953376 0.335086945
10100239400.0 0.949418868 0.3185439962
10150239100.0 0.9538632541 0.3032845816
10200238800.0 0.9583350355 0.2878344149
10250238500.0 0.9615099162 0.2743284866
10300238200.0 0.9647634207 0.2603511399
10350237900.0 0.9673893144 0.2470509931
10400237600.0 0.9699939172 0.2332821224
10450237300.0 0.9727980779 0.2197752185
10500237000.0 0.9748912432 0.2071602446
10550236700.0 0.9773083991 0.1929243293
10600236400.0 0.9796863145 0.1787817226
10650236100.0 0.9815124263 0.1644373905
10700235800.0 0.9835648107 0.1521988729
10750235500.0 0.9855503495 0.1391183686
10800235200.0 0.9882553876 0.1241110352
10850234900.0 0.9898833392 0.1094346167
10900234600.0 0.9921171012 0.0947928887
10950234300.0 0.9936662845 0.081147244
11000234000.0 0.9956449219 0.0655507136
11050233700.0 0.9973238617 0.0488448768
11100233400.0 0.9989151387 0.0313566329
11150233100.0 1.000121952 0.0146875844
11200232800.0 1.000919876 -0.0018497964
11250232500.0 1.002385479 -0.0198290166
11300232200.0 1.001784963 -0.0383247461
11350231900.0 1.00223203 -0.053908943
11400231600.0 1.001353714 -0.0692878077
11450231300.0 1.001427424 -0.0854594261
11500231000.0 1.000345499 -0.1022415602
11550230700.0 0.9982717089 -0.1143399324
11600230400.0 0.9972338688 -0.127336179
11650230100.0 0.9946178193 -0.1400763412
11700229800.0 0.9926764382 -0.1548971636
11750229500.0 0.9903101263 -0.1683281752
11800229200.0 0.9871673345 -0.1818424589
11850228900.0 0.9834733606 -0.1938032211
11900228600.0 0.9798112676 -0.203480257
11950228300.0 0.9764877167 -0.2133141958
12000228000.0 0.9735965611 -0.222417476
12050227700.0 0.9699318232 -0.2345344131
12100227400.0 0.9665720852 -0.2455117209
12150227100.0 0.9621039674 -0.262306548
12200226800.0 0.9580947496 -0.2734985543
12250226500.0 0.953271865 -0.2864405452
12300226200.0 0.9493299102 -0.2985997001
12350225900.0 0.9441645132 -0.3124680287
12400225600.0 0.9402415249 -0.3249646427
12450225300.0 0.9358031484 -0.3377237019
12500225000.0 0.9301712376 -0.3518207196
12550224700.0 0.9247617326 -0.365480108
12600224400.0 0.9199111561 -0.3783654221
12650224100.0 0.9141041329 -0.3925424645
12700223800.0 0.908643526 -0.4055493601
12750223500.0 0.9032842811 -0.4187703064
12800223200.0 0.8978332015 -0.431257929
12850222900.0 0.8928558404 -0.443117498
12900222600.0 0.8871813982 -0.4553664551
12950222300.0 0.880899909 -0.4683178549
13000222000.0 0.874962831 -0.4793570276
13050221700.0 0.8680132895 -0.4928319178
13100221400.0 0.8613230929 -0.5047547666
13150221100.0 0.8548424746 -0.5164816002
13200220800.0 0.8476676383 -0.5282752972
13250220500.0 0.8402572469 -0.5404348934
13300220200.0 0.8327309855 -0.5515252806
13350219900.0 0.8245733088 -0.5633499754
13400219600.0 0.8163167252 -0.5750597789
13450219300.0 0.8072022181 -0.5882393713
13500219000.0 0.7972519353 -0.6013256118
13550218700.0 0.7874626755 -0.6136405298
13600218400.0 0.7777099253 -0.6255105934
13650218100.0 0.7681216527 -0.6359922381
13700217800.0 0.7566780954 -0.648895809
13750217500.0 0.7477002549 -0.6589166953
13800217200.0 0.7373021057 -0.6700209984
13850216900.0 0.7261423372 -0.681387013
13900216600.0 0.7162700826 -0.6899715957
13950216300.0 0.7047693809 -0.700202294
14000216000.0 0.6953026465 -0.7094878148
14050215700.0 0.6860087094 -0.7176284438
14100215400.0 0.6767732363 -0.7263808428
14150215100.0 0.6674681571 -0.7353084482
14200214800.0 0.6580062968 -0.7438829408
14250214500.0 0.6476986969 -0.7534254428
14300214200.0 0.6371153072 -0.7629528491
14350213900.0 0.6261982345 -0.7724920727
14400213600.0 0.6145629405 -0.7823091636
14450213300.0 0.6013478206 -0.7923073736
14500213000.0 0.5882210516 -0.8023436525
14550212700.0 0.5759902545 -0.8116214883
14600212400.0 0.5635676411 -0.8205664429
14650212100.0 0.5507894795 -0.8292817284
14700211800.0 0.5371436584 -0.8386852402
14750211500.0 0.5244407526 -0.8473569603
14800211200.0 0.5121319413 -0.8553015043
14850210900.0 0.5000810863 -0.8628937696
14900210600.0 0.4866064259 -0.871070624
14950210300.0 0.473243277 -0.8786871909
15000210000.0 0.4605945222 -0.8852470426
15050209700.0 0.4484608878 -0.8916044148
15100209400.0 0.4356264419 -0.8976673988
15150209100.0 0.4234847226 -0.9028294988
15200208800.0 0.4107237036 -0.9080794359
15250208500.0 0.3996125482 -0.9120980228
15300208200.0 0.3873938857 -0.9172371284
15350207900.0 0.3744157268 -0.9221796448
15400207600.0 0.3590003591 -0.9272973111
15450207300.0 0.3440433764 -0.9332696985
15500207000.0 0.3302227093 -0.9375027889
15550206700.0 0.3156337765 -0.9421862569
15600206400.0 0.2994616845 -0.9465513032
15650206100.0 0.283547661 -0.9506273704
15700205800.0 0.2704899698 -0.9543130098
15750205500.0 0.2561888767 -0.957816829
15800205200.0 0.2421964613 -0.9614294125
15850204900.0 0.2280873306 -0.9646027013
15900204600.0 0.2130153883 -0.9684508363
15950204300.0 0.1986089658 -0.9715805965
16000204000.0 0.1839876529 -0.9744921387
16050203700.0 0.1690851594 -0.9771995563
16100203400.0 0.1543098699 -0.9796207237
16150203100.0 0.1392246739 -0.9824564928
16200202800.0 0.1250337964 -0.9840102323
16250202500.0 0.1101599669 -0.9862123126
16300202200.0 0.0946196708 -0.9874677274
16350201900.0 0.0797946885 -0.9891317801
16400201600.0 0.0651556279 -0.9902138851
16450201300.0 0.0496467972 -0.9912496757
16500201000.0 0.0324608604 -0.9919106986
16550200700.0 0.0164184283 -0.9923811669
16600200400.0 0.0006208559 -0.9927344864
16650200100.0 -0.015786032 -0.9926457081
16700199800.0 -0.0320526302 -0.991928509
16750199500.0 -0.0512125034 -0.9915043625
16800199200.0 -0.0671602532 -0.9905970932
16850198900.0 -0.0826359565 -0.9893704023
16900198600.0 -0.0969716543 -0.9887716654
16950198300.0 -0.1109408878 -0.9878112728
17000198000.0 -0.1235528164 -0.985618635
17050197700.0 -0.1353770332 -0.9845523426
17100197400.0 -0.1486656862 -0.9818997888
17150197100.0 -0.1620356318 -0.9795632891
17200196800.0 -0.1745601145 -0.9778545668
17250196500.0 -0.1873367585 -0.9755398436
17300196200.0 -0.199599915 -0.9729997416
17350195900.0 -0.2113660139 -0.9707725519
17400195600.0 -0.2232273101 -0.9681652972
17450195300.0 -0.2361505322 -0.9653917869
17500195000.0 -0.2493945657 -0.9622358415
17550194700.0 -0.2631689227 -0.9586286058
17600194400.0 -0.2773145598 -0.9547269005
17650194100.0 -0.2904807008 -0.9505452122
17700193800.0 -0.3035249705 -0.9464316801
17750193500.0 -0.3178038151 -0.9419474448
17800193200.0 -0.3319942026 -0.9364096784
17850192900.0 -0.3464693956 -0.9312096714
17900192600.0 -0.3618980904 -0.9250617089
17950192300.0 -0.3772360788 -0.9176624714
18000192000.0 -0.3923522773 -0.9104690032
18050191700.0 -0.4059518235 -0.9026244597
18100191400.0 -0.4201188861 -0.8950503558
18150191100.0 -0.4349066568 -0.8870627716
18200190800.0 -0.4516904738 -0.8779661735
18250190500.0 -0.4686035379 -0.8684473499
18300190200.0 -0.4843336479 -0.8594216596
18350189900.0 -0.499501471 -0.8510902399
18400189600.0 -0.5140485522 -0.8424726759
18450189300.0 -0.5274304449 -0.8348337603
18500189000.0 -0.5408223546 -0.8265501546
18550188700.0 -0.553837368 -0.8187824521
18600188400.0 -0.5654146316 -0.8121360524
18650188100.0 -0.5769454679 -0.8055675361
18700187800.0 -0.5880933609 -0.7987086499
18750187500.0 -0.5989972496 -0.7922687821
18800187200.0 -0.609398707 -0.7853537904
18850186900.0 -0.6197083096 -0.7781744122
18900186600.0 -0.6299719791 -0.7709245004
18950186300.0 -0.6400945599 -0.7631011698
19000186000.0 -0.6477493929 -0.7569059562
19050185700.0 -0.6570891045 -0.7498878761
19100185400.0 -0.6669695216 -0.741623161
19150185100.0 -0.6763376379 -0.7329518219
19200184800.0 -0.686682082 -0.725435536
19250184500.0 -0.6966385982 -0.7153116346
19300184200.0 -0.707647978 -0.706088398
19350183900.0 -0.7185729805 -0.6967402849
19400183600.0 -0.7281915129 -0.6864824258
19450183300.0 -0.7377708957 -0.6767570315
19500183000.0 -0.7459521622 -0.6666682992
19550182700.0 -0.7555248004 -0.655970956
19600182400.0 -0.7656334885 -0.6435544883
19650182100.0 -0.7764408005 -0.631451237
19700181800.0 -0.7862719522 -0.6183021093
19750181500.0 -0.7970117504 -0.6043746891
19800181200.0 -0.807315176 -0.5894406805
19850180900.0 -0.8169510223 -0.5740425954
19900180600.0 -0.8245337097 -0.5596581314
19950180300.0 -0.8335513512 -0.5434494845
20000180000.0 -0.8223132462 -0.547209331
20050179700.0 -0.8315428046 -0.5342729253
20100179400.0 -0.8401408622 -0.5217782048
20150179100.0 -0.8470179767 -0.5093961915
20200178800.0 -0.8567289892 -0.497920817
20250178500.0 -0.865608169 -0.4863472504
20300178200.0 -0.8752594596 -0.4716647521
20350177900.0 -0.8843880042 -0.4583381449
20400177600.0 -0.8936546948 -0.4433413684
20450177300.0 -0.9019542852 -0.4290118839
20500177000.0 -0.9101410389 -0.4153534065
20550176700.0 -0.917952339 -0.4019667013
20600176400.0 -0.924556045 -0.3887520731
20650176100.0 -0.9308607764 -0.3767427402
20700175800.0 -0.9374277623 -0.3649583948
20750175500.0 -0.9443044613 -0.3531123455
20800175200.0 -0.9493589937 -0.3435310764
20850174900.0 -0.9536929535 -0.3321991231
20900174600.0 -0.9580217574 -0.3210880661
20950174300.0 -0.9621356758 -0.3093581424
21000174000.0 -0.9634711669 -0.2992156158
21050173700.0 -0.9655782255 -0.2895127237
21100173400.0 -0.9696493455 -0.278282621
21150173100.0 -0.9728858161 -0.2669133233
21200172800.0 -0.9766397903 -0.2535241293
21250172500.0 -0.9807148025 -0.2401192237
21300172200.0 -0.9839765848 -0.2258195903
21350171900.0 -0.9865653182 -0.2114527524
21400171600.0 -0.9878754682 -0.1973100505
21450171300.0 -0.9884577794 -0.1832267323
21500171000.0 -0.9895514927 -0.1684698789
21550170700.0 -0.9897938775 -0.1533058942
21600170400.0 -0.990562049 -0.1372816914
21650170100.0 -0.9916333956 -0.1225094698
21700169800.0 -0.9903058478 -0.1069301864
21750169500.0 -0.9901503854 -0.0903991194
21800169200.0 -0.9894227837 -0.0735598078
21850168900.0 -0.9894699328 -0.05682198
21900168600.0 -0.9893022196 -0.0410521418
21950168300.0 -0.9891075407 -0.0255781679
22000168000.0 -0.9888074235 -0.0107084838
22050167700.0 -0.9894870952 0.004292709
22100167400.0 -0.9904386096 0.0199161445
22150167100.0 -0.9915064863 0.0357008052
22200166800.0 -0.9920127536 0.052543447
22250166500.0 -0.9912197944 0.0696847533
22300166200.0 -0.9905868557 0.0860705109
22350165900.0 -0.9893038716 0.1035963212
22400165600.0 -0.9881900721 0.1184895547
22450165300.0 -0.9863349859 0.1333866774
22500165000.0 -0.9843011927 0.1479829849
22550164700.0 -0.9837551586 0.1634022338
22600164400.0 -0.9808120602 0.1798406574
22650164100.0 -0.9775269176 0.1946795661
22700163800.0 -0.9749289407 0.2113830225
22750163500.0 -0.9721931596 0.2261419007
22800163200.0 -0.9690091407 0.2391343162
22850162900.0 -0.9665871244 0.252706074
22900162600.0 -0.9644573209 0.2667515152
22950162300.0 -0.9630378901 0.2806360395
23000162000.0 -0.9609491381 0.292985809
23050161700.0 -0.9586504507 0.3066878644
23100161400.0 -0.9561224755 0.3198240135
23150161100.0 -0.9527967213 0.3328711875
23200160800.0 -0.9497758598 0.3460434545
23250160500.0 -0.9472359456 0.3580969338
23300160200.0 -0.9441133843 0.370951428
23350159900.0 -0.9394569738 0.3843863348
23400159600.0 -0.9346368773 0.398608818
23450159300.0 -0.9298266639 0.4120323603
23500159000.0 -0.9254048434 0.4256702107
23550158700.0 -0.9203053958 0.4396063493
23600158400.0 -0.9143029364 0.4540262528
23650158100.0 -0.9067949375 0.4684171725
23700157800.0 -0.8985466926 0.4827340948
23750157500.0 -0.8891756091 0.4973613385
23800157200.0 -0.8791819902 0.5101483498
23850156900.0 -0.8698841009 0.5235874359
23900156600.0 -0.8596387085 0.5361381551
23950156300.0 -0.8499649191 0.5479248101
24000156000.0 -0.8402035665 0.5606151104
24050155700.0 -0.8295636144 0.5727436695
24100155400.0 -0.8194883993 0.5846316116
24150155100.0 -0.8087996046 0.5982094958
24200154800.0 -0.7972984552 0.6089888058
24250154500.0 -0.7854599858 0.621756528
24300154200.0 -0.7748155507 0.6338896295
24350153900.0 -0.7629811155 0.6446321961
24400153600.0 -0.7500835733 0.6555348099
24450153300.0 -0.7384452053 0.6658072584
24500153000.0 -0.7264315751 0.6761389219
24550152700.0 -0.7152168586 0.6858448516
24600152400.0 -0.7034263378 0.6957609714
24650152100.0 -0.6916656528 0.7031934622
