!Created with skrf (http://scikit-rf.org).
# Hz S RI R 50.0 
!freq ReS11 ImS11
300000.0 -0.9978278263 -0.0300626993
50299700.0 -0.9990283335 0.0161087901
100299400.0 -0.9973274239 0.0286661247
150299100.0 -1.001931428 0.0455111361
200298800.0 -0.9986190202 0.0587012707
250298500.0 -0.9962829193 0.0721555655
300298200.0 -0.9849267964 0.0877833497
350297900.0 -0.9928034288 0.0985993256
400297600.0 -0.9918091366 0.1150184752
450297300.0 -0.9895583267 0.1288493454
500297000.0 -0.9879173077 0.1431609843
550296700.0 -0.9827652172 0.1556880467
600296400.0 -1.015639487 0.1888517208
650296100.0 -0.9804960038 0.1853279669
700295800.0 -0.9776118268 0.1995891097
750295500.0 -0.9745184329 0.2132275954
800295200.0 -0.9712106963 0.2275347517
850294900.0 -0.9679515517 0.2411477046
900294600.0 -0.9639845852 0.2548236428
950294300.0 -0.960379135 0.2682746406
1000294000.0 -0.9565347585 0.2823023411
1050293700.0 -0.9519904374 0.2960190779
1100293400.0 -0.9477512716 0.3104238022
1150293100.0 -0.944079847 0.3222601369
1200292800.0 -0.9387770364 0.3365478134
1250292500.0 -0.9334040102 0.3499997519
1300292200.0 -0.9279524196 0.3630256761
1350291900.0 -0.9222893791 0.3772528095
1400291600.0 -0.9170631168 0.3901398632
1450291300.0 -0.9117003554 0.4023538952
1500291000.0 -0.9054711605 0.4157582027
1550290700.0 -0.8992604881 0.4288944867
1600290400.0 -0.8930313026 0.4419163059
1650290100.0 -0.8865129797 0.4539766275
1700289800.0 -0.8797448226 0.4673674105
1750289500.0 -0.8726887284 0.4795248687
1800289200.0 -0.8654459303 0.4924336128
1850288900.0 -0.8588547311 0.5037348107
1900288600.0 -0.8512509132 0.5165806506
1950288300.0 -0.8433215258 0.5292442711
2000288000.0 -0.8357776191 0.540814409
2050287700.0 -0.8277147614 0.553010749
2100287400.0 -0.8198969792 0.5645919136
2150287100.0 -0.811175878 0.5767519468
2200286800.0 -0.8035534021 0.5871023712
2250286500.0 -0.7950115563 0.5989946907
2300286200.0 -0.7859695351 0.6105465169
2350285900.0 -0.7774190027 0.6213681853
2400285600.0 -0.7683783249 0.6326720527
2450285300.0 -0.7594610977 0.6431092391
2500285000.0 -0.7502022201 0.6540248671
2550284700.0 -0.7409799269 0.664474936
2600284400.0 -0.7311408051 0.6746818316
2650284100.0 -0.7226325017 0.6848687776
2700283800.0 -0.7119484631 0.6953603346
2750283500.0 -0.7020506731 0.7058401292
2800283200.0 -0.6918544253 0.7152697187
2850282900.0 -0.6819589532 0.7254441445
2900282600.0 -0.6713123775 0.7350010187
2950282300.0 -0.6612260244 0.7443415584
3000282000.0 -0.6505595064 0.7539547978
3050281700.0 -0.6396110769 0.7629339149
3100281400.0 -0.6285037192 0.7720264085
3150281100.0 -0.6173786282 0.7808800239
3200280800.0 -0.6057720617 0.7895900286
3250280500.0 -0.5946530761 0.7978376862
3300280200.0 -0.5832813018 0.806129587
3350279900.0 -0.5720751908 0.8137498901
3400279600.0 -0.5599665906 0.8217917277
3450279300.0 -0.5487738739 0.8293101563
3500279000.0 -0.5370779878 0.8367946166
3550278700.0 -0.524828489 0.8439715524
3600278400.0 -0.5135105624 0.8509206952
3650278100.0 -0.5003572781 0.8587669805
3700277800.0 -0.4885360234 0.8653949801
3750277500.0 -0.4762484483 0.872141332
3800277200.0 -0.4637620364 0.8788183739
3850276900.0 -0.4511553436 0.8850309538
3900276600.0 -0.4400345871 0.8908595485
3950276300.0 -0.4270985108 0.8970834789
4000276000.0 -0.4150544888 0.90302079
4050275700.0 -0.4016402251 0.9092936672
4100275400.0 -0.3903321422 0.9145587779
4150275100.0 -0.3774334421 0.9200330215
4200274800.0 -0.3640012904 0.9256354783
4250274500.0 -0.3515915924 0.9306319957
4300274200.0 -0.3387726081 0.9355751727
4350273900.0 -0.3252444093 0.9406572851
4400273600.0 -0.3114019407 0.9454763157
4450273300.0 -0.2969422946 0.9500486699
4500273000.0 -0.2839204894 0.9543566638
4550272700.0 -0.2706148622 0.9584807711
4600272400.0 -0.255163013 0.9625863921
4650272100.0 -0.242956923 0.9658478211
4700271800.0 -0.2296603326 0.9692362477
4750271500.0 -0.2169227405 0.9722178712
4800271200.0 -0.2035729986 0.9750948615
4850270900.0 -0.1897708695 0.9779898789
4900270600.0 -0.1764549085 0.9803192251
4950270300.0 -0.1629533105 0.9826545311
5000270000.0 -0.1485449074 0.9850455413
5050269700.0 -0.1350119914 0.9865784535
5100269400.0 -0.1213570878 0.9883673573
5150269100.0 -0.1075573263 0.9904816217
5200268800.0 -0.0939712703 0.9919099239
5250268500.0 -0.0809396964 0.9927208383
5300268200.0 -0.0671898332 0.993805305
5350267900.0 -0.0549753646 0.9938688171
5400267600.0 -0.0391511583 0.9956350716
5450267300.0 -0.0265011916 0.9958848895
5500267000.0 -0.0121104625 0.9960530651
5550266700.0 0.0012808605 0.9962152422
5600266400.0 0.0162427688 0.996328892
5650266100.0 0.0317633893 0.9961792739
5700265800.0 0.0454432297 0.9955316237
5750265500.0 0.0598794789 0.9946649531
5800265200.0 0.0736449134 0.9939180511
5850264900.0 0.0869403297 0.9929088803
5900264600.0 0.1028289317 0.9911495167
5950264300.0 0.1151475262 0.989358898
6000264000.0 0.129280236 0.9880062667
6050263700.0 0.1417078022 0.9863692025
6100263400.0 0.1552513511 0.9846013156
6150263100.0 0.1707601733 0.982394308
6200262800.0 0.1813723237 0.980238187
6250262500.0 0.1945953565 0.9777984793
6300262200.0 0.2075475732 0.9749718978
6350261900.0 0.2206041521 0.9721993268
6400261600.0 0.2348530833 0.9689805669
6450261300.0 0.2466736371 0.9661441556
6500261000.0 0.2596241392 0.9623495856
6550260700.0 0.2727701342 0.9589039266
6600260400.0 0.2855264338 0.9548238441
6650260100.0 0.2995114161 0.9506625942
6700259800.0 0.3117274949 0.9465727884
6750259500.0 0.3250639308 0.9419554408
6800259200.0 0.3385010561 0.937417489
6850258900.0 0.3505978458 0.9323904278
6900258600.0 0.3629519113 0.9274062541
6950258300.0 0.375830043 0.9222471793
7000258000.0 0.3881500595 0.9173079941
7050257700.0 0.4000900125 0.9117881938
7100257400.0 0.4135977978 0.9054771795
7150257100.0 0.4243715326 0.9003006378
7200256800.0 0.4371995004 0.8942172088
7250256500.0 0.4489998426 0.8882083764
7300256200.0 0.4613982446 0.8816011297
7350255900.0 0.473811112 0.8753979053
7400255600.0 0.4851690498 0.869226803
7450255300.0 0.4991488088 0.8609844115
7500255000.0 0.5103017056 0.8539765282
7550254700.0 0.5232042368 0.8469503711
7600254400.0 0.5348488223 0.8389678328
7650254100.0 0.5465561277 0.8316854369
7700253800.0 0.5584220862 0.8239009898
7750253500.0 0.5697696528 0.8160441742
7800253200.0 0.5811185708 0.8078749811
7850252900.0 0.5907214798 0.8010236825
7900252600.0 0.6028104999 0.792076282
7950252300.0 0.6123864983 0.7847918478
8000252000.0 0.6228468583 0.7767772469
8050251700.0 0.6336745541 0.768376038
8100251400.0 0.6432566464 0.760321932
8150251100.0 0.6543323849 0.7509828377
8200250800.0 0.6636427944 0.742857285
8250250500.0 0.6733819401 0.734364286
8300250200.0 0.6830899195 0.7252159913
8350249900.0 0.6923981569 0.7163958886
8400249600.0 0.7016071831 0.7077164829
8450249300.0 0.710647844 0.6981141013
8500249000.0 0.719977492 0.6887020651
8550248700.0 0.7295441304 0.6787859426
8600248400.0 0.7385698161 0.6688353835
8650248100.0 0.7462638743 0.6597013178
8700247800.0 0.7558066914 0.6488380461
8750247500.0 0.7642831814 0.6387643016
8800247200.0 0.7726221006 0.6286339081
8850246900.0 0.7811881332 0.6176325976
8900246600.0 0.78923427 0.6067785774
8950246300.0 0.7982978079 0.5948612373
9000246000.0 0.8067592777 0.5838892038
9050245700.0 0.8145229766 0.5723776699
9100245400.0 0.8227677525 0.5602929157
9150245100.0 0.8310678526 0.5484266444
9200244800.0 0.8392501773 0.5363431538
9250244500.0 0.8475961917 0.5228295866
9300244200.0 0.8551911847 0.5107651845
9350243900.0 0.86280624 0.4977755231
9400243600.0 0.8695610507 0.4855460447
9450243300.0 0.8757282805 0.4741300753
9500243000.0 0.8829201586 0.461113969
9550242700.0 0.8884995913 0.4501829236
9600242400.0 0.8939374788 0.4393275259
9650242100.0 0.8988596957 0.4296349783
9700241800.0 0.9041846234 0.4192475713
9750241500.0 0.9091218478 0.408792121
9800241200.0 0.9145292667 0.3972424754
9850240900.0 0.9200768546 0.3849911883
9900240600.0 0.924495802 0.3753650221
9950240300.0 0.930036463 0.3609089968
10000240000.0 0.9350265075 0.3483554707
10050239700.0 0.9405342802 0.3339359567
10100239400.0 0.9452771514 0.3201441916
10150239100.0 0.9498127837 0.3063207112
10200238800.0 0.9541550069 0.2920348544
10250238500.0 0.9579931661 0.278768143
10300238200.0 0.9615089752 0.2650180945
10350237900.0 0.9647042518 0.2519230753
10400237600.0 0.9678608355 0.2385175711
10450237300.0 0.9709655396 0.2248825725
10500237000.0 0.9735151639 0.2124161115
10550236700.0 0.9761294861 0.1985546575
10600236400.0 0.9785676464 0.1851735843
10650236100.0 0.9809822573 0.1703228251
10700235800.0 0.9832370313 0.1578169547
10750235500.0 0.9855779826 0.1444346519
10800235200.0 0.987574466 0.130426248
10850234900.0 0.9892749471 0.1165415932
10900234600.0 0.9911116191 0.1021980051
10950234300.0 0.9926796451 0.0888955697
11000234000.0 0.9940377289 0.0749694871
11050233700.0 0.9952031656 0.0608525573
11100233400.0 0.9963788997 0.045034712
11150233100.0 0.9975414995 0.0301902308
11200232800.0 0.9979433483 0.0165344604
11250232500.0 0.9984337768 0.0013096872
11300232200.0 0.9985761914 -0.015008663
11350231900.0 0.9982440606 -0.0294557714
11400231600.0 0.9980427313 -0.0432078591
11450231300.0 0.998128199 -0.0582390847
11500231000.0 0.9972741247 -0.0735391634
11550230700.0 0.9960568938 -0.0868634958
11600230400.0 0.9949459934 -0.1015692994
11650230100.0 0.993660686 -0.1131329221
11700229800.0 0.9914227503 -0.1278602318
11750229500.0 0.9893250377 -0.1424286556
11800229200.0 0.9874272512 -0.155652767
11850228900.0 0.9846658665 -0.169725109
11900228600.0 0.9817473951 -0.1820621704
11950228300.0 0.9787876621 -0.1951243083
12000228000.0 0.9759964247 -0.2062445751
12050227700.0 0.9726527957 -0.2194256313
12100227400.0 0.9695835364 -0.2311204597
12150227100.0 0.9656669315 -0.247925587
12200226800.0 0.9624486011 -0.2597472922
12250226500.0 0.9587226755 -0.2729759958
12300226200.0 0.9549458453 -0.285037883
12350225900.0 0.9498208128 -0.2997534952
12400225600.0 0.946029992 -0.3125117889
12450225300.0 0.9413782113 -0.3245407878
12500225000.0 0.9365473842 -0.3388460507
12550224700.0 0.931282638 -0.3529491216
12600224400.0 0.9268124549 -0.3652725316
12650224100.0 0.9209565786 -0.3794860698
12700223800.0 0.9158018245 -0.3921175236
12750223500.0 0.9102680066 -0.4051686195
12800223200.0 0.9048712517 -0.4178962733
12850222900.0 0.8994729782 -0.4303919392
12900222600.0 0.893346247 -0.4430439113
12950222300.0 0.8865437477 -0.4560178137
13000222000.0 0.8808086152 -0.4673914676
13050221700.0 0.8737996895 -0.4806860865
13100221400.0 0.8671851272 -0.4923154291
13150221100.0 0.8607304083 -0.5047267349
13200220800.0 0.8533464951 -0.516643873
13250220500.0 0.8459211534 -0.5289210491
13300220200.0 0.8384349063 -0.5401611841
13350219900.0 0.8302659646 -0.5528016929
13400219600.0 0.8225674019 -0.5641858281
13450219300.0 0.8142866084 -0.5763443487
13500219000.0 0.8051920592 -0.5886468051
13550218700.0 0.7957390769 -0.6008444857
13600218400.0 0.7871072956 -0.6126132201
13650218100.0 0.7781595085 -0.6234262741
13700217800.0 0.767730684 -0.6357153035
13750217500.0 0.7585832918 -0.6466186729
13800217200.0 0.7474600119 -0.6586196786
13850216900.0 0.7369992936 -0.6702099193
13900216600.0 0.7287188382 -0.6792275261
13950216300.0 0.7173027234 -0.690714076
14000216000.0 0.7078445233 -0.7002010669
14050215700.0 0.6982947594 -0.7089720351
14100215400.0 0.6877594142 -0.7193600154
14150215100.0 0.6776400807 -0.7286784378
14200214800.0 0.6681900865 -0.7376001137
14250214500.0 0.6574355839 -0.7474270817
14300214200.0 0.6466824092 -0.7571213359
14350213900.0 0.6359342725 -0.766450199
14400213600.0 0.6248414343 -0.7758632795
14450213300.0 0.6131305919 -0.7852499164
14500213000.0 0.6006539913 -0.7941080384
14550212700.0 0.5886624163 -0.8039369472
14600212400.0 0.5769478319 -0.8117931798
14650212100.0 0.5652283787 -0.8203830529
14700211800.0 0.5520318523 -0.8294568854
14750211500.0 0.539713777 -0.8373579409
14800211200.0 0.5269077652 -0.8457655275
14850210900.0 0.5148139629 -0.853241896
14900210600.0 0.5020922542 -0.8612456229
14950210300.0 0.4892801545 -0.8689471114
15000210000.0 0.4764705551 -0.8760180298
15050209700.0 0.463536933 -0.8826463971
15100209400.0 0.4508251578 -0.8894161355
15150209100.0 0.4386367487 -0.8955534909
15200208800.0 0.425315639 -0.9013628745
15250208500.0 0.4125205567 -0.9070179553
15300208200.0 0.3995491946 -0.9128703548
15350207900.0 0.3855600732 -0.918437909
15400207600.0 0.3719053489 -0.9231203817
15450207300.0 0.3585373421 -0.9294168204
15500207000.0 0.3440550576 -0.933226561
15550206700.0 0.3305918769 -0.9385595991
15600206400.0 0.3158550019 -0.9432425997
15650206100.0 0.3008527669 -0.9477132346
15700205800.0 0.2872709846 -0.9520508864
15750205500.0 0.2729960456 -0.955882551
15800205200.0 0.2588835936 -0.9597436046
15850204900.0 0.2449636106 -0.9633077531
15900204600.0 0.2297237474 -0.9672252393
15950204300.0 0.2155546112 -0.9703139666
16000204000.0 0.2014842724 -0.9738758437
16050203700.0 0.1869564152 -0.976634359
16100203400.0 0.1729738915 -0.9791962606
16150203100.0 0.1585874372 -0.9816749491
16200202800.0 0.1437794498 -0.984085076
16250202500.0 0.1292885714 -0.9857873504
16300202200.0 0.1135295927 -0.9878549316
16350201900.0 0.0987321648 -0.9893083154
16400201600.0 0.0838624312 -0.9905036626
16450201300.0 0.0693607528 -0.991892321
16500201000.0 0.0533302573 -0.9930461973
16550200700.0 0.038193925 -0.993837636
16600200400.0 0.0230276077 -0.9945083132
16650200100.0 0.0071639197 -0.9949691106
16700199800.0 -0.0077286161 -0.9946261954
16750199500.0 -0.0245667006 -0.9949133454
16800199200.0 -0.04028016 -0.9936858225
16850198900.0 -0.0562919441 -0.9932389921
16900198600.0 -0.0700172492 -0.9918358083
16950198300.0 -0.0847686005 -0.9914035947
17000198000.0 -0.0987145967 -0.9893431484
17050197700.0 -0.1123769201 -0.9883848023
17100197400.0 -0.1268679372 -0.9864133452
17150197100.0 -0.1410368278 -0.984267939
17200196800.0 -0.1547071888 -0.9820251036
17250196500.0 -0.1684231403 -0.979880386
17300196200.0 -0.1817645122 -0.9773123445
17350195900.0 -0.1955072391 -0.974686485
17400195600.0 -0.2085955711 -0.9718892814
17450195300.0 -0.2223313565 -0.9689984029
17500195000.0 -0.2361213719 -0.9658515952
17550194700.0 -0.2501377933 -0.9623195587
17600194400.0 -0.2641924001 -0.958692843
17650194100.0 -0.2780298697 -0.9544798816
17700193800.0 -0.291411647 -0.9506544184
17750193500.0 -0.3053824605 -0.946401367
17800193200.0 -0.3191767865 -0.9418064974
17850192900.0 -0.3333191503 -0.9368576703
17900192600.0 -0.3475668403 -0.9310253425
17950192300.0 -0.3623911973 -0.9250463229
18000192000.0 -0.3770370938 -0.9189069255
18050191700.0 -0.3911723297 -0.9117667891
18100191400.0 -0.4054046925 -0.9051650008
18150191100.0 -0.4195110688 -0.8983813862
18200190800.0 -0.4344528587 -0.8910375579
18250190500.0 -0.4501378847 -0.8829984873
18300190200.0 -0.4652349489 -0.8753686778
18350189900.0 -0.4795273104 -0.8679079153
18400189600.0 -0.4940074355 -0.8600532693
18450189300.0 -0.506653307 -0.8524202371
18500189000.0 -0.5205192262 -0.8445283853
18550188700.0 -0.5333637896 -0.8367364296
18600188400.0 -0.5462895027 -0.8293802421
18650188100.0 -0.5581673138 -0.8214844408
18700187800.0 -0.5698537962 -0.81442921
18750187500.0 -0.5814401826 -0.806601173
18800187200.0 -0.5926671325 -0.7985643787
18850186900.0 -0.6036460706 -0.7907318247
18900186600.0 -0.6142443477 -0.7825788961
18950186300.0 -0.6252125994 -0.7738216629
19000186000.0 -0.6349104256 -0.765864193
19050185700.0 -0.645969174 -0.7579271777
19100185400.0 -0.6554537191 -0.7490784898
19150185100.0 -0.6659845521 -0.7398466396
19200184800.0 -0.6761673512 -0.7304385203
19250184500.0 -0.6853218857 -0.7210352069
19300184200.0 -0.6963604326 -0.7114471823
19350183900.0 -0.7074176085 -0.7016044482
19400183600.0 -0.7172244494 -0.6914801165
19450183300.0 -0.7270486191 -0.6805576305
19500183000.0 -0.7350940761 -0.6703725768
19550182700.0 -0.7443977376 -0.6600688872
19600182400.0 -0.7542378218 -0.6490873022
19650182100.0 -0.7642347617 -0.637207726
19700181800.0 -0.7739023667 -0.6254608719
19750181500.0 -0.7834838854 -0.6129172265
19800181200.0 -0.7933160843 -0.5998133245
19850180900.0 -0.8028487249 -0.5862979223
19900180600.0 -0.8109496427 -0.5738832539
19950180300.0 -0.8207885739 -0.5596183885
20000180000.0 -0.8236061854 -0.5525422462
20050179700.0 -0.8319469419 -0.5405129665
20100179400.0 -0.8412916723 -0.5266109714
20150179100.0 -0.8482869561 -0.5143679926
20200178800.0 -0.8566920254 -0.5018765878
20250178500.0 -0.8647472083 -0.4891244179
20300178200.0 -0.8731803025 -0.4760193803
20350177900.0 -0.8805196235 -0.4623187216
20400177600.0 -0.888786241 -0.4488961196
20450177300.0 -0.8959430189 -0.4358475443
20500177000.0 -0.9026981892 -0.4222569943
20550176700.0 -0.9099047747 -0.4093088809
20600176400.0 -0.9156666992 -0.3963084479
20650176100.0 -0.9219996796 -0.3831748667
20700175800.0 -0.928263612 -0.3704756606
20750175500.0 -0.9342461437 -0.3587400164
20800175200.0 -0.9396162799 -0.3462720336
20850174900.0 -0.943655902 -0.3339164105
20900174600.0 -0.9489517438 -0.3217633457
20950174300.0 -0.9526999868 -0.3089068937
21000174000.0 -0.9576476577 -0.2960158426
21050173700.0 -0.9595711805 -0.2857060722
21100173400.0 -0.963576287 -0.2722426225
21150173100.0 -0.9668230031 -0.2587093593
21200172800.0 -0.9704125887 -0.2449197818
21250172500.0 -0.9737427032 -0.231331923
21300172200.0 -0.9773058853 -0.2173323776
21350171900.0 -0.9797805755 -0.2037642601
21400171600.0 -0.9830092317 -0.1890139732
21450171300.0 -0.9838588937 -0.175100974
21500171000.0 -0.9856172874 -0.1600306838
21550170700.0 -0.9868031197 -0.1454195351
21600170400.0 -0.9891454774 -0.1313821005
21650170100.0 -0.9897850542 -0.1150197839
21700169800.0 -0.9895096528 -0.100246548
21750169500.0 -0.9894902702 -0.0842180595
21800169200.0 -0.9908497427 -0.0688796712
21850168900.0 -0.991387629 -0.0542743387
21900168600.0 -0.9904658993 -0.0387545816
21950168300.0 -0.9912031792 -0.0236614914
22000168000.0 -0.9903948613 -0.0083636781
22050167700.0 -0.9905171522 0.0062211583
22100167400.0 -0.9902278908 0.0214502558
22150167100.0 -0.9902388274 0.0363014477
22200166800.0 -0.9901714023 0.0510336755
22250166500.0 -0.988592665 0.0674635331
22300166200.0 -0.9880043346 0.0828058042
22350165900.0 -0.9874872509 0.0972082758
22400165600.0 -0.9856385795 0.1121297641
22450165300.0 -0.9833940619 0.126434889
22500165000.0 -0.9823959106 0.140921028
22550164700.0 -0.9806375225 0.1557026782
22600164400.0 -0.9784812632 0.1694527654
22650164100.0 -0.9765615978 0.1834564483
22700163800.0 -0.9735297068 0.1971844562
22750163500.0 -0.9705979044 0.2120958656
22800163200.0 -0.9684890909 0.2253090236
22850162900.0 -0.9655650398 0.2385279551
22900162600.0 -0.9630511288 0.251660092
22950162300.0 -0.9606513369 0.2649316828
23000162000.0 -0.9581078948 0.2777058168
23050161700.0 -0.9550938452 0.2908583597
23100161400.0 -0.9517261653 0.3040438167
23150161100.0 -0.9486677645 0.3166728281
23200160800.0 -0.9452767865 0.3294007115
23250160500.0 -0.9414464711 0.3420940382
23300160200.0 -0.9383671514 0.354824313
23350159900.0 -0.9338618497 0.3676405368
23400159600.0 -0.9295457347 0.3800017161
23450159300.0 -0.9247026992 0.392575401
23500159000.0 -0.9199310745 0.4053846493
23550158700.0 -0.9153315317 0.4180544386
23600158400.0 -0.9097826981 0.4303390062
23650158100.0 -0.9038340413 0.4434330102
23700157800.0 -0.8973306051 0.456592754
23750157500.0 -0.889858426 0.4698998357
23800157200.0 -0.8828030729 0.4824835432
23850156900.0 -0.8752064057 0.4946716471
23900156600.0 -0.867209008 0.5071109524
23950156300.0 -0.8590855436 0.519161243
24000156000.0 -0.8507206036 0.5317099048
24050155700.0 -0.8420689289 0.5434512744
24100155400.0 -0.8339870819 0.5552846064
24150155100.0 -0.8250381302 0.5669849412
24200154800.0 -0.8157067684 0.578384106
24250154500.0 -0.8064168177 0.5896741833
24300154200.0 -0.7978849154 0.6014108238
24350153900.0 -0.7873548701 0.6122693456
24400153600.0 -0.7771012125 0.6233575575
24450153300.0 -0.7667408958 0.6342744523
24500153000.0 -0.7568473512 0.6444720411
24550152700.0 -0.7472062274 0.655225842
24600152400.0 -0.7366665256 0.6650018002
24650152100.0 -0.7254572024 0.6746953414
