!Created with skrf (http://scikit-rf.org).
# Hz S RI R 50.0 
!freq ReS11 ImS11
300000.0 -0.9751906996 -0.1211211491
50299700.0 -1.000054287 0.0151749892
100299400.0 -0.9979830932 0.0283569232
150299100.0 -1.00275414 0.0451697197
200298800.0 -0.999566796 0.0582562549
250298500.0 -0.997444932 0.0717264678
300298200.0 -0.9860770976 0.0875303733
350297900.0 -0.9938882796 0.0984935843
400297600.0 -0.9933127409 0.1151496033
450297300.0 -0.990994075 0.1288018029
500297000.0 -0.9896558127 0.1435430464
550296700.0 -0.9844114789 0.1559821446
600296400.0 -1.017213387 0.1893680586
650296100.0 -0.9820736392 0.1859301921
700295800.0 -0.9795320047 0.2002834861
750295500.0 -0.9762600471 0.2142398877
800295200.0 -0.9731401782 0.2282627453
850294900.0 -0.969536218 0.2420315039
900294600.0 -0.9658168531 0.2559015737
950294300.0 -0.9622243939 0.2694626077
1000294000.0 -0.9580728418 0.2835437148
1050293700.0 -0.9534890916 0.2972142023
1100293400.0 -0.9493176638 0.311696759
1150293100.0 -0.945472992 0.3236626855
1200292800.0 -0.9399757951 0.3379747857
1250292500.0 -0.9347973909 0.3513673739
1300292200.0 -0.9290676903 0.3647360219
1350291900.0 -0.9234754886 0.3788287209
1400291600.0 -0.917916706 0.3919304982
1450291300.0 -0.9126769962 0.4041950238
1500291000.0 -0.9063389428 0.4175300463
1550290700.0 -0.8997156571 0.4308102396
1600290400.0 -0.8933543276 0.4437218474
1650290100.0 -0.8866376439 0.4559800093
1700289800.0 -0.8799310522 0.4695823384
1750289500.0 -0.872731541 0.4817295232
1800289200.0 -0.8655551481 0.4948081309
1850288900.0 -0.8587566664 0.506056343
1900288600.0 -0.8508446183 0.5189791089
1950288300.0 -0.8428155997 0.5316460394
2000288000.0 -0.8353764039 0.542930663
2050287700.0 -0.8271751581 0.5551115635
2100287400.0 -0.8192578913 0.5669627484
2150287100.0 -0.8106228727 0.5789117052
2200286800.0 -0.8030298714 0.5892592101
2250286500.0 -0.7940895182 0.6014204812
2300286200.0 -0.785180872 0.6128575645
2350285900.0 -0.7765588192 0.6238439266
2400285600.0 -0.7678320428 0.634919217
2450285300.0 -0.7590079683 0.6451575332
2500285000.0 -0.7492572019 0.6564745757
2550284700.0 -0.7403014069 0.6667185829
2600284400.0 -0.730759996 0.6770977204
2650284100.0 -0.7221753303 0.6875749748
2700283800.0 -0.7113716961 0.6980175856
2750283500.0 -0.7013052061 0.7085402497
2800283200.0 -0.6914722368 0.7184413647
2850282900.0 -0.6812705114 0.7283117229
2900282600.0 -0.6707710676 0.7379371466
2950282300.0 -0.6605205673 0.7473138364
3000282000.0 -0.6499316989 0.7567600766
3050281700.0 -0.638632042 0.7658309731
3100281400.0 -0.6267513006 0.7752869361
3150281100.0 -0.6150614444 0.7845923834
3200280800.0 -0.6035544399 0.7929596468
3250280500.0 -0.5926660852 0.8008660059
3300280200.0 -0.5811073097 0.8087466579
3350279900.0 -0.5694844323 0.8163602955
3400279600.0 -0.5572801997 0.8240757211
3450279300.0 -0.5461023355 0.8310769647
3500279000.0 -0.5342252885 0.8383432434
3550278700.0 -0.5219541792 0.8455945513
3600278400.0 -0.509834965 0.8526705102
3650278100.0 -0.4965037476 0.8602886079
3700277800.0 -0.4845199121 0.8665379257
3750277500.0 -0.4723697018 0.873289723
3800277200.0 -0.4596876618 0.8797908003
3850276900.0 -0.4477932068 0.8856821003
3900276600.0 -0.4368975951 0.8911778436
3950276300.0 -0.4244829145 0.8974808212
4000276000.0 -0.4125184654 0.9034994183
4050275700.0 -0.3998066942 0.9094094852
4100275400.0 -0.3885174925 0.9150326463
4150275100.0 -0.3756851313 0.9205908886
4200274800.0 -0.3628880329 0.926302632
4250274500.0 -0.3507811785 0.931127634
4300274200.0 -0.3374227416 0.9366542487
4350273900.0 -0.3234327216 0.9418715356
4400273600.0 -0.3087774876 0.9472214036
4450273300.0 -0.293478688 0.9522123675
4500273000.0 -0.2798813091 0.9565068256
4550272700.0 -0.2659290015 0.9607814487
4600272400.0 -0.2505370088 0.9650778881
4650272100.0 -0.2389733607 0.9681077831
4700271800.0 -0.2255991466 0.9714651159
4750271500.0 -0.2139797806 0.9743065272
4800271200.0 -0.2016568899 0.977153372
4850270900.0 -0.1876250118 0.9799131381
4900270600.0 -0.1737597298 0.9822701861
4950270300.0 -0.1595618187 0.9848825607
5000270000.0 -0.1451359166 0.986764051
5050269700.0 -0.1317701806 0.9885147186
5100269400.0 -0.1179270297 0.9902177526
5150269100.0 -0.1043227221 0.9919290983
5200268800.0 -0.0911233906 0.9927228937
5250268500.0 -0.0777451645 0.9941877985
5300268200.0 -0.0647077427 0.9948080638
5350267900.0 -0.0522708092 0.995315467
5400267600.0 -0.0361593097 0.9964075285
5450267300.0 -0.0231204319 0.9964984469
5500267000.0 -0.0078463184 0.9969507578
5550266700.0 0.007109043 0.9972090432
5600266400.0 0.0226361434 0.9973314627
5650266100.0 0.0390348596 0.9969029654
5700265800.0 0.0536485991 0.995907855
5750265500.0 0.0685950182 0.995635821
5800265200.0 0.0827455506 0.9942935948
5850264900.0 0.0957002026 0.9930900298
5900264600.0 0.1124258382 0.9917116059
5950264300.0 0.1245310469 0.9899117522
6000264000.0 0.1380684254 0.9879627643
6050263700.0 0.1507363515 0.9871401996
6100263400.0 0.1627585723 0.9849703944
6150263100.0 0.1771580588 0.9826608305
6200262800.0 0.1876244635 0.9809047708
6250262500.0 0.2003387724 0.9785459161
6300262200.0 0.2130389125 0.9760000402
6350261900.0 0.2260357629 0.9730011008
6400261600.0 0.2398751367 0.9697584568
6450261300.0 0.2512130281 0.966975674
6500261000.0 0.2641428017 0.9635780895
6550260700.0 0.2770925213 0.9594373592
6600260400.0 0.290342378 0.955284623
6650260100.0 0.3042661949 0.9510993829
6700259800.0 0.3164867963 0.9469270417
6750259500.0 0.3301431536 0.9416466246
6800259200.0 0.3437370012 0.9367074314
6850258900.0 0.3555665753 0.931822033
6900258600.0 0.367866738 0.9266634361
6950258300.0 0.3804042473 0.9211642235
7000258000.0 0.3924498647 0.9158861199
7050257700.0 0.4045743775 0.9100573909
7100257400.0 0.4173576665 0.9036157961
7150257100.0 0.4279119966 0.8982399215
7200256800.0 0.4407012881 0.8920013973
7250256500.0 0.4528623161 0.8855836125
7300256200.0 0.4661429391 0.8788222731
7350255900.0 0.4785737777 0.8718301023
7400255600.0 0.4919072334 0.8647056208
7450255300.0 0.5071087919 0.8556797602
7500255000.0 0.5187964255 0.848252645
7550254700.0 0.5328710574 0.8397266037
7600254400.0 0.545860912 0.8316105675
7650254100.0 0.5574534291 0.8237973298
7700253800.0 0.5688468785 0.8157962916
7750253500.0 0.5799419886 0.8080884807
7800253200.0 0.590729109 0.8002837935
7850252900.0 0.6003592967 0.7932458379
7900252600.0 0.6121339279 0.7845589324
7950252300.0 0.6205915926 0.7780592523
8000252000.0 0.6306979831 0.7704418105
8050251700.0 0.641205295 0.762280492
8100251400.0 0.6515314003 0.7540718756
8150251100.0 0.6615183707 0.7454624176
8200250800.0 0.6705605511 0.7373768076
8250250500.0 0.6797172952 0.7295756342
8300250200.0 0.6889297158 0.7210329642
8350249900.0 0.6982604576 0.7123487785
8400249600.0 0.7062823642 0.7042122957
8450249300.0 0.7152066144 0.6951560911
8500249000.0 0.7239671938 0.6859318815
8550248700.0 0.732235311 0.6770046226
8600248400.0 0.7408043523 0.667727769
8650248100.0 0.7484862719 0.6579712322
8700247800.0 0.7580405847 0.6469992006
8750247500.0 0.7662734291 0.6369751106
8800247200.0 0.7743818003 0.6264244389
8850246900.0 0.7831172924 0.6148861319
8900246600.0 0.7918216156 0.6037633476
8950246300.0 0.8009137862 0.5908214031
9000246000.0 0.8099370605 0.5783946637
9050245700.0 0.8195078373 0.5652918217
9100245400.0 0.8275363148 0.5531210413
9150245100.0 0.8373109264 0.539410239
9200244800.0 0.8469261777 0.5244578398
9250244500.0 0.8560486596 0.5092114389
9300244200.0 0.8643273072 0.4948986222
9350243900.0 0.8720216911 0.4811260077
9400243600.0 0.878736671 0.4689546833
9450243300.0 0.8845159634 0.4576550987
9500243000.0 0.8908676763 0.4457102587
9550242700.0 0.8946094617 0.4379167882
9600242400.0 0.8986648791 0.4308289047
9650242100.0 0.9025307535 0.4238056223
9700241800.0 0.9068197807 0.4158723979
9750241500.0 0.9107129973 0.408173016
9800241200.0 0.9156906765 0.3988621515
9850240900.0 0.9214934272 0.3874059392
9900240600.0 0.9272592634 0.3755136536
9950240300.0 0.9339841033 0.3592493197
10000240000.0 0.9387110308 0.3477981395
10050239700.0 0.9443293863 0.332502761
10100239400.0 0.9495986492 0.3165017845
10150239100.0 0.9538152032 0.3016265006
10200238800.0 0.9582589687 0.286534121
10250238500.0 0.9614910555 0.273069819
10300238200.0 0.9646262252 0.2591981967
10350237900.0 0.9674153481 0.2458952373
10400237600.0 0.9698820579 0.2327433946
10450237300.0 0.9726411804 0.2190067147
10500237000.0 0.9748162984 0.2068664601
10550236700.0 0.9770956081 0.1924308443
10600236400.0 0.9792962803 0.1791446315
10650236100.0 0.981042243 0.1645962372
10700235800.0 0.9837101929 0.1521010436
10750235500.0 0.9857890484 0.1386032607
10800235200.0 0.9879183481 0.1242190756
10850234900.0 0.9895908742 0.110075237
10900234600.0 0.9914819692 0.0951958388
10950234300.0 0.9934272837 0.0818612269
11000234000.0 0.9951422575 0.0666782245
11050233700.0 0.9970803042 0.0503721761
11100233400.0 0.9984610782 0.0329632409
11150233100.0 0.9995051772 0.0167967552
11200232800.0 1.000354813 0.0015302086
11250232500.0 1.001372094 -0.0159092448
11300232200.0 1.002295287 -0.0338853391
11350231900.0 1.001831981 -0.0489374494
11400231600.0 1.001395713 -0.0648364954
11450231300.0 1.001312156 -0.0802654973
11500231000.0 0.9995569155 -0.0959191657
11550230700.0 0.998158451 -0.110286204
11600230400.0 0.997260997 -0.1227000339
11650230100.0 0.9952341173 -0.1337354021
11700229800.0 0.9933004461 -0.1487724685
11750229500.0 0.990690358 -0.1630321789
11800229200.0 0.988098696 -0.1769557911
11850228900.0 0.9845096888 -0.1890315413
11900228600.0 0.9810373744 -0.1986075048
11950228300.0 0.9778269184 -0.2089193453
12000228000.0 0.9747920576 -0.2178654107
12050227700.0 0.9715160307 -0.2306261841
12100227400.0 0.9677911978 -0.2423382547
12150227100.0 0.9629368158 -0.2590087425
12200226800.0 0.9590641456 -0.2698626615
12250226500.0 0.9554212017 -0.2828307809
12300226200.0 0.9514452385 -0.2951550222
12350225900.0 0.9465176942 -0.3085653455
12400225600.0 0.9421646698 -0.3214834484
12450225300.0 0.9377585573 -0.3338522862
12500225000.0 0.9321446396 -0.3489503584
12550224700.0 0.9264411724 -0.3626364407
12600224400.0 0.9218527843 -0.3756251788
12650224100.0 0.9159898742 -0.3899124846
12700223800.0 0.9106684944 -0.4027123124
12750223500.0 0.9050415945 -0.4158961425
12800223200.0 0.8995464952 -0.428513847
12850222900.0 0.8944399377 -0.44060369
12900222600.0 0.8886045494 -0.4526425408
12950222300.0 0.8828090618 -0.4656676535
13000222000.0 0.8767201619 -0.4765514411
13050221700.0 0.8701559722 -0.489608485
13100221400.0 0.8633254259 -0.5014352722
13150221100.0 0.8560479685 -0.5143360596
13200220800.0 0.8494289206 -0.5255235384
13250220500.0 0.8423186635 -0.537663993
13300220200.0 0.834864151 -0.5483327849
13350219900.0 0.8267264164 -0.5601063011
13400219600.0 0.818292941 -0.5722359782
13450219300.0 0.8087961531 -0.5857298693
13500219000.0 0.7991675147 -0.5993016663
13550218700.0 0.7888275745 -0.6117691072
13600218400.0 0.7789387232 -0.6240295038
13650218100.0 0.769423865 -0.6354036968
13700217800.0 0.7584667732 -0.6466132078
13750217500.0 0.747923759 -0.6588095935
13800217200.0 0.7372856563 -0.6700343298
13850216900.0 0.7263716204 -0.6816142718
13900216600.0 0.7165332885 -0.6908562804
13950216300.0 0.7053930057 -0.7007246361
14000216000.0 0.69566854 -0.7097629065
14050215700.0 0.6859443071 -0.7179988138
14100215400.0 0.6765258779 -0.7270326179
14150215100.0 0.667401918 -0.7360607011
14200214800.0 0.6576557608 -0.7446326644
14250214500.0 0.6473184721 -0.7539856847
14300214200.0 0.6369966358 -0.7634419164
14350213900.0 0.6257594315 -0.772980498
14400213600.0 0.6139191978 -0.7829515749
14450213300.0 0.600744554 -0.7930989187
14500213000.0 0.5877395189 -0.8030911352
14550212700.0 0.575355656 -0.8120577441
14600212400.0 0.562815476 -0.8210135573
14650212100.0 0.550105289 -0.8299162988
14700211800.0 0.5362502749 -0.8392976092
14750211500.0 0.5241414015 -0.8479381452
14800211200.0 0.5119883844 -0.8556159749
14850210900.0 0.499609733 -0.8633659653
14900210600.0 0.4863365685 -0.871250301
14950210300.0 0.4729869974 -0.8788575576
15000210000.0 0.4603109007 -0.885701243
15050209700.0 0.4480315539 -0.8915516363
15100209400.0 0.4350050605 -0.897557904
15150209100.0 0.4230033313 -0.9030199696
15200208800.0 0.4103615986 -0.9079779235
15250208500.0 0.3988122917 -0.912650305
15300208200.0 0.3869850093 -0.9174646578
15350207900.0 0.3738321365 -0.9219630318
15400207600.0 0.3586845844 -0.9271864688
15450207300.0 0.3445489404 -0.93232963
15500207000.0 0.3302242146 -0.9362051191
15550206700.0 0.3150934773 -0.9421307685
15600206400.0 0.2985986552 -0.9473759045
15650206100.0 0.2837644692 -0.9513955668
15700205800.0 0.2696193454 -0.9550670047
15750205500.0 0.2550988811 -0.958484564
15800205200.0 0.2406471891 -0.9620333304
15850204900.0 0.2265521868 -0.9652750344
15900204600.0 0.2114624225 -0.968907952
15950204300.0 0.1971349665 -0.9717536931
16000204000.0 0.1828587465 -0.9748843855
16050203700.0 0.1678189971 -0.9774621446
16100203400.0 0.1534645385 -0.9800335085
16150203100.0 0.1387261352 -0.9820826129
16200202800.0 0.1247870204 -0.9843159678
16250202500.0 0.1100419073 -0.9860811935
16300202200.0 0.0944601776 -0.9876996347
16350201900.0 0.0797528989 -0.9893351364
16400201600.0 0.0645818576 -0.99003861
16450201300.0 0.0496254826 -0.9911542433
16500201000.0 0.0328431371 -0.9921254252
16550200700.0 0.0170453449 -0.9925498823
16600200400.0 0.0013407365 -0.9929590617
16650200100.0 -0.0150123769 -0.9927954818
16700199800.0 -0.0312649367 -0.9922933096
16750199500.0 -0.0500731519 -0.9915776259
16800199200.0 -0.0657744637 -0.9908620361
16850198900.0 -0.0806610467 -0.989404449
16900198600.0 -0.0947456815 -0.9886455177
16950198300.0 -0.1081495261 -0.9879423705
17000198000.0 -0.121466184 -0.9857751181
17050197700.0 -0.1335279354 -0.9846436367
17100197400.0 -0.1463894813 -0.9824101034
17150197100.0 -0.1595025416 -0.9799886669
17200196800.0 -0.1719435389 -0.9782275062
17250196500.0 -0.1848510634 -0.9753590077
17300196200.0 -0.1974312758 -0.973493546
17350195900.0 -0.2089441229 -0.9712065598
17400195600.0 -0.2210874103 -0.9687317352
17450195300.0 -0.2340212051 -0.965882908
17500195000.0 -0.2475445615 -0.9625265777
17550194700.0 -0.2613916396 -0.9590095225
17600194400.0 -0.27535681 -0.9549405325
17650194100.0 -0.2886310012 -0.9508274321
17700193800.0 -0.3020502003 -0.9463463894
17750193500.0 -0.3163940267 -0.9422211892
17800193200.0 -0.3312815382 -0.9370239059
17850192900.0 -0.3461120712 -0.9318976449
17900192600.0 -0.3611408524 -0.9250206887
17950192300.0 -0.3765067164 -0.9182693006
18000192000.0 -0.3912525066 -0.9110877033
18050191700.0 -0.4052701844 -0.9032931357
18100191400.0 -0.4194288741 -0.8955848672
18150191100.0 -0.4344585338 -0.8876614011
18200190800.0 -0.4513790557 -0.8783987483
18250190500.0 -0.468142991 -0.8689641649
18300190200.0 -0.4835416598 -0.8602211339
18350189900.0 -0.4986537827 -0.851674519
18400189600.0 -0.513586385 -0.8435964052
18450189300.0 -0.5264647247 -0.8356961551
18500189000.0 -0.5398443643 -0.8279792054
18550188700.0 -0.5528297459 -0.8201188511
18600188400.0 -0.5645694194 -0.8134313138
18650188100.0 -0.5753872658 -0.8069330811
18700187800.0 -0.5862896781 -0.8003700539
18750187500.0 -0.596845848 -0.7940726262
18800187200.0 -0.6071019058 -0.7870547299
18850186900.0 -0.6174281426 -0.7800906648
18900186600.0 -0.6275339341 -0.7728729767
18950186300.0 -0.6374222412 -0.7652580316
19000186000.0 -0.6448708615 -0.7593362755
19050185700.0 -0.6541382569 -0.7520289176
19100185400.0 -0.6634569845 -0.7437294558
19150185100.0 -0.674074266 -0.7351775102
19200184800.0 -0.683390213 -0.7265107374
19250184500.0 -0.6935010285 -0.7179071698
19300184200.0 -0.7052143191 -0.707558288
19350183900.0 -0.7163462439 -0.6983375794
19400183600.0 -0.7258625625 -0.6884707832
19450183300.0 -0.7345055288 -0.6782005072
19500183000.0 -0.7431973397 -0.6679746937
19550182700.0 -0.7528537359 -0.656979781
19600182400.0 -0.7631697783 -0.645545034
19650182100.0 -0.7742844815 -0.6333851481
19700181800.0 -0.7846539819 -0.6199419813
19750181500.0 -0.7951860225 -0.6058830876
19800181200.0 -0.8056644178 -0.5909177687
19850180900.0 -0.8154553878 -0.5755028415
19900180600.0 -0.8234529454 -0.5608655344
19950180300.0 -0.8325657035 -0.5449524368
20000180000.0 -0.8253105686 -0.5475349089
20050179700.0 -0.8332052796 -0.5342209387
20100179400.0 -0.8422521042 -0.5212104948
20150179100.0 -0.8501804236 -0.5079432785
20200178800.0 -0.858672445 -0.4953345052
20250178500.0 -0.8680213268 -0.4823869184
20300178200.0 -0.8776782612 -0.4678542599
20350177900.0 -0.8872958253 -0.454019585
20400177600.0 -0.8960398712 -0.4398193629
20450177300.0 -0.9040126414 -0.4249211854
20500177000.0 -0.9122967754 -0.4110891188
20550176700.0 -0.9202420809 -0.3975118419
20600176400.0 -0.9270823538 -0.3844144751
20650176100.0 -0.9334665452 -0.372121955
20700175800.0 -0.9397724161 -0.3604238962
20750175500.0 -0.9465127226 -0.3488331133
20800175200.0 -0.9513396377 -0.3374045722
20850174900.0 -0.956351869 -0.3263291386
20900174600.0 -0.9604927017 -0.3161360727
20950174300.0 -0.9651997517 -0.3038095198
21000174000.0 -0.9684582655 -0.2934689486
21050173700.0 -0.9699429322 -0.282662112
21100173400.0 -0.9743324207 -0.2709580412
21150173100.0 -0.9779353871 -0.2583244357
21200172800.0 -0.9820745019 -0.245032805
21250172500.0 -0.9851462331 -0.2315631637
21300172200.0 -0.988266352 -0.2176664427
21350171900.0 -0.9900550696 -0.2028684415
21400171600.0 -0.9909260994 -0.1880434471
21450171300.0 -0.9917473595 -0.1746094278
21500171000.0 -0.9922015832 -0.1587947536
21550170700.0 -0.991725504 -0.1441720597
21600170400.0 -0.9932134095 -0.1283307805
21650170100.0 -0.9904782572 -0.1116060357
21700169800.0 -0.9896764701 -0.0969905311
21750169500.0 -0.989905568 -0.0800268938
21800169200.0 -0.9891608174 -0.0647883395
21850168900.0 -0.9881383287 -0.0483081146
21900168600.0 -0.9863883576 -0.0314344835
21950168300.0 -0.9854018874 -0.0158820094
22000168000.0 -0.9849599366 -0.0005171236
22050167700.0 -0.9847940962 0.0140293281
22100167400.0 -0.9851238702 0.0291172221
22150167100.0 -0.9858816027 0.0446792784
22200166800.0 -0.9864159424 0.06104576
22250166500.0 -0.9855722525 0.0782972156
22300166200.0 -0.984929984 0.0955557797
22350165900.0 -0.9834660301 0.1115513872
22400165600.0 -0.9822108576 0.1269502661
22450165300.0 -0.9801287457 0.1419965722
22500165000.0 -0.9781006346 0.1557622199
22550164700.0 -0.9782131212 0.1719619669
22600164400.0 -0.9757040793 0.18637688
22650164100.0 -0.9724153037 0.2020801665
22700163800.0 -0.9702481772 0.2180671928
22750163500.0 -0.9677407858 0.2323844807
22800163200.0 -0.9648512141 0.2460731936
22850162900.0 -0.9626661941 0.2594437873
22900162600.0 -0.9610515408 0.2729098471
22950162300.0 -0.9598063077 0.2859563003
23000162000.0 -0.9585087187 0.297846454
23050161700.0 -0.9557306218 0.3105740416
23100161400.0 -0.9535702463 0.3237533344
23150161100.0 -0.9512593862 0.3358749547
23200160800.0 -0.9482749416 0.3485480112
23250160500.0 -0.9457095373 0.360566714
23300160200.0 -0.9427898454 0.373053418
23350159900.0 -0.9393209377 0.3857431126
23400159600.0 -0.9341472737 0.3982944999
23450159300.0 -0.929571719 0.4127107011
23500159000.0 -0.9250973443 0.4251834143
23550158700.0 -0.920193552 0.4389553881
23600158400.0 -0.9146892832 0.4524909136
23650158100.0 -0.9083380115 0.4667747082
23700157800.0 -0.9004678107 0.480746911
23750157500.0 -0.8916989488 0.4945641434
23800157200.0 -0.8825922812 0.5083181567
23850156900.0 -0.8738064481 0.5212273975
23900156600.0 -0.864193322 0.5340035909
23950156300.0 -0.8555635182 0.5463514651
24000156000.0 -0.8459992329 0.558713495
24050155700.0 -0.8364105926 0.5700071631
24100155400.0 -0.8262103504 0.5819879446
24150155100.0 -0.8155752064 0.5937177864
24200154800.0 -0.8046818676 0.6045885664
24250154500.0 -0.7932232521 0.6168917239
24300154200.0 -0.7817187687 0.6284767477
24350153900.0 -0.7699479132 0.6392538763
24400153600.0 -0.7577042506 0.6497687223
24450153300.0 -0.7456988829 0.659721377
24500153000.0 -0.7342061398 0.6695442995
24550152700.0 -0.7227754158 0.678866129
24600152400.0 -0.7108727016 0.6884491824
24650152100.0 -0.699465133 0.6968782672
