!Created with skrf (http://scikit-rf.org).
# Hz S RI R 50.0 
!freq ReS11 ImS11
300000.0 -0.9806534398 -0.103422146
50299700.0 -1.000056586 0.0162288189
100299400.0 -0.997929709 0.0290285783
150299100.0 -1.002932461 0.04601759
200298800.0 -0.9996156677 0.0591306547
250298500.0 -0.9973724652 0.0728312247
300298200.0 -0.9859405884 0.0885512322
350297900.0 -0.9938677473 0.0994213769
400297600.0 -0.9932890179 0.1159354607
450297300.0 -0.9910850835 0.129904442
500297000.0 -0.9892159275 0.1446803995
550296700.0 -0.984267297 0.1571701906
600296400.0 -1.017252484 0.1903649948
650296100.0 -0.982017907 0.1871014196
700295800.0 -0.9792133093 0.201386089
750295500.0 -0.9760605699 0.2152337542
800295200.0 -0.9726451307 0.2295135086
850294900.0 -0.9695153929 0.2434743764
900294600.0 -0.9654518095 0.2571243644
950294300.0 -0.962067498 0.2706511401
1000294000.0 -0.9578406505 0.284903184
1050293700.0 -0.9535040922 0.2985528389
1100293400.0 -0.9489255058 0.312926846
1150293100.0 -0.9451555945 0.3246369821
1200292800.0 -0.9398854638 0.3391803836
1250292500.0 -0.9343221414 0.3525712163
1300292200.0 -0.9286942053 0.3658778031
1350291900.0 -0.9230342996 0.3798928735
1400291600.0 -0.9175873773 0.3929222385
1450291300.0 -0.9122924693 0.4052211167
1500291000.0 -0.905846345 0.4186642611
1550290700.0 -0.899205091 0.4317863937
1600290400.0 -0.8931142805 0.4448309831
1650290100.0 -0.8864331919 0.4569537595
1700289800.0 -0.8795045441 0.4703521067
1750289500.0 -0.8725886305 0.4827299589
1800289200.0 -0.8652147647 0.4955422843
1850288900.0 -0.858493973 0.5071014311
1900288600.0 -0.8506233565 0.5198631558
1950288300.0 -0.8424078543 0.5324663724
2000288000.0 -0.8348087037 0.5438717525
2050287700.0 -0.8265644683 0.5560716454
2100287400.0 -0.8185884634 0.5679314388
2150287100.0 -0.8099458186 0.5800804731
2200286800.0 -0.8022576852 0.5904163376
2250286500.0 -0.7933827691 0.6024893074
2300286200.0 -0.7847259231 0.6138447731
2350285900.0 -0.7756253434 0.6249441094
2400285600.0 -0.7667121554 0.6359799198
2450285300.0 -0.7582511798 0.6463726973
2500285000.0 -0.7482715036 0.6576272989
2550284700.0 -0.7392130495 0.6679064579
2600284400.0 -0.73001409 0.6782351685
2650284100.0 -0.7210866984 0.6885757907
2700283800.0 -0.7104923473 0.6991303369
2750283500.0 -0.6999534044 0.7095885765
2800283200.0 -0.6902729865 0.7194544507
2850282900.0 -0.6800103462 0.7293120227
2900282600.0 -0.6696318944 0.7388026832
2950282300.0 -0.6595676011 0.7479709796
3000282000.0 -0.6488269501 0.7574970744
3050281700.0 -0.6379261568 0.7668931256
3100281400.0 -0.6257003832 0.7761631093
3150281100.0 -0.6139682316 0.7855080328
3200280800.0 -0.6023237995 0.794021379
3250280500.0 -0.5916327299 0.8017353983
3300280200.0 -0.5803925909 0.8095537085
3350279900.0 -0.5689248636 0.816997924
3400279600.0 -0.5568167314 0.8247616315
3450279300.0 -0.5457880592 0.8316914993
3500279000.0 -0.5336444682 0.8386960042
3550278700.0 -0.5213103107 0.8463604696
3600278400.0 -0.5088917753 0.8533704136
3650278100.0 -0.4958114687 0.8610627567
3700277800.0 -0.4837266849 0.8673315885
3750277500.0 -0.4712370778 0.8739014288
3800277200.0 -0.4587471523 0.8804930585
3850276900.0 -0.4468748395 0.8864084518
3900276600.0 -0.4356963283 0.8921999806
3950276300.0 -0.4233716508 0.8981124991
4000276000.0 -0.4111191621 0.9040457063
4050275700.0 -0.398180193 0.9101206332
4100275400.0 -0.3870544276 0.9156216752
4150275100.0 -0.3742744221 0.9211313517
4200274800.0 -0.3613578732 0.9268397976
4250274500.0 -0.348790157 0.9318722958
4300274200.0 -0.3360276246 0.9369458774
4350273900.0 -0.3221070954 0.9423270909
4400273600.0 -0.3072154947 0.9475936322
4450273300.0 -0.2918132199 0.9526219943
4500273000.0 -0.2782346222 0.9569578633
4550272700.0 -0.2641326072 0.9613012287
4600272400.0 -0.2487106274 0.9653917439
4650272100.0 -0.236969025 0.9686048273
4700271800.0 -0.2235963002 0.9719320445
4750271500.0 -0.2119739306 0.9747626926
4800271200.0 -0.1994958504 0.9773575213
4850270900.0 -0.1856155932 0.9802589167
4900270600.0 -0.171697459 0.9826441576
4950270300.0 -0.157584718 0.985200288
5000270000.0 -0.1432667188 0.9871882011
5050269700.0 -0.1298486321 0.9888596427
5100269400.0 -0.116145916 0.9905287271
5150269100.0 -0.1028031568 0.9919861199
5200268800.0 -0.0895673454 0.9930716329
5250268500.0 -0.0766317085 0.9940768216
5300268200.0 -0.0636203782 0.9946961799
5350267900.0 -0.0512863196 0.9953204108
5400267600.0 -0.0351664863 0.9964643776
5450267300.0 -0.0221876759 0.9966797668
5500267000.0 -0.0068619951 0.997106247
5550266700.0 0.0078856012 0.9971807783
5600266400.0 0.0236999185 0.9974275851
5650266100.0 0.0400361675 0.9968636695
5700265800.0 0.0548073028 0.9962569323
5750265500.0 0.0698754062 0.9953033358
5800265200.0 0.0838451824 0.9941649587
5850264900.0 0.097159407 0.9930669693
5900264600.0 0.1138516934 0.9915151145
5950264300.0 0.1259410802 0.9897792258
6000264000.0 0.1398605399 0.9882711921
6050263700.0 0.1524246417 0.9864855624
6100263400.0 0.1647713056 0.9843808332
6150263100.0 0.17951343 0.9821877131
6200262800.0 0.1898169563 0.9804597884
6250262500.0 0.2026822068 0.9779715677
6300262200.0 0.2154976495 0.9751096539
6350261900.0 0.2285570898 0.9721702013
6400261600.0 0.2422706092 0.968758575
6450261300.0 0.2535986585 0.966083462
6500261000.0 0.2662895391 0.9625875523
6550260700.0 0.279401469 0.9585250417
6600260400.0 0.2928737068 0.9545716314
6650260100.0 0.3064942214 0.9502014799
6700259800.0 0.3186418519 0.9459992423
6750259500.0 0.3327995627 0.9412214514
6800259200.0 0.3454044544 0.9361997349
6850258900.0 0.357593916 0.9307505188
6900258600.0 0.3696176958 0.9259060477
6950258300.0 0.38230689 0.9208821681
7000258000.0 0.3939496877 0.9153305243
7050257700.0 0.4064644003 0.9091763942
7100257400.0 0.4191647672 0.9028408998
7150257100.0 0.429365342 0.8976904248
7200256800.0 0.4423305047 0.8913152704
7250256500.0 0.4540040607 0.8851647412
7300256200.0 0.4669686537 0.8783064392
7350255900.0 0.479683229 0.871536877
7400255600.0 0.4928861257 0.8641837329
7450255300.0 0.5080433918 0.8549976901
7500255000.0 0.5196113003 0.8481547349
7550254700.0 0.5329277424 0.8393477704
7600254400.0 0.5456686727 0.8310439292
7650254100.0 0.5574081519 0.823102428
7700253800.0 0.5693658675 0.8152895113
7750253500.0 0.5808741216 0.8076027555
7800253200.0 0.5913321902 0.7996150902
7850252900.0 0.6009905451 0.7926339155
7900252600.0 0.6128003844 0.7838134647
7950252300.0 0.6216233083 0.7770920505
8000252000.0 0.6318786986 0.7693101096
8050251700.0 0.6424314012 0.7610712654
8100251400.0 0.6526741886 0.7527153734
8150251100.0 0.6625619903 0.7440271737
8200250800.0 0.6717718514 0.7362315787
8250250500.0 0.6810785882 0.7281586831
8300250200.0 0.6905526395 0.7196140761
8350249900.0 0.6995748521 0.7108725726
8400249600.0 0.707827573 0.7029064864
8450249300.0 0.7167248973 0.6935409961
8500249000.0 0.7250265776 0.6847948469
8550248700.0 0.7336233956 0.6757935357
8600248400.0 0.7419229756 0.6662302346
8650248100.0 0.7495884063 0.6569027511
8700247800.0 0.7590843175 0.645699355
8750247500.0 0.7673500346 0.6357161175
8800247200.0 0.775583013 0.6254386066
8850246900.0 0.7841081654 0.6139868226
8900246600.0 0.7924698996 0.6027273249
8950246300.0 0.8023318325 0.5896292492
9000246000.0 0.8116536412 0.5770975026
9050245700.0 0.8206737928 0.5639241324
9100245400.0 0.8288684865 0.551565273
9150245100.0 0.8385536851 0.5379484224
9200244800.0 0.8482886338 0.522754861
9250244500.0 0.8577047923 0.5071765621
9300244200.0 0.8660388193 0.4925647238
9350243900.0 0.8740783619 0.4785930756
9400243600.0 0.8804647225 0.4659626793
9450243300.0 0.8864133532 0.454369531
9500243000.0 0.8927041043 0.4418818559
9550242700.0 0.8964592532 0.4342016343
9600242400.0 0.9003861951 0.4266418158
9650242100.0 0.9041304619 0.4199927422
9700241800.0 0.9087061022 0.411600454
9750241500.0 0.912607404 0.4040706936
9800241200.0 0.9170759744 0.3950644372
9850240900.0 0.9229335813 0.383161781
9900240600.0 0.9283484359 0.3716382468
9950240300.0 0.9348737072 0.3557245109
10000240000.0 0.9395135404 0.3437579729
10050239700.0 0.9451989762 0.3287137809
10100239400.0 0.9500610456 0.3131738972
10150239100.0 0.9542352475 0.2982930778
10200238800.0 0.9586079179 0.283590279
10250238500.0 0.9618023683 0.2702658066
10300238200.0 0.9649882293 0.2562599945
10350237900.0 0.9675725135 0.2432061766
10400237600.0 0.9701290728 0.2299797306
10450237300.0 0.9727682408 0.2165105131
10500237000.0 0.9751693181 0.204300835
10550236700.0 0.9774827084 0.1902434763
10600236400.0 0.9796639298 0.1768588188
10650236100.0 0.981333461 0.1626281435
10700235800.0 0.9838302859 0.1503020775
10750235500.0 0.9860159369 0.1370649506
10800235200.0 0.9878913465 0.1234021694
10850234900.0 0.9897839058 0.1084629064
10900234600.0 0.9919579419 0.0942375024
10950234300.0 0.9936099324 0.080858988
11000234000.0 0.9952257393 0.0658718837
11050233700.0 0.9969644398 0.0495292041
11100233400.0 0.9985046858 0.0320149189
11150233100.0 0.9997074001 0.0155693403
11200232800.0 1.000151728 0.0009549689
11250232500.0 1.001369032 -0.0162335085
11300232200.0 1.001151036 -0.0335524145
11350231900.0 1.001292978 -0.0490609224
11400231600.0 1.001255443 -0.065079103
11450231300.0 1.000406911 -0.0815501832
11500231000.0 0.9994851248 -0.0973933449
11550230700.0 0.9983677693 -0.1105598461
11600230400.0 0.996237499 -0.1235728892
11650230100.0 0.9945077793 -0.1347044091
11700229800.0 0.9923459305 -0.1499986082
11750229500.0 0.9903182437 -0.1644465347
11800229200.0 0.9873639577 -0.1787103255
11850228900.0 0.983733147 -0.1911345639
11900228600.0 0.9802452001 -0.2008730774
11950228300.0 0.9770195219 -0.2113263147
12000228000.0 0.9745960077 -0.2196966724
12050227700.0 0.9704048788 -0.2334915702
12100227400.0 0.9679364038 -0.2439737615
12150227100.0 0.9625028021 -0.2607302752
12200226800.0 0.9589121369 -0.2717023681
12250226500.0 0.9549246998 -0.2837183379
12300226200.0 0.9502091181 -0.297021053
12350225900.0 0.9456768553 -0.3100440684
12400225600.0 0.9413487991 -0.3227244781
12450225300.0 0.9372933734 -0.3348298271
12500225000.0 0.9320077903 -0.3496844523
12550224700.0 0.9267709951 -0.3634818526
12600224400.0 0.9216185469 -0.3762766642
12650224100.0 0.9158783544 -0.3907405561
12700223800.0 0.9104378654 -0.4033713559
12750223500.0 0.9049745755 -0.4161220471
12800223200.0 0.8998397612 -0.4284443103
12850222900.0 0.89425297 -0.4408657585
12900222600.0 0.8885885725 -0.4524973154
12950222300.0 0.8825770604 -0.465590998
13000222000.0 0.8766819259 -0.4769726964
13050221700.0 0.8694441229 -0.4896116107
13100221400.0 0.8627432623 -0.5021485468
13150221100.0 0.8556440537 -0.5148950788
13200220800.0 0.8485724679 -0.5256859822
13250220500.0 0.8412289234 -0.5383228164
13300220200.0 0.8338444716 -0.5495362979
13350219900.0 0.8259405611 -0.5612722138
13400219600.0 0.8173520125 -0.5734511986
13450219300.0 0.8076759077 -0.5873128565
13500219000.0 0.7973907991 -0.6013578644
13550218700.0 0.7869296852 -0.6139729437
13600218400.0 0.7765020859 -0.6263315128
13650218100.0 0.7672398977 -0.6373407243
13700217800.0 0.7565973486 -0.649497228
13750217500.0 0.7461986325 -0.6611726036
13800217200.0 0.7342232358 -0.6731394165
13850216900.0 0.7232285457 -0.6844930063
13900216600.0 0.713437251 -0.6930651091
13950216300.0 0.7029462322 -0.7033250586
14000216000.0 0.6932143663 -0.7124740546
14050215700.0 0.6833848556 -0.7208967845
14100215400.0 0.6736493267 -0.7296725028
14150215100.0 0.6648116856 -0.7380435656
14200214800.0 0.6554091053 -0.7465368894
14250214500.0 0.6452664524 -0.755915631
14300214200.0 0.634919407 -0.7650624854
14350213900.0 0.6239019465 -0.7745168954
14400213600.0 0.6122454305 -0.7840527893
14450213300.0 0.5990462638 -0.7941513529
14500213000.0 0.5862334374 -0.8040850012
14550212700.0 0.573831041 -0.8137149967
14600212400.0 0.5613672831 -0.8221795063
14650212100.0 0.5481719302 -0.8308915467
14700211800.0 0.5340806625 -0.8404721793
14750211500.0 0.5220814181 -0.8489002605
14800211200.0 0.5100100936 -0.8566973115
14850210900.0 0.4977878842 -0.8640157469
14900210600.0 0.4842474834 -0.8720230645
14950210300.0 0.4708920202 -0.8797981175
15000210000.0 0.4579466771 -0.886557918
15050209700.0 0.4456139198 -0.893041613
15100209400.0 0.4326577768 -0.8989120959
15150209100.0 0.4201080016 -0.9040585505
15200208800.0 0.4072539488 -0.9097153524
15250208500.0 0.3951949174 -0.9145945785
15300208200.0 0.3835081927 -0.9187924967
15350207900.0 0.3695123905 -0.9234960433
15400207600.0 0.3552149853 -0.9285392798
15450207300.0 0.3404913634 -0.9341519787
15500207000.0 0.3259508122 -0.9379687683
15550206700.0 0.3112324555 -0.9434908642
15600206400.0 0.2951301496 -0.9480024776
15650206100.0 0.2794242401 -0.9520150507
15700205800.0 0.2655141657 -0.956270512
15750205500.0 0.2511013643 -0.9594363846
15800205200.0 0.236564046 -0.9628381346
15850204900.0 0.2222853487 -0.9663306943
15900204600.0 0.2073733838 -0.9699301071
15950204300.0 0.1935246297 -0.9726577223
16000204000.0 0.1793525487 -0.9755805176
16050203700.0 0.1646131969 -0.9781071725
16100203400.0 0.1503466943 -0.9802117801
16150203100.0 0.1363003455 -0.9829284028
16200202800.0 0.1219431109 -0.9842553047
16250202500.0 0.107654874 -0.9865563965
16300202200.0 0.0925739856 -0.9880658176
16350201900.0 0.0775832051 -0.9893441128
16400201600.0 0.0629903862 -0.9898927203
16450201300.0 0.0477822128 -0.9911531857
16500201000.0 0.0313017415 -0.9921240606
16550200700.0 0.0154493574 -0.9924422647
16600200400.0 -0.0003580984 -0.9924035636
16650200100.0 -0.0165360517 -0.992524965
16700199800.0 -0.0333833981 -0.9921549705
16750199500.0 -0.0521089702 -0.9917206104
16800199200.0 -0.0681608597 -0.9911138933
16850198900.0 -0.0832247514 -0.9891570355
16900198600.0 -0.0967873706 -0.9882092059
16950198300.0 -0.1109770957 -0.9874361149
17000198000.0 -0.1234082235 -0.985264853
17050197700.0 -0.136762617 -0.9831819232
17100197400.0 -0.1495074646 -0.9816081065
17150197100.0 -0.1619544592 -0.9797241508
17200196800.0 -0.1753527321 -0.9771353572
17250196500.0 -0.187882173 -0.9750602897
17300196200.0 -0.1998848297 -0.9727334713
17350195900.0 -0.2119916705 -0.9703623609
17400195600.0 -0.2240692253 -0.9678219843
17450195300.0 -0.2371170667 -0.9650941442
17500195000.0 -0.2507353813 -0.9619798457
17550194700.0 -0.2645129425 -0.9581086178
17600194400.0 -0.2781150276 -0.9543152906
17650194100.0 -0.2920010763 -0.9497957562
17700193800.0 -0.3050215563 -0.9458723322
17750193500.0 -0.3195454961 -0.9411796443
17800193200.0 -0.3333353566 -0.9361133393
17850192900.0 -0.3482092661 -0.9307124141
17900192600.0 -0.3632982633 -0.9240152913
17950192300.0 -0.3789248759 -0.9176388357
18000192000.0 -0.3934809905 -0.9101261648
18050191700.0 -0.4074117558 -0.9022812733
18100191400.0 -0.42145521 -0.8945721163
18150191100.0 -0.4364116518 -0.8866405142
18200190800.0 -0.4533237182 -0.8775223341
18250190500.0 -0.4701621508 -0.8679189716
18300190200.0 -0.4855499016 -0.8593472182
18350189900.0 -0.5007145788 -0.850791916
18400189600.0 -0.5148617646 -0.841981655
18450189300.0 -0.5283716453 -0.8343614271
18500189000.0 -0.5417615833 -0.8263682202
18550188700.0 -0.5541690934 -0.8184887085
18600188400.0 -0.5659712039 -0.8120372626
18650188100.0 -0.5771953636 -0.8051496489
18700187800.0 -0.5880037317 -0.7986163924
18750187500.0 -0.5990070471 -0.791639107
18800187200.0 -0.6093036634 -0.7847320839
18850186900.0 -0.6198116281 -0.7776137484
18900186600.0 -0.6303109691 -0.7701479366
18950186300.0 -0.6404605264 -0.7622846334
19000186000.0 -0.6479319179 -0.7558546651
19050185700.0 -0.6573058062 -0.748398682
19100185400.0 -0.6672285946 -0.739962992
19150185100.0 -0.6774358155 -0.7313419142
19200184800.0 -0.6868993864 -0.7225724811
19250184500.0 -0.6978047795 -0.7135941022
19300184200.0 -0.7086831885 -0.7049574372
19350183900.0 -0.7197199582 -0.694924967
19400183600.0 -0.7291826416 -0.6842640843
19450183300.0 -0.738468139 -0.6745211102
19500183000.0 -0.7463805014 -0.6640303899
19550182700.0 -0.755903341 -0.6530311624
19600182400.0 -0.7663151656 -0.6421718961
19650182100.0 -0.7767329519 -0.6300068612
19700181800.0 -0.7874269265 -0.6167749493
19750181500.0 -0.7979068177 -0.6027201509
19800181200.0 -0.8080844773 -0.5880571775
19850180900.0 -0.8176577077 -0.5728370503
19900180600.0 -0.8252897818 -0.5582822889
19950180300.0 -0.8342444334 -0.5421940139
20000180000.0 -0.8276556953 -0.5439137587
20050179700.0 -0.8356052771 -0.5305716201
20100179400.0 -0.8438207139 -0.517798443
20150179100.0 -0.8520832496 -0.5050288852
20200178800.0 -0.8605984817 -0.4927961915
20250178500.0 -0.8693635171 -0.4787304934
20300178200.0 -0.8795375102 -0.4638679397
20350177900.0 -0.8881517307 -0.4497452601
20400177600.0 -0.8974679221 -0.4352236003
20450177300.0 -0.9053117202 -0.4209820952
20500177000.0 -0.9135429685 -0.4071557451
20550176700.0 -0.9213336083 -0.3936137956
20600176400.0 -0.9283406259 -0.3803684771
20650176100.0 -0.9344742067 -0.367562169
20700175800.0 -0.9416189039 -0.3561237979
20750175500.0 -0.9478208677 -0.3442098607
20800175200.0 -0.9532401892 -0.3325847171
20850174900.0 -0.9576154632 -0.3224731937
20900174600.0 -0.9628527043 -0.3098417753
20950174300.0 -0.9670504838 -0.2989358209
21000174000.0 -0.9695783568 -0.2863556064
21050173700.0 -0.9729103759 -0.2765655047
21100173400.0 -0.9776374835 -0.2632467758
21150173100.0 -0.9813201076 -0.2505030561
21200172800.0 -0.9849741221 -0.2371334374
21250172500.0 -0.9877490275 -0.2235724145
21300172200.0 -0.9908480029 -0.2088066552
21350171900.0 -0.9917509245 -0.1944017371
21400171600.0 -0.9933696781 -0.1805160129
21450171300.0 -0.9937337821 -0.1660330049
21500171000.0 -0.9937015307 -0.1507011733
21550170700.0 -0.9933710224 -0.134181009
21600170400.0 -0.9931487226 -0.1192173986
21650170100.0 -0.9923983536 -0.1031571652
21700169800.0 -0.9904739514 -0.0884599058
21750169500.0 -0.9896038586 -0.0731821507
21800169200.0 -0.9890803675 -0.0570937905
21850168900.0 -0.9876877142 -0.0403612934
21900168600.0 -0.9855740387 -0.0241057336
21950168300.0 -0.984309136 -0.0088269084
22000168000.0 -0.983252522 0.0064262111
22050167700.0 -0.9825765946 0.0205839065
22100167400.0 -0.9825517705 0.0355596505
22150167100.0 -0.9833302885 0.0509071473
22200166800.0 -0.9837804083 0.0664638687
22250166500.0 -0.9826898546 0.0840257085
22300166200.0 -0.9820986698 0.100417018
22350165900.0 -0.980974155 0.1166595687
22400165600.0 -0.9788624925 0.1323560316
22450165300.0 -0.9767993371 0.1479016286
22500165000.0 -0.9749869508 0.1615163002
22550164700.0 -0.9746618932 0.1769435525
22600164400.0 -0.97246848 0.1922422526
22650164100.0 -0.9702495834 0.2072694597
22700163800.0 -0.9668678028 0.2234898461
22750163500.0 -0.9653237894 0.2389227564
22800163200.0 -0.9622863519 0.2517222806
22850162900.0 -0.959552122 0.2654224011
22900162600.0 -0.9582690372 0.2790815398
22950162300.0 -0.9572527801 0.2916596994
23000162000.0 -0.9559803874 0.3038178237
23050161700.0 -0.9538379937 0.315682705
23100161400.0 -0.9512119839 0.329075291
23150161100.0 -0.9489184615 0.3412896294
23200160800.0 -0.946126251 0.3536567598
23250160500.0 -0.9432083472 0.364537281
23300160200.0 -0.9404879278 0.3768510526
23350159900.0 -0.9370868592 0.3901487399
23400159600.0 -0.9327071377 0.4031985558
23450159300.0 -0.9274336238 0.4164729475
23500159000.0 -0.9228023159 0.4288583532
23550158700.0 -0.919067647 0.4423960026
23600158400.0 -0.9131436556 0.4552031803
23650158100.0 -0.9068191087 0.4690288481
23700157800.0 -0.8993228335 0.482883058
23750157500.0 -0.8906723613 0.4965278794
23800157200.0 -0.8815353507 0.5094567869
23850156900.0 -0.8730006859 0.5222423937
23900156600.0 -0.8640285437 0.5351060909
23950156300.0 -0.854470766 0.5469474189
24000156000.0 -0.8445541477 0.5593827327
24050155700.0 -0.8350961597 0.5711143626
24100155400.0 -0.8251015533 0.5827602116
24150155100.0 -0.8147658138 0.5946726914
24200154800.0 -0.8033040546 0.6060001333
24250154500.0 -0.7923598723 0.6177902594
24300154200.0 -0.7806987313 0.6296054317
24350153900.0 -0.7682994361 0.6404256391
24400153600.0 -0.7563299625 0.6507118323
24450153300.0 -0.7443166957 0.6602976883
24500153000.0 -0.7330052776 0.670182023
24550152700.0 -0.7218363135 0.6798879559
24600152400.0 -0.710187464 0.6895011606
24650152100.0 -0.6985917669 0.6972879581
