!Created with skrf (http://scikit-rf.org).
# Hz S RI R 50.0 
!freq ReS11 ImS11
300000.0 -0.9748703005 -0.1220021056
50299700.0 -0.9998196599 0.0151394391
100299400.0 -0.9978926466 0.0278734526
150299100.0 -1.002486835 0.0445069432
200298800.0 -0.9995381389 0.0582564351
250298500.0 -0.9972328471 0.0715712923
300298200.0 -0.9859012113 0.0872676303
350297900.0 -0.9940395775 0.0983248234
400297600.0 -0.9930760678 0.1147884573
450297300.0 -0.9908943283 0.1285139312
500297000.0 -0.9893238721 0.1431695816
550296700.0 -0.9844246616 0.1557432652
600296400.0 -1.017192649 0.1891093243
650296100.0 -0.9821593156 0.1858116347
700295800.0 -0.9793153774 0.1999547473
750295500.0 -0.9763657738 0.2139478074
800295200.0 -0.9728644596 0.227994034
850294900.0 -0.9696551606 0.2417119865
900294600.0 -0.9659277397 0.2554036726
950294300.0 -0.9621423609 0.269161127
1000294000.0 -0.958276962 0.2832391626
1050293700.0 -0.9537493174 0.2970086303
1100293400.0 -0.9493426488 0.311453916
1150293100.0 -0.9455285952 0.3232383237
1200292800.0 -0.9402973065 0.3375593016
1250292500.0 -0.9346699982 0.3510592559
1300292200.0 -0.9291020625 0.3643180079
1350291900.0 -0.9234329608 0.378396864
1400291600.0 -0.9180624916 0.3914997292
1450291300.0 -0.9125424612 0.4040534717
1500291000.0 -0.9061281323 0.4173343318
1550290700.0 -0.8997687731 0.4305393874
1600290400.0 -0.8934895213 0.4434784962
1650290100.0 -0.886925667 0.4556979567
1700289800.0 -0.8799998562 0.4690240295
1750289500.0 -0.8729318571 0.4815278683
1800289200.0 -0.8655733424 0.4944096198
1850288900.0 -0.8586746796 0.5056595758
1900288600.0 -0.8512620161 0.5186047118
1950288300.0 -0.8429049274 0.5311687057
2000288000.0 -0.835470023 0.5425800831
2050287700.0 -0.8273786152 0.5551521619
2100287400.0 -0.8193929009 0.5664761513
2150287100.0 -0.8106728213 0.5786364894
2200286800.0 -0.8028724546 0.589158479
2250286500.0 -0.7939915283 0.6012047367
2300286200.0 -0.785241358 0.6128966233
2350285900.0 -0.7768050963 0.6232284638
2400285600.0 -0.7681704315 0.6342474596
2450285300.0 -0.7591613458 0.6450010499
2500285000.0 -0.7492359404 0.6565745293
2550284700.0 -0.739823053 0.6669766871
2600284400.0 -0.7308759894 0.6769447375
2650284100.0 -0.7223644993 0.6869202428
2700283800.0 -0.711937747 0.6974155246
2750283500.0 -0.701664048 0.7080442218
2800283200.0 -0.6917713825 0.7178547166
2850282900.0 -0.6812747206 0.7280409023
2900282600.0 -0.6707397608 0.7377466469
2950282300.0 -0.6603139598 0.7472597214
3000282000.0 -0.6495974688 0.7566818026
3050281700.0 -0.638411146 0.7659692777
3100281400.0 -0.6268908388 0.7748971853
3150281100.0 -0.615669469 0.7838370709
3200280800.0 -0.6042649672 0.7922998069
3250280500.0 -0.5929805952 0.8002414897
3300280200.0 -0.5814551074 0.8084088962
3350279900.0 -0.5694644602 0.8164842107
3400279600.0 -0.556784703 0.8245290933
3450279300.0 -0.5455357613 0.8313290943
3500279000.0 -0.5339052865 0.8384505309
3550278700.0 -0.5218513971 0.8455464598
3600278400.0 -0.5100060084 0.8523645016
3650278100.0 -0.4971426242 0.8599343697
3700277800.0 -0.4849001292 0.866368909
3750277500.0 -0.4723877185 0.8734642192
3800277200.0 -0.4599939184 0.8795370852
3850276900.0 -0.4479209106 0.8855434733
3900276600.0 -0.4369858881 0.8910851501
3950276300.0 -0.4248641011 0.8971556364
4000276000.0 -0.4132476798 0.9030364092
4050275700.0 -0.4005683654 0.9091098738
4100275400.0 -0.3895207392 0.9144083035
4150275100.0 -0.3762576986 0.920314504
4200274800.0 -0.3627390478 0.9261598165
4250274500.0 -0.3502051256 0.9314129331
4300274200.0 -0.3368238554 0.9366676337
4350273900.0 -0.3225370603 0.9421263636
4400273600.0 -0.3078103513 0.9471115412
4450273300.0 -0.2931158503 0.9520755051
4500273000.0 -0.2798104093 0.9562267368
4550272700.0 -0.2661980207 0.9604887124
4600272400.0 -0.2512010223 0.9644589166
4650272100.0 -0.2397356032 0.9677765567
4700271800.0 -0.2269302069 0.971104407
4750271500.0 -0.2153187446 0.9739249936
4800271200.0 -0.2029831286 0.9766916117
4850270900.0 -0.1893827499 0.9794275131
4900270600.0 -0.1754375537 0.9819517253
4950270300.0 -0.1609588449 0.9846799288
5000270000.0 -0.1462233498 0.9867174726
5050269700.0 -0.1328787115 0.9882237164
5100269400.0 -0.1189065296 0.9900734035
5150269100.0 -0.1045388019 0.991645873
5200268800.0 -0.0913123796 0.9928583329
5250268500.0 -0.0784337522 0.9940339191
5300268200.0 -0.0646993972 0.9944258135
5350267900.0 -0.051914576 0.9954297614
5400267600.0 -0.0358051848 0.9960669559
5450267300.0 -0.0223622465 0.9968596926
5500267000.0 -0.0070305447 0.9969320954
5550266700.0 0.0079160875 0.997410099
5600266400.0 0.0235241709 0.997221274
5650266100.0 0.0404765541 0.9965501539
5700265800.0 0.0543345952 0.9956813832
5750265500.0 0.069643092 0.9951327465
5800265200.0 0.0828506645 0.9941722839
5850264900.0 0.0963516731 0.9930416226
5900264600.0 0.1129218317 0.9915220024
5950264300.0 0.1244284993 0.9901023593
6000264000.0 0.1375088375 0.9876592104
6050263700.0 0.1495243664 0.9864416991
6100263400.0 0.1616360178 0.9848734101
6150263100.0 0.1763014971 0.982460844
6200262800.0 0.1858405579 0.9810817391
6250262500.0 0.198437219 0.9787347097
6300262200.0 0.2107284525 0.976185208
6350261900.0 0.2234771692 0.9733869235
6400261600.0 0.2373741516 0.9703856888
6450261300.0 0.2487205444 0.9678228866
6500261000.0 0.2618933447 0.9640447426
6550260700.0 0.2752276617 0.9603979123
6600260400.0 0.2884415736 0.9561301539
6650260100.0 0.3027867612 0.9517885609
6700259800.0 0.3147248764 0.9475393
6750259500.0 0.3283609779 0.9425614457
6800259200.0 0.3418944707 0.937601197
6850258900.0 0.3543179698 0.9321487481
6900258600.0 0.3668505946 0.9269806116
6950258300.0 0.3793653671 0.9216059123
7000258000.0 0.3911362213 0.9163726674
7050257700.0 0.4029719094 0.9105075326
7100257400.0 0.4163791214 0.9041067771
7150257100.0 0.4270135441 0.8986102202
7200256800.0 0.4402465614 0.8922087741
7250256500.0 0.4528736536 0.8854384287
7300256200.0 0.4656377211 0.8789051474
7350255900.0 0.4787159704 0.8718763701
7400255600.0 0.4928790811 0.8642313694
7450255300.0 0.5081978723 0.8552426053
7500255000.0 0.520971166 0.8473698933
7550254700.0 0.5350452218 0.8386089637
7600254400.0 0.5473984583 0.8299329762
7650254100.0 0.5591077596 0.8222095707
7700253800.0 0.571090842 0.8141235446
7750253500.0 0.5816517185 0.8064448723
7800253200.0 0.5923607329 0.7986734671
7850252900.0 0.6020620801 0.791650799
7900252600.0 0.6136605055 0.7828131572
7950252300.0 0.6220293845 0.7763427142
8000252000.0 0.6320542024 0.7687776411
8050251700.0 0.6423772498 0.7606863212
8100251400.0 0.652420339 0.7526476636
8150251100.0 0.6621942692 0.7443512117
8200250800.0 0.6721401586 0.7359690154
8250250500.0 0.680578956 0.7282473697
8300250200.0 0.6896622585 0.7198444204
8350249900.0 0.6988045524 0.7110974313
8400249600.0 0.7072476597 0.7029109681
8450249300.0 0.7154427746 0.6941849248
8500249000.0 0.7241965374 0.6853629494
8550248700.0 0.7325537385 0.676525166
8600248400.0 0.7408738255 0.6668667399
8650248100.0 0.7484988197 0.6575207601
8700247800.0 0.7577172657 0.6464688086
8750247500.0 0.766244399 0.6362316454
8800247200.0 0.774152858 0.6260696441
8850246900.0 0.7829842705 0.61449661
8900246600.0 0.7910395005 0.6031453941
8950246300.0 0.8003029402 0.5907344579
9000246000.0 0.8091221389 0.5787680294
9050245700.0 0.8175228425 0.5664796934
9100245400.0 0.8258352619 0.5542891058
9150245100.0 0.8348127242 0.5413102039
9200244800.0 0.8440391237 0.5271125518
9250244500.0 0.8532488932 0.5122932282
9300244200.0 0.8612047881 0.4988524813
9350243900.0 0.8686420124 0.4856171289
9400243600.0 0.8752767168 0.4739219052
9450243300.0 0.8809970741 0.4634095307
9500243000.0 0.8873572022 0.4517352713
9550242700.0 0.8912252826 0.4441564806
9600242400.0 0.8954552447 0.4366372385
9650242100.0 0.8995908622 0.4298136842
9700241800.0 0.904753687 0.4211747194
9750241500.0 0.9089543629 0.4134014474
9800241200.0 0.9138707529 0.4040466322
9850240900.0 0.920004659 0.392104382
9900240600.0 0.925910529 0.3802867475
9950240300.0 0.9327164608 0.3637974902
10000240000.0 0.9374174541 0.3514104928
10050239700.0 0.9438373985 0.3353839641
10100239400.0 0.949431207 0.31906301
10150239100.0 0.9538749121 0.3034125235
10200238800.0 0.9584133036 0.2881729348
10250238500.0 0.9614553678 0.2745121469
10300238200.0 0.9647333152 0.2605787861
10350237900.0 0.9672321697 0.2473908172
10400237600.0 0.9699252082 0.2337127995
10450237300.0 0.9727906107 0.2198469956
10500237000.0 0.9749353606 0.2079774479
10550236700.0 0.9771434457 0.1934145039
10600236400.0 0.9794261234 0.179515837
10650236100.0 0.9816032547 0.1647537347
10700235800.0 0.9834021229 0.1525154069
10750235500.0 0.9862717642 0.1389700133
10800235200.0 0.9877301491 0.1248475643
10850234900.0 0.9898124645 0.1092452152
10900234600.0 0.9920103297 0.094972375
10950234300.0 0.9938123527 0.0812206582
11000234000.0 0.9956395764 0.0657628582
11050233700.0 0.9974412244 0.0491649623
11100233400.0 0.9990785494 0.0317169031
11150233100.0 1.000310177 0.0144801778
11200232800.0 1.0008959 -0.0013577019
11250232500.0 1.002020717 -0.0192058801
11300232200.0 1.001511079 -0.0374293712
11350231900.0 1.002073001 -0.054060382
11400231600.0 1.001816552 -0.0689178516
11450231300.0 1.000941898 -0.0859038448
11500231000.0 0.9996802718 -0.1018556037
11550230700.0 0.9986357547 -0.1148882739
11600230400.0 0.9965397072 -0.1274004634
11650230100.0 0.9947710379 -0.138674601
11700229800.0 0.9926294445 -0.1546723249
11750229500.0 0.9901639361 -0.1679733712
11800229200.0 0.9874617216 -0.1816217146
11850228900.0 0.9835943698 -0.1931518488
11900228600.0 0.9799361911 -0.2027925222
11950228300.0 0.9765538045 -0.21301185
12000228000.0 0.9737500755 -0.2216882202
12050227700.0 0.9696061104 -0.2343559222
12100227400.0 0.9673051937 -0.244811754
12150227100.0 0.961816123 -0.2622335564
12200226800.0 0.9585238541 -0.2730281087
12250226500.0 0.9541257193 -0.286238677
12300226200.0 0.9493702591 -0.2982663699
12350225900.0 0.9446635992 -0.3118911635
12400225600.0 0.9404703922 -0.3243976423
12450225300.0 0.9359163472 -0.3369075651
12500225000.0 0.9301612894 -0.3518465435
12550224700.0 0.9248909815 -0.3655016809
12600224400.0 0.9200268511 -0.3780901299
12650224100.0 0.9141961085 -0.3924832308
12700223800.0 0.9087528128 -0.4053454378
12750223500.0 0.9032903315 -0.4181669053
12800223200.0 0.8981048509 -0.4312513591
12850222900.0 0.8930913349 -0.4429849877
12900222600.0 0.8872996323 -0.4554373999
12950222300.0 0.8810378549 -0.4676988519
13000222000.0 0.8752799493 -0.478943798
13050221700.0 0.8681696341 -0.4925919875
13100221400.0 0.8618821308 -0.5044388575
13150221100.0 0.8547211936 -0.5167859652
13200220800.0 0.8475216038 -0.5283098975
13250220500.0 0.8403345669 -0.5405006425
13300220200.0 0.8327477788 -0.5513125787
13350219900.0 0.8248609951 -0.5629660094
13400219600.0 0.816326248 -0.5750922771
13450219300.0 0.8070080196 -0.5881118451
13500219000.0 0.797283314 -0.6012539658
13550218700.0 0.7875033329 -0.6130751639
13600218400.0 0.7779692993 -0.6253396677
13650218100.0 0.7685865658 -0.6358059864
13700217800.0 0.7569961266 -0.6476617541
13750217500.0 0.7479338264 -0.6588426144
13800217200.0 0.737117802 -0.6704202538
13850216900.0 0.7253875359 -0.6809749046
13900216600.0 0.7160922049 -0.6898635151
13950216300.0 0.704814949 -0.70031964
14000216000.0 0.6955021864 -0.7089037189
14050215700.0 0.6862157244 -0.7174530248
14100215400.0 0.6768023526 -0.7263152196
14150215100.0 0.6676462479 -0.7349541771
14200214800.0 0.6581370405 -0.7437898408
14250214500.0 0.6478469084 -0.753395955
14300214200.0 0.6373517522 -0.7627648159
14350213900.0 0.6259734752 -0.7725067365
14400213600.0 0.614582411 -0.7819080954
14450213300.0 0.6013541691 -0.7924092698
14500213000.0 0.5886419319 -0.802531936
14550212700.0 0.5762269097 -0.8118713622
14600212400.0 0.563700647 -0.8204554392
14650212100.0 0.5512305166 -0.8290477736
14700211800.0 0.5369730314 -0.8391882003
14750211500.0 0.5255843185 -0.8470071889
14800211200.0 0.512830199 -0.8551460485
14850210900.0 0.500452305 -0.8629412297
14900210600.0 0.4870362112 -0.8707383971
14950210300.0 0.4737281767 -0.8784444654
15000210000.0 0.4610665014 -0.8854071784
15050209700.0 0.4486294237 -0.8911310925
15100209400.0 0.4361541866 -0.8973422557
15150209100.0 0.4239667005 -0.90257692
15200208800.0 0.4113933335 -0.9077303954
15250208500.0 0.3999373989 -0.9123148295
15300208200.0 0.3879498075 -0.9164279261
15350207900.0 0.3743948011 -0.9215683329
15400207600.0 0.3599566681 -0.9282348933
15450207300.0 0.3458643812 -0.9321748355
15500207000.0 0.3308869956 -0.9362883284
15550206700.0 0.3162513551 -0.9420114166
15600206400.0 0.3003914654 -0.9466975473
15650206100.0 0.284235485 -0.9507542901
15700205800.0 0.2708362618 -0.9542882784
15750205500.0 0.256750726 -0.957604652
15800205200.0 0.24263962 -0.9611480321
15850204900.0 0.2285866226 -0.9645761345
15900204600.0 0.2133499179 -0.9682942316
15950204300.0 0.1988414521 -0.9714997743
16000204000.0 0.1849538453 -0.9743243599
16050203700.0 0.1694329135 -0.9773960455
16100203400.0 0.1547972254 -0.9794878133
16150203100.0 0.1398661951 -0.9820287472
16200202800.0 0.1256612364 -0.9840939625
16250202500.0 0.1107208851 -0.9856441019
16300202200.0 0.0952026078 -0.9875173439
16350201900.0 0.0804367304 -0.9890256935
16400201600.0 0.0656434594 -0.9902912443
16450201300.0 0.0501346424 -0.99134652
16500201000.0 0.0331377682 -0.9921326226
16550200700.0 0.0170253177 -0.992648363
16600200400.0 0.0010692073 -0.9927061312
16650200100.0 -0.0149996423 -0.9925168796
16700199800.0 -0.031065933 -0.9925479876
16750199500.0 -0.0504118395 -0.9915523779
16800199200.0 -0.0660179853 -0.9909095204
16850198900.0 -0.0820541717 -0.9894199504
16900198600.0 -0.0957083794 -0.9886816946
16950198300.0 -0.1096412374 -0.9868789194
17000198000.0 -0.1230527979 -0.9864166653
17050197700.0 -0.1357394853 -0.9840992726
17100197400.0 -0.1485436141 -0.9821805613
17150197100.0 -0.1614077138 -0.9802071224
17200196800.0 -0.1738597284 -0.97804823
17250196500.0 -0.1867531467 -0.9755981767
17300196200.0 -0.1992991925 -0.9731790077
17350195900.0 -0.2111143227 -0.9707639937
17400195600.0 -0.2228008584 -0.9682956729
17450195300.0 -0.2356009635 -0.9653859719
17500195000.0 -0.2489905203 -0.9620904979
17550194700.0 -0.2628446743 -0.9584440139
17600194400.0 -0.2766034019 -0.9550995149
17650194100.0 -0.290237093 -0.9507885479
17700193800.0 -0.3031967875 -0.9463345541
17750193500.0 -0.3173678889 -0.9420800558
17800193200.0 -0.3313781332 -0.9367918324
17850192900.0 -0.3465081608 -0.9311613112
17900192600.0 -0.361445754 -0.9252946895
17950192300.0 -0.3768071711 -0.9182342086
18000192000.0 -0.391644335 -0.9107111494
18050191700.0 -0.4055412892 -0.9029472396
18100191400.0 -0.4197076946 -0.8951905322
18150191100.0 -0.4345195351 -0.8872514348
18200190800.0 -0.4512774256 -0.8780925792
18250190500.0 -0.4684234694 -0.868509538
18300190200.0 -0.4838861313 -0.8599479913
18350189900.0 -0.4990984451 -0.8512659715
18400189600.0 -0.513471346 -0.8429235759
18450189300.0 -0.5271938533 -0.8352380772
18500189000.0 -0.5402672948 -0.8269159825
18550188700.0 -0.553106061 -0.8193513359
18600188400.0 -0.565301888 -0.8120629201
18650188100.0 -0.5766156964 -0.8058696327
18700187800.0 -0.5878908745 -0.7989277891
18750187500.0 -0.598466053 -0.7922951582
18800187200.0 -0.6091527527 -0.7855463109
18850186900.0 -0.6193528013 -0.7785334559
18900186600.0 -0.6297687603 -0.7711330362
18950186300.0 -0.6399829213 -0.7633404225
19000186000.0 -0.6473164469 -0.7573563616
19050185700.0 -0.6574170091 -0.7501168418
19100185400.0 -0.666819186 -0.7418544144
19150185100.0 -0.6766464617 -0.7335798482
19200184800.0 -0.6860516447 -0.7252311373
19250184500.0 -0.696981058 -0.7164839949
19300184200.0 -0.7083356869 -0.7070784295
19350183900.0 -0.7190374851 -0.697093396
19400183600.0 -0.7284478083 -0.6868208463
19450183300.0 -0.7372568303 -0.6765826283
19500183000.0 -0.7459670157 -0.6668438702
19550182700.0 -0.7554199455 -0.6557607327
19600182400.0 -0.7657617119 -0.6441160376
19650182100.0 -0.7762026406 -0.6319188511
19700181800.0 -0.7864125529 -0.6185534277
19750181500.0 -0.7968525876 -0.6046569663
19800181200.0 -0.8070136123 -0.5895112742
19850180900.0 -0.8166080516 -0.5742174363
19900180600.0 -0.8243007954 -0.559789844
19950180300.0 -0.8334760516 -0.5434729122
20000180000.0 -0.823014466 -0.5472892083
20050179700.0 -0.831068349 -0.5349093071
20100179400.0 -0.8398577374 -0.5208525038
20150179100.0 -0.8474298424 -0.5099105946
20200178800.0 -0.8560964038 -0.4986247975
20250178500.0 -0.8658245373 -0.4856743804
20300178200.0 -0.8753434348 -0.4721392271
20350177900.0 -0.883850562 -0.4578003557
20400177600.0 -0.8939515825 -0.4436196889
20450177300.0 -0.9018417913 -0.4293490759
20500177000.0 -0.9098699929 -0.4154543573
20550176700.0 -0.9179906397 -0.4019849114
20600176400.0 -0.9249048333 -0.3887564701
20650176100.0 -0.9311506166 -0.3770572507
20700175800.0 -0.937279355 -0.3651721278
20750175500.0 -0.9439066562 -0.3526283393
20800175200.0 -0.9494948298 -0.3422317351
20850174900.0 -0.9537122209 -0.3321250954
20900174600.0 -0.9571396074 -0.320862581
20950174300.0 -0.9607261978 -0.3102640792
21000174000.0 -0.9641405507 -0.2985371615
21050173700.0 -0.9656699818 -0.2901252498
21100173400.0 -0.969024783 -0.2792223441
21150173100.0 -0.9723977526 -0.2668553526
21200172800.0 -0.9771659268 -0.2537754179
21250172500.0 -0.9803218419 -0.2399760629
21300172200.0 -0.9840910362 -0.2260846608
21350171900.0 -0.9858778171 -0.2120516843
21400171600.0 -0.9879418619 -0.1974435432
21450171300.0 -0.9886643536 -0.1830852274
21500171000.0 -0.9892077909 -0.1679728784
21550170700.0 -0.9893531439 -0.1523742077
21600170400.0 -0.9898693895 -0.1382292686
21650170100.0 -0.9896812642 -0.1229434498
21700169800.0 -0.9897913438 -0.1067577037
21750169500.0 -0.9899501031 -0.0912791614
21800169200.0 -0.9901918658 -0.0746769316
21850168900.0 -0.9895337148 -0.057392579
21900168600.0 -0.9895108955 -0.0414097946
21950168300.0 -0.9889009611 -0.0253712533
22000168000.0 -0.9894836195 -0.0105708182
22050167700.0 -0.9895416491 0.0039911933
22100167400.0 -0.990428616 0.019764253
22150167100.0 -0.9913804899 0.0359047131
22200166800.0 -0.9919284382 0.0527821688
22250166500.0 -0.9915836667 0.0693812239
22300166200.0 -0.9901511346 0.0863820743
22350165900.0 -0.9888163814 0.1023109107
22400165600.0 -0.9885594925 0.1177949742
22450165300.0 -0.9866183774 0.1333593887
22500165000.0 -0.9848427176 0.1474248046
22550164700.0 -0.9832672804 0.1629107527
22600164400.0 -0.9806724597 0.1795907551
22650164100.0 -0.9785599443 0.1954242589
22700163800.0 -0.9747581574 0.2113271535
22750163500.0 -0.9726044553 0.2262955973
22800163200.0 -0.9688935028 0.2393367267
22850162900.0 -0.9668873849 0.2527329856
22900162600.0 -0.9647482497 0.2667897385
22950162300.0 -0.9628030542 0.2799630638
23000162000.0 -0.9614005568 0.2927368405
23050161700.0 -0.9584220693 0.3059042319
23100161400.0 -0.9561036251 0.320192819
23150161100.0 -0.9522829136 0.3325368779
23200160800.0 -0.9497025129 0.3461333039
23250160500.0 -0.9476036166 0.3576782435
23300160200.0 -0.9438573008 0.3707973954
23350159900.0 -0.9399657783 0.3841435513
23400159600.0 -0.9348125094 0.397901671
23450159300.0 -0.929786569 0.4124685817
23500159000.0 -0.9252493579 0.4256660776
23550158700.0 -0.920048274 0.4398993152
23600158400.0 -0.914069967 0.4539941133
23650158100.0 -0.9068238534 0.4684948865
23700157800.0 -0.8986102358 0.4826113669
23750157500.0 -0.8888963447 0.4968449895
23800157200.0 -0.8791282626 0.5103263472
23850156900.0 -0.8695392169 0.5241394537
23900156600.0 -0.859769103 0.5358952477
23950156300.0 -0.849428381 0.5488570187
24000156000.0 -0.8406426101 0.5610731824
24050155700.0 -0.8305982141 0.5728804997
24100155400.0 -0.8196868441 0.5863818176
24150155100.0 -0.8095518195 0.5978988839
24200154800.0 -0.7979820949 0.6092181365
24250154500.0 -0.7864176887 0.621315061
24300154200.0 -0.7749474547 0.6335653722
24350153900.0 -0.763004534 0.6448000231
24400153600.0 -0.750303928 0.6553642346
24450153300.0 -0.7382483389 0.6656940473
24500153000.0 -0.7271255065 0.6756892442
24550152700.0 -0.7153759432 0.6858446083
24600152400.0 -0.7039206028 0.6950780258
24650152100.0 -0.6911796373 0.7034969333
