!Created with skrf (http://scikit-rf.org).
# Hz S RI R 50.0 
!freq ReS11 ImS11
300000.0 -0.973709357 -0.1212039536
50299700.0 -0.9998907762 0.0150428477
100299400.0 -0.9979282912 0.0280726661
150299100.0 -1.002652867 0.0449356964
200298800.0 -0.9995142004 0.0582108216
250298500.0 -0.9974980269 0.0716409917
300298200.0 -0.985925063 0.0876100846
350297900.0 -0.9938849364 0.0984399516
400297600.0 -0.9932251096 0.1150725788
450297300.0 -0.9911044595 0.1287713626
500297000.0 -0.9893048022 0.1434188775
550296700.0 -0.9841364222 0.1560255267
600296400.0 -1.01720076 0.1891879086
650296100.0 -0.9821315104 0.1858560128
700295800.0 -0.9792659895 0.1999682434
750295500.0 -0.9762976274 0.2139643618
800295200.0 -0.9730630943 0.2281928416
850294900.0 -0.9697112086 0.2418453125
900294600.0 -0.9656995001 0.2556567939
950294300.0 -0.962137287 0.2693154766
1000294000.0 -0.9583021254 0.2832057307
1050293700.0 -0.9536811585 0.2969707072
1100293400.0 -0.9493576369 0.3114227693
1150293100.0 -0.9453710859 0.3234351088
1200292800.0 -0.9400943006 0.3377790212
1250292500.0 -0.934722724 0.3512296195
1300292200.0 -0.9290647128 0.3643797278
1350291900.0 -0.9232951951 0.3784224288
1400291600.0 -0.9179942006 0.3913778808
1450291300.0 -0.9125259385 0.4040121279
1500291000.0 -0.9061655633 0.4174431626
1550290700.0 -0.899685815 0.4306307873
1600290400.0 -0.893354419 0.4436185161
1650290100.0 -0.8868465164 0.4558030961
1700289800.0 -0.8798712156 0.4693664383
1750289500.0 -0.8728035481 0.4814584969
1800289200.0 -0.8656421666 0.4944087146
1850288900.0 -0.8587007065 0.5057342992
1900288600.0 -0.8510219171 0.5186945222
1950288300.0 -0.8428858362 0.531441606
2000288000.0 -0.8351823901 0.5428869164
2050287700.0 -0.8271286796 0.555080903
2100287400.0 -0.8194046331 0.5665244733
2150287100.0 -0.8107727225 0.5786809707
2200286800.0 -0.8029118022 0.5891122422
2250286500.0 -0.7941586444 0.6014073362
2300286200.0 -0.7852719406 0.6129292029
2350285900.0 -0.7768170704 0.6235798714
2400285600.0 -0.7679948758 0.6344021372
2450285300.0 -0.7592881712 0.6452111957
2500285000.0 -0.7491285738 0.6564866887
2550284700.0 -0.7402258573 0.6670229355
2600284400.0 -0.730840837 0.6767901729
2650284100.0 -0.7224517764 0.6871698617
2700283800.0 -0.7118325619 0.6979113155
2750283500.0 -0.7015006686 0.7082440358
2800283200.0 -0.691509203 0.717751877
2850282900.0 -0.6810585386 0.7282435453
2900282600.0 -0.6707956868 0.7378809841
2950282300.0 -0.6602351342 0.7471323965
3000282000.0 -0.6496032481 0.7567959573
3050281700.0 -0.6384737493 0.7660184753
3100281400.0 -0.6268326451 0.7750613528
3150281100.0 -0.6155820574 0.7839892804
3200280800.0 -0.604048613 0.792335468
3250280500.0 -0.5929281102 0.8003184377
3300280200.0 -0.581487625 0.8083905644
3350279900.0 -0.5691031295 0.8164707748
3400279600.0 -0.5566836229 0.8244926427
3450279300.0 -0.5454883264 0.8313639671
3500279000.0 -0.5338457484 0.8384213114
3550278700.0 -0.5216062577 0.845706138
3600278400.0 -0.5097641653 0.8523819284
3650278100.0 -0.4966156818 0.8597863134
3700277800.0 -0.4846669948 0.8663266874
3750277500.0 -0.4720997496 0.8732437132
3800277200.0 -0.4596674622 0.8797216366
3850276900.0 -0.447737287 0.8856628425
3900276600.0 -0.4368967334 0.8913459475
3950276300.0 -0.4247206538 0.8972522767
4000276000.0 -0.412827527 0.9029685017
4050275700.0 -0.4001712392 0.9091010898
4100275400.0 -0.3893935491 0.914596008
4150275100.0 -0.3761736848 0.9207744159
4200274800.0 -0.3627439701 0.9260799844
4250274500.0 -0.3498961837 0.9315335914
4300274200.0 -0.3369409726 0.9367979386
4350273900.0 -0.3223021572 0.9423765177
4400273600.0 -0.3079145948 0.9470761056
4450273300.0 -0.292902842 0.9522118114
4500273000.0 -0.2797303506 0.9563275729
4550272700.0 -0.2661051762 0.9604897738
4600272400.0 -0.2509324786 0.9646378652
4650272100.0 -0.2396409287 0.9679287032
4700271800.0 -0.2265490465 0.9712971313
4750271500.0 -0.2149715843 0.9740060867
4800271200.0 -0.2027292502 0.9766882765
4850270900.0 -0.1889975213 0.9794797756
4900270600.0 -0.1751126112 0.9819503157
4950270300.0 -0.1605073496 0.9847126865
5000270000.0 -0.1460006133 0.9867792694
5050269700.0 -0.1325172595 0.9883996328
5100269400.0 -0.1184593489 0.9900852723
5150269100.0 -0.1045836312 0.9917233263
5200268800.0 -0.0911995654 0.9927202352
5250268500.0 -0.0782354591 0.9937834675
5300268200.0 -0.064443605 0.9947462345
5350267900.0 -0.0518064185 0.9951431175
5400267600.0 -0.0356157122 0.9963691568
5450267300.0 -0.0223935215 0.9968037505
5500267000.0 -0.0069724871 0.9969937336
5550266700.0 0.0079043411 0.9971030597
5600266400.0 0.023818063 0.9972450893
5650266100.0 0.0403514341 0.9967471475
5700265800.0 0.0543470196 0.995792595
5750265500.0 0.0693137003 0.9952397101
5800265200.0 0.0832723331 0.9941931308
5850264900.0 0.0964718013 0.9932072552
5900264600.0 0.1129510537 0.9911786082
5950264300.0 0.1244431562 0.9896584745
6000264000.0 0.1383871873 0.9881427708
6050263700.0 0.1499549621 0.9866800262
6100263400.0 0.162023205 0.9849208224
6150263100.0 0.1765936948 0.9826193753
6200262800.0 0.1862734214 0.980915919
6250262500.0 0.1989465018 0.9787315921
6300262200.0 0.2110874464 0.9761621986
6350261900.0 0.2240449035 0.9733689207
6400261600.0 0.2377775798 0.9701890432
6450261300.0 0.2488557045 0.9676661765
6500261000.0 0.2623850204 0.963952271
6550260700.0 0.2752820473 0.9599737418
6600260400.0 0.2888488827 0.9560365766
6650260100.0 0.3028120756 0.9515971006
6700259800.0 0.3147827948 0.9470995514
6750259500.0 0.3288316995 0.9423551454
6800259200.0 0.3422417005 0.9372366156
6850258900.0 0.3549294432 0.9321802805
6900258600.0 0.3672150515 0.9267590705
6950258300.0 0.3797728333 0.9213674032
7000258000.0 0.3913694019 0.9161722574
7050257700.0 0.4033812029 0.9105270744
7100257400.0 0.4167189797 0.9039704454
7150257100.0 0.4273860804 0.8984391783
7200256800.0 0.4404906721 0.8920553697
7250256500.0 0.4530967593 0.885492217
7300256200.0 0.4659356403 0.878835527
7350255900.0 0.4788626229 0.8717753049
7400255600.0 0.4927572979 0.8643185625
7450255300.0 0.508097726 0.8549462871
7500255000.0 0.520538357 0.8474275215
7550254700.0 0.5349587538 0.8385418537
7600254400.0 0.5474281852 0.8302630451
7650254100.0 0.5588776271 0.8222003222
7700253800.0 0.5704612084 0.8143942528
7750253500.0 0.5817351445 0.8065642512
7800253200.0 0.5922274418 0.7986173738
7850252900.0 0.6020758308 0.7913913176
7900252600.0 0.6135547832 0.7827876125
7950252300.0 0.6220779943 0.7765282681
8000252000.0 0.6318044115 0.7688698567
8050251700.0 0.6423637147 0.7606285163
8100251400.0 0.652373757 0.7527687683
8150251100.0 0.6623725619 0.7444997986
8200250800.0 0.6716116895 0.7361512152
8250250500.0 0.6809529755 0.7281661022
8300250200.0 0.6896365852 0.7200644485
8350249900.0 0.6987199795 0.7110165973
8400249600.0 0.7066888039 0.703066497
8450249300.0 0.7157020067 0.6943176994
8500249000.0 0.7244320948 0.685443334
8550248700.0 0.7325556517 0.6764577441
8600248400.0 0.7409141502 0.666950266
8650248100.0 0.748650684 0.6575078831
8700247800.0 0.7579054086 0.6465663441
8750247500.0 0.7661627779 0.6362698766
8800247200.0 0.7741051061 0.6260039598
8850246900.0 0.7828339655 0.614423184
8900246600.0 0.7914787156 0.6031754748
8950246300.0 0.8004766331 0.5906075176
9000246000.0 0.8096525847 0.5785568361
9050245700.0 0.8179611062 0.5663082104
9100245400.0 0.826431317 0.5538931724
9150245100.0 0.8350665313 0.5410488606
9200244800.0 0.8444501461 0.5266269916
9250244500.0 0.8537937428 0.5116798537
9300244200.0 0.8616626195 0.498172708
9350243900.0 0.8692626583 0.4847773673
9400243600.0 0.8759237903 0.4732158156
9450243300.0 0.8816425087 0.4624587672
9500243000.0 0.8877523968 0.450826795
9550242700.0 0.8917353637 0.4432996922
9600242400.0 0.896196132 0.4357857062
9650242100.0 0.9000099582 0.4289275872
9700241800.0 0.9052927761 0.420146782
9750241500.0 0.9091677618 0.4126370465
9800241200.0 0.9140967046 0.4032401273
9850240900.0 0.9200396431 0.3915861636
9900240600.0 0.9258718201 0.3797109551
9950240300.0 0.9332483275 0.3629081674
10000240000.0 0.9381825744 0.3508022927
10050239700.0 0.9439000832 0.3351278506
10100239400.0 0.9494875832 0.3187456322
10150239100.0 0.9542508192 0.3030458927
10200238800.0 0.9580922518 0.2875018944
10250238500.0 0.961542331 0.2743493226
10300238200.0 0.9647506413 0.2601281722
10350237900.0 0.9674036632 0.2466712502
10400237600.0 0.9699484383 0.2334017931
10450237300.0 0.9725791801 0.2197537366
10500237000.0 0.9749528857 0.2075450007
10550236700.0 0.9772493097 0.1931736236
10600236400.0 0.979246066 0.1787188594
10650236100.0 0.9821040543 0.1640579921
10700235800.0 0.9836352821 0.1524504478
10750235500.0 0.9860872175 0.1384044147
10800235200.0 0.9879864662 0.1244644924
10850234900.0 0.9900983101 0.1095898123
10900234600.0 0.9918157701 0.0946885804
10950234300.0 0.9936866334 0.0812918638
11000234000.0 0.9955867854 0.0657051867
11050233700.0 0.9972863666 0.0491902962
11100233400.0 0.9986898853 0.0313587843
11150233100.0 1.00009343 0.0148094597
11200232800.0 1.001010194 -0.0016258296
11250232500.0 1.002072378 -0.0189868837
11300232200.0 1.002497795 -0.0375883038
11350231900.0 1.001952118 -0.054221452
11400231600.0 1.001669285 -0.0695848354
11450231300.0 1.001094038 -0.0845007013
11500231000.0 0.9999286183 -0.1015102316
11550230700.0 0.9976953487 -0.1142121561
11600230400.0 0.9972699695 -0.1269336644
11650230100.0 0.9950696401 -0.1386922488
11700229800.0 0.9927033249 -0.1538595187
11750229500.0 0.9903810706 -0.1680064612
11800229200.0 0.9876172994 -0.1811731805
11850228900.0 0.9836400203 -0.1929442056
11900228600.0 0.9798365067 -0.2026433906
11950228300.0 0.9766308853 -0.2126315707
12000228000.0 0.9739451612 -0.2212886895
12050227700.0 0.9702972149 -0.2336047492
12100227400.0 0.9669428448 -0.2451021814
12150227100.0 0.9614843423 -0.2624627129
12200226800.0 0.9583114416 -0.2725683685
12250226500.0 0.9543408403 -0.2850032022
12300226200.0 0.9496723751 -0.2979013003
12350225900.0 0.9449294256 -0.311195783
12400225600.0 0.9402611781 -0.324229843
12450225300.0 0.9359446923 -0.3368311499
12500225000.0 0.9302823998 -0.3515783578
12550224700.0 0.9250636818 -0.3653389251
12600224400.0 0.9202509414 -0.3778750753
12650224100.0 0.914302338 -0.3922571263
12700223800.0 0.9090445969 -0.4052221336
12750223500.0 0.9035519294 -0.4181692333
12800223200.0 0.8981438914 -0.4308571449
12850222900.0 0.8930831462 -0.4430600796
12900222600.0 0.8871185987 -0.4550003432
12950222300.0 0.8811642869 -0.4676114388
13000222000.0 0.8753812989 -0.4790703877
13050221700.0 0.8685063413 -0.4921118811
13100221400.0 0.8615009464 -0.5040373044
13150221100.0 0.8546761433 -0.5168196797
13200220800.0 0.847863301 -0.5279479888
13250220500.0 0.8405501553 -0.5401369073
13300220200.0 0.8327576374 -0.5509161159
13350219900.0 0.8248150667 -0.5626542277
13400219600.0 0.8164269228 -0.5746735382
13450219300.0 0.8069836459 -0.5877184762
13500219000.0 0.7972451228 -0.6011173741
13550218700.0 0.7873721319 -0.6137030231
13600218400.0 0.7776653341 -0.6251256155
13650218100.0 0.767788335 -0.6360797983
13700217800.0 0.7569038845 -0.647859545
13750217500.0 0.7475586522 -0.6587697187
13800217200.0 0.7365512561 -0.669782803
13850216900.0 0.7250956074 -0.6811048439
13900216600.0 0.7164104825 -0.6902729802
13950216300.0 0.7051725369 -0.7001912637
14000216000.0 0.69529966 -0.7092019834
14050215700.0 0.6858745538 -0.7172547016
14100215400.0 0.6763425241 -0.7267981709
14150215100.0 0.6674800229 -0.7351930548
14200214800.0 0.6579044356 -0.7441428398
14250214500.0 0.6475004274 -0.7534553787
14300214200.0 0.6371761528 -0.7630305812
14350213900.0 0.6259691062 -0.7726900609
14400213600.0 0.6145889623 -0.7822895201
14450213300.0 0.6015483877 -0.7926339869
14500213000.0 0.5886157006 -0.8025676189
14550212700.0 0.5758907531 -0.8120682549
14600212400.0 0.5631709346 -0.8206261758
14650212100.0 0.5509681341 -0.8289985029
14700211800.0 0.5368385875 -0.8387896738
14750211500.0 0.5248046271 -0.8471384942
14800211200.0 0.5122780388 -0.8554824128
14850210900.0 0.5000201287 -0.8630694583
14900210600.0 0.4868377297 -0.8709600684
14950210300.0 0.4734408467 -0.8786570807
15000210000.0 0.4608682203 -0.8851973588
15050209700.0 0.4487119147 -0.8914257186
15100209400.0 0.4361214053 -0.8971649165
15150209100.0 0.4234429652 -0.9029963866
15200208800.0 0.411474758 -0.9086325961
15250208500.0 0.3996996805 -0.9123216781
15300208200.0 0.3876548016 -0.9166676486
15350207900.0 0.3740289643 -0.9222046404
15400207600.0 0.3596342078 -0.9276706547
15450207300.0 0.3444612314 -0.9316140903
15500207000.0 0.3311822151 -0.9367945787
15550206700.0 0.315940946 -0.9420485215
15600206400.0 0.2994195192 -0.9465627711
15650206100.0 0.2838794913 -0.950932268
15700205800.0 0.2701617215 -0.954366759
15750205500.0 0.2561727314 -0.958013776
15800205200.0 0.2422548564 -0.9611102341
15850204900.0 0.2281597884 -0.9647468731
15900204600.0 0.2131904337 -0.9682438979
15950204300.0 0.1986008252 -0.9712863328
16000204000.0 0.1845302251 -0.974671317
16050203700.0 0.169073028 -0.9774618678
16100203400.0 0.1547016936 -0.979846252
16150203100.0 0.1396972522 -0.982186303
16200202800.0 0.1250465049 -0.9842203836
16250202500.0 0.1103129561 -0.9861853368
16300202200.0 0.0951448934 -0.9874019495
16350201900.0 0.0798350418 -0.9890538187
16400201600.0 0.0654607432 -0.9903695847
16450201300.0 0.0499000223 -0.9913877872
16500201000.0 0.0329071584 -0.9920730036
16550200700.0 0.0169059189 -0.9926287051
16600200400.0 0.0009557108 -0.9928639487
16650200100.0 -0.0149698705 -0.9926730009
16700199800.0 -0.031467666 -0.9923381558
16750199500.0 -0.0504885186 -0.9918595755
16800199200.0 -0.0666689876 -0.9906363639
16850198900.0 -0.081767774 -0.9894849463
16900198600.0 -0.0961031048 -0.988577031
16950198300.0 -0.1100048824 -0.9876064628
17000198000.0 -0.1230010462 -0.985724776
17050197700.0 -0.1356687184 -0.984348771
17100197400.0 -0.1487017116 -0.9818292693
17150197100.0 -0.1615703692 -0.9797958436
17200196800.0 -0.1740656014 -0.9777984303
17250196500.0 -0.1869355147 -0.9756057185
17300196200.0 -0.1991167224 -0.9732412282
17350195900.0 -0.2110212732 -0.9706390674
17400195600.0 -0.2229442659 -0.9681354383
17450195300.0 -0.2358660814 -0.9653588083
17500195000.0 -0.2490521212 -0.9620826722
17550194700.0 -0.2627001419 -0.9584507481
17600194400.0 -0.2761475616 -0.9546485752
17650194100.0 -0.290276397 -0.9504368489
17700193800.0 -0.3030965693 -0.9466922614
17750193500.0 -0.3177675093 -0.9418461857
17800193200.0 -0.3319916019 -0.9366856262
17850192900.0 -0.3461085172 -0.9315712687
17900192600.0 -0.3615181705 -0.925141732
17950192300.0 -0.3770764199 -0.918148832
18000192000.0 -0.3918955916 -0.9107345232
18050191700.0 -0.4056128541 -0.9027507466
18100191400.0 -0.4199022216 -0.8952118257
18150191100.0 -0.434812312 -0.8871931529
18200190800.0 -0.4516467476 -0.8779340854
18250190500.0 -0.4686004896 -0.8685178817
18300190200.0 -0.4840981791 -0.8596378772
18350189900.0 -0.4990944824 -0.8515824821
18400189600.0 -0.5136579856 -0.8431498331
18450189300.0 -0.5273820651 -0.8348883714
18500189000.0 -0.5403979126 -0.8267439212
18550188700.0 -0.5529095799 -0.8195203889
18600188400.0 -0.5653286443 -0.8121590143
18650188100.0 -0.5765685841 -0.8056974416
18700187800.0 -0.587814869 -0.7991388917
18750187500.0 -0.5985285616 -0.7922551354
18800187200.0 -0.6089699438 -0.7854259501
18850186900.0 -0.6193289631 -0.7784613319
18900186600.0 -0.6297124237 -0.7711153576
18950186300.0 -0.6397737935 -0.7634366359
19000186000.0 -0.6472312656 -0.7572848488
19050185700.0 -0.6562694962 -0.7502262716
19100185400.0 -0.6665514544 -0.7418516017
19150185100.0 -0.6761825039 -0.7334765051
19200184800.0 -0.6863724034 -0.7255671415
19250184500.0 -0.6960127143 -0.7164771325
19300184200.0 -0.7073542681 -0.7067916198
19350183900.0 -0.7182405264 -0.6972095644
19400183600.0 -0.7281910153 -0.6868334125
19450183300.0 -0.7365121 -0.6769347349
19500183000.0 -0.7450237281 -0.6673956569
19550182700.0 -0.7553853988 -0.6557425026
19600182400.0 -0.7652950116 -0.6443112137
19650182100.0 -0.7758922318 -0.6321868427
19700181800.0 -0.7863482369 -0.6185667352
19750181500.0 -0.7966278725 -0.60464359
19800181200.0 -0.8068418781 -0.5895921919
19850180900.0 -0.8163419154 -0.5745008229
19900180600.0 -0.8243145102 -0.5600385174
19950180300.0 -0.8331277601 -0.5439389604
20000180000.0 -0.8242930498 -0.5467060451
20050179700.0 -0.8311102633 -0.5342225788
20100179400.0 -0.8403720775 -0.5216548346
20150179100.0 -0.8475925844 -0.5096070916
20200178800.0 -0.856455805 -0.497178442
20250178500.0 -0.8659916101 -0.4844515898
20300178200.0 -0.8754458761 -0.4712712411
20350177900.0 -0.8844019527 -0.457508015
20400177600.0 -0.8936849256 -0.4428552962
20450177300.0 -0.9021952522 -0.4284237158
20500177000.0 -0.910464443 -0.4148628904
20550176700.0 -0.9182615717 -0.4013650247
20600176400.0 -0.9253426965 -0.3882227148
20650176100.0 -0.9314968646 -0.375900713
20700175800.0 -0.9381806302 -0.3642652222
20750175500.0 -0.9451995287 -0.3528726112
20800175200.0 -0.9499434886 -0.3421224167
20850174900.0 -0.9531470096 -0.3309756902
20900174600.0 -0.958463305 -0.3201038685
20950174300.0 -0.961755071 -0.3090133125
21000174000.0 -0.9643164494 -0.2979195366
21050173700.0 -0.9660339024 -0.2883416292
21100173400.0 -0.969707168 -0.2778435069
21150173100.0 -0.9733470047 -0.2652249175
21200172800.0 -0.9774609978 -0.2522287005
21250172500.0 -0.9812799532 -0.2383916193
21300172200.0 -0.9845227902 -0.2246001362
21350171900.0 -0.9865718294 -0.2101874874
21400171600.0 -0.9882524941 -0.1955988177
21450171300.0 -0.9888348957 -0.1816287077
21500171000.0 -0.9891424903 -0.1668002606
21550170700.0 -0.9903865765 -0.1512809423
21600170400.0 -0.9900911806 -0.1370298268
21650170100.0 -0.9906502626 -0.1210930031
21700169800.0 -0.9905435165 -0.1055509643
21750169500.0 -0.9892685438 -0.0884167959
21800169200.0 -0.9902553301 -0.0728358062
21850168900.0 -0.9892607263 -0.054977222
21900168600.0 -0.9895517481 -0.0396758428
21950168300.0 -0.9889600978 -0.0239494727
22000168000.0 -0.9887479655 -0.0092446687
22050167700.0 -0.9890326879 0.0055114367
22100167400.0 -0.9891335809 0.0212102107
22150167100.0 -0.9903548022 0.0373062441
22200166800.0 -0.9909824713 0.0533879858
22250166500.0 -0.9903491357 0.071081144
22300166200.0 -0.989628588 0.0879701117
22350165900.0 -0.9883475427 0.1031896108
22400165600.0 -0.9868280411 0.1198235867
22450165300.0 -0.9852712439 0.1338979766
22500165000.0 -0.9836249144 0.1486000654
22550164700.0 -0.9828056751 0.1639404758
22600164400.0 -0.9804046262 0.1807810178
22650164100.0 -0.9775644819 0.1971451502
22700163800.0 -0.9747486154 0.2121703713
22750163500.0 -0.9709683976 0.2272389347
22800163200.0 -0.9682563276 0.2404080225
22850162900.0 -0.9660942108 0.2537161627
22900162600.0 -0.964010884 0.2679410589
22950162300.0 -0.9623867695 0.2811024161
23000162000.0 -0.9605941431 0.2935626829
23050161700.0 -0.9580872356 0.3069670006
23100161400.0 -0.9562843553 0.3207572205
23150161100.0 -0.9525473461 0.3334372956
23200160800.0 -0.9486753759 0.3459609074
23250160500.0 -0.9466240585 0.3583614213
23300160200.0 -0.9438674384 0.3709464964
23350159900.0 -0.9395349884 0.385213112
23400159600.0 -0.9351465693 0.398453012
23450159300.0 -0.9297295013 0.4121878214
23500159000.0 -0.9247190595 0.4258299458
23550158700.0 -0.9199585104 0.4398183119
23600158400.0 -0.9141773919 0.4537774717
23650158100.0 -0.9070866207 0.4682643626
23700157800.0 -0.8987918866 0.4826480965
23750157500.0 -0.8894489601 0.4969135227
23800157200.0 -0.879767315 0.5101408845
23850156900.0 -0.8701604213 0.5231077439
23900156600.0 -0.8601627421 0.5357752546
23950156300.0 -0.8502117886 0.5484887671
24000156000.0 -0.8415365241 0.5604785717
24050155700.0 -0.8313437496 0.5727447643
24100155400.0 -0.8201532144 0.5853935844
24150155100.0 -0.8094912646 0.5970392564
24200154800.0 -0.7981211522 0.6096081465
24250154500.0 -0.7872120754 0.6208153555
24300154200.0 -0.7758522284 0.6332121876
24350153900.0 -0.7635487065 0.6442421662
24400153600.0 -0.7514184925 0.6547286645
24450153300.0 -0.7393667034 0.6649238027
24500153000.0 -0.7275551474 0.6752268566
24550152700.0 -0.7158660528 0.6850716924
24600152400.0 -0.704419164 0.6944390106
