!Created with skrf (http://scikit-rf.org).
# Hz S RI R 50.0 
!freq ReS11 ImS11
300000.0 -0.9850105448 -0.0906670939
50299700.0 -1.000027947 0.0165142222
100299400.0 -0.9979970669 0.0294025636
150299100.0 -1.00272638 0.0461521335
200298800.0 -0.9996454986 0.0594859366
250298500.0 -0.9974430564 0.0728773258
300298200.0 -0.9858772974 0.0889079209
350297900.0 -0.9940222977 0.0997446033
400297600.0 -0.9930610187 0.1163301909
450297300.0 -0.9907431078 0.1299078537
500297000.0 -0.9892343967 0.1448411994
550296700.0 -0.9841294188 0.1574523642
600296400.0 -1.017096677 0.1905686569
650296100.0 -0.981840827 0.1871720825
700295800.0 -0.9789895241 0.2016413307
750295500.0 -0.9758505355 0.2155558643
800295200.0 -0.9725858149 0.2298510682
850294900.0 -0.9691690157 0.2436196432
900294600.0 -0.9652879412 0.2573096462
950294300.0 -0.9617557867 0.2710160016
1000294000.0 -0.9575436071 0.2851610084
1050293700.0 -0.9527790048 0.2988853744
1100293400.0 -0.9488043207 0.3130212271
1150293100.0 -0.9450430876 0.3251191138
1200292800.0 -0.939605605 0.339400378
1250292500.0 -0.9340987805 0.3528044908
1300292200.0 -0.9282486871 0.3659276625
1350291900.0 -0.9229058186 0.3800618073
1400291600.0 -0.9173658347 0.3929929271
1450291300.0 -0.9119989427 0.4051837131
1500291000.0 -0.9057293822 0.4187507546
1550290700.0 -0.8993016695 0.4320265158
1600290400.0 -0.8930919264 0.4446852557
1650290100.0 -0.8864068597 0.4569534696
1700289800.0 -0.8794679804 0.4703989527
1750289500.0 -0.8724393282 0.4827544809
1800289200.0 -0.865247292 0.4954767579
1850288900.0 -0.8582771428 0.5069215769
1900288600.0 -0.8505355793 0.519877884
1950288300.0 -0.8422043993 0.5324216027
2000288000.0 -0.8349600588 0.5438715319
2050287700.0 -0.8268052512 0.5561736156
2100287400.0 -0.818641936 0.567770943
2150287100.0 -0.8101054697 0.5800730329
2200286800.0 -0.8022410704 0.5902777641
2250286500.0 -0.7934890568 0.602409141
2300286200.0 -0.7844485159 0.6137931834
2350285900.0 -0.7755856239 0.6249565184
2400285600.0 -0.7666249908 0.6361185142
2450285300.0 -0.7579614709 0.646449344
2500285000.0 -0.7482883668 0.6577311941
2550284700.0 -0.738984981 0.6679186303
2600284400.0 -0.7296732194 0.6783573033
2650284100.0 -0.7207779567 0.6888033551
2700283800.0 -0.7099541334 0.6992571204
2750283500.0 -0.6996107801 0.709695963
2800283200.0 -0.6898443266 0.7194390789
2850282900.0 -0.6796568845 0.7291747329
2900282600.0 -0.6694464347 0.7386771195
2950282300.0 -0.6593632771 0.7481374628
3000282000.0 -0.6485839757 0.7575217506
3050281700.0 -0.6374037916 0.7668720887
3100281400.0 -0.6255984592 0.7760631159
3150281100.0 -0.6140319169 0.7853839567
3200280800.0 -0.6023399565 0.7938211803
3250280500.0 -0.5915533084 0.8016122285
3300280200.0 -0.5803992675 0.8094219254
3350279900.0 -0.5690044965 0.8168747223
3400279600.0 -0.557084791 0.8246655301
3450279300.0 -0.5458211264 0.8318871336
3500279000.0 -0.5337992463 0.83902274
3550278700.0 -0.5214517856 0.8463492671
3600278400.0 -0.5091145131 0.8532642196
3650278100.0 -0.4958414268 0.8610890023
3700277800.0 -0.4839861214 0.8677129362
3750277500.0 -0.4715501206 0.8739043907
3800277200.0 -0.4591429846 0.8805319588
3850276900.0 -0.4467691803 0.8864851331
3900276600.0 -0.4358103625 0.8921000552
3950276300.0 -0.4229927597 0.8981117478
4000276000.0 -0.4110902665 0.9041085281
4050275700.0 -0.397790771 0.9103174059
4100275400.0 -0.3865890393 0.9157704084
4150275100.0 -0.3738418943 0.9213415385
4200274800.0 -0.3608691859 0.9266173843
4250274500.0 -0.3485442033 0.9317161788
4300274200.0 -0.3355885238 0.9370545823
4350273900.0 -0.3218526226 0.942420731
4400273600.0 -0.307014077 0.947477766
4450273300.0 -0.291514581 0.9523825582
4500273000.0 -0.278009563 0.9568747401
4550272700.0 -0.2638959374 0.9611569661
4600272400.0 -0.2485031379 0.9652024135
4650272100.0 -0.2368248112 0.9685180279
4700271800.0 -0.2233517151 0.9718162837
4750271500.0 -0.2115378302 0.9747289646
4800271200.0 -0.198876576 0.9773737682
4850270900.0 -0.1851952924 0.9801660929
4900270600.0 -0.17138178 0.982628377
4950270300.0 -0.1572373229 0.9851218406
5000270000.0 -0.1433643083 0.9873902667
5050269700.0 -0.1297616071 0.9889893641
5100269400.0 -0.1162396916 0.9906121861
5150269100.0 -0.1028383724 0.9923624139
5200268800.0 -0.0895238767 0.9929021406
5250268500.0 -0.0765783711 0.9940295813
5300268200.0 -0.0635782474 0.9949683997
5350267900.0 -0.0512176681 0.9952069805
5400267600.0 -0.0350916085 0.99650724
5450267300.0 -0.0223920882 0.9967088617
5500267000.0 -0.0071499916 0.9970870274
5550266700.0 0.0076877745 0.9972373984
5600266400.0 0.0232327062 0.9973417916
5650266100.0 0.0394643206 0.9968395281
5700265800.0 0.0539182697 0.996108553
5750265500.0 0.0691593309 0.9955837955
5800265200.0 0.0831110211 0.993973033
5850264900.0 0.0963060847 0.9932660251
5900264600.0 0.1128230786 0.9910348466
5950264300.0 0.1253643075 0.9897437647
6000264000.0 0.1394330508 0.9877796264
6050263700.0 0.1521207792 0.9863988928
6100263400.0 0.1646946957 0.9844543817
6150263100.0 0.179705908 0.9822272428
6200262800.0 0.1899356604 0.9800895191
6250262500.0 0.20270088 0.9775639933
6300262200.0 0.2155584083 0.9747731284
6350261900.0 0.2285661066 0.9719264489
6400261600.0 0.2424137364 0.9684838828
6450261300.0 0.2540383402 0.9658008761
6500261000.0 0.2667305518 0.9623217925
6550260700.0 0.2797145902 0.958292245
6600260400.0 0.2931690753 0.9542737463
6650260100.0 0.3069953372 0.9500086266
6700259800.0 0.3186160095 0.9457010878
6750259500.0 0.3325421623 0.9408088598
6800259200.0 0.345725002 0.9362019701
6850258900.0 0.35750524 0.9307559763
6900258600.0 0.3696574246 0.9259021758
6950258300.0 0.3820954759 0.9208212627
7000258000.0 0.3940882725 0.9152767945
7050257700.0 0.4064392777 0.9091568904
7100257400.0 0.4193252807 0.9030964361
7150257100.0 0.4296398033 0.8978120372
7200256800.0 0.4421220235 0.8916480859
7250256500.0 0.4538435285 0.8852181642
7300256200.0 0.4671862579 0.8784056848
7350255900.0 0.4796229857 0.8717680215
7400255600.0 0.4922803155 0.8645978078
7450255300.0 0.5069925284 0.8555286649
7500255000.0 0.5187117608 0.8484914723
7550254700.0 0.5326765383 0.8402232358
7600254400.0 0.5451280069 0.8318672185
7650254100.0 0.5565111929 0.8240556707
7700253800.0 0.5687007198 0.8158732657
7750253500.0 0.5801906439 0.8080338897
7800253200.0 0.5908272139 0.8001264762
7850252900.0 0.6003886556 0.7930986622
7900252600.0 0.6123478935 0.7840246612
7950252300.0 0.6212480537 0.7772741833
8000252000.0 0.631399402 0.7695454897
8050251700.0 0.6421485868 0.7612478113
8100251400.0 0.6522436961 0.7530288748
8150251100.0 0.6625052222 0.7441236629
8200250800.0 0.671994401 0.7360558305
8250250500.0 0.680757706 0.7281784163
8300250200.0 0.6904807838 0.7194095961
8350249900.0 0.6992067439 0.7105753745
8400249600.0 0.7077686291 0.7025478993
8450249300.0 0.7170551361 0.6931562798
8500249000.0 0.725390015 0.6842943539
8550248700.0 0.7337768973 0.6751681599
8600248400.0 0.7424020881 0.6657858595
8650248100.0 0.7499244418 0.6563621699
8700247800.0 0.7594632566 0.6454102265
8750247500.0 0.7678333456 0.6353358308
8800247200.0 0.7757678879 0.6251314611
8850246900.0 0.7842908125 0.6136914644
8900246600.0 0.7927750619 0.6027401702
8950246300.0 0.8022089332 0.5898698393
9000246000.0 0.8116270016 0.5773731069
9050245700.0 0.8203302927 0.5645463946
9100245400.0 0.8287174342 0.5522360355
9150245100.0 0.8382614608 0.5386380274
9200244800.0 0.8473385416 0.5237944547
9250244500.0 0.8567674636 0.5084326542
9300244200.0 0.8653683314 0.4939755994
9350243900.0 0.8730972905 0.479971485
9400243600.0 0.8799275084 0.4673066505
9450243300.0 0.8857618263 0.4553624361
9500243000.0 0.8922567405 0.4425236969
9550242700.0 0.8962476428 0.4342730242
9600242400.0 0.9003798196 0.4264307464
9650242100.0 0.9041188586 0.4194793138
9700241800.0 0.908606418 0.410960154
9750241500.0 0.9125408933 0.403151844
9800241200.0 0.9174810164 0.3937477132
9850240900.0 0.9226691339 0.3820689257
9900240600.0 0.9279659777 0.3710096431
9950240300.0 0.9345902063 0.3547718576
10000240000.0 0.9393985406 0.3430046274
10050239700.0 0.9446911499 0.3283461041
10100239400.0 0.9495779489 0.3128775029
10150239100.0 0.9540369606 0.2983243686
10200238800.0 0.9585003275 0.2831084427
10250238500.0 0.9616758539 0.2699426449
10300238200.0 0.9649312065 0.2560212719
10350237900.0 0.9676190825 0.2430206013
10400237600.0 0.9702864719 0.2298309856
10450237300.0 0.9729804324 0.2161604306
10500237000.0 0.9752159114 0.2042794644
10550236700.0 0.9775193691 0.1905431305
10600236400.0 0.9795997762 0.177078459
10650236100.0 0.9814119599 0.1625707414
10700235800.0 0.9836907227 0.1505648982
10750235500.0 0.986044594 0.1370823313
10800235200.0 0.9879417993 0.1237494227
10850234900.0 0.9897364108 0.1090095067
10900234600.0 0.9919250028 0.0945247758
10950234300.0 0.9935852933 0.0811971293
11000234000.0 0.9950232578 0.0664887605
11050233700.0 0.9967870697 0.0502931832
11100233400.0 0.9981521114 0.0331772695
11150233100.0 0.9992620589 0.017207954
11200232800.0 0.9995342748 0.0016735333
11250232500.0 1.000576346 -0.0141188906
11300232200.0 1.001432622 -0.0324829274
11350231900.0 1.001084304 -0.0475271496
11400231600.0 1.000779919 -0.0643247069
11450231300.0 0.9995499285 -0.0794925214
11500231000.0 0.9991824702 -0.0959570815
11550230700.0 0.9975430084 -0.1093697776
11600230400.0 0.9959132725 -0.1225500725
11650230100.0 0.9937110467 -0.1338113833
11700229800.0 0.992181145 -0.1487512564
11750229500.0 0.9895397386 -0.1639812745
11800229200.0 0.9869704077 -0.1773998636
11850228900.0 0.9834021278 -0.1904097395
11900228600.0 0.9798068151 -0.2007173982
11950228300.0 0.9766022958 -0.2116885696
12000228000.0 0.9739463557 -0.2204795672
12050227700.0 0.970601169 -0.2328279947
12100227400.0 0.9669628129 -0.2446829206
12150227100.0 0.9617356886 -0.2611985558
12200226800.0 0.9583306108 -0.2720717639
12250226500.0 0.9548175891 -0.2833356384
12300226200.0 0.9510417692 -0.2965631803
12350225900.0 0.9458455469 -0.3101008421
12400225600.0 0.9417565577 -0.3228681196
12450225300.0 0.9370116519 -0.3358134986
12500225000.0 0.9317847011 -0.3497489577
12550224700.0 0.9267693809 -0.3634075836
12600224400.0 0.9218299924 -0.3759730852
12650224100.0 0.9161464095 -0.390086924
12700223800.0 0.9109378257 -0.4027430468
12750223500.0 0.9054871326 -0.4154781447
12800223200.0 0.9004176355 -0.4273663619
12850222900.0 0.894824267 -0.4402291922
12900222600.0 0.8891460684 -0.4518302462
12950222300.0 0.882684683 -0.4650488067
13000222000.0 0.8766095861 -0.4765770004
13050221700.0 0.8697611918 -0.489511941
13100221400.0 0.8626027098 -0.5012890543
13150221100.0 0.8556495003 -0.5141998691
13200220800.0 0.8488652869 -0.5256022442
13250220500.0 0.8413258412 -0.5378911328
13300220200.0 0.8339371738 -0.5489633536
13350219900.0 0.8255549856 -0.561160077
13400219600.0 0.817076767 -0.5733394861
13450219300.0 0.8075166807 -0.5869883138
13500219000.0 0.7973791927 -0.6009075667
13550218700.0 0.7872817304 -0.6138144065
13600218400.0 0.7770939959 -0.6258476731
13650218100.0 0.7669824818 -0.6372689111
13700217800.0 0.7556741176 -0.6490093016
13750217500.0 0.7463350004 -0.661186572
13800217200.0 0.7351998777 -0.6723945293
13850216900.0 0.7239629016 -0.6842389601
13900216600.0 0.7139125171 -0.6925423684
13950216300.0 0.7030254437 -0.7037089826
14000216000.0 0.6934377889 -0.7123593124
14050215700.0 0.6839643589 -0.7205079629
14100215400.0 0.6740840881 -0.7299997528
14150215100.0 0.6650260646 -0.7381699296
14200214800.0 0.6556361804 -0.7468818195
14250214500.0 0.6455669679 -0.755978223
14300214200.0 0.6355361165 -0.7649929336
14350213900.0 0.6241996174 -0.7743763487
14400213600.0 0.6130125302 -0.7839044862
14450213300.0 0.6000374212 -0.7939192226
14500213000.0 0.5869716385 -0.8036037212
14550212700.0 0.5745077629 -0.8132454309
14600212400.0 0.5623486129 -0.821657305
14650212100.0 0.5492297328 -0.830474072
14700211800.0 0.5356311451 -0.8400849596
14750211500.0 0.5228768223 -0.8479314279
14800211200.0 0.5112052392 -0.8556775891
14850210900.0 0.4990467431 -0.8634939633
14900210600.0 0.4854840223 -0.8714033962
14950210300.0 0.4718249851 -0.8789091304
15000210000.0 0.4587991365 -0.8857735467
15050209700.0 0.4463127833 -0.8921253966
15100209400.0 0.4331356319 -0.8981920285
15150209100.0 0.4209086509 -0.9037574977
15200208800.0 0.4077154059 -0.9089611002
15250208500.0 0.3962851984 -0.9134403218
15300208200.0 0.3833061892 -0.9190673362
15350207900.0 0.3703195097 -0.9240224239
15400207600.0 0.3559019285 -0.9288179607
15450207300.0 0.3402135222 -0.934022407
15500207000.0 0.3259065149 -0.9388684037
15550206700.0 0.3112631338 -0.9438247841
15600206400.0 0.2955043686 -0.9480352657
15650206100.0 0.2795644058 -0.952486856
15700205800.0 0.2663888624 -0.9562612602
15750205500.0 0.2515520859 -0.9596229457
15800205200.0 0.2371506832 -0.9629959759
15850204900.0 0.222877729 -0.9664172298
15900204600.0 0.2079598896 -0.9699662333
15950204300.0 0.1941190343 -0.9727152074
16000204000.0 0.1801602181 -0.9753633816
16050203700.0 0.1653644952 -0.9786423421
16100203400.0 0.1515954324 -0.9804782104
16150203100.0 0.1371903766 -0.9830514333
16200202800.0 0.1230821546 -0.9848564372
16250202500.0 0.1086010003 -0.9863893945
16300202200.0 0.0934607736 -0.9878856588
16350201900.0 0.0786281797 -0.9892834398
16400201600.0 0.06447665 -0.9902836499
16450201300.0 0.0492350445 -0.9912254111
16500201000.0 0.0328257075 -0.9921354243
16550200700.0 0.0171225926 -0.9926862551
16600200400.0 0.001636051 -0.9927679878
16650200100.0 -0.0151282012 -0.992607444
16700199800.0 -0.0315695458 -0.9921530835
16750199500.0 -0.0502324176 -0.9916418389
16800199200.0 -0.0664046774 -0.9905152794
16850198900.0 -0.0822267186 -0.9893920089
16900198600.0 -0.0958190946 -0.9888682742
16950198300.0 -0.1090056565 -0.9874544104
17000198000.0 -0.1220576771 -0.9855144066
17050197700.0 -0.1353506971 -0.9836815944
17100197400.0 -0.1487658745 -0.9819540294
17150197100.0 -0.1614141068 -0.9801501493
17200196800.0 -0.1744580007 -0.9772221587
17250196500.0 -0.1874371366 -0.9751454987
17300196200.0 -0.1998316169 -0.9728158756
17350195900.0 -0.2119048604 -0.9703999299
17400195600.0 -0.2241509348 -0.9679325168
17450195300.0 -0.2373642261 -0.9650191376
17500195000.0 -0.2507556374 -0.961619529
17550194700.0 -0.2646327349 -0.958095776
17600194400.0 -0.2787679627 -0.9539795709
17650194100.0 -0.2920305274 -0.9501240177
17700193800.0 -0.3052995447 -0.9457267656
17750193500.0 -0.3192783483 -0.9410884184
17800193200.0 -0.3336379631 -0.9359677489
17850192900.0 -0.3484553547 -0.9308247764
17900192600.0 -0.3631412151 -0.9248905116
17950192300.0 -0.3784943264 -0.918121789
18000192000.0 -0.3930068142 -0.9109639671
18050191700.0 -0.406498898 -0.903027902
18100191400.0 -0.4207881669 -0.8955384319
18150191100.0 -0.4355523155 -0.8875346026
18200190800.0 -0.4522337129 -0.8784239117
18250190500.0 -0.4689325272 -0.8691285773
18300190200.0 -0.4837780223 -0.8606840534
18350189900.0 -0.4992397215 -0.8523853828
18400189600.0 -0.5138419291 -0.8439115419
18450189300.0 -0.5270918631 -0.8353945578
18500189000.0 -0.5404602084 -0.8280928292
18550188700.0 -0.5530162469 -0.8196868376
18600188400.0 -0.5652383383 -0.8122855911
18650188100.0 -0.5764337247 -0.8060228366
18700187800.0 -0.5873777445 -0.7990598967
18750187500.0 -0.5982773123 -0.7922913201
18800187200.0 -0.6091722608 -0.7847825858
18850186900.0 -0.6195693489 -0.7775100565
18900186600.0 -0.6301169637 -0.7697310868
18950186300.0 -0.6405315321 -0.7616580412
19000186000.0 -0.6482997015 -0.7551345581
19050185700.0 -0.6577612067 -0.7475146605
19100185400.0 -0.6676537844 -0.7391120262
19150185100.0 -0.6784823143 -0.7305361284
19200184800.0 -0.6879407138 -0.7219090431
19250184500.0 -0.6977029513 -0.7126205234
19300184200.0 -0.7094384324 -0.7034387064
19350183900.0 -0.7203863506 -0.6935305651
19400183600.0 -0.7300597166 -0.6831951449
19450183300.0 -0.7383369552 -0.673094694
19500183000.0 -0.7463951059 -0.6637854802
19550182700.0 -0.7563747385 -0.6524216295
19600182400.0 -0.766291743 -0.6412133489
19650182100.0 -0.77727108 -0.629240101
19700181800.0 -0.7874269288 -0.6164650512
19750181500.0 -0.7972591598 -0.6026579002
19800181200.0 -0.8074471155 -0.5880678809
19850180900.0 -0.816647589 -0.5731042114
19900180600.0 -0.8246244453 -0.5590954703
19950180300.0 -0.8335946199 -0.5430324165
20000180000.0 -0.8277651702 -0.5443168154
20050179700.0 -0.8356492757 -0.5316245132
20100179400.0 -0.8442067334 -0.5182069799
20150179100.0 -0.8526291843 -0.5054993069
20200178800.0 -0.8607012649 -0.4931809211
20250178500.0 -0.8693409648 -0.4794295133
20300178200.0 -0.8788961316 -0.4643828799
20350177900.0 -0.8880082089 -0.4502298899
20400177600.0 -0.8965872251 -0.4357936492
20450177300.0 -0.9046799388 -0.421627048
20500177000.0 -0.9125106233 -0.4075969507
20550176700.0 -0.9200860774 -0.3939132913
20600176400.0 -0.9265997361 -0.3805707748
20650176100.0 -0.934338439 -0.3676570862
20700175800.0 -0.9400902723 -0.3559332292
20750175500.0 -0.9472482346 -0.3435509201
20800175200.0 -0.9519864175 -0.3324739729
20850174900.0 -0.9568412484 -0.3206431276
20900174600.0 -0.9611551728 -0.3086702491
20950174300.0 -0.9650945603 -0.2967077374
21000174000.0 -0.9693581329 -0.2861699734
21050173700.0 -0.9718972849 -0.2741932991
21100173400.0 -0.976647283 -0.2617145945
21150173100.0 -0.9810215191 -0.2491714895
21200172800.0 -0.983681909 -0.2355745604
21250172500.0 -0.9873795451 -0.2218071964
21300172200.0 -0.9894047257 -0.207184686
21350171900.0 -0.9916690906 -0.1933055976
21400171600.0 -0.993620857 -0.1792013866
21450171300.0 -0.9932270514 -0.1643996022
21500171000.0 -0.9924361003 -0.14890069
21550170700.0 -0.9928006016 -0.1337501325
21600170400.0 -0.9936368497 -0.1178975946
21650170100.0 -0.991699845 -0.1033028444
21700169800.0 -0.9904117298 -0.087554486
21750169500.0 -0.9892254505 -0.0702299786
21800169200.0 -0.9888482376 -0.0573445248
21850168900.0 -0.9874090001 -0.0399782404
21900168600.0 -0.9854800948 -0.0239954257
21950168300.0 -0.9847942134 -0.0079185634
22000168000.0 -0.9830778653 0.0059758716
22050167700.0 -0.9829954395 0.0206672405
22100167400.0 -0.9827844895 0.0357958508
22150167100.0 -0.983200839 0.0510590701
22200166800.0 -0.9831405491 0.0671684135
22250166500.0 -0.9830674535 0.0839459121
22300166200.0 -0.9823864543 0.1013341274
22350165900.0 -0.9798847738 0.1169115371
22400165600.0 -0.9788465444 0.1319612584
22450165300.0 -0.9764954122 0.1473587826
22500165000.0 -0.9746893192 0.159968735
22550164700.0 -0.9730239453 0.1759076211
22600164400.0 -0.9718822558 0.1920008672
22650164100.0 -0.9705795463 0.2066762467
22700163800.0 -0.9673708739 0.2217741957
22750163500.0 -0.9648584621 0.2368884208
22800163200.0 -0.9617310059 0.2507231805
22850162900.0 -0.9593708712 0.2641099293
22900162600.0 -0.9580733857 0.2774552577
22950162300.0 -0.9564897502 0.2902922526
23000162000.0 -0.9553557961 0.3022091722
23050161700.0 -0.9533218909 0.3148346572
23100161400.0 -0.9509884398 0.3274692263
23150161100.0 -0.9483245932 0.3400007376
23200160800.0 -0.9459098453 0.3521692437
23250160500.0 -0.9423278344 0.3645116963
23300160200.0 -0.9396078364 0.3759247579
23350159900.0 -0.9364271832 0.3887131724
23400159600.0 -0.931757387 0.4015949661
23450159300.0 -0.926596725 0.4144508334
23500159000.0 -0.9217627226 0.4270006912
23550158700.0 -0.9172819311 0.440617051
23600158400.0 -0.9120523585 0.4531133454
23650158100.0 -0.9060872081 0.4672309425
23700157800.0 -0.8987186318 0.4806136784
23750157500.0 -0.8901491075 0.4942914477
23800157200.0 -0.8811952173 0.5071666325
23850156900.0 -0.8725199293 0.5201383315
23900156600.0 -0.8631235594 0.5326467135
23950156300.0 -0.8539167055 0.5447232054
24000156000.0 -0.8452908637 0.5572461145
24050155700.0 -0.8360563691 0.5684878959
24100155400.0 -0.8247070372 0.5805915189
24150155100.0 -0.8144491179 0.5922324396
24200154800.0 -0.8040224201 0.6033909135
24250154500.0 -0.7928848819 0.6153288246
24300154200.0 -0.7812710359 0.6272382065
24350153900.0 -0.7698697357 0.6378614843
24400153600.0 -0.7578211588 0.6480067536
24450153300.0 -0.7462450532 0.6582099888
24500153000.0 -0.7349176789 0.6681654815
24550152700.0 -0.7237075975 0.6777577078
24600152400.0 -0.7120836584 0.6878349887
