!Created with skrf (http://scikit-rf.org).
# Hz S RI R 50.0 
!freq ReS11 ImS11
300000.0 -0.9763948669 -0.1174541402
50299700.0 -1.000049098 0.0154500245
100299400.0 -0.9981143169 0.0282993875
150299100.0 -1.002793165 0.0453194662
200298800.0 -0.9997482137 0.0585406052
250298500.0 -0.9974260596 0.0721775338
300298200.0 -0.985888876 0.0878352549
350297900.0 -0.9939249921 0.0990176498
400297600.0 -0.9934038654 0.1153662899
450297300.0 -0.9911077171 0.1294340762
500297000.0 -0.9896786207 0.1440475302
550296700.0 -0.9842950902 0.1565562258
600296400.0 -1.01734926 0.18999369
650296100.0 -0.9821983712 0.1865934175
700295800.0 -0.9793139834 0.2006785307
750295500.0 -0.9763263741 0.2144822573
800295200.0 -0.9730017048 0.2287548997
850294900.0 -0.9695794664 0.2426828373
900294600.0 -0.9658289579 0.2564292067
950294300.0 -0.961960508 0.2701084073
1000294000.0 -0.9581661709 0.283873509
1050293700.0 -0.953541177 0.2977987546
1100293400.0 -0.9492466486 0.312210765
1150293100.0 -0.9454355787 0.3240875308
1200292800.0 -0.9401295422 0.3385144962
1250292500.0 -0.9345671601 0.3518615524
1300292200.0 -0.9288807494 0.3652383713
1350291900.0 -0.9233845198 0.3791067675
1400291600.0 -0.9179234556 0.3921374098
1450291300.0 -0.9123584269 0.4047088966
1500291000.0 -0.906027347 0.4180408562
1550290700.0 -0.8996195153 0.4313137595
1600290400.0 -0.8934199572 0.4441134883
1650290100.0 -0.8868013964 0.4563760335
1700289800.0 -0.8796904917 0.4698458853
1750289500.0 -0.87283034 0.482118442
1800289200.0 -0.8655226951 0.4950133044
1850288900.0 -0.8587350985 0.5062327179
1900288600.0 -0.8507596216 0.5197052051
1950288300.0 -0.8429455854 0.5318802663
2000288000.0 -0.8352105561 0.5432746762
2050287700.0 -0.8270026058 0.5556849161
2100287400.0 -0.8192260351 0.5673400812
2150287100.0 -0.8105084856 0.5795249865
2200286800.0 -0.8027720127 0.5897665203
2250286500.0 -0.7939249187 0.6017322856
2300286200.0 -0.7850951916 0.6133984031
2350285900.0 -0.7762593837 0.62440171
2400285600.0 -0.7674300415 0.6352735258
2450285300.0 -0.7587613655 0.6458262434
2500285000.0 -0.7488443361 0.6568705481
2550284700.0 -0.7400469674 0.6673196087
2600284400.0 -0.7307155883 0.6775429801
2650284100.0 -0.7215096838 0.6880218402
2700283800.0 -0.71101206 0.6984100663
2750283500.0 -0.7008604829 0.7093104455
2800283200.0 -0.6910522871 0.7188420488
2850282900.0 -0.6806821012 0.7286841548
2900282600.0 -0.670226505 0.737944438
2950282300.0 -0.6603033522 0.7476027211
3000282000.0 -0.6495710947 0.7568839792
3050281700.0 -0.6382432617 0.7662046704
3100281400.0 -0.6263478947 0.7755352303
3150281100.0 -0.614491999 0.7848567572
3200280800.0 -0.6030526058 0.7934781666
3250280500.0 -0.5921665558 0.8011181035
3300280200.0 -0.5809237514 0.80894845
3350279900.0 -0.5694257183 0.816481909
3400279600.0 -0.5572737296 0.824107449
3450279300.0 -0.5461236294 0.831246027
3500279000.0 -0.5339506835 0.8382831693
3550278700.0 -0.5216505606 0.8458361229
3600278400.0 -0.5093677395 0.8529246658
3650278100.0 -0.4960497507 0.8606634284
3700277800.0 -0.4840291534 0.8670891646
3750277500.0 -0.4719463219 0.8735532543
3800277200.0 -0.4591554855 0.8799025082
3850276900.0 -0.4474386015 0.8860627114
3900276600.0 -0.4363548724 0.8916176086
3950276300.0 -0.4239903562 0.8976781168
4000276000.0 -0.4119483576 0.9036346076
4050275700.0 -0.3992467778 0.9097822326
4100275400.0 -0.3879966893 0.9151476459
4150275100.0 -0.3753355335 0.9207839972
4200274800.0 -0.3623285056 0.9263908284
4250274500.0 -0.3502881907 0.9316517853
4300274200.0 -0.3370885497 0.9368981023
4350273900.0 -0.3233204987 0.94206544
4400273600.0 -0.3084685454 0.947168936
4450273300.0 -0.2929490382 0.95229362
4500273000.0 -0.2794168499 0.9569117225
4550272700.0 -0.265320445 0.9611317345
4600272400.0 -0.2497396536 0.9652243011
4650272100.0 -0.2380901738 0.9685508576
4700271800.0 -0.2247468883 0.9718579994
4750271500.0 -0.2132046811 0.9746157595
4800271200.0 -0.2005968331 0.9773681747
4850270900.0 -0.1866691284 0.9801896948
4900270600.0 -0.1728469756 0.9824561129
4950270300.0 -0.1585650881 0.9849159809
5000270000.0 -0.1443895011 0.987374192
5050269700.0 -0.1308557023 0.9887422829
5100269400.0 -0.1172545521 0.9905744961
5150269100.0 -0.1037871431 0.9919055104
5200268800.0 -0.0907104828 0.9932271372
5250268500.0 -0.077299999 0.9935653109
5300268200.0 -0.0644023107 0.9946634892
5350267900.0 -0.0523296992 0.9951568082
5400267600.0 -0.0358750622 0.9964564613
5450267300.0 -0.0227364393 0.9966844298
5500267000.0 -0.0075729491 0.9971228211
5550266700.0 0.0074518877 0.9973526425
5600266400.0 0.0228099909 0.9972657053
5650266100.0 0.0393394982 0.9967687856
5700265800.0 0.0540443236 0.996404875
5750265500.0 0.0688408971 0.9954423374
5800265200.0 0.0827121594 0.9940961003
5850264900.0 0.0963305866 0.9933077723
5900264600.0 0.1127916248 0.9916166429
5950264300.0 0.1248334878 0.9900661352
6000264000.0 0.1387722659 0.9884481681
6050263700.0 0.1515209757 0.9868071193
6100263400.0 0.1639018615 0.9851918248
6150263100.0 0.1783540269 0.9826230815
6200262800.0 0.1887934508 0.98095538
6250262500.0 0.2014607424 0.9784910616
6300262200.0 0.2144523575 0.9756026744
6350261900.0 0.2273072733 0.9725389532
6400261600.0 0.2411725172 0.9692947569
6450261300.0 0.2524832671 0.9665403156
6500261000.0 0.2651661133 0.9631536712
6550260700.0 0.2781278761 0.9590526545
6600260400.0 0.2915110537 0.9550550916
6650260100.0 0.3055943461 0.9506403241
6700259800.0 0.3177321404 0.9464711044
6750259500.0 0.3313574414 0.9415530213
6800259200.0 0.3442422645 0.9364458392
6850258900.0 0.3565730703 0.9314663824
6900258600.0 0.3683777271 0.9261148106
6950258300.0 0.3810304931 0.9209902785
7000258000.0 0.3932179774 0.9155796056
7050257700.0 0.4054357731 0.9095146113
7100257400.0 0.4181823221 0.903265097
7150257100.0 0.4283105748 0.8980819292
7200256800.0 0.4414318404 0.8916874845
7250256500.0 0.453135503 0.8854054518
7300256200.0 0.465798178 0.8782651521
7350255900.0 0.4787380788 0.8716950744
7400255600.0 0.491608158 0.8640441691
7450255300.0 0.5072800206 0.8555058286
7500255000.0 0.5191926886 0.8484637698
7550254700.0 0.5330495182 0.8396423145
7600254400.0 0.5458481851 0.8316100823
7650254100.0 0.5567849912 0.8235924051
7700253800.0 0.5689175964 0.8157772687
7750253500.0 0.579740329 0.807900069
7800253200.0 0.5906521633 0.8003161185
7850252900.0 0.6005225753 0.7931380385
7900252600.0 0.61218004 0.7843033861
7950252300.0 0.620925 0.7778822532
8000252000.0 0.6310305623 0.7701700771
8050251700.0 0.6415428334 0.7619819493
8100251400.0 0.6517676604 0.7539609721
8150251100.0 0.6618691341 0.7452566175
8200250800.0 0.6710570803 0.7371504569
8250250500.0 0.6796843432 0.729223067
8300250200.0 0.6895665203 0.7205806339
8350249900.0 0.6982658833 0.7120611712
8400249600.0 0.7066854444 0.7039180192
8450249300.0 0.7159192597 0.6946889313
8500249000.0 0.7243396844 0.685748906
8550248700.0 0.7325235743 0.6768739058
8600248400.0 0.7409726183 0.6672660927
8650248100.0 0.748749608 0.6579359699
8700247800.0 0.7584390682 0.6466179691
8750247500.0 0.7666740323 0.6364618595
8800247200.0 0.7745891326 0.6261132386
8850246900.0 0.7838048063 0.6147724409
8900246600.0 0.7920133352 0.6035195652
8950246300.0 0.8018036412 0.5902202304
9000246000.0 0.8111013387 0.5776516795
9050245700.0 0.8199945567 0.5648874187
9100245400.0 0.8285892769 0.5521775621
9150245100.0 0.8378611194 0.5386890695
9200244800.0 0.8479802458 0.5231395515
9250244500.0 0.8572768733 0.5077566354
9300244200.0 0.8657611165 0.4929933143
9350243900.0 0.8734933517 0.479042975
9400243600.0 0.8799415928 0.4668260147
9450243300.0 0.8859809245 0.4553786112
9500243000.0 0.8922685886 0.4428582315
9550242700.0 0.8959099841 0.4352758526
9600242400.0 0.8996992813 0.4280717959
9650242100.0 0.9031578209 0.421622765
9700241800.0 0.9077214518 0.413399571
9750241500.0 0.9120288103 0.4057758721
9800241200.0 0.9167411943 0.3967108201
9850240900.0 0.9222692809 0.3852663491
9900240600.0 0.9277388313 0.3735586033
9950240300.0 0.9344097209 0.3573951335
10000240000.0 0.9395893465 0.3455409323
10050239700.0 0.9448986745 0.3302586906
10100239400.0 0.9496635373 0.3149729185
10150239100.0 0.9542272669 0.3002194052
10200238800.0 0.9582837519 0.2852689472
10250238500.0 0.9617120561 0.2718525472
10300238200.0 0.9646089032 0.2579272388
10350237900.0 0.9673831905 0.2451402317
10400237600.0 0.9698600635 0.2318939133
10450237300.0 0.972749414 0.2179668589
10500237000.0 0.9746314407 0.2060974559
10550236700.0 0.9770194788 0.1920198649
10600236400.0 0.9794894257 0.1780473992
10650236100.0 0.9810770872 0.1637586956
10700235800.0 0.983792788 0.1514007818
10750235500.0 0.9861098443 0.138703592
10800235200.0 0.987628913 0.1242109622
10850234900.0 0.9896571647 0.1091997024
10900234600.0 0.991580103 0.0947776178
10950234300.0 0.9935325041 0.0813735137
11000234000.0 0.9951765756 0.066384015
11050233700.0 0.9971099169 0.050060188
11100233400.0 0.9985511743 0.0325154832
11150233100.0 0.999266277 0.016926951
11200232800.0 1.000456223 0.0014861615
11250232500.0 1.001017396 -0.0155917916
11300232200.0 1.001679778 -0.0332368883
11350231900.0 1.001501214 -0.0488391633
11400231600.0 1.001269893 -0.0638881619
11450231300.0 1.001040093 -0.079913398
11500231000.0 0.9994539822 -0.0965526179
11550230700.0 0.9987957587 -0.1102871839
11600230400.0 0.9972098785 -0.1229378373
11650230100.0 0.9948073999 -0.1334972265
11700229800.0 0.9932203835 -0.1491021332
11750229500.0 0.9905597887 -0.163351467
11800229200.0 0.9879536786 -0.1768933066
11850228900.0 0.9843438284 -0.189391164
11900228600.0 0.9807113883 -0.1989395431
11950228300.0 0.9777171236 -0.2099195057
12000228000.0 0.9746428377 -0.2182006348
12050227700.0 0.9718040348 -0.2308456784
12100227400.0 0.9678839076 -0.2424750677
12150227100.0 0.9624536522 -0.2593753357
12200226800.0 0.9592353683 -0.2699971872
12250226500.0 0.955658609 -0.2819093066
12300226200.0 0.9506094979 -0.2950750716
12350225900.0 0.9468201611 -0.3079137075
12400225600.0 0.942081724 -0.3216220288
12450225300.0 0.9375014167 -0.3338624713
12500225000.0 0.9324347859 -0.3490970565
12550224700.0 0.9268884217 -0.3627737245
12600224400.0 0.9219157748 -0.3753392497
12650224100.0 0.9161572716 -0.3897762495
12700223800.0 0.9108184743 -0.4026498319
12750223500.0 0.9053464162 -0.4155622646
12800223200.0 0.9001613956 -0.4279496465
12850222900.0 0.8946430945 -0.4405166731
12900222600.0 0.8889438325 -0.4524441029
12950222300.0 0.8828288511 -0.4652076438
13000222000.0 0.8766910757 -0.4764956835
13050221700.0 0.8702022752 -0.4893749133
13100221400.0 0.8633167407 -0.5012408284
13150221100.0 0.8565763102 -0.5135334037
13200220800.0 0.8494363097 -0.5251449393
13250220500.0 0.8422627482 -0.5372293974
13300220200.0 0.8347421162 -0.5479474494
13350219900.0 0.8267172911 -0.5598947426
13400219600.0 0.8183625959 -0.5723169787
13450219300.0 0.8092743734 -0.5856124177
13500219000.0 0.7989419516 -0.5994064012
13550218700.0 0.788700772 -0.6125547259
13600218400.0 0.7779318545 -0.6250956053
13650218100.0 0.7682234008 -0.6356783816
13700217800.0 0.7577532262 -0.6479861645
13750217500.0 0.7478622461 -0.6597220537
13800217200.0 0.7364623254 -0.6710719781
13850216900.0 0.7250951814 -0.6827409075
13900216600.0 0.7155196521 -0.6913521424
13950216300.0 0.7045926132 -0.7013211266
14000216000.0 0.6946843462 -0.7104536385
14050215700.0 0.6851459118 -0.7194497822
14100215400.0 0.6752141278 -0.728240939
14150215100.0 0.6662696725 -0.7369414309
14200214800.0 0.6568051681 -0.745719935
14250214500.0 0.6465796506 -0.7547616425
14300214200.0 0.636130998 -0.7641445861
14350213900.0 0.6250999272 -0.7736601111
14400213600.0 0.6132762982 -0.7835955001
14450213300.0 0.6004373606 -0.7935870885
14500213000.0 0.5873700807 -0.8032098975
14550212700.0 0.5743436316 -0.8128492876
14600212400.0 0.5616921926 -0.821893341
14650212100.0 0.5494525453 -0.8306532986
14700211800.0 0.5351717988 -0.840011214
14750211500.0 0.5228930496 -0.8484129796
14800211200.0 0.5106128956 -0.8563137657
14850210900.0 0.4985321764 -0.8638031881
14900210600.0 0.485308529 -0.871631585
14950210300.0 0.4717918971 -0.8791566455
15000210000.0 0.4590856574 -0.8859560704
15050209700.0 0.4469939239 -0.8923411814
15100209400.0 0.4341956407 -0.8982072088
15150209100.0 0.4213184242 -0.9036526146
15200208800.0 0.4091019896 -0.9090806531
15250208500.0 0.3973485397 -0.9139120144
15300208200.0 0.3851905177 -0.9177035568
15350207900.0 0.3726339189 -0.9230307879
15400207600.0 0.3579828196 -0.9286520017
15450207300.0 0.3433259437 -0.9336215782
15500207000.0 0.3290790617 -0.9379381939
15550206700.0 0.3136344023 -0.9428519456
15600206400.0 0.2973333417 -0.9475706205
15650206100.0 0.2817671512 -0.9520534683
15700205800.0 0.2681088851 -0.9551018174
15750205500.0 0.253611641 -0.9586156768
15800205200.0 0.2390360905 -0.9623885711
15850204900.0 0.2246121309 -0.9657263257
15900204600.0 0.2095756039 -0.9693467123
15950204300.0 0.1954427969 -0.9723117194
16000204000.0 0.1809782613 -0.9752353708
16050203700.0 0.1661255303 -0.9779299909
16100203400.0 0.1516258701 -0.979704271
16150203100.0 0.1377870058 -0.9827224405
16200202800.0 0.1227030143 -0.9844034981
16250202500.0 0.1087196599 -0.9863711432
16300202200.0 0.0935770003 -0.987252427
16350201900.0 0.0786140251 -0.9892288469
16400201600.0 0.0635516364 -0.9903710143
16450201300.0 0.0484455998 -0.9912267355
16500201000.0 0.0318914592 -0.992025808
16550200700.0 0.0162301978 -0.9926344922
16600200400.0 0.0003643138 -0.9928407977
16650200100.0 -0.0156989451 -0.9926105677
16700199800.0 -0.0320385669 -0.9924916391
16750199500.0 -0.0514234837 -0.9914403982
16800199200.0 -0.0667209925 -0.9912274135
16850198900.0 -0.0814809644 -0.990108084
16900198600.0 -0.0953805396 -0.9885056483
16950198300.0 -0.1088433387 -0.9869868912
17000198000.0 -0.1219083459 -0.985680802
17050197700.0 -0.13465983 -0.9840554634
17100197400.0 -0.1471268195 -0.9818879837
17150197100.0 -0.1599275212 -0.9804393574
17200196800.0 -0.1726955381 -0.9781098979
17250196500.0 -0.1855049277 -0.9758191705
17300196200.0 -0.1977560045 -0.9734153231
17350195900.0 -0.2095783668 -0.9710378552
17400195600.0 -0.2217970305 -0.9686665335
17450195300.0 -0.2348463519 -0.9659645948
17500195000.0 -0.248441353 -0.962302771
17550194700.0 -0.2620598327 -0.9586341151
17600194400.0 -0.2763377126 -0.9548746409
17650194100.0 -0.2896919183 -0.9505703117
17700193800.0 -0.3028539959 -0.9463148767
17750193500.0 -0.3174170118 -0.941872781
17800193200.0 -0.3318923746 -0.9365164083
17850192900.0 -0.3472332552 -0.9311615197
17900192600.0 -0.3619956964 -0.9248796596
17950192300.0 -0.3777109423 -0.9180007097
18000192000.0 -0.3924645571 -0.9107060624
18050191700.0 -0.4061969743 -0.902874972
18100191400.0 -0.4204501135 -0.8950886582
18150191100.0 -0.435338509 -0.8870849618
18200190800.0 -0.4523887891 -0.8779098331
18250190500.0 -0.4691417071 -0.8684832233
18300190200.0 -0.4849176825 -0.8596833953
18350189900.0 -0.499846853 -0.851488823
18400189600.0 -0.5136700565 -0.8429344156
18450189300.0 -0.5274319339 -0.8351871688
18500189000.0 -0.5407479628 -0.8269230811
18550188700.0 -0.5539219296 -0.8197565669
18600188400.0 -0.5652452061 -0.8125907308
18650188100.0 -0.5766034195 -0.8063479977
18700187800.0 -0.5867962412 -0.7997719508
18750187500.0 -0.5976162223 -0.7932286514
18800187200.0 -0.6081325444 -0.7861604673
18850186900.0 -0.6182397932 -0.7793694297
18900186600.0 -0.6286390231 -0.7718072387
18950186300.0 -0.6384009372 -0.7644540538
19000186000.0 -0.6459515947 -0.7579111487
19050185700.0 -0.6549258567 -0.7508014392
19100185400.0 -0.6648701106 -0.7431074186
19150185100.0 -0.6744809945 -0.7342467609
19200184800.0 -0.6842579951 -0.7260017019
19250184500.0 -0.6949481227 -0.7171172099
19300184200.0 -0.7066766985 -0.7069493446
19350183900.0 -0.7170314766 -0.6969892265
19400183600.0 -0.7271412242 -0.6874583512
19450183300.0 -0.7353381187 -0.6771281024
19500183000.0 -0.7436457235 -0.6674344757
19550182700.0 -0.7539597716 -0.6557854741
19600182400.0 -0.7638428979 -0.6448080326
19650182100.0 -0.7749279635 -0.6322361721
19700181800.0 -0.785656647 -0.6191499727
19750181500.0 -0.7963471295 -0.6049467326
19800181200.0 -0.8064958857 -0.5900385534
19850180900.0 -0.8163020338 -0.5746762436
19900180600.0 -0.8240666086 -0.5600837199
19950180300.0 -0.8331218139 -0.5434434265
20000180000.0 -0.826687916 -0.5459552378
20050179700.0 -0.8347474232 -0.5333232148
20100179400.0 -0.8432303918 -0.5200811806
20150179100.0 -0.8517813416 -0.5065635404
20200178800.0 -0.8602145305 -0.493870953
20250178500.0 -0.8694530025 -0.4801737273
20300178200.0 -0.8793127833 -0.465937477
20350177900.0 -0.8883000202 -0.4511009084
20400177600.0 -0.8968246009 -0.4366675228
20450177300.0 -0.9052409658 -0.4225523338
20500177000.0 -0.9134550947 -0.4087473731
20550176700.0 -0.9212837231 -0.3953170023
20600176400.0 -0.9280472701 -0.3820694889
20650176100.0 -0.9347407302 -0.3695364608
20700175800.0 -0.9416264338 -0.3571210314
20750175500.0 -0.9486527916 -0.3455968826
20800175200.0 -0.9523659047 -0.3355363883
20850174900.0 -0.9577586535 -0.3246155884
20900174600.0 -0.9628528056 -0.312941146
20950174300.0 -0.9656767752 -0.3008870554
21000174000.0 -0.9694887615 -0.290248375
21050173700.0 -0.9723998794 -0.2789111284
21100173400.0 -0.9768139395 -0.2667824164
21150173100.0 -0.9802735458 -0.2545764912
21200172800.0 -0.9845027808 -0.240531586
21250172500.0 -0.9874755478 -0.2268259201
21300172200.0 -0.9901857043 -0.2126191461
21350171900.0 -0.9913767553 -0.1982513594
21400171600.0 -0.9933326893 -0.184051724
21450171300.0 -0.993172824 -0.1694353017
21500171000.0 -0.9929950842 -0.1538392116
21550170700.0 -0.9928464147 -0.1392637372
21600170400.0 -0.9929151777 -0.1224789585
21650170100.0 -0.9926104878 -0.1069728239
21700169800.0 -0.9909214769 -0.0929530111
21750169500.0 -0.9887166453 -0.0768866939
21800169200.0 -0.988328561 -0.0591659182
21850168900.0 -0.986555476 -0.0431588542
21900168600.0 -0.9853889867 -0.0263988393
21950168300.0 -0.9842034081 -0.0108157614
22000168000.0 -0.9827473034 0.003922136
22050167700.0 -0.9830064242 0.018699666
22100167400.0 -0.9829764028 0.0333933779
22150167100.0 -0.983466739 0.0490051932
22200166800.0 -0.9846356808 0.0652815343
22250166500.0 -0.9839181707 0.0820958737
22300166200.0 -0.983052446 0.0997407554
22350165900.0 -0.9817533719 0.1155545977
22400165600.0 -0.980722635 0.1313959016
22450165300.0 -0.9783686157 0.1461192414
22500165000.0 -0.9758246355 0.1603342731
22550164700.0 -0.9753297562 0.1748043127
22600164400.0 -0.9733272766 0.1909925495
22650164100.0 -0.9711589409 0.2053581352
22700163800.0 -0.9688843051 0.2217824931
22750163500.0 -0.9661147124 0.2368661166
22800163200.0 -0.9635695821 0.2500359975
22850162900.0 -0.9609236599 0.2633767791
22900162600.0 -0.959168156 0.2766556773
22950162300.0 -0.9582895746 0.2892272866
23000162000.0 -0.9572707109 0.3010045405
23050161700.0 -0.9553392666 0.3134984719
23100161400.0 -0.9530544717 0.3260204787
23150161100.0 -0.9506569105 0.3388648131
23200160800.0 -0.9479102695 0.3510566114
23250160500.0 -0.9449099689 0.3620521732
23300160200.0 -0.9421275608 0.3744577474
23350159900.0 -0.9381191462 0.388519628
23400159600.0 -0.9340563966 0.4005113436
23450159300.0 -0.9285910273 0.4136740941
23500159000.0 -0.9246627359 0.4276643688
23550158700.0 -0.9197615056 0.4404317504
23600158400.0 -0.9144424138 0.453778159
23650158100.0 -0.9081435855 0.4679385676
23700157800.0 -0.9007059453 0.4813788166
23750157500.0 -0.8920788706 0.4956201472
23800157200.0 -0.882906875 0.5088017473
23850156900.0 -0.8742894062 0.521370945
23900156600.0 -0.8655732148 0.5337959768
23950156300.0 -0.8556459719 0.5460877828
24000156000.0 -0.8470709324 0.5588928567
24050155700.0 -0.8372159325 0.5707276507
24100155400.0 -0.8262776596 0.5819292931
24150155100.0 -0.8160800054 0.5936701899
24200154800.0 -0.8050855035 0.6046965894
24250154500.0 -0.7933322972 0.617417237
24300154200.0 -0.7823574053 0.6281865138
24350153900.0 -0.7709772603 0.6389656238
24400153600.0 -0.7584981634 0.6492965071
24450153300.0 -0.7463662139 0.6594323552
24500153000.0 -0.7354007256 0.6690866394
24550152700.0 -0.72357008 0.6781913595
24600152400.0 -0.7122137885 0.687608093
24650152100.0 -0.7010567516 0.6960044949
