!Created with skrf (http://scikit-rf.org).
# Hz S RI R 50.0 
!freq ReS11 ImS11
300000.0 -0.9768536065 -0.1122389704
50299700.0 -1.000172435 0.0158205799
100299400.0 -0.9980421361 0.0286697938
150299100.0 -1.002808355 0.0456165063
200298800.0 -0.9996533707 0.0589067349
250298500.0 -0.9973908668 0.0722369017
300298200.0 -0.9860256793 0.0879974254
350297900.0 -0.9939761998 0.0990180478
400297600.0 -0.9933339424 0.1157792676
450297300.0 -0.9912182584 0.1296092451
500297000.0 -0.9894488167 0.1442136246
550296700.0 -0.9843013973 0.1567967846
600296400.0 -1.017346114 0.1901102988
650296100.0 -0.9821994654 0.186812316
700295800.0 -0.9794289551 0.2008555281
750295500.0 -0.9762659255 0.2148892978
800295200.0 -0.9729014767 0.2289458268
850294900.0 -0.9695363368 0.2427744369
900294600.0 -0.9656794031 0.2564942774
950294300.0 -0.9620451981 0.2704789587
1000294000.0 -0.9580359385 0.28430058
1050293700.0 -0.953763398 0.2981958661
1100293400.0 -0.9492063069 0.3124898504
1150293100.0 -0.9451846834 0.3245238313
1200292800.0 -0.9399632846 0.3387541526
1250292500.0 -0.9345238132 0.3522450859
1300292200.0 -0.9287908069 0.3654615792
1350291900.0 -0.9233027808 0.3796481854
1400291600.0 -0.9179145299 0.3925203398
1450291300.0 -0.9121663637 0.4051072219
1500291000.0 -0.9059994383 0.4183094687
1550290700.0 -0.8994464984 0.4315205792
1600290400.0 -0.8932315225 0.4445450117
1650290100.0 -0.8866271455 0.4566564521
1700289800.0 -0.8795196451 0.4700583714
1750289500.0 -0.8727144841 0.482374082
1800289200.0 -0.865244916 0.4952870665
1850288900.0 -0.8583487467 0.5066108648
1900288600.0 -0.850816254 0.5197978514
1950288300.0 -0.8425574624 0.5322877289
2000288000.0 -0.8350564914 0.5435697606
2050287700.0 -0.8267243917 0.5557901882
2100287400.0 -0.8190139724 0.5677136412
2150287100.0 -0.8102716018 0.579685425
2200286800.0 -0.8026496019 0.5900796573
2250286500.0 -0.793824654 0.6020020664
2300286200.0 -0.7848147702 0.6137007898
2350285900.0 -0.7759360045 0.6245967756
2400285600.0 -0.7670366478 0.6353546813
2450285300.0 -0.7586194988 0.6460182038
2500285000.0 -0.7488596979 0.657320572
2550284700.0 -0.7398218923 0.6676456002
2600284400.0 -0.7304528683 0.6778467481
2650284100.0 -0.7214693156 0.6884503805
2700283800.0 -0.7107912361 0.6986359129
2750283500.0 -0.700478727 0.7094016388
2800283200.0 -0.6906371346 0.7191860716
2850282900.0 -0.6804493414 0.72890417
2900282600.0 -0.6703367568 0.7385142352
2950282300.0 -0.6599686497 0.7477053907
3000282000.0 -0.64920755 0.7571024393
3050281700.0 -0.6381080059 0.7666158882
3100281400.0 -0.6261220845 0.7759304848
3150281100.0 -0.6142054859 0.7853723595
3200280800.0 -0.6026269988 0.7937233241
3250280500.0 -0.5919845185 0.8013279396
3300280200.0 -0.5807699286 0.809288225
3350279900.0 -0.5692515054 0.8168809948
3400279600.0 -0.5572279599 0.8247489529
3450279300.0 -0.5459710515 0.8315576328
3500279000.0 -0.5338219694 0.8387911467
3550278700.0 -0.5214272892 0.8460003326
3600278400.0 -0.5091986319 0.853322904
3650278100.0 -0.4958758321 0.8606987038
3700277800.0 -0.483734689 0.8670200258
3750277500.0 -0.4719220931 0.8739266781
3800277200.0 -0.459130621 0.8803307426
3850276900.0 -0.4472172881 0.8862188531
3900276600.0 -0.4360385871 0.891668642
3950276300.0 -0.4237412229 0.8979661945
4000276000.0 -0.4115348208 0.9038961968
4050275700.0 -0.3988420052 0.9098763745
4100275400.0 -0.3876611047 0.915283483
4150275100.0 -0.3749878344 0.9211722031
4200274800.0 -0.3618055948 0.9263787129
4250274500.0 -0.3499120362 0.931513393
4300274200.0 -0.3366161661 0.9368677019
4350273900.0 -0.3230607623 0.9419675788
4400273600.0 -0.308053203 0.9474117127
4450273300.0 -0.2927042854 0.9523931896
4500273000.0 -0.2789063 0.956908965
4550272700.0 -0.2648152248 0.9611831317
4600272400.0 -0.2492748584 0.9652435077
4650272100.0 -0.2375642624 0.9685065209
4700271800.0 -0.2242799469 0.9717867554
4750271500.0 -0.2126888999 0.9747009102
4800271200.0 -0.1999602217 0.9774979446
4850270900.0 -0.1863073834 0.9804075581
4900270600.0 -0.1721869983 0.9826903134
4950270300.0 -0.1579826308 0.9853472359
5000270000.0 -0.1440319588 0.9873124855
5050269700.0 -0.1304922348 0.9888077739
5100269400.0 -0.1168405501 0.9906724315
5150269100.0 -0.1035673407 0.9919835713
5200268800.0 -0.0902563396 0.9932624422
5250268500.0 -0.0772132767 0.9945345733
5300268200.0 -0.0641460258 0.9946947467
5350267900.0 -0.0518075659 0.9953282603
5400267600.0 -0.035821177 0.9965000557
5450267300.0 -0.0227740303 0.9968151426
5500267000.0 -0.0074062712 0.9970182189
5550266700.0 0.007570208 0.9972107724
5600266400.0 0.0232734334 0.9973173509
5650266100.0 0.0397198398 0.9970064514
5700265800.0 0.0543321146 0.9962405179
5750265500.0 0.0693742689 0.9953594934
5800265200.0 0.0835174703 0.9946200655
5850264900.0 0.0968180253 0.9934230395
5900264600.0 0.1134914358 0.9916931752
5950264300.0 0.1254410231 0.9902620812
6000264000.0 0.1393770812 0.9880808848
6050263700.0 0.1519753948 0.9868054876
6100263400.0 0.1642528439 0.9846111626
6150263100.0 0.1787265264 0.9823968814
6200262800.0 0.1892508634 0.9806747117
6250262500.0 0.2021454664 0.9782156142
6300262200.0 0.2148579728 0.9754606995
6350261900.0 0.2278464397 0.9725677573
6400261600.0 0.2417674374 0.9691023433
6450261300.0 0.2531962277 0.96646301
6500261000.0 0.2656274474 0.9626925218
6550260700.0 0.2787959848 0.9589016757
6600260400.0 0.2923621759 0.9549643617
6650260100.0 0.305983285 0.9504247348
6700259800.0 0.3179590687 0.9464303661
6750259500.0 0.3320799574 0.9412781305
6800259200.0 0.3448156592 0.9363765059
6850258900.0 0.3570459198 0.9312060592
6900258600.0 0.3691754293 0.9262442627
6950258300.0 0.381540456 0.920781506
7000258000.0 0.3936126218 0.9153958096
7050257700.0 0.4059151012 0.9093902668
7100257400.0 0.418513738 0.9032326941
7150257100.0 0.4289778784 0.8978851281
7200256800.0 0.4416125551 0.8915670339
7250256500.0 0.4533817483 0.8851598336
7300256200.0 0.4665129362 0.8783720646
7350255900.0 0.4791329755 0.8713386958
7400255600.0 0.4919196564 0.864304912
7450255300.0 0.5078620037 0.8555284305
7500255000.0 0.5193008676 0.8481199101
7550254700.0 0.5322997359 0.8391579284
7600254400.0 0.5458315512 0.8313746557
7650254100.0 0.5570751899 0.8236640591
7700253800.0 0.5691949083 0.8156207755
7750253500.0 0.5803349159 0.8078461441
7800253200.0 0.5909272172 0.7999825796
7850252900.0 0.6006145433 0.792976348
7900252600.0 0.6124104376 0.7841528919
7950252300.0 0.6212386389 0.777525304
8000252000.0 0.6313040202 0.7697976872
8050251700.0 0.6417974647 0.761652277
8100251400.0 0.6521985684 0.7535535682
8150251100.0 0.6619333384 0.7449557086
8200250800.0 0.6714465102 0.7368809303
8250250500.0 0.6800277917 0.7289945402
8300250200.0 0.6896046889 0.7201264759
8350249900.0 0.6988866128 0.7115833012
8400249600.0 0.7071080206 0.7035417774
8450249300.0 0.7157868647 0.6943500412
8500249000.0 0.7246216447 0.6856056035
8550248700.0 0.7328859997 0.6764658269
8600248400.0 0.7414715068 0.6670172073
8650248100.0 0.7491164707 0.6575404355
8700247800.0 0.7586464891 0.6463581456
8750247500.0 0.766825046 0.6363203823
8800247200.0 0.7749525205 0.6258342611
8850246900.0 0.7839889186 0.6146040979
8900246600.0 0.7924277136 0.6032565271
8950246300.0 0.8017988158 0.5901587736
9000246000.0 0.8116491184 0.5772398113
9050245700.0 0.8198806148 0.5644032583
9100245400.0 0.8289372648 0.5520393216
9150245100.0 0.8385645874 0.5381134116
9200244800.0 0.8483759418 0.5225705969
9250244500.0 0.8577731786 0.5071261431
9300244200.0 0.8660498706 0.4923865205
9350243900.0 0.8737645043 0.4786003996
9400243600.0 0.8804377511 0.4660935648
9450243300.0 0.8862864066 0.4544140524
9500243000.0 0.8925140679 0.4421491424
9550242700.0 0.8962674323 0.4344833575
9600242400.0 0.9003148331 0.4272897594
9650242100.0 0.9037173216 0.4209420659
9700241800.0 0.9081611888 0.4127645351
9750241500.0 0.9122598513 0.4049109309
9800241200.0 0.9168330501 0.3961403482
9850240900.0 0.9226163838 0.3841994751
9900240600.0 0.9281455618 0.3728253873
9950240300.0 0.934912205 0.3563873694
10000240000.0 0.9394206886 0.3450259819
10050239700.0 0.9449560224 0.3299064684
10100239400.0 0.9499194202 0.3144296425
10150239100.0 0.9540985615 0.2997697402
10200238800.0 0.9586484805 0.2847246374
10250238500.0 0.9617718648 0.2713930338
10300238200.0 0.9648483259 0.2575053619
10350237900.0 0.967474953 0.2444741816
10400237600.0 0.970005808 0.2313552853
10450237300.0 0.9727589864 0.2176662827
10500237000.0 0.974644597 0.2055295707
10550236700.0 0.9768831948 0.191489066
10600236400.0 0.9795692422 0.1774006191
10650236100.0 0.9813696016 0.1629180068
10700235800.0 0.9834250196 0.1508756637
10750235500.0 0.9859424691 0.1374696487
10800235200.0 0.9879122597 0.1235947275
10850234900.0 0.9892183725 0.1093537118
10900234600.0 0.9916630352 0.0944000015
10950234300.0 0.9932137452 0.0813515267
11000234000.0 0.9951104255 0.0662004937
11050233700.0 0.9969535018 0.0499010329
11100233400.0 0.9982938942 0.0324967079
11150233100.0 0.9993939946 0.0159092057
11200232800.0 1.000101267 0.0006630089
11250232500.0 1.001151559 -0.0157940606
11300232200.0 1.001593028 -0.0327922148
11350231900.0 1.002089595 -0.0500198705
11400231600.0 1.0012217 -0.0659774929
11450231300.0 1.001035457 -0.0803178138
11500231000.0 0.9996821125 -0.0975590361
11550230700.0 0.9983207934 -0.1099134483
11600230400.0 0.9971224089 -0.1226216874
11650230100.0 0.9947898175 -0.1341610521
11700229800.0 0.993050196 -0.1491432415
11750229500.0 0.9905309812 -0.1640160835
11800229200.0 0.9876274181 -0.1777213644
11850228900.0 0.9841334508 -0.1898173591
11900228600.0 0.9805962969 -0.1999101106
11950228300.0 0.9775525911 -0.2101683862
12000228000.0 0.9746488431 -0.219014101
12050227700.0 0.9708106629 -0.232262609
12100227400.0 0.967822733 -0.2426943971
12150227100.0 0.962784579 -0.2595722335
12200226800.0 0.9603987564 -0.2687649365
12250226500.0 0.9551994795 -0.2829136445
12300226200.0 0.9509089487 -0.2949511217
12350225900.0 0.9458891408 -0.3093940436
12400225600.0 0.9415746188 -0.3220905899
12450225300.0 0.9373470852 -0.3339492069
12500225000.0 0.9321843212 -0.3493013379
12550224700.0 0.9268830881 -0.3625802328
12600224400.0 0.9219152501 -0.3756725254
12650224100.0 0.9160533202 -0.3899033014
12700223800.0 0.9109477346 -0.4026224073
12750223500.0 0.9053436694 -0.4158375486
12800223200.0 0.8999792098 -0.4282923584
12850222900.0 0.8947473377 -0.4404999542
12900222600.0 0.8885317283 -0.4528697079
12950222300.0 0.8824576185 -0.4655854765
13000222000.0 0.8766363105 -0.4762919959
13050221700.0 0.8695603132 -0.4897718707
13100221400.0 0.8632315755 -0.5013649031
13150221100.0 0.8560376251 -0.5139059566
13200220800.0 0.8496136498 -0.525057422
13250220500.0 0.8421001612 -0.5373106451
13300220200.0 0.8344856441 -0.5482001012
13350219900.0 0.826577608 -0.560382941
13400219600.0 0.8181458042 -0.5723012317
13450219300.0 0.8085648229 -0.5861573076
13500219000.0 0.798334856 -0.5999031197
13550218700.0 0.7882885142 -0.6130560668
13600218400.0 0.7778460861 -0.6252561231
13650218100.0 0.7680110395 -0.6359508345
13700217800.0 0.7572708929 -0.6487551521
13750217500.0 0.7469460765 -0.6594768556
13800217200.0 0.7360744828 -0.6715944642
13850216900.0 0.7249288861 -0.6826125139
13900216600.0 0.7150627153 -0.6924422738
13950216300.0 0.704016279 -0.7024864532
14000216000.0 0.6941585732 -0.7116747225
14050215700.0 0.684374986 -0.720149407
14100215400.0 0.6743975766 -0.7289895596
14150215100.0 0.6653190842 -0.7373995454
14200214800.0 0.6561461402 -0.7459220204
14250214500.0 0.6459602021 -0.7552915399
14300214200.0 0.6354969676 -0.7645583994
14350213900.0 0.6244321844 -0.7738424298
14400213600.0 0.6126481961 -0.7838157751
14450213300.0 0.5997030419 -0.7942300401
14500213000.0 0.5865928926 -0.8038748851
14550212700.0 0.5739102864 -0.8134989428
14600212400.0 0.5620299148 -0.8221122264
14650212100.0 0.5485837884 -0.8310085202
14700211800.0 0.5345822971 -0.8401754059
14750211500.0 0.5227571962 -0.8486569101
14800211200.0 0.5101581118 -0.8562280951
14850210900.0 0.4980292026 -0.8638311752
14900210600.0 0.4848874582 -0.8719337466
14950210300.0 0.471344292 -0.8795017999
15000210000.0 0.4587119387 -0.8863016112
15050209700.0 0.446282872 -0.8926850733
15100209400.0 0.4334074243 -0.8983407997
15150209100.0 0.4213058808 -0.9039497334
15200208800.0 0.4080181575 -0.9096567469
15250208500.0 0.3965793103 -0.9134566983
15300208200.0 0.3845217812 -0.9182967344
15350207900.0 0.3711263004 -0.9226716994
15400207600.0 0.3567002432 -0.9282559582
15450207300.0 0.3419324775 -0.9336464356
15500207000.0 0.3273737841 -0.9383958047
15550206700.0 0.3119727572 -0.9429553223
15600206400.0 0.2963594946 -0.9473114736
15650206100.0 0.2805732832 -0.9519937617
15700205800.0 0.2666490481 -0.955648272
15750205500.0 0.2523198777 -0.9592277371
15800205200.0 0.237807879 -0.9625822876
15850204900.0 0.2234514601 -0.9659374413
15900204600.0 0.2082968748 -0.9696273755
15950204300.0 0.1941947281 -0.9724745858
16000204000.0 0.1799446632 -0.9752035477
16050203700.0 0.1650650741 -0.9781471817
16100203400.0 0.1508351835 -0.9803855186
16150203100.0 0.1363392938 -0.9823117504
16200202800.0 0.1228759259 -0.9849810551
16250202500.0 0.1087709891 -0.9859478336
16300202200.0 0.092751145 -0.9881562204
16350201900.0 0.0775875379 -0.9890754917
16400201600.0 0.0632737512 -0.9903974089
16450201300.0 0.0479205816 -0.9911752219
16500201000.0 0.0313834166 -0.9921044132
16550200700.0 0.0157255453 -0.9924817728
16600200400.0 -0.0002203066 -0.9926927878
16650200100.0 -0.0163239949 -0.9928678152
16700199800.0 -0.0326702457 -0.9920521343
16750199500.0 -0.0515839504 -0.9913620115
16800199200.0 -0.0670654461 -0.9904013809
16850198900.0 -0.0824127649 -0.9894981079
16900198600.0 -0.0959116593 -0.9882044665
16950198300.0 -0.1097014772 -0.987215039
17000198000.0 -0.1228233814 -0.9853826556
17050197700.0 -0.1348965759 -0.9840138331
17100197400.0 -0.1481800567 -0.9818888916
17150197100.0 -0.1605416271 -0.9794674312
17200196800.0 -0.1737487006 -0.9780618022
17250196500.0 -0.1867183623 -0.9751975154
17300196200.0 -0.1989368939 -0.9730962101
17350195900.0 -0.2104548244 -0.9708207537
17400195600.0 -0.2227612746 -0.9684019923
17450195300.0 -0.2358089264 -0.9656519737
17500195000.0 -0.2493787217 -0.9621474607
17550194700.0 -0.2632539675 -0.9584416269
17600194400.0 -0.2773732826 -0.9543842843
17650194100.0 -0.2913001287 -0.9502286251
17700193800.0 -0.3036931314 -0.946098385
17750193500.0 -0.3183674263 -0.941949765
17800193200.0 -0.3327064108 -0.9363768035
17850192900.0 -0.3476781359 -0.9312118527
17900192600.0 -0.3629929696 -0.9247785068
17950192300.0 -0.3784697718 -0.9175503826
18000192000.0 -0.3928186262 -0.9104074802
18050191700.0 -0.4066159249 -0.9026656536
18100191400.0 -0.4208601944 -0.8949269149
18150191100.0 -0.435908687 -0.8869831001
18200190800.0 -0.4527924065 -0.8775731624
18250190500.0 -0.4696177732 -0.8681373512
18300190200.0 -0.485516827 -0.8595038678
18350189900.0 -0.5002574953 -0.851087194
18400189600.0 -0.5145661877 -0.8426561715
18450189300.0 -0.5282319985 -0.8343294454
18500189000.0 -0.5415609841 -0.8266311583
18550188700.0 -0.5537271158 -0.8190596367
18600188400.0 -0.5652530403 -0.8121102498
18650188100.0 -0.5765041255 -0.8060440157
18700187800.0 -0.5870994702 -0.7994791935
18750187500.0 -0.5979588661 -0.7926317835
18800187200.0 -0.6084898681 -0.7857118314
18850186900.0 -0.6188057565 -0.7786568306
18900186600.0 -0.6291205926 -0.7712880239
18950186300.0 -0.638950582 -0.7637842426
19000186000.0 -0.6464707713 -0.757128729
19050185700.0 -0.6553849454 -0.7501449289
19100185400.0 -0.6654850165 -0.7416176307
19150185100.0 -0.6761187141 -0.7333060321
19200184800.0 -0.6852661479 -0.7249754864
19250184500.0 -0.6953498297 -0.7157064554
19300184200.0 -0.7066880894 -0.705996263
19350183900.0 -0.7182814521 -0.6966253692
19400183600.0 -0.7278913454 -0.6864280402
19450183300.0 -0.7360567181 -0.6762702545
19500183000.0 -0.7446663807 -0.6663145472
19550182700.0 -0.7547117353 -0.6554650882
19600182400.0 -0.7645283987 -0.6439993392
19650182100.0 -0.7755708609 -0.631591938
19700181800.0 -0.7862766732 -0.6182571886
19750181500.0 -0.7965881625 -0.6041661095
19800181200.0 -0.8071823682 -0.5892616538
19850180900.0 -0.8165233254 -0.5738550581
19900180600.0 -0.8246508505 -0.5594706503
19950180300.0 -0.8339480358 -0.5427588987
20000180000.0 -0.8265083233 -0.5448443083
20050179700.0 -0.8357937031 -0.5323659835
20100179400.0 -0.843960995 -0.518889984
20150179100.0 -0.8514890894 -0.5064413753
20200178800.0 -0.8605210632 -0.4936407482
20250178500.0 -0.8698404801 -0.4797738826
20300178200.0 -0.8796476141 -0.4647425413
20350177900.0 -0.8878695404 -0.450913272
20400177600.0 -0.8973626931 -0.4359964335
20450177300.0 -0.9053501122 -0.4216693002
20500177000.0 -0.913526822 -0.4080049256
20550176700.0 -0.9214384325 -0.3942123672
20600176400.0 -0.9287437873 -0.3809015817
20650176100.0 -0.9353601476 -0.3683652699
20700175800.0 -0.9423561375 -0.3562973393
20750175500.0 -0.948217596 -0.3447642988
20800175200.0 -0.95312187 -0.3347113374
20850174900.0 -0.9583642594 -0.3224576376
20900174600.0 -0.9623453887 -0.3113148619
20950174300.0 -0.9674907908 -0.2995843375
21000174000.0 -0.970004926 -0.288644086
21050173700.0 -0.9729273752 -0.2776476432
21100173400.0 -0.9770975276 -0.2646351665
21150173100.0 -0.9812169847 -0.2525537688
21200172800.0 -0.9848747219 -0.2392953683
21250172500.0 -0.987815501 -0.2254240252
21300172200.0 -0.9909095707 -0.2111781733
21350171900.0 -0.991717128 -0.1965864838
21400171600.0 -0.9936467745 -0.1827587155
21450171300.0 -0.9934671568 -0.167841716
21500171000.0 -0.9937030768 -0.1523237555
21550170700.0 -0.9935022069 -0.137392816
21600170400.0 -0.9934038681 -0.1208973945
21650170100.0 -0.9922576178 -0.1059677297
21700169800.0 -0.9889837311 -0.0898536955
21750169500.0 -0.9888075031 -0.0752602629
21800169200.0 -0.9879573156 -0.0583967151
21850168900.0 -0.987222792 -0.042354925
21900168600.0 -0.9853337071 -0.0251564094
21950168300.0 -0.9840850763 -0.0092792225
22000168000.0 -0.9824661247 0.0053413848
22050167700.0 -0.9827312208 0.0190214696
22100167400.0 -0.982461341 0.0343724863
22150167100.0 -0.9828799993 0.0500300501
22200166800.0 -0.9838503671 0.0667509618
22250166500.0 -0.9827656923 0.0832568554
22300166200.0 -0.982793326 0.0996250559
22350165900.0 -0.9806189605 0.1162604902
22400165600.0 -0.9786362107 0.1321395622
22450165300.0 -0.9776835568 0.1478200028
22500165000.0 -0.9747955816 0.1600078505
22550164700.0 -0.9745955239 0.1768421588
22600164400.0 -0.9727910684 0.1911510192
22650164100.0 -0.9707909156 0.2072471155
22700163800.0 -0.9678232709 0.2227819642
22750163500.0 -0.9655765078 0.2381949637
22800163200.0 -0.9623858115 0.2513955932
22850162900.0 -0.9606665021 0.2645159003
22900162600.0 -0.9589269007 0.2777264904
22950162300.0 -0.9577673464 0.2903162409
23000162000.0 -0.9568784631 0.3020487665
23050161700.0 -0.9543349178 0.3146999053
23100161400.0 -0.9526343481 0.327421551
23150161100.0 -0.9498399569 0.3393377313
23200160800.0 -0.9465961219 0.3523681472
23250160500.0 -0.9439306588 0.3636037272
23300160200.0 -0.941673105 0.376630694
23350159900.0 -0.937855473 0.3888308672
23400159600.0 -0.9327083672 0.401514635
23450159300.0 -0.9281265688 0.4148310594
23500159000.0 -0.9238232675 0.4277047194
23550158700.0 -0.9191987228 0.4411067577
23600158400.0 -0.9140406182 0.4546849841
23650158100.0 -0.9077285212 0.468421203
23700157800.0 -0.9002725792 0.4821894244
23750157500.0 -0.8915901811 0.496427633
23800157200.0 -0.8829363513 0.5095273956
23850156900.0 -0.8736461958 0.5224392907
23900156600.0 -0.8647062651 0.5345382386
23950156300.0 -0.8564102465 0.5471088895
24000156000.0 -0.8458264612 0.5593379316
24050155700.0 -0.8356940194 0.5710342627
24100155400.0 -0.8265438171 0.5828996433
24150155100.0 -0.8152742379 0.5940612891
24200154800.0 -0.805070305 0.6055113795
24250154500.0 -0.7931282201 0.6175292832
24300154200.0 -0.7820673995 0.6289082499
24350153900.0 -0.7696776391 0.6397919051
24400153600.0 -0.7576140237 0.6498314745
24450153300.0 -0.7455964986 0.6597514053
24500153000.0 -0.7338408061 0.6694699494
24550152700.0 -0.7228013752 0.6792280171
24600152400.0 -0.7108067489 0.6880760191
24650152100.0 -0.6999661876 0.6971687448
