!Created with skrf (http://scikit-rf.org).
# Hz S RI R 50.0 
!freq ReS11 ImS11
300000.0 -0.9745559123 -0.1226991459
50299700.0 -0.9999409899 0.0149452147
100299400.0 -0.9979860453 0.0278350628
150299100.0 -1.002770962 0.0449257004
200298800.0 -0.9996346449 0.0580288949
250298500.0 -0.9973656894 0.0717608087
300298200.0 -0.9859673757 0.0874250713
350297900.0 -0.9940451751 0.0981452534
400297600.0 -0.9930968121 0.1148770909
450297300.0 -0.9908916012 0.1286817359
500297000.0 -0.9892946094 0.1433632997
550296700.0 -0.984164892 0.1559177193
600296400.0 -1.017371945 0.1890825935
650296100.0 -0.9822398026 0.1857672886
700295800.0 -0.9794165683 0.1999795229
750295500.0 -0.9763149842 0.2138140819
800295200.0 -0.9729692073 0.2278816049
850294900.0 -0.969691406 0.242014622
900294600.0 -0.9657514633 0.255503007
950294300.0 -0.9619862078 0.2693765778
1000294000.0 -0.9581989117 0.2830635612
1050293700.0 -0.9535530334 0.2969568097
1100293400.0 -0.9494898004 0.3112722962
1150293100.0 -0.9454618057 0.3234083899
1200292800.0 -0.9403530068 0.3376754741
1250292500.0 -0.9347447108 0.3511742628
1300292200.0 -0.9289817378 0.3645701528
1350291900.0 -0.9235442616 0.3785014681
1400291600.0 -0.9179214813 0.3915784187
1450291300.0 -0.9125072515 0.4039848208
1500291000.0 -0.906259017 0.4173049806
1550290700.0 -0.8997064857 0.4305748983
1600290400.0 -0.8933526766 0.4435482048
1650290100.0 -0.8866681277 0.4555840668
1700289800.0 -0.8797545817 0.4692521048
1750289500.0 -0.8729183449 0.4815465149
1800289200.0 -0.8655857847 0.4942805867
1850288900.0 -0.858660808 0.505844374
1900288600.0 -0.8510656784 0.5187512982
1950288300.0 -0.8430289794 0.5312654535
2000288000.0 -0.835549693 0.5428023765
2050287700.0 -0.8271917425 0.5551553159
2100287400.0 -0.8194241886 0.5664986144
2150287100.0 -0.8109893926 0.5786924854
2200286800.0 -0.8030729051 0.5890701433
2250286500.0 -0.7940733032 0.601391609
2300286200.0 -0.7852994925 0.6128391582
2350285900.0 -0.7768500849 0.6232358238
2400285600.0 -0.7680590072 0.6344229314
2450285300.0 -0.7593220583 0.6449760608
2500285000.0 -0.7493006576 0.6566439892
2550284700.0 -0.7402004784 0.6668164588
2600284400.0 -0.7311183538 0.6767699582
2650284100.0 -0.7225341616 0.6868008326
2700283800.0 -0.7120117998 0.6975499604
2750283500.0 -0.7016326387 0.7081464274
2800283200.0 -0.6917292649 0.7180962696
2850282900.0 -0.6810662136 0.7280501184
2900282600.0 -0.6706860427 0.7378333246
2950282300.0 -0.660268695 0.7471283348
3000282000.0 -0.6495800708 0.7564175185
3050281700.0 -0.6383283514 0.7658611205
3100281400.0 -0.6268089937 0.7749286751
3150281100.0 -0.6155685452 0.7838653277
3200280800.0 -0.6041226292 0.7924362965
3250280500.0 -0.5931374956 0.800270826
3300280200.0 -0.5814776583 0.8084354144
3350279900.0 -0.5693518079 0.8165495635
3400279600.0 -0.5566011256 0.8244597998
3450279300.0 -0.5456148888 0.8314746719
3500279000.0 -0.533944456 0.8384815315
3550278700.0 -0.5217156536 0.84573575
3600278400.0 -0.5098857731 0.8523609647
3650278100.0 -0.4970736665 0.8598584242
3700277800.0 -0.4849203251 0.8664251863
3750277500.0 -0.472275705 0.8732634826
3800277200.0 -0.4598184387 0.8797069469
3850276900.0 -0.4480692193 0.8858168594
3900276600.0 -0.4369115289 0.8914226516
3950276300.0 -0.4249023516 0.8971639265
4000276000.0 -0.4132337306 0.9030860942
4050275700.0 -0.4002895587 0.90922756
4100275400.0 -0.3892772765 0.9143760273
4150275100.0 -0.3762911734 0.9204916448
4200274800.0 -0.3627962688 0.9260196822
4250274500.0 -0.3500383525 0.9312079126
4300274200.0 -0.3367660389 0.9367859972
4350273900.0 -0.3225588508 0.9419786364
4400273600.0 -0.3079165457 0.9472535064
4450273300.0 -0.2930140303 0.952125611
4500273000.0 -0.2796856837 0.9564277724
4550272700.0 -0.2661625605 0.9605750195
4600272400.0 -0.2511568044 0.9645871421
4650272100.0 -0.2397286696 0.9678539322
4700271800.0 -0.226636036 0.971125454
4750271500.0 -0.2149940364 0.9740454457
4800271200.0 -0.2029066292 0.9766045687
4850270900.0 -0.1891512243 0.9796559242
4900270600.0 -0.1752758155 0.9819032687
4950270300.0 -0.1608300647 0.9845236549
5000270000.0 -0.1462854831 0.9868007553
5050269700.0 -0.1328850429 0.9883152471
5100269400.0 -0.1186999407 0.9900467194
5150269100.0 -0.1049288062 0.9917711257
5200268800.0 -0.0913970129 0.9928107297
5250268500.0 -0.078261164 0.9936925184
5300268200.0 -0.064586694 0.9945586102
5350267900.0 -0.0518066649 0.9951766978
5400267600.0 -0.0355788823 0.9961904361
5450267300.0 -0.0222063748 0.9964639051
5500267000.0 -0.0069026055 0.9970196747
5550266700.0 0.0080375625 0.9972766487
5600266400.0 0.0236228199 0.996915894
5650266100.0 0.0404218536 0.9967616919
5700265800.0 0.0547025749 0.9961766476
5750265500.0 0.0699972095 0.9953946657
5800265200.0 0.0832137949 0.9943708851
5850264900.0 0.0965359361 0.9931356107
5900264600.0 0.1132201473 0.991526054
5950264300.0 0.1242960342 0.9896627741
6000264000.0 0.1377136706 0.9876709052
6050263700.0 0.1495496797 0.9863866858
6100263400.0 0.1618335091 0.9846087142
6150263100.0 0.1767111842 0.9828197795
6200262800.0 0.1860976489 0.9811346765
6250262500.0 0.1988490915 0.978642397
6300262200.0 0.2107695804 0.9761035448
6350261900.0 0.2237524611 0.9734923882
6400261600.0 0.2374526588 0.9700057514
6450261300.0 0.248629033 0.9676629216
6500261000.0 0.2619748619 0.96404471
6550260700.0 0.2751292053 0.9601084391
6600260400.0 0.2886413715 0.9561237216
6650260100.0 0.3028411108 0.9516523147
6700259800.0 0.3147718185 0.9471164257
6750259500.0 0.3286823389 0.9426282483
6800259200.0 0.3420924416 0.9371832125
6850258900.0 0.3546133189 0.9320211913
6900258600.0 0.3672732652 0.9270596405
6950258300.0 0.3798365155 0.9215873177
7000258000.0 0.3913917395 0.9163117746
7050257700.0 0.4032351412 0.9105199745
7100257400.0 0.4166857877 0.9038761171
7150257100.0 0.4273637225 0.8984900178
7200256800.0 0.4404895885 0.892180681
7250256500.0 0.45308946 0.8854464079
7300256200.0 0.465645277 0.878813224
7350255900.0 0.4786277988 0.8718762535
7400255600.0 0.4928255886 0.8641283026
7450255300.0 0.5084831379 0.8547565868
7500255000.0 0.5207382501 0.8474438911
7550254700.0 0.5351480515 0.8384922842
7600254400.0 0.5473431184 0.8299865996
7650254100.0 0.5592807473 0.8220314278
7700253800.0 0.5707261673 0.813979825
7750253500.0 0.5821284865 0.8064324727
7800253200.0 0.5924230157 0.7986459227
7850252900.0 0.6022973265 0.7913158626
7900252600.0 0.6137293519 0.7824704205
7950252300.0 0.6223057616 0.7762329592
8000252000.0 0.6322452351 0.768662635
8050251700.0 0.6427427543 0.7604113019
8100251400.0 0.6524101308 0.7526920302
8150251100.0 0.662280128 0.744147687
8200250800.0 0.6722850231 0.7358260999
8250250500.0 0.6807074403 0.7281279614
8300250200.0 0.6899468928 0.7198271241
8350249900.0 0.6987265415 0.7108510165
8400249600.0 0.7069703287 0.7028981007
8450249300.0 0.7157721219 0.6942363946
8500249000.0 0.7244258127 0.6852565366
8550248700.0 0.7326324232 0.6762166561
8600248400.0 0.7411157811 0.6666429993
8650248100.0 0.7486521347 0.6573059231
8700247800.0 0.7579362296 0.6463219219
8750247500.0 0.7662325731 0.6361008855
8800247200.0 0.7740221527 0.6260912589
8850246900.0 0.7830726202 0.6145839171
8900246600.0 0.7911764101 0.6030381602
8950246300.0 0.8007088299 0.5903274033
9000246000.0 0.8092946899 0.5786316351
9050245700.0 0.817579952 0.5661651923
9100245400.0 0.8260075474 0.5541494569
9150245100.0 0.8348538371 0.5410025622
9200244800.0 0.8441132267 0.5268770378
9250244500.0 0.8532491977 0.5119054313
9300244200.0 0.861284836 0.4986257576
9350243900.0 0.8689610324 0.485298243
9400243600.0 0.8755580213 0.4735157805
9450243300.0 0.8811417319 0.463162633
9500243000.0 0.8873310687 0.4516128626
9550242700.0 0.8913451654 0.4440528839
9600242400.0 0.8957186852 0.4363685351
9650242100.0 0.8998857839 0.4294086159
9700241800.0 0.904849175 0.4206813643
9750241500.0 0.9089233171 0.4130578071
9800241200.0 0.9141447462 0.403606924
9850240900.0 0.9200366854 0.3919353807
9900240600.0 0.9254753809 0.3803192831
9950240300.0 0.9328490963 0.3633155804
10000240000.0 0.9376406818 0.3511488521
10050239700.0 0.9436375042 0.3348910441
10100239400.0 0.9489531185 0.319054057
10150239100.0 0.9538249172 0.3034422919
10200238800.0 0.9582493227 0.2878484529
10250238500.0 0.9615276786 0.2743295826
10300238200.0 0.96461884 0.2603479223
10350237900.0 0.9673330105 0.2469891405
10400237600.0 0.9698359715 0.2336812066
10450237300.0 0.9728288959 0.21964896
10500237000.0 0.9748850176 0.2075467611
10550236700.0 0.9776283624 0.1928670592
10600236400.0 0.9794170263 0.1790686177
10650236100.0 0.9815033169 0.1643844173
10700235800.0 0.9837905238 0.1520636299
10750235500.0 0.9863251896 0.1390305302
10800235200.0 0.9879699987 0.1241118559
10850234900.0 0.9899181024 0.1094214386
10900234600.0 0.9919376997 0.0948942416
10950234300.0 0.9937548355 0.0812296107
11000234000.0 0.9956867463 0.0654505527
11050233700.0 0.9973530259 0.0488565504
11100233400.0 0.9987772933 0.0310109481
11150233100.0 1.000231783 0.0140382589
11200232800.0 1.000828298 -0.0016971533
11250232500.0 1.001906113 -0.0196030483
11300232200.0 1.002034477 -0.0377758362
11350231900.0 1.00183737 -0.0528457651
11400231600.0 1.001575735 -0.0698731041
11450231300.0 1.001327383 -0.0850191674
11500231000.0 0.999730854 -0.1014769043
11550230700.0 0.9981130037 -0.1145546639
11600230400.0 0.9969781129 -0.1278647165
11650230100.0 0.9949210626 -0.1394795527
11700229800.0 0.9928311391 -0.154455803
11750229500.0 0.9901932247 -0.1685168258
11800229200.0 0.9871731312 -0.1818063713
11850228900.0 0.9835868965 -0.1937487036
11900228600.0 0.9799819734 -0.2029544673
11950228300.0 0.9764391962 -0.2133724175
12000228000.0 0.9736758396 -0.2223444064
12050227700.0 0.9698460273 -0.2349294841
12100227400.0 0.9665997625 -0.2459361718
12150227100.0 0.9613178909 -0.2625535192
12200226800.0 0.9580622937 -0.2732339372
12250226500.0 0.9537946702 -0.285979465
12300226200.0 0.9496374149 -0.2981622927
12350225900.0 0.9448142041 -0.311983931
12400225600.0 0.9408001437 -0.324341082
12450225300.0 0.9358646156 -0.3371097833
12500225000.0 0.9299980219 -0.3518776567
12550224700.0 0.9247507926 -0.3655454526
12600224400.0 0.9199323765 -0.3782982781
12650224100.0 0.9141294531 -0.3926017991
12700223800.0 0.9088520864 -0.4054694458
12750223500.0 0.9032365218 -0.4185497092
12800223200.0 0.8981503523 -0.4309131027
12850222900.0 0.8923578298 -0.443744907
12900222600.0 0.8871612065 -0.4549992626
12950222300.0 0.8807230928 -0.4681281182
13000222000.0 0.8750093351 -0.4795975693
13050221700.0 0.8683426378 -0.4926585083
13100221400.0 0.8614786085 -0.5048025094
13150221100.0 0.8545648183 -0.5167312223
13200220800.0 0.847791982 -0.5282629397
13250220500.0 0.84054309 -0.5402073081
13300220200.0 0.8327953883 -0.551309068
13350219900.0 0.8245283763 -0.5632329779
13400219600.0 0.8161037097 -0.5753299945
13450219300.0 0.8069403182 -0.5880433761
13500219000.0 0.7972926203 -0.6015055122
13550218700.0 0.7868615899 -0.6137675999
13600218400.0 0.7771214705 -0.6255065002
13650218100.0 0.7681021266 -0.6361706331
13700217800.0 0.7567904312 -0.6480906234
13750217500.0 0.7475180814 -0.6580060675
13800217200.0 0.7361647861 -0.6704816841
13850216900.0 0.7259503854 -0.6817363325
13900216600.0 0.7162322382 -0.6898424397
13950216300.0 0.7047975128 -0.7004283041
14000216000.0 0.6950660211 -0.7093371002
14050215700.0 0.6860954515 -0.7172556182
14100215400.0 0.6767822883 -0.7263329382
14150215100.0 0.6674989261 -0.734909909
14200214800.0 0.6579680633 -0.7439213656
14250214500.0 0.6475789792 -0.7534417193
14300214200.0 0.6371638927 -0.7629055883
14350213900.0 0.6261951394 -0.7725048197
14400213600.0 0.6143382405 -0.7826300169
14450213300.0 0.6011813619 -0.792824092
14500213000.0 0.5883162692 -0.8025390838
14550212700.0 0.575888403 -0.8120118903
14600212400.0 0.5634497969 -0.8210459344
14650212100.0 0.5506579083 -0.8290986086
14700211800.0 0.5374208529 -0.8388708617
14750211500.0 0.525037258 -0.8469687273
14800211200.0 0.5120877557 -0.8555077303
14850210900.0 0.4998827601 -0.8630616479
14900210600.0 0.4867095111 -0.8710090553
14950210300.0 0.4733175489 -0.8786090417
15000210000.0 0.4607008409 -0.8852373326
15050209700.0 0.4481289912 -0.8910598628
15100209400.0 0.4358732405 -0.8971324157
15150209100.0 0.4233725079 -0.9026775229
15200208800.0 0.4105115057 -0.9077530334
15250208500.0 0.3998752354 -0.9123125414
15300208200.0 0.3879097398 -0.9174440085
15350207900.0 0.3741739245 -0.9219030259
15400207600.0 0.3596130089 -0.9277764821
15450207300.0 0.3451061082 -0.9320315458
15500207000.0 0.3304952794 -0.9373449864
15550206700.0 0.3160581342 -0.9420213032
15600206400.0 0.2996128555 -0.9466024124
15650206100.0 0.2836750304 -0.9506979341
15700205800.0 0.2700368958 -0.954451857
15750205500.0 0.2564287236 -0.9578122644
15800205200.0 0.2424073594 -0.9611025898
15850204900.0 0.228179596 -0.9646185362
15900204600.0 0.2129433579 -0.9683058308
15950204300.0 0.1989041968 -0.9715298677
16000204000.0 0.1842263611 -0.974458688
16050203700.0 0.169348553 -0.9773426115
16100203400.0 0.1543344356 -0.9795378028
16150203100.0 0.1400765532 -0.9820083012
16200202800.0 0.1255447573 -0.9840626932
16250202500.0 0.1107161592 -0.9859923574
16300202200.0 0.0953459243 -0.9876637699
16350201900.0 0.0801805834 -0.9889652975
16400201600.0 0.0650284083 -0.9902143638
16450201300.0 0.0498627125 -0.9909421489
16500201000.0 0.0328630874 -0.9919659673
16550200700.0 0.0165795432 -0.9924848927
16600200400.0 0.000920079 -0.9927615999
16650200100.0 -0.0154347889 -0.9927242602
16700199800.0 -0.0316613457 -0.992269373
16750199500.0 -0.0507194712 -0.9917007341
16800199200.0 -0.0671380508 -0.990806384
16850198900.0 -0.0825415112 -0.9892151309
16900198600.0 -0.0962024839 -0.9879363257
16950198300.0 -0.1099824465 -0.9875707131
17000198000.0 -0.1232597989 -0.985991116
17050197700.0 -0.1358825386 -0.9842345594
17100197400.0 -0.1490950891 -0.9821689849
17150197100.0 -0.1618157658 -0.9797533165
17200196800.0 -0.1743115413 -0.9780196482
17250196500.0 -0.1872797135 -0.97553456
17300196200.0 -0.1994710011 -0.9731752908
17350195900.0 -0.2111992523 -0.9706751211
17400195600.0 -0.2233604754 -0.9682418023
17450195300.0 -0.2360991218 -0.9651953432
17500195000.0 -0.2494490938 -0.9620082445
17550194700.0 -0.2634423562 -0.9582158645
17600194400.0 -0.2769840229 -0.954309173
17650194100.0 -0.2904502408 -0.9505500762
17700193800.0 -0.3031046605 -0.9461218034
17750193500.0 -0.3176068789 -0.94161573
17800193200.0 -0.3318217407 -0.9367773346
17850192900.0 -0.3467984326 -0.9312399002
17900192600.0 -0.362078173 -0.9251254752
17950192300.0 -0.3772732068 -0.9180480962
18000192000.0 -0.3920256076 -0.9107148869
18050191700.0 -0.4057768435 -0.9026978567
18100191400.0 -0.4199493992 -0.8951025446
18150191100.0 -0.4348000487 -0.8871782645
18200190800.0 -0.4516325202 -0.8779670226
18250190500.0 -0.4687177568 -0.8685673127
18300190200.0 -0.4840798267 -0.8594425692
18350189900.0 -0.4991668724 -0.8510214488
18400189600.0 -0.5136937492 -0.8429553714
18450189300.0 -0.5272927052 -0.8348270535
18500189000.0 -0.540422849 -0.8266538016
18550188700.0 -0.5538426699 -0.8191188862
18600188400.0 -0.565686684 -0.8124519884
18650188100.0 -0.576848184 -0.8056264124
18700187800.0 -0.5879481019 -0.7988992896
18750187500.0 -0.5986484855 -0.7920943034
18800187200.0 -0.6095769305 -0.7851646776
18850186900.0 -0.6195991518 -0.7783759677
18900186600.0 -0.6298969194 -0.7709916824
18950186300.0 -0.6401826858 -0.7633201196
19000186000.0 -0.6473925254 -0.7568003358
19050185700.0 -0.6570247823 -0.749924794
19100185400.0 -0.6671123408 -0.7415721211
19150185100.0 -0.6772291056 -0.7334714593
19200184800.0 -0.6863927506 -0.7253428838
19250184500.0 -0.6961685252 -0.7157392732
19300184200.0 -0.7084058654 -0.7064568714
19350183900.0 -0.7189800377 -0.6968395223
19400183600.0 -0.7287057777 -0.686554744
19450183300.0 -0.7373886819 -0.676492091
19500183000.0 -0.7449218511 -0.6669862184
19550182700.0 -0.7554366655 -0.6556115089
19600182400.0 -0.7655380391 -0.6441238108
19650182100.0 -0.776098654 -0.6317774392
19700181800.0 -0.786559546 -0.6184274125
19750181500.0 -0.7970972279 -0.6042900326
19800181200.0 -0.807179639 -0.5895384966
19850180900.0 -0.8166606765 -0.5742203844
19900180600.0 -0.824437171 -0.5597968806
19950180300.0 -0.8331610594 -0.5433262659
20000180000.0 -0.8231154058 -0.5475560832
20050179700.0 -0.8311519345 -0.5345885997
20100179400.0 -0.8398539104 -0.5209685375
20150179100.0 -0.8468836208 -0.5097419971
20200178800.0 -0.8557440899 -0.4989507122
20250178500.0 -0.8650439989 -0.4852251315
20300178200.0 -0.8752662953 -0.4709859923
20350177900.0 -0.8842070337 -0.4581349763
20400177600.0 -0.8933433707 -0.4432390565
20450177300.0 -0.9018353193 -0.4292114643
20500177000.0 -0.9098247509 -0.4155265823
20550176700.0 -0.9178330074 -0.4021209337
20600176400.0 -0.9247943756 -0.3891300104
20650176100.0 -0.9316014618 -0.3768841318
20700175800.0 -0.9375906167 -0.3647169836
20750175500.0 -0.9445386074 -0.3527462849
20800175200.0 -0.9491514011 -0.3418694844
20850174900.0 -0.9534508604 -0.3310690698
20900174600.0 -0.9576773541 -0.3206261086
20950174300.0 -0.9614318481 -0.3091540574
21000174000.0 -0.9637266958 -0.2994067735
21050173700.0 -0.9651841259 -0.2889937753
21100173400.0 -0.9687183193 -0.2785845985
21150173100.0 -0.9729073989 -0.2664282808
21200172800.0 -0.9771784952 -0.2534332346
21250172500.0 -0.9806750598 -0.2398047617
21300172200.0 -0.9841890742 -0.2254415556
21350171900.0 -0.9861583203 -0.2120300776
21400171600.0 -0.9882930726 -0.1969592043
21450171300.0 -0.9889043316 -0.182887651
21500171000.0 -0.9892204902 -0.1683762292
21550170700.0 -0.9898924419 -0.1528684224
21600170400.0 -0.9902960756 -0.1382168754
21650170100.0 -0.9910402033 -0.1220598283
21700169800.0 -0.9908645035 -0.10728354
21750169500.0 -0.9905332373 -0.0908866928
21800169200.0 -0.9907576077 -0.0748762044
21850168900.0 -0.9899485766 -0.0574710062
21900168600.0 -0.9896072008 -0.0407947466
21950168300.0 -0.9894236643 -0.0257156522
22000168000.0 -0.9890668951 -0.0105204375
22050167700.0 -0.989542503 0.0038721482
22100167400.0 -0.990050932 0.0200778997
22150167100.0 -0.9912854039 0.0360248924
22200166800.0 -0.9918896872 0.0521618401
22250166500.0 -0.991783187 0.0696916437
22300166200.0 -0.9906539724 0.0866297558
22350165900.0 -0.989326159 0.1017065158
22400165600.0 -0.9880719558 0.1180076826
22450165300.0 -0.9859244175 0.1331171954
22500165000.0 -0.9847310442 0.1473479116
22550164700.0 -0.9827881143 0.1633585288
22600164400.0 -0.9803737174 0.1792658287
22650164100.0 -0.9783749247 0.1958071209
22700163800.0 -0.9754389905 0.2110768296
22750163500.0 -0.9722462793 0.2256548284
22800163200.0 -0.9692496594 0.238976742
22850162900.0 -0.9661341673 0.2525842817
22900162600.0 -0.9645750189 0.2667059014
22950162300.0 -0.9626550401 0.2803869228
23000162000.0 -0.9612694288 0.2932397992
23050161700.0 -0.9588433451 0.306717884
23100161400.0 -0.9556857475 0.3205613914
23150161100.0 -0.9523017212 0.3327541557
23200160800.0 -0.9497682269 0.3458696962
23250160500.0 -0.9466607763 0.3570394361
23300160200.0 -0.944160792 0.3708790464
23350159900.0 -0.9405452186 0.3844352905
23400159600.0 -0.9354919955 0.3975719524
23450159300.0 -0.9302370766 0.4116859799
23500159000.0 -0.9253282193 0.4253386527
23550158700.0 -0.9205311642 0.4398520078
23600158400.0 -0.9142257151 0.4535676458
23650158100.0 -0.9069836423 0.4683099072
23700157800.0 -0.8987116038 0.4825854496
23750157500.0 -0.8890258278 0.4971395098
23800157200.0 -0.8793851816 0.5102583667
23850156900.0 -0.8696317381 0.5230762081
23900156600.0 -0.8604942693 0.5357012033
23950156300.0 -0.850503094 0.548646522
24000156000.0 -0.8415999125 0.5610270866
24050155700.0 -0.8299758548 0.5727915875
24100155400.0 -0.8200012938 0.5856633026
24150155100.0 -0.8088201457 0.5978847643
24200154800.0 -0.7977684474 0.6098174282
24250154500.0 -0.7871414965 0.6214632128
24300154200.0 -0.7750910329 0.6338797213
24350153900.0 -0.76298491 0.6448198747
24400153600.0 -0.7504226728 0.6551865591
24450153300.0 -0.7386584719 0.6658375701
24500153000.0 -0.7267935392 0.6758297709
24550152700.0 -0.7154937416 0.6855792906
24600152400.0 -0.7035215767 0.6950236989
24650152100.0 -0.6915435734 0.7031888481
