!Created with skrf (http://scikit-rf.org).
# Hz S RI R 50.0 
!freq ReS11 ImS11
300000.0 -0.9754484812 -0.1152469522
50299700.0 -0.9999735115 0.0155820564
100299400.0 -0.998115082 0.0287008858
150299100.0 -1.002808647 0.0455349495
200298800.0 -0.9995970896 0.0590544982
250298500.0 -0.9976145907 0.0724338588
300298200.0 -0.9860356066 0.0881710624
350297900.0 -0.9939057704 0.0987928855
400297600.0 -0.99329493 0.11558089
450297300.0 -0.9910370433 0.1292740284
500297000.0 -0.9894535518 0.1441938207
550296700.0 -0.9844148506 0.156767483
600296400.0 -1.017338935 0.18995793
650296100.0 -0.9823553634 0.1865394902
700295800.0 -0.9791593882 0.2008484673
750295500.0 -0.9763856003 0.2146824996
800295200.0 -0.9729508651 0.228864751
850294900.0 -0.9696330811 0.2428268218
900294600.0 -0.9658133789 0.2565465177
950294300.0 -0.9619704804 0.2702567708
1000294000.0 -0.9578930682 0.2842292804
1050293700.0 -0.9534281944 0.2979726248
1100293400.0 -0.9492171777 0.3122808592
1150293100.0 -0.9454188169 0.324347647
1200292800.0 -0.9402316669 0.3387053795
1250292500.0 -0.9346592246 0.3520991865
1300292200.0 -0.9287444513 0.3653987216
1350291900.0 -0.9233195797 0.3793539715
1400291600.0 -0.9178902693 0.3926213824
1450291300.0 -0.9122551715 0.4048353861
1500291000.0 -0.9059508254 0.418145528
1550290700.0 -0.8994474443 0.4315032346
1600290400.0 -0.8934097537 0.4444002708
1650290100.0 -0.886734355 0.456500622
1700289800.0 -0.8796573779 0.469996897
1750289500.0 -0.8727375498 0.4824647496
1800289200.0 -0.8650224773 0.4952890134
1850288900.0 -0.8586381285 0.5064988588
1900288600.0 -0.8507412501 0.5195063091
1950288300.0 -0.8426766282 0.5321362786
2000288000.0 -0.8350772151 0.5436059629
2050287700.0 -0.8269903928 0.5558683106
2100287400.0 -0.8189760076 0.5673971816
2150287100.0 -0.8102377376 0.5795358695
2200286800.0 -0.8026563561 0.5898518858
2250286500.0 -0.7937453155 0.6018713641
2300286200.0 -0.7848344401 0.613528049
2350285900.0 -0.7760991146 0.6246160231
2400285600.0 -0.7670332283 0.6354616577
2450285300.0 -0.7585867945 0.6458347561
2500285000.0 -0.7487671711 0.6571456204
2550284700.0 -0.7400906249 0.6675780383
2600284400.0 -0.7305136066 0.6776548163
2650284100.0 -0.7215202717 0.6882118886
2700283800.0 -0.7109166768 0.6985171254
2750283500.0 -0.7005735376 0.7092376694
2800283200.0 -0.6907800956 0.7190821637
2850282900.0 -0.6807464204 0.7288884735
2900282600.0 -0.6702593652 0.7385736615
2950282300.0 -0.6599773114 0.7476649355
3000282000.0 -0.6493962546 0.7572280742
3050281700.0 -0.6381223987 0.7664040951
3100281400.0 -0.6262497673 0.7758423762
3150281100.0 -0.6143812792 0.7853828389
3200280800.0 -0.6027421764 0.7936313274
3250280500.0 -0.5919252475 0.8013073577
3300280200.0 -0.5808542866 0.8092895369
3350279900.0 -0.5693937545 0.8167668214
3400279600.0 -0.5571681696 0.8243043327
3450279300.0 -0.546154776 0.8314502393
3500279000.0 -0.5339356499 0.8385223164
3550278700.0 -0.5215244745 0.8460085019
3600278400.0 -0.5090831698 0.8529574192
3650278100.0 -0.4960737531 0.8607792757
3700277800.0 -0.4839985642 0.8671996594
3750277500.0 -0.4715468993 0.8736324751
3800277200.0 -0.4589057222 0.8801149032
3850276900.0 -0.4470415929 0.8858980602
3900276600.0 -0.4361365509 0.8917307431
3950276300.0 -0.423719004 0.8979626035
4000276000.0 -0.411752418 0.903857992
4050275700.0 -0.399079294 0.9097762774
4100275400.0 -0.3874662533 0.9151259283
4150275100.0 -0.3752006967 0.9209889956
4200274800.0 -0.3621519459 0.9265771059
4250274500.0 -0.3499493911 0.9317601791
4300274200.0 -0.3367286018 0.93678583
4350273900.0 -0.3231921889 0.9421191223
4400273600.0 -0.3081746303 0.9474507758
4450273300.0 -0.2928460475 0.9525634977
4500273000.0 -0.2791232693 0.9569068478
4550272700.0 -0.2648786746 0.9612484783
4600272400.0 -0.2493967005 0.9652977126
4650272100.0 -0.2376891896 0.9684522454
4700271800.0 -0.2245555924 0.9718350408
4750271500.0 -0.2127815138 0.9745949219
4800271200.0 -0.2002696316 0.9774307373
4850270900.0 -0.1863507406 0.980182036
4900270600.0 -0.1723766309 0.9825927256
4950270300.0 -0.1581089169 0.9850703823
5000270000.0 -0.1440021513 0.9874402028
5050269700.0 -0.1304331196 0.9886996106
5100269400.0 -0.11699532 0.9902879979
5150269100.0 -0.1036380403 0.9922089874
5200268800.0 -0.0901551505 0.9928149132
5250268500.0 -0.0773827326 0.9941222277
5300268200.0 -0.0641428207 0.9948487969
5350267900.0 -0.0519816739 0.9954030707
5400267600.0 -0.035751456 0.9963455912
5450267300.0 -0.0227877543 0.9967064088
5500267000.0 -0.0076266523 0.9971106542
5550266700.0 0.0076276599 0.9973001895
5600266400.0 0.0230443469 0.9971974205
5650266100.0 0.0396152749 0.9968824047
5700265800.0 0.0540865655 0.9959969522
5750265500.0 0.0690236873 0.9952598384
5800265200.0 0.0833442255 0.9947254664
5850264900.0 0.096608325 0.9934070592
5900264600.0 0.1133995114 0.9917250974
5950264300.0 0.1252769676 0.9901292395
6000264000.0 0.1392775612 0.9883058656
6050263700.0 0.1517775948 0.9863999825
6100263400.0 0.164348585 0.9847571597
6150263100.0 0.1786439826 0.9826045629
6200262800.0 0.1892284337 0.9807135225
6250262500.0 0.2017207334 0.9783932284
6300262200.0 0.2147335222 0.9754815114
6350261900.0 0.2276666388 0.9726774929
6400261600.0 0.2415810206 0.9692558775
6450261300.0 0.252966441 0.9665736466
6500261000.0 0.2656477489 0.9631903828
6550260700.0 0.2789205631 0.9590938496
6600260400.0 0.2920936732 0.9550704751
6650260100.0 0.3061578462 0.9507485002
6700259800.0 0.3177140917 0.9459587348
6750259500.0 0.3316306553 0.9412759672
6800259200.0 0.3447475334 0.9363868678
6850258900.0 0.3564295679 0.931211243
6900258600.0 0.3688879219 0.9262669041
6950258300.0 0.381487595 0.9210639873
7000258000.0 0.393301771 0.9155754891
7050257700.0 0.4056294582 0.9093745812
7100257400.0 0.4184620234 0.9033636962
7150257100.0 0.4286000341 0.8980139329
7200256800.0 0.4414527593 0.8915320643
7250256500.0 0.4533496377 0.885369216
7300256200.0 0.4663187035 0.878278232
7350255900.0 0.4790751333 0.8716232117
7400255600.0 0.4920467234 0.8643623898
7450255300.0 0.5074678533 0.8553184273
7500255000.0 0.519010529 0.8478998434
7550254700.0 0.5330789805 0.8398841722
7600254400.0 0.5456185722 0.8314325713
7650254100.0 0.557455494 0.8234920473
7700253800.0 0.5689402396 0.815642011
7750253500.0 0.5803255823 0.8077550169
7800253200.0 0.5907416169 0.8001105281
7850252900.0 0.6005500312 0.7930462434
7900252600.0 0.6122228307 0.7843393793
7950252300.0 0.6209683131 0.777766319
8000252000.0 0.6311631104 0.7698620115
8050251700.0 0.6417203945 0.7616661743
8100251400.0 0.6521914667 0.7536578932
8150251100.0 0.6619132247 0.7449525909
8200250800.0 0.671182477 0.7370773038
8250250500.0 0.6801356122 0.7292050849
8300250200.0 0.689663387 0.720746662
8350249900.0 0.6985450221 0.7119375496
8400249600.0 0.7070819123 0.7037648839
8450249300.0 0.7160528084 0.6946722829
8500249000.0 0.7243239948 0.6858136208
8550248700.0 0.7327196363 0.6768150406
8600248400.0 0.7413746938 0.6672537812
8650248100.0 0.7489520327 0.6579221667
8700247800.0 0.7585619271 0.646586396
8750247500.0 0.7670616048 0.6365288403
8800247200.0 0.7747645545 0.6259741478
8850246900.0 0.7836737525 0.6148098013
8900246600.0 0.7921532323 0.6032593733
8950246300.0 0.8017697047 0.5902781619
9000246000.0 0.811047921 0.5775500736
9050245700.0 0.8202193779 0.5644027054
9100245400.0 0.8289526188 0.5517528033
9150245100.0 0.8379613012 0.5382167248
9200244800.0 0.8483730163 0.5227909287
9250244500.0 0.8574033433 0.5072623588
9300244200.0 0.8658417184 0.4925591191
9350243900.0 0.8738835054 0.478741703
9400243600.0 0.880370058 0.4661294014
9450243300.0 0.8862240924 0.4546670795
9500243000.0 0.8923951206 0.4425647899
9550242700.0 0.8961616739 0.4347891702
9600242400.0 0.9000639441 0.4276213223
9650242100.0 0.9036317676 0.4212036144
9700241800.0 0.9081603716 0.4127905527
9750241500.0 0.9123704832 0.4053005796
9800241200.0 0.9167995128 0.3965025935
9850240900.0 0.9224866104 0.3846061456
9900240600.0 0.9281561776 0.3729789352
9950240300.0 0.9347709544 0.3569931826
10000240000.0 0.9393300168 0.345360346
10050239700.0 0.9448981325 0.3303414236
10100239400.0 0.949751867 0.3147055491
10150239100.0 0.9541900278 0.2999321624
10200238800.0 0.9583527855 0.2849705265
10250238500.0 0.9616619624 0.2715431682
10300238200.0 0.9648112909 0.2575862202
10350237900.0 0.9674369 0.244676673
10400237600.0 0.9699076974 0.2311002684
10450237300.0 0.9728436329 0.2175502998
10500237000.0 0.9747235708 0.2055569266
10550236700.0 0.9771454638 0.1912355352
10600236400.0 0.9794276407 0.1779522573
10650236100.0 0.9808433411 0.1634348277
10700235800.0 0.9837849896 0.1513217612
10750235500.0 0.9860807548 0.1378666442
10800235200.0 0.9880271529 0.123717897
10850234900.0 0.9897615621 0.1091760546
10900234600.0 0.991656358 0.094522487
10950234300.0 0.9933948012 0.0812887218
11000234000.0 0.9952170395 0.0662318221
11050233700.0 0.9970237135 0.0498034457
11100233400.0 0.9984891955 0.0325203875
11150233100.0 0.9993788127 0.0160727269
11200232800.0 1.000245983 0.000923986
11250232500.0 1.001525382 -0.0161993672
11300232200.0 1.001492637 -0.0336720646
11350231900.0 1.002046046 -0.0495637838
11400231600.0 1.001755287 -0.0644623118
11450231300.0 1.000798471 -0.0798084745
11500231000.0 0.9991834866 -0.0965119907
11550230700.0 0.9981489878 -0.1102276813
11600230400.0 0.9966769491 -0.1222629959
11650230100.0 0.9948090288 -0.1336567051
11700229800.0 0.9929891204 -0.1489891809
11750229500.0 0.9905893934 -0.1635503414
11800229200.0 0.9879146994 -0.1770683163
11850228900.0 0.9844295682 -0.1892719417
11900228600.0 0.9808866144 -0.1989602412
11950228300.0 0.9773314514 -0.2098009678
12000228000.0 0.9748833076 -0.2185659699
12050227700.0 0.9706071948 -0.23170446
12100227400.0 0.9677986722 -0.2421685755
12150227100.0 0.9629639011 -0.2590542342
12200226800.0 0.9592245505 -0.2705223269
12250226500.0 0.9551702422 -0.2826246145
12300226200.0 0.95125708 -0.2943062571
12350225900.0 0.9460964761 -0.3085039859
12400225600.0 0.9421473963 -0.3213556969
12450225300.0 0.9376153786 -0.3347436184
12500225000.0 0.9320931064 -0.3492916422
12550224700.0 0.9267806954 -0.36270017
12600224400.0 0.9220603819 -0.3755765455
12650224100.0 0.9160279885 -0.3898948287
12700223800.0 0.9109877382 -0.4026571091
12750223500.0 0.9053954223 -0.4154980412
12800223200.0 0.9002196009 -0.4280240775
12850222900.0 0.8945744174 -0.4403512466
12900222600.0 0.8892833268 -0.4525681467
12950222300.0 0.8826051313 -0.4655514989
13000222000.0 0.8766458046 -0.4770978109
13050221700.0 0.8700529127 -0.4895155441
13100221400.0 0.8634925922 -0.5016527344
13150221100.0 0.8565268303 -0.5133624263
13200220800.0 0.8496253163 -0.5252273905
13250220500.0 0.8419753463 -0.5372133229
13300220200.0 0.8346989 -0.5480421668
13350219900.0 0.8266984712 -0.5600924456
13400219600.0 0.8180978618 -0.572246891
13450219300.0 0.8084183994 -0.5859399765
13500219000.0 0.7986279277 -0.6000038219
13550218700.0 0.7881467435 -0.6128621681
13600218400.0 0.7780075139 -0.6254629089
13650218100.0 0.7685042631 -0.6356379784
13700217800.0 0.7578361351 -0.6481141296
13750217500.0 0.747700098 -0.6602063937
13800217200.0 0.736287795 -0.6718552702
13850216900.0 0.7245939849 -0.6827196655
13900216600.0 0.714592137 -0.6917351074
13950216300.0 0.7049175037 -0.7020239858
14000216000.0 0.6945371884 -0.7115246176
14050215700.0 0.6849434484 -0.719897463
14100215400.0 0.675086048 -0.728799139
14150215100.0 0.6656407842 -0.7375181475
14200214800.0 0.6563711007 -0.7457629373
14250214500.0 0.6461728337 -0.7551951562
14300214200.0 0.6355703029 -0.7643359458
14350213900.0 0.6246967918 -0.773975277
14400213600.0 0.6130025466 -0.7834820443
14450213300.0 0.6002070617 -0.7937765334
14500213000.0 0.5867214301 -0.8036881295
14550212700.0 0.5743955342 -0.8130330761
14600212400.0 0.5617794813 -0.82193497
14650212100.0 0.5485424977 -0.8306458481
14700211800.0 0.5346527164 -0.8399950073
14750211500.0 0.5228763516 -0.8485186119
14800211200.0 0.5106047618 -0.8565686336
14850210900.0 0.4984028688 -0.8639657386
14900210600.0 0.4849558609 -0.8718032683
14950210300.0 0.4715249167 -0.8794591148
15000210000.0 0.4586187871 -0.8861691878
15050209700.0 0.4463249098 -0.8926735187
15100209400.0 0.4332394005 -0.8984634431
15150209100.0 0.4213932212 -0.903831189
15200208800.0 0.4087539294 -0.9089706768
15250208500.0 0.396929333 -0.9134639828
15300208200.0 0.3846659269 -0.9182405759
15350207900.0 0.3714932785 -0.9232428764
15400207600.0 0.3576693161 -0.9285651051
15450207300.0 0.3432191056 -0.9337384037
15500207000.0 0.3274763336 -0.9380151586
15550206700.0 0.3131734927 -0.9430473701
15600206400.0 0.2966420558 -0.9476420611
15650206100.0 0.2810981477 -0.9519267387
15700205800.0 0.2671729987 -0.9556011007
15750205500.0 0.2524502629 -0.9593748141
15800205200.0 0.2381418649 -0.962587164
15850204900.0 0.2238379158 -0.965910056
15900204600.0 0.2086066138 -0.9693710061
15950204300.0 0.1948750702 -0.9725535319
16000204000.0 0.1805651737 -0.9753260856
16050203700.0 0.1656906265 -0.97807139
16100203400.0 0.1509932044 -0.9807985046
16150203100.0 0.1371728577 -0.9829558935
16200202800.0 0.122452003 -0.9845333965
16250202500.0 0.1081785219 -0.9862151839
16300202200.0 0.092464993 -0.987760736
16350201900.0 0.0776321635 -0.9891807009
16400201600.0 0.0632924189 -0.9903608207
16450201300.0 0.0478528136 -0.9911424825
16500201000.0 0.0314007501 -0.9920448799
16550200700.0 0.0156693457 -0.9924413481
16600200400.0 -9.4621e-06 -0.9927935802
16650200100.0 -0.0162774773 -0.9923578453
16700199800.0 -0.0328649414 -0.992269078
16750199500.0 -0.0512672458 -0.9920045374
16800199200.0 -0.0672177788 -0.9907786568
16850198900.0 -0.0821303369 -0.9892189248
16900198600.0 -0.0958028567 -0.9885475648
16950198300.0 -0.10921657 -0.9874971367
17000198000.0 -0.1225913345 -0.9862428442
17050197700.0 -0.1350326467 -0.9840157308
17100197400.0 -0.1483098147 -0.9819371243
17150197100.0 -0.1605980206 -0.9797983571
17200196800.0 -0.173634274 -0.9778382301
17250196500.0 -0.1864056296 -0.975282659
17300196200.0 -0.1981707727 -0.973083947
17350195900.0 -0.2100429693 -0.9709693928
17400195600.0 -0.2224082129 -0.9684145252
17450195300.0 -0.2354189773 -0.9655842188
17500195000.0 -0.2488357667 -0.9621371543
17550194700.0 -0.2627855776 -0.9587619867
17600194400.0 -0.2767373875 -0.954844504
17650194100.0 -0.2905203832 -0.9500756761
17700193800.0 -0.3034818383 -0.9458953947
17750193500.0 -0.3180205558 -0.9418801882
17800193200.0 -0.3325892098 -0.9363993514
17850192900.0 -0.3477647077 -0.9308743829
17900192600.0 -0.3624198481 -0.9245386947
17950192300.0 -0.3781218997 -0.9178923969
18000192000.0 -0.3928822028 -0.9104646117
18050191700.0 -0.4067212275 -0.9025763242
18100191400.0 -0.4209430898 -0.8949206939
18150191100.0 -0.4359220216 -0.8868297862
18200190800.0 -0.4529789792 -0.8776297059
18250190500.0 -0.4697049739 -0.8681694251
18300190200.0 -0.4853669586 -0.8593971765
18350189900.0 -0.4997200983 -0.8512572238
18400189600.0 -0.5147375117 -0.8427636457
18450189300.0 -0.5279855914 -0.8348613963
18500189000.0 -0.5413898782 -0.8266925732
18550188700.0 -0.5533737834 -0.8190097608
18600188400.0 -0.5655280694 -0.8124137423
18650188100.0 -0.5765603983 -0.8058711442
18700187800.0 -0.587238222 -0.7991601453
18750187500.0 -0.5979490502 -0.7928234686
18800187200.0 -0.6086304149 -0.7857211808
18850186900.0 -0.6185452947 -0.7789567487
18900186600.0 -0.6289819403 -0.7715913066
18950186300.0 -0.6390865738 -0.7638199467
19000186000.0 -0.6462002133 -0.7579597856
19050185700.0 -0.6554519094 -0.7504412794
19100185400.0 -0.6650499034 -0.7424586633
19150185100.0 -0.6749603801 -0.7338668623
19200184800.0 -0.6846568616 -0.7254769064
19250184500.0 -0.6952866259 -0.7159382183
19300184200.0 -0.7071242481 -0.7061876101
19350183900.0 -0.7174501409 -0.6968532592
19400183600.0 -0.7272118525 -0.6868805318
19450183300.0 -0.7354908876 -0.676936702
19500183000.0 -0.7442612445 -0.666904408
19550182700.0 -0.7538969976 -0.6561276814
19600182400.0 -0.7644814229 -0.6443899499
19650182100.0 -0.7753798584 -0.631832257
19700181800.0 -0.7861851082 -0.6185547051
19750181500.0 -0.7966061587 -0.6045244635
19800181200.0 -0.8069215473 -0.589524396
19850180900.0 -0.8165495053 -0.5742253656
19900180600.0 -0.8244228668 -0.5595085801
19950180300.0 -0.8334595795 -0.5432187738
20000180000.0 -0.8270631578 -0.5457245376
20050179700.0 -0.8345049822 -0.5326162928
20100179400.0 -0.8425859214 -0.5186579875
20150179100.0 -0.8510287176 -0.5062761048
20200178800.0 -0.8599373184 -0.4934796024
20250178500.0 -0.8695725518 -0.4797538966
20300178200.0 -0.8793155457 -0.4654875903
20350177900.0 -0.8884121783 -0.4505571492
20400177600.0 -0.8971810868 -0.4361647821
20450177300.0 -0.9055757282 -0.4217364892
20500177000.0 -0.9137957223 -0.407881934
20550176700.0 -0.9214866391 -0.394316751
20600176400.0 -0.928623588 -0.3812580304
20650176100.0 -0.9348253642 -0.3686327242
20700175800.0 -0.9426612259 -0.3565413046
20750175500.0 -0.9482181666 -0.3452510118
20800175200.0 -0.9525697057 -0.3352264158
20850174900.0 -0.9588836483 -0.3227527421
20900174600.0 -0.9627000538 -0.311590746
20950174300.0 -0.9672742688 -0.3001512376
21000174000.0 -0.9703839593 -0.2884884213
21050173700.0 -0.973269329 -0.2777246486
21100173400.0 -0.9768511483 -0.2648666261
21150173100.0 -0.9812052372 -0.2527415628
21200172800.0 -0.9853676123 -0.2397665268
21250172500.0 -0.9880193196 -0.2258703236
21300172200.0 -0.9907320544 -0.2115583459
21350171900.0 -0.9915988384 -0.1973896847
21400171600.0 -0.9933819885 -0.1828843119
21450171300.0 -0.9939229244 -0.1684799763
21500171000.0 -0.9935521145 -0.1526949303
21550170700.0 -0.9942621797 -0.1368758798
21600170400.0 -0.9931255259 -0.1222983254
21650170100.0 -0.9925056486 -0.1053871279
21700169800.0 -0.9896196931 -0.0911542937
21750169500.0 -0.9891190515 -0.0738304681
21800169200.0 -0.9880054818 -0.0588226555
21850168900.0 -0.9871186399 -0.0414400518
21900168600.0 -0.9855017204 -0.0255079776
21950168300.0 -0.9840784198 -0.0105263951
22000168000.0 -0.982343263 0.0048550024
22050167700.0 -0.9826275267 0.0190197875
22100167400.0 -0.9824895858 0.0340508755
22150167100.0 -0.9831487343 0.0500030581
22200166800.0 -0.9836137711 0.0667391198
22250166500.0 -0.9828488141 0.0827546881
22300166200.0 -0.9824252352 0.0998239874
22350165900.0 -0.9810987625 0.116210774
22400165600.0 -0.9789364774 0.131493062
22450165300.0 -0.9775337699 0.1470205548
22500165000.0 -0.9746813493 0.1608079259
22550164700.0 -0.9744573441 0.1759735877
22600164400.0 -0.9725601384 0.1911120514
22650164100.0 -0.9711900104 0.2066095251
22700163800.0 -0.9682965624 0.2220052443
22750163500.0 -0.9649839087 0.2381013418
22800163200.0 -0.9626340134 0.2508839691
22850162900.0 -0.9603711997 0.2645751567
22900162600.0 -0.9588863981 0.2778794053
22950162300.0 -0.9576889091 0.2902551505
23000162000.0 -0.9565794222 0.3019029516
23050161700.0 -0.9548706711 0.3148818357
23100161400.0 -0.9524449832 0.3275158819
23150161100.0 -0.9498641611 0.3404383864
23200160800.0 -0.9469328117 0.3520089807
23250160500.0 -0.9437931655 0.3640707937
23300160200.0 -0.9419648416 0.3753745162
23350159900.0 -0.9381094306 0.3889383389
23400159600.0 -0.9329853763 0.40226792
23450159300.0 -0.9283882878 0.4155273564
23500159000.0 -0.9238162823 0.4281289246
23550158700.0 -0.9192597112 0.441340341
23600158400.0 -0.9144393155 0.4546889895
23650158100.0 -0.9077328654 0.4684426476
23700157800.0 -0.9001449037 0.4822684345
23750157500.0 -0.8914981188 0.4962887057
23800157200.0 -0.8826558933 0.5093063157
23850156900.0 -0.874497108 0.5222945423
23900156600.0 -0.8647746683 0.5342826682
23950156300.0 -0.855654307 0.5472851225
24000156000.0 -0.8457871317 0.5582461265
24050155700.0 -0.8366861156 0.5708413241
24100155400.0 -0.8266104946 0.5827128998
24150155100.0 -0.8155620277 0.5943435404
24200154800.0 -0.8048107791 0.6055050783
24250154500.0 -0.7931676165 0.6175494291
24300154200.0 -0.7813205268 0.6285848301
24350153900.0 -0.7699898093 0.6394139388
24400153600.0 -0.7577814062 0.6498969744
24450153300.0 -0.7458738675 0.6594800454
24500153000.0 -0.7342275225 0.6689292904
24550152700.0 -0.7231685403 0.6791450938
24600152400.0 -0.7107920647 0.6880372537
24650152100.0 -0.6995485416 0.6962902969
