!Created with skrf (http://scikit-rf.org).
# Hz S RI R 50.0 
!freq ReS11 ImS11
300000.0 -0.9824115393 -0.0947718936
50299700.0 -0.9999586031 0.0163565415
100299400.0 -0.9980222376 0.0290593276
150299100.0 -1.002841987 0.0461748626
200298800.0 -0.9995187343 0.0595009439
250298500.0 -0.997342642 0.0731301086
300298200.0 -0.9859621073 0.0886504382
350297900.0 -0.9939372113 0.099732727
400297600.0 -0.9930462079 0.1162745308
450297300.0 -0.9908433242 0.129967996
500297000.0 -0.9892110529 0.1448132731
550296700.0 -0.9843577038 0.1572155032
600296400.0 -1.017136837 0.1907698231
650296100.0 -0.9819554123 0.1871771462
700295800.0 -0.9790588204 0.2015692858
750295500.0 -0.9758999494 0.2154708433
800295200.0 -0.9725679589 0.229680494
850294900.0 -0.9693461913 0.2435121158
900294600.0 -0.9653432091 0.2572169658
950294300.0 -0.9618224288 0.2708902748
1000294000.0 -0.9577237441 0.2847241387
1050293700.0 -0.9531588695 0.2988252381
1100293400.0 -0.94887368 0.3130129348
1150293100.0 -0.9449650353 0.3248839056
1200292800.0 -0.9397888489 0.3393207603
1250292500.0 -0.9341413344 0.3527425897
1300292200.0 -0.9284026655 0.3658673724
1350291900.0 -0.9228872944 0.3800207163
1400291600.0 -0.9175218318 0.3929179521
1450291300.0 -0.9118962678 0.4052426661
1500291000.0 -0.905719172 0.4185841393
1550290700.0 -0.8990895614 0.4320827953
1600290400.0 -0.8929598534 0.4448658851
1650290100.0 -0.8863725838 0.4568776909
1700289800.0 -0.8795302001 0.4703890275
1750289500.0 -0.8724977309 0.4827931606
1800289200.0 -0.8649958999 0.4956440299
1850288900.0 -0.8582526756 0.506883703
1900288600.0 -0.8505592029 0.5200350916
1950288300.0 -0.8424486094 0.5325373216
2000288000.0 -0.8349783255 0.5438726482
2050287700.0 -0.8266837966 0.5563381205
2100287400.0 -0.818702835 0.567917815
2150287100.0 -0.8100269952 0.5798175846
2200286800.0 -0.8022516549 0.5904377141
2250286500.0 -0.7933908711 0.602553207
2300286200.0 -0.7844250039 0.6139856342
2350285900.0 -0.7756158429 0.6251181435
2400285600.0 -0.7667552039 0.6360929183
2450285300.0 -0.7579331617 0.6465322402
2500285000.0 -0.7482540756 0.6576785394
2550284700.0 -0.7392967282 0.6680323335
2600284400.0 -0.7297763675 0.6783289423
2650284100.0 -0.7208920436 0.688940791
2700283800.0 -0.7100882291 0.6991617195
2750283500.0 -0.6999666011 0.70984234
2800283200.0 -0.6902742274 0.7195575155
2850282900.0 -0.6798058243 0.7293932516
2900282600.0 -0.6694815571 0.7386502783
2950282300.0 -0.6593998948 0.7481327761
3000282000.0 -0.648757668 0.7576507758
3050281700.0 -0.6375326776 0.7668843312
3100281400.0 -0.6257507781 0.7762217474
3150281100.0 -0.6139076829 0.7854511607
3200280800.0 -0.6024656811 0.7940209631
3250280500.0 -0.5914656804 0.8016134617
3300280200.0 -0.5805901719 0.8094662339
3350279900.0 -0.5689593809 0.8167695679
3400279600.0 -0.5568855273 0.8247163161
3450279300.0 -0.5455930796 0.8317865428
3500279000.0 -0.5338082831 0.8390102448
3550278700.0 -0.5213365133 0.8462527856
3600278400.0 -0.5092634151 0.8532810559
3650278100.0 -0.4957460416 0.8610677006
3700277800.0 -0.4837794471 0.8676562296
3750277500.0 -0.4714938447 0.8739485866
3800277200.0 -0.4587523972 0.8804966196
3850276900.0 -0.4466259524 0.8863742144
3900276600.0 -0.4357050702 0.8922213632
3950276300.0 -0.4232765752 0.8981719975
4000276000.0 -0.4111279823 0.9042555004
4050275700.0 -0.3980952685 0.9103275403
4100275400.0 -0.3869308936 0.9158262069
4150275100.0 -0.374073993 0.9215009298
4200274800.0 -0.3610775315 0.9267836027
4250274500.0 -0.3487044172 0.9320508004
4300274200.0 -0.335772556 0.9370445271
4350273900.0 -0.3219114326 0.9422251782
4400273600.0 -0.3070051988 0.9476289615
4450273300.0 -0.2917111476 0.9526063911
4500273000.0 -0.2781857558 0.9571642189
4550272700.0 -0.264040687 0.9612192577
4600272400.0 -0.2485969462 0.965355038
4650272100.0 -0.2366665848 0.9684075172
4700271800.0 -0.2235005367 0.9718127305
4750271500.0 -0.2117057419 0.9748252639
4800271200.0 -0.1992703213 0.9774146022
4850270900.0 -0.1852964105 0.980248566
4900270600.0 -0.1715920927 0.9827775609
4950270300.0 -0.1573077217 0.9851151308
5000270000.0 -0.1431983376 0.9870968119
5050269700.0 -0.1297434903 0.9890852797
5100269400.0 -0.1162769421 0.9904188687
5150269100.0 -0.1030589359 0.9922172852
5200268800.0 -0.0896350166 0.993647304
5250268500.0 -0.0765258706 0.9940548532
5300268200.0 -0.0634232394 0.995089744
5350267900.0 -0.0514181863 0.9956699577
5400267600.0 -0.0351890278 0.9966477712
5450267300.0 -0.0221663049 0.9967936414
5500267000.0 -0.0070650072 0.9971854014
5550266700.0 0.0079026915 0.9971350929
5600266400.0 0.0232846027 0.9973121145
5650266100.0 0.0396966724 0.9968706933
5700265800.0 0.0544095325 0.9959060213
5750265500.0 0.0696976342 0.9954184515
5800265200.0 0.0834639102 0.994172946
5850264900.0 0.0967846537 0.9931811089
5900264600.0 0.1131880997 0.9913793185
5950264300.0 0.1257095038 0.9897848174
6000264000.0 0.139638625 0.9878442478
6050263700.0 0.1523850927 0.9865008596
6100263400.0 0.1647238216 0.9844816859
6150263100.0 0.1793495606 0.9821656771
6200262800.0 0.1898111131 0.980122688
6250262500.0 0.2026020031 0.9777973488
6300262200.0 0.2154795026 0.9748662927
6350261900.0 0.2286157917 0.9719861223
6400261600.0 0.2424538969 0.9687807207
6450261300.0 0.2539304729 0.9658681872
6500261000.0 0.2666284452 0.9623562626
6550260700.0 0.2794256161 0.9587509844
6600260400.0 0.2926916275 0.954073464
6650260100.0 0.30671372 0.9500916552
6700259800.0 0.3186784864 0.9460927184
6750259500.0 0.3328506131 0.941034255
6800259200.0 0.3458191685 0.936253387
6850258900.0 0.3577687131 0.9309545761
6900258600.0 0.3695500625 0.9260954976
6950258300.0 0.3822731823 0.9208236231
7000258000.0 0.3941507992 0.9154054178
7050257700.0 0.4064048364 0.909389239
7100257400.0 0.4193331744 0.9030886295
7150257100.0 0.4296189224 0.897864733
7200256800.0 0.4423066571 0.8912889488
7250256500.0 0.4539082124 0.8853131012
7300256200.0 0.4670345531 0.8785152
7350255900.0 0.4792207481 0.8713763435
7400255600.0 0.4926921397 0.8644051749
7450255300.0 0.5076682633 0.85533786
7500255000.0 0.5190942965 0.8482467224
7550254700.0 0.5332437086 0.8399903412
7600254400.0 0.5458771782 0.8314686
7650254100.0 0.557479775 0.823915776
7700253800.0 0.569031917 0.8153881037
7750253500.0 0.5804936907 0.8074087131
7800253200.0 0.5911149972 0.7999206469
7850252900.0 0.6009740429 0.7928659282
7900252600.0 0.6126036008 0.7838811468
7950252300.0 0.62156138 0.7773736976
8000252000.0 0.631690736 0.7693775552
8050251700.0 0.6425504984 0.7610235039
8100251400.0 0.6525028442 0.7528751698
8150251100.0 0.6624840729 0.7440649218
8200250800.0 0.6719353749 0.7360071713
8250250500.0 0.6808010136 0.7278315901
8300250200.0 0.6904475611 0.7192289607
8350249900.0 0.6997073541 0.7106849144
8400249600.0 0.707873338 0.7027004658
8450249300.0 0.7167787944 0.6934158828
8500249000.0 0.7256093003 0.6845164774
8550248700.0 0.7337082201 0.6755818959
8600248400.0 0.7422533533 0.6658762775
8650248100.0 0.7500097966 0.6567059428
8700247800.0 0.7593090157 0.6455318116
8750247500.0 0.7677388198 0.6354281357
8800247200.0 0.7758719444 0.6251929971
8850246900.0 0.7845895891 0.6137695452
8900246600.0 0.7925504442 0.6028223103
8950246300.0 0.8021583438 0.5898067496
9000246000.0 0.8112040948 0.5773914053
9050245700.0 0.8205886785 0.5641541095
9100245400.0 0.8289725439 0.5518998689
9150245100.0 0.8382485807 0.5385938412
9200244800.0 0.847894895 0.5232248902
9250244500.0 0.8571905878 0.5082562928
9300244200.0 0.865616092 0.4935082241
9350243900.0 0.8733373305 0.4796593779
9400243600.0 0.8799552514 0.467043161
9450243300.0 0.886086592 0.4551004857
9500243000.0 0.8923427144 0.4423827523
9550242700.0 0.8963207069 0.4344584581
9600242400.0 0.9002798527 0.426444289
9650242100.0 0.9040782595 0.4197285763
9700241800.0 0.9085389818 0.4115399768
9750241500.0 0.9126449239 0.4035968366
9800241200.0 0.9173356689 0.3942767401
9850240900.0 0.9224780549 0.382515857
9900240600.0 0.9283626127 0.3711804354
9950240300.0 0.934645885 0.3548995308
10000240000.0 0.9389975279 0.3434222835
10050239700.0 0.944798604 0.3285995188
10100239400.0 0.9499716732 0.3131141086
10150239100.0 0.9541616916 0.2984051925
10200238800.0 0.9586701127 0.283291349
10250238500.0 0.9616991351 0.2701068245
10300238200.0 0.9650209806 0.2561588506
10350237900.0 0.9676344911 0.242949913
10400237600.0 0.9702314788 0.2298266524
10450237300.0 0.9730223232 0.2163540653
10500237000.0 0.9752473872 0.2042993574
10550236700.0 0.9773793109 0.190898748
10600236400.0 0.9791003573 0.1777180702
10650236100.0 0.981438082 0.162700479
10700235800.0 0.9838962196 0.1504985874
10750235500.0 0.9858728208 0.1375245812
10800235200.0 0.9878134331 0.1237634755
10850234900.0 0.9897324929 0.1089967961
10900234600.0 0.9919752318 0.0942486193
10950234300.0 0.9935515005 0.081041296
11000234000.0 0.9951987635 0.066107305
11050233700.0 0.9969718931 0.0500734825
11100233400.0 0.9980798316 0.0325653234
11150233100.0 0.9990746818 0.0166416933
11200232800.0 0.9998199012 0.0015388179
11250232500.0 1.001113419 -0.0153513209
11300232200.0 1.001190744 -0.0331291241
11350231900.0 1.00137782 -0.0493333272
11400231600.0 1.000880385 -0.0652950972
11450231300.0 1.000406506 -0.0800607553
11500231000.0 0.9991548358 -0.0974191671
11550230700.0 0.9972041835 -0.1104092509
11600230400.0 0.996181269 -0.1230496199
11650230100.0 0.9942067835 -0.1345833515
11700229800.0 0.9919924008 -0.1498217569
11750229500.0 0.9898152442 -0.1643044043
11800229200.0 0.9871147248 -0.1786570495
11850228900.0 0.983683393 -0.1910704466
11900228600.0 0.9801208467 -0.2007690922
11950228300.0 0.9765305033 -0.2114410388
12000228000.0 0.9739533039 -0.2207888233
12050227700.0 0.9706544619 -0.23323538
12100227400.0 0.9671020189 -0.2447017193
12150227100.0 0.9622181544 -0.261345371
12200226800.0 0.9595560012 -0.2712406716
12250226500.0 0.9553123165 -0.2842455886
12300226200.0 0.9507300555 -0.2965206848
12350225900.0 0.9455388478 -0.3105071466
12400225600.0 0.9413193512 -0.3230365612
12450225300.0 0.9370883983 -0.3363330332
12500225000.0 0.931801696 -0.350219071
12550224700.0 0.92646355 -0.3635680862
12600224400.0 0.9218116909 -0.3761519219
12650224100.0 0.9159462393 -0.3904259086
12700223800.0 0.9108346045 -0.4029131091
12750223500.0 0.9052951303 -0.4159917444
12800223200.0 0.9000007299 -0.4284701437
12850222900.0 0.894283669 -0.4404360344
12900222600.0 0.8887798992 -0.4527466495
12950222300.0 0.8824417765 -0.465790533
13000222000.0 0.8768237034 -0.4763959372
13050221700.0 0.8690707945 -0.4897981004
13100221400.0 0.8628452032 -0.501638184
13150221100.0 0.8560158177 -0.5145123424
13200220800.0 0.8486229054 -0.5259868583
13250220500.0 0.8413252517 -0.537988211
13300220200.0 0.8337894321 -0.549423949
13350219900.0 0.8255802245 -0.5614100114
13400219600.0 0.8170374904 -0.5736918492
13450219300.0 0.8076973252 -0.5871710294
13500219000.0 0.7972754764 -0.6012394864
13550218700.0 0.7864373188 -0.6142753313
13600218400.0 0.7760100672 -0.6262470967
13650218100.0 0.7672437883 -0.6377705584
13700217800.0 0.7556339191 -0.6502620661
13750217500.0 0.7461049577 -0.6603612665
13800217200.0 0.7352535295 -0.6731106291
13850216900.0 0.7238590092 -0.6844710826
13900216600.0 0.7137252463 -0.6936796835
13950216300.0 0.702813234 -0.7037507628
14000216000.0 0.6933173796 -0.7133824931
14050215700.0 0.6836471342 -0.7209033731
14100215400.0 0.6736101774 -0.7299246178
14150215100.0 0.6646887692 -0.7382636384
14200214800.0 0.6554932407 -0.7468221751
14250214500.0 0.6453290392 -0.7560612092
14300214200.0 0.6351378427 -0.7651050078
14350213900.0 0.6241383388 -0.7746713113
14400213600.0 0.6126585488 -0.7841360476
14450213300.0 0.5998033346 -0.7942948955
14500213000.0 0.5861903459 -0.8036249938
14550212700.0 0.5746298309 -0.8129110721
14600212400.0 0.5616201776 -0.8219817578
14650212100.0 0.5489498826 -0.830552706
14700211800.0 0.5348683651 -0.8400597505
14750211500.0 0.5229518655 -0.8482376379
14800211200.0 0.5104066144 -0.8563185577
14850210900.0 0.4982568036 -0.8636217865
14900210600.0 0.4848788587 -0.871714705
14950210300.0 0.4714899942 -0.8793598349
15000210000.0 0.4584814997 -0.8862131109
15050209700.0 0.4461742883 -0.8925926147
15100209400.0 0.4329190802 -0.8984799144
15150209100.0 0.4207643618 -0.9043825385
15200208800.0 0.4075020926 -0.9100145839
15250208500.0 0.3956066976 -0.9135025919
15300208200.0 0.3832960226 -0.9188603426
15350207900.0 0.3697049309 -0.9239757182
15400207600.0 0.3555536823 -0.9290602305
15450207300.0 0.3407755059 -0.9345977252
15500207000.0 0.3254933574 -0.9383429142
15550206700.0 0.3109760873 -0.9440487843
15600206400.0 0.2951359029 -0.9482551638
15650206100.0 0.2794357743 -0.9525094102
15700205800.0 0.2657436329 -0.9562144531
15750205500.0 0.2511772771 -0.9594816835
15800205200.0 0.2368111111 -0.963022604
15850204900.0 0.2224959209 -0.9663031827
15900204600.0 0.2078940204 -0.9699130725
15950204300.0 0.193505769 -0.972804861
16000204000.0 0.1797998274 -0.9754759005
16050203700.0 0.1655106687 -0.9784798271
16100203400.0 0.1511546969 -0.9805978399
16150203100.0 0.1368027413 -0.9825427011
16200202800.0 0.1229517721 -0.98460602
16250202500.0 0.1079541919 -0.9864235372
16300202200.0 0.092910428 -0.987885286
16350201900.0 0.0783903839 -0.9896841684
16400201600.0 0.0636421932 -0.9904958536
16450201300.0 0.0485858406 -0.9914050393
16500201000.0 0.0320642456 -0.9921716011
16550200700.0 0.0162054795 -0.9925225233
16600200400.0 0.0003607561 -0.9930074096
16650200100.0 -0.0158633195 -0.9929107723
16700199800.0 -0.0326762176 -0.9925564172
16750199500.0 -0.0516427975 -0.991674193
16800199200.0 -0.0671774248 -0.9903287072
16850198900.0 -0.0828085989 -0.9894953996
16900198600.0 -0.0970870116 -0.9879362619
16950198300.0 -0.1103906673 -0.987017595
17000198000.0 -0.1229260027 -0.9860119488
17050197700.0 -0.1361450251 -0.983430044
17100197400.0 -0.1489993963 -0.9820412405
17150197100.0 -0.1623130387 -0.9800661251
17200196800.0 -0.1748663703 -0.9775582817
17250196500.0 -0.1879290282 -0.9750323439
17300196200.0 -0.2002437412 -0.9726316797
17350195900.0 -0.2120180821 -0.970409298
17400195600.0 -0.2244916021 -0.9678057385
17450195300.0 -0.2373660856 -0.9650640855
17500195000.0 -0.2509020264 -0.9616656005
17550194700.0 -0.2647006112 -0.9579969196
17600194400.0 -0.2788497661 -0.9542656436
17650194100.0 -0.2921412229 -0.9498732003
17700193800.0 -0.3051387742 -0.9455660568
17750193500.0 -0.3194626992 -0.9411719784
17800193200.0 -0.3334638425 -0.9361442477
17850192900.0 -0.3483711193 -0.930927944
17900192600.0 -0.3635407192 -0.9242217356
17950192300.0 -0.3788947506 -0.9175608874
18000192000.0 -0.3933973279 -0.9102571617
18050191700.0 -0.4070935834 -0.90255841
18100191400.0 -0.4210908679 -0.8951203683
18150191100.0 -0.4360099067 -0.8871575556
18200190800.0 -0.4526326843 -0.878101107
18250190500.0 -0.4695623889 -0.868686291
18300190200.0 -0.4848360203 -0.8599187659
18350189900.0 -0.4999431589 -0.8515139923
18400189600.0 -0.5141787193 -0.8430008203
18450189300.0 -0.5270220557 -0.8350995766
18500189000.0 -0.5409344846 -0.8274019293
18550188700.0 -0.5533347044 -0.8193018018
18600188400.0 -0.565554222 -0.8123080321
18650188100.0 -0.5769658098 -0.8054787187
18700187800.0 -0.5878971031 -0.7986366517
18750187500.0 -0.5986380504 -0.7919351055
18800187200.0 -0.609277213 -0.7846898463
18850186900.0 -0.6196039073 -0.7775172052
18900186600.0 -0.630244952 -0.7697450524
18950186300.0 -0.6406869464 -0.7615797655
19000186000.0 -0.6480346825 -0.7555504234
19050185700.0 -0.6575649707 -0.7476052541
19100185400.0 -0.6677230849 -0.7392161741
19150185100.0 -0.6781446189 -0.7302864915
19200184800.0 -0.6876468343 -0.7221824539
19250184500.0 -0.6985570175 -0.7123609638
19300184200.0 -0.7095435109 -0.7033364878
19350183900.0 -0.720029671 -0.6936023273
19400183600.0 -0.7291584278 -0.683876151
19450183300.0 -0.7386225964 -0.6729111566
19500183000.0 -0.7469884804 -0.6641013029
19550182700.0 -0.7560689814 -0.6529427147
19600182400.0 -0.7663704211 -0.6414375498
19650182100.0 -0.7773616313 -0.6292029712
19700181800.0 -0.7872926556 -0.616208847
19750181500.0 -0.7975862418 -0.6023628867
19800181200.0 -0.8078647929 -0.5878524258
19850180900.0 -0.8172762926 -0.5730063657
19900180600.0 -0.8248421755 -0.5585591244
19950180300.0 -0.8337992828 -0.5421510462
20000180000.0 -0.8279238819 -0.5440652044
20050179700.0 -0.8356102322 -0.5312788571
20100179400.0 -0.8441194454 -0.5178473338
20150179100.0 -0.8522349596 -0.5050372607
20200178800.0 -0.8610679603 -0.492560158
20250178500.0 -0.8699563564 -0.4790234062
20300178200.0 -0.879181801 -0.4642829054
20350177900.0 -0.8882718874 -0.4499968317
20400177600.0 -0.8965678573 -0.435813269
20450177300.0 -0.9049417518 -0.421221713
20500177000.0 -0.9127707434 -0.4073649641
20550176700.0 -0.9204323303 -0.3937913142
20600176400.0 -0.9276254181 -0.3807478099
20650176100.0 -0.934064481 -0.368056967
20700175800.0 -0.9409085874 -0.3550812674
20750175500.0 -0.9470067523 -0.343489866
20800175200.0 -0.9519740476 -0.3324237216
20850174900.0 -0.9579617908 -0.3207703733
20900174600.0 -0.9617859582 -0.3095373687
20950174300.0 -0.9662010361 -0.2975753014
21000174000.0 -0.9691614888 -0.2859611049
21050173700.0 -0.9724447122 -0.2745852577
21100173400.0 -0.9768354314 -0.2623818161
21150173100.0 -0.9812201919 -0.2495683895
21200172800.0 -0.9843298957 -0.2361479756
21250172500.0 -0.9876150128 -0.2223022471
21300172200.0 -0.9905054654 -0.208133991
21350171900.0 -0.9921527899 -0.1939276983
21400171600.0 -0.9931909317 -0.1791625207
21450171300.0 -0.9931121841 -0.1653137144
21500171000.0 -0.9932263164 -0.1502076211
21550170700.0 -0.9929100051 -0.1349248585
21600170400.0 -0.9934551237 -0.1194302156
21650170100.0 -0.9917560665 -0.1039628546
21700169800.0 -0.9902835383 -0.0897543833
21750169500.0 -0.9892533013 -0.0730992474
21800169200.0 -0.9891065709 -0.0572214198
21850168900.0 -0.987408367 -0.04032349
21900168600.0 -0.9857536176 -0.0244390292
21950168300.0 -0.9840672315 -0.0083841455
22000168000.0 -0.9833957232 0.0064921269
22050167700.0 -0.9830417167 0.02034504
22100167400.0 -0.9829498083 0.0352112498
22150167100.0 -0.9833614355 0.0505813798
22200166800.0 -0.9834609492 0.0664710893
22250166500.0 -0.9834585649 0.0842731676
22300166200.0 -0.9820241133 0.0998600847
22350165900.0 -0.9803872598 0.1171725181
22400165600.0 -0.9795079221 0.1326612497
22450165300.0 -0.9762778426 0.1480354974
22500165000.0 -0.9754273657 0.1615077751
22550164700.0 -0.974310659 0.1770187406
22600164400.0 -0.972295904 0.1925747439
22650164100.0 -0.970260921 0.2068186297
22700163800.0 -0.9679363799 0.2220316446
22750163500.0 -0.9652883905 0.2375947416
22800163200.0 -0.9622735271 0.251490207
22850162900.0 -0.9594473757 0.2648304066
22900162600.0 -0.9581611584 0.2783034525
22950162300.0 -0.95709946 0.2909880621
23000162000.0 -0.9559947163 0.3027201289
23050161700.0 -0.9539631899 0.3157857886
23100161400.0 -0.9517584273 0.3281821656
23150161100.0 -0.9486074211 0.3406061349
23200160800.0 -0.9458940423 0.352815949
23250160500.0 -0.9429049357 0.3645579213
23300160200.0 -0.9399598626 0.3768818945
23350159900.0 -0.9364871483 0.3895073099
23400159600.0 -0.9315665094 0.4023406103
23450159300.0 -0.927765391 0.4155275956
23500159000.0 -0.9220776458 0.4283202437
23550158700.0 -0.917832776 0.4411761945
23600158400.0 -0.9127591945 0.4543043082
23650158100.0 -0.9064060319 0.4680032484
23700157800.0 -0.898681245 0.4817088834
23750157500.0 -0.8900187016 0.4958735956
23800157200.0 -0.8812010907 0.5090403871
23850156900.0 -0.8724773817 0.5215336335
23900156600.0 -0.8631356684 0.5334972557
23950156300.0 -0.8536236802 0.5464628498
24000156000.0 -0.844592901 0.5583291832
24050155700.0 -0.8347467861 0.5705762656
24100155400.0 -0.8247957565 0.5816796269
24150155100.0 -0.813883117 0.5941836756
24200154800.0 -0.8027871296 0.6057091203
24250154500.0 -0.7921220496 0.6168485286
24300154200.0 -0.7800857863 0.6285809261
24350153900.0 -0.7687009423 0.6394310642
24400153600.0 -0.7565925444 0.6496694339
24450153300.0 -0.7449362081 0.6598707264
24500153000.0 -0.7335831891 0.6698898234
24550152700.0 -0.7218379065 0.680291685
24600152400.0 -0.7102644398 0.6890646033
24650152100.0 -0.6989740934 0.6972935723
