!Created with skrf (http://scikit-rf.org).
# Hz S RI R 50.0 
!freq ReS11 ImS11
300000.0 -0.9799362238 -0.1030594651
50299700.0 -1.000094683 0.0161931513
100299400.0 -0.9981040858 0.0289864523
150299100.0 -1.002852446 0.0460073564
200298800.0 -0.9996149195 0.0593132769
250298500.0 -0.9973630631 0.0729430081
300298200.0 -0.98590351 0.0886272884
350297900.0 -0.9940902093 0.0994891557
400297600.0 -0.9932812698 0.1160417574
450297300.0 -0.9911020268 0.1298109248
500297000.0 -0.9893392566 0.1445171186
550296700.0 -0.9841711352 0.1571735541
600296400.0 -1.017347195 0.1905791671
650296100.0 -0.9820663752 0.1871687149
700295800.0 -0.9792243313 0.2014308009
750295500.0 -0.9761064499 0.2154007629
800295200.0 -0.972722871 0.2295557558
850294900.0 -0.9694301667 0.243336375
900294600.0 -0.965588728 0.2570463655
950294300.0 -0.961761661 0.2706290959
1000294000.0 -0.9577989675 0.2847912015
1050293700.0 -0.9531793525 0.2985216526
1100293400.0 -0.9488912128 0.3129172475
1150293100.0 -0.9451552064 0.3247921238
1200292800.0 -0.9397096226 0.3391514054
1250292500.0 -0.9343004323 0.3526825764
1300292200.0 -0.9286963705 0.3657229884
1350291900.0 -0.9230925054 0.3797069564
1400291600.0 -0.9175854771 0.3929382527
1450291300.0 -0.9119468561 0.4052185376
1500291000.0 -0.9057511581 0.4185708085
1550290700.0 -0.899307365 0.4317886045
1600290400.0 -0.8930503957 0.4447977041
1650290100.0 -0.8863216834 0.4569608564
1700289800.0 -0.8794229817 0.4702824035
1750289500.0 -0.8725805484 0.4826831854
1800289200.0 -0.8651851044 0.4955102944
1850288900.0 -0.8584736813 0.5067706266
1900288600.0 -0.8506670702 0.5199356198
1950288300.0 -0.842543799 0.5324950162
2000288000.0 -0.8349975761 0.5437492288
2050287700.0 -0.8268998214 0.5561461394
2100287400.0 -0.8186335405 0.5678920911
2150287100.0 -0.8100627273 0.5798256937
2200286800.0 -0.8024381034 0.5902402334
2250286500.0 -0.7934785749 0.6021072258
2300286200.0 -0.7846682493 0.6139574122
2350285900.0 -0.7757439227 0.6248856823
2400285600.0 -0.7667827927 0.6359323658
2450285300.0 -0.7582164322 0.6463729202
2500285000.0 -0.7483436913 0.6575341072
2550284700.0 -0.7394478778 0.6678659481
2600284400.0 -0.7298262976 0.6782809322
2650284100.0 -0.7210057255 0.6886809027
2700283800.0 -0.7101902689 0.6992870005
2750283500.0 -0.7000859096 0.7098409318
2800283200.0 -0.6901399457 0.7195118515
2850282900.0 -0.6800278383 0.7292183531
2900282600.0 -0.6693748548 0.7388060961
2950282300.0 -0.6595310735 0.7480573881
3000282000.0 -0.648943893 0.7575669888
3050281700.0 -0.6377160347 0.7668096478
3100281400.0 -0.6259890233 0.776181332
3150281100.0 -0.6140289493 0.7855719449
3200280800.0 -0.602440187 0.7939096183
3250280500.0 -0.5916979185 0.8015215996
3300280200.0 -0.5803231154 0.8093881334
3350279900.0 -0.5689046394 0.8170495375
3400279600.0 -0.5568969093 0.824614663
3450279300.0 -0.5458442335 0.8319454041
3500279000.0 -0.5337736661 0.8388818774
3550278700.0 -0.521374397 0.8464122697
3600278400.0 -0.5091383742 0.853596548
3650278100.0 -0.4957957631 0.8611927494
3700277800.0 -0.4836945766 0.8676517841
3750277500.0 -0.4715535756 0.8739988418
3800277200.0 -0.4589962899 0.8804982319
3850276900.0 -0.4467179523 0.8863018416
3900276600.0 -0.4358154189 0.8920732615
3950276300.0 -0.4232206166 0.8981570365
4000276000.0 -0.4112703354 0.9041316045
4050275700.0 -0.3982438025 0.9102762643
4100275400.0 -0.3869591363 0.9157330975
4150275100.0 -0.3743306999 0.9213135291
4200274800.0 -0.3613174709 0.9267737989
4250274500.0 -0.3490060002 0.9319032006
4300274200.0 -0.3359268984 0.9372280458
4350273900.0 -0.3223490011 0.9421740107
4400273600.0 -0.307383897 0.9474958892
4450273300.0 -0.291870773 0.9525664682
4500273000.0 -0.2783778534 0.9569483927
4550272700.0 -0.264255749 0.9611334834
4600272400.0 -0.2487769235 0.9654092464
4650272100.0 -0.2369008525 0.9686023395
4700271800.0 -0.2235575838 0.9719668119
4750271500.0 -0.2120256389 0.9747254158
4800271200.0 -0.1993012626 0.977524563
4850270900.0 -0.185439307 0.9802503613
4900270600.0 -0.1715572769 0.9826907591
4950270300.0 -0.1575009126 0.9853119595
5000270000.0 -0.143286656 0.987108828
5050269700.0 -0.129773972 0.9889873349
5100269400.0 -0.1162634986 0.9906923065
5150269100.0 -0.1031419259 0.992082147
5200268800.0 -0.0899973673 0.9929481706
5250268500.0 -0.0765422453 0.9938738251
5300268200.0 -0.0637313435 0.9947219869
5350267900.0 -0.051488512 0.9953431803
5400267600.0 -0.0352498282 0.9964184273
5450267300.0 -0.0223229571 0.9966336461
5500267000.0 -0.0071658356 0.9972701445
5550266700.0 0.0078373753 0.9972790172
5600266400.0 0.0234842782 0.9973663364
5650266100.0 0.0397421575 0.9968503111
5700265800.0 0.0545203368 0.9960872257
5750265500.0 0.0695760184 0.9953581088
5800265200.0 0.0835249987 0.9940683041
5850264900.0 0.097160639 0.9930825431
5900264600.0 0.1133770963 0.9914638834
5950264300.0 0.1257401695 0.9898994847
6000264000.0 0.1395536848 0.987892444
6050263700.0 0.1523273246 0.9867090034
6100263400.0 0.164935206 0.984707668
6150263100.0 0.1793585546 0.9822917609
6200262800.0 0.1897110028 0.9803407955
6250262500.0 0.202533513 0.9777199081
6300262200.0 0.2154800753 0.9751251288
6350261900.0 0.2286189451 0.9721582252
6400261600.0 0.2424611109 0.9688076172
6450261300.0 0.2539273602 0.9662266262
6500261000.0 0.2664840033 0.9625439284
6550260700.0 0.2793849248 0.9586675028
6600260400.0 0.2926266172 0.9544462983
6650260100.0 0.3071058663 0.9504471558
6700259800.0 0.3189955758 0.9461067829
6750259500.0 0.3323548725 0.9411000684
6800259200.0 0.3451978036 0.9356054877
6850258900.0 0.3574355008 0.9308825173
6900258600.0 0.3693310131 0.9258620709
6950258300.0 0.3822362464 0.9205972677
7000258000.0 0.3941444499 0.9153675173
7050257700.0 0.4063180034 0.9093073938
7100257400.0 0.4192201265 0.9029718862
7150257100.0 0.4292980939 0.8977638516
7200256800.0 0.4421437183 0.8914303086
7250256500.0 0.4539672487 0.8851899218
7300256200.0 0.4669456486 0.8780743061
7350255900.0 0.4794458143 0.8713082209
7400255600.0 0.4924015881 0.8642372638
7450255300.0 0.507960007 0.8553554516
7500255000.0 0.5193639048 0.8480273852
7550254700.0 0.5331430066 0.8395678074
7600254400.0 0.5458484282 0.8310135681
7650254100.0 0.5572743456 0.8234672412
7700253800.0 0.5693381234 0.815342269
7750253500.0 0.5803409989 0.8075488792
7800253200.0 0.591202188 0.7998298775
7850252900.0 0.6010579128 0.7927084826
7900252600.0 0.6127936623 0.7838583224
7950252300.0 0.6213549718 0.7773617425
8000252000.0 0.6316756761 0.7694963347
8050251700.0 0.6421762052 0.7610058329
8100251400.0 0.6523582642 0.7528652939
8150251100.0 0.6623347783 0.7441667915
8200250800.0 0.671634808 0.7363308509
8250250500.0 0.680572411 0.7283242292
8300250200.0 0.6902630746 0.7197520274
8350249900.0 0.6991037945 0.7109118788
8400249600.0 0.7074979823 0.7028325951
8450249300.0 0.7163933309 0.6936023419
8500249000.0 0.7249740191 0.6850131194
8550248700.0 0.7332964037 0.6759437055
8600248400.0 0.7418743191 0.6663311724
8650248100.0 0.7496009523 0.6569295194
8700247800.0 0.759087973 0.6457767824
8750247500.0 0.7672695895 0.6357069495
8800247200.0 0.7753711704 0.6256272298
8850246900.0 0.7841987981 0.6141183932
8900246600.0 0.7929435553 0.602691713
8950246300.0 0.8021898718 0.5898922335
9000246000.0 0.811703874 0.5771249307
9050245700.0 0.8206942572 0.5641295349
9100245400.0 0.8291068378 0.5516723622
9150245100.0 0.8383815438 0.5379953832
9200244800.0 0.8483291543 0.5226782596
9250244500.0 0.8579290608 0.5069497384
9300244200.0 0.866277552 0.4926030662
9350243900.0 0.8738377904 0.4786213368
9400243600.0 0.8804824589 0.4660812022
9450243300.0 0.8864800762 0.4541408354
9500243000.0 0.8928090641 0.4417919983
9550242700.0 0.8963783867 0.4336835306
9600242400.0 0.900517003 0.4263658093
9650242100.0 0.9041487659 0.4197402796
9700241800.0 0.9085509171 0.411587689
9750241500.0 0.9125442382 0.4040084491
9800241200.0 0.9169777018 0.3948988965
9850240900.0 0.9227246558 0.3830565898
9900240600.0 0.9283007729 0.3713628391
9950240300.0 0.9346367856 0.3557466016
10000240000.0 0.9392170982 0.3437800816
10050239700.0 0.945194425 0.3284650823
10100239400.0 0.949974159 0.3132455233
10150239100.0 0.9543119228 0.298779772
10200238800.0 0.958649733 0.2836349836
10250238500.0 0.9618244946 0.2703499927
10300238200.0 0.9651201224 0.2564896822
10350237900.0 0.9676635902 0.2433842932
10400237600.0 0.9700856962 0.2305700926
10450237300.0 0.9727907071 0.2169484015
10500237000.0 0.9748662591 0.2045888088
10550236700.0 0.9770950017 0.1906246787
10600236400.0 0.9795462061 0.1771558809
10650236100.0 0.9812766481 0.1629048627
10700235800.0 0.9834711962 0.1507906588
10750235500.0 0.9858707422 0.1376535675
10800235200.0 0.9881062959 0.1235326372
10850234900.0 0.9896543101 0.1090777586
10900234600.0 0.9919921195 0.094083265
10950234300.0 0.9934444402 0.0808143325
11000234000.0 0.9951970978 0.0658513933
11050233700.0 0.9968800121 0.0496446981
11100233400.0 0.9983718132 0.0319095735
11150233100.0 0.9993607528 0.0162003508
11200232800.0 0.9998194119 0.0007331998
11250232500.0 1.000839993 -0.0156873361
11300232200.0 1.001126799 -0.0331883573
11350231900.0 1.001182199 -0.0489879144
11400231600.0 1.000810896 -0.0641659989
11450231300.0 1.000741417 -0.0804962001
11500231000.0 0.9996507645 -0.0976534932
11550230700.0 0.9978599176 -0.1111075831
11600230400.0 0.9967779873 -0.1235770765
11650230100.0 0.9940837573 -0.1352796707
11700229800.0 0.9925600078 -0.1502529712
11750229500.0 0.9901607493 -0.1646740714
11800229200.0 0.9872532867 -0.178432329
11850228900.0 0.9837443141 -0.1907958458
11900228600.0 0.9802308237 -0.2008181966
11950228300.0 0.9771579413 -0.211135831
12000228000.0 0.9739073447 -0.220723635
12050227700.0 0.9704678232 -0.2328217116
12100227400.0 0.9677126345 -0.2441509473
12150227100.0 0.962697331 -0.2601373517
12200226800.0 0.9586359346 -0.2711162003
12250226500.0 0.9549293189 -0.2830457434
12300226200.0 0.9505396402 -0.2959201896
12350225900.0 0.9459056788 -0.3105888057
12400225600.0 0.9415441135 -0.3222491886
12450225300.0 0.9368653786 -0.3357160632
12500225000.0 0.9316661531 -0.3498556777
12550224700.0 0.9264835203 -0.3639437299
12600224400.0 0.9217064918 -0.3764586201
12650224100.0 0.9156801899 -0.3907631108
12700223800.0 0.9104311809 -0.4034394138
12750223500.0 0.9049253095 -0.4164592726
12800223200.0 0.8997789709 -0.428698676
12850222900.0 0.8943307852 -0.4409013115
12900222600.0 0.8886401755 -0.4530862508
12950222300.0 0.8819546955 -0.466115261
13000222000.0 0.876600576 -0.4776397747
13050221700.0 0.8695311069 -0.490287478
13100221400.0 0.8628715382 -0.5019871418
13150221100.0 0.8559460244 -0.5146434035
13200220800.0 0.8487164217 -0.5257525066
13250220500.0 0.8413102103 -0.5385337953
13300220200.0 0.8338466578 -0.5491572632
13350219900.0 0.8258875206 -0.5614500099
13400219600.0 0.8172724582 -0.5736256779
13450219300.0 0.8076486586 -0.5874459139
13500219000.0 0.7970623261 -0.6013303106
13550218700.0 0.7868166846 -0.6145499378
13600218400.0 0.7770429373 -0.6262706981
13650218100.0 0.7678969435 -0.6373986798
13700217800.0 0.7562907217 -0.6497259925
13750217500.0 0.7454530353 -0.6611875539
13800217200.0 0.7357112429 -0.6725918288
13850216900.0 0.7233672905 -0.6838749159
13900216600.0 0.7135530565 -0.6935829309
13950216300.0 0.703229513 -0.7031054357
14000216000.0 0.6929637261 -0.7126859955
14050215700.0 0.683455303 -0.7210430459
14100215400.0 0.6737798542 -0.7299246858
14150215100.0 0.6646202237 -0.7383105725
14200214800.0 0.6555023391 -0.7467408683
14250214500.0 0.6452811316 -0.7557432543
14300214200.0 0.6349798138 -0.7650999684
14350213900.0 0.6238916067 -0.7746751787
14400213600.0 0.6124367291 -0.784437127
14450213300.0 0.5991635049 -0.7942513864
14500213000.0 0.585936283 -0.8037911335
14550212700.0 0.573532682 -0.813786793
14600212400.0 0.5611684031 -0.8224103605
14650212100.0 0.5480947547 -0.8307568492
14700211800.0 0.5347147674 -0.8402645201
14750211500.0 0.5225911483 -0.8489032488
14800211200.0 0.5100292104 -0.85661595
14850210900.0 0.4977056864 -0.8640585181
14900210600.0 0.4844065362 -0.8720779497
14950210300.0 0.4709479072 -0.879675709
15000210000.0 0.4579358195 -0.8865580361
15050209700.0 0.4454950897 -0.8928048589
15100209400.0 0.4329274507 -0.898769741
15150209100.0 0.420467845 -0.9040162664
15200208800.0 0.4072816035 -0.9097009195
15250208500.0 0.3967204975 -0.9144923222
15300208200.0 0.3831652965 -0.9186809249
15350207900.0 0.3704787991 -0.9234304539
15400207600.0 0.3559276385 -0.9290307638
15450207300.0 0.3412800275 -0.9340190916
15500207000.0 0.3261322145 -0.9384133974
15550206700.0 0.3109425526 -0.9435724903
15600206400.0 0.2952245591 -0.9481741939
15650206100.0 0.2797540239 -0.9521918241
15700205800.0 0.2653233575 -0.956076174
15750205500.0 0.2509659076 -0.9594760478
15800205200.0 0.2366427722 -0.962941879
15850204900.0 0.2222281028 -0.9662952534
15900204600.0 0.2072243319 -0.969888878
15950204300.0 0.1933839312 -0.9727957922
16000204000.0 0.1796199377 -0.9756582793
16050203700.0 0.1645101932 -0.9781653412
16100203400.0 0.1501796435 -0.9803787037
16150203100.0 0.1360431753 -0.9828774057
16200202800.0 0.122038806 -0.9845740885
16250202500.0 0.1076219422 -0.9859675534
16300202200.0 0.0927669919 -0.9880322417
16350201900.0 0.0772945368 -0.9891043981
16400201600.0 0.0630590101 -0.9903314509
16450201300.0 0.0478596648 -0.9912228521
16500201000.0 0.0312239686 -0.992019057
16550200700.0 0.0155667337 -0.9925863597
16600200400.0 -0.0004139012 -0.9928798444
16650200100.0 -0.0165983875 -0.9926533306
16700199800.0 -0.0333840543 -0.9921462803
16750199500.0 -0.0522970566 -0.9915653354
16800199200.0 -0.0680645339 -0.9902756292
16850198900.0 -0.0832750817 -0.9888698494
16900198600.0 -0.0967413117 -0.9881981988
16950198300.0 -0.1105355007 -0.9873951452
17000198000.0 -0.1238390377 -0.9861504527
17050197700.0 -0.1364973947 -0.9829942675
17100197400.0 -0.1495257958 -0.9812846364
17150197100.0 -0.1618713127 -0.97927845
17200196800.0 -0.1746358053 -0.9769847671
17250196500.0 -0.1878860271 -0.974674685
17300196200.0 -0.1999136725 -0.972804811
17350195900.0 -0.2121807401 -0.9704103215
17400195600.0 -0.2242457643 -0.9678991149
17450195300.0 -0.2373816139 -0.9649813856
17500195000.0 -0.2509173661 -0.9618694732
17550194700.0 -0.2645550577 -0.9582270617
17600194400.0 -0.2785031266 -0.954162548
17650194100.0 -0.2921700137 -0.9495945762
17700193800.0 -0.3052978707 -0.9459483894
17750193500.0 -0.319744789 -0.9414913567
17800193200.0 -0.3339065213 -0.9361712895
17850192900.0 -0.3485600014 -0.9308230293
17900192600.0 -0.3635970449 -0.9247226647
17950192300.0 -0.3790536818 -0.9175336062
18000192000.0 -0.3935152148 -0.9104749794
18050191700.0 -0.4074908236 -0.9023441983
18100191400.0 -0.4215761557 -0.8947060209
18150191100.0 -0.4364287625 -0.8866780174
18200190800.0 -0.4533856708 -0.8774980421
18250190500.0 -0.4703275686 -0.8679835756
18300190200.0 -0.4853823163 -0.8593492945
18350189900.0 -0.5003271504 -0.8507294401
18400189600.0 -0.5150753579 -0.8422617039
18450189300.0 -0.52837551 -0.8343861795
18500189000.0 -0.5415447232 -0.8262966376
18550188700.0 -0.554192731 -0.8183056203
18600188400.0 -0.5662764557 -0.8115481504
18650188100.0 -0.5773388006 -0.805088149
18700187800.0 -0.5883723582 -0.7981517869
18750187500.0 -0.5991140281 -0.7916511126
18800187200.0 -0.6097652838 -0.7843639302
18850186900.0 -0.6201457922 -0.7772882038
18900186600.0 -0.6306262668 -0.7697991766
18950186300.0 -0.6406440162 -0.7618733425
19000186000.0 -0.6480991614 -0.7557756515
19050185700.0 -0.657814623 -0.7481253886
19100185400.0 -0.6678201549 -0.7399068815
19150185100.0 -0.678350245 -0.7309865714
19200184800.0 -0.6874186366 -0.7227444511
19250184500.0 -0.6981768975 -0.7138301436
19300184200.0 -0.7090498601 -0.7037269125
19350183900.0 -0.7196570115 -0.6943303114
19400183600.0 -0.7296502748 -0.6843117852
19450183300.0 -0.7385719766 -0.67403735
19500183000.0 -0.7463880834 -0.6644309434
19550182700.0 -0.7559143537 -0.6532999257
19600182400.0 -0.7665446096 -0.6418862145
19650182100.0 -0.7770408164 -0.6299174517
19700181800.0 -0.7873293219 -0.6167191106
19750181500.0 -0.797799433 -0.6027643879
19800181200.0 -0.8080634074 -0.5881139721
19850180900.0 -0.8174663567 -0.5729417457
19900180600.0 -0.8251509871 -0.5585243645
19950180300.0 -0.8340418061 -0.5421505664
20000180000.0 -0.8280761244 -0.5442750954
20050179700.0 -0.8360429416 -0.5309882105
20100179400.0 -0.8436982191 -0.5183227277
20150179100.0 -0.8519242331 -0.5052212352
20200178800.0 -0.8600233769 -0.4924999403
20250178500.0 -0.8696241733 -0.4791996884
20300178200.0 -0.8796883203 -0.4643512341
20350177900.0 -0.8881509348 -0.4502890091
20400177600.0 -0.8973621944 -0.4348252498
20450177300.0 -0.9051457949 -0.4207618302
20500177000.0 -0.913423643 -0.4070929785
20550176700.0 -0.9213975094 -0.393202321
20600176400.0 -0.9278733036 -0.3803668191
20650176100.0 -0.9349197801 -0.3676706477
20700175800.0 -0.9408444819 -0.3556116218
20750175500.0 -0.9486953831 -0.3443015219
20800175200.0 -0.952584611 -0.3332284853
20850174900.0 -0.9577173626 -0.3216919562
20900174600.0 -0.9624574624 -0.3103453348
20950174300.0 -0.9659891561 -0.2988252037
21000174000.0 -0.9699396707 -0.2874087058
21050173700.0 -0.9727678393 -0.2756190824
21100173400.0 -0.9772022427 -0.2630520973
21150173100.0 -0.9815572938 -0.2509977294
21200172800.0 -0.984749745 -0.2367211383
21250172500.0 -0.9877309297 -0.2233604058
21300172200.0 -0.9908281925 -0.2087692677
21350171900.0 -0.9920453791 -0.194721699
21400171600.0 -0.9937645845 -0.1807981381
21450171300.0 -0.9942860541 -0.1657951573
21500171000.0 -0.9937656099 -0.1505707755
21550170700.0 -0.9934329127 -0.1347197535
21600170400.0 -0.9935512493 -0.1193319503
21650170100.0 -0.9924112066 -0.1039561032
21700169800.0 -0.9898273053 -0.0894638291
21750169500.0 -0.989273502 -0.0733750512
21800169200.0 -0.9886210581 -0.0566408083
21850168900.0 -0.9869476887 -0.0411233132
21900168600.0 -0.9859967187 -0.0242929346
21950168300.0 -0.9844862689 -0.008824812
22000168000.0 -0.982744465 0.005304123
22050167700.0 -0.98307567 0.0207807689
22100167400.0 -0.9827243088 0.0356802132
22150167100.0 -0.9832794592 0.0510674224
22200166800.0 -0.9833741182 0.0671231105
22250166500.0 -0.9830194763 0.0839187208
22300166200.0 -0.9817488391 0.1007332442
22350165900.0 -0.9809237255 0.1179742229
22400165600.0 -0.9787155955 0.1327054518
22450165300.0 -0.9775408569 0.1480586999
22500165000.0 -0.9749573466 0.1614914924
22550164700.0 -0.9743183838 0.1773855634
22600164400.0 -0.9729861473 0.1919463918
22650164100.0 -0.9695573768 0.2071204303
22700163800.0 -0.966951485 0.2234766784
22750163500.0 -0.964717328 0.238853687
22800163200.0 -0.9619547848 0.2521643411
22850162900.0 -0.95962093 0.265516085
22900162600.0 -0.9581220083 0.27874112
22950162300.0 -0.9573036178 0.2916212429
23000162000.0 -0.9563031465 0.3032299892
23050161700.0 -0.954337429 0.315693391
23100161400.0 -0.9520284882 0.3283773581
23150161100.0 -0.9490893549 0.3410395677
23200160800.0 -0.9461969297 0.3532159709
23250160500.0 -0.9432049193 0.3657265467
23300160200.0 -0.9411698496 0.3769743198
23350159900.0 -0.9365662976 0.3899381132
23400159600.0 -0.9324200231 0.4020842361
23450159300.0 -0.9274269406 0.4153316799
23500159000.0 -0.9227482575 0.4285747975
23550158700.0 -0.9182382914 0.4421219791
23600158400.0 -0.9131419981 0.4550800945
23650158100.0 -0.9066385852 0.4686525569
23700157800.0 -0.8993279778 0.4823886699
23750157500.0 -0.8908311774 0.4964751416
23800157200.0 -0.8819772972 0.5097267724
23850156900.0 -0.8732757249 0.5223278168
23900156600.0 -0.8642721711 0.5346037162
23950156300.0 -0.8543813378 0.5468264144
24000156000.0 -0.8458269993 0.5586134503
24050155700.0 -0.8351754775 0.5699573795
24100155400.0 -0.8253949084 0.5828333398
24150155100.0 -0.81448731 0.5951996372
24200154800.0 -0.8037539166 0.6061167215
24250154500.0 -0.7921501814 0.6173778037
24300154200.0 -0.7808583372 0.6291627998
24350153900.0 -0.7690034474 0.6398360364
24400153600.0 -0.7569210099 0.6503763126
24450153300.0 -0.7447893021 0.660194942
24500153000.0 -0.7332218762 0.6698246667
24550152700.0 -0.7220349111 0.6796318585
24600152400.0 -0.7107226983 0.6885480172
24650152100.0 -0.6986679109 0.6974282342
