!Created with skrf (http://scikit-rf.org).
# Hz S RI R 50.0 
!freq ReS11 ImS11
300000.0 -0.9750866063 -0.1199655827
50299700.0 -0.9999366854 0.0151334384
100299400.0 -0.9977763043 0.0280197191
150299100.0 -1.002718665 0.04500973
200298800.0 -0.999593772 0.0581942848
250298500.0 -0.9973038206 0.0716440558
300298200.0 -0.9861152065 0.0875392345
350297900.0 -0.9940829456 0.0985088117
400297600.0 -0.9931261778 0.1149687652
450297300.0 -0.9909706063 0.1287301116
500297000.0 -0.9893392623 0.1434084782
550296700.0 -0.9842976814 0.1558585025
600296400.0 -1.017060786 0.1891341357
650296100.0 -0.98232013 0.1858123485
700295800.0 -0.9793378567 0.2000215777
750295500.0 -0.976401319 0.214175163
800295200.0 -0.9728246078 0.2282318807
850294900.0 -0.9695785166 0.2419988788
900294600.0 -0.9658184252 0.2557346272
950294300.0 -0.9621235209 0.2694424795
1000294000.0 -0.9582032699 0.2834068624
1050293700.0 -0.9537323141 0.2971277101
1100293400.0 -0.9493078399 0.3114443263
1150293100.0 -0.9454914444 0.3236176739
1200292800.0 -0.9402827155 0.337714287
1250292500.0 -0.9347781101 0.3512850005
1300292200.0 -0.929108745 0.3644674103
1350291900.0 -0.9234806337 0.3786004387
1400291600.0 -0.9178895465 0.3916845794
1450291300.0 -0.912489964 0.4040632518
1500291000.0 -0.9061005255 0.4173997396
1550290700.0 -0.8996298223 0.4307748981
1600290400.0 -0.8934363705 0.4437972526
1650290100.0 -0.8868279864 0.45581869
1700289800.0 -0.8798448689 0.4695043102
1750289500.0 -0.8728713748 0.4815911415
1800289200.0 -0.8655960417 0.4944592612
1850288900.0 -0.8586836288 0.5058997613
1900288600.0 -0.8511475359 0.5189336348
1950288300.0 -0.8429777505 0.5314359557
2000288000.0 -0.8353435147 0.5426764096
2050287700.0 -0.8271712977 0.5554075605
2100287400.0 -0.8192865786 0.5665921799
2150287100.0 -0.8108027674 0.5789225985
2200286800.0 -0.803108006 0.5890799804
2250286500.0 -0.7939604444 0.6012896584
2300286200.0 -0.7852399536 0.6130044903
2350285900.0 -0.7767825356 0.623729345
2400285600.0 -0.7676521697 0.6343994524
2450285300.0 -0.7589705021 0.6450207069
2500285000.0 -0.7491372687 0.6564754826
2550284700.0 -0.740266481 0.6671095592
2600284400.0 -0.7310713936 0.6769853248
2650284100.0 -0.7220518045 0.6875327637
2700283800.0 -0.7118416856 0.697829406
2750283500.0 -0.7013040994 0.7083151736
2800283200.0 -0.6915784059 0.7182408805
2850282900.0 -0.6812504426 0.7281193103
2900282600.0 -0.6707149875 0.7378598079
2950282300.0 -0.6603486305 0.747118423
3000282000.0 -0.6495134118 0.7566278634
3050281700.0 -0.6384065077 0.7660045158
3100281400.0 -0.6268984973 0.7750936483
3150281100.0 -0.6152926126 0.7840367889
3200280800.0 -0.6039024353 0.7924201241
3250280500.0 -0.5929642806 0.8004124737
3300280200.0 -0.5813222707 0.8087027317
3350279900.0 -0.5693594544 0.8166465354
3400279600.0 -0.556842753 0.8244328043
3450279300.0 -0.5457101116 0.8315235171
3500279000.0 -0.5338825071 0.8384648155
3550278700.0 -0.5217146562 0.8454763003
3600278400.0 -0.5097274713 0.8525072079
3650278100.0 -0.4966908537 0.8601916468
3700277800.0 -0.4844676985 0.8666883624
3750277500.0 -0.4723174367 0.8732592426
3800277200.0 -0.4596558503 0.879507346
3850276900.0 -0.4476720112 0.8856067562
3900276600.0 -0.4366718034 0.8914281349
3950276300.0 -0.4245965268 0.8971585337
4000276000.0 -0.413027008 0.9029813193
4050275700.0 -0.4000744293 0.9092072353
4100275400.0 -0.3889525952 0.9146495414
4150275100.0 -0.3759541806 0.9205005368
4200274800.0 -0.3624141383 0.9260189972
4250274500.0 -0.3500953923 0.9315084877
4300274200.0 -0.3369841746 0.9368535826
4350273900.0 -0.3228545947 0.941830051
4400273600.0 -0.3080955689 0.9472293086
4450273300.0 -0.293074477 0.9520891159
4500273000.0 -0.2797520352 0.9565188462
4550272700.0 -0.2659533901 0.9606449526
4600272400.0 -0.2508551222 0.9647982965
4650272100.0 -0.2393967427 0.9680400092
4700271800.0 -0.2262842525 0.9713431473
4750271500.0 -0.2146074523 0.9742307506
4800271200.0 -0.202464633 0.9768317382
4850270900.0 -0.1885542837 0.9796285464
4900270600.0 -0.1747183234 0.981911993
4950270300.0 -0.1602803402 0.9847245942
5000270000.0 -0.1456495763 0.9868396256
5050269700.0 -0.1322358061 0.988254039
5100269400.0 -0.118091796 0.9901200759
5150269100.0 -0.1044685831 0.9916944588
5200268800.0 -0.0912545584 0.9930203366
5250268500.0 -0.0779621789 0.9933227617
5300268200.0 -0.064658015 0.9943760834
5350267900.0 -0.051789234 0.9949737956
5400267600.0 -0.0356860841 0.9965043112
5450267300.0 -0.0224115887 0.9963873456
5500267000.0 -0.0070527659 0.9970173899
5550266700.0 0.0079501279 0.9971553037
5600266400.0 0.0234673543 0.9971734966
5650266100.0 0.0399905123 0.9966104754
5700265800.0 0.0540264149 0.9958709074
5750265500.0 0.069427656 0.9953992639
5800265200.0 0.0826394955 0.9938195177
5850264900.0 0.0960451099 0.9929247633
5900264600.0 0.1126623011 0.9914636987
5950264300.0 0.1245054167 0.9897549155
6000264000.0 0.1381331977 0.9879099278
6050263700.0 0.1499787153 0.986733227
6100263400.0 0.1623116867 0.9849723086
6150263100.0 0.1769860515 0.9828088477
6200262800.0 0.1867002308 0.9810718014
6250262500.0 0.1994198264 0.9786173311
6300262200.0 0.2117421877 0.9758909008
6350261900.0 0.2246966401 0.9733019498
6400261600.0 0.2385867063 0.9701282749
6450261300.0 0.2494982523 0.9673921969
6500261000.0 0.2627881909 0.9637843797
6550260700.0 0.2760906958 0.9597475315
6600260400.0 0.2891923004 0.9558282633
6650260100.0 0.3036103674 0.9514587849
6700259800.0 0.3156423052 0.9471881632
6750259500.0 0.3295139227 0.9420503165
6800259200.0 0.3426873364 0.9369107271
6850258900.0 0.3551463839 0.9317854836
6900258600.0 0.3677251637 0.9267645743
6950258300.0 0.3799037522 0.9213406622
7000258000.0 0.3917884011 0.9161545135
7050257700.0 0.4036230881 0.910057712
7100257400.0 0.4168807118 0.903757666
7150257100.0 0.4276878471 0.8984992442
7200256800.0 0.4407310334 0.8919089231
7250256500.0 0.4529437083 0.8852365926
7300256200.0 0.4661932154 0.8786483841
7350255900.0 0.4787493036 0.8718921839
7400255600.0 0.4920237436 0.8641636893
7450255300.0 0.5078171956 0.8551824318
7500255000.0 0.5202963641 0.8476042132
7550254700.0 0.5339881635 0.8386038008
7600254400.0 0.546975457 0.8305521395
7650254100.0 0.5586894519 0.8226598499
7700253800.0 0.5703783488 0.8148981055
7750253500.0 0.5810645776 0.8069446109
7800253200.0 0.5917333626 0.7992192741
7850252900.0 0.6015221611 0.7921062052
7900252600.0 0.6129970466 0.7835117096
7950252300.0 0.6215184101 0.7769099067
8000252000.0 0.6314426362 0.7691643184
8050251700.0 0.6421287876 0.7609792428
8100251400.0 0.6521445054 0.7529905359
8150251100.0 0.6621731987 0.7446568257
8200250800.0 0.6715421623 0.7365156161
8250250500.0 0.680426821 0.7287039636
8300250200.0 0.6894686461 0.7203165816
8350249900.0 0.6986171241 0.7110741948
8400249600.0 0.7071956526 0.7030693932
8450249300.0 0.7158430321 0.6942745431
8500249000.0 0.7245291916 0.6854944933
8550248700.0 0.7327716705 0.6764647724
8600248400.0 0.740988428 0.6669794772
8650248100.0 0.7488010093 0.6575243867
8700247800.0 0.7580192658 0.6464867743
8750247500.0 0.766390369 0.6363205091
8800247200.0 0.7743463319 0.6260720429
8850246900.0 0.7829642319 0.6146752213
8900246600.0 0.7911644207 0.6032436143
8950246300.0 0.8005964024 0.5904652087
9000246000.0 0.8100009901 0.5782294328
9050245700.0 0.8180630196 0.5660113403
9100245400.0 0.8265161045 0.5536730296
9150245100.0 0.8354770459 0.540631362
9200244800.0 0.8453462831 0.5259568052
9250244500.0 0.854367462 0.5110132043
9300244200.0 0.8625886605 0.4972222041
9350243900.0 0.8701006257 0.4838010652
9400243600.0 0.8767729029 0.4718773986
9450243300.0 0.8824754565 0.4610439445
9500243000.0 0.8887443235 0.4492178322
9550242700.0 0.8926541738 0.4416640055
9600242400.0 0.8967587955 0.434101669
9650242100.0 0.9007815329 0.4272601327
9700241800.0 0.9056927341 0.4188334055
9750241500.0 0.9095135176 0.4113788678
9800241200.0 0.9143995033 0.4021937693
9850240900.0 0.9204730502 0.39011501
9900240600.0 0.9263296787 0.3783548012
9950240300.0 0.9333579016 0.3616256208
10000240000.0 0.938471765 0.3497979842
10050239700.0 0.9438896057 0.3340854042
10100239400.0 0.9491640411 0.3177591506
10150239100.0 0.9538506671 0.3024921793
10200238800.0 0.9582587647 0.2871658097
10250238500.0 0.9613790064 0.2736619436
10300238200.0 0.9646023827 0.2596852452
10350237900.0 0.9673490156 0.2465495036
10400237600.0 0.9700666541 0.2331110365
10450237300.0 0.9727429439 0.2197226123
10500237000.0 0.9751976473 0.2068718671
10550236700.0 0.9774946041 0.1925656956
10600236400.0 0.9794677508 0.1789818192
10650236100.0 0.9814698096 0.1643574452
10700235800.0 0.9836407636 0.1521740127
10750235500.0 0.9858765866 0.1385284758
10800235200.0 0.9881029795 0.1241943184
10850234900.0 0.9898510774 0.1096310775
10900234600.0 0.9918748562 0.0948896506
10950234300.0 0.9936766408 0.0813107716
11000234000.0 0.9954093141 0.0659052902
11050233700.0 0.9973158849 0.0492188439
11100233400.0 0.9988875538 0.0317755708
11150233100.0 0.9998081866 0.015098353
11200232800.0 1.000034925 -0.0005110955
11250232500.0 1.000958816 -0.0182226441
11300232200.0 1.002136124 -0.0365144201
11350231900.0 1.002278424 -0.0528545104
11400231600.0 1.001293449 -0.0687003456
11450231300.0 1.001100354 -0.0838275469
11500231000.0 0.9998914369 -0.1006759696
11550230700.0 0.9981854956 -0.1131901223
11600230400.0 0.9973607998 -0.1257245236
11650230100.0 0.9948572405 -0.1384814088
11700229800.0 0.9927281081 -0.1528295345
11750229500.0 0.9904706514 -0.1669080048
11800229200.0 0.9873203766 -0.1803041684
11850228900.0 0.9839121141 -0.1923736055
11900228600.0 0.980112359 -0.2019620682
11950228300.0 0.9770785528 -0.2119392411
12000228000.0 0.974247105 -0.2208110053
12050227700.0 0.9703736096 -0.2336461396
12100227400.0 0.9669904032 -0.2447440978
12150227100.0 0.9621304012 -0.2612711288
12200226800.0 0.9582291257 -0.2721867061
12250226500.0 0.9548193671 -0.2849153632
12300226200.0 0.9497570524 -0.2971717667
12350225900.0 0.9453467993 -0.3102330246
12400225600.0 0.9412397999 -0.3234483078
12450225300.0 0.9362995306 -0.3363334138
12500225000.0 0.930625384 -0.3510257382
12550224700.0 0.9254520292 -0.3646494572
12600224400.0 0.9205266522 -0.3772475486
12650224100.0 0.9146220754 -0.3917561384
12700223800.0 0.909424788 -0.4046015646
12750223500.0 0.9039443339 -0.4174698671
12800223200.0 0.8983758741 -0.4303407586
12850222900.0 0.8933461695 -0.4423398668
12900222600.0 0.8874988019 -0.4542407107
12950222300.0 0.8815564628 -0.4672803418
13000222000.0 0.8752704969 -0.4782033989
13050221700.0 0.8686820652 -0.4916283883
13100221400.0 0.8616901046 -0.5039031576
13150221100.0 0.8548722237 -0.5163031254
13200220800.0 0.8484709099 -0.5270745412
13250220500.0 0.8406766751 -0.5392118174
13300220200.0 0.8333901344 -0.5503964342
13350219900.0 0.8253906846 -0.5624153872
13400219600.0 0.816885021 -0.5742966282
13450219300.0 0.807684973 -0.587204382
13500219000.0 0.7981043961 -0.6007576609
13550218700.0 0.7879022414 -0.6132246173
13600218400.0 0.7776143728 -0.6254888282
13650218100.0 0.7684551806 -0.6360826202
13700217800.0 0.7581948527 -0.6477178368
13750217500.0 0.7478520092 -0.6589335513
13800217200.0 0.7368032913 -0.669760596
13850216900.0 0.7256928485 -0.6812027636
13900216600.0 0.7160816648 -0.6904516582
13950216300.0 0.7049272819 -0.7003006953
14000216000.0 0.6960989646 -0.7093545345
14050215700.0 0.6862595705 -0.7175938376
14100215400.0 0.6764234056 -0.7267995728
14150215100.0 0.6672127014 -0.7356306046
14200214800.0 0.6578242277 -0.7442809657
14250214500.0 0.647559321 -0.7537169415
14300214200.0 0.6369855692 -0.7631327644
14350213900.0 0.6257640508 -0.7726049488
14400213600.0 0.6139087972 -0.7825536076
14450213300.0 0.6015712366 -0.7925797649
14500213000.0 0.5877565804 -0.8022718091
14550212700.0 0.5755235656 -0.812271126
14600212400.0 0.5634329848 -0.8207702686
14650212100.0 0.5504944576 -0.8299612861
14700211800.0 0.5366851085 -0.8385440311
14750211500.0 0.5245402051 -0.8476458214
14800211200.0 0.5118714349 -0.8555775744
14850210900.0 0.4996664316 -0.8632446737
14900210600.0 0.4863229711 -0.871034341
14950210300.0 0.4730325585 -0.8787491326
15000210000.0 0.4605310479 -0.8856215753
15050209700.0 0.4482158209 -0.8915789213
15100209400.0 0.4352586671 -0.8978629902
15150209100.0 0.423074472 -0.9027421021
15200208800.0 0.4103373167 -0.9083126705
15250208500.0 0.4000301734 -0.9132286705
15300208200.0 0.3865638131 -0.9174731169
15350207900.0 0.3737504818 -0.9229225757
15400207600.0 0.3587999019 -0.9279601923
15450207300.0 0.3449774541 -0.9321081092
15500207000.0 0.3305550267 -0.9372784727
15550206700.0 0.315306022 -0.9423367171
15600206400.0 0.2995782343 -0.946392543
15650206100.0 0.283719868 -0.9513272942
15700205800.0 0.2698161654 -0.9545060379
15750205500.0 0.2557308792 -0.9578986577
15800205200.0 0.2418228326 -0.9614796637
15850204900.0 0.2274753192 -0.9648049697
15900204600.0 0.2125848972 -0.9686473297
15950204300.0 0.1982521478 -0.9713306368
16000204000.0 0.183889974 -0.9744916816
16050203700.0 0.1685598094 -0.9772021906
16100203400.0 0.1539161272 -0.9797166396
16150203100.0 0.1392431687 -0.9820725927
16200202800.0 0.1251587259 -0.9841151525
16250202500.0 0.1100923323 -0.9859746937
16300202200.0 0.0945100885 -0.9873787851
16350201900.0 0.0799055392 -0.9890392361
16400201600.0 0.0650721748 -0.9902774577
16450201300.0 0.0496664648 -0.991277744
16500201000.0 0.0325666858 -0.9919474491
16550200700.0 0.0167160425 -0.9925467523
16600200400.0 0.000838589 -0.9928271962
16650200100.0 -0.015167081 -0.9924846096
16700199800.0 -0.0316898292 -0.9923968275
16750199500.0 -0.0505407419 -0.9918666121
16800199200.0 -0.0668151099 -0.9905766732
16850198900.0 -0.0818227581 -0.9898158245
16900198600.0 -0.0952231658 -0.9891151974
16950198300.0 -0.1093301189 -0.9873415191
17000198000.0 -0.1224373208 -0.9856425129
17050197700.0 -0.1354089876 -0.9842733905
17100197400.0 -0.1484934622 -0.9819878651
17150197100.0 -0.1606150434 -0.9799166546
17200196800.0 -0.1733536337 -0.9780027361
17250196500.0 -0.1865534951 -0.9756249979
17300196200.0 -0.1986662695 -0.9733313798
17350195900.0 -0.2106803302 -0.9709824207
17400195600.0 -0.2225267944 -0.9683290354
17450195300.0 -0.2354359077 -0.9655778975
17500195000.0 -0.2486289773 -0.9623963692
17550194700.0 -0.2625215754 -0.9586033024
17600194400.0 -0.2765746615 -0.9548803584
17650194100.0 -0.2895760839 -0.9508102789
17700193800.0 -0.3027563659 -0.9463082094
17750193500.0 -0.3171405449 -0.9421074701
17800193200.0 -0.3316974782 -0.9362891129
17850192900.0 -0.346241497 -0.9311399634
17900192600.0 -0.3614439123 -0.92495659
17950192300.0 -0.3770385159 -0.9182315455
18000192000.0 -0.3916722182 -0.910866251
18050191700.0 -0.4056196441 -0.9028976362
18100191400.0 -0.4198400542 -0.8952304528
18150191100.0 -0.4347728094 -0.8872042941
18200190800.0 -0.4516170989 -0.8781260917
18250190500.0 -0.468558478 -0.8686329236
18300190200.0 -0.484062626 -0.8599738292
18350189900.0 -0.4994698803 -0.8516961175
18400189600.0 -0.5139444404 -0.8434939719
18450189300.0 -0.5273153096 -0.83544362
18500189000.0 -0.5405120584 -0.8267250839
18550188700.0 -0.553422928 -0.8190549764
18600188400.0 -0.5658700043 -0.8125848233
18650188100.0 -0.5762058554 -0.8060240558
18700187800.0 -0.5873338849 -0.7996829885
18750187500.0 -0.5983293006 -0.7927422008
18800187200.0 -0.6089259244 -0.7858653701
18850186900.0 -0.6192065459 -0.7787778797
18900186600.0 -0.6294051488 -0.7714033986
18950186300.0 -0.6395890037 -0.7638003965
19000186000.0 -0.6467607652 -0.757399486
19050185700.0 -0.6558815035 -0.7501894308
19100185400.0 -0.665906113 -0.7419636031
19150185100.0 -0.6755648153 -0.7333373374
19200184800.0 -0.6858190928 -0.7249763435
19250184500.0 -0.6958409024 -0.7164300406
19300184200.0 -0.7073313597 -0.7070985939
19350183900.0 -0.7176781016 -0.6969748162
19400183600.0 -0.7281674587 -0.6871982437
19450183300.0 -0.7364892626 -0.6768795203
19500183000.0 -0.7453610478 -0.6663673881
19550182700.0 -0.7552002373 -0.6558382557
19600182400.0 -0.7650819989 -0.6438421497
19650182100.0 -0.7756544874 -0.6319702813
19700181800.0 -0.786164033 -0.6189137716
19750181500.0 -0.7967723257 -0.6046597665
19800181200.0 -0.8070581484 -0.5897987568
19850180900.0 -0.816577639 -0.5743843972
19900180600.0 -0.8241210306 -0.5598746721
19950180300.0 -0.8333966381 -0.5435185622
20000180000.0 -0.8240385799 -0.5466359462
20050179700.0 -0.8317174078 -0.5343456825
20100179400.0 -0.840369739 -0.5212148459
20150179100.0 -0.8485845394 -0.5086336892
20200178800.0 -0.8577478552 -0.4965968751
20250178500.0 -0.8665791435 -0.484312981
20300178200.0 -0.876598188 -0.4701367631
20350177900.0 -0.8851810667 -0.4560034372
20400177600.0 -0.894277163 -0.4422423164
20450177300.0 -0.902900866 -0.4278006635
20500177000.0 -0.9107952891 -0.4138944826
20550176700.0 -0.9186798934 -0.4003569387
20600176400.0 -0.9257368517 -0.3872018356
20650176100.0 -0.9320646371 -0.3748454474
20700175800.0 -0.9390352515 -0.3631463705
20750175500.0 -0.9454867669 -0.3519245982
20800175200.0 -0.9500415182 -0.3401521659
20850174900.0 -0.9550864569 -0.3297485045
20900174600.0 -0.9585196916 -0.3186959595
20950174300.0 -0.9625795585 -0.3068583393
21000174000.0 -0.9644580407 -0.295871579
21050173700.0 -0.9673469219 -0.2864370491
21100173400.0 -0.9707183323 -0.2755429839
21150173100.0 -0.9754462537 -0.2635420541
21200172800.0 -0.9787862353 -0.2499512665
21250172500.0 -0.9823764798 -0.2362175971
21300172200.0 -0.9857561158 -0.2222756665
21350171900.0 -0.9872047721 -0.2079356585
21400171600.0 -0.9894604241 -0.1938701099
21450171300.0 -0.9898805604 -0.1796412657
21500171000.0 -0.990012681 -0.1637581051
21550170700.0 -0.9905089664 -0.1492538225
21600170400.0 -0.9914655304 -0.1342432993
21650170100.0 -0.9918743063 -0.1182749524
21700169800.0 -0.9907305527 -0.1030029659
21750169500.0 -0.9896557123 -0.0861249956
21800169200.0 -0.9897283925 -0.0712456131
21850168900.0 -0.9896789633 -0.0539534061
21900168600.0 -0.9880888451 -0.03734581
21950168300.0 -0.9882024564 -0.0218549057
22000168000.0 -0.9876345882 -0.0064510857
22050167700.0 -0.9877821199 0.0080334607
22100167400.0 -0.9883780405 0.0234949344
22150167100.0 -0.9891516934 0.0395175953
22200166800.0 -0.9894419798 0.055808341
22250166500.0 -0.9887191737 0.0730001762
22300166200.0 -0.9887131581 0.0893441336
22350165900.0 -0.9865776114 0.1067917229
22400165600.0 -0.9859528444 0.1219947925
22450165300.0 -0.9834601538 0.1370964874
22500165000.0 -0.9815854468 0.1515705992
22550164700.0 -0.9815994594 0.1661584813
22600164400.0 -0.9781924893 0.182957854
22650164100.0 -0.9758361764 0.1976145704
22700163800.0 -0.9729901064 0.2144339643
22750163500.0 -0.9704990587 0.2284197443
22800163200.0 -0.9674748771 0.2417658783
22850162900.0 -0.9645608936 0.2553993862
22900162600.0 -0.9630789983 0.269601911
22950162300.0 -0.9616844304 0.2828234668
23000162000.0 -0.959944789 0.2952083169
23050161700.0 -0.9579162383 0.3080645974
23100161400.0 -0.9550963306 0.3217496159
23150161100.0 -0.9516519839 0.334959755
23200160800.0 -0.9496620472 0.3471795889
23250160500.0 -0.9464830593 0.3592554165
23300160200.0 -0.9435906708 0.3716544956
23350159900.0 -0.9393484352 0.3850146263
23400159600.0 -0.9346821922 0.3988215567
23450159300.0 -0.9296158996 0.4124598489
23500159000.0 -0.924818289 0.4260066167
23550158700.0 -0.9203396581 0.4395907291
23600158400.0 -0.9141837418 0.4534738913
23650158100.0 -0.9071797235 0.4679092308
23700157800.0 -0.8991361959 0.4818113812
23750157500.0 -0.8900902741 0.4959588893
23800157200.0 -0.8804429605 0.5096200806
23850156900.0 -0.8710066696 0.5222060044
23900156600.0 -0.861220761 0.5354620697
23950156300.0 -0.851470655 0.5482994986
24000156000.0 -0.8423419437 0.5599849766
24050155700.0 -0.8318135427 0.571964019
24100155400.0 -0.821315067 0.5851861474
24150155100.0 -0.8107079349 0.5968746914
24200154800.0 -0.7995153384 0.6085925521
24250154500.0 -0.7885020323 0.6204751897
24300154200.0 -0.7767662311 0.631690517
24350153900.0 -0.7652240078 0.6426339067
24400153600.0 -0.7529907174 0.6536377393
24450153300.0 -0.7410102445 0.663140946
24500153000.0 -0.7297413426 0.6734678787
24550152700.0 -0.7177278883 0.6835791413
24600152400.0 -0.7063132099 0.6930820016
