!Created with skrf (http://scikit-rf.org).
# Hz S RI R 50.0 
!freq ReS11 ImS11
300000.0 -0.9724629779 -0.1220047389
50299700.0 -0.9999380025 0.014949212
100299400.0 -0.9979630128 0.0277135177
150299100.0 -1.002589763 0.0447920057
200298800.0 -0.9995582066 0.0582404929
250298500.0 -0.9971753077 0.0717360271
300298200.0 -0.9858331378 0.0872582926
350297900.0 -0.9939021404 0.0983325627
400297600.0 -0.9932166235 0.1149017508
450297300.0 -0.99105085 0.1285327991
500297000.0 -0.9895836711 0.1432746546
550296700.0 -0.9842336356 0.1561047196
600296400.0 -1.017165928 0.1892186592
650296100.0 -0.9822146233 0.1857568411
700295800.0 -0.9792370989 0.1998874857
750295500.0 -0.9764470336 0.2140887939
800295200.0 -0.9730866879 0.2281519048
850294900.0 -0.9697493317 0.2419845736
900294600.0 -0.9659611255 0.2555038131
950294300.0 -0.9621672072 0.2693804766
1000294000.0 -0.9580628738 0.2832446402
1050293700.0 -0.9535783631 0.2971586522
1100293400.0 -0.9494607664 0.3115355477
1150293100.0 -0.9454764845 0.3234995408
1200292800.0 -0.9400815508 0.3377513285
1250292500.0 -0.9347577503 0.3512824083
1300292200.0 -0.928983041 0.3646914212
1350291900.0 -0.9235194566 0.3786958629
1400291600.0 -0.91799647 0.3915033807
1450291300.0 -0.9124102373 0.4040785017
1500291000.0 -0.9062833365 0.4174521766
1550290700.0 -0.8995525731 0.4308057635
1600290400.0 -0.8935047566 0.443743515
1650290100.0 -0.8868790808 0.4558838616
1700289800.0 -0.8800651113 0.4694712105
1750289500.0 -0.8730232982 0.4815417333
1800289200.0 -0.8655231172 0.494515799
1850288900.0 -0.8588258413 0.5058972051
1900288600.0 -0.851066221 0.5186767773
1950288300.0 -0.8429301654 0.5313202564
2000288000.0 -0.835430277 0.5428464439
2050287700.0 -0.8272243551 0.5552237088
2100287400.0 -0.8194519755 0.5666785971
2150287100.0 -0.8108183072 0.5786811479
2200286800.0 -0.8030703688 0.5889370129
2250286500.0 -0.7939887325 0.6013189402
2300286200.0 -0.7853710502 0.6130468084
2350285900.0 -0.7768930469 0.6235303485
2400285600.0 -0.7679215836 0.6344975755
2450285300.0 -0.7590284021 0.6451730045
2500285000.0 -0.7491431586 0.656521897
2550284700.0 -0.740238929 0.6670447678
2600284400.0 -0.7308856086 0.6768570879
2650284100.0 -0.7221794349 0.6871960205
2700283800.0 -0.7117111747 0.6973947109
2750283500.0 -0.7015481528 0.708315451
2800283200.0 -0.6915031434 0.7181457329
2850282900.0 -0.681014685 0.72824667
2900282600.0 -0.6708329798 0.7378791789
2950282300.0 -0.660305989 0.7472604163
3000282000.0 -0.6496593621 0.7568933603
3050281700.0 -0.6384626511 0.7659477354
3100281400.0 -0.6268328572 0.7750352334
3150281100.0 -0.6155530234 0.7840769664
3200280800.0 -0.603991089 0.7923882583
3250280500.0 -0.5930592157 0.800281899
3300280200.0 -0.5814030541 0.8086154386
3350279900.0 -0.5692324717 0.8166912144
3400279600.0 -0.5567107231 0.8246389576
3450279300.0 -0.5455838739 0.8317987425
3500279000.0 -0.5334675788 0.8384521177
3550278700.0 -0.5215703347 0.8457165917
3600278400.0 -0.509784522 0.8525460193
3650278100.0 -0.4968943738 0.8599851327
3700277800.0 -0.4847196039 0.8665696776
3750277500.0 -0.4722793826 0.8732112454
3800277200.0 -0.4598000429 0.879876657
3850276900.0 -0.4475837036 0.8855744552
3900276600.0 -0.4367527998 0.8916731726
3950276300.0 -0.4247608212 0.8971808337
4000276000.0 -0.412910588 0.9031470622
4050275700.0 -0.4001153164 0.9090674845
4100275400.0 -0.3894472779 0.9148400552
4150275100.0 -0.3758897172 0.9205831367
4200274800.0 -0.3625730951 0.9262450073
4250274500.0 -0.3499358706 0.9311663051
4300274200.0 -0.3367198841 0.9368144512
4350273900.0 -0.3224506445 0.9419729369
4400273600.0 -0.3076687392 0.9471437333
4450273300.0 -0.2927003847 0.9523355174
4500273000.0 -0.2796180595 0.9563770094
4550272700.0 -0.2660007975 0.9606053574
4600272400.0 -0.250725893 0.9646614157
4650272100.0 -0.2395373054 0.9677701269
4700271800.0 -0.2265445942 0.9712227182
4750271500.0 -0.2149439972 0.9740484192
4800271200.0 -0.2027756777 0.9766640997
4850270900.0 -0.1889248282 0.9795644524
4900270600.0 -0.175203794 0.9821347094
4950270300.0 -0.1606757825 0.9848442782
5000270000.0 -0.1460037081 0.9863968929
5050269700.0 -0.132621666 0.9883702948
5100269400.0 -0.1184410785 0.9901085815
5150269100.0 -0.1044266508 0.9923006956
5200268800.0 -0.0913327536 0.9929038348
5250268500.0 -0.0778575054 0.9940220252
5300268200.0 -0.0643641556 0.9947270706
5350267900.0 -0.051673649 0.9950479219
5400267600.0 -0.0354067294 0.9962784634
5450267300.0 -0.0220746321 0.9968335625
5500267000.0 -0.0066214258 0.9971910665
5550266700.0 0.00821953 0.9972322224
5600266400.0 0.0238898542 0.9972594821
5650266100.0 0.0405911682 0.9969452261
5700265800.0 0.05484842 0.9959724339
5750265500.0 0.0697553268 0.9951854022
5800265200.0 0.0834523929 0.9945452038
5850264900.0 0.0963089196 0.992831844
5900264600.0 0.1128953831 0.9909738575
5950264300.0 0.1247899107 0.9896866139
6000264000.0 0.1382049011 0.98802023
6050263700.0 0.1498824113 0.9864255109
6100263400.0 0.1619495052 0.9846875218
6150263100.0 0.1766155499 0.9822108219
6200262800.0 0.1862331607 0.9810410911
6250262500.0 0.19894946 0.978781733
6300262200.0 0.211217543 0.9762218758
6350261900.0 0.2239985385 0.9734001316
6400261600.0 0.2379928506 0.9702814591
6450261300.0 0.2490127936 0.9676685955
6500261000.0 0.2623349947 0.9641191683
6550260700.0 0.2754761337 0.9599819074
6600260400.0 0.28880915 0.9560451256
6650260100.0 0.3030918145 0.9516719373
6700259800.0 0.3151875943 0.9474544241
6750259500.0 0.3289026139 0.9422669145
6800259200.0 0.3425958396 0.9373834767
6850258900.0 0.3548867093 0.9320934678
6900258600.0 0.367344898 0.9268651426
6950258300.0 0.3798232312 0.9214052968
7000258000.0 0.3914392942 0.916263687
7050257700.0 0.4035099672 0.9103320865
7100257400.0 0.4169256268 0.9040271175
7150257100.0 0.4274675534 0.8984285078
7200256800.0 0.4405824842 0.8921657598
7250256500.0 0.4532442924 0.8853558757
7300256200.0 0.4660558553 0.8788397869
7350255900.0 0.4789254947 0.8717659927
7400255600.0 0.4932024368 0.8639665342
7450255300.0 0.5088665804 0.8550753821
7500255000.0 0.5207734762 0.8473216078
7550254700.0 0.5349507359 0.8381687652
7600254400.0 0.5477625312 0.8300798913
7650254100.0 0.55958072 0.8219206225
7700253800.0 0.5711134588 0.8141031089
7750253500.0 0.5819071165 0.8063842366
7800253200.0 0.592790279 0.7984608443
7850252900.0 0.6024054467 0.7910761338
7900252600.0 0.6138016124 0.7826620121
7950252300.0 0.6223916725 0.7761400099
8000252000.0 0.632121585 0.7687818768
8050251700.0 0.6426602075 0.7604914978
8100251400.0 0.652656306 0.7524414868
8150251100.0 0.662685861 0.7439975908
8200250800.0 0.6722589949 0.7358193786
8250250500.0 0.6807962919 0.7280874162
8300250200.0 0.6900593959 0.7195734835
8350249900.0 0.6992867244 0.7107711456
8400249600.0 0.7071241193 0.7028431432
8450249300.0 0.7160179818 0.69412326
8500249000.0 0.7245572809 0.6852383269
8550248700.0 0.7330171779 0.6762291591
8600248400.0 0.741291919 0.6668236418
8650248100.0 0.7487456988 0.6572550977
8700247800.0 0.7582050562 0.6464986603
8750247500.0 0.7664088244 0.6359686211
8800247200.0 0.7743696817 0.6259284529
8850246900.0 0.7831007559 0.6144757798
8900246600.0 0.7914737851 0.6030509641
8950246300.0 0.8007777027 0.5903522261
9000246000.0 0.8092109978 0.5784961258
9050245700.0 0.8177356104 0.5661248225
9100245400.0 0.8260729989 0.5539228077
9150245100.0 0.8348001262 0.5411365155
9200244800.0 0.844388725 0.5265804647
9250244500.0 0.8535916968 0.5116745259
9300244200.0 0.8614654935 0.4981996117
9350243900.0 0.8696102031 0.4847375841
9400243600.0 0.875686376 0.4732116696
9450243300.0 0.8814360148 0.4626591664
9500243000.0 0.8876297264 0.4510449232
9550242700.0 0.8916321887 0.4434866158
9600242400.0 0.895985093 0.43591891
9650242100.0 0.9001304365 0.4290404044
9700241800.0 0.9050573301 0.4204574151
9750241500.0 0.9094122461 0.4128123496
9800241200.0 0.9141097051 0.4035363328
9850240900.0 0.9200014287 0.391803903
9900240600.0 0.9260937166 0.379642347
9950240300.0 0.933080835 0.3629346426
10000240000.0 0.9376009115 0.3514985098
10050239700.0 0.9436355717 0.3350429448
10100239400.0 0.9495492093 0.3183754527
10150239100.0 0.9539040845 0.3029379397
10200238800.0 0.9584307051 0.2872770449
10250238500.0 0.9615553925 0.2738754141
10300238200.0 0.9647728056 0.2600279409
10350237900.0 0.9674987044 0.2465644229
10400237600.0 0.9701708942 0.2332258185
10450237300.0 0.9728191937 0.2194993058
10500237000.0 0.9752306409 0.2068911506
10550236700.0 0.9774991833 0.1924558111
10600236400.0 0.9795615132 0.1787471827
10650236100.0 0.9814908901 0.1640307194
10700235800.0 0.9841906279 0.1518379575
10750235500.0 0.9860206248 0.1383111364
10800235200.0 0.9884054345 0.1240753862
10850234900.0 0.9899333256 0.1095840189
10900234600.0 0.9921306157 0.0944460644
10950234300.0 0.9937232857 0.0810622608
11000234000.0 0.9956540658 0.0652971569
11050233700.0 0.9974463576 0.048709423
11100233400.0 0.9989877467 0.0308805981
11150233100.0 1.000080295 0.013934324
11200232800.0 1.00074882 -0.0020858879
11250232500.0 1.002146891 -0.0198744299
11300232200.0 1.001962972 -0.0379439085
11350231900.0 1.001893899 -0.0541341228
11400231600.0 1.001859623 -0.0701039937
11450231300.0 1.001246041 -0.0858825659
11500231000.0 0.9998942221 -0.1024911468
11550230700.0 0.9985727813 -0.115404294
11600230400.0 0.9971667255 -0.1281559824
11650230100.0 0.9946102972 -0.1393416302
11700229800.0 0.9923858913 -0.1544616803
11750229500.0 0.9905627545 -0.1693197742
11800229200.0 0.9874366417 -0.1825061759
11850228900.0 0.9836321794 -0.1937976068
11900228600.0 0.9800590298 -0.2033189254
11950228300.0 0.9765301377 -0.2133378687
12000228000.0 0.9735937948 -0.2222009841
12050227700.0 0.9697229862 -0.2353445227
12100227400.0 0.9662522676 -0.245881786
12150227100.0 0.9622733399 -0.2629041967
12200226800.0 0.9576320227 -0.2737878574
12250226500.0 0.9539647634 -0.2871497805
12300226200.0 0.9494046937 -0.2987889262
12350225900.0 0.9443601785 -0.3117785764
12400225600.0 0.9401565478 -0.325468353
12450225300.0 0.9358358333 -0.3375300671
12500225000.0 0.929840679 -0.3521613873
12550224700.0 0.924734002 -0.3656318443
12600224400.0 0.9198544815 -0.3783939432
12650224100.0 0.9141378205 -0.3927861301
12700223800.0 0.9087226265 -0.4056248687
12750223500.0 0.9033332021 -0.4187687357
12800223200.0 0.8980391065 -0.4312167029
12850222900.0 0.8927623016 -0.4438214898
12900222600.0 0.8870711023 -0.4554963265
12950222300.0 0.8809782611 -0.4678451869
13000222000.0 0.8748792938 -0.4795269782
13050221700.0 0.8680029681 -0.4927186292
13100221400.0 0.8612760634 -0.5046124668
13150221100.0 0.8546981132 -0.5170454619
13200220800.0 0.8475967835 -0.5283927933
13250220500.0 0.8401546809 -0.5406277978
13300220200.0 0.8327915443 -0.5514838379
13350219900.0 0.8245904654 -0.5634951864
13400219600.0 0.816266694 -0.5753501977
13450219300.0 0.8070231258 -0.5883612403
13500219000.0 0.7972359833 -0.6016316345
13550218700.0 0.7867424426 -0.614017018
13600218400.0 0.7774630894 -0.6252920452
13650218100.0 0.7678513727 -0.6366963929
13700217800.0 0.7563988671 -0.6488154994
13750217500.0 0.7472396288 -0.6595895844
13800217200.0 0.7368262352 -0.6701571258
13850216900.0 0.7253370872 -0.6814245215
13900216600.0 0.715526861 -0.6906266774
13950216300.0 0.7046247372 -0.7004589665
14000216000.0 0.6950337384 -0.7098850736
14050215700.0 0.6856372427 -0.7173978193
14100215400.0 0.6761827398 -0.7270434772
14150215100.0 0.6672574891 -0.7355528062
14200214800.0 0.6576582845 -0.7443325414
14250214500.0 0.6473255272 -0.7537154155
14300214200.0 0.6367225426 -0.763131839
14350213900.0 0.6258940052 -0.7727124585
14400213600.0 0.6139370982 -0.7828919766
14450213300.0 0.6010593153 -0.7924952909
14500213000.0 0.5879014781 -0.8033286985
14550212700.0 0.5755946307 -0.8121836209
14600212400.0 0.563439344 -0.8208135597
14650212100.0 0.5503244776 -0.8292845445
14700211800.0 0.5367076285 -0.8390117265
14750211500.0 0.5245571934 -0.8474878494
14800211200.0 0.51153244 -0.8556398368
14850210900.0 0.4998006188 -0.8632853746
14900210600.0 0.4862989351 -0.8713138846
14950210300.0 0.4729832025 -0.8788820683
15000210000.0 0.4603836883 -0.8856609529
15050209700.0 0.4476034413 -0.891500943
15100209400.0 0.4355544189 -0.8978970902
15150209100.0 0.4230288109 -0.9029818534
15200208800.0 0.4100777722 -0.9082346322
15250208500.0 0.3990957538 -0.9132076377
15300208200.0 0.3872468354 -0.9177235441
15350207900.0 0.3734520621 -0.9218008218
15400207600.0 0.3588098529 -0.9281616724
15450207300.0 0.3437968247 -0.9331043305
15500207000.0 0.329110122 -0.9375153457
15550206700.0 0.315088657 -0.9420658842
15600206400.0 0.2991278768 -0.9468793795
15650206100.0 0.2835009684 -0.9512832338
15700205800.0 0.2697952346 -0.9541854567
15750205500.0 0.255740119 -0.9579575708
15800205200.0 0.2416211631 -0.9613971684
15850204900.0 0.2274543933 -0.9648005517
15900204600.0 0.2123956385 -0.9685305735
15950204300.0 0.1980293382 -0.9715262314
16000204000.0 0.1836878849 -0.9745044442
16050203700.0 0.1682100333 -0.9776852997
16100203400.0 0.1532559182 -0.979658999
16150203100.0 0.1392362338 -0.9824856066
16200202800.0 0.1244175613 -0.9841797793
16250202500.0 0.1100860828 -0.9862067859
16300202200.0 0.0945680326 -0.9875496893
16350201900.0 0.0795979631 -0.9890959586
16400201600.0 0.0647610661 -0.9902382872
16450201300.0 0.0493224341 -0.9912509305
16500201000.0 0.0321193043 -0.9919362746
16550200700.0 0.016124875 -0.9926175022
16600200400.0 0.0002138489 -0.9928959682
16650200100.0 -0.0161909247 -0.9925155105
16700199800.0 -0.0324316718 -0.9922593795
16750199500.0 -0.0511522064 -0.9917980548
16800199200.0 -0.0677055604 -0.9907518107
16850198900.0 -0.0827633716 -0.989388137
16900198600.0 -0.096831721 -0.9883678188
16950198300.0 -0.1112634213 -0.9872656298
17000198000.0 -0.1233376421 -0.9854268949
17050197700.0 -0.1370717181 -0.984034663
17100197400.0 -0.1489716362 -0.9820857541
17150197100.0 -0.162045901 -0.9798840077
17200196800.0 -0.1747967279 -0.9776582491
17250196500.0 -0.1877850287 -0.9754262024
17300196200.0 -0.1998345763 -0.9729906074
17350195900.0 -0.2115937886 -0.9706734829
17400195600.0 -0.2238119519 -0.9681236875
17450195300.0 -0.2365972481 -0.9653377151
17500195000.0 -0.2497349395 -0.9618711172
17550194700.0 -0.2636524819 -0.9584057501
17600194400.0 -0.2775088693 -0.954516997
17650194100.0 -0.2910070048 -0.95051964
17700193800.0 -0.30411802 -0.9462406579
17750193500.0 -0.3185423508 -0.9414150848
17800193200.0 -0.3323026765 -0.9363108167
17850192900.0 -0.3471845993 -0.930957465
17900192600.0 -0.3624100156 -0.9249029241
17950192300.0 -0.3777280764 -0.9176562556
18000192000.0 -0.3924687142 -0.9104581331
18050191700.0 -0.4064142793 -0.9025243818
18100191400.0 -0.4204669 -0.8949193392
18150191100.0 -0.4352012527 -0.8867816947
18200190800.0 -0.4522050183 -0.8777014991
18250190500.0 -0.4691242674 -0.868424789
18300190200.0 -0.4843576501 -0.859239178
18350189900.0 -0.4998283157 -0.8510913164
18400189600.0 -0.5141810961 -0.8427694001
18450189300.0 -0.5276850168 -0.8347864196
18500189000.0 -0.5413896617 -0.8259247754
18550188700.0 -0.5541584838 -0.8189976991
18600188400.0 -0.5660793579 -0.8115138741
18650188100.0 -0.5774184206 -0.8055081956
18700187800.0 -0.5881949963 -0.798848799
18750187500.0 -0.5990233318 -0.7919797027
18800187200.0 -0.6096660487 -0.7849238476
18850186900.0 -0.6200600727 -0.7779522132
18900186600.0 -0.6303274278 -0.770751133
18950186300.0 -0.6404400985 -0.7627420615
19000186000.0 -0.6480933032 -0.7570464724
19050185700.0 -0.6567337271 -0.7498380823
19100185400.0 -0.6671805196 -0.7413554994
19150185100.0 -0.6773575077 -0.7332254395
19200184800.0 -0.6868833032 -0.7248057982
19250184500.0 -0.6967947562 -0.7154742807
19300184200.0 -0.7080517397 -0.705968555
19350183900.0 -0.7187985796 -0.6959369994
19400183600.0 -0.7285538221 -0.6859382663
19450183300.0 -0.7373853134 -0.67679664
19500183000.0 -0.7456693553 -0.666527272
19550182700.0 -0.7554648265 -0.6550804826
19600182400.0 -0.7658447688 -0.6438849653
19650182100.0 -0.7767355163 -0.6313466179
19700181800.0 -0.7868409518 -0.6186361734
19750181500.0 -0.7975009683 -0.6041300246
19800181200.0 -0.8074651837 -0.5892524019
19850180900.0 -0.8171426623 -0.5738917265
19900180600.0 -0.8247416118 -0.5593061082
19950180300.0 -0.8338268831 -0.5429195073
20000180000.0 -0.8232923085 -0.5461787132
20050179700.0 -0.8313467046 -0.5349569524
20100179400.0 -0.8397957704 -0.5209688543
20150179100.0 -0.8477241535 -0.5096667562
20200178800.0 -0.8561895535 -0.4979277274
20250178500.0 -0.8652803847 -0.4853189663
20300178200.0 -0.8747330039 -0.4713023696
20350177900.0 -0.8845466429 -0.4573075355
20400177600.0 -0.894123398 -0.4433779309
20450177300.0 -0.9022343504 -0.4289900387
20500177000.0 -0.9102637988 -0.4150464515
20550176700.0 -0.917954498 -0.4015273347
20600176400.0 -0.9248450077 -0.3888627565
20650176100.0 -0.9318616516 -0.3763883891
20700175800.0 -0.9380646667 -0.3639449627
20750175500.0 -0.9443274633 -0.3529976474
20800175200.0 -0.9497264537 -0.3422347603
20850174900.0 -0.9534841819 -0.3310904643
20900174600.0 -0.9584162215 -0.3200004922
20950174300.0 -0.9608457649 -0.3098998871
21000174000.0 -0.9645945124 -0.2991869223
21050173700.0 -0.9663632089 -0.2901443276
21100173400.0 -0.9698754747 -0.2782053934
21150173100.0 -0.9731408115 -0.2663071375
21200172800.0 -0.9775229381 -0.253435693
21250172500.0 -0.9808563936 -0.2395659467
21300172200.0 -0.984195184 -0.2257316931
21350171900.0 -0.986579268 -0.211034325
21400171600.0 -0.9883726595 -0.1965127595
21450171300.0 -0.9888062935 -0.1823886694
21500171000.0 -0.9895079434 -0.1671031046
21550170700.0 -0.9901078814 -0.1517837371
21600170400.0 -0.9906561326 -0.1370441608
21650170100.0 -0.9905962579 -0.1223414958
21700169800.0 -0.9909615292 -0.1067205715
21750169500.0 -0.9904340915 -0.0896103389
21800169200.0 -0.9896708734 -0.0737299319
21850168900.0 -0.9895602563 -0.0563682835
21900168600.0 -0.9896884164 -0.0411674142
21950168300.0 -0.9889479065 -0.0247174026
22000168000.0 -0.9886859887 -0.0098269956
22050167700.0 -0.9892768823 0.0047029254
22100167400.0 -0.9900619396 0.0206356915
22150167100.0 -0.991264289 0.036656707
22200166800.0 -0.9913633462 0.0534549161
22250166500.0 -0.9906859865 0.0702326223
22300166200.0 -0.9898442893 0.086795289
22350165900.0 -0.9894406446 0.1031248728
22400165600.0 -0.9868782327 0.1176707289
22450165300.0 -0.9857965922 0.1343392765
22500165000.0 -0.9842569014 0.1485397331
22550164700.0 -0.9822775268 0.1639850957
22600164400.0 -0.981020942 0.1806567754
22650164100.0 -0.9785620703 0.1963423109
22700163800.0 -0.974804929 0.2119752865
22750163500.0 -0.9720190041 0.2270068747
22800163200.0 -0.9689178928 0.2397933044
22850162900.0 -0.9662750185 0.2533729605
22900162600.0 -0.9644567373 0.267655194
22950162300.0 -0.9624764946 0.2810695291
23000162000.0 -0.961168619 0.2933000664
23050161700.0 -0.9581736519 0.3069614463
23100161400.0 -0.955499474 0.3205503697
23150161100.0 -0.9526824658 0.3330667106
23200160800.0 -0.9491397145 0.3457039224
23250160500.0 -0.9470790886 0.3583301049
23300160200.0 -0.9444652036 0.3713859126
23350159900.0 -0.9397160347 0.3850711535
23400159600.0 -0.9344573109 0.3984503947
23450159300.0 -0.9304280584 0.4122945106
23500159000.0 -0.9254423341 0.4262159237
23550158700.0 -0.9199496186 0.440121316
23600158400.0 -0.9139533149 0.4542640003
23650158100.0 -0.9070732498 0.4686374229
23700157800.0 -0.8983383754 0.4831113264
23750157500.0 -0.8889911442 0.4972935763
23800157200.0 -0.8794156043 0.510444172
23850156900.0 -0.8694420846 0.5235538317
23900156600.0 -0.8596287917 0.5359256423
23950156300.0 -0.8500796923 0.5485950792
24000156000.0 -0.8410901353 0.561519909
24050155700.0 -0.8297112142 0.5736378897
24100155400.0 -0.819645646 0.5857754509
24150155100.0 -0.8084510379 0.5980417547
24200154800.0 -0.7976524006 0.6096743688
24250154500.0 -0.7868039707 0.6222929997
24300154200.0 -0.7751175342 0.6341714852
24350153900.0 -0.7628083808 0.6451898755
24400153600.0 -0.7504573888 0.6554480007
24450153300.0 -0.7381673036 0.6655030859
24500153000.0 -0.7267064192 0.6758057719
24550152700.0 -0.7151491816 0.6860657946
24600152400.0 -0.7026904954 0.6955400563
24650152100.0 -0.6910376896 0.7039623227
