!Created with skrf (http://scikit-rf.org).
# Hz S RI R 50.0 
!freq ReS11 ImS11
300000.0 -0.9724469761 -0.1243807332
50299700.0 -0.9997900621 0.0148401388
100299400.0 -0.9979377483 0.0280217079
150299100.0 -1.002624369 0.044843931
200298800.0 -0.9994855171 0.0579833869
250298500.0 -0.9973128252 0.0715664255
300298200.0 -0.9858226764 0.0876366867
350297900.0 -0.9940603122 0.0982266305
400297600.0 -0.9931371784 0.1149232408
450297300.0 -0.9908547486 0.1286453075
500297000.0 -0.9892933727 0.1434598111
550296700.0 -0.9844295739 0.1556776816
600296400.0 -1.017352668 0.1889184209
650296100.0 -0.9820112401 0.1856237937
700295800.0 -0.9792409614 0.199873069
750295500.0 -0.9761854273 0.2138696682
800295200.0 -0.9729844768 0.228038701
850294900.0 -0.9696397913 0.241941462
900294600.0 -0.9660436692 0.2554642338
950294300.0 -0.9622272112 0.2692454336
1000294000.0 -0.958134495 0.2832330218
1050293700.0 -0.9536375544 0.2971683383
1100293400.0 -0.9492949671 0.3116013442
1150293100.0 -0.9453808335 0.3233889488
1200292800.0 -0.9402474228 0.3376574353
1250292500.0 -0.9346948949 0.3510784517
1300292200.0 -0.9290806328 0.3644913216
1350291900.0 -0.9233612704 0.3782636705
1400291600.0 -0.9179507481 0.3915077047
1450291300.0 -0.9125680895 0.4040334003
1500291000.0 -0.9062882243 0.4173574694
1550290700.0 -0.8997795349 0.4306967437
1600290400.0 -0.8933764671 0.4436354214
1650290100.0 -0.8867570515 0.4557135942
1700289800.0 -0.8800883272 0.4691185024
1750289500.0 -0.8728320313 0.4815691172
1800289200.0 -0.8654956722 0.4946030386
1850288900.0 -0.8587856593 0.5058834996
1900288600.0 -0.8511511096 0.5186454199
1950288300.0 -0.8428150487 0.5311912177
2000288000.0 -0.8354335078 0.5427029013
2050287700.0 -0.8271175177 0.5551626467
2100287400.0 -0.8193316882 0.566497909
2150287100.0 -0.8108063631 0.5784807286
2200286800.0 -0.8028701256 0.5891128774
2250286500.0 -0.7939108961 0.6013939881
2300286200.0 -0.785113451 0.6129654571
2350285900.0 -0.776730646 0.6236159384
2400285600.0 -0.767888952 0.6342482607
2450285300.0 -0.7588853583 0.6450302029
2500285000.0 -0.7490481841 0.6568385838
2550284700.0 -0.7402396992 0.6670987312
2600284400.0 -0.7308830112 0.6768525449
2650284100.0 -0.7225019947 0.6871575399
2700283800.0 -0.7119854257 0.6975332201
2750283500.0 -0.7014720337 0.7081882173
2800283200.0 -0.6916085286 0.7181741536
2850282900.0 -0.6811993848 0.728329112
2900282600.0 -0.6707050762 0.7376410318
2950282300.0 -0.6604632264 0.7474602373
3000282000.0 -0.6493773416 0.7568581883
3050281700.0 -0.6383396574 0.7659861276
3100281400.0 -0.6269319546 0.7751358319
3150281100.0 -0.6155197856 0.7838709927
3200280800.0 -0.6041729007 0.7922283305
3250280500.0 -0.5930147102 0.8003317405
3300280200.0 -0.5814797058 0.808400712
3350279900.0 -0.5692173421 0.8164000655
3400279600.0 -0.556504153 0.8244971157
3450279300.0 -0.5455118348 0.831625364
3500279000.0 -0.533733615 0.8384171585
3550278700.0 -0.5217101693 0.8455976505
3600278400.0 -0.5098065594 0.8522438169
3650278100.0 -0.4966255033 0.8597910468
3700277800.0 -0.4847042393 0.8665357272
3750277500.0 -0.4721331939 0.8732793127
3800277200.0 -0.4597858616 0.8797762208
3850276900.0 -0.4476816024 0.8855527278
3900276600.0 -0.4365789864 0.8913004822
3950276300.0 -0.4248775556 0.8971839048
4000276000.0 -0.4131977053 0.9030641011
4050275700.0 -0.4002876456 0.90907905
4100275400.0 -0.3896088561 0.9145959413
4150275100.0 -0.3759136173 0.9202821022
4200274800.0 -0.3626712832 0.9259950264
4250274500.0 -0.3500098936 0.931367698
4300274200.0 -0.3368025628 0.9368183886
4350273900.0 -0.3223723123 0.9421872762
4400273600.0 -0.3078494182 0.9473389652
4450273300.0 -0.2927176897 0.9521517627
4500273000.0 -0.2795419677 0.9566202858
4550272700.0 -0.2660252678 0.9604189069
4600272400.0 -0.2509214736 0.964669926
4650272100.0 -0.2397171379 0.967951738
4700271800.0 -0.2268574229 0.9711456312
4750271500.0 -0.2150672831 0.9738329389
4800271200.0 -0.2029114017 0.9767560421
4850270900.0 -0.1890253884 0.9794192239
4900270600.0 -0.175333881 0.9819194778
4950270300.0 -0.1605964985 0.9846031127
5000270000.0 -0.1463337276 0.9866028088
5050269700.0 -0.1326812492 0.9883292348
5100269400.0 -0.1183346589 0.989877977
5150269100.0 -0.1046749341 0.992155534
5200268800.0 -0.0912207825 0.9929557084
5250268500.0 -0.0780760267 0.9937431582
5300268200.0 -0.0644420767 0.9946398909
5350267900.0 -0.0516279266 0.9953210118
5400267600.0 -0.0353126598 0.9964354925
5450267300.0 -0.022125793 0.9966112728
5500267000.0 -0.006747448 0.997036214
5550266700.0 0.0082643661 0.9969676114
5600266400.0 0.0239437474 0.9973521423
5650266100.0 0.0406354597 0.9967644819
5700265800.0 0.0546934507 0.9960402239
5750265500.0 0.069708041 0.9951604573
5800265200.0 0.0830902921 0.9938784737
5850264900.0 0.0966860713 0.9935654342
5900264600.0 0.1129414892 0.9914497657
5950264300.0 0.1244745862 0.9897479764
6000264000.0 0.1381834835 0.9880452467
6050263700.0 0.1498338914 0.9866050695
6100263400.0 0.1619913549 0.9845664363
6150263100.0 0.1765298677 0.9824475451
6200262800.0 0.1862759805 0.9809975262
6250262500.0 0.1988119597 0.9786206857
6300262200.0 0.2110230242 0.9760426881
6350261900.0 0.2239440479 0.9733347757
6400261600.0 0.2376459832 0.9701246827
6450261300.0 0.2487008351 0.9676839494
6500261000.0 0.2621323899 0.9640930952
6550260700.0 0.2750178155 0.9601426026
6600260400.0 0.2889998636 0.9561981798
6650260100.0 0.3028607298 0.9514209693
6700259800.0 0.3151022414 0.9471789824
6750259500.0 0.3286301895 0.9422773993
6800259200.0 0.3423270272 0.9373678992
6850258900.0 0.354593501 0.9321263952
6900258600.0 0.3672720314 0.926742541
6950258300.0 0.3796988387 0.921493859
7000258000.0 0.3914484362 0.9161063506
7050257700.0 0.4031571904 0.9104788287
7100257400.0 0.4168432403 0.9039976937
7150257100.0 0.4275077415 0.898515553
7200256800.0 0.4406313396 0.891963913
7250256500.0 0.4531306015 0.885210761
7300256200.0 0.4663305816 0.8786766615
7350255900.0 0.4792630425 0.8717649801
7400255600.0 0.4931214983 0.8640202124
7450255300.0 0.5084074914 0.8547963639
7500255000.0 0.5213902577 0.8469830662
7550254700.0 0.5355589569 0.8379695217
7600254400.0 0.5479656001 0.8299296391
7650254100.0 0.559601768 0.8220529284
7700253800.0 0.5712687216 0.8140466576
7750253500.0 0.5822442771 0.8063836953
7800253200.0 0.5927066179 0.7983418517
7850252900.0 0.6023798701 0.7910863497
7900252600.0 0.613974658 0.7824241585
7950252300.0 0.6224505925 0.7759960934
8000252000.0 0.6323053615 0.7684321148
8050251700.0 0.6427984194 0.7603757064
8100251400.0 0.6525957345 0.7524041493
8150251100.0 0.6623830648 0.7438962824
8200250800.0 0.6719745049 0.7357943885
8250250500.0 0.6806727076 0.7280072095
8300250200.0 0.6899054773 0.7196779502
8350249900.0 0.6990550232 0.7106954436
8400249600.0 0.7072826665 0.7028293785
8450249300.0 0.7160097482 0.6941601626
8500249000.0 0.724451057 0.6852717834
8550248700.0 0.7326484506 0.6762858888
8600248400.0 0.7410904671 0.6666622976
8650248100.0 0.7486716827 0.6574140843
8700247800.0 0.7579099897 0.6461723104
8750247500.0 0.7662307396 0.6361280514
8800247200.0 0.7741789605 0.6258944299
8850246900.0 0.7830249494 0.6145673399
8900246600.0 0.7917090106 0.6030655281
8950246300.0 0.8003446514 0.590526431
9000246000.0 0.8092927634 0.5784112128
9050245700.0 0.8179320864 0.5660945072
9100245400.0 0.8258206363 0.5539266699
9150245100.0 0.8350393829 0.5412485719
9200244800.0 0.844372535 0.5267073704
9250244500.0 0.8531819664 0.5120739601
9300244200.0 0.861267132 0.4985310849
9350243900.0 0.8690353477 0.4851243375
9400243600.0 0.875548614 0.4735711663
9450243300.0 0.8810794954 0.4631481901
9500243000.0 0.8873839492 0.4515363307
9550242700.0 0.8913440668 0.4439721896
9600242400.0 0.8957284576 0.4363688372
9650242100.0 0.8997057305 0.4294932714
9700241800.0 0.9047783803 0.4208189786
9750241500.0 0.9087069891 0.4133882499
9800241200.0 0.9140006313 0.4039406905
9850240900.0 0.9199644252 0.3921740693
9900240600.0 0.9256546941 0.3800883242
9950240300.0 0.9331517234 0.3631210663
10000240000.0 0.9379854652 0.3515321868
10050239700.0 0.9440124252 0.3353231582
10100239400.0 0.9491760873 0.3189382899
10150239100.0 0.9539027147 0.3032128639
10200238800.0 0.9582178392 0.2876587008
10250238500.0 0.9615523835 0.2742282775
10300238200.0 0.96486633 0.2602217814
10350237900.0 0.9674606421 0.2468674792
10400237600.0 0.9700290484 0.2334393721
10450237300.0 0.9728923204 0.2199747667
10500237000.0 0.9748941977 0.2074302548
10550236700.0 0.9773800647 0.193073213
10600236400.0 0.9797084828 0.1787958273
10650236100.0 0.9814707752 0.1647568991
10700235800.0 0.9836983954 0.1519993426
10750235500.0 0.9858546045 0.1388817653
10800235200.0 0.9876545813 0.1245995181
10850234900.0 0.990014373 0.1090433655
10900234600.0 0.9922173496 0.0944846197
10950234300.0 0.9936906474 0.0811266786
11000234000.0 0.9955171573 0.0653771029
11050233700.0 0.9974427963 0.0486045911
11100233400.0 0.9987214682 0.0309151949
11150233100.0 0.9999509586 0.0139404554
11200232800.0 1.000901494 -0.0020238376
11250232500.0 1.0019501 -0.0200146283
11300232200.0 1.002081442 -0.0376240012
11350231900.0 1.001985232 -0.0541466592
11400231600.0 1.001941531 -0.0705100089
11450231300.0 1.001466228 -0.0855617073
11500231000.0 1.000014567 -0.1027462205
11550230700.0 0.9983166859 -0.1145077258
11600230400.0 0.9967813112 -0.127882265
11650230100.0 0.9949551209 -0.14035977
11700229800.0 0.9928304792 -0.1549245156
11750229500.0 0.9903377673 -0.1687204868
11800229200.0 0.9874016914 -0.1823441213
11850228900.0 0.9836317996 -0.1937079331
11900228600.0 0.9799905279 -0.2032184715
11950228300.0 0.9764589262 -0.2132036563
12000228000.0 0.9735051117 -0.2227592228
12050227700.0 0.9700033802 -0.2344760529
12100227400.0 0.9667252819 -0.2459906223
12150227100.0 0.9610755175 -0.2631009341
12200226800.0 0.9579333081 -0.2732656826
12250226500.0 0.953402782 -0.2874144176
12300226200.0 0.9498065137 -0.298327668
12350225900.0 0.9441631882 -0.3121618833
12400225600.0 0.9401609023 -0.32450609
12450225300.0 0.9354755476 -0.3374512813
12500225000.0 0.9300905746 -0.3523051819
12550224700.0 0.92461321 -0.3658174187
12600224400.0 0.9197520453 -0.378523503
12650224100.0 0.913959549 -0.3928231373
12700223800.0 0.9086951037 -0.4056990736
12750223500.0 0.9032256815 -0.4188946805
12800223200.0 0.8979181477 -0.4311335923
12850222900.0 0.8926715135 -0.4437441374
12900222600.0 0.8872912174 -0.4554039691
12950222300.0 0.8808816768 -0.4682004804
13000222000.0 0.875165977 -0.4797196748
13050221700.0 0.8682189094 -0.4925339734
13100221400.0 0.8613853246 -0.5052244872
13150221100.0 0.8546387505 -0.5170682557
13200220800.0 0.847437171 -0.528024578
13250220500.0 0.8401484182 -0.540792848
13300220200.0 0.832711926 -0.5514220328
13350219900.0 0.8244152938 -0.5633866972
13400219600.0 0.8160917529 -0.5751264266
13450219300.0 0.806988683 -0.5884042421
13500219000.0 0.7969641565 -0.6016451704
13550218700.0 0.7872459234 -0.6136584496
13600218400.0 0.7773772359 -0.6260204608
13650218100.0 0.7678711408 -0.6365517089
13700217800.0 0.7566798281 -0.6479991066
13750217500.0 0.7474253461 -0.6588125068
13800217200.0 0.7362219345 -0.6702310191
13850216900.0 0.7254295944 -0.6816623967
13900216600.0 0.7159854826 -0.6898771599
13950216300.0 0.7042219361 -0.7006338953
14000216000.0 0.6947030261 -0.7093215446
14050215700.0 0.6860876342 -0.7175897979
14100215400.0 0.6764833952 -0.7264897739
14150215100.0 0.6673629199 -0.7352862597
14200214800.0 0.6579698158 -0.7440355236
14250214500.0 0.6475292566 -0.7536161843
14300214200.0 0.6368920359 -0.7630790217
14350213900.0 0.6258326199 -0.7724838074
14400213600.0 0.6139425408 -0.7823447494
14450213300.0 0.6010732562 -0.7924333963
14500213000.0 0.5882672496 -0.8025424787
14550212700.0 0.575822122 -0.8122409819
14600212400.0 0.5633780231 -0.8207146243
14650212100.0 0.5509534109 -0.8293064235
14700211800.0 0.5373276078 -0.8389566675
14750211500.0 0.524885822 -0.847417867
14800211200.0 0.5117979075 -0.855575846
14850210900.0 0.4996575585 -0.8631653619
14900210600.0 0.4864713694 -0.8712687609
14950210300.0 0.4731928399 -0.8787253591
15000210000.0 0.4607059991 -0.8854517903
15050209700.0 0.4480971385 -0.8916256472
15100209400.0 0.4357463522 -0.8975801259
15150209100.0 0.4234069341 -0.9029600851
15200208800.0 0.4101073265 -0.9080330295
15250208500.0 0.3995478771 -0.9126134402
15300208200.0 0.3874115536 -0.9171070024
15350207900.0 0.3741108012 -0.9221736371
15400207600.0 0.3597318919 -0.9276508707
15450207300.0 0.3447244496 -0.9331705357
15500207000.0 0.3297120619 -0.9369963034
15550206700.0 0.3158494536 -0.9423575553
15600206400.0 0.2992470325 -0.9467662718
15650206100.0 0.2836122216 -0.9509586903
15700205800.0 0.269998544 -0.9544602665
15750205500.0 0.2561459732 -0.957923271
15800205200.0 0.242103914 -0.9611499669
15850204900.0 0.2281033856 -0.9647687802
15900204600.0 0.2127983868 -0.968348967
15950204300.0 0.1987272044 -0.9714494665
16000204000.0 0.1838401749 -0.9744908737
16050203700.0 0.1689251131 -0.9773118249
16100203400.0 0.1541788612 -0.9795623178
16150203100.0 0.1388785113 -0.982086836
16200202800.0 0.1249026054 -0.9840314312
16250202500.0 0.1104456682 -0.9858846831
16300202200.0 0.0947124202 -0.9873367837
16350201900.0 0.0797690358 -0.989015237
16400201600.0 0.0653236765 -0.9899453463
16450201300.0 0.0496679913 -0.9913764853
16500201000.0 0.032619507 -0.9920138079
16550200700.0 0.016479393 -0.9925787715
16600200400.0 0.0003470767 -0.9928937504
16650200100.0 -0.0157708194 -0.9926107046
16700199800.0 -0.0320878745 -0.9923545005
16750199500.0 -0.0504809341 -0.9917260104
16800199200.0 -0.0668374618 -0.9906002266
16850198900.0 -0.0827329331 -0.989667773
16900198600.0 -0.09642907 -0.9883617296
16950198300.0 -0.1103542747 -0.9874567563
17000198000.0 -0.1232687484 -0.9857562345
17050197700.0 -0.1360688213 -0.9842637209
17100197400.0 -0.149261142 -0.9819647191
17150197100.0 -0.1618108948 -0.9796486893
17200196800.0 -0.1742809499 -0.977748493
17250196500.0 -0.1870887579 -0.9752862875
17300196200.0 -0.1995092887 -0.9730456522
17350195900.0 -0.2112531312 -0.9706207649
17400195600.0 -0.2233389091 -0.968002025
17450195300.0 -0.2362004008 -0.9653472963
17500195000.0 -0.2493870501 -0.9619137988
17550194700.0 -0.2634543399 -0.9582788121
17600194400.0 -0.2771771308 -0.9540722248
17650194100.0 -0.2905672306 -0.9506085443
17700193800.0 -0.3033990507 -0.9464653219
17750193500.0 -0.3178722278 -0.9417596349
17800193200.0 -0.3319480073 -0.9363515787
17850192900.0 -0.3465749418 -0.9311050684
17900192600.0 -0.3617689136 -0.924632923
17950192300.0 -0.3775636254 -0.917944115
18000192000.0 -0.3920496273 -0.9106225061
18050191700.0 -0.4060773616 -0.9026199301
18100191400.0 -0.4201626477 -0.8949884986
18150191100.0 -0.4349982769 -0.8869672408
18200190800.0 -0.4519283445 -0.877816736
18250190500.0 -0.4689421135 -0.8684513348
18300190200.0 -0.4842486754 -0.859446549
18350189900.0 -0.4997627014 -0.8512817513
18400189600.0 -0.5142769715 -0.8426911186
18450189300.0 -0.5273198208 -0.8346093537
18500189000.0 -0.5409614414 -0.8266025003
18550188700.0 -0.5540105129 -0.8189441167
18600188400.0 -0.5657347982 -0.8116744729
18650188100.0 -0.5770149518 -0.805363375
18700187800.0 -0.5878689573 -0.7988662443
18750187500.0 -0.598629836 -0.7923458194
18800187200.0 -0.6094447518 -0.7852737611
18850186900.0 -0.6198091102 -0.7781950036
18900186600.0 -0.6298415211 -0.7708733555
18950186300.0 -0.640125397 -0.7631965359
19000186000.0 -0.6476422937 -0.7571715507
19050185700.0 -0.6569289983 -0.7499531723
19100185400.0 -0.667186877 -0.7416516314
19150185100.0 -0.6770130416 -0.7328904158
19200184800.0 -0.686363516 -0.7251450303
19250184500.0 -0.6967530959 -0.716103951
19300184200.0 -0.708314502 -0.7062000001
19350183900.0 -0.7189600788 -0.6973652619
19400183600.0 -0.7282823365 -0.6867545307
19450183300.0 -0.7371588017 -0.6765435588
19500183000.0 -0.7453450501 -0.666767874
19550182700.0 -0.7553714457 -0.6551818743
19600182400.0 -0.7655547919 -0.6441149524
19650182100.0 -0.7762009038 -0.6314523918
19700181800.0 -0.7868849023 -0.6184668691
19750181500.0 -0.7970372251 -0.6042292703
19800181200.0 -0.8072643646 -0.589386141
19850180900.0 -0.8169334165 -0.5739864913
19900180600.0 -0.8242595038 -0.5597020048
19950180300.0 -0.8337404549 -0.543358168
20000180000.0 -0.8234124226 -0.5474161474
20050179700.0 -0.8315330465 -0.5340152899
20100179400.0 -0.8396610918 -0.5214932233
20150179100.0 -0.8482324331 -0.5097203127
20200178800.0 -0.8561978717 -0.4977799833
20250178500.0 -0.86527709 -0.4850441176
20300178200.0 -0.8752017225 -0.4722637974
20350177900.0 -0.884469986 -0.4573802843
20400177600.0 -0.8937781275 -0.4434871112
20450177300.0 -0.9016227537 -0.4291982693
20500177000.0 -0.9098771527 -0.4153082076
20550176700.0 -0.9178443637 -0.4016476065
20600176400.0 -0.9250487283 -0.3889100242
20650176100.0 -0.9313667032 -0.3769453598
20700175800.0 -0.9379367359 -0.3649475579
20750175500.0 -0.9439859225 -0.3532855142
20800175200.0 -0.949080496 -0.3420212172
20850174900.0 -0.9539531918 -0.3315992638
20900174600.0 -0.9574706854 -0.3201514789
20950174300.0 -0.9608192959 -0.3087693629
21000174000.0 -0.9643460776 -0.298984674
21050173700.0 -0.9661396879 -0.2895063676
21100173400.0 -0.9694314544 -0.2786650684
21150173100.0 -0.9733088897 -0.2664793689
21200172800.0 -0.9772419119 -0.2534713062
21250172500.0 -0.9808333483 -0.2397332574
21300172200.0 -0.9840122246 -0.2255035402
21350171900.0 -0.986338223 -0.2115150448
21400171600.0 -0.9879885395 -0.1974546817
21450171300.0 -0.9893264164 -0.1836939874
21500171000.0 -0.9882988594 -0.1681470851
21550170700.0 -0.9892282361 -0.1529451931
21600170400.0 -0.9905589278 -0.1366232645
21650170100.0 -0.9913899019 -0.1216539619
21700169800.0 -0.990554513 -0.1077949707
21750169500.0 -0.9900540711 -0.0912241179
21800169200.0 -0.9905851263 -0.073505568
21850168900.0 -0.9899766035 -0.0575256039
21900168600.0 -0.9891984077 -0.0408690718
21950168300.0 -0.9893168979 -0.0253009328
22000168000.0 -0.989141665 -0.0100614758
22050167700.0 -0.9896654769 0.0042464434
22100167400.0 -0.9904103705 0.0199703938
22150167100.0 -0.9914323616 0.0362200788
22200166800.0 -0.9918015482 0.0529290472
22250166500.0 -0.9909153683 0.0698615933
22300166200.0 -0.9899666056 0.0868524189
22350165900.0 -0.9893929965 0.1026471522
22400165600.0 -0.9880956394 0.1180528235
22450165300.0 -0.9859031199 0.1329454511
22500165000.0 -0.9844283539 0.1478461749
22550164700.0 -0.9834062017 0.1644641072
22600164400.0 -0.9813558936 0.1810236624
22650164100.0 -0.9781917408 0.1960598632
22700163800.0 -0.9748348969 0.2124236264
22750163500.0 -0.9719335571 0.2267056153
22800163200.0 -0.9693060071 0.2399718431
22850162900.0 -0.9664546227 0.2531018302
22900162600.0 -0.9648179651 0.2672331564
22950162300.0 -0.9628731791 0.2808118939
23000162000.0 -0.9614761291 0.2933890482
23050161700.0 -0.9580885697 0.3068422346
23100161400.0 -0.9560976023 0.3205040514
23150161100.0 -0.9525394399 0.3331304702
23200160800.0 -0.9496189307 0.3464339818
23250160500.0 -0.9466989641 0.3584063017
23300160200.0 -0.9441063192 0.3714394763
23350159900.0 -0.9401798998 0.384964595
23400159600.0 -0.9353615891 0.3977327531
23450159300.0 -0.9300803166 0.4127177256
23500159000.0 -0.9249388094 0.4259024281
23550158700.0 -0.9198354349 0.4401712167
23600158400.0 -0.9139314972 0.4542157169
23650158100.0 -0.9069525557 0.4688937421
23700157800.0 -0.8984518625 0.4830709648
23750157500.0 -0.8889805649 0.4973946186
23800157200.0 -0.879221832 0.5109784187
23850156900.0 -0.8693563283 0.523964464
23900156600.0 -0.8592345723 0.5366406101
23950156300.0 -0.849945343 0.5490500956
24000156000.0 -0.8395878542 0.5608035315
24050155700.0 -0.8296539567 0.573436517
24100155400.0 -0.8189549993 0.5862236846
24150155100.0 -0.8091438746 0.5988103516
24200154800.0 -0.797782601 0.6098128415
24250154500.0 -0.7860629949 0.6222334802
24300154200.0 -0.774523603 0.6343074587
24350153900.0 -0.7621450049 0.64563537
24400153600.0 -0.74989123 0.6559796912
24450153300.0 -0.7377133143 0.6663547327
24500153000.0 -0.7260142228 0.6762161726
24550152700.0 -0.7146681245 0.686473706
24600152400.0 -0.7026817875 0.6960113826
24650152100.0 -0.690435221 0.7037470017
