!Created with skrf (http://scikit-rf.org).
# Hz S RI R 50.0 
!freq ReS11 ImS11
300000.0 -1.005091204 0.0211042403
50299700.0 -0.9980387998 0.0155365487
100299400.0 -0.9962389792 0.0277010311
150299100.0 -1.000695901 0.0445101512
200298800.0 -0.9975354583 0.0576089971
250298500.0 -0.9950855962 0.0708856769
300298200.0 -0.983784167 0.0864999676
350297900.0 -0.9913215829 0.0970255665
400297600.0 -0.9904230139 0.1134011851
450297300.0 -0.9883102837 0.1266992661
500297000.0 -0.9865141264 0.1413554479
550296700.0 -0.981344887 0.1532365425
600296400.0 -1.013848165 0.1863076152
650296100.0 -0.9787781137 0.1825360375
700295800.0 -0.9761901911 0.1968102497
750295500.0 -0.9730457079 0.2105541235
800295200.0 -0.9698209775 0.2243915557
850294900.0 -0.9663521232 0.2378906516
900294600.0 -0.9626259484 0.2515518444
950294300.0 -0.959215758 0.2646913419
1000294000.0 -0.9554006542 0.2787665021
1050293700.0 -0.9510752713 0.292308367
1100293400.0 -0.9467657162 0.3067361911
1150293100.0 -0.9433168637 0.3182761118
1200292800.0 -0.9379736798 0.3325987911
1250292500.0 -0.9329704553 0.3462201495
1300292200.0 -0.9274091707 0.3592326946
1350291900.0 -0.9220653838 0.3733207622
1400291600.0 -0.9168381159 0.3862506634
1450291300.0 -0.9116975387 0.3985668371
1500291000.0 -0.9054980227 0.4118120293
1550290700.0 -0.8994266058 0.4251906378
1600290400.0 -0.8933382016 0.4379339083
1650290100.0 -0.8869453139 0.4500270986
1700289800.0 -0.8802163402 0.4636571961
1750289500.0 -0.8735512331 0.4756322832
1800289200.0 -0.8663796113 0.4883327737
1850288900.0 -0.8598265354 0.4995391786
1900288600.0 -0.8525497034 0.5124315044
1950288300.0 -0.8445736766 0.5247699457
2000288000.0 -0.8373093438 0.536302861
2050287700.0 -0.8292935405 0.5487346621
2100287400.0 -0.8220067935 0.5599973797
2150287100.0 -0.8130603478 0.5722058042
2200286800.0 -0.8055341467 0.5828392575
2250286500.0 -0.7970865876 0.5944268988
2300286200.0 -0.788705514 0.6055968775
2350285900.0 -0.7802317712 0.61640666
2400285600.0 -0.7711304374 0.6278281067
2450285300.0 -0.7620392259 0.6386717279
2500285000.0 -0.7532352102 0.6492550487
2550284700.0 -0.7440304454 0.6596731755
2600284400.0 -0.7339877873 0.6701569997
2650284100.0 -0.7256479418 0.6801132888
2700283800.0 -0.7153847252 0.6903342636
2750283500.0 -0.7055385839 0.7007283794
2800283200.0 -0.6955610574 0.7106261172
2850282900.0 -0.6850476288 0.7205033291
2900282600.0 -0.6743201499 0.7301143599
2950282300.0 -0.6642968959 0.7391394311
3000282000.0 -0.6536873426 0.7489539466
3050281700.0 -0.6427349693 0.7582197081
3100281400.0 -0.6321565574 0.7667911616
3150281100.0 -0.6218241755 0.7755391019
3200280800.0 -0.6102748737 0.7843588919
3250280500.0 -0.5991309853 0.7930339208
3300280200.0 -0.5871336178 0.802210854
3350279900.0 -0.5761843933 0.8099138794
3400279600.0 -0.5639797224 0.8185850981
3450279300.0 -0.5526732269 0.8266905841
3500279000.0 -0.5409312098 0.8344595179
3550278700.0 -0.5289726778 0.8418279464
3600278400.0 -0.5186223816 0.8487963342
3650278100.0 -0.5054601659 0.8567014299
3700277800.0 -0.4935783305 0.8636797872
3750277500.0 -0.4815800796 0.8706846651
3800277200.0 -0.4690687812 0.8774728359
3850276900.0 -0.456551793 0.8837486025
3900276600.0 -0.4448559681 0.8898346384
3950276300.0 -0.4317429611 0.8966641359
4000276000.0 -0.4197005666 0.9025367812
4050275700.0 -0.4063849144 0.9084974004
4100275400.0 -0.3945985891 0.9137369662
4150275100.0 -0.3814027322 0.9191871616
4200274800.0 -0.3677960521 0.9247360638
4250274500.0 -0.3556549704 0.9293652925
4300274200.0 -0.3429478256 0.9341824582
4350273900.0 -0.329342615 0.9390349018
4400273600.0 -0.3167035064 0.9431529665
4450273300.0 -0.3033761838 0.9474666274
4500273000.0 -0.2909553496 0.9514209612
4550272700.0 -0.2788096548 0.9553134321
4600272400.0 -0.2640081537 0.9592601962
4650272100.0 -0.2516157149 0.9624960691
4700271800.0 -0.2383363884 0.9658288201
4750271500.0 -0.2245708931 0.9689401892
4800271200.0 -0.2104280044 0.972071382
4850270900.0 -0.1963938819 0.9749399752
4900270600.0 -0.1831453387 0.9775193102
4950270300.0 -0.170142039 0.9798710224
5000270000.0 -0.1563101545 0.9825421846
5050269700.0 -0.1425837187 0.984268952
5100269400.0 -0.1283086748 0.9859236318
5150269100.0 -0.1139523027 0.988205146
5200268800.0 -0.1000186803 0.989512998
5250268500.0 -0.0867822966 0.990390596
5300268200.0 -0.0723085296 0.9917101913
5350267900.0 -0.0595781545 0.9924861201
5400267600.0 -0.0434253387 0.9938352068
5450267300.0 -0.0315348126 0.9939370155
5500267000.0 -0.0172933706 0.9944550276
5550266700.0 -0.0052451988 0.994573516
5600266400.0 0.0085617923 0.994500448
5650266100.0 0.0233701701 0.9944974741
5700265800.0 0.0362319521 0.9938426486
5750265500.0 0.0496151329 0.9937869385
5800265200.0 0.0624247087 0.9927886295
5850264900.0 0.0756995134 0.9920395785
5900264600.0 0.0909123261 0.9908463854
5950264300.0 0.1025894088 0.9893742368
6000264000.0 0.1161076485 0.9879358587
6050263700.0 0.1287161152 0.9870858872
6100263400.0 0.1427664091 0.9848880595
6150263100.0 0.1581711958 0.9823671265
6200262800.0 0.1696557744 0.9808185838
6250262500.0 0.1832983022 0.9781922661
6300262200.0 0.196199621 0.9755467825
6350261900.0 0.2093672598 0.9729189025
6400261600.0 0.224193399 0.9695237625
6450261300.0 0.236399929 0.9666453558
6500261000.0 0.2497408589 0.9635292994
6550260700.0 0.2629015519 0.9595289593
6600260400.0 0.2756198552 0.9560356983
6650260100.0 0.2895387096 0.9519552511
6700259800.0 0.3018621242 0.9481700629
6750259500.0 0.3147099499 0.9437795772
6800259200.0 0.3284182906 0.9392227235
6850258900.0 0.3408805695 0.9348110897
6900258600.0 0.3540953943 0.9300772064
6950258300.0 0.3672784674 0.9247803244
7000258000.0 0.3796739152 0.9196703726
7050257700.0 0.3909485008 0.9147981476
7100257400.0 0.4054845953 0.9088495604
7150257100.0 0.4168782577 0.9037130478
7200256800.0 0.4305648441 0.8978174685
7250256500.0 0.4423866751 0.8919217333
7300256200.0 0.4550986761 0.8855240647
7350255900.0 0.4672668854 0.8796706878
7400255600.0 0.477104347 0.8742051377
7450255300.0 0.4901851305 0.8669810442
7500255000.0 0.5010740751 0.8603705625
7550254700.0 0.5125987699 0.8540107233
7600254400.0 0.5237918469 0.8472452187
7650254100.0 0.5345189503 0.8406533377
7700253800.0 0.5460218048 0.8333504364
7750253500.0 0.5573964111 0.8260107165
7800253200.0 0.5692261908 0.8175563887
7850252900.0 0.5783868202 0.8111284776
7900252600.0 0.5903231891 0.8026036385
7950252300.0 0.6005942079 0.7950790834
8000252000.0 0.6114388741 0.7866731811
8050251700.0 0.6223413223 0.7781626468
8100251400.0 0.6318623911 0.7703788387
8150251100.0 0.6432153705 0.7608645636
8200250800.0 0.6529101161 0.7527037734
8250250500.0 0.6631611209 0.7431631658
8300250200.0 0.6731592252 0.733973175
8350249900.0 0.6828455327 0.7250402543
8400249600.0 0.6923634052 0.7159005643
8450249300.0 0.7029645666 0.7054945303
8500249000.0 0.7127887493 0.6957157815
8550248700.0 0.7230836703 0.6850206145
8600248400.0 0.7328845029 0.6742832062
8650248100.0 0.7408951264 0.6648729942
8700247800.0 0.7503683964 0.6543441275
8750247500.0 0.7593418051 0.6440039263
8800247200.0 0.7681678373 0.6334859964
8850246900.0 0.7769931816 0.6223082959
8900246600.0 0.7854527364 0.6118891981
8950246300.0 0.7940001134 0.600464823
9000246000.0 0.8014358694 0.5906487625
9050245700.0 0.8088706452 0.5806907765
9100245400.0 0.8168798275 0.5688732929
9150245100.0 0.8243923398 0.5580284713
9200244800.0 0.8304113039 0.5492000979
9250244500.0 0.8378676469 0.5381467586
9300244200.0 0.8437668315 0.5284602518
9350243900.0 0.8508539163 0.5169064588
9400243600.0 0.8580725055 0.5052286235
9450243300.0 0.8635125907 0.4956440178
9500243000.0 0.870437896 0.4839707518
9550242700.0 0.8774976799 0.4716577566
9600242400.0 0.8842920651 0.4587911848
9650242100.0 0.8906816539 0.4462884623
9700241800.0 0.8971877501 0.4337408323
9750241500.0 0.9038910433 0.4197079348
9800241200.0 0.9106173882 0.4041093895
9850240900.0 0.9162298235 0.3906926048
9900240600.0 0.920065325 0.3814458871
9950240300.0 0.925805004 0.3680546179
10000240000.0 0.9311585716 0.3545542682
10050239700.0 0.9358716295 0.3418528817
10100239400.0 0.9402582454 0.3294176717
10150239100.0 0.9442913333 0.3167605155
10200238800.0 0.9489921185 0.3030029119
10250238500.0 0.9528732214 0.2900610107
10300238200.0 0.9569344863 0.2767949889
10350237900.0 0.9605103756 0.2642563042
10400237600.0 0.9640921965 0.2508666473
10450237300.0 0.967837372 0.2370916939
10500237000.0 0.9712748952 0.2235555079
10550236700.0 0.9739180244 0.2101159858
10600236400.0 0.9768373567 0.1967811074
10650236100.0 0.9799649682 0.1802045839
10700235800.0 0.9824499719 0.1667301951
10750235500.0 0.985039892 0.1531126674
10800235200.0 0.9870747115 0.1396049158
10850234900.0 0.9886398384 0.1268766091
10900234600.0 0.9904865044 0.1126001258
10950234300.0 0.9917828294 0.0985849107
11000234000.0 0.9928547519 0.0848769801
11050233700.0 0.9936433499 0.0721293885
11100233400.0 0.9945787416 0.0582055271
11150233100.0 0.9953741066 0.0448009422
11200232800.0 0.9957926071 0.0317568499
11250232500.0 0.9961344601 0.0188858116
11300232200.0 0.9957491945 0.0050639947
11350231900.0 0.9963682835 -0.0077958182
11400231600.0 0.9958166345 -0.0214052503
11450231300.0 0.9948226469 -0.0339901478
11500231000.0 0.9947827246 -0.0471620824
11550230700.0 0.9937155359 -0.0590183582
11600230400.0 0.9933828764 -0.0743036652
11650230100.0 0.9916950988 -0.0862410563
11700229800.0 0.9908441251 -0.1016861114
11750229500.0 0.9891877626 -0.1149286937
11800229200.0 0.9877387767 -0.1271757195
11850228900.0 0.9858841108 -0.1415337719
11900228600.0 0.9840440815 -0.1560536364
11950228300.0 0.9817864739 -0.1709781419
12000228000.0 0.9792136795 -0.1852079745
12050227700.0 0.9762546725 -0.1992197406
12100227400.0 0.9741950525 -0.2103958028
12150227100.0 0.9700518485 -0.2291463079
12200226800.0 0.9675552899 -0.240686556
12250226500.0 0.9638071591 -0.2548621398
12300226200.0 0.960366651 -0.2680250614
12350225900.0 0.9559061219 -0.2841525288
12400225600.0 0.9516016229 -0.2979798383
12450225300.0 0.9473843884 -0.3107902292
12500225000.0 0.9423501979 -0.3245598013
12550224700.0 0.9372654389 -0.3391540152
12600224400.0 0.933199806 -0.3504304579
12650224100.0 0.9275972037 -0.364622022
12700223800.0 0.9223907088 -0.3776824329
12750223500.0 0.9168411526 -0.3910912247
12800223200.0 0.9109800512 -0.404436647
12850222900.0 0.9052959637 -0.4172689644
12900222600.0 0.8988062818 -0.4300999698
12950222300.0 0.8924792863 -0.4437595116
13000222000.0 0.886378105 -0.4558583108
13050221700.0 0.878968828 -0.4687330022
13100221400.0 0.8727126381 -0.4804773201
13150221100.0 0.8660092289 -0.4932704972
13200220800.0 0.8586416531 -0.5053800227
13250220500.0 0.8517842406 -0.5179811361
13300220200.0 0.8443408683 -0.5294216628
13350219900.0 0.8364146969 -0.5426800194
13400219600.0 0.8288640156 -0.5541483247
13450219300.0 0.8218672984 -0.5647995734
13500219000.0 0.8143824825 -0.5750282645
13550218700.0 0.8061015538 -0.586608109
13600218400.0 0.798091264 -0.5971802008
13650218100.0 0.790771031 -0.6068182839
13700217800.0 0.7817403331 -0.6183969908
13750217500.0 0.7735383765 -0.6290692394
13800217200.0 0.7641426096 -0.6408525178
13850216900.0 0.7546418142 -0.6528396702
13900216600.0 0.7457825549 -0.6619869347
13950216300.0 0.7361798629 -0.6730528787
14000216000.0 0.7267494094 -0.6830958474
14050215700.0 0.7172635447 -0.6924515891
14100215400.0 0.7056812715 -0.7051333356
14150215100.0 0.6940925664 -0.7161180797
14200214800.0 0.6838420352 -0.7257964964
14250214500.0 0.67229684 -0.7366761584
14300214200.0 0.660557221 -0.747285493
14350213900.0 0.6494425694 -0.7569818274
14400213600.0 0.6383882919 -0.7660642529
14450213300.0 0.6282133492 -0.7748860246
14500213000.0 0.6171184874 -0.7831983685
14550212700.0 0.6057846762 -0.7922377049
14600212400.0 0.5941399816 -0.8010435394
14650212100.0 0.5836031356 -0.8076498513
14700211800.0 0.5713889175 -0.8165894927
14750211500.0 0.5595822981 -0.8247133001
14800211200.0 0.5467695588 -0.8331030743
14850210900.0 0.5353801632 -0.8404621915
14900210600.0 0.5230766737 -0.8482673082
14950210300.0 0.5111379238 -0.8557250148
15000210000.0 0.4987102467 -0.8628518386
15050209700.0 0.4859491976 -0.8702210541
15100209400.0 0.4731034015 -0.8773515075
15150209100.0 0.4610963983 -0.8838173061
15200208800.0 0.4482828087 -0.8909843989
15250208500.0 0.4348093634 -0.8975458904
15300208200.0 0.4204985869 -0.9043992244
15350207900.0 0.4075675615 -0.9099301021
15400207600.0 0.3948965925 -0.9156257963
15450207300.0 0.3816577478 -0.9215787484
15500207000.0 0.3685151288 -0.9267730022
15550206700.0 0.3558628979 -0.9326837946
15600206400.0 0.342264668 -0.9375280072
15650206100.0 0.3284553608 -0.9419826637
15700205800.0 0.3150575712 -0.9469884684
15750205500.0 0.3005359294 -0.9513355046
15800205200.0 0.2866030544 -0.9556779337
15850204900.0 0.2728593221 -0.959760075
15900204600.0 0.2571055749 -0.9642341305
15950204300.0 0.2427304421 -0.9678367766
16000204000.0 0.2278040479 -0.9715384129
16050203700.0 0.2128812911 -0.9748940149
16100203400.0 0.1991173764 -0.9779131651
16150203100.0 0.1834174845 -0.9808665943
16200202800.0 0.1680618086 -0.9834205616
16250202500.0 0.1529673556 -0.9854144472
16300202200.0 0.1378797319 -0.9875244189
16350201900.0 0.1229517674 -0.9893358072
16400201600.0 0.1074997129 -0.9908634835
16450201300.0 0.093256028 -0.9924104724
16500201000.0 0.0784669821 -0.9935959242
16550200700.0 0.0639188972 -0.9949076946
16600200400.0 0.0489858795 -0.9957550478
16650200100.0 0.0335486902 -0.9964909345
16700199800.0 0.0202799118 -0.9968972074
16750199500.0 0.0068592355 -0.9970739903
16800199200.0 -0.0063552748 -0.9973530789
16850198900.0 -0.0213874196 -0.9976241159
16900198600.0 -0.0351140689 -0.996886795
16950198300.0 -0.0505629126 -0.9959681763
17000198000.0 -0.0652023585 -0.9952152215
17050197700.0 -0.0798877101 -0.9940073287
17100197400.0 -0.0968199784 -0.9924876573
17150197100.0 -0.1116194616 -0.991135694
17200196800.0 -0.1258003545 -0.9891551731
17250196500.0 -0.1411821953 -0.9873537246
17300196200.0 -0.1562748092 -0.9845385518
17350195900.0 -0.1722776093 -0.9817939906
17400195600.0 -0.187361756 -0.9788036399
17450195300.0 -0.2022123237 -0.97593985
17500195000.0 -0.2168991211 -0.9727996863
17550194700.0 -0.2313540032 -0.9693954683
17600194400.0 -0.2463648484 -0.965828471
17650194100.0 -0.2608521982 -0.9619360828
17700193800.0 -0.2747264885 -0.9576647275
17750193500.0 -0.2887061644 -0.9541400403
17800193200.0 -0.3027103665 -0.9491001844
17850192900.0 -0.3165090247 -0.9449321329
17900192600.0 -0.3300070888 -0.9404214151
17950192300.0 -0.3445452846 -0.9345685674
18000192000.0 -0.3587089505 -0.9293924167
18050191700.0 -0.3729882757 -0.9233742398
18100191400.0 -0.3869864387 -0.9176424717
18150191100.0 -0.4001038391 -0.9119442743
18200190800.0 -0.4131725698 -0.9060106377
18250190500.0 -0.4265594255 -0.8998093297
18300190200.0 -0.4398073602 -0.8937393503
18350189900.0 -0.4534325135 -0.8874220317
18400189600.0 -0.466671561 -0.8814903434
18450189300.0 -0.4790865207 -0.8743911975
18500189000.0 -0.4913588578 -0.8677808201
18550188700.0 -0.5037424794 -0.8607737414
18600188400.0 -0.5166911223 -0.8525062695
18650188100.0 -0.5296852391 -0.8447811794
18700187800.0 -0.5419391008 -0.8362346935
18750187500.0 -0.5542586377 -0.8284533877
18800187200.0 -0.5664820498 -0.8198252976
18850186900.0 -0.578404863 -0.811042757
18900186600.0 -0.589365016 -0.8024557566
18950186300.0 -0.6018006043 -0.7929473582
19000186000.0 -0.6138576233 -0.7838070163
19050185700.0 -0.626244612 -0.7745310454
19100185400.0 -0.6377505906 -0.7651620772
19150185100.0 -0.6491838466 -0.7553029941
19200184800.0 -0.6608162971 -0.7453654012
19250184500.0 -0.6712706258 -0.7346951002
19300184200.0 -0.6826594159 -0.725316361
19350183900.0 -0.6939134588 -0.7146431272
19400183600.0 -0.7052501007 -0.7041070031
19450183300.0 -0.7157981214 -0.6925526954
19500183000.0 -0.7260345463 -0.6813538316
19550182700.0 -0.7368943188 -0.6699991019
19600182400.0 -0.7464742888 -0.6587504064
19650182100.0 -0.7561467443 -0.6466268382
19700181800.0 -0.7656664133 -0.6351813696
19750181500.0 -0.7746883704 -0.6234462535
19800181200.0 -0.7839202282 -0.6114290921
19850180900.0 -0.7928782596 -0.5996748158
19900180600.0 -0.8006446037 -0.5888754123
19950180300.0 -0.8101965949 -0.5762469727
20000180000.0 -0.8211873462 -0.5629125719
20050179700.0 -0.8299334163 -0.5506823409
20100179400.0 -0.8383506994 -0.5373956656
20150179100.0 -0.846622486 -0.5253552498
20200178800.0 -0.8532182606 -0.5132645807
20250178500.0 -0.8606648229 -0.5012463776
20300178200.0 -0.8675320611 -0.4878884992
20350177900.0 -0.8737991709 -0.4764993567
20400177600.0 -0.8802421464 -0.4645701599
20450177300.0 -0.885611948 -0.4524617523
20500177000.0 -0.8914207339 -0.440471068
20550176700.0 -0.8970052132 -0.4280263423
20600176400.0 -0.9025283522 -0.4151897931
20650176100.0 -0.9079577928 -0.4021616335
20700175800.0 -0.9140121267 -0.3890400497
20750175500.0 -0.9195516954 -0.3763832401
20800175200.0 -0.9239762694 -0.3639172456
20850174900.0 -0.9286801442 -0.3499028421
20900174600.0 -0.9330961369 -0.3366168392
20950174300.0 -0.9370465912 -0.3234680829
21000174000.0 -0.9407872617 -0.309865199
21050173700.0 -0.9447064286 -0.2960652709
21100173400.0 -0.9491679227 -0.2817906064
21150173100.0 -0.9530348719 -0.2674546965
21200172800.0 -0.955547984 -0.2530470693
21250172500.0 -0.959283088 -0.2392539018
21300172200.0 -0.9630151947 -0.2249532291
21350171900.0 -0.9664252918 -0.2110376635
21400171600.0 -0.969992752 -0.1969848651
21450171300.0 -0.9729584685 -0.1818729565
21500171000.0 -0.9749146342 -0.1675763112
21550170700.0 -0.9783418782 -0.1538239099
21600170400.0 -0.9816538198 -0.1398525811
21650170100.0 -0.9850091256 -0.1252006308
21700169800.0 -0.9877401208 -0.1102896192
21750169500.0 -0.990491773 -0.0947332456
21800169200.0 -0.9925178444 -0.0800551026
21850168900.0 -0.9942318875 -0.0662083504
21900168600.0 -0.9961506856 -0.0522683929
21950168300.0 -0.9983243314 -0.0385385739
22000168000.0 -0.999058349 -0.0235838909
22050167700.0 -1.000179637 -0.0086609238
22100167400.0 -1.000138734 0.0068272135
22150167100.0 -1.000248673 0.021673576
22200166800.0 -0.9992650886 0.0357483312
22250166500.0 -0.9985233103 0.0491153902
22300166200.0 -0.9979977169 0.0628222796
22350165900.0 -0.996643309 0.0769381031
22400165600.0 -0.9958539201 0.0900848492
22450165300.0 -0.9948311576 0.1034057135
22500165000.0 -0.9933501466 0.1166345446
22550164700.0 -0.9919549398 0.1312487774
22600164400.0 -0.9893536167 0.1443698411
22650164100.0 -0.9863262393 0.1555864001
22700163800.0 -0.98423619 0.1690006727
22750163500.0 -0.9824410091 0.1816697942
22800163200.0 -0.9786295861 0.1940963508
22850162900.0 -0.9749947154 0.2065851205
22900162600.0 -0.9719301625 0.2198793905
22950162300.0 -0.9677244792 0.233647433
23000162000.0 -0.9633234657 0.2470116817
23050161700.0 -0.9582383892 0.2613806554
23100161400.0 -0.953658364 0.275318769
23150161100.0 -0.9492322897 0.2884382697
23200160800.0 -0.944634383 0.303200169
23250160500.0 -0.9383688501 0.3165360889
23300160200.0 -0.9341139019 0.3302231496
23350159900.0 -0.9287752894 0.3446951565
23400159600.0 -0.924012535 0.3562645195
23450159300.0 -0.9180832204 0.3697421954
23500159000.0 -0.9130429802 0.3825294794
23550158700.0 -0.9070737319 0.3961746745
23600158400.0 -0.9012921397 0.4080828433
23650158100.0 -0.8950562298 0.4204170089
23700157800.0 -0.8888880892 0.4325625493
23750157500.0 -0.882439616 0.444751026
23800157200.0 -0.8768993219 0.456714989
23850156900.0 -0.8708905165 0.4681718406
23900156600.0 -0.8647522983 0.4800690225
23950156300.0 -0.8583971421 0.4924149451
24000156000.0 -0.8525963945 0.5039285338
24050155700.0 -0.8449543762 0.5148269628
24100155400.0 -0.8391631548 0.5263383313
24150155100.0 -0.8327759321 0.5375322329
24200154800.0 -0.8262801211 0.5483587813
24250154500.0 -0.8191975702 0.5596296902
24300154200.0 -0.812614586 0.5704214949
24350153900.0 -0.8058385131 0.5813270843
24400153600.0 -0.7982160421 0.592183907
24450153300.0 -0.7903107673 0.6032085285
24500153000.0 -0.7825616819 0.6134300023
24550152700.0 -0.7749563335 0.6239602306
24600152400.0 -0.7662109055 0.6345049067
