!Created with skrf (http://scikit-rf.org).
# Hz S RI R 50.0 
!freq ReS11 ImS11
300000.0 -0.9792903644 -0.1091272644
50299700.0 -1.000111455 0.0158020367
100299400.0 -0.9981473907 0.0287976354
150299100.0 -1.002939047 0.0456822273
200298800.0 -0.9998155892 0.0588199015
250298500.0 -0.9974459709 0.0726479839
300298200.0 -0.986044902 0.0883048066
350297900.0 -0.9939297736 0.0991783751
400297600.0 -0.9930829076 0.1158304334
450297300.0 -0.9909512267 0.1296499255
500297000.0 -0.9895684075 0.1445978271
550296700.0 -0.9842473859 0.1567459169
600296400.0 -1.017415843 0.1902018594
650296100.0 -0.9822785783 0.1868670617
700295800.0 -0.9792437957 0.2011611163
750295500.0 -0.9761424585 0.2149196277
800295200.0 -0.9729723551 0.229207287
850294900.0 -0.9696465938 0.2430060304
900294600.0 -0.9656009847 0.2568479001
950294300.0 -0.9619360277 0.2703357109
1000294000.0 -0.9581857259 0.2843359558
1050293700.0 -0.9535777884 0.2983797759
1100293400.0 -0.949071187 0.3127033002
1150293100.0 -0.9453915499 0.3245300342
1200292800.0 -0.9399992505 0.3389754259
1250292500.0 -0.9345528895 0.3523100627
1300292200.0 -0.9287373076 0.365480642
1350291900.0 -0.9232786126 0.3795563743
1400291600.0 -0.9177972501 0.3926567648
1450291300.0 -0.912170971 0.4050532374
1500291000.0 -0.9059999271 0.4184343203
1550290700.0 -0.8994442565 0.4318556917
1600290400.0 -0.8932042719 0.4445493225
1650290100.0 -0.8864929134 0.456811446
1700289800.0 -0.8796829409 0.4701123474
1750289500.0 -0.8726620486 0.4825645564
1800289200.0 -0.8652558107 0.4952537119
1850288900.0 -0.858414867 0.5068224098
1900288600.0 -0.8505917993 0.519814801
1950288300.0 -0.8427960459 0.5325165118
2000288000.0 -0.8350358858 0.5436278261
2050287700.0 -0.8267275708 0.5559152212
2100287400.0 -0.8187720444 0.5676918297
2150287100.0 -0.810238677 0.5797815225
2200286800.0 -0.8025223835 0.5900406225
2250286500.0 -0.7936929281 0.6022607974
2300286200.0 -0.7845356105 0.6139216627
2350285900.0 -0.7760179938 0.6250035089
2400285600.0 -0.766954461 0.635545978
2450285300.0 -0.7585433932 0.6462050801
2500285000.0 -0.7485843902 0.6572585489
2550284700.0 -0.7396147211 0.6676692903
2600284400.0 -0.7301526484 0.6779944129
2650284100.0 -0.7213396415 0.6884107094
2700283800.0 -0.7106767498 0.6988985793
2750283500.0 -0.7003259178 0.7095896206
2800283200.0 -0.6905178953 0.7192441914
2850282900.0 -0.6802494208 0.729030536
2900282600.0 -0.67009172 0.738556269
2950282300.0 -0.6597245613 0.7478087109
3000282000.0 -0.6492902981 0.7571933268
3050281700.0 -0.6379324222 0.7665723827
3100281400.0 -0.6259597241 0.7760306361
3150281100.0 -0.614282536 0.7853634926
3200280800.0 -0.6027262951 0.7939938978
3250280500.0 -0.5919371011 0.8014018986
3300280200.0 -0.5807104277 0.809508546
3350279900.0 -0.5689836236 0.8170446419
3400279600.0 -0.5568543146 0.8244891817
3450279300.0 -0.5457790486 0.8317623176
3500279000.0 -0.5336502785 0.838710486
3550278700.0 -0.5214176127 0.8461922475
3600278400.0 -0.508874448 0.8530769978
3650278100.0 -0.4957025604 0.8607380035
3700277800.0 -0.4836098452 0.8672835131
3750277500.0 -0.471416721 0.8737920826
3800277200.0 -0.4590648697 0.8803560032
3850276900.0 -0.4469745191 0.8862938925
3900276600.0 -0.4361171277 0.8918953352
3950276300.0 -0.4235625787 0.8979075169
4000276000.0 -0.4114249928 0.9040345571
4050275700.0 -0.3987168789 0.910017468
4100275400.0 -0.3873654296 0.9151672864
4150275100.0 -0.3744468335 0.9210256248
4200274800.0 -0.3617472651 0.9264605777
4250274500.0 -0.3494322133 0.931625867
4300274200.0 -0.3364992195 0.9369800376
4350273900.0 -0.3226781079 0.9419959384
4400273600.0 -0.3077365295 0.9474658338
4450273300.0 -0.292345467 0.9524402863
4500273000.0 -0.2787584307 0.9569655266
4550272700.0 -0.2645286318 0.9611138935
4600272400.0 -0.2490084185 0.9653077841
4650272100.0 -0.2372785902 0.9684791338
4700271800.0 -0.2241394955 0.9719613589
4750271500.0 -0.21231486 0.9746922793
4800271200.0 -0.1998918968 0.9775434635
4850270900.0 -0.1860061131 0.980320965
4900270600.0 -0.1721245011 0.9826885872
4950270300.0 -0.1579567366 0.9853612488
5000270000.0 -0.1435683631 0.9872017408
5050269700.0 -0.1301401979 0.988656066
5100269400.0 -0.1165805382 0.9905141876
5150269100.0 -0.1034225166 0.9921511735
5200268800.0 -0.0898473356 0.9929976662
5250268500.0 -0.076894662 0.9940212053
5300268200.0 -0.0639490569 0.9947435634
5350267900.0 -0.0516281628 0.9949296352
5400267600.0 -0.0354845997 0.9963477518
5450267300.0 -0.0221689783 0.9968257938
5500267000.0 -0.0071327795 0.997225714
5550266700.0 0.0078516624 0.9970847571
5600266400.0 0.02360334 0.9973872853
5650266100.0 0.0398818558 0.9967677671
5700265800.0 0.0544922477 0.9962406604
5750265500.0 0.0697207361 0.9957102762
5800265200.0 0.0838773911 0.9944110667
5850264900.0 0.0969371366 0.9931824648
5900264600.0 0.1136231754 0.9917156736
5950264300.0 0.1257454957 0.9898757428
6000264000.0 0.1396772048 0.9879613064
6050263700.0 0.1520797646 0.9866911277
6100263400.0 0.1643642058 0.9847002539
6150263100.0 0.1790945644 0.9821445685
6200262800.0 0.1894976229 0.9806793099
6250262500.0 0.2020912263 0.9781304657
6300262200.0 0.215038463 0.9753605289
6350261900.0 0.2280797456 0.9725389739
6400261600.0 0.2420224915 0.9691813833
6450261300.0 0.2532841054 0.9662845456
6500261000.0 0.2657409746 0.9627608717
6550260700.0 0.2790868695 0.9586677438
6600260400.0 0.2922210204 0.9545755803
6650260100.0 0.306078786 0.9505047291
6700259800.0 0.3181446775 0.946013116
6750259500.0 0.3319553462 0.941138825
6800259200.0 0.344882748 0.9362382531
6850258900.0 0.3570860629 0.9312578359
6900258600.0 0.3690663892 0.9259812115
6950258300.0 0.3815976266 0.9206949127
7000258000.0 0.393785149 0.9155623142
7050257700.0 0.4060113277 0.9093702604
7100257400.0 0.4187895155 0.9031293698
7150257100.0 0.4292413359 0.8978356926
7200256800.0 0.4418349435 0.8914645434
7250256500.0 0.4535100473 0.8849640729
7300256200.0 0.4668386022 0.878439549
7350255900.0 0.4791730636 0.8714963356
7400255600.0 0.4929010293 0.8642729308
7450255300.0 0.5075653198 0.8550161718
7500255000.0 0.5194355432 0.8479472341
7550254700.0 0.5333575437 0.8394069026
7600254400.0 0.5457525881 0.8310198
7650254100.0 0.5573730923 0.8232561896
7700253800.0 0.5695503378 0.8152259422
7750253500.0 0.5805854265 0.807517636
7800253200.0 0.5913481459 0.7996275555
7850252900.0 0.6009224169 0.792755892
7900252600.0 0.6126059396 0.7839746849
7950252300.0 0.6213498204 0.7773668958
8000252000.0 0.6317139496 0.769588911
8050251700.0 0.6419059524 0.7614030282
8100251400.0 0.6521432459 0.7532930256
8150251100.0 0.6625500147 0.7445391476
8200250800.0 0.671594994 0.7366497062
8250250500.0 0.6806361111 0.7286525321
8300250200.0 0.6900731493 0.719917677
8350249900.0 0.6989733278 0.7111955414
8400249600.0 0.7070716968 0.7032461494
8450249300.0 0.7163749691 0.6940463467
8500249000.0 0.7248324459 0.685236178
8550248700.0 0.7332755521 0.676029533
8600248400.0 0.7416520365 0.6668831259
8650248100.0 0.7491588662 0.6573500637
8700247800.0 0.7588161229 0.6460968756
8750247500.0 0.7670678889 0.6360923292
8800247200.0 0.7751203474 0.6258345876
8850246900.0 0.7839754018 0.6143149712
8900246600.0 0.7924856678 0.6029512124
8950246300.0 0.8021294984 0.5899372075
9000246000.0 0.8114396448 0.5771030622
9050245700.0 0.8204193453 0.5641679412
9100245400.0 0.8288510806 0.5515833919
9150245100.0 0.8380267129 0.5381069352
9200244800.0 0.8483290058 0.5226489976
9250244500.0 0.8575202927 0.5070718503
9300244200.0 0.8661267707 0.4923810317
9350243900.0 0.8737847577 0.4785430564
9400243600.0 0.8803489937 0.4662060133
9450243300.0 0.8865295681 0.4543472602
9500243000.0 0.8925586 0.442142326
9550242700.0 0.8962330859 0.4344978982
9600242400.0 0.9000573664 0.4272295626
9650242100.0 0.9036881199 0.4206382559
9700241800.0 0.9083397229 0.4122698176
9750241500.0 0.9122659497 0.4050541577
9800241200.0 0.9170015732 0.3957013155
9850240900.0 0.9223260552 0.3839906241
9900240600.0 0.9280852603 0.3725612976
9950240300.0 0.9346836396 0.3562099128
10000240000.0 0.9396182478 0.3446587963
10050239700.0 0.9448406798 0.3296399943
10100239400.0 0.9502341465 0.3139694541
10150239100.0 0.9541813394 0.2994496775
10200238800.0 0.9586302615 0.2842446888
10250238500.0 0.9617640491 0.270935387
10300238200.0 0.9649951563 0.2570570506
10350237900.0 0.9675102906 0.2438373561
10400237600.0 0.9700027859 0.2308839759
10450237300.0 0.9727926656 0.217294424
10500237000.0 0.9748954897 0.2049697315
10550236700.0 0.9774522816 0.1912758641
10600236400.0 0.9795214304 0.1771500329
10650236100.0 0.9812961753 0.1633860752
10700235800.0 0.9838347572 0.1506830076
10750235500.0 0.9857090609 0.1376768377
10800235200.0 0.9879698267 0.1233900749
10850234900.0 0.9897733445 0.1091689192
10900234600.0 0.9917839919 0.0942397664
10950234300.0 0.9933825367 0.0810612494
11000234000.0 0.9952857171 0.0658449296
11050233700.0 0.9970650973 0.0494447783
11100233400.0 0.9985129131 0.0319024069
11150233100.0 0.99974355 0.0159146927
11200232800.0 0.9999269937 0.0002264505
11250232500.0 1.0015172 -0.0163821309
11300232200.0 1.001849336 -0.0343713112
11350231900.0 1.001744161 -0.0502094041
11400231600.0 1.001236844 -0.0654902197
11450231300.0 1.00127519 -0.0818229515
11500231000.0 0.9998135215 -0.0974380651
11550230700.0 0.9978923014 -0.1104801817
11600230400.0 0.9967517164 -0.1234697894
11650230100.0 0.9943935472 -0.13558752
11700229800.0 0.9926395125 -0.1493289095
11750229500.0 0.9903145339 -0.1645094304
11800229200.0 0.9875764697 -0.1781091641
11850228900.0 0.9839668445 -0.1902038505
11900228600.0 0.9804852518 -0.2002132808
11950228300.0 0.9773094784 -0.2101023222
12000228000.0 0.9744286234 -0.2195499002
12050227700.0 0.9707792292 -0.2325143923
12100227400.0 0.9676697226 -0.2434435062
12150227100.0 0.9623250992 -0.2599014396
12200226800.0 0.958955371 -0.2702619833
12250226500.0 0.9552753844 -0.2829750299
12300226200.0 0.9507853944 -0.2960100945
12350225900.0 0.9459502185 -0.3094235673
12400225600.0 0.9413223978 -0.3221199027
12450225300.0 0.937429095 -0.3348289576
12500225000.0 0.931772139 -0.34981118
12550224700.0 0.9265439948 -0.3630270677
12600224400.0 0.9217856746 -0.376105233
12650224100.0 0.9159475821 -0.390300717
12700223800.0 0.9107260004 -0.4030355544
12750223500.0 0.9051056089 -0.4159978204
12800223200.0 0.8996891011 -0.4289407125
12850222900.0 0.8944519547 -0.44071753
12900222600.0 0.8888826245 -0.452715549
12950222300.0 0.8823621286 -0.4660801154
13000222000.0 0.876915703 -0.4768203357
13050221700.0 0.8700331493 -0.4895970348
13100221400.0 0.8630962058 -0.5019187142
13150221100.0 0.8558879223 -0.5141002587
13200220800.0 0.8486848273 -0.5258756361
13250220500.0 0.8419556656 -0.5380784934
13300220200.0 0.8344339789 -0.548736141
13350219900.0 0.8261816738 -0.5608600102
13400219600.0 0.8175776036 -0.5731169272
13450219300.0 0.8082664617 -0.5867053545
13500219000.0 0.7978943989 -0.600608148
13550218700.0 0.7879978825 -0.613407527
13600218400.0 0.7780327881 -0.6258350943
13650218100.0 0.7674182097 -0.6368110716
13700217800.0 0.7570694693 -0.6487506516
13750217500.0 0.7469381043 -0.6607284172
13800217200.0 0.7349202414 -0.6723004013
13850216900.0 0.724625836 -0.6827788601
13900216600.0 0.7146185742 -0.6926394082
13950216300.0 0.7037598167 -0.7028237368
14000216000.0 0.6939376983 -0.7118093493
14050215700.0 0.6840659731 -0.7201571173
14100215400.0 0.6740297431 -0.7293895264
14150215100.0 0.6651473184 -0.7375552052
14200214800.0 0.6559061254 -0.7462861639
14250214500.0 0.6455583318 -0.7555075328
14300214200.0 0.6352006918 -0.764788142
14350213900.0 0.6241507588 -0.7741912794
14400213600.0 0.6124858329 -0.7840592997
14450213300.0 0.5993795592 -0.7942396665
14500213000.0 0.5867273931 -0.80409412
14550212700.0 0.5739664049 -0.8134957331
14600212400.0 0.561191674 -0.8221594524
14650212100.0 0.5484665746 -0.8306420175
14700211800.0 0.5340726179 -0.8405858412
14750211500.0 0.5223698372 -0.8483761075
14800211200.0 0.5102316716 -0.8564361386
14850210900.0 0.497986618 -0.8639387592
14900210600.0 0.4845482318 -0.872070508
14950210300.0 0.4709468624 -0.8797466844
15000210000.0 0.4581229191 -0.8866254225
15050209700.0 0.4457727967 -0.8927970042
15100209400.0 0.4329316473 -0.8987678449
15150209100.0 0.4207988154 -0.9041728229
15200208800.0 0.407781907 -0.9090583838
15250208500.0 0.3962504071 -0.9142132077
15300208200.0 0.3844949893 -0.9182996024
15350207900.0 0.3703611321 -0.9233901785
15400207600.0 0.3558579081 -0.9283608147
15450207300.0 0.3412931132 -0.9335386696
15500207000.0 0.3271649616 -0.9384114676
15550206700.0 0.3116869234 -0.943097636
15600206400.0 0.2957887974 -0.9476386624
15650206100.0 0.2805336172 -0.9523620598
15700205800.0 0.2660996578 -0.9558963677
15750205500.0 0.2515876878 -0.9591958469
15800205200.0 0.2372238006 -0.962673677
15850204900.0 0.2229446372 -0.9661093867
15900204600.0 0.2080026647 -0.9696397003
15950204300.0 0.1938180162 -0.9727479519
16000204000.0 0.1798224408 -0.975539
16050203700.0 0.1646491768 -0.9783636119
16100203400.0 0.1505479173 -0.9803223661
16150203100.0 0.1361035754 -0.9823069716
16200202800.0 0.1218793233 -0.9846267779
16250202500.0 0.1074310099 -0.9863361445
16300202200.0 0.0922842138 -0.9877687086
16350201900.0 0.0771435767 -0.9890484433
16400201600.0 0.0629236797 -0.9900946553
16450201300.0 0.0477201563 -0.9913905779
16500201000.0 0.0311187691 -0.992062048
16550200700.0 0.0154858357 -0.9924183119
16600200400.0 -0.0006485638 -0.9926308184
16650200100.0 -0.0165703707 -0.9927015229
16700199800.0 -0.0331914206 -0.9920307072
16750199500.0 -0.0519821376 -0.9913766325
16800199200.0 -0.0675203028 -0.9907212555
16850198900.0 -0.0828557061 -0.9891221158
16900198600.0 -0.0963468422 -0.9884228234
16950198300.0 -0.1104455907 -0.9874527454
17000198000.0 -0.1228486441 -0.9860887914
17050197700.0 -0.135560065 -0.9835692295
17100197400.0 -0.1484042755 -0.9816623164
17150197100.0 -0.1613732475 -0.979417511
17200196800.0 -0.1742719692 -0.9777592184
17250196500.0 -0.186849366 -0.9752201929
17300196200.0 -0.1992425012 -0.972931309
17350195900.0 -0.2109702435 -0.9705484374
17400195600.0 -0.2232253501 -0.9681159741
17450195300.0 -0.2364920223 -0.965283441
17500195000.0 -0.2498002043 -0.9619809004
17550194700.0 -0.2635884246 -0.9584915246
17600194400.0 -0.2774933108 -0.9543181073
17650194100.0 -0.2912000145 -0.9499363776
17700193800.0 -0.3041121864 -0.945926984
17750193500.0 -0.3188068874 -0.9414602588
17800193200.0 -0.3330554086 -0.9361584507
17850192900.0 -0.3479328949 -0.9306388517
17900192600.0 -0.3627815731 -0.9246270736
17950192300.0 -0.3786652043 -0.9174350404
18000192000.0 -0.393187003 -0.9104121066
18050191700.0 -0.407215809 -0.902458368
18100191400.0 -0.4213537447 -0.894594431
18150191100.0 -0.4363080407 -0.8866212238
18200190800.0 -0.4532753643 -0.8771552992
18250190500.0 -0.470153007 -0.8679219923
18300190200.0 -0.4857916256 -0.8591224788
18350189900.0 -0.5002712411 -0.8506695704
18400189600.0 -0.5150198875 -0.8423369923
18450189300.0 -0.5283184348 -0.833815177
18500189000.0 -0.541417713 -0.8264666459
18550188700.0 -0.5546564406 -0.8188703541
18600188400.0 -0.5657071545 -0.8119721872
18650188100.0 -0.577249469 -0.8053321704
18700187800.0 -0.5880469894 -0.7989870016
18750187500.0 -0.5984127319 -0.7921978593
18800187200.0 -0.6091630606 -0.785269748
18850186900.0 -0.6195646844 -0.7782602065
18900186600.0 -0.6298410588 -0.7706060509
18950186300.0 -0.6398584604 -0.7631404015
19000186000.0 -0.647092589 -0.7568339531
19050185700.0 -0.6566429721 -0.749594609
19100185400.0 -0.6662997296 -0.7407392535
19150185100.0 -0.6762636378 -0.7322319874
19200184800.0 -0.6864764277 -0.7241054929
19250184500.0 -0.6967294904 -0.7145466278
19300184200.0 -0.7078850283 -0.7051207262
19350183900.0 -0.7182745004 -0.6953261813
19400183600.0 -0.7284664208 -0.6856119244
19450183300.0 -0.7376640439 -0.6753708732
19500183000.0 -0.7453265048 -0.665888926
19550182700.0 -0.7552356431 -0.6548398339
19600182400.0 -0.7655648307 -0.6427456246
19650182100.0 -0.7764096214 -0.6306818042
19700181800.0 -0.7868099479 -0.6174913152
19750181500.0 -0.7974792377 -0.6034639143
19800181200.0 -0.807635677 -0.5884770338
19850180900.0 -0.8173263585 -0.5729856378
19900180600.0 -0.8250039217 -0.5585347515
19950180300.0 -0.8342663955 -0.5423606038
20000180000.0 -0.8266623349 -0.5455825411
20050179700.0 -0.8342306593 -0.5325631013
20100179400.0 -0.8436266984 -0.5177374685
20150179100.0 -0.8520696167 -0.5056135001
20200178800.0 -0.8600426084 -0.4936582776
20250178500.0 -0.8702714433 -0.4799591929
20300178200.0 -0.8797358265 -0.4648596659
20350177900.0 -0.888225109 -0.4499859965
20400177600.0 -0.8975348687 -0.4358420662
20450177300.0 -0.9053623008 -0.4213207653
20500177000.0 -0.9136542571 -0.4075559717
20550176700.0 -0.9215110955 -0.3938800536
20600176400.0 -0.9282254933 -0.3808467098
20650176100.0 -0.9356636745 -0.3682945705
20700175800.0 -0.941692507 -0.3565559546
20750175500.0 -0.948567677 -0.3444530465
20800175200.0 -0.9527832816 -0.3333696616
20850174900.0 -0.9582157412 -0.3224683528
20900174600.0 -0.9626717517 -0.3105403306
20950174300.0 -0.9669820923 -0.299735432
21000174000.0 -0.9705670616 -0.2880846709
21050173700.0 -0.9727798831 -0.2771813301
21100173400.0 -0.9771379374 -0.2647322153
21150173100.0 -0.9814493873 -0.2525276924
21200172800.0 -0.9851659358 -0.2386397331
21250172500.0 -0.9875967463 -0.2247306542
21300172200.0 -0.9910586983 -0.2109441774
21350171900.0 -0.9920891353 -0.1965475505
21400171600.0 -0.9932513325 -0.1819036349
21450171300.0 -0.9937154649 -0.1671933507
21500171000.0 -0.9931311147 -0.1520627641
21550170700.0 -0.9926342226 -0.1369666697
21600170400.0 -0.992792501 -0.121492575
21650170100.0 -0.9917900305 -0.1046953656
21700169800.0 -0.9908365357 -0.090212133
21750169500.0 -0.9893213935 -0.0745851337
21800169200.0 -0.9885577323 -0.0588115424
21850168900.0 -0.9863540854 -0.0421146755
21900168600.0 -0.9856798132 -0.0248657072
21950168300.0 -0.9841034022 -0.0095232493
22000168000.0 -0.9830142102 0.0053468787
22050167700.0 -0.9828519717 0.0196487381
22100167400.0 -0.9823189419 0.0348465997
22150167100.0 -0.9833507698 0.0497805765
22200166800.0 -0.9836388027 0.0667186328
22250166500.0 -0.9834149344 0.0837395054
22300166200.0 -0.9823729104 0.0995699946
22350165900.0 -0.9812615375 0.1166961895
22400165600.0 -0.9784653209 0.131541232
22450165300.0 -0.977111727 0.1472492419
22500165000.0 -0.9756574631 0.1613619927
22550164700.0 -0.9741621615 0.1761059051
22600164400.0 -0.972646195 0.1915477845
22650164100.0 -0.9707860994 0.2066827954
22700163800.0 -0.9680361176 0.2233286847
22750163500.0 -0.9657952997 0.2380611674
22800163200.0 -0.9625369225 0.2516295722
22850162900.0 -0.9603345385 0.2649312013
22900162600.0 -0.9588868019 0.2782066177
22950162300.0 -0.9577264794 0.2909866063
23000162000.0 -0.9568734558 0.302348579
23050161700.0 -0.9545234167 0.3154937818
23100161400.0 -0.9524702144 0.327983322
23150161100.0 -0.9495458504 0.3404095452
23200160800.0 -0.9467947037 0.3522574689
23250160500.0 -0.9444065503 0.3640412981
23300160200.0 -0.9414836516 0.376775753
23350159900.0 -0.9371768003 0.3893578745
23400159600.0 -0.9328419751 0.4023499634
23450159300.0 -0.9281929412 0.4160210329
23500159000.0 -0.923382728 0.42806528
23550158700.0 -0.9189251408 0.4418054848
23600158400.0 -0.9135557046 0.4548628008
23650158100.0 -0.9074058147 0.4688786794
23700157800.0 -0.8997742628 0.4827579176
23750157500.0 -0.8908360742 0.4967383869
23800157200.0 -0.8824073915 0.5102263984
23850156900.0 -0.8744645821 0.52295777
23900156600.0 -0.8638345255 0.5350717209
23950156300.0 -0.8549279217 0.5474167431
24000156000.0 -0.8460216427 0.5595284869
24050155700.0 -0.8364639201 0.5709864744
24100155400.0 -0.8250927568 0.5834416595
24150155100.0 -0.8147264965 0.5954013097
24200154800.0 -0.8039477014 0.6069524111
24250154500.0 -0.7920562107 0.618533053
24300154200.0 -0.7810418997 0.6294466183
24350153900.0 -0.7690061739 0.6402608934
24400153600.0 -0.7569998455 0.6508009578
24450153300.0 -0.7448741171 0.660572444
24500153000.0 -0.7330582211 0.669925732
24550152700.0 -0.7222456951 0.6798929758
24600152400.0 -0.7102250873 0.688876186
24650152100.0 -0.698857009 0.6970053964
