!Created with skrf (http://scikit-rf.org).
# Hz S RI R 50.0 
!freq ReS11 ImS11
300000.0 -0.9743520102 -0.1210001242
50299700.0 -1.000019463 0.0150181643
100299400.0 -0.9979214729 0.0278447555
150299100.0 -1.002746192 0.0449138199
200298800.0 -0.9996343632 0.0580819258
250298500.0 -0.9973947164 0.0715684005
300298200.0 -0.9859183247 0.0875988555
350297900.0 -0.9939194611 0.0983036579
400297600.0 -0.9933213474 0.1149144846
450297300.0 -0.9909217799 0.1286123963
500297000.0 -0.9893968548 0.1434121942
550296700.0 -0.9843968875 0.1558227868
600296400.0 -1.017197915 0.1892140931
650296100.0 -0.982262765 0.1857742863
700295800.0 -0.9794837679 0.199969794
750295500.0 -0.976212598 0.2140095499
800295200.0 -0.9729549519 0.2280905043
850294900.0 -0.9696717873 0.2419601924
900294600.0 -0.9658042126 0.2558657262
950294300.0 -0.9618209003 0.2694585201
1000294000.0 -0.9581035108 0.28352478
1050293700.0 -0.9535681107 0.2972240446
1100293400.0 -0.9494151184 0.3114960535
1150293100.0 -0.9456331939 0.323516287
1200292800.0 -0.9402487918 0.3378287591
1250292500.0 -0.9346994402 0.3512913122
1300292200.0 -0.9290410769 0.36448033
1350291900.0 -0.9233453706 0.3785348787
1400291600.0 -0.9179981348 0.391593816
1450291300.0 -0.9122423816 0.4041433229
1500291000.0 -0.9062345464 0.4172713125
1550290700.0 -0.8997006793 0.4308071029
1600290400.0 -0.8934734947 0.4436279994
1650290100.0 -0.8865950646 0.4558611816
1700289800.0 -0.8799407744 0.4694130463
1750289500.0 -0.8730073113 0.4815170972
1800289200.0 -0.8654577861 0.4945571797
1850288900.0 -0.8586987183 0.5058487515
1900288600.0 -0.8510853877 0.5187650986
1950288300.0 -0.8429972453 0.531603654
2000288000.0 -0.8354768913 0.5427635178
2050287700.0 -0.8272104995 0.5552056147
2100287400.0 -0.8195788975 0.5665082526
2150287100.0 -0.8109900902 0.5788012314
2200286800.0 -0.8029139873 0.5893259901
2250286500.0 -0.7939783544 0.6014813037
2300286200.0 -0.785411638 0.6129468534
2350285900.0 -0.7767232387 0.6236530234
2400285600.0 -0.7677512525 0.6345925511
2450285300.0 -0.7591455018 0.6452249804
2500285000.0 -0.7491601779 0.6567939288
2550284700.0 -0.7401589 0.6670289502
2600284400.0 -0.7311522384 0.6769892026
2650284100.0 -0.722088662 0.6873844193
2700283800.0 -0.71197432 0.6976937584
2750283500.0 -0.7011043015 0.7081471705
2800283200.0 -0.6913908995 0.7184756441
2850282900.0 -0.6810054684 0.728096413
2900282600.0 -0.6707621341 0.7377846912
2950282300.0 -0.6602025431 0.7472640197
3000282000.0 -0.649488904 0.756749848
3050281700.0 -0.6384184023 0.7660666386
3100281400.0 -0.6266274065 0.7749804951
3150281100.0 -0.615353484 0.7840493296
3200280800.0 -0.6040779686 0.792585446
3250280500.0 -0.5929152171 0.800438293
3300280200.0 -0.5814377761 0.808518098
3350279900.0 -0.569316804 0.8164205991
3400279600.0 -0.5565842185 0.8245494504
3450279300.0 -0.5457123984 0.8315558799
3500279000.0 -0.5340693248 0.8384820496
3550278700.0 -0.5219083023 0.845815061
3600278400.0 -0.5099112493 0.8525140826
3650278100.0 -0.4967757448 0.8601034941
3700277800.0 -0.4847499639 0.8667479656
3750277500.0 -0.4722063434 0.8734044143
3800277200.0 -0.4596444044 0.879832461
3850276900.0 -0.4476948086 0.885623066
3900276600.0 -0.4369011239 0.8912685493
3950276300.0 -0.4247927259 0.8971995652
4000276000.0 -0.4130117892 0.9031730901
4050275700.0 -0.4004077726 0.9093855461
4100275400.0 -0.3892137514 0.9144507207
4150275100.0 -0.3759279916 0.9204734768
4200274800.0 -0.3627430202 0.9262265148
4250274500.0 -0.3500716531 0.9314811865
4300274200.0 -0.3369051896 0.9368389236
4350273900.0 -0.3225613867 0.9422807574
4400273600.0 -0.3080391399 0.9472972975
4450273300.0 -0.2929821027 0.9522615068
4500273000.0 -0.2796151742 0.9562425075
4550272700.0 -0.2660626851 0.9606945412
4600272400.0 -0.2510368802 0.9648194797
4650272100.0 -0.239581948 0.9679628728
4700271800.0 -0.2264948489 0.97122196
4750271500.0 -0.2148782881 0.9742292697
4800271200.0 -0.2025603001 0.9767328037
4850270900.0 -0.1887623265 0.9796369523
4900270600.0 -0.174895253 0.9818830056
4950270300.0 -0.1603258044 0.9845486841
5000270000.0 -0.1458372981 0.9868503228
5050269700.0 -0.1325608712 0.9883880592
5100269400.0 -0.1182165884 0.9900319433
5150269100.0 -0.1046971747 0.9921249549
5200268800.0 -0.091316039 0.9930369812
5250268500.0 -0.0780536304 0.9939862248
5300268200.0 -0.0647129221 0.9945572175
5350267900.0 -0.0522227943 0.9952315906
5400267600.0 -0.0358229239 0.9961831994
5450267300.0 -0.0224671592 0.9965444943
5500267000.0 -0.0071381952 0.9970808405
5550266700.0 0.0079389181 0.9971207575
5600266400.0 0.0236599662 0.9972391267
5650266100.0 0.0402855836 0.9966668705
5700265800.0 0.0546053248 0.9960797553
5750265500.0 0.0695528205 0.9950487105
5800265200.0 0.0832266789 0.994127901
5850264900.0 0.0964298631 0.9936493127
5900264600.0 0.1128190416 0.9914205278
5950264300.0 0.1243805572 0.9894723843
6000264000.0 0.1383392881 0.9878440785
6050263700.0 0.1499784254 0.9867301834
6100263400.0 0.1622262491 0.984820407
6150263100.0 0.1769970294 0.982702848
6200262800.0 0.1864726556 0.9809506029
6250262500.0 0.1992977097 0.9787101244
6300262200.0 0.2116576399 0.9760876543
6350261900.0 0.2243782435 0.9733844388
6400261600.0 0.2382985043 0.9698920757
6450261300.0 0.2495832492 0.9676006039
6500261000.0 0.2628183387 0.9639330466
6550260700.0 0.2756722533 0.9598626431
6600260400.0 0.2891082673 0.9556811518
6650260100.0 0.3033524235 0.9516608745
6700259800.0 0.3153303561 0.9470797245
6750259500.0 0.3291404522 0.9420687572
6800259200.0 0.3425840617 0.9373352509
6850258900.0 0.3552289783 0.9322268478
6900258600.0 0.3672983064 0.926688293
6950258300.0 0.3798350718 0.9214808696
7000258000.0 0.391516086 0.916372204
7050257700.0 0.4035124384 0.9103261967
7100257400.0 0.4167565669 0.9039899751
7150257100.0 0.4276586383 0.8985434762
7200256800.0 0.4405416748 0.8922013171
7250256500.0 0.4533023651 0.8857498524
7300256200.0 0.4656294494 0.8785642308
7350255900.0 0.4785731553 0.8716916523
7400255600.0 0.4927333557 0.8643026387
7450255300.0 0.5084588645 0.8551476468
7500255000.0 0.5205671016 0.8477255679
7550254700.0 0.5348304184 0.8386271545
7600254400.0 0.5470161038 0.8303877482
7650254100.0 0.5586333822 0.8222149408
7700253800.0 0.5701733717 0.8145736356
7750253500.0 0.5813486949 0.806726179
7800253200.0 0.592274953 0.7990031941
7850252900.0 0.6021227193 0.7918365291
7900252600.0 0.6135077182 0.7829941966
7950252300.0 0.6218604228 0.7766711842
8000252000.0 0.6319944103 0.768971209
8050251700.0 0.6422454835 0.760838969
8100251400.0 0.6520331039 0.7529728999
8150251100.0 0.6619015101 0.7444923315
8200250800.0 0.6718276938 0.7362353411
8250250500.0 0.6804934762 0.7283706927
8300250200.0 0.6898128335 0.7199211583
8350249900.0 0.6989353716 0.7111632468
8400249600.0 0.707120176 0.7033422378
8450249300.0 0.7154774829 0.6943207142
8500249000.0 0.7242337823 0.685436338
8550248700.0 0.7325653629 0.6765774588
8600248400.0 0.7410760158 0.6669677576
8650248100.0 0.7485502692 0.6574893417
8700247800.0 0.75795036 0.6465805797
8750247500.0 0.7662899132 0.6364903828
8800247200.0 0.7744637627 0.6260538893
8850246900.0 0.7829334377 0.6145009975
8900246600.0 0.7913570828 0.6033044909
8950246300.0 0.8005947398 0.5905317615
9000246000.0 0.8091405382 0.5786771304
9050245700.0 0.8180451256 0.5659166667
9100245400.0 0.8263824369 0.5537804789
9150245100.0 0.8352970252 0.5407325817
9200244800.0 0.8448184227 0.5261738346
9250244500.0 0.8541002866 0.5114339871
9300244200.0 0.8620983592 0.4976837324
9350243900.0 0.8697661294 0.4843104795
9400243600.0 0.8765342817 0.4723958455
9450243300.0 0.8820457236 0.461614277
9500243000.0 0.8883087083 0.4498111522
9550242700.0 0.8923009653 0.4424220616
9600242400.0 0.8963143118 0.4347599508
9650242100.0 0.900306454 0.4283548526
9700241800.0 0.9052815814 0.4194628917
9750241500.0 0.9096783098 0.4116904588
9800241200.0 0.9145344336 0.4025178959
9850240900.0 0.9203129956 0.3909021614
9900240600.0 0.9262750808 0.3788834336
9950240300.0 0.9331253686 0.3624176036
10000240000.0 0.9377743674 0.3506088057
10050239700.0 0.9441393648 0.3342195811
10100239400.0 0.9492693677 0.3182764355
10150239100.0 0.9537898089 0.3029414716
10200238800.0 0.9584875646 0.2873399791
10250238500.0 0.9612231966 0.2739833498
10300238200.0 0.9646789063 0.2601222047
10350237900.0 0.9675044348 0.2465735202
10400237600.0 0.9699279182 0.2333933005
10450237300.0 0.9728555954 0.2196527799
10500237000.0 0.9749219296 0.2078162623
10550236700.0 0.9770750145 0.192602887
10600236400.0 0.9794347636 0.1793342572
10650236100.0 0.9816742678 0.1643168244
10700235800.0 0.983448736 0.1526497921
10750235500.0 0.9856693244 0.1387666546
10800235200.0 0.9882670642 0.1244494785
10850234900.0 0.9898510802 0.1095541774
10900234600.0 0.9919605166 0.094740419
10950234300.0 0.9937458793 0.0813547859
11000234000.0 0.9956012052 0.065763959
11050233700.0 0.9973187141 0.0492727614
11100233400.0 0.9987612715 0.0313868628
11150233100.0 0.999709274 0.0152144543
11200232800.0 1.000205562 -0.0015766696
11250232500.0 1.001503564 -0.0188003625
11300232200.0 1.002467646 -0.0373693005
11350231900.0 1.001699448 -0.0523316213
11400231600.0 1.001946218 -0.0693082866
11450231300.0 1.000667618 -0.0839804708
11500231000.0 0.9996264157 -0.1003396256
11550230700.0 0.9979798762 -0.1140644587
11600230400.0 0.9966784619 -0.1266981686
11650230100.0 0.9948852051 -0.1380717334
11700229800.0 0.9926237146 -0.1527030567
11750229500.0 0.9901660362 -0.1671676798
11800229200.0 0.9875867459 -0.1804895726
11850228900.0 0.9838844992 -0.1924999257
11900228600.0 0.9799670399 -0.2019208095
11950228300.0 0.9767886995 -0.2120725526
12000228000.0 0.9740557681 -0.2207443576
12050227700.0 0.9702829608 -0.2340740344
12100227400.0 0.9674696064 -0.2444743825
12150227100.0 0.9623362425 -0.2610518726
12200226800.0 0.9585360877 -0.2719293645
12250226500.0 0.9546403098 -0.2859800589
12300226200.0 0.9496919373 -0.2971345627
12350225900.0 0.9449193279 -0.3115145238
12400225600.0 0.9405193744 -0.324121349
12450225300.0 0.9363602806 -0.3360990636
12500225000.0 0.9307092459 -0.3510505916
12550224700.0 0.9252925066 -0.3648571821
12600224400.0 0.920445572 -0.3775044657
12650224100.0 0.9146194727 -0.3919231343
12700223800.0 0.9093769344 -0.4046474796
12750223500.0 0.9035859638 -0.4179400631
12800223200.0 0.8982493628 -0.4306352993
12850222900.0 0.8933687009 -0.4427377584
12900222600.0 0.8875573146 -0.4546146329
12950222300.0 0.8812270187 -0.4670006325
13000222000.0 0.8756471328 -0.4787852284
13050221700.0 0.8684384604 -0.4916081637
13100221400.0 0.8620791528 -0.5031182332
13150221100.0 0.8550475199 -0.5158482509
13200220800.0 0.8477468374 -0.5275398169
13250220500.0 0.8408694894 -0.5395681568
13300220200.0 0.8332040262 -0.5505562341
13350219900.0 0.8250119076 -0.5626556982
13400219600.0 0.8168711139 -0.5744989755
13450219300.0 0.8074564618 -0.5875013687
13500219000.0 0.7975063683 -0.6010291024
13550218700.0 0.7879025285 -0.6132096984
13600218400.0 0.7775574171 -0.624861518
13650218100.0 0.7685294761 -0.635687824
13700217800.0 0.7573615294 -0.6478243569
13750217500.0 0.7470034671 -0.6591817848
13800217200.0 0.7361441274 -0.6704874725
13850216900.0 0.726146112 -0.6816445921
13900216600.0 0.7161275037 -0.6909372294
13950216300.0 0.7048645674 -0.701082792
14000216000.0 0.6956433819 -0.7099472677
14050215700.0 0.686437367 -0.7175675421
14100215400.0 0.6764995065 -0.7269478321
14150215100.0 0.6673230557 -0.735743716
14200214800.0 0.6579759314 -0.7443026939
14250214500.0 0.6475407113 -0.7537086545
14300214200.0 0.637248549 -0.7632856545
14350213900.0 0.6259245661 -0.7724878701
14400213600.0 0.613822416 -0.7828018946
14450213300.0 0.6013769441 -0.7929754942
14500213000.0 0.5882459514 -0.8023342876
14550212700.0 0.5756593468 -0.8118834741
14600212400.0 0.5632679616 -0.8208784642
14650212100.0 0.5507670203 -0.8293269192
14700211800.0 0.5366136128 -0.8391749013
14750211500.0 0.5247127336 -0.8474562909
14800211200.0 0.5121204823 -0.8555374451
14850210900.0 0.4999674421 -0.8630841424
14900210600.0 0.4866038906 -0.8709988076
14950210300.0 0.473248276 -0.8787534341
15000210000.0 0.4608257067 -0.8854530997
15050209700.0 0.4481601784 -0.8914994409
15100209400.0 0.4354786472 -0.8976707357
15150209100.0 0.4230521149 -0.9025369197
15200208800.0 0.4110040177 -0.9082230047
15250208500.0 0.3991092798 -0.9127858967
15300208200.0 0.3863432498 -0.9171469225
15350207900.0 0.3743250647 -0.9219672606
15400207600.0 0.3594105165 -0.9280076657
15450207300.0 0.3447070506 -0.9326777961
15500207000.0 0.3297990442 -0.9373158925
15550206700.0 0.3156426844 -0.9423869486
15600206400.0 0.2998500519 -0.9464078601
15650206100.0 0.2835507752 -0.9511753434
15700205800.0 0.2702348428 -0.9547387337
15750205500.0 0.2559290697 -0.9580041323
15800205200.0 0.2418629408 -0.9615423848
15850204900.0 0.2276812255 -0.9648769621
15900204600.0 0.2126043962 -0.9684319355
15950204300.0 0.1985890365 -0.9717206735
16000204000.0 0.1839217605 -0.9742431958
16050203700.0 0.1687022657 -0.9774824435
16100203400.0 0.1535963037 -0.9798648227
16150203100.0 0.1391052526 -0.9824858386
16200202800.0 0.1251297106 -0.984586752
16250202500.0 0.1104548608 -0.985815192
16300202200.0 0.09513004 -0.9873739589
16350201900.0 0.0795741063 -0.9885019512
16400201600.0 0.0652856548 -0.9901059768
16450201300.0 0.0497636495 -0.9911131454
16500201000.0 0.0327032401 -0.9920028973
16550200700.0 0.0168667523 -0.9925659422
16600200400.0 0.0011914533 -0.9927409234
16650200100.0 -0.014884619 -0.9927064696
16700199800.0 -0.0313145551 -0.9922049755
16750199500.0 -0.0503981147 -0.9912644866
16800199200.0 -0.0659155633 -0.9905353065
16850198900.0 -0.0819077167 -0.9896887309
16900198600.0 -0.0956387056 -0.9887436614
16950198300.0 -0.109728626 -0.987581014
17000198000.0 -0.1224978904 -0.9859333113
17050197700.0 -0.1347267804 -0.9839746858
17100197400.0 -0.1482265852 -0.9821940553
17150197100.0 -0.1604946652 -0.9796151196
17200196800.0 -0.1736229761 -0.977977358
17250196500.0 -0.1866140451 -0.9756815993
17300196200.0 -0.1987337504 -0.9729875783
17350195900.0 -0.2106725043 -0.9709697544
17400195600.0 -0.2226110945 -0.9684052988
17450195300.0 -0.2354479785 -0.9654818948
17500195000.0 -0.2487115463 -0.9621883982
17550194700.0 -0.2626074975 -0.9586540244
17600194400.0 -0.2763256846 -0.9546978313
17650194100.0 -0.2900362218 -0.9503119442
17700193800.0 -0.3029339309 -0.9465214257
17750193500.0 -0.3171578876 -0.9417450002
17800193200.0 -0.3315591825 -0.9366408445
17850192900.0 -0.3467651223 -0.9312700535
17900192600.0 -0.3615018093 -0.9252097478
17950192300.0 -0.3768833311 -0.9180767607
18000192000.0 -0.3915698993 -0.9107513088
18050191700.0 -0.4055990819 -0.9028422258
18100191400.0 -0.4196501102 -0.8952411751
18150191100.0 -0.4347533272 -0.8871938237
18200190800.0 -0.4515662749 -0.8781741894
18250190500.0 -0.4683488833 -0.8687158667
18300190200.0 -0.4839082675 -0.8596728922
18350189900.0 -0.499162526 -0.8514142294
18400189600.0 -0.5139938817 -0.8427870891
18450189300.0 -0.5271105084 -0.8347992734
18500189000.0 -0.5404394775 -0.826873572
18550188700.0 -0.5531069925 -0.8190279207
18600188400.0 -0.5652523412 -0.8123608344
18650188100.0 -0.57629936 -0.8059170304
18700187800.0 -0.5876103187 -0.7992247464
18750187500.0 -0.5983451636 -0.7925571353
18800187200.0 -0.6089596378 -0.7855674179
18850186900.0 -0.6192647805 -0.7786506767
18900186600.0 -0.6294770402 -0.7714803472
18950186300.0 -0.6396783487 -0.7639280013
19000186000.0 -0.6469121568 -0.7577596527
19050185700.0 -0.6564312549 -0.7505513851
19100185400.0 -0.6661004467 -0.7417111468
19150185100.0 -0.6762275879 -0.7336417174
19200184800.0 -0.6858420446 -0.7258682649
19250184500.0 -0.696478337 -0.7164234728
19300184200.0 -0.7067939195 -0.7064101733
19350183900.0 -0.7179074717 -0.69718534
19400183600.0 -0.7283045544 -0.6870390352
19450183300.0 -0.7373284739 -0.6773220317
19500183000.0 -0.7449768032 -0.6671543355
19550182700.0 -0.754608865 -0.6560367309
19600182400.0 -0.7651099632 -0.6441947715
19650182100.0 -0.7755619689 -0.63186722
19700181800.0 -0.7861792256 -0.6189625985
19750181500.0 -0.7964810026 -0.60480584
19800181200.0 -0.8066656987 -0.5896600414
19850180900.0 -0.8161732155 -0.5744996646
19900180600.0 -0.8239854494 -0.560032239
19950180300.0 -0.8331145906 -0.5436645319
20000180000.0 -0.8234725205 -0.547495997
20050179700.0 -0.8319295545 -0.5341962765
20100179400.0 -0.8413628829 -0.5210588287
20150179100.0 -0.8484957587 -0.5088379288
20200178800.0 -0.8567248619 -0.4969302858
20250178500.0 -0.8663261453 -0.4845623945
20300178200.0 -0.8757578313 -0.4709568296
20350177900.0 -0.8848798504 -0.4567473222
20400177600.0 -0.8940026716 -0.4420684602
20450177300.0 -0.9024140974 -0.4280688734
20500177000.0 -0.910780924 -0.4141618428
20550176700.0 -0.918442486 -0.4005916613
20600176400.0 -0.9252053617 -0.3876199198
20650176100.0 -0.9321248773 -0.3750880153
20700175800.0 -0.9388991288 -0.3634235684
20750175500.0 -0.9453880986 -0.3512717019
20800175200.0 -0.9498777861 -0.341653243
20850174900.0 -0.954098967 -0.3301875837
20900174600.0 -0.9580036568 -0.3194560212
20950174300.0 -0.9622045483 -0.3084003314
21000174000.0 -0.9641723713 -0.2977507191
21050173700.0 -0.9671972816 -0.2878653904
21100173400.0 -0.9699732417 -0.2767745071
21150173100.0 -0.9743055874 -0.2649363286
21200172800.0 -0.978628209 -0.2513531391
21250172500.0 -0.9818971825 -0.2371858139
21300172200.0 -0.9853096971 -0.2235103852
21350171900.0 -0.9866391127 -0.2091787159
21400171600.0 -0.988521297 -0.1953241185
21450171300.0 -0.9892340131 -0.1809632352
21500171000.0 -0.9890927127 -0.1659560159
21550170700.0 -0.9900230851 -0.150803293
21600170400.0 -0.990663524 -0.1341395641
21650170100.0 -0.9908981328 -0.1195958627
21700169800.0 -0.9899584793 -0.1034512068
21750169500.0 -0.9904281714 -0.0878594109
21800169200.0 -0.9892047807 -0.0708935919
21850168900.0 -0.9891174489 -0.0545667673
21900168600.0 -0.9888977431 -0.0387908558
21950168300.0 -0.9880842509 -0.0221803526
22000168000.0 -0.9876951854 -0.0078070342
22050167700.0 -0.988473052 0.0070032895
22100167400.0 -0.9891767052 0.0225355422
22150167100.0 -0.99020751 0.0384298197
22200166800.0 -0.9900631467 0.0548328552
22250166500.0 -0.9898513392 0.0719436759
22300166200.0 -0.9891549076 0.0883963928
22350165900.0 -0.9875193224 0.1053238217
22400165600.0 -0.9855499418 0.1203222684
22450165300.0 -0.9845779743 0.1356656921
22500165000.0 -0.9833150661 0.1499584158
22550164700.0 -0.9809083056 0.1656589744
22600164400.0 -0.9794095547 0.1815969121
22650164100.0 -0.9769066811 0.1964827048
22700163800.0 -0.973924308 0.2136188317
22750163500.0 -0.9714806157 0.2280360112
22800163200.0 -0.9677872379 0.2409783918
22850162900.0 -0.9652987426 0.254490151
22900162600.0 -0.9636534594 0.2683608935
22950162300.0 -0.9619488754 0.2818767399
23000162000.0 -0.9604564337 0.2942661367
23050161700.0 -0.9576097749 0.3075227977
23100161400.0 -0.9551708015 0.3207178548
23150161100.0 -0.9516436437 0.3339805353
23200160800.0 -0.9489165287 0.3457694075
23250160500.0 -0.9471399964 0.3589254575
23300160200.0 -0.9431866741 0.3713702311
23350159900.0 -0.9403748856 0.3851649713
23400159600.0 -0.9350672034 0.3985079325
23450159300.0 -0.9293990191 0.412323236
23500159000.0 -0.9251655721 0.4257259905
23550158700.0 -0.9205347382 0.439573526
23600158400.0 -0.9141410335 0.4536718442
23650158100.0 -0.9070241567 0.4682008427
23700157800.0 -0.8992353414 0.4825320439
23750157500.0 -0.889663662 0.4966864005
23800157200.0 -0.8805596473 0.5100113316
23850156900.0 -0.8707941444 0.523294824
23900156600.0 -0.8613627321 0.5353204924
23950156300.0 -0.8515259918 0.5479020196
24000156000.0 -0.8420651443 0.5603322589
24050155700.0 -0.8318605734 0.5725863236
24100155400.0 -0.8211141457 0.5853664493
24150155100.0 -0.8104919649 0.596913378
24200154800.0 -0.7996417051 0.6081220504
24250154500.0 -0.7885282441 0.6210573946
24300154200.0 -0.7767911604 0.6324902694
24350153900.0 -0.7646946626 0.6436438866
24400153600.0 -0.7519786435 0.653892487
24450153300.0 -0.7404831163 0.6642620141
24500153000.0 -0.7287085176 0.6741491493
24550152700.0 -0.7168369901 0.6842387566
24600152400.0 -0.7056109183 0.6934743716
24650152100.0 -0.6934926352 0.7019462661
