!Created with skrf (http://scikit-rf.org).
# Hz S RI R 50.0 
!freq ReS11 ImS11
300000.0 -0.9839207575 -0.0896587477
50299700.0 -0.9999840703 0.0163803068
100299400.0 -0.9979015188 0.0294204888
150299100.0 -1.00268674 0.0461536376
200298800.0 -0.9996233326 0.0596141016
250298500.0 -0.9973122929 0.0729192448
300298200.0 -0.9857642358 0.0886710688
350297900.0 -0.9940361897 0.0998169432
400297600.0 -0.993209814 0.1163136443
450297300.0 -0.990884288 0.130119944
500297000.0 -0.9893452427 0.1449196351
550296700.0 -0.9840448212 0.1573139466
600296400.0 -1.016862535 0.1905751813
650296100.0 -0.9820455776 0.1873519812
700295800.0 -0.9788412366 0.2015948559
750295500.0 -0.9758553573 0.2155083381
800295200.0 -0.9723053922 0.2297529368
850294900.0 -0.969248682 0.2435879911
900294600.0 -0.9653496869 0.2573423288
950294300.0 -0.9615125614 0.2708200391
1000294000.0 -0.9575779574 0.2851384738
1050293700.0 -0.953007624 0.2988356734
1100293400.0 -0.9488093859 0.3131850284
1150293100.0 -0.9449101424 0.3249439158
1200292800.0 -0.9395218075 0.3392325016
1250292500.0 -0.9340757074 0.3527004609
1300292200.0 -0.9284204411 0.3658724239
1350291900.0 -0.9228204854 0.3798782939
1400291600.0 -0.917363976 0.393068415
1450291300.0 -0.9117619906 0.4053574844
1500291000.0 -0.9057538435 0.4187794792
1550290700.0 -0.8990341271 0.4319140431
1600290400.0 -0.8928982028 0.4449402216
1650290100.0 -0.8863736996 0.4571120614
1700289800.0 -0.8794072156 0.4703778946
1750289500.0 -0.8724603954 0.4826285961
1800289200.0 -0.8651569573 0.4955850131
1850288900.0 -0.858342659 0.5068824448
1900288600.0 -0.8504196111 0.519892692
1950288300.0 -0.8424801359 0.5326241843
2000288000.0 -0.8348604358 0.5437624481
2050287700.0 -0.8264534368 0.5559889703
2100287400.0 -0.8185552108 0.5679575836
2150287100.0 -0.8099789588 0.579947849
2200286800.0 -0.8021577324 0.5903181079
2250286500.0 -0.7933450209 0.6023818232
2300286200.0 -0.784439877 0.6140556532
2350285900.0 -0.7755004259 0.6249794387
2400285600.0 -0.7665765433 0.6360864669
2450285300.0 -0.7578756524 0.6463633553
2500285000.0 -0.7482267123 0.6575425696
2550284700.0 -0.7390982721 0.6681241361
2600284400.0 -0.7296883276 0.6784296275
2650284100.0 -0.7206930598 0.6887582034
2700283800.0 -0.7101037147 0.6993256243
2750283500.0 -0.6997078767 0.7099886512
2800283200.0 -0.690066958 0.7195333297
2850282900.0 -0.6797404074 0.7295334615
2900282600.0 -0.6694384055 0.7388004039
2950282300.0 -0.6594205186 0.7479958954
3000282000.0 -0.648400019 0.7574080212
3050281700.0 -0.6373936901 0.7669090788
3100281400.0 -0.6258111921 0.7760643123
3150281100.0 -0.614017813 0.7853117287
3200280800.0 -0.6023229413 0.7939625994
3250280500.0 -0.5916492895 0.8016744107
3300280200.0 -0.580466759 0.8096631697
3350279900.0 -0.5689579945 0.8167748894
3400279600.0 -0.5569906602 0.8246098944
3450279300.0 -0.545748241 0.8317817622
3500279000.0 -0.533583672 0.8388063304
3550278700.0 -0.5214598424 0.8461912526
3600278400.0 -0.5092003697 0.8533971789
3650278100.0 -0.4958738371 0.8612080471
3700277800.0 -0.4837536047 0.8674008323
3750277500.0 -0.4715806785 0.8738824571
3800277200.0 -0.4590857668 0.8805340853
3850276900.0 -0.4468366064 0.8866614471
3900276600.0 -0.4357558975 0.8921121493
3950276300.0 -0.4230829101 0.898219952
4000276000.0 -0.4111197936 0.9042326841
4050275700.0 -0.3979975317 0.9104119585
4100275400.0 -0.3865579243 0.9157860815
4150275100.0 -0.3739531325 0.921347444
4200274800.0 -0.3606847406 0.9267428559
4250274500.0 -0.3484790986 0.931868021
4300274200.0 -0.335565476 0.9371254009
4350273900.0 -0.3216804993 0.9425277198
4400273600.0 -0.3069819046 0.9475579815
4450273300.0 -0.2916751567 0.9526893625
4500273000.0 -0.2780793969 0.9569113966
4550272700.0 -0.2639435311 0.9610686595
4600272400.0 -0.2485070404 0.9652337068
4650272100.0 -0.236616634 0.9685234677
4700271800.0 -0.223307675 0.97177741
4750271500.0 -0.2114121116 0.9746675261
4800271200.0 -0.1989106468 0.9772718247
4850270900.0 -0.1850189188 0.9802642114
4900270600.0 -0.1712409908 0.9826744981
4950270300.0 -0.1572283945 0.9848890984
5000270000.0 -0.1431292137 0.9870787056
5050269700.0 -0.1297614659 0.9891164905
5100269400.0 -0.1161618614 0.9902944223
5150269100.0 -0.1028075582 0.9925058003
5200268800.0 -0.0895018233 0.9933431076
5250268500.0 -0.076849505 0.9940345521
5300268200.0 -0.0634874322 0.994996622
5350267900.0 -0.0513984441 0.9954482546
5400267600.0 -0.0353731561 0.9964495013
5450267300.0 -0.0223075165 0.9968836981
5500267000.0 -0.0072744015 0.9970953767
5550266700.0 0.0075887716 0.9973124651
5600266400.0 0.023007889 0.997318233
5650266100.0 0.039650836 0.9969699391
5700265800.0 0.0538585825 0.995962458
5750265500.0 0.0692583281 0.9955771899
5800265200.0 0.0833433706 0.9943725503
5850264900.0 0.0968507017 0.9932438438
5900264600.0 0.1128311139 0.9908507875
5950264300.0 0.1255366794 0.9898152225
6000264000.0 0.1392858619 0.9878429125
6050263700.0 0.1521035589 0.9863184817
6100263400.0 0.1646336693 0.9841573617
6150263100.0 0.1793955568 0.9819474077
6200262800.0 0.1898987175 0.9798862264
6250262500.0 0.2025640619 0.9775275463
6300262200.0 0.2156426892 0.9747291047
6350261900.0 0.2285874932 0.9717742226
6400261600.0 0.2425607773 0.9682910268
6450261300.0 0.2538650223 0.9658023467
6500261000.0 0.2667738472 0.9621738449
6550260700.0 0.2797410363 0.9584158086
6600260400.0 0.2928482813 0.9541323473
6650260100.0 0.306710691 0.9500632201
6700259800.0 0.3189925184 0.9458478501
6750259500.0 0.3325249634 0.9408201113
6800259200.0 0.3457911388 0.9358141333
6850258900.0 0.3574812776 0.9310529381
6900258600.0 0.3698252337 0.9260445729
6950258300.0 0.3820189121 0.9206187132
7000258000.0 0.3941466126 0.9154920342
7050257700.0 0.4064532091 0.9093739296
7100257400.0 0.4193173868 0.9031281201
7150257100.0 0.4295643028 0.8977525629
7200256800.0 0.4421905486 0.8915796391
7250256500.0 0.4541025693 0.8850668556
7300256200.0 0.4666359956 0.8783492982
7350255900.0 0.4790602604 0.8716035744
7400255600.0 0.4925521341 0.8646207789
7450255300.0 0.5074661672 0.8556876618
7500255000.0 0.5191479765 0.8486550767
7550254700.0 0.5323750222 0.8401837849
7600254400.0 0.5451443538 0.8317390084
7650254100.0 0.5569002452 0.8239335033
7700253800.0 0.5684159602 0.8157856279
7750253500.0 0.5799028758 0.8079137975
7800253200.0 0.5908305046 0.8001247005
7850252900.0 0.6004997161 0.7929004155
7900252600.0 0.6122290384 0.7839584242
7950252300.0 0.6212627653 0.7772587219
8000252000.0 0.6315823853 0.7693658583
8050251700.0 0.6420439429 0.7611488427
8100251400.0 0.652309275 0.752868331
8150251100.0 0.6623807881 0.7441788562
8200250800.0 0.6718223885 0.7360410355
8250250500.0 0.6814048468 0.7278718369
8300250200.0 0.6905577793 0.7190081171
8350249900.0 0.6993235137 0.7106562077
8400249600.0 0.7074914462 0.7026754398
8450249300.0 0.7168630884 0.6931467276
8500249000.0 0.725252248 0.684174064
8550248700.0 0.7340022683 0.6752227298
8600248400.0 0.7423617382 0.6656815245
8650248100.0 0.7501530131 0.6564634575
8700247800.0 0.7595412057 0.645323854
8750247500.0 0.7677453055 0.635267444
8800247200.0 0.7757545342 0.6250596746
8850246900.0 0.7842702677 0.6138960349
8900246600.0 0.7930570236 0.6025119469
8950246300.0 0.8023072771 0.5898606527
9000246000.0 0.8117050895 0.5773050191
9050245700.0 0.8203648294 0.5644602757
9100245400.0 0.8288651221 0.5521348007
9150245100.0 0.8379890556 0.5387180919
9200244800.0 0.8474280569 0.5238975908
9250244500.0 0.8572301802 0.5085365204
9300244200.0 0.8653510917 0.4939839576
9350243900.0 0.8730463573 0.4799073308
9400243600.0 0.8798508363 0.4673652186
9450243300.0 0.885950931 0.4552011143
9500243000.0 0.8922668808 0.4426684128
9550242700.0 0.8963745473 0.4341401372
9600242400.0 0.9004145796 0.4261966792
9650242100.0 0.9040296308 0.4195304826
9700241800.0 0.9088953424 0.4108420229
9750241500.0 0.9125876091 0.4032575778
9800241200.0 0.917326933 0.3936750034
9850240900.0 0.9227661351 0.3821088959
9900240600.0 0.9277942589 0.3710701964
9950240300.0 0.934617874 0.354541449
10000240000.0 0.9394725984 0.3429264834
10050239700.0 0.9448438944 0.3279749995
10100239400.0 0.949732305 0.3127927769
10150239100.0 0.9543447237 0.2979000437
10200238800.0 0.9586137933 0.2832779153
10250238500.0 0.9616430332 0.2699743348
10300238200.0 0.9649670135 0.2559405141
10350237900.0 0.9674937929 0.2428619627
10400237600.0 0.9701080511 0.2300343094
10450237300.0 0.9729062655 0.2164446796
10500237000.0 0.9752582948 0.2039917801
10550236700.0 0.9771656569 0.190864764
10600236400.0 0.9791647986 0.1774092758
10650236100.0 0.9814479435 0.1625840145
10700235800.0 0.9840804747 0.1501697143
10750235500.0 0.986597698 0.1373231564
10800235200.0 0.9878252359 0.1237142747
10850234900.0 0.9896082769 0.109038238
10900234600.0 0.9917855846 0.0945980343
10950234300.0 0.9934712638 0.0812789592
11000234000.0 0.9949431458 0.066446308
11050233700.0 0.9967710883 0.0502249231
11100233400.0 0.9982155604 0.0330589411
11150233100.0 0.9988854045 0.0168489649
11200232800.0 0.9995978722 0.0017241927
11250232500.0 1.000552303 -0.0138311232
11300232200.0 1.001091302 -0.0328798929
11350231900.0 1.00068702 -0.0481039316
11400231600.0 1.000557214 -0.0638859332
11450231300.0 1.000039767 -0.0792125195
11500231000.0 0.9990706574 -0.0965414238
11550230700.0 0.9978382809 -0.1088798488
11600230400.0 0.995953001 -0.1222997521
11650230100.0 0.9941097323 -0.1343009845
11700229800.0 0.9916414276 -0.1492899503
11750229500.0 0.989663997 -0.1632823467
11800229200.0 0.9868827678 -0.1776510942
11850228900.0 0.9834005933 -0.1903263595
11900228600.0 0.9798792816 -0.2005829388
11950228300.0 0.9766883698 -0.2114530546
12000228000.0 0.9737185476 -0.2207135927
12050227700.0 0.9700372268 -0.2334871817
12100227400.0 0.96678533 -0.2452203408
12150227100.0 0.9627095538 -0.260154418
12200226800.0 0.959087594 -0.2713917261
12250226500.0 0.9547616527 -0.2843046055
12300226200.0 0.95130348 -0.2965378471
12350225900.0 0.9456445255 -0.3107787405
12400225600.0 0.9418205017 -0.3227600822
12450225300.0 0.9372476737 -0.3349127321
12500225000.0 0.9318357048 -0.3493585291
12550224700.0 0.9266939772 -0.3635067465
12600224400.0 0.921733538 -0.3758639668
12650224100.0 0.9161281694 -0.3901049483
12700223800.0 0.9108633254 -0.402799176
12750223500.0 0.9055548095 -0.415397029
12800223200.0 0.9002918052 -0.4275861576
12850222900.0 0.8947525995 -0.4398427598
12900222600.0 0.8889396888 -0.4520274732
12950222300.0 0.882673934 -0.4655371632
13000222000.0 0.8771006193 -0.4765481464
13050221700.0 0.8697245849 -0.4898685431
13100221400.0 0.8628267897 -0.5017789522
13150221100.0 0.8558049489 -0.5144050847
13200220800.0 0.8486005674 -0.525516487
13250220500.0 0.8415696828 -0.5380109332
13300220200.0 0.8335318562 -0.5493160578
13350219900.0 0.8255550192 -0.5613711391
13400219600.0 0.8171988064 -0.5733834014
13450219300.0 0.8074451183 -0.5872138638
13500219000.0 0.7974339973 -0.6006523276
13550218700.0 0.7872445372 -0.6137523759
13600218400.0 0.7769914899 -0.6260774891
13650218100.0 0.7673310047 -0.6368716512
13700217800.0 0.7557415939 -0.6495680375
13750217500.0 0.7468911625 -0.6610620635
13800217200.0 0.7351876136 -0.6718898891
13850216900.0 0.7240169789 -0.6835735424
13900216600.0 0.7139200774 -0.6927792119
13950216300.0 0.7037730529 -0.7029807385
14000216000.0 0.6931146038 -0.7123957704
14050215700.0 0.6842860349 -0.7203921937
14100215400.0 0.6739502021 -0.7297940006
14150215100.0 0.6649944409 -0.7382926401
14200214800.0 0.6557210419 -0.746574978
14250214500.0 0.6455947878 -0.7558066774
14300214200.0 0.6354135352 -0.7650255619
14350213900.0 0.6241531682 -0.7743538851
14400213600.0 0.6126293487 -0.7839380754
14450213300.0 0.6004196922 -0.793925411
14500213000.0 0.5872128141 -0.8036791918
14550212700.0 0.5749044448 -0.8129706508
14600212400.0 0.562029425 -0.8218742615
14650212100.0 0.5497763413 -0.8305778131
14700211800.0 0.5354101346 -0.840006367
14750211500.0 0.5230562502 -0.8477599508
14800211200.0 0.5109766989 -0.8559583458
14850210900.0 0.4990428319 -0.8635043431
14900210600.0 0.4856497521 -0.8712551552
14950210300.0 0.4719797982 -0.8788894312
15000210000.0 0.4590935233 -0.8858485879
15050209700.0 0.4464518742 -0.8921711266
15100209400.0 0.433656878 -0.8981758093
15150209100.0 0.4206075824 -0.9038344204
15200208800.0 0.4076751508 -0.9096223656
15250208500.0 0.3963836531 -0.9143405167
15300208200.0 0.3834800196 -0.9193227118
15350207900.0 0.3704749519 -0.9229881148
15400207600.0 0.3555768016 -0.9289559099
15450207300.0 0.3402409151 -0.9343016276
15500207000.0 0.3258432678 -0.9383316295
15550206700.0 0.3110317829 -0.9443185393
15600206400.0 0.2953819431 -0.9481664433
15650206100.0 0.2798971265 -0.9527844641
15700205800.0 0.2653199807 -0.9557184852
15750205500.0 0.2510633978 -0.9594343738
15800205200.0 0.2371347199 -0.963095119
15850204900.0 0.2227035376 -0.9665633734
15900204600.0 0.2078792041 -0.9699337377
15950204300.0 0.1941095115 -0.9726151864
16000204000.0 0.1799837933 -0.9755446883
16050203700.0 0.1650002685 -0.9783424327
16100203400.0 0.1512239606 -0.9808690682
16150203100.0 0.1368495844 -0.9829320042
16200202800.0 0.1233574284 -0.9845852775
16250202500.0 0.1084305314 -0.9864896108
16300202200.0 0.093614524 -0.9878258748
16350201900.0 0.0790021116 -0.9895887573
16400201600.0 0.064230814 -0.9903628251
16450201300.0 0.0492392786 -0.9915208759
16500201000.0 0.0326925136 -0.9921581794
16550200700.0 0.0170436714 -0.9926289831
16600200400.0 0.0013642495 -0.9929229343
16650200100.0 -0.0153695554 -0.9928118582
16700199800.0 -0.0317369714 -0.9921598218
16750199500.0 -0.0509044229 -0.9918023896
16800199200.0 -0.0666571175 -0.9909960058
16850198900.0 -0.0821800754 -0.9895399051
16900198600.0 -0.0960362224 -0.988789629
16950198300.0 -0.109481824 -0.9879708406
17000198000.0 -0.1225958052 -0.9859268378
17050197700.0 -0.135428619 -0.9835792606
17100197400.0 -0.1481556425 -0.9817666114
17150197100.0 -0.1614906542 -0.9791833401
17200196800.0 -0.1743025173 -0.9777794906
17250196500.0 -0.187595794 -0.9750342493
17300196200.0 -0.2000020049 -0.9726069644
17350195900.0 -0.2123049903 -0.970386081
17400195600.0 -0.2242938515 -0.9677132344
17450195300.0 -0.2374381431 -0.9652195056
17500195000.0 -0.2508416137 -0.9618133725
17550194700.0 -0.2647566735 -0.9581295361
17600194400.0 -0.2789389225 -0.9540200325
17650194100.0 -0.2922102422 -0.9501829996
17700193800.0 -0.3048291059 -0.9456774462
17750193500.0 -0.3195558079 -0.9414623246
17800193200.0 -0.3331688785 -0.9358559767
17850192900.0 -0.3481570197 -0.9308006637
17900192600.0 -0.3632564355 -0.9245102382
17950192300.0 -0.378423549 -0.9177190361
18000192000.0 -0.393023778 -0.9106897332
18050191700.0 -0.4068053151 -0.9028758598
18100191400.0 -0.4207729381 -0.8954537491
18150191100.0 -0.4355686273 -0.8875637071
18200190800.0 -0.4522042087 -0.8782581632
18250190500.0 -0.4689674306 -0.8691372251
18300190200.0 -0.4842798443 -0.8602651103
18350189900.0 -0.4991528901 -0.8520571042
18400189600.0 -0.5137345183 -0.8431779391
18450189300.0 -0.5267340044 -0.835672642
18500189000.0 -0.5403756989 -0.8275733251
18550188700.0 -0.5531749811 -0.8194065423
18600188400.0 -0.5654626135 -0.8123372592
18650188100.0 -0.5766548438 -0.8056456533
18700187800.0 -0.5876942161 -0.7989608589
18750187500.0 -0.5987079785 -0.792158061
18800187200.0 -0.6093846695 -0.7846015416
18850186900.0 -0.6200127131 -0.7772574769
18900186600.0 -0.6304534557 -0.7694402087
18950186300.0 -0.6408546221 -0.7615690444
19000186000.0 -0.6486890273 -0.7550602707
19050185700.0 -0.6579075961 -0.7476676801
19100185400.0 -0.6679189964 -0.7385945393
19150185100.0 -0.6789584026 -0.7304087738
19200184800.0 -0.6881990004 -0.7216191504
19250184500.0 -0.6974074637 -0.712513229
19300184200.0 -0.7096980789 -0.7023111281
19350183900.0 -0.7205597777 -0.6934629607
19400183600.0 -0.7302256872 -0.6830697314
19450183300.0 -0.7387188915 -0.6728480545
19500183000.0 -0.7463815908 -0.6631891064
19550182700.0 -0.756025476 -0.6523941547
19600182400.0 -0.7668386963 -0.6411148495
19650182100.0 -0.7774980551 -0.628731278
19700181800.0 -0.787217306 -0.6161759709
19750181500.0 -0.7975476387 -0.6024683687
19800181200.0 -0.8075203057 -0.587664983
19850180900.0 -0.8168910302 -0.5730013288
19900180600.0 -0.8244590923 -0.5588633111
19950180300.0 -0.8337013164 -0.5430630305
20000180000.0 -0.8275624438 -0.5442780589
20050179700.0 -0.83598578 -0.530736197
20100179400.0 -0.8440943551 -0.5175341563
20150179100.0 -0.8524706853 -0.5057938675
20200178800.0 -0.8601476233 -0.4917380732
20250178500.0 -0.8697196474 -0.4791347547
20300178200.0 -0.879033254 -0.4643547338
20350177900.0 -0.8877612591 -0.4507700157
20400177600.0 -0.8961671583 -0.4355599713
20450177300.0 -0.9046803407 -0.4214824189
20500177000.0 -0.9125492096 -0.4076703469
20550176700.0 -0.9200575868 -0.3939707423
20600176400.0 -0.9274440554 -0.3805636834
20650176100.0 -0.933878742 -0.3678426122
20700175800.0 -0.9402714044 -0.3555790363
20750175500.0 -0.946957233 -0.3439087891
20800175200.0 -0.9515912077 -0.3337054163
20850174900.0 -0.9568549141 -0.3209000172
20900174600.0 -0.961498312 -0.3089858
20950174300.0 -0.9661688213 -0.2972303957
21000174000.0 -0.9691697257 -0.2854359818
21050173700.0 -0.9727170842 -0.2746441264
21100173400.0 -0.9761373759 -0.2612574669
21150173100.0 -0.9798055146 -0.2491679844
21200172800.0 -0.9838976637 -0.2353022005
21250172500.0 -0.987363755 -0.2219159551
21300172200.0 -0.9896680883 -0.2071693672
21350171900.0 -0.9912651422 -0.1929228678
21400171600.0 -0.9928778712 -0.1790335719
21450171300.0 -0.9933811954 -0.164383678
21500171000.0 -0.993352594 -0.1487778938
21550170700.0 -0.9932032883 -0.1342156794
21600170400.0 -0.9932867857 -0.1193128414
21650170100.0 -0.9928647677 -0.1018029246
21700169800.0 -0.9910849922 -0.087761675
21750169500.0 -0.9901667427 -0.0722406456
21800169200.0 -0.9895297762 -0.0555742715
21850168900.0 -0.9873897758 -0.0392214234
21900168600.0 -0.9859348723 -0.0237170905
21950168300.0 -0.9842121803 -0.0080289547
22000168000.0 -0.9833103307 0.006165782
22050167700.0 -0.9829809802 0.0202336316
22100167400.0 -0.9829409648 0.0356154884
22150167100.0 -0.9831381057 0.0510815384
22200166800.0 -0.9831531384 0.0669424581
22250166500.0 -0.9828247211 0.0834610248
22300166200.0 -0.9817394793 0.1000404538
22350165900.0 -0.9805250042 0.1163666575
22400165600.0 -0.9786027989 0.1324454192
22450165300.0 -0.9773387975 0.1457841005
22500165000.0 -0.975710496 0.1610630427
22550164700.0 -0.973635867 0.1755998639
22600164400.0 -0.9725993702 0.1902628098
22650164100.0 -0.9700572971 0.2063316091
22700163800.0 -0.9668190076 0.2221832582
22750163500.0 -0.9645359482 0.2371786735
22800163200.0 -0.9618736549 0.250710433
22850162900.0 -0.9593938922 0.2641528699
22900162600.0 -0.9578132843 0.2773762373
22950162300.0 -0.9565356453 0.2904746032
23000162000.0 -0.9555275967 0.3023605446
23050161700.0 -0.9530594608 0.3148096939
23100161400.0 -0.9507056954 0.3277473962
23150161100.0 -0.947817925 0.3402602016
23200160800.0 -0.9454951882 0.352277615
23250160500.0 -0.9419689649 0.3640934786
23300160200.0 -0.9399317572 0.3751161462
23350159900.0 -0.9360025682 0.3892582219
23400159600.0 -0.9315598348 0.4008822962
23450159300.0 -0.9266943037 0.4146974831
23500159000.0 -0.9217462601 0.4269585947
23550158700.0 -0.9179493312 0.4405752349
23600158400.0 -0.9122288092 0.4533210872
23650158100.0 -0.9059201196 0.4670215734
23700157800.0 -0.8983762668 0.4805019361
23750157500.0 -0.8899949107 0.4945444369
23800157200.0 -0.8814709258 0.507530315
23850156900.0 -0.8729722818 0.5198894857
23900156600.0 -0.8633777846 0.5325737528
23950156300.0 -0.8541138242 0.5445106852
24000156000.0 -0.8456325878 0.5564595402
24050155700.0 -0.8347556044 0.5687355035
24100155400.0 -0.8251103639 0.5812498054
24150155100.0 -0.8145408307 0.5926728479
24200154800.0 -0.8041927884 0.6036306206
24250154500.0 -0.792287228 0.6153532049
24300154200.0 -0.7813616136 0.6269233974
24350153900.0 -0.7691561581 0.6379590908
24400153600.0 -0.7575756564 0.64839318
24450153300.0 -0.7453127139 0.6583888041
24500153000.0 -0.7340896466 0.6681990571
24550152700.0 -0.7231930039 0.6781347897
24600152400.0 -0.7114759748 0.687982997
24650152100.0 -0.7000558224 0.6962230769
