!Created with skrf (http://scikit-rf.org).
# Hz S RI R 50.0 
!freq ReS11 ImS11
300000.0 -0.9761025994 -0.1194522301
50299700.0 -1.000046926 0.0153981217
100299400.0 -0.9980355929 0.0281824611
150299100.0 -1.002773129 0.0450931576
200298800.0 -0.9997489459 0.0585736508
250298500.0 -0.9974879058 0.071923386
300298200.0 -0.9859900018 0.0877136558
350297900.0 -0.9941220344 0.0985610939
400297600.0 -0.9932327281 0.1155531386
450297300.0 -0.9910999929 0.1290945675
500297000.0 -0.9892785025 0.1438653346
550296700.0 -0.9844774497 0.1564006388
600296400.0 -1.017471755 0.1897512262
650296100.0 -0.9822003081 0.1863831739
700295800.0 -0.9794490512 0.2005906603
750295500.0 -0.9763106823 0.2145087926
800295200.0 -0.9731002517 0.2286108783
850294900.0 -0.9696451562 0.2424102949
900294600.0 -0.9658321453 0.2563004097
950294300.0 -0.9621421983 0.2698377587
1000294000.0 -0.9582017895 0.2837676875
1050293700.0 -0.9535556261 0.2977110665
1100293400.0 -0.9495048865 0.3120506341
1150293100.0 -0.9455060985 0.3239148564
1200292800.0 -0.9402160119 0.3382383615
1250292500.0 -0.934777684 0.3516701492
1300292200.0 -0.9289311683 0.364802281
1350291900.0 -0.9233233988 0.3790970872
1400291600.0 -0.9180472632 0.3919486949
1450291300.0 -0.9123416616 0.4043565091
1500291000.0 -0.9061540536 0.417843196
1550290700.0 -0.8995275659 0.4313685069
1600290400.0 -0.8934044146 0.4441495444
1650290100.0 -0.8866743718 0.4562363561
1700289800.0 -0.8798131366 0.4695435045
1750289500.0 -0.8726845741 0.4819957344
1800289200.0 -0.8654473453 0.4947385853
1850288900.0 -0.8584419804 0.5061685831
1900288600.0 -0.8509727872 0.5190603833
1950288300.0 -0.842669935 0.5316255034
2000288000.0 -0.835470617 0.5431998032
2050287700.0 -0.8271560309 0.5554234896
2100287400.0 -0.8191620783 0.5670023783
2150287100.0 -0.8105208669 0.5791918699
2200286800.0 -0.8029110992 0.5894725389
2250286500.0 -0.7942916272 0.6016841113
2300286200.0 -0.7850662425 0.6132705592
2350285900.0 -0.7763657716 0.6240012903
2400285600.0 -0.7673873081 0.6349822362
2450285300.0 -0.7588505816 0.6454665284
2500285000.0 -0.7491672018 0.6566895383
2550284700.0 -0.7402578879 0.6671982067
2600284400.0 -0.730603419 0.6772171223
2650284100.0 -0.7219285149 0.6877733362
2700283800.0 -0.7111011356 0.6979922849
2750283500.0 -0.7011143266 0.7089349721
2800283200.0 -0.6912619568 0.7183619137
2850282900.0 -0.6808766178 0.7286135238
2900282600.0 -0.6705205452 0.7381665824
2950282300.0 -0.6603008139 0.7474218012
3000282000.0 -0.6494760783 0.7568170416
3050281700.0 -0.6383840776 0.7660815994
3100281400.0 -0.6265690746 0.775435865
3150281100.0 -0.6148694498 0.7848321896
3200280800.0 -0.6031982236 0.7933415362
3250280500.0 -0.5922454649 0.8010265456
3300280200.0 -0.5812387691 0.8088190896
3350279900.0 -0.5694451325 0.816335612
3400279600.0 -0.5574179305 0.8242606103
3450279300.0 -0.5461507171 0.8313493002
3500279000.0 -0.5342533918 0.838552881
3550278700.0 -0.5216883501 0.8456409446
3600278400.0 -0.5095281797 0.8526714823
3650278100.0 -0.4963759401 0.8604508002
3700277800.0 -0.4841827317 0.8667192646
3750277500.0 -0.4719803948 0.8732987092
3800277200.0 -0.4595596978 0.8800661061
3850276900.0 -0.4476021484 0.8860398986
3900276600.0 -0.4366716363 0.8915804825
3950276300.0 -0.4242337652 0.8975013333
4000276000.0 -0.4122702504 0.9036181653
4050275700.0 -0.3991015483 0.9094557643
4100275400.0 -0.3881661135 0.9150970454
4150275100.0 -0.3756680295 0.9209750069
4200274800.0 -0.3625951036 0.9261812445
4250274500.0 -0.3502854411 0.9313812635
4300274200.0 -0.3373867436 0.936690403
4350273900.0 -0.3235198645 0.941940581
4400273600.0 -0.308758334 0.9472002905
4450273300.0 -0.2932675711 0.9523323901
4500273000.0 -0.2797892427 0.9567988454
4550272700.0 -0.2656364507 0.960690607
4600272400.0 -0.2501572611 0.9650620531
4650272100.0 -0.2384764567 0.9684064554
4700271800.0 -0.225317589 0.9715199178
4750271500.0 -0.2135692145 0.9745060686
4800271200.0 -0.2010414225 0.9771868606
4850270900.0 -0.1871169422 0.9799198363
4900270600.0 -0.1731848092 0.9823761512
4950270300.0 -0.1590603324 0.9850642634
5000270000.0 -0.1445233886 0.9870746059
5050269700.0 -0.1312219199 0.9885752437
5100269400.0 -0.1176200912 0.9905333032
5150269100.0 -0.103883278 0.9920481369
5200268800.0 -0.090570889 0.9930702822
5250268500.0 -0.0776143339 0.993935669
5300268200.0 -0.0645544878 0.9945307922
5350267900.0 -0.0521924338 0.9954510686
5400267600.0 -0.035939075 0.9963277518
5450267300.0 -0.0229793717 0.9967076415
5500267000.0 -0.0077141604 0.9970942887
5550266700.0 0.0072771827 0.9974095308
5600266400.0 0.0225821686 0.9973100721
5650266100.0 0.0392238459 0.9969338017
5700265800.0 0.0538171404 0.9962370261
5750265500.0 0.0686835683 0.9951413326
5800265200.0 0.0827538638 0.9946205829
5850264900.0 0.0964184198 0.9938684775
5900264600.0 0.1127656306 0.9918211939
5950264300.0 0.1244480644 0.9900526932
6000264000.0 0.1388100007 0.9883342286
6050263700.0 0.1512003401 0.9869155718
6100263400.0 0.1636148162 0.9851103414
6150263100.0 0.1778182099 0.9824611017
6200262800.0 0.1883836629 0.9809477972
6250262500.0 0.2009192583 0.978528324
6300262200.0 0.2137970855 0.975890109
6350261900.0 0.2267749479 0.9728669889
6400261600.0 0.240586829 0.9695471814
6450261300.0 0.252081307 0.9668338732
6500261000.0 0.2648495741 0.9632880378
6550260700.0 0.2776438595 0.9592233448
6600260400.0 0.2914046495 0.9554220136
6650260100.0 0.3054340316 0.9509234138
6700259800.0 0.3170925803 0.9465227576
6750259500.0 0.3308210915 0.9414424971
6800259200.0 0.3442203378 0.936762136
6850258900.0 0.3558022647 0.9313601059
6900258600.0 0.3681618949 0.9265213425
6950258300.0 0.3808386889 0.9213768325
7000258000.0 0.3928208947 0.9157970195
7050257700.0 0.4050195581 0.9096346823
7100257400.0 0.4179678809 0.9034655388
7150257100.0 0.4283456546 0.8983509817
7200256800.0 0.4411872258 0.8917354674
7250256500.0 0.4531424624 0.885483809
7300256200.0 0.4658716899 0.8788375061
7350255900.0 0.4789008182 0.8720178609
7400255600.0 0.4917667329 0.864478155
7450255300.0 0.5068609909 0.8552834322
7500255000.0 0.5190296946 0.8484610947
7550254700.0 0.5328266808 0.8399890406
7600254400.0 0.5456490208 0.8314177623
7650254100.0 0.5570300017 0.8238983958
7700253800.0 0.5690036293 0.8159377095
7750253500.0 0.5799366163 0.8080255244
7800253200.0 0.5906531473 0.8002569859
7850252900.0 0.6004396705 0.7933488444
7900252600.0 0.612095167 0.7845900843
7950252300.0 0.6207292348 0.7781598624
8000252000.0 0.6309309405 0.7703624838
8050251700.0 0.6412266917 0.7622422256
8100251400.0 0.6512746836 0.7540940904
8150251100.0 0.6617200712 0.7454090963
8200250800.0 0.6709875749 0.7376204774
8250250500.0 0.6799079281 0.7295374522
8300250200.0 0.6892935809 0.7207540116
8350249900.0 0.6980296468 0.7121904055
8400249600.0 0.7063431253 0.7042027175
8450249300.0 0.7154587733 0.6949732125
8500249000.0 0.724221222 0.6861496292
8550248700.0 0.7324684966 0.6769477316
8600248400.0 0.7408635417 0.6675376944
8650248100.0 0.7487498958 0.6581929588
8700247800.0 0.7581723802 0.6469833491
8750247500.0 0.7664653701 0.6368224242
8800247200.0 0.7745505507 0.6262682892
8850246900.0 0.7836725122 0.614814364
8900246600.0 0.7919858717 0.6035803043
8950246300.0 0.8012590297 0.5906756499
9000246000.0 0.8108984647 0.5779380589
9050245700.0 0.8196151283 0.5650057453
9100245400.0 0.828211389 0.552442355
9150245100.0 0.8376965716 0.5388360389
9200244800.0 0.847372816 0.5239876903
9250244500.0 0.8566074293 0.5082986541
9300244200.0 0.8650162076 0.4939332499
9350243900.0 0.8729539807 0.4800667007
9400243600.0 0.8796503253 0.4675864141
9450243300.0 0.8855096621 0.456119409
9500243000.0 0.8917902273 0.4439153679
9550242700.0 0.8954510153 0.4362923147
9600242400.0 0.8993035468 0.4289166913
9650242100.0 0.9030343583 0.4225856548
9700241800.0 0.9077982873 0.4142114272
9750241500.0 0.911787427 0.406458583
9800241200.0 0.9166346529 0.3975501747
9850240900.0 0.9216196118 0.3861144784
9900240600.0 0.9275234882 0.3742224046
9950240300.0 0.9344786212 0.3583028394
10000240000.0 0.9391235116 0.3467372476
10050239700.0 0.944870216 0.3310820396
10100239400.0 0.9495586029 0.3158343561
10150239100.0 0.9540187304 0.3011652901
10200238800.0 0.9581760025 0.2861331748
10250238500.0 0.9616131879 0.2725038495
10300238200.0 0.9648278428 0.25864468
10350237900.0 0.9673202613 0.245661372
10400237600.0 0.9698441402 0.2324104043
10450237300.0 0.9726786495 0.2184071141
10500237000.0 0.9751641312 0.2055868755
10550236700.0 0.9772386096 0.1924480397
10600236400.0 0.9794441116 0.1783333105
10650236100.0 0.9813335678 0.1641239118
10700235800.0 0.9835540164 0.1522008099
10750235500.0 0.9854824711 0.1384840699
10800235200.0 0.9877130802 0.12443804
10850234900.0 0.9897622444 0.1097765688
10900234600.0 0.9919412515 0.0948324415
10950234300.0 0.993625098 0.0816041374
11000234000.0 0.9952551675 0.0665264894
11050233700.0 0.9971238041 0.0502767673
11100233400.0 0.9984059249 0.0327601063
11150233100.0 0.9995203797 0.0165287455
11200232800.0 1.00012008 0.0010989996
11250232500.0 1.001249588 -0.014780258
11300232200.0 1.002014068 -0.0329993049
11350231900.0 1.002295571 -0.0486050133
11400231600.0 1.00130042 -0.0647405635
11450231300.0 1.001164424 -0.0799082668
11500231000.0 0.9995691963 -0.0952057233
11550230700.0 0.9988259545 -0.1092061789
11600230400.0 0.9971321661 -0.1218492625
11650230100.0 0.9951467602 -0.1328062023
11700229800.0 0.9932803283 -0.148342078
11750229500.0 0.9909679125 -0.1624196944
11800229200.0 0.9881943588 -0.1762609185
11850228900.0 0.9845625588 -0.1887352078
11900228600.0 0.9810480865 -0.1984496669
11950228300.0 0.977619698 -0.2092120885
12000228000.0 0.9749030905 -0.217984946
12050227700.0 0.9710236434 -0.2304435025
12100227400.0 0.9677014261 -0.2421245425
12150227100.0 0.9627118768 -0.2589030894
12200226800.0 0.9592158971 -0.2694978895
12250226500.0 0.9561891054 -0.2819864101
12300226200.0 0.9513562094 -0.2940655631
12350225900.0 0.9469767009 -0.3087530098
12400225600.0 0.9423914624 -0.3211745736
12450225300.0 0.937797398 -0.3340362302
12500225000.0 0.9322447043 -0.3490396691
12550224700.0 0.926678885 -0.3624894777
12600224400.0 0.9219770786 -0.3754448597
12650224100.0 0.9160688144 -0.3898022258
12700223800.0 0.910881302 -0.4023732746
12750223500.0 0.9053589224 -0.4156983643
12800223200.0 0.8997343581 -0.428128565
12850222900.0 0.8947628373 -0.4405925319
12900222600.0 0.8889816428 -0.4523845213
12950222300.0 0.8828332855 -0.4648470291
13000222000.0 0.8767562083 -0.4769553206
13050221700.0 0.8695824192 -0.4896948403
13100221400.0 0.8636313088 -0.5008140995
13150221100.0 0.8567727294 -0.5134156303
13200220800.0 0.84952268 -0.5249523175
13250220500.0 0.8423465556 -0.5374734783
13300220200.0 0.8348372343 -0.5480711001
13350219900.0 0.8268310522 -0.5599240197
13400219600.0 0.8183475688 -0.5721015938
13450219300.0 0.8089725077 -0.5853595802
13500219000.0 0.7990120809 -0.5992933159
13550218700.0 0.7885154895 -0.6121775511
13600218400.0 0.7786798036 -0.6242545766
13650218100.0 0.7689366584 -0.6352124442
13700217800.0 0.7579631387 -0.6472997737
13750217500.0 0.748111421 -0.6593557843
13800217200.0 0.7374324073 -0.670581148
13850216900.0 0.7266725855 -0.6822064889
13900216600.0 0.7159710966 -0.6908417037
13950216300.0 0.7048581157 -0.7013056361
14000216000.0 0.6955239317 -0.7103960497
14050215700.0 0.6857108762 -0.7189966433
14100215400.0 0.6756890521 -0.7277557619
14150215100.0 0.6666315648 -0.7363292917
14200214800.0 0.6572418675 -0.745063841
14250214500.0 0.6469987089 -0.7543688288
14300214200.0 0.6365959871 -0.7637639184
14350213900.0 0.6254752311 -0.7732455485
14400213600.0 0.6136874714 -0.783330372
14450213300.0 0.6008499416 -0.7932083259
14500213000.0 0.5873408685 -0.8034610966
14550212700.0 0.5750485862 -0.8124968913
14600212400.0 0.5624598105 -0.8215753501
14650212100.0 0.5497725829 -0.8308671446
14700211800.0 0.5357577044 -0.8396413559
14750211500.0 0.5235016699 -0.8484416832
14800211200.0 0.5113849161 -0.8562444944
14850210900.0 0.4991821352 -0.8635144386
14900210600.0 0.485823791 -0.8713621849
14950210300.0 0.4725848847 -0.8788982685
15000210000.0 0.4596797835 -0.8860479559
15050209700.0 0.4473966664 -0.8919625269
15100209400.0 0.4346849463 -0.8980228576
15150209100.0 0.421999171 -0.9032845586
15200208800.0 0.409265191 -0.9088366177
15250208500.0 0.3985262511 -0.9130208176
15300208200.0 0.3856496966 -0.9180324066
15350207900.0 0.3729027372 -0.9232057912
15400207600.0 0.3577558863 -0.9276900246
15450207300.0 0.3436089271 -0.9331069451
15500207000.0 0.3294538101 -0.9371743593
15550206700.0 0.3143826041 -0.9424963417
15600206400.0 0.2982092411 -0.9472865517
15650206100.0 0.2825378245 -0.9513305469
15700205800.0 0.2686760806 -0.9550652482
15750205500.0 0.254389285 -0.9586756337
15800205200.0 0.2398624216 -0.9622719294
15850204900.0 0.2255060228 -0.9654878755
15900204600.0 0.2103196274 -0.9691296777
15950204300.0 0.1961760389 -0.9720671264
16000204000.0 0.1820703028 -0.9749912739
16050203700.0 0.1674552175 -0.9779711414
16100203400.0 0.1526342838 -0.9802786356
16150203100.0 0.1381614987 -0.9827581144
16200202800.0 0.123836926 -0.9843314071
16250202500.0 0.1092524753 -0.9860866141
16300202200.0 0.0941693307 -0.9876525237
16350201900.0 0.0792985674 -0.9891879519
16400201600.0 0.0644950644 -0.9900887461
16450201300.0 0.0489836597 -0.9911109958
16500201000.0 0.0323697641 -0.9921002576
16550200700.0 0.0167184165 -0.9926554079
16600200400.0 0.0010277186 -0.9927131144
16650200100.0 -0.0153335076 -0.9927975682
16700199800.0 -0.0311855361 -0.9922143417
16750199500.0 -0.0504826822 -0.9916414334
16800199200.0 -0.0659430156 -0.9907977509
16850198900.0 -0.0815866212 -0.9890996152
16900198600.0 -0.0948869564 -0.9890445009
16950198300.0 -0.1089571488 -0.9877420362
17000198000.0 -0.1218158252 -0.9861284897
17050197700.0 -0.1333391791 -0.9847216177
17100197400.0 -0.1471726506 -0.982174919
17150197100.0 -0.1598648011 -0.9803810076
17200196800.0 -0.1728364469 -0.9783415759
17250196500.0 -0.1852020607 -0.9758389872
17300196200.0 -0.1972990399 -0.9736399361
17350195900.0 -0.2092945094 -0.97108286
17400195600.0 -0.2213961329 -0.9686883616
17450195300.0 -0.2343362113 -0.9660212236
17500195000.0 -0.2478285171 -0.9625805503
17550194700.0 -0.2617329048 -0.9587525919
17600194400.0 -0.2757904442 -0.955265749
17650194100.0 -0.2893292218 -0.9508546584
17700193800.0 -0.3023480705 -0.9464579984
17750193500.0 -0.3163911101 -0.9420982835
17800193200.0 -0.3310581971 -0.9366785606
17850192900.0 -0.3461951656 -0.9317435855
17900192600.0 -0.3612493213 -0.9254101479
17950192300.0 -0.3769696339 -0.9182302806
18000192000.0 -0.3919791807 -0.9112680179
18050191700.0 -0.4057312703 -0.9032362535
18100191400.0 -0.4200156221 -0.8954134097
18150191100.0 -0.434955962 -0.8873479812
18200190800.0 -0.451983521 -0.8782177163
18250190500.0 -0.4689697483 -0.8687818957
18300190200.0 -0.4843093911 -0.8601725088
18350189900.0 -0.4992139079 -0.8516084508
18400189600.0 -0.5137197709 -0.8432187721
18450189300.0 -0.5275986684 -0.8356963613
18500189000.0 -0.5403778358 -0.8274963622
18550188700.0 -0.5530491914 -0.8196682342
18600188400.0 -0.5646124159 -0.8134035396
18650188100.0 -0.5761726179 -0.8067360188
18700187800.0 -0.5868347893 -0.8001179073
18750187500.0 -0.5972869799 -0.7936345475
18800187200.0 -0.6078814179 -0.7865552574
18850186900.0 -0.6181030109 -0.7796918711
18900186600.0 -0.6281984519 -0.7721322571
18950186300.0 -0.6380728294 -0.764714386
19000186000.0 -0.6453306392 -0.7587165836
19050185700.0 -0.654719335 -0.7512540701
19100185400.0 -0.6643658569 -0.7428727814
19150185100.0 -0.6752534078 -0.7347057194
19200184800.0 -0.6840223353 -0.7262705914
19250184500.0 -0.6941750774 -0.7170582342
19300184200.0 -0.7054792391 -0.7074698084
19350183900.0 -0.7167409466 -0.6980504689
19400183600.0 -0.7264683524 -0.6876541906
19450183300.0 -0.7352321921 -0.6781655014
19500183000.0 -0.7436602802 -0.6679449386
19550182700.0 -0.7533540689 -0.6568933823
19600182400.0 -0.7633623795 -0.6452011883
19650182100.0 -0.7744304585 -0.6331117742
19700181800.0 -0.7850441646 -0.6195451795
19750181500.0 -0.7955322102 -0.6055509364
19800181200.0 -0.8059823231 -0.5905995699
19850180900.0 -0.8157803792 -0.5751103639
19900180600.0 -0.8237001269 -0.5605916128
19950180300.0 -0.8328451638 -0.5442441875
20000180000.0 -0.8256317618 -0.5466187689
20050179700.0 -0.8332221064 -0.5339053139
20100179400.0 -0.8420243284 -0.5199851428
20150179100.0 -0.8505379714 -0.5067956634
20200178800.0 -0.8593987711 -0.4947224706
20250178500.0 -0.8689219258 -0.4810847085
20300178200.0 -0.8782747366 -0.4664501852
20350177900.0 -0.8874903581 -0.452892733
20400177600.0 -0.8967891669 -0.4377089008
20450177300.0 -0.9049498729 -0.4235982009
20500177000.0 -0.9127866499 -0.4095201419
20550176700.0 -0.920710376 -0.396186242
20600176400.0 -0.9277267825 -0.3830222124
20650176100.0 -0.9339431455 -0.3707846281
20700175800.0 -0.9410660316 -0.3584960201
20750175500.0 -0.94754378 -0.3472927889
20800175200.0 -0.9516496397 -0.3364197514
20850174900.0 -0.9569452299 -0.3251848977
20900174600.0 -0.9614479933 -0.3142603765
20950174300.0 -0.9655940227 -0.3027434899
21000174000.0 -0.9697382103 -0.2918929
21050173700.0 -0.971197295 -0.2809902253
21100173400.0 -0.9759467493 -0.2682276273
21150173100.0 -0.9797764184 -0.2557923673
21200172800.0 -0.9830191587 -0.2422916386
21250172500.0 -0.9864792997 -0.229280802
21300172200.0 -0.9889026081 -0.2148085466
21350171900.0 -0.9912348046 -0.2003934461
21400171600.0 -0.991566898 -0.186455739
21450171300.0 -0.9925175985 -0.1720995386
21500171000.0 -0.9923237239 -0.1561326325
21550170700.0 -0.9916252422 -0.1412488093
21600170400.0 -0.9921793418 -0.1254272852
21650170100.0 -0.9921012177 -0.1097911623
21700169800.0 -0.9903449748 -0.0948831032
21750169500.0 -0.9893970538 -0.0781845684
21800169200.0 -0.9888628821 -0.0620565865
21850168900.0 -0.9875311877 -0.0455627163
21900168600.0 -0.9861814107 -0.029236809
21950168300.0 -0.985503368 -0.0131275942
22000168000.0 -0.9842562575 0.0021245261
22050167700.0 -0.9839815678 0.0162863501
22100167400.0 -0.9839196378 0.0313098359
22150167100.0 -0.9844494834 0.0471641545
22200166800.0 -0.9850637193 0.0629122457
22250166500.0 -0.9842807091 0.0802306463
22300166200.0 -0.9837392124 0.0978945152
22350165900.0 -0.9828095036 0.1136348222
22400165600.0 -0.9802171183 0.1289399041
22450165300.0 -0.9784176381 0.1446790445
22500165000.0 -0.9756532923 0.1579825401
22550164700.0 -0.9755101212 0.1732856306
22600164400.0 -0.9744245289 0.1892577878
22650164100.0 -0.972582652 0.2042090749
22700163800.0 -0.9697082346 0.2198705963
22750163500.0 -0.9668826794 0.234569701
22800163200.0 -0.9638147714 0.2483914349
22850162900.0 -0.9611272935 0.2610569442
22900162600.0 -0.9599293069 0.2746687622
22950162300.0 -0.958901986 0.2873872558
23000162000.0 -0.9578367419 0.2992806717
23050161700.0 -0.9554867993 0.3116706114
23100161400.0 -0.9529887307 0.3253952191
23150161100.0 -0.9508328583 0.3365778414
23200160800.0 -0.9477224483 0.3498622449
23250160500.0 -0.9446159321 0.3615694587
23300160200.0 -0.942523173 0.3735209257
23350159900.0 -0.9385507075 0.3864766808
23400159600.0 -0.9338332127 0.3998089253
23450159300.0 -0.9288683422 0.413518619
23500159000.0 -0.9244358864 0.4265522254
23550158700.0 -0.9202617053 0.4395542676
23600158400.0 -0.9145485937 0.4529915373
23650158100.0 -0.9082509835 0.4669393827
23700157800.0 -0.9005346853 0.4808474891
23750157500.0 -0.8919471438 0.4949914359
23800157200.0 -0.8829322353 0.5080100134
23850156900.0 -0.8742551546 0.5214513072
23900156600.0 -0.8651180306 0.5336660826
23950156300.0 -0.8557513096 0.5460519377
24000156000.0 -0.8464815507 0.5581554416
24050155700.0 -0.8368594549 0.5704291687
24100155400.0 -0.8272873489 0.5812461404
24150155100.0 -0.8162276672 0.5938376286
24200154800.0 -0.8056817875 0.604739807
24250154500.0 -0.7940041043 0.6168574933
24300154200.0 -0.7826318777 0.6284759663
24350153900.0 -0.7707816518 0.6387799802
24400153600.0 -0.7584192813 0.6491658894
24450153300.0 -0.7469680175 0.6589432361
24500153000.0 -0.7354143484 0.6687363217
24550152700.0 -0.7233473462 0.6779204907
24600152400.0 -0.7121695651 0.6874643923
