!Created with skrf (http://scikit-rf.org).
# Hz S RI R 50.0 
!freq ReS11 ImS11
300000.0 -0.974738002 -0.1179614699
50299700.0 -0.9999191102 0.0153447629
100299400.0 -0.9979022995 0.0282684659
150299100.0 -1.002701404 0.0449996702
200298800.0 -0.999606357 0.0585189682
250298500.0 -0.9974688256 0.0718837749
300298200.0 -0.9859817651 0.0877406137
350297900.0 -0.993967428 0.0987202268
400297600.0 -0.9933118622 0.1151481931
450297300.0 -0.9911353601 0.1289866902
500297000.0 -0.9894853316 0.1436717548
550296700.0 -0.9842986769 0.156167127
600296400.0 -1.017488208 0.1896582153
650296100.0 -0.9823427829 0.186223968
700295800.0 -0.9791558192 0.2004956898
750295500.0 -0.9762879072 0.2144683533
800295200.0 -0.9730040167 0.228341569
850294900.0 -0.9693653842 0.2422054816
900294600.0 -0.9658714762 0.2558397753
950294300.0 -0.9620560681 0.2697478683
1000294000.0 -0.9581493238 0.2837223826
1050293700.0 -0.9536694583 0.2973613086
1100293400.0 -0.9494190298 0.3119582771
1150293100.0 -0.9456943125 0.3237922741
1200292800.0 -0.9400589344 0.3380800077
1250292500.0 -0.9344985146 0.3515658849
1300292200.0 -0.9290481727 0.364810661
1350291900.0 -0.9233683031 0.3788946341
1400291600.0 -0.9179746227 0.3919468295
1450291300.0 -0.9124997388 0.4043951306
1500291000.0 -0.9061966535 0.4178533665
1550290700.0 -0.8994926443 0.4310194806
1600290400.0 -0.8935801502 0.4440498176
1650290100.0 -0.8866576278 0.4560247522
1700289800.0 -0.8799303894 0.4694876369
1750289500.0 -0.8728867235 0.4819937162
1800289200.0 -0.8655923838 0.4947523794
1850288900.0 -0.8586605161 0.5060226527
1900288600.0 -0.8509877839 0.5189954105
1950288300.0 -0.8429242714 0.5315596859
2000288000.0 -0.835416053 0.5430423451
2050287700.0 -0.8272392475 0.5555421224
2100287400.0 -0.8192676966 0.5668301517
2150287100.0 -0.8107100541 0.5791537756
2200286800.0 -0.8029527896 0.5894480574
2250286500.0 -0.7942615416 0.6013158272
2300286200.0 -0.7850550612 0.6129065468
2350285900.0 -0.7767729485 0.6239791469
2400285600.0 -0.7675835226 0.6349530378
2450285300.0 -0.7590574142 0.645340132
2500285000.0 -0.7491901968 0.6566249629
2550284700.0 -0.7402852104 0.6670542744
2600284400.0 -0.7311711129 0.6772770172
2650284100.0 -0.7218997698 0.6875553202
2700283800.0 -0.7115412491 0.6981102335
2750283500.0 -0.7011599102 0.7088620745
2800283200.0 -0.6912114124 0.718630419
2850282900.0 -0.6811054315 0.7283771551
2900282600.0 -0.6706747467 0.7378364539
2950282300.0 -0.6603828818 0.7470406723
3000282000.0 -0.6497411689 0.7565226079
3050281700.0 -0.638713072 0.766156849
3100281400.0 -0.6266851899 0.7752863769
3150281100.0 -0.6149708072 0.7845830934
3200280800.0 -0.6033090869 0.7931623875
3250280500.0 -0.5924851373 0.8009088518
3300280200.0 -0.5811636744 0.8088166766
3350279900.0 -0.5697097703 0.8163905163
3400279600.0 -0.5574351786 0.8239547342
3450279300.0 -0.5464049605 0.8310536401
3500279000.0 -0.5342768745 0.8383507691
3550278700.0 -0.5220179171 0.845536305
3600278400.0 -0.5095887638 0.8528125116
3650278100.0 -0.4964436232 0.8603286546
3700277800.0 -0.4844467221 0.8667925978
3750277500.0 -0.4722434026 0.8732200055
3800277200.0 -0.4595376059 0.879939526
3850276900.0 -0.4476738769 0.8858289095
3900276600.0 -0.4368496046 0.8914000944
3950276300.0 -0.4244864514 0.89749727
4000276000.0 -0.4125158472 0.9035110016
4050275700.0 -0.3994837781 0.9095355035
4100275400.0 -0.3882676824 0.9149570317
4150275100.0 -0.3758333332 0.9204745684
4200274800.0 -0.3625399001 0.9262374162
4250274500.0 -0.3505902491 0.9312821187
4300274200.0 -0.3374647525 0.9365988272
4350273900.0 -0.3238343957 0.9419348004
4400273600.0 -0.3088339649 0.9471684677
4450273300.0 -0.2938168872 0.952226188
4500273000.0 -0.2799234546 0.9563941617
4550272700.0 -0.2657022453 0.9607570235
4600272400.0 -0.2502986709 0.964887866
4650272100.0 -0.2386525327 0.9682274127
4700271800.0 -0.2255449022 0.9716166235
4750271500.0 -0.2138493004 0.9744796256
4800271200.0 -0.2011445968 0.9770905496
4850270900.0 -0.1873686066 0.9800371635
4900270600.0 -0.1735266318 0.9825876892
4950270300.0 -0.159147404 0.9848406986
5000270000.0 -0.1448829043 0.9868294233
5050269700.0 -0.1313442918 0.9887261195
5100269400.0 -0.1176494477 0.9898732478
5150269100.0 -0.104241935 0.991937089
5200268800.0 -0.0908557591 0.9926536965
5250268500.0 -0.0777725776 0.9940913867
5300268200.0 -0.0646370317 0.9945902458
5350267900.0 -0.052678253 0.9952453652
5400267600.0 -0.036153735 0.9962653587
5450267300.0 -0.0232748518 0.9964747257
5500267000.0 -0.0082382356 0.997021862
5550266700.0 0.0070345157 0.9973505527
5600266400.0 0.0224428627 0.997315353
5650266100.0 0.0389215813 0.9967018292
5700265800.0 0.0534629602 0.9961844691
5750265500.0 0.0682684731 0.9953433995
5800265200.0 0.0825445957 0.9943616449
5850264900.0 0.0956365211 0.9934018242
5900264600.0 0.1125251951 0.9916235896
5950264300.0 0.1241716188 0.989670118
6000264000.0 0.1381477349 0.9882445193
6050263700.0 0.1506463461 0.987073791
6100263400.0 0.1629020328 0.9848227255
6150263100.0 0.1775440018 0.9826394748
6200262800.0 0.1879148326 0.9809304231
6250262500.0 0.2005575294 0.9783746973
6300262200.0 0.2134431047 0.975801534
6350261900.0 0.2263225011 0.9730259427
6400261600.0 0.2403710578 0.9695831088
6450261300.0 0.2516066232 0.9669059951
6500261000.0 0.2643773398 0.9632614502
6550260700.0 0.2775988108 0.9593983452
6600260400.0 0.290761363 0.955264688
6650260100.0 0.3047774489 0.9509657486
6700259800.0 0.3167624289 0.9467743882
6750259500.0 0.3307642755 0.9416338351
6800259200.0 0.3438293611 0.936656331
6850258900.0 0.356139776 0.9317258743
6900258600.0 0.3683122717 0.9266208232
6950258300.0 0.3805163464 0.9211146257
7000258000.0 0.3924018675 0.9158001457
7050257700.0 0.4047051339 0.9098812941
7100257400.0 0.4174058052 0.9034744779
7150257100.0 0.427847732 0.8983191581
7200256800.0 0.4408356357 0.8919803663
7250256500.0 0.4524109089 0.8854857515
7300256200.0 0.465884834 0.8789315153
7350255900.0 0.4783478988 0.8718737072
7400255600.0 0.4913340509 0.8645900575
7450255300.0 0.5067275153 0.8555420851
7500255000.0 0.5186605682 0.8486575148
7550254700.0 0.5325024452 0.8398919692
7600254400.0 0.5447033591 0.831680049
7650254100.0 0.5565465277 0.8238614531
7700253800.0 0.5685552436 0.816061301
7750253500.0 0.5794684394 0.8082517636
7800253200.0 0.5902975227 0.8005771714
7850252900.0 0.6000323655 0.7934589554
7900252600.0 0.6118755258 0.7846893798
7950252300.0 0.6204629486 0.7782927636
8000252000.0 0.6306825603 0.7704950139
8050251700.0 0.6410114434 0.7623511226
8100251400.0 0.651059772 0.7544286137
8150251100.0 0.6611527848 0.7455445049
8200250800.0 0.6707634824 0.7377163229
8250250500.0 0.6797893382 0.729648006
8300250200.0 0.6888033584 0.721218186
8350249900.0 0.6975359737 0.7124583546
8400249600.0 0.7061351276 0.7045015588
8450249300.0 0.7152677602 0.695331167
8500249000.0 0.7238764697 0.6864209594
8550248700.0 0.7321393303 0.6774198728
8600248400.0 0.7405955363 0.6678081834
8650248100.0 0.7484055792 0.6583436527
8700247800.0 0.7577695894 0.6472011545
8750247500.0 0.7662795283 0.637033055
8800247200.0 0.7742454949 0.6266042698
8850246900.0 0.7833042088 0.6151822146
8900246600.0 0.7917706949 0.6037807119
8950246300.0 0.8010357832 0.5909084154
9000246000.0 0.8104659453 0.5782240969
9050245700.0 0.8198688242 0.5651299028
9100245400.0 0.8282001637 0.552758028
9150245100.0 0.8373968535 0.5396467473
9200244800.0 0.8467099822 0.5240673248
9250244500.0 0.8566049396 0.5089636376
9300244200.0 0.8646984073 0.4943678254
9350243900.0 0.8724603184 0.4806289706
9400243600.0 0.8792696282 0.4681452175
9450243300.0 0.8851075334 0.4567274171
9500243000.0 0.891540482 0.444379176
9550242700.0 0.8954283966 0.4368844685
9600242400.0 0.8991538266 0.4294613055
9650242100.0 0.9027718322 0.422880389
9700241800.0 0.9076908025 0.4147866207
9750241500.0 0.9116588998 0.4071050689
9800241200.0 0.9165227041 0.3977386803
9850240900.0 0.9215660235 0.3863860592
9900240600.0 0.9273075261 0.3750105802
9950240300.0 0.9342743593 0.3586001951
10000240000.0 0.9390968305 0.3468114356
10050239700.0 0.9444855763 0.3315582125
10100239400.0 0.9494980228 0.3162086868
10150239100.0 0.9538459221 0.3014841755
10200238800.0 0.9581815562 0.2862947361
10250238500.0 0.9614229901 0.2729313664
10300238200.0 0.9644758407 0.2590663362
10350237900.0 0.9672302343 0.2458293732
10400237600.0 0.9697932741 0.2328191702
10450237300.0 0.972458744 0.2189250892
10500237000.0 0.9745972062 0.2068394641
10550236700.0 0.977110925 0.1924854472
10600236400.0 0.9794134252 0.1785308753
10650236100.0 0.9811089395 0.1642166866
10700235800.0 0.9836340294 0.1521300143
10750235500.0 0.9859355205 0.138437922
10800235200.0 0.9874485508 0.1246860511
10850234900.0 0.9897268358 0.1097188299
10900234600.0 0.9916029985 0.0953025731
10950234300.0 0.9933106262 0.0819966699
11000234000.0 0.995140856 0.0668381332
11050233700.0 0.9969489331 0.0506773175
11100233400.0 0.9984318841 0.03304305
11150233100.0 0.9996519131 0.0163225267
11200232800.0 1.000711342 0.0013068526
11250232500.0 1.00128014 -0.0153794891
11300232200.0 1.001793864 -0.0328633249
11350231900.0 1.001521414 -0.0487640471
11400231600.0 1.001178784 -0.0628503833
11450231300.0 1.001073946 -0.0791466594
11500231000.0 1.000104723 -0.0963257748
11550230700.0 0.9981763056 -0.109319111
11600230400.0 0.9972331791 -0.1212864861
11650230100.0 0.9950275536 -0.133389796
11700229800.0 0.9929705237 -0.1474524089
11750229500.0 0.9907240909 -0.1621440666
11800229200.0 0.9882369494 -0.1758790738
11850228900.0 0.9848371642 -0.1881739937
11900228600.0 0.9811053244 -0.197708097
11950228300.0 0.9779636943 -0.2082089005
12000228000.0 0.9750739486 -0.2170778212
12050227700.0 0.9711343038 -0.2303496264
12100227400.0 0.9682049376 -0.2408942604
12150227100.0 0.9633010046 -0.2580807453
12200226800.0 0.9595009897 -0.2685393364
12250226500.0 0.9554804122 -0.2821083182
12300226200.0 0.9510812176 -0.2946345108
12350225900.0 0.9468219654 -0.3077619885
12400225600.0 0.9424595259 -0.3202648074
12450225300.0 0.9376465522 -0.333649814
12500225000.0 0.9321900482 -0.3484405972
12550224700.0 0.9270153253 -0.3618571684
12600224400.0 0.9220278233 -0.3750083781
12650224100.0 0.9161498088 -0.3893949086
12700223800.0 0.9109896973 -0.4021886658
12750223500.0 0.9054623657 -0.4151861028
12800223200.0 0.9001090533 -0.4281302225
12850222900.0 0.895011152 -0.4401516026
12900222600.0 0.8891703911 -0.4519151255
12950222300.0 0.8826378058 -0.4650595281
13000222000.0 0.8772835826 -0.4765416077
13050221700.0 0.870504167 -0.4888462827
13100221400.0 0.8633154776 -0.5016625595
13150221100.0 0.8565180399 -0.5136641727
13200220800.0 0.849852992 -0.5246980011
13250220500.0 0.8426510367 -0.5367312199
13300220200.0 0.8350418928 -0.5475318545
13350219900.0 0.8271126929 -0.55941366
13400219600.0 0.8187697257 -0.5717134112
13450219300.0 0.8097471939 -0.5848955183
13500219000.0 0.7991682423 -0.5989291156
13550218700.0 0.7890189177 -0.6117344983
13600218400.0 0.7791984379 -0.6237953305
13650218100.0 0.770025157 -0.6346020922
13700217800.0 0.7591170114 -0.6469303189
13750217500.0 0.7489886502 -0.6575777461
13800217200.0 0.7377065127 -0.6702121189
13850216900.0 0.7264796685 -0.6813423552
13900216600.0 0.7162886527 -0.69057661
13950216300.0 0.705934332 -0.7006560695
14000216000.0 0.6959705129 -0.7097466978
14050215700.0 0.6858926301 -0.7180637533
14100215400.0 0.676612103 -0.727572678
14150215100.0 0.666992868 -0.7360338284
14200214800.0 0.6576897242 -0.7447521283
14250214500.0 0.6474424638 -0.7541277581
14300214200.0 0.6371705377 -0.763301246
14350213900.0 0.625799398 -0.7729519229
14400213600.0 0.6138225194 -0.7830393333
14450213300.0 0.6010191592 -0.7929001194
14500213000.0 0.5876182354 -0.8033017616
14550212700.0 0.5750856045 -0.8126707415
14600212400.0 0.5628273416 -0.8215362736
14650212100.0 0.5501083186 -0.8298275061
14700211800.0 0.5356001135 -0.8397233181
14750211500.0 0.5241489096 -0.8477286793
14800211200.0 0.5116601736 -0.8556393585
14850210900.0 0.499679766 -0.8632758029
14900210600.0 0.4863874404 -0.8710145844
14950210300.0 0.4730084763 -0.8786290867
15000210000.0 0.4603098384 -0.8853221997
15050209700.0 0.4482056301 -0.891614541
15100209400.0 0.4350983371 -0.8975812867
15150209100.0 0.4232354996 -0.9031168505
15200208800.0 0.4102261493 -0.9087323629
15250208500.0 0.3991725136 -0.9125603839
15300208200.0 0.3872662809 -0.9172214541
15350207900.0 0.3730855809 -0.9215898568
15400207600.0 0.3591191359 -0.9282807448
15450207300.0 0.3443579312 -0.9330988461
15500207000.0 0.3296879521 -0.9377578893
15550206700.0 0.3149382713 -0.9422814734
15600206400.0 0.2989975065 -0.9466811583
15650206100.0 0.2829899151 -0.951416187
15700205800.0 0.2693964408 -0.9552977207
15750205500.0 0.2552359896 -0.9584882347
15800205200.0 0.2407089867 -0.9619483088
15850204900.0 0.2264191414 -0.9653447996
15900204600.0 0.2111444561 -0.969090713
15950204300.0 0.1969779619 -0.9719278732
16000204000.0 0.1825401886 -0.9752356017
16050203700.0 0.1679089593 -0.9781800541
16100203400.0 0.1529939166 -0.9798494046
16150203100.0 0.1386186071 -0.9822571854
16200202800.0 0.1242986723 -0.9848250793
16250202500.0 0.1096267076 -0.9863626643
16300202200.0 0.094365036 -0.987726045
16350201900.0 0.0795785205 -0.9889109236
16400201600.0 0.0647669276 -0.9901393428
16450201300.0 0.0496779799 -0.9912217763
16500201000.0 0.0329255703 -0.9921358714
16550200700.0 0.0172466965 -0.9925846769
16600200400.0 0.0019818643 -0.9928594289
16650200100.0 -0.014143697 -0.9923343046
16700199800.0 -0.0303796378 -0.9922781796
16750199500.0 -0.0488581405 -0.9919772264
16800199200.0 -0.0647096314 -0.9911869106
16850198900.0 -0.0798422404 -0.9894706243
16900198600.0 -0.0936648529 -0.9886936704
16950198300.0 -0.1077101606 -0.9874037829
17000198000.0 -0.1206328662 -0.9862671546
17050197700.0 -0.1328846582 -0.9840851599
17100197400.0 -0.1460899203 -0.9823732927
17150197100.0 -0.1590259041 -0.9801351628
17200196800.0 -0.1714880388 -0.978064999
17250196500.0 -0.1844596599 -0.9759886828
17300196200.0 -0.1966325477 -0.9735061506
17350195900.0 -0.2085700004 -0.9712968338
17400195600.0 -0.2206816029 -0.9688546787
17450195300.0 -0.2338016331 -0.9659730428
17500195000.0 -0.2475240425 -0.9627588573
17550194700.0 -0.2613754151 -0.9591542783
17600194400.0 -0.2748851082 -0.9548343887
17650194100.0 -0.2888211708 -0.9509050301
17700193800.0 -0.3018159459 -0.9462055466
17750193500.0 -0.3161528914 -0.9421511965
17800193200.0 -0.3307934776 -0.9371421061
17850192900.0 -0.3458414382 -0.9316116135
17900192600.0 -0.3609321881 -0.9250569831
17950192300.0 -0.3768598326 -0.9185359071
18000192000.0 -0.3913318139 -0.9113135996
18050191700.0 -0.4051147942 -0.9033240944
18100191400.0 -0.4193585122 -0.8958754856
18150191100.0 -0.4343974621 -0.8878776785
18200190800.0 -0.451215065 -0.8786098762
18250190500.0 -0.4682402078 -0.8691448397
18300190200.0 -0.4837841604 -0.8607403159
18350189900.0 -0.4987775214 -0.8521605219
18400189600.0 -0.5131530631 -0.8437251722
18450189300.0 -0.5262542359 -0.8362212555
18500189000.0 -0.5399381807 -0.8274920836
18550188700.0 -0.5524953313 -0.8205695267
18600188400.0 -0.5642031845 -0.8135460881
18650188100.0 -0.5753463774 -0.8069508028
18700187800.0 -0.5860763224 -0.8007988421
18750187500.0 -0.5965802705 -0.7939890922
18800187200.0 -0.6072384431 -0.7869678672
18850186900.0 -0.6174574581 -0.7801135088
18900186600.0 -0.6275663189 -0.7726536601
18950186300.0 -0.6375636903 -0.7651201694
19000186000.0 -0.6449620497 -0.7591516932
19050185700.0 -0.6542512735 -0.7514707278
19100185400.0 -0.6640968698 -0.7431806387
19150185100.0 -0.6742959507 -0.7346633647
19200184800.0 -0.6833374534 -0.7270322885
19250184500.0 -0.6934998319 -0.7170664973
19300184200.0 -0.7058469985 -0.707840099
19350183900.0 -0.7162161535 -0.6982524116
19400183600.0 -0.7258861471 -0.6884156569
19450183300.0 -0.7348106548 -0.6781151073
19500183000.0 -0.7427188557 -0.6684797697
19550182700.0 -0.7523614422 -0.6573550325
19600182400.0 -0.7629315625 -0.6457021985
19650182100.0 -0.7739609106 -0.6331927867
19700181800.0 -0.7846851857 -0.6200004562
19750181500.0 -0.7950907407 -0.6061394698
19800181200.0 -0.8056135715 -0.5910752223
19850180900.0 -0.8151183054 -0.5758164252
19900180600.0 -0.822675204 -0.5612273779
19950180300.0 -0.832481467 -0.5450167481
20000180000.0 -0.8258246992 -0.546822609
20050179700.0 -0.833226828 -0.5339193211
20100179400.0 -0.8420177209 -0.5200182035
20150179100.0 -0.8511689773 -0.5074300281
20200178800.0 -0.8592954175 -0.4954414985
20250178500.0 -0.8691008842 -0.4817856944
20300178200.0 -0.8787653017 -0.467368529
20350177900.0 -0.8875306009 -0.4526785062
20400177600.0 -0.8962622221 -0.4382647345
20450177300.0 -0.9048119514 -0.4239762889
20500177000.0 -0.9126639899 -0.4099542343
20550176700.0 -0.9206550837 -0.3963612986
20600176400.0 -0.9276159328 -0.3834424182
20650176100.0 -0.9341554815 -0.3714850018
20700175800.0 -0.9407872377 -0.359415974
20750175500.0 -0.9476313647 -0.3478271285
20800175200.0 -0.9519429278 -0.3372504485
20850174900.0 -0.9570604196 -0.3258803688
20900174600.0 -0.9607567511 -0.3146620796
20950174300.0 -0.9651636302 -0.3029981117
21000174000.0 -0.9688267386 -0.2917671159
21050173700.0 -0.9710128447 -0.2816630234
21100173400.0 -0.9747668749 -0.2693183812
21150173100.0 -0.9796565923 -0.2564352394
21200172800.0 -0.9830953488 -0.2432011379
21250172500.0 -0.9863149423 -0.2297385152
21300172200.0 -0.9887693232 -0.2155069582
21350171900.0 -0.990851636 -0.2007744378
21400171600.0 -0.9918709778 -0.1871964977
21450171300.0 -0.9926196051 -0.1723112321
21500171000.0 -0.9917795185 -0.1569649818
21550170700.0 -0.9920082493 -0.140931747
21600170400.0 -0.9917876953 -0.1254932921
21650170100.0 -0.9924396556 -0.1101001608
21700169800.0 -0.9897947722 -0.0950892096
21750169500.0 -0.988876371 -0.0790182574
21800169200.0 -0.9880489192 -0.0626956547
21850168900.0 -0.9874766876 -0.0457982656
21900168600.0 -0.985780181 -0.0305001697
21950168300.0 -0.9849778542 -0.0136072372
22000168000.0 -0.9843734024 0.001325145
22050167700.0 -0.9840643358 0.0158449571
22100167400.0 -0.9839875101 0.0309260272
22150167100.0 -0.9850977138 0.0465529872
22200166800.0 -0.9855529526 0.0627563597
22250166500.0 -0.9844817786 0.0804315712
22300166200.0 -0.9840866026 0.0965202492
22350165900.0 -0.9827510857 0.1131529421
22400165600.0 -0.9806642381 0.1285811054
22450165300.0 -0.9789955077 0.1439451597
22500165000.0 -0.9780541536 0.1573787954
22550164700.0 -0.9767191092 0.1736305646
22600164400.0 -0.9740512762 0.187815588
22650164100.0 -0.9719777863 0.2035557891
22700163800.0 -0.9695790384 0.2190024955
22750163500.0 -0.9669328809 0.2341547374
22800163200.0 -0.9644658923 0.2466609487
22850162900.0 -0.9615410015 0.2605319633
22900162600.0 -0.9600863181 0.2741264517
22950162300.0 -0.9590742637 0.2871569604
23000162000.0 -0.9577105232 0.2985599369
23050161700.0 -0.9556920007 0.3113438691
23100161400.0 -0.953787659 0.3237515574
23150161100.0 -0.9504236008 0.3366222098
23200160800.0 -0.9477857497 0.3486631686
23250160500.0 -0.945350361 0.3608837902
23300160200.0 -0.9421307676 0.3736828461
23350159900.0 -0.9386363465 0.3868912015
23400159600.0 -0.9338606723 0.3990154436
23450159300.0 -0.9292389445 0.4130508323
23500159000.0 -0.9245348607 0.4259423255
23550158700.0 -0.9200689077 0.4397631025
23600158400.0 -0.914664741 0.4527164604
23650158100.0 -0.9082121919 0.4668049375
23700157800.0 -0.9006173151 0.4806175039
23750157500.0 -0.8919455361 0.4951188469
23800157200.0 -0.8835938537 0.5076620423
23850156900.0 -0.8742804376 0.5205517603
23900156600.0 -0.8650720119 0.5330314489
23950156300.0 -0.8554609989 0.546457444
24000156000.0 -0.8468053557 0.5580189859
24050155700.0 -0.8368685367 0.569697624
24100155400.0 -0.8264063016 0.5818284035
24150155100.0 -0.816500347 0.5931745113
24200154800.0 -0.8049979205 0.60519609
24250154500.0 -0.7947044653 0.6163592592
24300154200.0 -0.7829490599 0.6279797174
24350153900.0 -0.7710755828 0.6386132224
24400153600.0 -0.7588476924 0.6489448964
24450153300.0 -0.7467953634 0.6589821578
24500153000.0 -0.7353648568 0.6686562922
24550152700.0 -0.7246043479 0.6782601407
24600152400.0 -0.7129376128 0.6867982943
24650152100.0 -0.701163101 0.6957961162
