!Created with skrf (http://scikit-rf.org).
# Hz S RI R 50.0 
!freq ReS11 ImS11
300000.0 -0.9800031992 -0.1066350754
50299700.0 -1.000020571 0.0160784204
100299400.0 -0.9980555973 0.0288673172
150299100.0 -1.00279662 0.0459707071
200298800.0 -0.9997475704 0.0590872957
250298500.0 -0.9975415115 0.0726932666
300298200.0 -0.9860118606 0.0884384738
350297900.0 -0.994095449 0.0992706268
400297600.0 -0.9931924615 0.1157732971
450297300.0 -0.9911193109 0.1297825895
500297000.0 -0.9896351718 0.1445569624
550296700.0 -0.9843627192 0.1571726103
600296400.0 -1.017124404 0.1902859809
650296100.0 -0.9823402487 0.1870167253
700295800.0 -0.9792552351 0.2011203352
750295500.0 -0.9764361918 0.2153751435
800295200.0 -0.9728176721 0.2294507885
850294900.0 -0.9695818005 0.2433301159
900294600.0 -0.9658397193 0.2568594046
950294300.0 -0.9619615475 0.2707386986
1000294000.0 -0.9578600039 0.2847134534
1050293700.0 -0.9533303065 0.2984076544
1100293400.0 -0.9492451911 0.312830262
1150293100.0 -0.9452040921 0.3246112452
1200292800.0 -0.9398212049 0.3390456664
1250292500.0 -0.9343114053 0.3525401043
1300292200.0 -0.928408869 0.3657229547
1350291900.0 -0.9232206686 0.3798000115
1400291600.0 -0.9176858828 0.3927345842
1450291300.0 -0.9120487385 0.4051900707
1500291000.0 -0.9058877626 0.4185817462
1550290700.0 -0.8993364122 0.4318331034
1600290400.0 -0.8931954578 0.4446009568
1650290100.0 -0.8863901567 0.4569254046
1700289800.0 -0.8793840379 0.4701504182
1750289500.0 -0.8726313205 0.4827499598
1800289200.0 -0.8649456158 0.4955544068
1850288900.0 -0.8584575028 0.5066989481
1900288600.0 -0.8504910232 0.5198791257
1950288300.0 -0.8425252848 0.5323798115
2000288000.0 -0.8350079391 0.5438149345
2050287700.0 -0.8267287033 0.5562285668
2100287400.0 -0.8187269812 0.5680798354
2150287100.0 -0.8100728589 0.5799738517
2200286800.0 -0.8022242725 0.5902938045
2250286500.0 -0.7935451216 0.6022445655
2300286200.0 -0.7847765694 0.6139133378
2350285900.0 -0.7758035716 0.6249056571
2400285600.0 -0.7666530705 0.6357928537
2450285300.0 -0.7582810197 0.6462587577
2500285000.0 -0.7484783464 0.6577006496
2550284700.0 -0.7394746886 0.6678116098
2600284400.0 -0.7299429167 0.6779741081
2650284100.0 -0.7210929829 0.6887855542
2700283800.0 -0.7104785756 0.69917717
2750283500.0 -0.7002100495 0.7097761973
2800283200.0 -0.6904781963 0.7194656949
2850282900.0 -0.6802542189 0.7291386698
2900282600.0 -0.6699328102 0.7387911675
2950282300.0 -0.659809933 0.7479343649
3000282000.0 -0.6488771211 0.7573279956
3050281700.0 -0.6378391721 0.7665467691
3100281400.0 -0.6259437607 0.7761119779
3150281100.0 -0.6142039527 0.7855092131
3200280800.0 -0.6023755443 0.7939769791
3250280500.0 -0.5917188198 0.8016036388
3300280200.0 -0.5805177887 0.8095255108
3350279900.0 -0.5690133429 0.8169215762
3400279600.0 -0.5569960915 0.8245663559
3450279300.0 -0.5456054048 0.8318941188
3500279000.0 -0.5336149433 0.8387069318
3550278700.0 -0.521168697 0.8460767607
3600278400.0 -0.5090697278 0.8534920666
3650278100.0 -0.4957120211 0.8608264613
3700277800.0 -0.4839091485 0.8674564533
3750277500.0 -0.4713438903 0.8738156686
3800277200.0 -0.4589813717 0.8804423142
3850276900.0 -0.4468201291 0.8863565545
3900276600.0 -0.4358249986 0.8919980558
3950276300.0 -0.4233202152 0.8982101
4000276000.0 -0.4112940078 0.9041566461
4050275700.0 -0.3984864623 0.9098297887
4100275400.0 -0.3870813118 0.9154467137
4150275100.0 -0.3743882589 0.92131591
4200274800.0 -0.3614850398 0.9266311541
4250274500.0 -0.3494431131 0.9318153901
4300274200.0 -0.3362848584 0.9370367319
4350273900.0 -0.3224899428 0.9421187202
4400273600.0 -0.3074864731 0.9471960542
4450273300.0 -0.2921706702 0.9525895428
4500273000.0 -0.2785021874 0.9568038473
4550272700.0 -0.2643216348 0.9611411725
4600272400.0 -0.2487968176 0.9654600838
4650272100.0 -0.2370529117 0.9684907486
4700271800.0 -0.2237404643 0.9718022676
4750271500.0 -0.2120538105 0.9747642751
4800271200.0 -0.1996837946 0.9775389118
4850270900.0 -0.1856561612 0.980346341
4900270600.0 -0.1717276133 0.9826899461
4950270300.0 -0.1575553671 0.9853860844
5000270000.0 -0.1434693312 0.9873390441
5050269700.0 -0.1299485389 0.9889414082
5100269400.0 -0.1163917987 0.9905107506
5150269100.0 -0.1033586599 0.9920348007
5200268800.0 -0.0898167858 0.9930363929
5250268500.0 -0.07681715 0.9938709272
5300268200.0 -0.0638481164 0.9952178314
5350267900.0 -0.0516015134 0.9953989057
5400267600.0 -0.0353520804 0.9964196448
5450267300.0 -0.0223438958 0.996680697
5500267000.0 -0.0071744299 0.9971966431
5550266700.0 0.0077211406 0.9972907755
5600266400.0 0.023186042 0.9971821847
5650266100.0 0.0396691678 0.9968211708
5700265800.0 0.0545432075 0.9963253235
5750265500.0 0.0696121642 0.9953115162
5800265200.0 0.0833789426 0.9946347819
5850264900.0 0.0967671338 0.9931672274
5900264600.0 0.1134294061 0.9913957191
5950264300.0 0.1256831158 0.9901993308
6000264000.0 0.1395503551 0.9882246854
6050263700.0 0.1521753768 0.9864991795
6100263400.0 0.1645752466 0.984843684
6150263100.0 0.1791315063 0.982382518
6200262800.0 0.1895836158 0.9805357314
6250262500.0 0.2023070121 0.9780911739
6300262200.0 0.2151763612 0.9751347314
6350261900.0 0.2283421355 0.9722608777
6400261600.0 0.2420596196 0.9688994259
6450261300.0 0.2536152645 0.9663743393
6500261000.0 0.2663595183 0.9627102684
6550260700.0 0.279382128 0.9588318121
6600260400.0 0.2926496398 0.9546008436
6650260100.0 0.3063732744 0.9507102956
6700259800.0 0.3187579148 0.9461285562
6750259500.0 0.332219172 0.941359211
6800259200.0 0.3453686523 0.936335192
6850258900.0 0.3574175942 0.9309864272
6900258600.0 0.3694236088 0.926015442
6950258300.0 0.3819627529 0.9208358021
7000258000.0 0.3940037225 0.9154129839
7050257700.0 0.4061745689 0.9092720408
7100257400.0 0.4188971906 0.9030488431
7150257100.0 0.4292388247 0.8978789481
7200256800.0 0.4421401738 0.8914246429
7250256500.0 0.453966217 0.8851986557
7300256200.0 0.4665443022 0.8780901603
7350255900.0 0.4795493287 0.8714423341
7400255600.0 0.4922779737 0.8642479595
7450255300.0 0.5076249205 0.8553392681
7500255000.0 0.5191112569 0.8479851884
7550254700.0 0.5335324931 0.8395373367
7600254400.0 0.5460897585 0.8311774998
7650254100.0 0.5574901616 0.8234433065
7700253800.0 0.5691235627 0.8153060279
7750253500.0 0.5804340289 0.8074704706
7800253200.0 0.5912540145 0.7999654249
7850252900.0 0.6008274285 0.7926713555
7900252600.0 0.612593579 0.7840045023
7950252300.0 0.6214321931 0.7773584692
8000252000.0 0.6319308589 0.7694846509
8050251700.0 0.6421091238 0.7612040476
8100251400.0 0.6523426581 0.7530669997
8150251100.0 0.662498044 0.7444404356
8200250800.0 0.6719171168 0.7365451386
8250250500.0 0.6807442569 0.7285448307
8300250200.0 0.6900681015 0.7199211121
8350249900.0 0.6990598556 0.7109193891
8400249600.0 0.7074377594 0.7031509509
8450249300.0 0.7166725614 0.6937783497
8500249000.0 0.725181269 0.6852557392
8550248700.0 0.7332991468 0.6759500884
8600248400.0 0.7417291268 0.6665635074
8650248100.0 0.7494782029 0.6571180232
8700247800.0 0.7590031932 0.6458670523
8750247500.0 0.7672835534 0.6358117797
8800247200.0 0.7752101137 0.625547786
8850246900.0 0.7841671946 0.614292445
8900246600.0 0.7925315789 0.6030301977
8950246300.0 0.8021880945 0.5899066778
9000246000.0 0.8116832768 0.5772471489
9050245700.0 0.8202189102 0.5642766484
9100245400.0 0.8289621764 0.5516467837
9150245100.0 0.8381652187 0.5380663763
9200244800.0 0.8483619928 0.5225620361
9250244500.0 0.8576925669 0.5071274286
9300244200.0 0.8661183486 0.4923615828
9350243900.0 0.8737176926 0.4784868759
9400243600.0 0.8803458614 0.466005822
9450243300.0 0.8864479023 0.454130903
9500243000.0 0.8926185843 0.4419739219
9550242700.0 0.8965375201 0.4342753187
9600242400.0 0.9001619648 0.426873963
9650242100.0 0.9040367591 0.4202239843
9700241800.0 0.9083619433 0.412100845
9750241500.0 0.9123163583 0.4046606207
9800241200.0 0.9170945588 0.3951706572
9850240900.0 0.9226417946 0.3835061987
9900240600.0 0.9284162198 0.3717168217
9950240300.0 0.9347135222 0.3558894241
10000240000.0 0.9392003888 0.344411542
10050239700.0 0.9450008458 0.3293291702
10100239400.0 0.950287861 0.3134394226
10150239100.0 0.954295641 0.2990292039
10200238800.0 0.9585541084 0.2840048896
10250238500.0 0.961804157 0.2706038982
10300238200.0 0.9651138176 0.2567040878
10350237900.0 0.9675200761 0.2435887091
10400237600.0 0.9700993866 0.2306038111
10450237300.0 0.9729850915 0.2170652648
10500237000.0 0.9750366545 0.2045780985
10550236700.0 0.9774362587 0.1906352737
10600236400.0 0.9795094377 0.177351293
10650236100.0 0.9817841766 0.1623704269
10700235800.0 0.9833791908 0.1513653693
10750235500.0 0.9858351966 0.1376470718
10800235200.0 0.98798097 0.1232997496
10850234900.0 0.9899103255 0.1088643802
10900234600.0 0.991932063 0.0943188518
10950234300.0 0.9934974194 0.0810201063
11000234000.0 0.995267376 0.0659371147
11050233700.0 0.9969869293 0.0496039994
11100233400.0 0.9982318781 0.0322203943
11150233100.0 0.9995953277 0.0156443406
11200232800.0 1.00017262 0.0013736858
11250232500.0 1.001387447 -0.0161825444
11300232200.0 1.001682367 -0.0342356315
11350231900.0 1.001439634 -0.0493311511
11400231600.0 1.001366435 -0.0656713537
11450231300.0 1.000786781 -0.0810574289
11500231000.0 0.9995993942 -0.0973867268
11550230700.0 0.9980019252 -0.1104336981
11600230400.0 0.9972287321 -0.1233359952
11650230100.0 0.9947812552 -0.1352015634
11700229800.0 0.99229975 -0.1494530001
11750229500.0 0.9903184498 -0.1644034477
11800229200.0 0.9875898034 -0.1782043365
11850228900.0 0.9840148696 -0.1903307137
11900228600.0 0.9804435139 -0.2004109628
11950228300.0 0.9772562799 -0.2104372067
12000228000.0 0.9745430268 -0.2195013942
12050227700.0 0.9708361781 -0.2328135639
12100227400.0 0.9677912262 -0.2427542317
12150227100.0 0.9628440525 -0.2602439442
12200226800.0 0.9589232589 -0.2709924623
12250226500.0 0.955511094 -0.2834587363
12300226200.0 0.9508507454 -0.2961152117
12350225900.0 0.9455207202 -0.3108228308
12400225600.0 0.9416038519 -0.3217299335
12450225300.0 0.937112829 -0.3348966207
12500225000.0 0.9322001491 -0.3496940597
12550224700.0 0.9265749768 -0.3636318581
12600224400.0 0.9215291633 -0.3760952135
12650224100.0 0.9158310733 -0.3904089207
12700223800.0 0.9104982192 -0.4032353888
12750223500.0 0.9051988158 -0.4158945026
12800223200.0 0.8998058988 -0.4288877574
12850222900.0 0.8948671203 -0.440734663
12900222600.0 0.8890287076 -0.4524687612
12950222300.0 0.8818765771 -0.4661465871
13000222000.0 0.8763057776 -0.4772460433
13050221700.0 0.8695872617 -0.4901187539
13100221400.0 0.8629859472 -0.5019128935
13150221100.0 0.8556960957 -0.5139479072
13200220800.0 0.848774602 -0.5264098791
13250220500.0 0.8415661226 -0.5380456731
13300220200.0 0.8341813709 -0.5488743985
13350219900.0 0.8261968829 -0.5611219859
13400219600.0 0.8174623074 -0.5733300492
13450219300.0 0.8079604387 -0.5869499581
13500219000.0 0.7977824176 -0.600763114
13550218700.0 0.7874390544 -0.6137295153
13600218400.0 0.7767884806 -0.6263262793
13650218100.0 0.7674089851 -0.6375813472
13700217800.0 0.7560676476 -0.6499056264
13750217500.0 0.7465306059 -0.66123056
13800217200.0 0.735718802 -0.6720315537
13850216900.0 0.7249855933 -0.6835878367
13900216600.0 0.7143893168 -0.6929017013
13950216300.0 0.7032308032 -0.7037649407
14000216000.0 0.6932544436 -0.7123304382
14050215700.0 0.6837953142 -0.7205979126
14100215400.0 0.6741205537 -0.7295995831
14150215100.0 0.6649901187 -0.7379512709
14200214800.0 0.6555770677 -0.746446197
14250214500.0 0.6454656424 -0.7557738579
14300214200.0 0.6351621404 -0.764922355
14350213900.0 0.6240831192 -0.7746185876
14400213600.0 0.6121525149 -0.7839963371
14450213300.0 0.5998979424 -0.7943009086
14500213000.0 0.5864758 -0.8038642612
14550212700.0 0.5736698778 -0.8134225635
14600212400.0 0.560788382 -0.8222866019
14650212100.0 0.548397854 -0.831082967
14700211800.0 0.5341123982 -0.8400114476
14750211500.0 0.5217995214 -0.8488662787
14800211200.0 0.5104238235 -0.8566190663
14850210900.0 0.4979562049 -0.8641389801
14900210600.0 0.4844244039 -0.8720857844
14950210300.0 0.4709186526 -0.8796232205
15000210000.0 0.4578318208 -0.8864205599
15050209700.0 0.4461996331 -0.8928311506
15100209400.0 0.4328231462 -0.898625686
15150209100.0 0.4203108322 -0.9040718892
15200208800.0 0.4071861939 -0.9091370847
15250208500.0 0.3954788664 -0.914839579
15300208200.0 0.384593617 -0.9185125597
15350207900.0 0.370239422 -0.9234596769
15400207600.0 0.3553704912 -0.9290780807
15450207300.0 0.3412532198 -0.9339030595
15500207000.0 0.3267087539 -0.9387450738
15550206700.0 0.3114010967 -0.9438497262
15600206400.0 0.2956822482 -0.9481616696
15650206100.0 0.2799806 -0.9527141804
15700205800.0 0.2661452705 -0.9558696909
15750205500.0 0.2512547414 -0.9593653693
15800205200.0 0.236973712 -0.9629275018
15850204900.0 0.2225733357 -0.9662829809
15900204600.0 0.2075855197 -0.9697595185
15950204300.0 0.193424791 -0.9727026412
16000204000.0 0.1794156081 -0.9754611605
16050203700.0 0.164869914 -0.9784301145
16100203400.0 0.1502831083 -0.9803145845
16150203100.0 0.1361914621 -0.9825487226
16200202800.0 0.122519003 -0.9850035118
16250202500.0 0.1075222223 -0.9864860668
16300202200.0 0.0923769324 -0.987665748
16350201900.0 0.0774726594 -0.9894385596
16400201600.0 0.0628447029 -0.9902561124
16450201300.0 0.04777078 -0.9912209726
16500201000.0 0.0313423649 -0.9920654749
16550200700.0 0.0156814667 -0.9926322932
16600200400.0 -0.0002531401 -0.9927452661
16650200100.0 -0.0164672623 -0.9925463264
16700199800.0 -0.032792717 -0.9919775168
16750199500.0 -0.0519997733 -0.991771827
16800199200.0 -0.067490416 -0.9904027497
16850198900.0 -0.0827442423 -0.989741071
16900198600.0 -0.0965129343 -0.9884336748
16950198300.0 -0.1104233869 -0.9874238609
17000198000.0 -0.1232527763 -0.9854667583
17050197700.0 -0.1360150823 -0.9839763325
17100197400.0 -0.1484358753 -0.9815425533
17150197100.0 -0.161714089 -0.9797013321
17200196800.0 -0.1744289467 -0.977334453
17250196500.0 -0.187121726 -0.9749247936
17300196200.0 -0.1993500768 -0.9726580077
17350195900.0 -0.2115157256 -0.9705405644
17400195600.0 -0.2235630383 -0.9680097099
17450195300.0 -0.2366324263 -0.9653554365
17500195000.0 -0.2502367552 -0.9620098207
17550194700.0 -0.2642476732 -0.9580963231
17600194400.0 -0.2779872954 -0.9540111236
17650194100.0 -0.2916013725 -0.950273246
17700193800.0 -0.3043821897 -0.9461327759
17750193500.0 -0.3186522045 -0.9414195862
17800193200.0 -0.3337156575 -0.9362281597
17850192900.0 -0.348565391 -0.9307330281
17900192600.0 -0.3634462488 -0.9248108708
17950192300.0 -0.3789826117 -0.9176402021
18000192000.0 -0.3935573001 -0.9107856804
18050191700.0 -0.4072038096 -0.9026864711
18100191400.0 -0.4214516536 -0.8948877196
18150191100.0 -0.4363172101 -0.8867278731
18200190800.0 -0.4530617287 -0.8777445041
18250190500.0 -0.4700609291 -0.8680462674
18300190200.0 -0.4855276847 -0.859377921
18350189900.0 -0.500397113 -0.8512400019
18400189600.0 -0.5148021425 -0.8424810503
18450189300.0 -0.5280759136 -0.8340636259
18500189000.0 -0.5414813189 -0.8263657627
18550188700.0 -0.5541709441 -0.8187496793
18600188400.0 -0.565971139 -0.8121837206
18650188100.0 -0.5772860321 -0.8055184966
18700187800.0 -0.587950823 -0.7989455651
18750187500.0 -0.5987033976 -0.7922230447
18800187200.0 -0.6094475737 -0.7848910774
18850186900.0 -0.6195895272 -0.7778601257
18900186600.0 -0.6301181979 -0.7703686622
18950186300.0 -0.6401637201 -0.7626079116
19000186000.0 -0.6475068933 -0.7560556631
19050185700.0 -0.6574215245 -0.7489873392
19100185400.0 -0.6666758178 -0.7403877236
19150185100.0 -0.6775376252 -0.7313161623
19200184800.0 -0.6870733523 -0.72391149
19250184500.0 -0.697306209 -0.7140532583
19300184200.0 -0.7083719289 -0.704346336
19350183900.0 -0.7192942668 -0.6948449714
19400183600.0 -0.7288632408 -0.6850465191
19450183300.0 -0.7379899657 -0.6745246384
19500183000.0 -0.7457976913 -0.6650214684
19550182700.0 -0.7553936876 -0.6540979921
19600182400.0 -0.7662537424 -0.6427557305
19650182100.0 -0.7765867733 -0.6305870959
19700181800.0 -0.7872826198 -0.6170516105
19750181500.0 -0.7977362193 -0.6029837462
19800181200.0 -0.8079100261 -0.5883547679
19850180900.0 -0.8174029704 -0.5731879591
19900180600.0 -0.8247937246 -0.5586439173
19950180300.0 -0.8341974458 -0.5425281361
20000180000.0 -0.8272203723 -0.5450061334
20050179700.0 -0.8351187757 -0.5325057859
20100179400.0 -0.8436669174 -0.5183332085
20150179100.0 -0.851978341 -0.5053002513
20200178800.0 -0.8607298875 -0.4935684582
20250178500.0 -0.8706260419 -0.4800865669
20300178200.0 -0.8795079876 -0.4651894648
20350177900.0 -0.8884465526 -0.4502427545
20400177600.0 -0.8971493745 -0.4358184573
20450177300.0 -0.9056652376 -0.4210467802
20500177000.0 -0.9130865168 -0.4071665707
20550176700.0 -0.9211993147 -0.3938195085
20600176400.0 -0.9283568407 -0.3804971924
20650176100.0 -0.9348535265 -0.3679164716
20700175800.0 -0.9424701673 -0.3559428091
20750175500.0 -0.9485815193 -0.3442700389
20800175200.0 -0.9535829423 -0.3331790737
20850174900.0 -0.9580452101 -0.3222456031
20900174600.0 -0.9629344262 -0.3106981306
20950174300.0 -0.9660644283 -0.2990700903
21000174000.0 -0.9703027379 -0.2863215051
21050173700.0 -0.9739294519 -0.275831171
21100173400.0 -0.9778215015 -0.2633745272
21150173100.0 -0.9820715654 -0.2514527203
21200172800.0 -0.984808612 -0.2376637489
21250172500.0 -0.9883979698 -0.2235278443
21300172200.0 -0.9910943394 -0.2095012468
21350171900.0 -0.992736576 -0.1952073352
21400171600.0 -0.9935103948 -0.1806314739
21450171300.0 -0.9931859739 -0.1656745946
21500171000.0 -0.9932637948 -0.1506828162
21550170700.0 -0.9939057633 -0.13564375
21600170400.0 -0.9936023213 -0.120498929
21650170100.0 -0.9928543052 -0.1040616667
21700169800.0 -0.9905747758 -0.0899038001
21750169500.0 -0.9886714964 -0.0744286853
21800169200.0 -0.9882120455 -0.0567012053
21850168900.0 -0.9867292313 -0.0407033413
21900168600.0 -0.9849017248 -0.0247624998
21950168300.0 -0.9841287981 -0.0090940394
22000168000.0 -0.9829478248 0.0059253619
22050167700.0 -0.9829599515 0.0200428937
22100167400.0 -0.982486635 0.0354322744
22150167100.0 -0.9833143728 0.0505557049
22200166800.0 -0.983456384 0.0667464848
22250166500.0 -0.9829871993 0.0844445964
22300166200.0 -0.9816951 0.1000478279
22350165900.0 -0.9810277624 0.1167144241
22400165600.0 -0.9782370999 0.1342309068
22450165300.0 -0.9767875255 0.148360091
22500165000.0 -0.9748240065 0.1607635522
22550164700.0 -0.9746557026 0.1760316509
22600164400.0 -0.9730611066 0.191449715
22650164100.0 -0.9705304379 0.2070289335
22700163800.0 -0.9674893387 0.2232156876
22750163500.0 -0.9649599973 0.23835081
22800163200.0 -0.9629373677 0.2516720236
22850162900.0 -0.9598845711 0.2652456207
22900162600.0 -0.9582578775 0.2789110698
22950162300.0 -0.9572131238 0.2910858795
23000162000.0 -0.9560394554 0.3031089565
23050161700.0 -0.954511382 0.3156546409
23100161400.0 -0.9523490794 0.3285041167
23150161100.0 -0.9497625989 0.3400355129
23200160800.0 -0.9459929705 0.352737623
23250160500.0 -0.9439286477 0.3646740151
23300160200.0 -0.9412568766 0.3765638181
23350159900.0 -0.9374078335 0.3893121192
23400159600.0 -0.932971575 0.4022481267
23450159300.0 -0.9278211242 0.415009403
23500159000.0 -0.9232357605 0.4280829359
23550158700.0 -0.9190604795 0.4417923507
23600158400.0 -0.9133406822 0.4549577142
23650158100.0 -0.9070506068 0.4687256477
23700157800.0 -0.8996581584 0.4823839883
23750157500.0 -0.8911136986 0.4962878882
23800157200.0 -0.8821220197 0.5095054169
23850156900.0 -0.8736074262 0.5220582701
23900156600.0 -0.8643278736 0.5350474557
23950156300.0 -0.8541678018 0.5474076427
24000156000.0 -0.8454751282 0.5593596483
24050155700.0 -0.8356538641 0.5714620386
24100155400.0 -0.8258593724 0.5825696332
24150155100.0 -0.8146545981 0.5940707082
24200154800.0 -0.8042689229 0.6055522597
24250154500.0 -0.7924211921 0.6179027861
24300154200.0 -0.7805695264 0.629273137
24350153900.0 -0.7692808318 0.6399694799
24400153600.0 -0.7568910526 0.6500659375
24450153300.0 -0.744948285 0.660152725
24500153000.0 -0.7334870008 0.6698594801
24550152700.0 -0.7224947087 0.6794148679
24600152400.0 -0.7106283527 0.6889490365
24650152100.0 -0.6989296932 0.6975944487
