!Created with skrf (http://scikit-rf.org).
# Hz S RI R 50.0 
!freq ReS11 ImS11
300000.0 -0.9757485428 -0.1146905173
50299700.0 -0.9999661762 0.0156354944
100299400.0 -0.9978900297 0.0284653757
150299100.0 -1.002978 0.0453434284
200298800.0 -0.9994971908 0.0588440836
250298500.0 -0.9973746102 0.072099983
300298200.0 -0.9860696206 0.0880272464
350297900.0 -0.9941113848 0.0989190232
400297600.0 -0.9932298774 0.1154367997
450297300.0 -0.9909154695 0.1294443707
500297000.0 -0.9895994652 0.1439895322
550296700.0 -0.9844197323 0.1563368089
600296400.0 -1.017186585 0.1898599761
650296100.0 -0.9822871851 0.1865929027
700295800.0 -0.9794700061 0.2008749298
750295500.0 -0.9762153991 0.2148111669
800295200.0 -0.9731416704 0.2289102425
850294900.0 -0.9697331182 0.2429158935
900294600.0 -0.9658143947 0.2563760527
950294300.0 -0.9621614962 0.2703023043
1000294000.0 -0.9578153814 0.2840050251
1050293700.0 -0.9536637971 0.2980920039
1100293400.0 -0.949180742 0.3124011454
1150293100.0 -0.9454600743 0.3242479374
1200292800.0 -0.9400594144 0.338654413
1250292500.0 -0.9346638882 0.351964062
1300292200.0 -0.9288244707 0.3651297031
1350291900.0 -0.923202219 0.3793955365
1400291600.0 -0.9179254926 0.3923639212
1450291300.0 -0.9123886183 0.4047179226
1500291000.0 -0.9060499029 0.417973884
1550290700.0 -0.8995120003 0.4315577544
1600290400.0 -0.893347348 0.4443685953
1650290100.0 -0.8865965766 0.4566989953
1700289800.0 -0.8797998368 0.4699109568
1750289500.0 -0.8725063025 0.4822911515
1800289200.0 -0.8653345852 0.4951981941
1850288900.0 -0.8585672815 0.5064818576
1900288600.0 -0.8508937447 0.519370057
1950288300.0 -0.8427386735 0.5320864622
2000288000.0 -0.8352979971 0.5434522759
2050287700.0 -0.8269738399 0.5558364132
2100287400.0 -0.8191093469 0.567527898
2150287100.0 -0.8104530964 0.5792560937
2200286800.0 -0.8026569734 0.5897011217
2250286500.0 -0.7939163004 0.6019436616
2300286200.0 -0.7847525581 0.6135460461
2350285900.0 -0.7761334891 0.6244694769
2400285600.0 -0.7671617685 0.6354432658
2450285300.0 -0.7585988134 0.6460148664
2500285000.0 -0.7490837435 0.6570324279
2550284700.0 -0.7399413103 0.667502486
2600284400.0 -0.7305434679 0.6776244955
2650284100.0 -0.7213906628 0.6881242553
2700283800.0 -0.7109782146 0.6988580968
2750283500.0 -0.7008329437 0.709141165
2800283200.0 -0.6911840082 0.7189332666
2850282900.0 -0.68068941 0.7285454411
2900282600.0 -0.6703490846 0.7384862629
2950282300.0 -0.6601308441 0.7476322439
3000282000.0 -0.6494703906 0.7571180022
3050281700.0 -0.6383952272 0.7664136642
3100281400.0 -0.6263369291 0.7757329253
3150281100.0 -0.6145896037 0.7850642309
3200280800.0 -0.6028862198 0.7936195813
3250280500.0 -0.5920365938 0.8012796723
3300280200.0 -0.5807716122 0.8091541154
3350279900.0 -0.5691921981 0.8165840222
3400279600.0 -0.5573021214 0.8243562979
3450279300.0 -0.5460285174 0.8314648293
3500279000.0 -0.5340772227 0.838713461
3550278700.0 -0.521641717 0.8460826447
3600278400.0 -0.509132166 0.8530937499
3650278100.0 -0.4961165037 0.8605949837
3700277800.0 -0.4841128102 0.8672301725
3750277500.0 -0.4713803371 0.8735358206
3800277200.0 -0.4591265486 0.8801504665
3850276900.0 -0.4472152891 0.8860873611
3900276600.0 -0.4362937577 0.8916336141
3950276300.0 -0.4237828149 0.8976342314
4000276000.0 -0.4119647201 0.9037911345
4050275700.0 -0.3989518111 0.9098120771
4100275400.0 -0.3878345366 0.9155556263
4150275100.0 -0.3750858524 0.920805711
4200274800.0 -0.3620993564 0.926417294
4250274500.0 -0.349864907 0.9315938249
4300274200.0 -0.3368749874 0.9364625646
4350273900.0 -0.3231279791 0.942027482
4400273600.0 -0.3081750392 0.9474852609
4450273300.0 -0.2930317111 0.9524539217
4500273000.0 -0.27908838 0.956809099
4550272700.0 -0.2651536608 0.9610058101
4600272400.0 -0.2494916331 0.9652716499
4650272100.0 -0.2378467768 0.9685407553
4700271800.0 -0.224533231 0.9718917712
4750271500.0 -0.21292859 0.974660252
4800271200.0 -0.2003817512 0.977394521
4850270900.0 -0.1865260052 0.9802220183
4900270600.0 -0.1724606299 0.9827405123
4950270300.0 -0.1583343583 0.9850343658
5000270000.0 -0.1440531073 0.9870965721
5050269700.0 -0.1306489153 0.9884427597
5100269400.0 -0.1170512292 0.9900245956
5150269100.0 -0.103512707 0.9921912745
5200268800.0 -0.0904280283 0.9932641625
5250268500.0 -0.0772967418 0.9940424147
5300268200.0 -0.0640962592 0.9949499078
5350267900.0 -0.0519202107 0.995210442
5400267600.0 -0.0357185481 0.9965965706
5450267300.0 -0.0228068535 0.9968155386
5500267000.0 -0.0075639119 0.9968382898
5550266700.0 0.0074283672 0.9972079997
5600266400.0 0.0227677614 0.9970706968
5650266100.0 0.0395117728 0.9968308604
5700265800.0 0.0539278102 0.9960413966
5750265500.0 0.0692260597 0.9953527424
5800265200.0 0.0832649997 0.9941780668
5850264900.0 0.0968730165 0.993506985
5900264600.0 0.1129142967 0.9916058986
5950264300.0 0.1250007202 0.9897837261
6000264000.0 0.1393966993 0.9879885903
6050263700.0 0.151920549 0.98686518
6100263400.0 0.164138297 0.9848009567
6150263100.0 0.1787226706 0.9826678567
6200262800.0 0.1888886759 0.9807730339
6250262500.0 0.201765234 0.978385847
6300262200.0 0.2145475274 0.975624263
6350261900.0 0.2277190205 0.9726678413
6400261600.0 0.2413905425 0.9692690834
6450261300.0 0.2529457651 0.9665027535
6500261000.0 0.2657210127 0.9630906499
6550260700.0 0.2788609203 0.9590532252
6600260400.0 0.2919240887 0.9550182129
6650260100.0 0.3057025695 0.9506951321
6700259800.0 0.3178412742 0.9463677206
6750259500.0 0.331558179 0.9412769944
6800259200.0 0.3448568875 0.9364384264
6850258900.0 0.3571066408 0.9313978253
6900258600.0 0.3689225917 0.9262219244
6950258300.0 0.3814644888 0.9209764606
7000258000.0 0.3934217713 0.9154822475
7050257700.0 0.4058890361 0.9093233169
7100257400.0 0.4183151986 0.9032206967
7150257100.0 0.4288059524 0.8978080809
7200256800.0 0.4416687526 0.8914535501
7250256500.0 0.4533749002 0.8852923765
7300256200.0 0.4665824982 0.8785947936
7350255900.0 0.479234152 0.8714464853
7400255600.0 0.4921298706 0.8643277039
7450255300.0 0.5071115655 0.8551329462
7500255000.0 0.5190108491 0.8482354733
7550254700.0 0.5328923675 0.839311579
7600254400.0 0.5456829146 0.8314684884
7650254100.0 0.5571855939 0.823666115
7700253800.0 0.5691576184 0.8156209943
7750253500.0 0.580470254 0.8077110659
7800253200.0 0.5909731784 0.8001732288
7850252900.0 0.6005953529 0.7931482216
7900252600.0 0.6122693145 0.7840668576
7950252300.0 0.6211005859 0.777799028
8000252000.0 0.631286015 0.7699955051
8050251700.0 0.6415450134 0.7617292632
8100251400.0 0.6518613417 0.7537342229
8150251100.0 0.6618630311 0.744841581
8200250800.0 0.6711764262 0.7371527723
8250250500.0 0.6802753957 0.7292391029
8300250200.0 0.6897718311 0.7204265253
8350249900.0 0.6985118514 0.711784495
8400249600.0 0.7066171288 0.7037254914
8450249300.0 0.7159119319 0.6944332928
8500249000.0 0.7244129346 0.6856606443
8550248700.0 0.7329399336 0.6766689283
8600248400.0 0.7412005377 0.6671474729
8650248100.0 0.7489102172 0.6576762383
8700247800.0 0.7585318689 0.6465507242
8750247500.0 0.7667325232 0.6363053023
8800247200.0 0.7749901347 0.6260124415
8850246900.0 0.7839020494 0.6146841783
8900246600.0 0.7921525752 0.6033155344
8950246300.0 0.8017925754 0.5901675538
9000246000.0 0.811304632 0.5775081835
9050245700.0 0.8202780302 0.5643247865
9100245400.0 0.8292317373 0.5518447211
9150245100.0 0.8381478892 0.538290815
9200244800.0 0.8479546262 0.5226307422
9250244500.0 0.857542267 0.5072594921
9300244200.0 0.8658839152 0.4924645718
9350243900.0 0.8737793351 0.4788859322
9400243600.0 0.8803831001 0.466365805
9450243300.0 0.8861569123 0.4545801737
9500243000.0 0.8924370007 0.4424585605
9550242700.0 0.8962363864 0.4349831664
9600242400.0 0.9002235819 0.427621806
9650242100.0 0.9035858522 0.4211543331
9700241800.0 0.9080384712 0.4130301832
9750241500.0 0.9120034238 0.4053958756
9800241200.0 0.91677013 0.3963619632
9850240900.0 0.9224484297 0.3846676466
9900240600.0 0.9281485096 0.3731251013
9950240300.0 0.9345560315 0.3569015488
10000240000.0 0.9390879455 0.3455589571
10050239700.0 0.9446626725 0.330116962
10100239400.0 0.9499275003 0.3146442901
10150239100.0 0.9542528273 0.2999378643
10200238800.0 0.9582697898 0.2849171563
10250238500.0 0.9615884084 0.2716890933
10300238200.0 0.9648984086 0.2577268164
10350237900.0 0.9674979517 0.2444130985
10400237600.0 0.9698942013 0.2316319738
10450237300.0 0.9726667086 0.217630252
10500237000.0 0.9749192028 0.2054478408
10550236700.0 0.9771553557 0.1917222436
10600236400.0 0.9791794642 0.1782008995
10650236100.0 0.980938962 0.1635409012
10700235800.0 0.9838878027 0.1513456149
10750235500.0 0.9856987836 0.1374908933
10800235200.0 0.9879327522 0.1236252252
10850234900.0 0.9898842731 0.1089618372
10900234600.0 0.991509999 0.0947639274
10950234300.0 0.9937988531 0.0813922861
11000234000.0 0.9952312134 0.0662558428
11050233700.0 0.9970675844 0.0499417059
11100233400.0 0.9983046688 0.0325317776
11150233100.0 0.9996207286 0.0161554208
11200232800.0 1.000110237 0.0013438927
11250232500.0 1.001270902 -0.0153904639
11300232200.0 1.001913986 -0.0337743145
11350231900.0 1.002186627 -0.0495285764
11400231600.0 1.001647247 -0.0645908138
11450231300.0 1.000726305 -0.0797269887
11500231000.0 0.9997051319 -0.0965039225
11550230700.0 0.9980299122 -0.1090463803
11600230400.0 0.9969652911 -0.1223398288
11650230100.0 0.9951657072 -0.1337583344
11700229800.0 0.9932295511 -0.1484280715
11750229500.0 0.9905906327 -0.1633254186
11800229200.0 0.987933109 -0.1771816763
11850228900.0 0.9842860425 -0.1893104927
11900228600.0 0.9809040574 -0.1991247669
11950228300.0 0.9772127844 -0.2099261081
12000228000.0 0.975111335 -0.2183757219
12050227700.0 0.9708479054 -0.2317349786
12100227400.0 0.9679728594 -0.2419227099
12150227100.0 0.9624356541 -0.2593045244
12200226800.0 0.9596709565 -0.2701439335
12250226500.0 0.9552406292 -0.2830539617
12300226200.0 0.9514381149 -0.2952388007
12350225900.0 0.9461867364 -0.3084340715
12400225600.0 0.9418977061 -0.3214938498
12450225300.0 0.9374455609 -0.3341565532
12500225000.0 0.9317420316 -0.3492218299
12550224700.0 0.9266880183 -0.36274264
12600224400.0 0.922022653 -0.3756695265
12650224100.0 0.9161276546 -0.3897752002
12700223800.0 0.9107433994 -0.4028312874
12750223500.0 0.9052882442 -0.4156192352
12800223200.0 0.9001068816 -0.4282763838
12850222900.0 0.8948275442 -0.4402807698
12900222600.0 0.8887907772 -0.4527111305
12950222300.0 0.8825447838 -0.4656855048
13000222000.0 0.8766866113 -0.4771042268
13050221700.0 0.869776291 -0.4895382689
13100221400.0 0.863267038 -0.5010869054
13150221100.0 0.8564313584 -0.5141786675
13200220800.0 0.8493518659 -0.5256259297
13250220500.0 0.8419621762 -0.5375577741
13300220200.0 0.8345659173 -0.5481210995
13350219900.0 0.8266695567 -0.5602250323
13400219600.0 0.818117359 -0.5722393342
13450219300.0 0.8087114504 -0.5859569564
13500219000.0 0.7981494435 -0.6001955736
13550218700.0 0.7881696435 -0.6130830232
13600218400.0 0.7780986499 -0.6248655104
13650218100.0 0.7687363855 -0.6358422403
13700217800.0 0.7572933785 -0.6485398701
13750217500.0 0.7477301256 -0.6595914597
13800217200.0 0.7355614969 -0.6717878237
13850216900.0 0.7255483746 -0.683171881
13900216600.0 0.7147569028 -0.6919172425
13950216300.0 0.7039102794 -0.7014697747
14000216000.0 0.6945519351 -0.7110566774
14050215700.0 0.6842711203 -0.7193855388
14100215400.0 0.6748055373 -0.7289081342
14150215100.0 0.6657366948 -0.737590397
14200214800.0 0.6563755225 -0.7459813902
14250214500.0 0.6460400265 -0.755185827
14300214200.0 0.6358936056 -0.764467957
14350213900.0 0.6246706536 -0.7739650322
14400213600.0 0.6130182143 -0.7835210235
14450213300.0 0.5996114092 -0.7940174834
14500213000.0 0.5863393031 -0.8040410648
14550212700.0 0.5744543807 -0.8134822096
14600212400.0 0.5614876116 -0.8218370759
14650212100.0 0.5487856625 -0.8311109735
14700211800.0 0.5352619803 -0.8403247945
14750211500.0 0.5222784558 -0.8484345282
14800211200.0 0.5103384278 -0.8564986031
14850210900.0 0.4982375762 -0.863911416
14900210600.0 0.4848996255 -0.8719193104
14950210300.0 0.4715130376 -0.8794913876
15000210000.0 0.4586288422 -0.8860626607
15050209700.0 0.446270601 -0.892151696
15100209400.0 0.4339079444 -0.8984896954
15150209100.0 0.4215853671 -0.9034977086
15200208800.0 0.4079613028 -0.9093481713
15250208500.0 0.3968301761 -0.9135124381
15300208200.0 0.3840691087 -0.9181638534
15350207900.0 0.3718140157 -0.9231532146
15400207600.0 0.3567259248 -0.9284351397
15450207300.0 0.3422132535 -0.9336429584
15500207000.0 0.3277734245 -0.9384937992
15550206700.0 0.3127664571 -0.9434140171
15600206400.0 0.2970960171 -0.9477244203
15650206100.0 0.2809306845 -0.9518817425
15700205800.0 0.267190778 -0.9555757496
15750205500.0 0.25270995 -0.9590733668
15800205200.0 0.2382557829 -0.9626230713
15850204900.0 0.223866755 -0.9660634142
15900204600.0 0.2089237882 -0.9694840795
15950204300.0 0.1949154142 -0.9725767038
16000204000.0 0.1808503062 -0.9753559057
16050203700.0 0.1657938692 -0.978212498
16100203400.0 0.1516206955 -0.9803051162
16150203100.0 0.1367503789 -0.9826713242
16200202800.0 0.122893605 -0.9846523466
16250202500.0 0.1082171975 -0.9864357273
16300202200.0 0.0927557193 -0.9877306543
16350201900.0 0.0778349521 -0.9893804038
16400201600.0 0.0634182037 -0.9903070041
16450201300.0 0.0481545345 -0.9912137553
16500201000.0 0.0314051984 -0.9920786806
16550200700.0 0.0158540376 -0.9926136783
16600200400.0 0.0001942019 -0.9925585242
16650200100.0 -0.0160036038 -0.9927074025
16700199800.0 -0.0326798336 -0.9923995254
16750199500.0 -0.052018872 -0.9917387674
16800199200.0 -0.06738304 -0.990650279
16850198900.0 -0.08202706 -0.9893444775
16900198600.0 -0.0957595931 -0.9883054153
16950198300.0 -0.1089824212 -0.9875101218
17000198000.0 -0.1229973416 -0.9858882514
17050197700.0 -0.1346750249 -0.9840976331
17100197400.0 -0.1474644544 -0.9814611303
17150197100.0 -0.160480304 -0.9800197532
17200196800.0 -0.1733657729 -0.9776213185
17250196500.0 -0.1861627935 -0.9756064428
17300196200.0 -0.198398471 -0.9729865542
17350195900.0 -0.2102388771 -0.9710005324
17400195600.0 -0.2223023557 -0.9686719982
17450195300.0 -0.2355151096 -0.9658395164
17500195000.0 -0.2486921409 -0.9625099344
17550194700.0 -0.2626432399 -0.959162409
17600194400.0 -0.2768814641 -0.9546031091
17650194100.0 -0.2905508304 -0.9502583514
17700193800.0 -0.3033324551 -0.9466206633
17750193500.0 -0.3181515281 -0.9416718071
17800193200.0 -0.3320859441 -0.9366537797
17850192900.0 -0.3473874803 -0.9314128074
17900192600.0 -0.3622751781 -0.9250339322
17950192300.0 -0.3778544208 -0.9177217352
18000192000.0 -0.3926550469 -0.9106071709
18050191700.0 -0.4066597825 -0.9026684332
18100191400.0 -0.4207554992 -0.8949989795
18150191100.0 -0.4357914417 -0.886940449
18200190800.0 -0.4529100077 -0.8776973982
18250190500.0 -0.4698556404 -0.8682816134
18300190200.0 -0.4851100847 -0.8592556443
18350189900.0 -0.5002670829 -0.8508335679
18400189600.0 -0.5146204551 -0.8425820328
18450189300.0 -0.5280743558 -0.8347801172
18500189000.0 -0.5417129367 -0.8263076824
18550188700.0 -0.5538381676 -0.8189546758
18600188400.0 -0.5653430963 -0.8121573651
18650188100.0 -0.5765301974 -0.8060724113
18700187800.0 -0.5873217456 -0.7992907592
18750187500.0 -0.5980398391 -0.7930620979
18800187200.0 -0.6086377811 -0.7860098557
18850186900.0 -0.6188077769 -0.7790375656
18900186600.0 -0.629130458 -0.7715882962
18950186300.0 -0.638985898 -0.7638025746
19000186000.0 -0.6459016879 -0.7573769567
19050185700.0 -0.655391511 -0.7507216986
19100185400.0 -0.6656872112 -0.7424324679
19150185100.0 -0.6754074451 -0.7337434153
19200184800.0 -0.6844710647 -0.7252553075
19250184500.0 -0.6952631479 -0.7156589347
19300184200.0 -0.7070593981 -0.7068830645
19350183900.0 -0.7175278642 -0.6967514592
19400183600.0 -0.7269194962 -0.6870891743
19450183300.0 -0.7359711286 -0.676920521
19500183000.0 -0.7443423423 -0.6670069063
19550182700.0 -0.7539138102 -0.6560262171
19600182400.0 -0.7639600134 -0.6442531084
19650182100.0 -0.7752254642 -0.6319743124
19700181800.0 -0.7855620327 -0.618899156
19750181500.0 -0.7965050612 -0.6044830404
19800181200.0 -0.8067719711 -0.5892323686
19850180900.0 -0.8164511228 -0.574015125
19900180600.0 -0.8242686541 -0.5595205216
19950180300.0 -0.8334498624 -0.5431210191
20000180000.0 -0.8266255982 -0.5452895049
20050179700.0 -0.8348492155 -0.5322596986
20100179400.0 -0.8434073265 -0.5196338998
20150179100.0 -0.8513988742 -0.5064753756
20200178800.0 -0.860602885 -0.4933300704
20250178500.0 -0.8698290317 -0.4796661458
20300178200.0 -0.8791235274 -0.4654885991
20350177900.0 -0.8881636076 -0.4508043851
20400177600.0 -0.8975546646 -0.4364297567
20450177300.0 -0.9055078158 -0.4223271666
20500177000.0 -0.9135675019 -0.4080613273
20550176700.0 -0.9214234209 -0.3946241845
20600176400.0 -0.9282186002 -0.3813648019
20650176100.0 -0.9347766803 -0.3691288442
20700175800.0 -0.9414738676 -0.3577238818
20750175500.0 -0.948236388 -0.3452434506
20800175200.0 -0.9533820424 -0.3345261768
20850174900.0 -0.9575341065 -0.3237678805
20900174600.0 -0.962600291 -0.3118369569
20950174300.0 -0.9660507978 -0.3005441482
21000174000.0 -0.9700210538 -0.2893716351
21050173700.0 -0.9719960752 -0.2783965802
21100173400.0 -0.9772634237 -0.2662318241
21150173100.0 -0.9809074568 -0.2536419555
21200172800.0 -0.9843499342 -0.2403355174
21250172500.0 -0.9875601284 -0.226163747
21300172200.0 -0.98988082 -0.2122419101
21350171900.0 -0.9914034854 -0.1977385613
21400171600.0 -0.9926715854 -0.1834884607
21450171300.0 -0.9932497926 -0.1691311747
21500171000.0 -0.9934040917 -0.153925469
21550170700.0 -0.9925412567 -0.1382582973
21600170400.0 -0.9923111334 -0.1230181947
21650170100.0 -0.9911393442 -0.1071485875
21700169800.0 -0.9898984613 -0.0901252071
21750169500.0 -0.9890585011 -0.0757886736
21800169200.0 -0.9874143546 -0.0590915443
21850168900.0 -0.9867957624 -0.0430587511
21900168600.0 -0.985740857 -0.0264220979
21950168300.0 -0.9840446808 -0.0103897053
22000168000.0 -0.9828951302 0.0040897953
22050167700.0 -0.9828687478 0.0184817914
22100167400.0 -0.983154087 0.033702978
22150167100.0 -0.983624759 0.0493824011
22200166800.0 -0.9843487525 0.0662022796
22250166500.0 -0.9836027356 0.0826067518
22300166200.0 -0.9822279707 0.0997762897
22350165900.0 -0.9814239723 0.11625967
22400165600.0 -0.9796628848 0.1320006747
22450165300.0 -0.9773893326 0.1466369948
22500165000.0 -0.9761260786 0.1602930189
22550164700.0 -0.9754223954 0.1751440753
22600164400.0 -0.9729879907 0.190695274
22650164100.0 -0.9712356673 0.2060070863
22700163800.0 -0.9690689688 0.221660113
22750163500.0 -0.9660383884 0.2372761821
22800163200.0 -0.9627519142 0.2506948322
22850162900.0 -0.9605284109 0.2636588738
22900162600.0 -0.9591438281 0.2770240483
22950162300.0 -0.9579753088 0.2898100928
23000162000.0 -0.9570735607 0.3020424862
23050161700.0 -0.9544406403 0.3140849465
23100161400.0 -0.9524746579 0.3269694201
23150161100.0 -0.9497034969 0.3396780791
23200160800.0 -0.9467299019 0.351533035
23250160500.0 -0.9439929458 0.3637342398
23300160200.0 -0.9422906103 0.3755961156
23350159900.0 -0.9380612302 0.3880080784
23400159600.0 -0.9334519408 0.4022109387
23450159300.0 -0.9286542245 0.4154471551
23500159000.0 -0.9240882197 0.427384921
23550158700.0 -0.919554467 0.44101832
23600158400.0 -0.9144197913 0.4542038194
23650158100.0 -0.9078456143 0.468293752
23700157800.0 -0.9005388942 0.4822215538
23750157500.0 -0.891764791 0.4963538098
23800157200.0 -0.8832560595 0.5093303039
23850156900.0 -0.8739490439 0.5219354251
23900156600.0 -0.8647886146 0.5349511166
23950156300.0 -0.8558317565 0.5473657419
24000156000.0 -0.845936094 0.5581334154
24050155700.0 -0.8363069949 0.5709338244
24100155400.0 -0.8266955387 0.5819590041
24150155100.0 -0.8157517378 0.5938905696
24200154800.0 -0.8048019776 0.6060701832
24250154500.0 -0.7936886841 0.6172021258
24300154200.0 -0.7819888649 0.628902826
24350153900.0 -0.7702261332 0.639366694
24400153600.0 -0.7576563538 0.6496962772
24450153300.0 -0.7460235292 0.6596991762
24500153000.0 -0.7345103408 0.6691361408
24550152700.0 -0.7229517353 0.6791506688
24600152400.0 -0.71200456 0.6871718498
24650152100.0 -0.6997846709 0.6961631262
