!Created with skrf (http://scikit-rf.org).
# Hz S RI R 50.0 
!freq ReS11 ImS11
300000.0 -0.9869767754 -0.0767209461
50299700.0 -0.9998609894 0.0164095133
100299400.0 -0.9978401575 0.0292625496
150299100.0 -1.002637648 0.0463010624
200298800.0 -0.9995157725 0.0594250031
250298500.0 -0.9971872239 0.0731363678
300298200.0 -0.985761468 0.0889609079
350297900.0 -0.9937294306 0.0997835884
400297600.0 -0.9927785787 0.1162180119
450297300.0 -0.9905701676 0.1299068568
500297000.0 -0.9890999647 0.1447807579
550296700.0 -0.9840407066 0.1570706459
600296400.0 -1.016834067 0.1904205598
650296100.0 -0.9815570835 0.1871877882
700295800.0 -0.9787691495 0.2014517863
750295500.0 -0.9755887388 0.2154767349
800295200.0 -0.9723736916 0.2294154573
850294900.0 -0.9688978728 0.2433480561
900294600.0 -0.9649652365 0.2571871898
950294300.0 -0.961358278 0.2705165477
1000294000.0 -0.9573446003 0.2846831188
1050293700.0 -0.9527951184 0.2985370126
1100293400.0 -0.9485079172 0.3128896394
1150293100.0 -0.9445440463 0.3247228084
1200292800.0 -0.9395007413 0.3390760081
1250292500.0 -0.9339305435 0.3523523371
1300292200.0 -0.928299865 0.3656424952
1350291900.0 -0.9226045154 0.3796826503
1400291600.0 -0.9172035344 0.3925543072
1450291300.0 -0.9118080263 0.4049221109
1500291000.0 -0.9055187559 0.4183257336
1550290700.0 -0.8990708883 0.4316696833
1600290400.0 -0.8930209513 0.4444081177
1650290100.0 -0.8862749751 0.456559336
1700289800.0 -0.8794594947 0.4699879881
1750289500.0 -0.8723863385 0.4824213895
1800289200.0 -0.8649840896 0.4952117396
1850288900.0 -0.8581418746 0.5064535628
1900288600.0 -0.8507266948 0.5196056965
1950288300.0 -0.8425029328 0.5320092481
2000288000.0 -0.8350548802 0.543433832
2050287700.0 -0.8267254937 0.5555992493
2100287400.0 -0.8187735239 0.5675044788
2150287100.0 -0.8100506549 0.5797030674
2200286800.0 -0.8024272006 0.5900200253
2250286500.0 -0.7934426623 0.6020889418
2300286200.0 -0.7845936732 0.6136407768
2350285900.0 -0.7757192986 0.6247267438
2400285600.0 -0.7667149005 0.6357076496
2450285300.0 -0.7579174851 0.646091039
2500285000.0 -0.7481617539 0.6573053582
2550284700.0 -0.7391629392 0.6675942409
2600284400.0 -0.7295240295 0.6778239034
2650284100.0 -0.7206729589 0.6884548755
2700283800.0 -0.7102693256 0.6989359183
2750283500.0 -0.6997517834 0.7094788538
2800283200.0 -0.6900986823 0.7191910713
2850282900.0 -0.679775038 0.7287476052
2900282600.0 -0.6695862029 0.7386384303
2950282300.0 -0.6591494597 0.7476677757
3000282000.0 -0.6489160868 0.7572948736
3050281700.0 -0.6375780549 0.766260019
3100281400.0 -0.625969023 0.7755295222
3150281100.0 -0.6144000608 0.7847040594
3200280800.0 -0.602776955 0.7934313314
3250280500.0 -0.5919129438 0.8011094272
3300280200.0 -0.5810282463 0.8090845547
3350279900.0 -0.5692524769 0.8165113427
3400279600.0 -0.5574163626 0.8243873083
3450279300.0 -0.5460703217 0.8315499855
3500279000.0 -0.5341262925 0.8386676784
3550278700.0 -0.5217534091 0.8459991668
3600278400.0 -0.5096854943 0.8528747947
3650278100.0 -0.4965635743 0.8606001828
3700277800.0 -0.4844647097 0.8672677085
3750277500.0 -0.4724320333 0.8737560253
3800277200.0 -0.4599721081 0.8802197233
3850276900.0 -0.4474505764 0.8863045189
3900276600.0 -0.4365748759 0.8920837289
3950276300.0 -0.4235613451 0.8981823948
4000276000.0 -0.4115927363 0.9040032078
4050275700.0 -0.3983474196 0.9102931604
4100275400.0 -0.3869856846 0.9155830322
4150275100.0 -0.3742338506 0.9211191501
4200274800.0 -0.3610299189 0.9266648568
4250274500.0 -0.3486608613 0.9315467117
4300274200.0 -0.3355737108 0.9370872608
4350273900.0 -0.3219745109 0.9421197838
4400273600.0 -0.3073868109 0.9471568151
4450273300.0 -0.2919963703 0.9521595617
4500273000.0 -0.2786984114 0.9564966269
4550272700.0 -0.2646245251 0.9607112523
4600272400.0 -0.2491683827 0.9649153247
4650272100.0 -0.2373065059 0.968157639
4700271800.0 -0.223856073 0.9713672743
4750271500.0 -0.2120437778 0.9742182339
4800271200.0 -0.1993503955 0.9769756001
4850270900.0 -0.1855239586 0.9798517405
4900270600.0 -0.1718741192 0.9821595046
4950270300.0 -0.1579001333 0.9849321293
5000270000.0 -0.1437851832 0.9871047463
5050269700.0 -0.1304026069 0.9887747808
5100269400.0 -0.1163726069 0.9903151791
5150269100.0 -0.1032943434 0.9917339157
5200268800.0 -0.090130463 0.9930773807
5250268500.0 -0.0768899741 0.994154477
5300268200.0 -0.0639111888 0.9946364531
5350267900.0 -0.0518796121 0.9948303356
5400267600.0 -0.0357118868 0.9966075722
5450267300.0 -0.0227597028 0.9966727657
5500267000.0 -0.0077797727 0.9970576581
5550266700.0 0.0067560913 0.9970472941
5600266400.0 0.0223846926 0.9970775854
5650266100.0 0.0386066285 0.9969207031
5700265800.0 0.0529786253 0.9958547039
5750265500.0 0.0676873319 0.9951164357
5800265200.0 0.0821863507 0.9941197749
5850264900.0 0.0955926108 0.993511219
5900264600.0 0.1117528986 0.9914054641
5950264300.0 0.1239752313 0.9895797659
6000264000.0 0.1384397402 0.987992204
6050263700.0 0.1506046771 0.9861909542
6100263400.0 0.1635993545 0.9844661106
6150263100.0 0.178292502 0.9815639045
6200262800.0 0.188956422 0.9799715372
6250262500.0 0.2016860178 0.9773922692
6300262200.0 0.2146582612 0.9747224617
6350261900.0 0.2277142129 0.9718549596
6400261600.0 0.2417443311 0.968417874
6450261300.0 0.2530518177 0.9656465955
6500261000.0 0.2660353426 0.9619680924
6550260700.0 0.2790223749 0.958361925
6600260400.0 0.2922246191 0.9542408486
6650260100.0 0.3062576037 0.9500197149
6700259800.0 0.3180705255 0.9456876506
6750259500.0 0.3314350079 0.940643704
6800259200.0 0.3448759311 0.9361477526
6850258900.0 0.3566973316 0.9311998143
6900258600.0 0.3689613648 0.9260937453
6950258300.0 0.3815771774 0.9207915656
7000258000.0 0.393432532 0.9155345873
7050257700.0 0.4057342297 0.9096680161
7100257400.0 0.4185431087 0.903418483
7150257100.0 0.4290336678 0.8981718015
7200256800.0 0.441646151 0.8919171565
7250256500.0 0.4532678952 0.8857161597
7300256200.0 0.4662097447 0.8791666249
7350255900.0 0.4785153135 0.8722025975
7400255600.0 0.4912638769 0.8655067536
7450255300.0 0.5065795389 0.8567360844
7500255000.0 0.517672748 0.8492436286
7550254700.0 0.5311860599 0.8411648145
7600254400.0 0.5438950569 0.8329137267
7650254100.0 0.5550871166 0.8249697287
7700253800.0 0.5674529069 0.8169266663
7750253500.0 0.5784851281 0.8093602774
7800253200.0 0.5892262872 0.801138383
7850252900.0 0.598912713 0.7938713853
7900252600.0 0.6111679248 0.7849133107
7950252300.0 0.6202205698 0.7780521895
8000252000.0 0.6303027177 0.7700999078
8050251700.0 0.6409349123 0.7620057546
8100251400.0 0.6511894203 0.7536894034
8150251100.0 0.6615490936 0.7447900564
8200250800.0 0.6708536758 0.7366644389
8250250500.0 0.6802599427 0.7285690264
8300250200.0 0.6895655892 0.7199913546
8350249900.0 0.6985694444 0.7112617272
8400249600.0 0.7068914146 0.7030034382
8450249300.0 0.7162348745 0.6936248068
8500249000.0 0.7249976096 0.684529703
8550248700.0 0.733398965 0.6754182313
8600248400.0 0.7419657528 0.6658228609
8650248100.0 0.7497200003 0.6567198914
8700247800.0 0.7592791585 0.6456239165
8750247500.0 0.7674320068 0.6355009353
8800247200.0 0.7752930666 0.625474582
8850246900.0 0.7842149966 0.6142312203
8900246600.0 0.7926837759 0.6031642358
8950246300.0 0.8015797829 0.5905479273
9000246000.0 0.8106981173 0.5782089955
9050245700.0 0.8194574867 0.5656348842
9100245400.0 0.8277053932 0.5534643517
9150245100.0 0.8368399367 0.5401919752
9200244800.0 0.846309066 0.5258357014
9250244500.0 0.8553222262 0.5107910346
9300244200.0 0.8635000597 0.4968386951
9350243900.0 0.8712838636 0.482992412
9400243600.0 0.8783717502 0.4701603801
9450243300.0 0.8843047789 0.4579971121
9500243000.0 0.89087172 0.444971332
9550242700.0 0.8953671556 0.4363203975
9600242400.0 0.8993136619 0.4279889136
9650242100.0 0.9033219677 0.420564165
9700241800.0 0.9078644049 0.4119856621
9750241500.0 0.9119680002 0.4036165246
9800241200.0 0.9165694654 0.3940397998
9850240900.0 0.922305873 0.3822214061
9900240600.0 0.9274973693 0.3711716619
9950240300.0 0.9339106367 0.3552152906
10000240000.0 0.9384878604 0.3437257215
10050239700.0 0.9442862507 0.3284603609
10100239400.0 0.949194952 0.3134706904
10150239100.0 0.9532681438 0.2991178027
10200238800.0 0.9577514708 0.284194947
10250238500.0 0.9611125023 0.2708641022
10300238200.0 0.9644160027 0.2567488842
10350237900.0 0.9671414913 0.2440417692
10400237600.0 0.969929104 0.2307235202
10450237300.0 0.9727021409 0.2171630908
10500237000.0 0.9746833748 0.2053394515
10550236700.0 0.9771054463 0.1913884988
10600236400.0 0.9794693431 0.1778810616
10650236100.0 0.9812573984 0.1638927286
10700235800.0 0.9839428601 0.1510651249
10750235500.0 0.9859343243 0.1385880896
10800235200.0 0.9876457008 0.1243823568
10850234900.0 0.9897167202 0.1100794325
10900234600.0 0.9917685029 0.0953983866
10950234300.0 0.9931852049 0.0823780331
11000234000.0 0.9948561163 0.0677842692
11050233700.0 0.9965389244 0.0519726004
11100233400.0 0.997881358 0.0346737493
11150233100.0 0.9990085904 0.0189940369
11200232800.0 0.9992134427 0.0037236941
11250232500.0 1.000161725 -0.0125040106
11300232200.0 1.000518108 -0.0303185612
11350231900.0 1.000085772 -0.0456874297
11400231600.0 1.000098667 -0.0609635476
11450231300.0 0.9994329623 -0.0762498304
11500231000.0 0.9986488554 -0.0923961256
11550230700.0 0.9973977203 -0.1063124316
11600230400.0 0.9957034427 -0.119880332
11650230100.0 0.9934531561 -0.1319043007
11700229800.0 0.9917725011 -0.1465454375
11750229500.0 0.9895167081 -0.1614012449
11800229200.0 0.9868760764 -0.1749977839
11850228900.0 0.9831064119 -0.1882883142
11900228600.0 0.97970891 -0.1986705364
11950228300.0 0.9766701889 -0.209815363
12000228000.0 0.974156465 -0.2186309382
12050227700.0 0.9700243405 -0.2323643092
12100227400.0 0.9672755566 -0.242644194
12150227100.0 0.9623974724 -0.2600890112
12200226800.0 0.9594732521 -0.2698924372
12250226500.0 0.9548921739 -0.2827101895
12300226200.0 0.9509226066 -0.2957675116
12350225900.0 0.945610466 -0.3096346234
12400225600.0 0.9413162531 -0.3214342065
12450225300.0 0.9378956681 -0.3337801207
12500225000.0 0.9320462285 -0.3483148447
12550224700.0 0.9271059336 -0.3621474356
12600224400.0 0.9223158522 -0.3744136371
12650224100.0 0.9167496972 -0.3887277974
12700223800.0 0.9114219457 -0.4014054598
12750223500.0 0.9060746132 -0.4141938842
12800223200.0 0.900738586 -0.4264260525
12850222900.0 0.8951847352 -0.438846412
12900222600.0 0.8894375939 -0.4503045912
12950222300.0 0.883121264 -0.463683089
13000222000.0 0.8772025679 -0.4754115205
13050221700.0 0.8702480951 -0.4883767023
13100221400.0 0.8630710179 -0.5010330281
13150221100.0 0.8562145546 -0.5125260648
13200220800.0 0.8491173019 -0.5245744063
13250220500.0 0.8416613206 -0.5369927663
13300220200.0 0.8342031594 -0.5478733759
13350219900.0 0.8257587544 -0.5600678733
13400219600.0 0.8174301485 -0.5722475182
13450219300.0 0.8082173488 -0.5857446594
13500219000.0 0.7977790684 -0.5992816577
13550218700.0 0.7882026654 -0.6123812142
13600218400.0 0.7781107955 -0.6237809909
13650218100.0 0.7684068778 -0.6350425035
13700217800.0 0.7576794497 -0.6479825214
13750217500.0 0.7478634131 -0.6591026488
13800217200.0 0.7360377657 -0.6711124671
13850216900.0 0.7256717946 -0.6827204836
13900216600.0 0.7160150941 -0.6911425291
13950216300.0 0.7046914371 -0.7016072158
14000216000.0 0.6950302633 -0.711115453
14050215700.0 0.6855567234 -0.7191879276
14100215400.0 0.6759004617 -0.7286429716
14150215100.0 0.6664548178 -0.7370041308
14200214800.0 0.6572142481 -0.7455396821
14250214500.0 0.6471688288 -0.7549535606
14300214200.0 0.6368586214 -0.7639505782
14350213900.0 0.6257829923 -0.7734472087
14400213600.0 0.6144360326 -0.7827890036
14450213300.0 0.6017423134 -0.7928306005
14500213000.0 0.5889403008 -0.8024797322
14550212700.0 0.5764687928 -0.8115080352
14600212400.0 0.5648878028 -0.8203715875
14650212100.0 0.5516715171 -0.8284136233
14700211800.0 0.5377627043 -0.8384672243
14750211500.0 0.5257660874 -0.8465471442
14800211200.0 0.5130572889 -0.8543928293
14850210900.0 0.5012764396 -0.8619440317
14900210600.0 0.4876070438 -0.8698219351
14950210300.0 0.4742081413 -0.8774755214
15000210000.0 0.4612646756 -0.8844031674
15050209700.0 0.4485851123 -0.8905803888
15100209400.0 0.4355918982 -0.8966289838
15150209100.0 0.4233465574 -0.9025293561
15200208800.0 0.4099625206 -0.9085013864
15250208500.0 0.3980770626 -0.9129362251
15300208200.0 0.3851173445 -0.9179821845
15350207900.0 0.3719461286 -0.9222738348
15400207600.0 0.3575197683 -0.9281413813
15450207300.0 0.3432570002 -0.9336257101
15500207000.0 0.3275456049 -0.9379003516
15550206700.0 0.3126461206 -0.9431523418
15600206400.0 0.2978951516 -0.9475627413
15650206100.0 0.2821945994 -0.9516890515
15700205800.0 0.2682348804 -0.9555533461
15750205500.0 0.2537858833 -0.9593500822
15800205200.0 0.2397742181 -0.9627142628
15850204900.0 0.2256493153 -0.9660001761
15900204600.0 0.2108158253 -0.969668999
15950204300.0 0.1968400153 -0.972553971
16000204000.0 0.1828835317 -0.9753527261
16050203700.0 0.1684392 -0.9778252981
16100203400.0 0.1547303232 -0.9804939991
16150203100.0 0.1395804236 -0.9828841897
16200202800.0 0.1260294798 -0.9848147831
16250202500.0 0.1116728911 -0.9861741389
16300202200.0 0.0964508695 -0.9880934583
16350201900.0 0.0816164522 -0.9889610017
16400201600.0 0.0671681774 -0.9903131129
16450201300.0 0.0520861674 -0.9914314014
16500201000.0 0.03576208 -0.9923193699
16550200700.0 0.0202735435 -0.9926721477
16600200400.0 0.0043966142 -0.9930728747
16650200100.0 -0.0117793037 -0.9931587769
16700199800.0 -0.0282156872 -0.9925914748
16750199500.0 -0.0468646857 -0.9918733661
16800199200.0 -0.0628497024 -0.9908101631
16850198900.0 -0.0782463197 -0.9899854473
16900198600.0 -0.0923892371 -0.9887987108
16950198300.0 -0.106434967 -0.987625868
17000198000.0 -0.1197617627 -0.9862193
17050197700.0 -0.1325853895 -0.9843338526
17100197400.0 -0.1460178691 -0.9824639861
17150197100.0 -0.1594838692 -0.9800343417
17200196800.0 -0.1722942602 -0.9778579581
17250196500.0 -0.185336404 -0.9754049997
17300196200.0 -0.1980961636 -0.9729508456
17350195900.0 -0.2101608917 -0.9706256768
17400195600.0 -0.2226895542 -0.9680908736
17450195300.0 -0.2359064127 -0.9653192171
17500195000.0 -0.2490976585 -0.9619040572
17550194700.0 -0.2632981553 -0.9583505775
17600194400.0 -0.2769502138 -0.9543953026
17650194100.0 -0.2907392991 -0.9500027165
17700193800.0 -0.3033529536 -0.9460685189
17750193500.0 -0.3175544768 -0.9418049913
17800193200.0 -0.3316141645 -0.9365627064
17850192900.0 -0.3461537838 -0.9318117258
17900192600.0 -0.361167702 -0.9255367188
17950192300.0 -0.3763223349 -0.9188468985
18000192000.0 -0.3910402423 -0.9117487039
18050191700.0 -0.4045806222 -0.9040731423
18100191400.0 -0.4186776794 -0.8967161059
18150191100.0 -0.4332164706 -0.8888777975
18200190800.0 -0.4497053715 -0.8802220572
18250190500.0 -0.466349861 -0.8709691157
18300190200.0 -0.4817583406 -0.8624097711
18350189900.0 -0.4962304805 -0.8540385491
18400189600.0 -0.5107224337 -0.8458007146
18450189300.0 -0.5241010402 -0.8379469622
18500189000.0 -0.5377442796 -0.8298780673
18550188700.0 -0.5503443196 -0.8218103917
18600188400.0 -0.5626446071 -0.8143989504
18650188100.0 -0.574181522 -0.8076146291
18700187800.0 -0.5852759509 -0.8005204333
18750187500.0 -0.5964061384 -0.7937271575
18800187200.0 -0.6074763785 -0.7861727137
18850186900.0 -0.6178817361 -0.7785329035
18900186600.0 -0.6285074313 -0.7709277914
18950186300.0 -0.6391146779 -0.7626310356
19000186000.0 -0.6470148322 -0.7558344409
19050185700.0 -0.657137151 -0.7476403522
19100185400.0 -0.6670532691 -0.7396339068
19150185100.0 -0.6777181904 -0.7307913733
19200184800.0 -0.6872091692 -0.7222747989
19250184500.0 -0.6969263078 -0.7128290932
19300184200.0 -0.7081306911 -0.703321858
19350183900.0 -0.7187109826 -0.6940816634
19400183600.0 -0.7282103543 -0.6831890009
19450183300.0 -0.737622646 -0.673194725
19500183000.0 -0.7449574275 -0.6641431206
19550182700.0 -0.7547396125 -0.6523290798
19600182400.0 -0.7647306565 -0.6410376702
19650182100.0 -0.775290625 -0.6296671973
19700181800.0 -0.785247427 -0.616974536
19750181500.0 -0.7953717005 -0.6034770513
19800181200.0 -0.8052547155 -0.589136306
19850180900.0 -0.8146099846 -0.5744510928
19900180600.0 -0.822375417 -0.5607593917
19950180300.0 -0.8315881636 -0.5451168871
20000180000.0 -0.8277439709 -0.5448181963
20050179700.0 -0.8360576441 -0.5319266369
20100179400.0 -0.8437420388 -0.5183002323
20150179100.0 -0.8518470824 -0.5057586155
20200178800.0 -0.8600365016 -0.4936112004
20250178500.0 -0.868676281 -0.4803095292
20300178200.0 -0.8785662032 -0.4665118107
20350177900.0 -0.8870585363 -0.4518935026
20400177600.0 -0.8954123874 -0.4381205175
20450177300.0 -0.9033176546 -0.4234483869
20500177000.0 -0.9108802108 -0.4094008327
20550176700.0 -0.9184611792 -0.3960361842
20600176400.0 -0.925489171 -0.3826337492
20650176100.0 -0.9315428165 -0.3700837194
20700175800.0 -0.9383070594 -0.3575481904
20750175500.0 -0.9457590405 -0.34583275
20800175200.0 -0.9501479344 -0.3343711321
20850174900.0 -0.9553891072 -0.3228003339
20900174600.0 -0.9586959808 -0.3099432675
20950174300.0 -0.9633970393 -0.2979733751
21000174000.0 -0.9671860679 -0.2857740265
21050173700.0 -0.970210432 -0.2750398249
21100173400.0 -0.9743914786 -0.2624497934
21150173100.0 -0.9785305078 -0.2500508276
21200172800.0 -0.9819921365 -0.2362919209
21250172500.0 -0.9847565225 -0.2228290927
21300172200.0 -0.9879035356 -0.2086532272
21350171900.0 -0.9897980263 -0.1941277168
21400171600.0 -0.9912236375 -0.1800017298
21450171300.0 -0.9918572485 -0.1654517631
21500171000.0 -0.9922364938 -0.1495777858
21550170700.0 -0.9916681554 -0.1352117096
21600170400.0 -0.9919845716 -0.1199382963
21650170100.0 -0.9927404284 -0.1039031819
21700169800.0 -0.9901796277 -0.088284669
21750169500.0 -0.9891992857 -0.0736538557
21800169200.0 -0.9885376956 -0.0579058205
21850168900.0 -0.9873815841 -0.0418630361
21900168600.0 -0.9868492613 -0.025158811
21950168300.0 -0.9856260715 -0.0101118062
22000168000.0 -0.9845317367 0.0043704029
22050167700.0 -0.9839009583 0.0185348651
22100167400.0 -0.983376534 0.0340465409
22150167100.0 -0.9835207187 0.0491276239
22200166800.0 -0.9840784119 0.0651618105
22250166500.0 -0.983191174 0.0817503208
22300166200.0 -0.9833043742 0.0972160454
22350165900.0 -0.9812307187 0.1137430877
22400165600.0 -0.9792830492 0.1299799702
22450165300.0 -0.9774006038 0.1440028398
22500165000.0 -0.975840366 0.1578002878
22550164700.0 -0.9735957089 0.1738745588
22600164400.0 -0.9727613003 0.1886568341
22650164100.0 -0.9701577789 0.20268233
22700163800.0 -0.9674332643 0.218789974
22750163500.0 -0.9650643927 0.2338920025
22800163200.0 -0.9624834131 0.2472313914
22850162900.0 -0.9600434498 0.2604938335
22900162600.0 -0.9582953485 0.2741374556
22950162300.0 -0.9568338716 0.2868011821
23000162000.0 -0.9554472453 0.2990645939
23050161700.0 -0.9535545046 0.3114318566
23100161400.0 -0.950255041 0.3241509554
23150161100.0 -0.9478580125 0.3370538205
23200160800.0 -0.9447768964 0.3492613587
23250160500.0 -0.9423639491 0.3612137116
23300160200.0 -0.9397423463 0.3733798915
23350159900.0 -0.9354279279 0.386334545
23400159600.0 -0.9308581313 0.3986883291
23450159300.0 -0.9260668778 0.4113031194
23500159000.0 -0.9210602101 0.4244432015
23550158700.0 -0.9168877699 0.4376570674
23600158400.0 -0.9116099421 0.4502805759
23650158100.0 -0.9054201119 0.4637924297
23700157800.0 -0.8981555252 0.4773781327
23750157500.0 -0.8898138242 0.4908578908
23800157200.0 -0.881632994 0.5036644423
23850156900.0 -0.8724641171 0.5165698675
23900156600.0 -0.8634026423 0.5285702659
23950156300.0 -0.8548561443 0.5416527138
24000156000.0 -0.8456911434 0.5529190916
24050155700.0 -0.8351158647 0.5653201158
24100155400.0 -0.826109847 0.5768866157
24150155100.0 -0.816206168 0.5886098335
24200154800.0 -0.8051610015 0.6001452294
24250154500.0 -0.795061593 0.6117509482
24300154200.0 -0.7832031004 0.6230793289
24350153900.0 -0.7716875969 0.6342259372
24400153600.0 -0.7598007352 0.6448394002
24450153300.0 -0.7482860027 0.6551176627
24500153000.0 -0.7369755662 0.6650895603
24550152700.0 -0.7262697662 0.6753321706
24600152400.0 -0.7150024487 0.6848589831
24650152100.0 -0.7026657993 0.6938356996
