!Created with skrf (http://scikit-rf.org).
# Hz S RI R 50.0 
!freq ReS11 ImS11
300000.0 -1.004487589 0.0159376328
50299700.0 -0.9981341972 0.0156364052
100299400.0 -0.9962308583 0.0278584819
150299100.0 -1.001062331 0.044594326
200298800.0 -0.997709916 0.0575961361
250298500.0 -0.995096273 0.0712479334
300298200.0 -0.9836363122 0.0866162745
350297900.0 -0.991494341 0.097358878
400297600.0 -0.9904183352 0.1135317242
450297300.0 -0.9884662066 0.1271219336
500297000.0 -0.986531628 0.1414267396
550296700.0 -0.9813770253 0.1536050483
600296400.0 -1.014031809 0.1866506949
650296100.0 -0.9791961397 0.1830067113
700295800.0 -0.976364922 0.1969630311
750295500.0 -0.9733064673 0.2107558092
800295200.0 -0.9700702114 0.2246782232
850294900.0 -0.9664635793 0.2381728746
900294600.0 -0.9630621511 0.2519230793
950294300.0 -0.9592331565 0.2650734268
1000294000.0 -0.9553434215 0.2792313493
1050293700.0 -0.9509354743 0.2927156201
1100293400.0 -0.9470299034 0.3069966911
1150293100.0 -0.9433022099 0.3188109641
1200292800.0 -0.9381621896 0.3329584292
1250292500.0 -0.9328863531 0.3463004079
1300292200.0 -0.9275006225 0.3597681693
1350291900.0 -0.9220504917 0.3737627116
1400291600.0 -0.9167038641 0.3867296579
1450291300.0 -0.9117864838 0.3989875108
1500291000.0 -0.9056639643 0.412397712
1550290700.0 -0.8993696137 0.4254427431
1600290400.0 -0.8932749458 0.4384601525
1650290100.0 -0.8870278588 0.4503052964
1700289800.0 -0.8802034505 0.4640197967
1750289500.0 -0.8734296291 0.4760519717
1800289200.0 -0.8662593362 0.4884930336
1850288900.0 -0.8597935296 0.5000123587
1900288600.0 -0.8521754739 0.5130237199
1950288300.0 -0.8444688405 0.5253914161
2000288000.0 -0.837215856 0.5371844452
2050287700.0 -0.8292220718 0.5491944224
2100287400.0 -0.8217068532 0.5603468034
2150287100.0 -0.813041492 0.5725569708
2200286800.0 -0.8054809146 0.5832046305
2250286500.0 -0.7967349713 0.5949756281
2300286200.0 -0.7882747797 0.6060815085
2350285900.0 -0.7800454253 0.616784551
2400285600.0 -0.7708659756 0.6282644267
2450285300.0 -0.7616409417 0.6391107048
2500285000.0 -0.7529289484 0.6496970559
2550284700.0 -0.743650318 0.6600316672
2600284400.0 -0.7337271925 0.6707889012
2650284100.0 -0.7254438755 0.6807777944
2700283800.0 -0.7149856211 0.6907198262
2750283500.0 -0.7050098764 0.7009747251
2800283200.0 -0.6950906768 0.7109622969
2850282900.0 -0.684496312 0.7211135166
2900282600.0 -0.6741735426 0.7306111849
2950282300.0 -0.6641133906 0.7399685284
3000282000.0 -0.6531977106 0.7493340443
3050281700.0 -0.6422753759 0.7586953031
3100281400.0 -0.6317028297 0.7674997091
3150281100.0 -0.6212916313 0.7760782857
3200280800.0 -0.6098120258 0.7849600271
3250280500.0 -0.5984817181 0.7936217561
3300280200.0 -0.5867372166 0.8026784896
3350279900.0 -0.5757518414 0.8105691538
3400279600.0 -0.5637237364 0.8187445547
3450279300.0 -0.5523385892 0.8269285612
3500279000.0 -0.5406694935 0.8346670918
3550278700.0 -0.5287708706 0.8423238969
3600278400.0 -0.5180899391 0.8489936898
3650278100.0 -0.5049236448 0.8572848554
3700277800.0 -0.4929859209 0.8639315936
3750277500.0 -0.4811134961 0.8706053218
3800277200.0 -0.4687423232 0.8773757673
3850276900.0 -0.4562401591 0.8839031492
3900276600.0 -0.4444730882 0.8901807111
3950276300.0 -0.4311994304 0.8965812996
4000276000.0 -0.4191968438 0.9025025626
4050275700.0 -0.4055322093 0.9087086833
4100275400.0 -0.3945311888 0.9137306443
4150275100.0 -0.3812026852 0.9190784027
4200274800.0 -0.3674925152 0.9247547868
4250274500.0 -0.35535396 0.9293978407
4300274200.0 -0.3425125234 0.9345601094
4350273900.0 -0.3290528036 0.9391712937
4400273600.0 -0.3161891377 0.9436615272
4450273300.0 -0.3028925449 0.9478804279
4500273000.0 -0.290279864 0.951748406
4550272700.0 -0.2779489867 0.9555466388
4600272400.0 -0.263053763 0.9596391568
4650272100.0 -0.2505308855 0.9629182499
4700271800.0 -0.2373536208 0.9662198823
4750271500.0 -0.2237350984 0.9693062396
4800271200.0 -0.2095908162 0.9724177793
4850270900.0 -0.1957486992 0.9754612905
4900270600.0 -0.1824842423 0.9777309501
4950270300.0 -0.1693733056 0.9801750043
5000270000.0 -0.1555544897 0.9827386182
5050269700.0 -0.142131167 0.9843574934
5100269400.0 -0.1276187179 0.986405489
5150269100.0 -0.1132923057 0.9881779026
5200268800.0 -0.0995311349 0.9895801301
5250268500.0 -0.08636194 0.9907764195
5300268200.0 -0.0717430157 0.9919499419
5350267900.0 -0.0590217919 0.9929836233
5400267600.0 -0.0430498868 0.9942522674
5450267300.0 -0.0309023842 0.9946674109
5500267000.0 -0.0167719109 0.9947147742
5550266700.0 -0.0046064084 0.9947745707
5600266400.0 0.0094126046 0.9951563592
5650266100.0 0.0240780815 0.9950804184
5700265800.0 0.0372366353 0.9941854702
5750265500.0 0.050599398 0.9938141155
5800265200.0 0.0634443307 0.9932211312
5850264900.0 0.0769233313 0.9924261776
5900264600.0 0.0923136583 0.9909285053
5950264300.0 0.1040087041 0.9897175607
6000264000.0 0.1172257937 0.9883377192
6050263700.0 0.1301993041 0.9868550574
6100263400.0 0.1440811465 0.9849180363
6150263100.0 0.1597022177 0.9824543199
6200262800.0 0.1709551833 0.9807437691
6250262500.0 0.1846748595 0.9782016305
6300262200.0 0.1973877395 0.9755831038
6350261900.0 0.2104718494 0.9728345209
6400261600.0 0.2254923366 0.9695224897
6450261300.0 0.237707895 0.9667910099
6500261000.0 0.2509454403 0.9633630955
6550260700.0 0.2641881997 0.959541889
6600260400.0 0.2769203355 0.9559343394
6650260100.0 0.2907264261 0.9518365221
6700259800.0 0.3028533608 0.9479042066
6750259500.0 0.3160811035 0.9438074169
6800259200.0 0.3295243422 0.93915348
6850258900.0 0.3419331363 0.9343873868
6900258600.0 0.3548990524 0.9297556017
6950258300.0 0.3683671022 0.9247008403
7000258000.0 0.3803335116 0.919700246
7050257700.0 0.392008111 0.9147104034
7100257400.0 0.4062515955 0.9086101819
7150257100.0 0.4173573253 0.9035080354
7200256800.0 0.4313412951 0.897551206
7250256500.0 0.4428438657 0.8915501096
7300256200.0 0.4557114766 0.8853906324
7350255900.0 0.4678040305 0.8791580473
7400255600.0 0.4772348984 0.8735691558
7450255300.0 0.4909792324 0.8666796211
7500255000.0 0.5022525738 0.8596805086
7550254700.0 0.5138068944 0.853733896
7600254400.0 0.5251431361 0.8465827207
7650254100.0 0.5357023677 0.8395198232
7700253800.0 0.547556287 0.8324712331
7750253500.0 0.5584922298 0.8251137323
7800253200.0 0.5705943627 0.8167691549
7850252900.0 0.5796190275 0.810086426
7900252600.0 0.5918171491 0.8014701171
7950252300.0 0.6017813822 0.7939402267
8000252000.0 0.6127009993 0.7856400236
8050251700.0 0.6236202656 0.7769337054
8100251400.0 0.6335879832 0.76907956
8150251100.0 0.6444608045 0.7598858485
8200250800.0 0.6538513522 0.7513868491
8250250500.0 0.6644446671 0.742118072
8300250200.0 0.6746299147 0.7330109999
8350249900.0 0.6839671329 0.7240791502
8400249600.0 0.6937285238 0.7149006287
8450249300.0 0.70373195 0.704936546
8500249000.0 0.7135739137 0.6948720664
8550248700.0 0.7235734703 0.6841597421
8600248400.0 0.7334980106 0.6737379367
8650248100.0 0.7415677797 0.6644191561
8700247800.0 0.7509114752 0.6538918939
8750247500.0 0.7600678496 0.6434174342
8800247200.0 0.7689936575 0.6329850703
8850246900.0 0.7775240764 0.6219987754
8900246600.0 0.7855286566 0.6113499052
8950246300.0 0.7944535071 0.5999533666
9000246000.0 0.801907325 0.589978914
9050245700.0 0.8092672072 0.5797508265
9100245400.0 0.8173325434 0.5681610717
9150245100.0 0.8253277235 0.5573076559
9200244800.0 0.8312812952 0.5480018039
9250244500.0 0.838653769 0.5366666757
9300244200.0 0.8452341654 0.5264590474
9350243900.0 0.8523195206 0.514834474
9400243600.0 0.8593506912 0.5031415065
9450243300.0 0.864915729 0.493279879
9500243000.0 0.8717298512 0.4817379916
9550242700.0 0.8787259757 0.4695611867
9600242400.0 0.8854924949 0.4567181084
9650242100.0 0.8912992067 0.444645966
9700241800.0 0.8977598006 0.4323555791
9750241500.0 0.9042031337 0.4187879735
9800241200.0 0.9113884161 0.403370642
9850240900.0 0.9166019213 0.3904658331
9900240600.0 0.9206665331 0.3809868514
9950240300.0 0.9262792206 0.3674591
10000240000.0 0.9316047114 0.3536166525
10050239700.0 0.9363255511 0.3409108937
10100239400.0 0.9407421533 0.3285848442
10150239100.0 0.9449210365 0.3162237526
10200238800.0 0.9492559897 0.3022454449
10250238500.0 0.9533868913 0.2890734343
10300238200.0 0.9575272018 0.2757077705
10350237900.0 0.9609748699 0.2630691125
10400237600.0 0.9645539243 0.249576897
10450237300.0 0.9684587222 0.2356853817
10500237000.0 0.971730027 0.2221337494
10550236700.0 0.9745191433 0.2082653533
10600236400.0 0.977433456 0.1951503
10650236100.0 0.9798372481 0.1796691652
10700235800.0 0.9823639089 0.165668395
10750235500.0 0.9847539369 0.1527503982
10800235200.0 0.9871276812 0.1387676207
10850234900.0 0.9883994801 0.1256918255
10900234600.0 0.9904905862 0.111575891
10950234300.0 0.9917147006 0.0976200072
11000234000.0 0.9928090689 0.0837763526
11050233700.0 0.9940418632 0.0710414043
11100233400.0 0.9949850653 0.0567666651
11150233100.0 0.9957013205 0.0430091461
11200232800.0 0.9961238027 0.0304291948
11250232500.0 0.9962699517 0.0167875665
11300232200.0 0.9965085267 0.0028339983
11350231900.0 0.99604673 -0.0100805468
11400231600.0 0.9963307006 -0.0244350071
11450231300.0 0.9951918896 -0.0360065292
11500231000.0 0.9944916904 -0.0499893421
11550230700.0 0.9942822422 -0.0630715611
11600230400.0 0.9936565284 -0.0781098403
11650230100.0 0.99180404 -0.0898431812
11700229800.0 0.9911400907 -0.1046883
11750229500.0 0.9891890227 -0.1177072134
11800229200.0 0.9877049018 -0.1299695271
11850228900.0 0.9857688213 -0.1446258438
11900228600.0 0.9839855148 -0.1590612114
11950228300.0 0.9814001512 -0.1737597162
12000228000.0 0.9787707841 -0.1879467644
12050227700.0 0.976378943 -0.2011061682
12100227400.0 0.9739403506 -0.2130252386
12150227100.0 0.9701285442 -0.2311948619
12200226800.0 0.9667044492 -0.242886309
12250226500.0 0.9635044534 -0.2567267143
12300226200.0 0.9596534609 -0.2695730132
12350225900.0 0.9554251543 -0.2856369582
12400225600.0 0.9503806412 -0.3000157309
12450225300.0 0.946691745 -0.3117503425
12500225000.0 0.9419219966 -0.3265459655
12550224700.0 0.9366678016 -0.3406141975
12600224400.0 0.9324976353 -0.3518724126
12650224100.0 0.9269653854 -0.3663830882
12700223800.0 0.9215301345 -0.3794747223
12750223500.0 0.9158092346 -0.3928992401
12800223200.0 0.9100542658 -0.4063491897
12850222900.0 0.904530255 -0.4186608893
12900222600.0 0.8983777914 -0.4314336688
12950222300.0 0.8921191318 -0.4453406942
13000222000.0 0.8854349927 -0.4579068301
13050221700.0 0.8782376642 -0.4708380686
13100221400.0 0.8722382657 -0.482353999
13150221100.0 0.8654279705 -0.4949700456
13200220800.0 0.8582268524 -0.5069644552
13250220500.0 0.8512042099 -0.5192207777
13300220200.0 0.8438967648 -0.5309706922
13350219900.0 0.8357199514 -0.5440346744
13400219600.0 0.8286157733 -0.5553137742
13450219300.0 0.8210774151 -0.566120056
13500219000.0 0.8134954674 -0.5767216305
13550218700.0 0.8053729817 -0.5882040939
13600218400.0 0.7970421674 -0.5990631231
13650218100.0 0.7892777907 -0.6088100862
13700217800.0 0.781054646 -0.6203019286
13750217500.0 0.7720131878 -0.6312279007
13800217200.0 0.763130212 -0.6429597675
13850216900.0 0.7534142613 -0.6544496745
13900216600.0 0.744520962 -0.6634320862
13950216300.0 0.733984021 -0.6752945781
14000216000.0 0.7247161303 -0.684850319
14050215700.0 0.7148901497 -0.6941933415
14100215400.0 0.7034751816 -0.7057308022
14150215100.0 0.692715467 -0.7173359346
14200214800.0 0.6821941248 -0.7271710406
14250214500.0 0.6707459149 -0.7377472242
14300214200.0 0.6590784063 -0.7484051928
14350213900.0 0.6477996808 -0.7580931142
14400213600.0 0.6369410523 -0.7668459472
14450213300.0 0.6264829324 -0.7758948305
14500213000.0 0.6153431657 -0.7843666211
14550212700.0 0.6039978888 -0.793071532
14600212400.0 0.5926475427 -0.8024571549
14650212100.0 0.5812549661 -0.8097614322
14700211800.0 0.5690248569 -0.8180760697
14750211500.0 0.5573717914 -0.8259821332
14800211200.0 0.5447034353 -0.8345235605
14850210900.0 0.5331358 -0.8422045021
14900210600.0 0.5209074679 -0.8500486115
14950210300.0 0.5085139422 -0.8573370825
15000210000.0 0.4962839229 -0.8643681566
15050209700.0 0.4836032062 -0.8717423972
15100209400.0 0.4705096996 -0.8791603469
15150209100.0 0.4584254545 -0.885545798
15200208800.0 0.4461587729 -0.8921183216
15250208500.0 0.4323711297 -0.8989346463
15300208200.0 0.4183647205 -0.9055225013
15350207900.0 0.405684708 -0.9109337515
15400207600.0 0.3917126894 -0.9164344752
15450207300.0 0.3796850055 -0.9224098137
15500207000.0 0.366319036 -0.9273647903
15550206700.0 0.3525845897 -0.9326705669
15600206400.0 0.3390835729 -0.9375577609
15650206100.0 0.3253764672 -0.9429391588
15700205800.0 0.311807422 -0.9476251418
15750205500.0 0.2971937041 -0.9519179721
15800205200.0 0.2835148955 -0.9560774047
15850204900.0 0.2698646117 -0.9601944236
15900204600.0 0.2541234944 -0.9646255338
15950204300.0 0.2397834303 -0.9682259483
16000204000.0 0.2248411147 -0.971441026
16050203700.0 0.2104771428 -0.9753598759
16100203400.0 0.1957620691 -0.9778380449
16150203100.0 0.1807234342 -0.9807830888
16200202800.0 0.1649481868 -0.9831231436
16250202500.0 0.15055303 -0.9853528461
16300202200.0 0.1351167912 -0.9872444677
16350201900.0 0.1205272654 -0.9892064895
16400201600.0 0.1049281053 -0.9909684352
16450201300.0 0.0908932118 -0.9922204854
16500201000.0 0.0756175538 -0.9937276438
16550200700.0 0.0609931496 -0.9947512939
16600200400.0 0.0461801158 -0.9956315998
16650200100.0 0.030574359 -0.996705164
16700199800.0 0.0175009155 -0.9967675173
16750199500.0 0.0030414477 -0.9976732246
16800199200.0 -0.010389655 -0.9968944031
16850198900.0 -0.0247121983 -0.9968716003
16900198600.0 -0.0393129649 -0.9962124271
16950198300.0 -0.0546419175 -0.9961931246
17000198000.0 -0.0691234403 -0.99444762
17050197700.0 -0.0834161747 -0.9932352233
17100197400.0 -0.0995952397 -0.9919168404
17150197100.0 -0.114963869 -0.9901663808
17200196800.0 -0.1293898358 -0.9882171971
17250196500.0 -0.1441056768 -0.9859444116
17300196200.0 -0.1595528568 -0.9834075946
17350195900.0 -0.1750750181 -0.9810050892
17400195600.0 -0.1899491955 -0.9779208759
17450195300.0 -0.2044665542 -0.9751024528
17500195000.0 -0.2191462294 -0.9718165504
17550194700.0 -0.233703807 -0.9685973506
17600194400.0 -0.2482773003 -0.9650130178
17650194100.0 -0.2628600058 -0.9612250617
17700193800.0 -0.2764375572 -0.9570957769
17750193500.0 -0.2907031106 -0.9530543952
17800193200.0 -0.3041713432 -0.9487172311
17850192900.0 -0.3181988806 -0.9441015579
17900192600.0 -0.3318791527 -0.9394984754
17950192300.0 -0.3463464024 -0.934008632
18000192000.0 -0.3606410953 -0.928283342
18050191700.0 -0.3748990255 -0.9221914254
18100191400.0 -0.3890788574 -0.9164347385
18150191100.0 -0.4022440153 -0.9106292362
18200190800.0 -0.4154487301 -0.9042342164
18250190500.0 -0.4290186717 -0.8981965786
18300190200.0 -0.4424075259 -0.8920681779
18350189900.0 -0.4561977029 -0.8856521607
18400189600.0 -0.4697120017 -0.8790010918
18450189300.0 -0.4823612017 -0.872032595
18500189000.0 -0.494646122 -0.8648560883
18550188700.0 -0.5072279124 -0.8577865957
18600188400.0 -0.5203763467 -0.8501766511
18650188100.0 -0.5330947475 -0.8421469465
18700187800.0 -0.5454393181 -0.8340569696
18750187500.0 -0.5574780763 -0.8257699491
18800187200.0 -0.5697955974 -0.8171525867
18850186900.0 -0.5814260757 -0.8085740377
18900186600.0 -0.5927431579 -0.7999464255
18950186300.0 -0.6050257057 -0.7905790388
19000186000.0 -0.6165336002 -0.7814374198
19050185700.0 -0.6289757465 -0.7723913409
19100185400.0 -0.6404680622 -0.7631169053
19150185100.0 -0.6518244816 -0.7534303255
19200184800.0 -0.6625465051 -0.7436829599
19250184500.0 -0.6732918702 -0.7339196753
19300184200.0 -0.6841219815 -0.7234044743
19350183900.0 -0.6963140332 -0.7129779643
19400183600.0 -0.7063146624 -0.7028962168
19450183300.0 -0.717663163 -0.6914509466
19500183000.0 -0.7273080635 -0.6802981814
19550182700.0 -0.7372731447 -0.6690253199
19600182400.0 -0.7473669929 -0.6578625177
19650182100.0 -0.7569460549 -0.6461416015
19700181800.0 -0.7661467832 -0.6344177011
19750181500.0 -0.7754378643 -0.6225061173
19800181200.0 -0.7845020669 -0.6104857651
19850180900.0 -0.7936341159 -0.5984095909
19900180600.0 -0.801581628 -0.5875751642
19950180300.0 -0.8112373151 -0.574883579
20000180000.0 -0.8217814946 -0.5615438096
20050179700.0 -0.8297880058 -0.54961853
20100179400.0 -0.8389304294 -0.5361701394
20150179100.0 -0.8474249714 -0.523998322
20200178800.0 -0.8541760524 -0.5121322844
20250178500.0 -0.8611743585 -0.4997083988
20300178200.0 -0.8682311973 -0.486640132
20350177900.0 -0.8742172931 -0.4751766475
20400177600.0 -0.8808938116 -0.4629010081
20450177300.0 -0.8869333725 -0.4506932675
20500177000.0 -0.8925303026 -0.4387195429
20550176700.0 -0.8985613941 -0.4257773416
20600176400.0 -0.9042019975 -0.4133810617
20650176100.0 -0.9094369927 -0.4003584273
20700175800.0 -0.9155282071 -0.3875603074
20750175500.0 -0.9215412072 -0.375026
20800175200.0 -0.9256709388 -0.361465324
20850174900.0 -0.9301261158 -0.3486501827
20900174600.0 -0.9351174015 -0.335162839
20950174300.0 -0.9389187718 -0.3215297375
21000174000.0 -0.9434268606 -0.3082495091
21050173700.0 -0.9460496145 -0.2951286173
21100173400.0 -0.9509085291 -0.2811957543
21150173100.0 -0.954311845 -0.2669204819
21200172800.0 -0.9577764608 -0.2528791254
21250172500.0 -0.9611761953 -0.2388441505
21300172200.0 -0.9644575077 -0.2250024128
21350171900.0 -0.9677276421 -0.2108289395
21400171600.0 -0.971297055 -0.1970544755
21450171300.0 -0.9745043614 -0.1821668254
21500171000.0 -0.9765132627 -0.1673284701
21550170700.0 -0.9797453038 -0.1542726958
21600170400.0 -0.9825117317 -0.1399320002
21650170100.0 -0.9865425374 -0.1252971312
21700169800.0 -0.9885034303 -0.1105819881
21750169500.0 -0.9905335225 -0.0952483613
21800169200.0 -0.9924576775 -0.0795160925
21850168900.0 -0.9955663838 -0.0659086854
21900168600.0 -0.9959106172 -0.0514160241
21950168300.0 -0.9968738228 -0.0369995813
22000168000.0 -0.9982304725 -0.0220410479
22050167700.0 -0.9992180677 -0.0076689262
22100167400.0 -0.9993996763 0.0083855909
22150167100.0 -0.9994907196 0.0225694358
22200166800.0 -0.9982668925 0.0367913653
22250166500.0 -0.9971854298 0.0514701644
22300166200.0 -0.9961926489 0.0650869484
22350165900.0 -0.9958932087 0.079267776
22400165600.0 -0.9946515219 0.0922885473
22450165300.0 -0.9927826555 0.1053754513
22500165000.0 -0.9919454619 0.1179464089
22550164700.0 -0.9905182106 0.1337295633
22600164400.0 -0.9889258456 0.1476215053
22650164100.0 -0.9855614718 0.1585351248
22700163800.0 -0.9832951799 0.1721139927
22750163500.0 -0.9802845254 0.1847752032
22800163200.0 -0.9773134559 0.1975234495
22850162900.0 -0.9740573461 0.210391765
22900162600.0 -0.9709733772 0.2235831276
22950162300.0 -0.9667778044 0.2373996549
23000162000.0 -0.9627432717 0.2505225561
23050161700.0 -0.9581031862 0.264776485
23100161400.0 -0.9537897527 0.2785234465
23150161100.0 -0.9484945832 0.2918601361
23200160800.0 -0.9446722263 0.3050261743
23250160500.0 -0.9396922167 0.3190857835
23300160200.0 -0.9347510412 0.3329399294
23350159900.0 -0.9304076012 0.3467483765
23400159600.0 -0.9245523789 0.3592875538
23450159300.0 -0.9194342781 0.3722049486
23500159000.0 -0.9142020128 0.3845245675
23550158700.0 -0.9087800819 0.3980668403
23600158400.0 -0.9026976118 0.4102996128
23650158100.0 -0.8965665908 0.422735881
23700157800.0 -0.890196451 0.4346649328
23750157500.0 -0.8839073884 0.4470245688
23800157200.0 -0.8778905057 0.4593378967
23850156900.0 -0.8721324441 0.4707617743
23900156600.0 -0.8660269793 0.4827386119
23950156300.0 -0.8591804675 0.494361425
24000156000.0 -0.8527720221 0.5067807251
24050155700.0 -0.845690795 0.5184481477
24100155400.0 -0.8390550843 0.529057895
24150155100.0 -0.8323714274 0.5405174041
24200154800.0 -0.8251126717 0.5516916265
24250154500.0 -0.8183709805 0.5632341665
24300154200.0 -0.8120987968 0.5733675313
24350153900.0 -0.8046113494 0.5846207329
24400153600.0 -0.7963650987 0.5956414532
24450153300.0 -0.788343142 0.6064584098
24500153000.0 -0.7801719562 0.6170602508
24550152700.0 -0.7726474703 0.6272233543
24600152400.0 -0.7640616843 0.6381138859
24650152100.0 -0.7549029278 0.6487391354
