!Created with skrf (http://scikit-rf.org).
# Hz S RI R 50.0 
!freq ReS11 ImS11
300000.0 -0.9742611663 -0.1203640488
50299700.0 -0.9999834299 0.0151140221
100299400.0 -0.9978714185 0.0282260733
150299100.0 -1.002881896 0.0449901193
200298800.0 -0.9995666422 0.0584425995
250298500.0 -0.9972823866 0.0717221026
300298200.0 -0.9860387184 0.0874885796
350297900.0 -0.9939766329 0.0985656664
400297600.0 -0.9933093968 0.1150169359
450297300.0 -0.9910826641 0.1288269461
500297000.0 -0.9895228886 0.1435584674
550296700.0 -0.9844149935 0.156119557
600296400.0 -1.017429667 0.189252292
650296100.0 -0.9822437451 0.1858807607
700295800.0 -0.9794049643 0.2002950303
750295500.0 -0.9762134617 0.2143407413
800295200.0 -0.9729606241 0.2283844252
850294900.0 -0.9696446822 0.2422287859
900294600.0 -0.9657599463 0.2558926416
950294300.0 -0.9621783427 0.269711221
1000294000.0 -0.9581663814 0.2834688481
1050293700.0 -0.9537031345 0.2972487618
1100293400.0 -0.9494477702 0.3117019874
1150293100.0 -0.9455530892 0.3236542424
1200292800.0 -0.9402425787 0.3380683522
1250292500.0 -0.9346976954 0.3515322821
1300292200.0 -0.9290684675 0.3647511905
1350291900.0 -0.9236226619 0.3788348064
1400291600.0 -0.9179923594 0.3918564293
1450291300.0 -0.9125497647 0.4040738214
1500291000.0 -0.9062472376 0.4176090869
1550290700.0 -0.8996407125 0.4310428284
1600290400.0 -0.8934416699 0.4438432828
1650290100.0 -0.887003994 0.4561728503
1700289800.0 -0.8799633716 0.4693335926
1750289500.0 -0.8727992982 0.4817955821
1800289200.0 -0.8652416532 0.4946525973
1850288900.0 -0.8588596392 0.5060275991
1900288600.0 -0.8508040984 0.5188204435
1950288300.0 -0.8429761822 0.5315841559
2000288000.0 -0.8354461297 0.5430247952
2050287700.0 -0.8273464944 0.5554095114
2100287400.0 -0.8193451139 0.5669829218
2150287100.0 -0.8107187077 0.5789818689
2200286800.0 -0.8031199948 0.5893234082
2250286500.0 -0.7940129246 0.6012314841
2300286200.0 -0.7851793693 0.6130539994
2350285900.0 -0.7766434214 0.6240420547
2400285600.0 -0.7674802517 0.6349722316
2450285300.0 -0.759138428 0.6453531845
2500285000.0 -0.7494768093 0.6567301831
2550284700.0 -0.7403398356 0.6670412557
2600284400.0 -0.7310201787 0.6772531917
2650284100.0 -0.7220285066 0.687512709
2700283800.0 -0.7114165845 0.6983729225
2750283500.0 -0.7012836335 0.708756177
2800283200.0 -0.6913855492 0.7184467471
2850282900.0 -0.6811540806 0.7281250663
2900282600.0 -0.6707563733 0.7379558235
2950282300.0 -0.6605024592 0.7471866919
3000282000.0 -0.6499033208 0.7566579328
3050281700.0 -0.6386555236 0.7658018273
3100281400.0 -0.6267980368 0.775357289
3150281100.0 -0.6150787072 0.7845633092
3200280800.0 -0.6033382673 0.7932385103
3250280500.0 -0.5925993999 0.8008524771
3300280200.0 -0.5811690302 0.8087178802
3350279900.0 -0.569537317 0.8161387787
3400279600.0 -0.5573887888 0.8242714143
3450279300.0 -0.5464423191 0.8311378488
3500279000.0 -0.5343932548 0.8381116312
3550278700.0 -0.5219782263 0.8456766107
3600278400.0 -0.5095273963 0.8526152188
3650278100.0 -0.4966596965 0.8605315065
3700277800.0 -0.4843809945 0.8666602893
3750277500.0 -0.47218262 0.8732004047
3800277200.0 -0.4597592014 0.8799032949
3850276900.0 -0.4478599362 0.8857995691
3900276600.0 -0.4368813397 0.8914874414
3950276300.0 -0.4242675724 0.8975439096
4000276000.0 -0.4127604343 0.9034870969
4050275700.0 -0.3995111598 0.9094554962
4100275400.0 -0.3885274648 0.9151917307
4150275100.0 -0.3759160393 0.9206697806
4200274800.0 -0.362984212 0.9261849302
4250274500.0 -0.3506807746 0.9313793946
4300274200.0 -0.3376514 0.9365350652
4350273900.0 -0.3237590298 0.9420484304
4400273600.0 -0.3090224659 0.9469601157
4450273300.0 -0.2936668757 0.9524613775
4500273000.0 -0.2800679322 0.956477355
4550272700.0 -0.2658524616 0.9608729301
4600272400.0 -0.2504965312 0.9649329093
4650272100.0 -0.2388336362 0.9681435996
4700271800.0 -0.2254648396 0.971584782
4750271500.0 -0.2138937776 0.9744527256
4800271200.0 -0.2012969162 0.9772038211
4850270900.0 -0.1874413862 0.9800534791
4900270600.0 -0.1735988877 0.9822319657
4950270300.0 -0.159215849 0.9848810219
5000270000.0 -0.1447435806 0.9869695582
5050269700.0 -0.1314310456 0.9884195877
5100269400.0 -0.1178061132 0.9901414018
5150269100.0 -0.104489778 0.9917850796
5200268800.0 -0.0909733816 0.9929757908
5250268500.0 -0.0779729771 0.994042363
5300268200.0 -0.0647136854 0.9944629859
5350267900.0 -0.0525101063 0.9950138316
5400267600.0 -0.036231168 0.9964485135
5450267300.0 -0.0231736448 0.9967326242
5500267000.0 -0.0079703137 0.9969788377
5550266700.0 0.0067721622 0.9971939603
5600266400.0 0.0225248541 0.9974982668
5650266100.0 0.0388860416 0.9967962377
5700265800.0 0.0535593093 0.9964907842
5750265500.0 0.0686723009 0.9955776346
5800265200.0 0.082568977 0.9941366476
5850264900.0 0.0958077962 0.9934855605
5900264600.0 0.1124513595 0.9917668557
5950264300.0 0.124522188 0.9904437754
6000264000.0 0.1382593391 0.988216256
6050263700.0 0.1503807209 0.9865440981
6100263400.0 0.1631775884 0.9853684303
6150263100.0 0.1775801911 0.9828128619
6200262800.0 0.1878700049 0.9811899161
6250262500.0 0.2003954041 0.9786055925
6300262200.0 0.2132210442 0.975886217
6350261900.0 0.2263873832 0.972943613
6400261600.0 0.2403246281 0.969618818
6450261300.0 0.2514214349 0.9667905118
6500261000.0 0.2645318865 0.9633255467
6550260700.0 0.2770921099 0.959312866
6600260400.0 0.2908434434 0.9554706209
6650260100.0 0.3044196167 0.9508245485
6700259800.0 0.3166875972 0.946745734
6750259500.0 0.3301930472 0.9415263039
6800259200.0 0.3436054826 0.9364880516
6850258900.0 0.3557448361 0.9315786308
6900258600.0 0.3681897356 0.9266531684
6950258300.0 0.3804879817 0.9212721861
7000258000.0 0.3924782886 0.915799322
7050257700.0 0.4046151915 0.9098963237
7100257400.0 0.4174690721 0.9036690759
7150257100.0 0.4279419002 0.8983400947
7200256800.0 0.4405148045 0.8918681078
7250256500.0 0.4525146163 0.8855915844
7300256200.0 0.4657241873 0.8787795689
7350255900.0 0.478548674 0.8720842009
7400255600.0 0.4916500377 0.8648988618
7450255300.0 0.506908573 0.8557315874
7500255000.0 0.5185892298 0.8483608352
7550254700.0 0.5324116136 0.839771373
7600254400.0 0.5449811695 0.8318441135
7650254100.0 0.5565089163 0.8240355046
7700253800.0 0.5686095538 0.8160038322
7750253500.0 0.5795190051 0.8083616982
7800253200.0 0.5902376181 0.8006706568
7850252900.0 0.5999625206 0.7935539705
7900252600.0 0.6116680346 0.7847762327
7950252300.0 0.6205206191 0.778348034
8000252000.0 0.6305069476 0.77051621
8050251700.0 0.6409288025 0.7625342353
8100251400.0 0.6510428932 0.7542979188
8150251100.0 0.6611332148 0.7456804037
8200250800.0 0.6700738366 0.7378022106
8250250500.0 0.6793748513 0.7297667544
8300250200.0 0.6890461547 0.7211255808
8350249900.0 0.6979675528 0.7124440138
8400249600.0 0.7059244684 0.7044080814
8450249300.0 0.7151959532 0.6951237565
8500249000.0 0.7236893975 0.6864288666
8550248700.0 0.7319963259 0.6772323351
8600248400.0 0.740587408 0.6677314195
8650248100.0 0.748380516 0.6581146661
8700247800.0 0.7577904753 0.6470920611
8750247500.0 0.7660748826 0.6368977974
8800247200.0 0.7742847842 0.6264594607
8850246900.0 0.7831891576 0.615133213
8900246600.0 0.7918140444 0.6038280977
8950246300.0 0.8010896913 0.5909856135
9000246000.0 0.810431402 0.5781900324
9050245700.0 0.8195857624 0.5654760957
9100245400.0 0.8278121171 0.5525798571
9150245100.0 0.8372885407 0.5392594167
9200244800.0 0.8473463393 0.5242576878
9250244500.0 0.8564679587 0.5088807329
9300244200.0 0.8651065471 0.4942471195
9350243900.0 0.8724714227 0.4805757123
9400243600.0 0.8793227401 0.4681997054
9450243300.0 0.8849706026 0.4567937117
9500243000.0 0.8912282767 0.4446869073
9550242700.0 0.8953322518 0.4368220401
9600242400.0 0.8989849996 0.4295828051
9650242100.0 0.9028620651 0.4230837314
9700241800.0 0.9073752382 0.414849469
9750241500.0 0.9113209874 0.4072393442
9800241200.0 0.9162075214 0.3980861713
9850240900.0 0.9216909889 0.3865092485
9900240600.0 0.9275306138 0.3749878088
9950240300.0 0.9340567874 0.3588987794
10000240000.0 0.9390590344 0.3470654329
10050239700.0 0.9445172235 0.3318749366
10100239400.0 0.9494556615 0.316300238
10150239100.0 0.9537489991 0.3013348387
10200238800.0 0.9580615637 0.2865319511
10250238500.0 0.9613978317 0.2730517271
10300238200.0 0.9645236895 0.2590401355
10350237900.0 0.967269375 0.2458737284
10400237600.0 0.969650692 0.2329279441
10450237300.0 0.9724539948 0.2188088817
10500237000.0 0.9743994283 0.2066302372
10550236700.0 0.9770878722 0.192172786
10600236400.0 0.979011748 0.1791223556
10650236100.0 0.9811093338 0.1645091673
10700235800.0 0.9834484145 0.1521629666
10750235500.0 0.9858495974 0.138692552
10800235200.0 0.9878443977 0.1245114722
10850234900.0 0.9896527893 0.1099571726
10900234600.0 0.9918364899 0.0952488755
10950234300.0 0.9934377249 0.0820125133
11000234000.0 0.9952018887 0.0670014834
11050233700.0 0.9969785883 0.0507146899
11100233400.0 0.9983340374 0.0331664215
11150233100.0 0.9995693269 0.016824862
11200232800.0 1.000106598 0.0020605609
11250232500.0 1.001064397 -0.0148148468
11300232200.0 1.001302155 -0.0321408033
11350231900.0 1.001722236 -0.0485416545
11400231600.0 1.00101712 -0.0643880165
11450231300.0 1.001056664 -0.0793826232
11500231000.0 0.999821603 -0.0954740389
11550230700.0 0.9984450464 -0.1093482036
11600230400.0 0.9972325044 -0.1212261175
11650230100.0 0.9949094899 -0.1333349373
11700229800.0 0.9927117882 -0.1471136577
11750229500.0 0.9906757066 -0.1618954052
11800229200.0 0.9881635854 -0.1756331593
11850228900.0 0.9845045564 -0.1882152268
11900228600.0 0.980887353 -0.1980267892
11950228300.0 0.9775768173 -0.2084307094
12000228000.0 0.9750445992 -0.2174509286
12050227700.0 0.9709297526 -0.230766908
12100227400.0 0.968239032 -0.2412751438
12150227100.0 0.9634329999 -0.2583150957
12200226800.0 0.9593504298 -0.2694329489
12250226500.0 0.9559519702 -0.2816853878
12300226200.0 0.9517207022 -0.2935577838
12350225900.0 0.9464386085 -0.3073350794
12400225600.0 0.9426106841 -0.3202994372
12450225300.0 0.9376023662 -0.3334942896
12500225000.0 0.9326062641 -0.348097904
12550224700.0 0.9272009347 -0.3619458836
12600224400.0 0.9222729524 -0.3750148882
12650224100.0 0.9162672761 -0.3893155175
12700223800.0 0.9110769101 -0.4020904867
12750223500.0 0.9054172072 -0.4152257156
12800223200.0 0.9000729567 -0.4277926168
12850222900.0 0.8948715762 -0.4403843158
12900222600.0 0.8887982648 -0.4524522558
12950222300.0 0.8827755793 -0.4651816793
13000222000.0 0.8769082195 -0.4757015182
13050221700.0 0.8702642803 -0.4886893196
13100221400.0 0.8638472921 -0.5015228412
13150221100.0 0.856645876 -0.5132987184
13200220800.0 0.8495838552 -0.5247913754
13250220500.0 0.8421628258 -0.5369732703
13300220200.0 0.8349366672 -0.547644178
13350219900.0 0.8270641373 -0.5594193598
13400219600.0 0.8188716343 -0.5716062833
13450219300.0 0.8094608152 -0.5849728273
13500219000.0 0.7994154354 -0.5988171701
13550218700.0 0.7893047717 -0.6118272639
13600218400.0 0.7787247435 -0.6240172483
13650218100.0 0.7695176655 -0.6348445158
13700217800.0 0.7582294337 -0.6467120593
13750217500.0 0.7486502185 -0.6582085292
13800217200.0 0.7368880556 -0.6700013237
13850216900.0 0.7257995674 -0.6815001082
13900216600.0 0.7167254289 -0.6905283963
13950216300.0 0.7058283448 -0.7006962817
14000216000.0 0.6958206611 -0.7097808017
14050215700.0 0.6861542259 -0.7186418757
14100215400.0 0.6764754333 -0.7273789004
14150215100.0 0.6671523231 -0.7360095727
14200214800.0 0.65782334 -0.7445962174
14250214500.0 0.6474678023 -0.7540121854
14300214200.0 0.6370115962 -0.7632812717
14350213900.0 0.6259808025 -0.7730188604
14400213600.0 0.6140786111 -0.7829974661
14450213300.0 0.6006947465 -0.7930728176
14500213000.0 0.5872746173 -0.8029780273
14550212700.0 0.5752691712 -0.8123493142
14600212400.0 0.5630697229 -0.8214507503
14650212100.0 0.5496374283 -0.8299338143
14700211800.0 0.5361454096 -0.8393390803
14750211500.0 0.5238066516 -0.8474615239
14800211200.0 0.5118308784 -0.8558372927
14850210900.0 0.4993578884 -0.8633008742
14900210600.0 0.4861486851 -0.8710991859
14950210300.0 0.4729518158 -0.8787554314
15000210000.0 0.4601787778 -0.8854122758
15050209700.0 0.4477209111 -0.8918384478
15100209400.0 0.4352917434 -0.8975071482
15150209100.0 0.4226901317 -0.9027175527
15200208800.0 0.4101377251 -0.9079913559
15250208500.0 0.3985116602 -0.9132766183
15300208200.0 0.3870959183 -0.9174516123
15350207900.0 0.3738420342 -0.9224089629
15400207600.0 0.3592058509 -0.9276300154
15450207300.0 0.3449951995 -0.9329258626
15500207000.0 0.3300613756 -0.9375942319
15550206700.0 0.315532949 -0.9423718739
15600206400.0 0.2989263437 -0.9466780497
15650206100.0 0.2829852566 -0.9511123683
15700205800.0 0.2695031556 -0.9549819474
15750205500.0 0.2549426711 -0.9585418894
15800205200.0 0.240789563 -0.9618467642
15850204900.0 0.2263265928 -0.9652688731
15900204600.0 0.211371996 -0.9689854357
15950204300.0 0.1971828655 -0.9720493114
16000204000.0 0.1826108728 -0.9748168289
16050203700.0 0.1682731244 -0.9776633101
16100203400.0 0.1533288849 -0.9795584342
16150203100.0 0.138790285 -0.9826281498
16200202800.0 0.1244089574 -0.9846709079
16250202500.0 0.1099874297 -0.9859102665
16300202200.0 0.0947290247 -0.987814156
16350201900.0 0.0795813861 -0.9890047898
16400201600.0 0.0649471596 -0.9902172088
16450201300.0 0.0494190546 -0.9911209183
16500201000.0 0.0330929596 -0.9920641675
16550200700.0 0.0172548337 -0.9924591533
16600200400.0 0.0016885804 -0.9928524624
16650200100.0 -0.014637981 -0.9927412716
16700199800.0 -0.0310741493 -0.9924953778
16750199500.0 -0.0501584333 -0.9915631298
16800199200.0 -0.0654373424 -0.9910958451
16850198900.0 -0.0801547126 -0.9898482788
16900198600.0 -0.0944429512 -0.9885574267
16950198300.0 -0.1073158576 -0.9879323835
17000198000.0 -0.1206576851 -0.9864403569
17050197700.0 -0.1330559371 -0.9836667401
17100197400.0 -0.1462782457 -0.9820470576
17150197100.0 -0.1582456855 -0.9802562557
17200196800.0 -0.1713568792 -0.9782007557
17250196500.0 -0.1842817316 -0.9761066221
17300196200.0 -0.1965616783 -0.9736904474
17350195900.0 -0.2085581832 -0.9713791804
17400195600.0 -0.2207085976 -0.9687651997
17450195300.0 -0.2339238158 -0.9660092287
17500195000.0 -0.2472549673 -0.9626384864
17550194700.0 -0.2611905467 -0.9589719244
17600194400.0 -0.2751711721 -0.9550092962
17650194100.0 -0.2886037205 -0.9509765095
17700193800.0 -0.3015697966 -0.9469632318
17750193500.0 -0.316324724 -0.9420440384
17800193200.0 -0.3306569303 -0.9372843512
17850192900.0 -0.3457221807 -0.9318553647
17900192600.0 -0.3609985414 -0.9254536608
17950192300.0 -0.3765988672 -0.918153768
18000192000.0 -0.3909496248 -0.9112011922
18050191700.0 -0.405253773 -0.9034481131
18100191400.0 -0.4196128335 -0.8957590775
18150191100.0 -0.4344451702 -0.8876133727
18200190800.0 -0.4513119928 -0.8785858598
18250190500.0 -0.4684816423 -0.8685981095
18300190200.0 -0.4837688062 -0.8606663997
18350189900.0 -0.4988926887 -0.8518939148
18400189600.0 -0.5127154072 -0.8435998483
18450189300.0 -0.526243928 -0.8359991481
18500189000.0 -0.539962233 -0.8277126395
18550188700.0 -0.5525785369 -0.8206106159
18600188400.0 -0.5644966373 -0.813733388
18650188100.0 -0.5751379076 -0.807135455
18700187800.0 -0.586024301 -0.800920362
18750187500.0 -0.5964138982 -0.794290648
18800187200.0 -0.607188916 -0.787115867
18850186900.0 -0.617094626 -0.7804243526
18900186600.0 -0.627491426 -0.7731094297
18950186300.0 -0.6373939578 -0.7655414562
19000186000.0 -0.6449220403 -0.759365964
19050185700.0 -0.6538054792 -0.7521219159
19100185400.0 -0.6639625778 -0.7434197576
19150185100.0 -0.674649682 -0.7351210351
19200184800.0 -0.6835473345 -0.7268037919
19250184500.0 -0.6939341266 -0.7175395918
19300184200.0 -0.7051373338 -0.7084487092
19350183900.0 -0.7156874935 -0.6986107607
19400183600.0 -0.7257049514 -0.6892026452
19450183300.0 -0.7341316372 -0.6784182168
19500183000.0 -0.7424410091 -0.6682890183
19550182700.0 -0.7525216563 -0.657769703
19600182400.0 -0.7628658627 -0.6459341046
19650182100.0 -0.773642046 -0.6333169383
19700181800.0 -0.7843716268 -0.6201096374
19750181500.0 -0.7947917879 -0.6060980714
19800181200.0 -0.805461083 -0.5910832266
19850180900.0 -0.8152055592 -0.5757536
19900180600.0 -0.8231010357 -0.5611154878
19950180300.0 -0.8322241202 -0.5446963457
20000180000.0 -0.8251609797 -0.5475722603
20050179700.0 -0.8337531875 -0.5340407396
20100179400.0 -0.8419483323 -0.5201409136
20150179100.0 -0.8499690836 -0.5082652354
20200178800.0 -0.8593433079 -0.495325609
20250178500.0 -0.8685776123 -0.4820978855
20300178200.0 -0.8785314149 -0.4669513385
20350177900.0 -0.887507889 -0.4528799595
20400177600.0 -0.8964526898 -0.4381458864
20450177300.0 -0.9044526691 -0.4240276316
20500177000.0 -0.9126911654 -0.4104171208
20550176700.0 -0.9202239056 -0.3968616601
20600176400.0 -0.9272903005 -0.3834543591
20650176100.0 -0.9340437648 -0.371439934
20700175800.0 -0.9408368978 -0.3593694568
20750175500.0 -0.9468559049 -0.3484606556
20800175200.0 -0.9516203236 -0.3375822399
20850174900.0 -0.9566966518 -0.3264421475
20900174600.0 -0.9615641601 -0.3153564301
20950174300.0 -0.964227876 -0.3034429986
21000174000.0 -0.9682811794 -0.2924912063
21050173700.0 -0.9716104019 -0.2815901103
21100173400.0 -0.9749918908 -0.2699374286
21150173100.0 -0.9788679247 -0.2573593278
21200172800.0 -0.982451987 -0.243713328
21250172500.0 -0.9856476661 -0.230054204
21300172200.0 -0.9889351858 -0.215977847
21350171900.0 -0.9900822457 -0.2014603314
21400171600.0 -0.9914867849 -0.1877658485
21450171300.0 -0.9912700227 -0.172589315
21500171000.0 -0.9924580308 -0.157370689
21550170700.0 -0.9918130587 -0.1422666457
21600170400.0 -0.9921366086 -0.1266603488
21650170100.0 -0.9911617115 -0.1105008961
21700169800.0 -0.9898333099 -0.0957094562
21750169500.0 -0.9891830579 -0.0798208094
21800169200.0 -0.9883562712 -0.063363035
21850168900.0 -0.9875290755 -0.0462661296
21900168600.0 -0.9866418382 -0.0309023248
21950168300.0 -0.9849010706 -0.0143868438
22000168000.0 -0.9840226322 0.0009633386
22050167700.0 -0.9841388562 0.0150756834
22100167400.0 -0.9842703232 0.0303906317
22150167100.0 -0.9850941908 0.0458692237
22200166800.0 -0.9854498554 0.0624403466
22250166500.0 -0.98486004 0.0798429871
22300166200.0 -0.9841297721 0.0965023799
22350165900.0 -0.9829917284 0.1119971072
22400165600.0 -0.981499037 0.1281842255
22450165300.0 -0.978038774 0.1435903576
22500165000.0 -0.9772788628 0.1565159656
22550164700.0 -0.9769041714 0.1720437275
22600164400.0 -0.974498306 0.1879428707
22650164100.0 -0.9723012936 0.2030332458
22700163800.0 -0.9694388423 0.2190969822
22750163500.0 -0.9670896334 0.2337511023
22800163200.0 -0.964521559 0.2472380035
22850162900.0 -0.9618142223 0.2605928224
22900162600.0 -0.9600579571 0.2737473117
22950162300.0 -0.9590654272 0.2864888738
23000162000.0 -0.9578797312 0.2981439808
23050161700.0 -0.9556656374 0.3114396389
23100161400.0 -0.9529442389 0.3238336437
23150161100.0 -0.9510481175 0.3360876302
23200160800.0 -0.9476255805 0.3481491371
23250160500.0 -0.9451819881 0.3604048992
23300160200.0 -0.9420404763 0.3740369212
23350159900.0 -0.9388714584 0.3860526993
23400159600.0 -0.9338854079 0.3992170476
23450159300.0 -0.9288217712 0.4124842114
23500159000.0 -0.9243379449 0.4256192739
23550158700.0 -0.9203314039 0.4389084446
23600158400.0 -0.9148546975 0.4522546169
23650158100.0 -0.9085329625 0.4665642214
23700157800.0 -0.9008189764 0.4803683386
23750157500.0 -0.8927682493 0.4945295425
23800157200.0 -0.8832166985 0.5077116662
23850156900.0 -0.8744236929 0.5206333525
23900156600.0 -0.8650713727 0.5332470042
23950156300.0 -0.8559617484 0.5456723501
24000156000.0 -0.8473867211 0.5575849933
24050155700.0 -0.8367951718 0.5692819394
24100155400.0 -0.8269676441 0.5813070042
24150155100.0 -0.8166812317 0.5930121738
24200154800.0 -0.8055259929 0.6046818962
24250154500.0 -0.7942471892 0.6167025586
24300154200.0 -0.7827375743 0.6275497412
24350153900.0 -0.7712307046 0.6384368837
24400153600.0 -0.7585566729 0.6491220781
24450153300.0 -0.7469161385 0.6586481918
24500153000.0 -0.7352503752 0.668839518
24550152700.0 -0.7237565327 0.6781980669
24600152400.0 -0.7123247032 0.6872031309
24650152100.0 -0.7011793876 0.6954622232
