!Created with skrf (http://scikit-rf.org).
# Hz S RI R 50.0 
!freq ReS11 ImS11
300000.0 -0.9743327015 -0.1213499838
50299700.0 -0.9999629978 0.015175171
100299400.0 -0.9980228947 0.0279965048
150299100.0 -1.002668187 0.04489571
200298800.0 -0.9995903199 0.058143765
250298500.0 -0.9974173799 0.0716113291
300298200.0 -0.9860196688 0.087670074
350297900.0 -0.9937769831 0.0983760061
400297600.0 -0.9930889399 0.1150106631
450297300.0 -0.9909406829 0.1287235977
500297000.0 -0.9893434341 0.1434461741
550296700.0 -0.9844138506 0.1558911948
600296400.0 -1.017364629 0.1890059082
650296100.0 -0.9821679116 0.1858771115
700295800.0 -0.9793151244 0.2001356163
750295500.0 -0.9762972751 0.214199607
800295200.0 -0.9729732608 0.2282905634
850294900.0 -0.9697371421 0.2420168156
900294600.0 -0.9658947834 0.2556852147
950294300.0 -0.9620959633 0.2692817693
1000294000.0 -0.9581089935 0.2833690592
1050293700.0 -0.9537017146 0.2972124485
1100293400.0 -0.9493404321 0.3112630966
1150293100.0 -0.945548133 0.3234385626
1200292800.0 -0.9399765563 0.337863234
1250292500.0 -0.9345925151 0.3512955989
1300292200.0 -0.9291018003 0.3645531025
1350291900.0 -0.9236134259 0.3785914796
1400291600.0 -0.9180186153 0.3917314753
1450291300.0 -0.9126286268 0.4040921424
1500291000.0 -0.9063134919 0.417274937
1550290700.0 -0.8997300278 0.4306585881
1600290400.0 -0.8934032452 0.443663185
1650290100.0 -0.8869825746 0.4557109329
1700289800.0 -0.8798578668 0.469289569
1750289500.0 -0.8729162323 0.4816200862
1800289200.0 -0.8654867131 0.4945723481
1850288900.0 -0.858665646 0.5058275032
1900288600.0 -0.850985368 0.5187409415
1950288300.0 -0.8430692675 0.5313697909
2000288000.0 -0.8354114512 0.5429594567
2050287700.0 -0.827005945 0.5552288069
2100287400.0 -0.8194859847 0.5666621347
2150287100.0 -0.810835164 0.5785442421
2200286800.0 -0.8028851378 0.5892962989
2250286500.0 -0.794129311 0.6015263614
2300286200.0 -0.7852491532 0.6127394413
2350285900.0 -0.7768733736 0.6236318459
2400285600.0 -0.7679733888 0.6345216653
2450285300.0 -0.7590932052 0.6452735028
2500285000.0 -0.7491478692 0.6567544812
2550284700.0 -0.7401946079 0.667103979
2600284400.0 -0.7310061621 0.6769118833
2650284100.0 -0.7221850804 0.6874044173
2700283800.0 -0.7117555854 0.6977149739
2750283500.0 -0.7014777564 0.7086666614
2800283200.0 -0.6915566972 0.7183418848
2850282900.0 -0.6809851067 0.7284867792
2900282600.0 -0.6706354974 0.7380770504
2950282300.0 -0.6602373994 0.747394374
3000282000.0 -0.6495057811 0.7567232194
3050281700.0 -0.6384105517 0.7659257989
3100281400.0 -0.6267936062 0.774983071
3150281100.0 -0.61543527 0.7840708217
3200280800.0 -0.6039907812 0.7925169023
3250280500.0 -0.5930107699 0.8005532644
3300280200.0 -0.5814749268 0.8085646819
3350279900.0 -0.5693917307 0.8165668485
3400279600.0 -0.5567410334 0.8247438029
3450279300.0 -0.5457420211 0.8315353825
3500279000.0 -0.5337895884 0.8384617348
3550278700.0 -0.5214516113 0.8455729988
3600278400.0 -0.5097430255 0.8526018796
3650278100.0 -0.4965535618 0.8598192903
3700277800.0 -0.484427992 0.8663743057
3750277500.0 -0.4723081941 0.8732712467
3800277200.0 -0.4596036084 0.879769749
3850276900.0 -0.4478452617 0.8857311462
3900276600.0 -0.4364927575 0.8912736086
3950276300.0 -0.4246601838 0.8971763068
4000276000.0 -0.4128911137 0.9033407677
4050275700.0 -0.4001448064 0.9092666433
4100275400.0 -0.3890374927 0.9145573596
4150275100.0 -0.3760337397 0.9202726482
4200274800.0 -0.3626049677 0.9262249177
4250274500.0 -0.3500327162 0.9312813342
4300274200.0 -0.3367429336 0.9369061463
4350273900.0 -0.3225586503 0.9421017888
4400273600.0 -0.3079250641 0.9471205717
4450273300.0 -0.2929792395 0.9520385879
4500273000.0 -0.279727195 0.9563345731
4550272700.0 -0.2660204372 0.9607370395
4600272400.0 -0.2509102145 0.9647090979
4650272100.0 -0.2393510931 0.9679991221
4700271800.0 -0.2265136214 0.9712992759
4750271500.0 -0.2147978429 0.9740278056
4800271200.0 -0.2025471323 0.9768042632
4850270900.0 -0.1886639617 0.9796084991
4900270600.0 -0.1749986997 0.9819492929
4950270300.0 -0.1604442566 0.9845551833
5000270000.0 -0.1458293818 0.9866561165
5050269700.0 -0.1324649995 0.9884006216
5100269400.0 -0.118286542 0.9900712255
5150269100.0 -0.1044809341 0.9920056909
5200268800.0 -0.0911483669 0.9931681553
5250268500.0 -0.0780205459 0.9938496992
5300268200.0 -0.064697501 0.9944798977
5350267900.0 -0.0516909977 0.9951115073
5400267600.0 -0.0355113956 0.9964898869
5450267300.0 -0.0221654175 0.9966873793
5500267000.0 -0.0069058957 0.997084674
5550266700.0 0.0080228107 0.9974400868
5600266400.0 0.0237447645 0.9971707107
5650266100.0 0.0403097961 0.9969672335
5700265800.0 0.0544880001 0.9958370857
5750265500.0 0.0695055002 0.9951448145
5800265200.0 0.083376416 0.9944378581
5850264900.0 0.0964447687 0.9930568607
5900264600.0 0.1129584238 0.9911538286
5950264300.0 0.1243283576 0.9893687833
6000264000.0 0.1381733777 0.9882174903
6050263700.0 0.1499848542 0.9867204639
6100263400.0 0.1622640644 0.9848953726
6150263100.0 0.1768563378 0.9824178862
6200262800.0 0.186607654 0.980990388
6250262500.0 0.1991618912 0.9787719153
6300262200.0 0.2115796378 0.9762006448
6350261900.0 0.2243746416 0.9733082805
6400261600.0 0.2383534916 0.9700920215
6450261300.0 0.2494579695 0.9673382874
6500261000.0 0.2625004654 0.9638346389
6550260700.0 0.2756827374 0.9600060074
6600260400.0 0.289133688 0.9559446154
6650260100.0 0.3033802687 0.9516486851
6700259800.0 0.3152716742 0.9472126684
6750259500.0 0.3292524014 0.9422837186
6800259200.0 0.3422696244 0.9369586008
6850258900.0 0.3548791545 0.9317101512
6900258600.0 0.3675105427 0.9266232955
6950258300.0 0.3799260167 0.9214891695
7000258000.0 0.3915621736 0.9161897322
7050257700.0 0.4035399854 0.9102459762
7100257400.0 0.4168679709 0.9038148785
7150257100.0 0.4275905274 0.8984630132
7200256800.0 0.4405769104 0.8919846467
7250256500.0 0.4532588706 0.8853975978
7300256200.0 0.4664141046 0.8786910826
7350255900.0 0.4788628502 0.8716968057
7400255600.0 0.4925343673 0.864118434
7450255300.0 0.5083432265 0.8549587995
7500255000.0 0.5207126095 0.8475871581
7550254700.0 0.5349187548 0.8385435958
7600254400.0 0.5473857702 0.830341943
7650254100.0 0.5589709407 0.8224300473
7700253800.0 0.5706764528 0.8144536762
7750253500.0 0.5815769797 0.806855583
7800253200.0 0.5920968926 0.7988995197
7850252900.0 0.601814773 0.7916367156
7900252600.0 0.6134872325 0.7831193887
7950252300.0 0.6220854869 0.7766513001
8000252000.0 0.6319805434 0.7689755989
8050251700.0 0.6423559434 0.760913044
8100251400.0 0.6525545043 0.7526918505
8150251100.0 0.6624682205 0.7442816032
8200250800.0 0.6718891639 0.7362064325
8250250500.0 0.6804490003 0.7281733587
8300250200.0 0.6895716879 0.7198723637
8350249900.0 0.6988467968 0.7111166771
8400249600.0 0.7070551903 0.703014449
8450249300.0 0.715520657 0.6943082581
8500249000.0 0.7243372432 0.6853605308
8550248700.0 0.7328515876 0.6763591502
8600248400.0 0.7411694378 0.6668207601
8650248100.0 0.7486149139 0.6573647046
8700247800.0 0.7581369336 0.6463726618
8750247500.0 0.7662179171 0.6363453816
8800247200.0 0.7745951943 0.6259470645
8850246900.0 0.7830295276 0.6146090412
8900246600.0 0.7914728761 0.6030848072
8950246300.0 0.800649177 0.5902889779
9000246000.0 0.8097949466 0.5783151782
9050245700.0 0.8180488867 0.5659693926
9100245400.0 0.8263271457 0.553825173
9150245100.0 0.8352002532 0.5408082499
9200244800.0 0.8448286292 0.5260290101
9250244500.0 0.8542858374 0.5110913897
9300244200.0 0.8622466432 0.4974544434
9350243900.0 0.8698237554 0.4841739754
9400243600.0 0.876445363 0.4724134134
9450243300.0 0.8820436877 0.4618661285
9500243000.0 0.8882613973 0.4500411138
9550242700.0 0.8923580294 0.4424291845
9600242400.0 0.8965321862 0.4349799352
9650242100.0 0.9004993718 0.4280727983
9700241800.0 0.9054662547 0.419381791
9750241500.0 0.9094460722 0.4120645779
9800241200.0 0.9146004117 0.4024514169
9850240900.0 0.9205884058 0.3906700545
9900240600.0 0.9260174704 0.3789735245
9950240300.0 0.933324354 0.3621439625
10000240000.0 0.9383734347 0.3501959047
10050239700.0 0.9440828641 0.3345713674
10100239400.0 0.949420676 0.3181623799
10150239100.0 0.9539949725 0.3028170426
10200238800.0 0.9582525942 0.287406436
10250238500.0 0.9616919381 0.2739419484
10300238200.0 0.96462163 0.2598810739
10350237900.0 0.9674732818 0.2466306552
10400237600.0 0.9699864459 0.2331744768
10450237300.0 0.9728045074 0.2196158727
10500237000.0 0.975073277 0.2071415961
10550236700.0 0.9773042415 0.1924785171
10600236400.0 0.9796620673 0.1786002526
10650236100.0 0.9813919583 0.1648000045
10700235800.0 0.9839024959 0.1517873407
10750235500.0 0.9856980026 0.1383130226
10800235200.0 0.9878237706 0.1246516931
10850234900.0 0.9899833533 0.1092543948
10900234600.0 0.9920543987 0.0947478148
10950234300.0 0.9937864962 0.0812722529
11000234000.0 0.9955301852 0.0655475285
11050233700.0 0.9973350866 0.0491480681
11100233400.0 0.9989809261 0.0311774332
11150233100.0 1.000036991 0.0149244718
11200232800.0 1.00047109 -0.0010346504
11250232500.0 1.002094758 -0.0188400688
11300232200.0 1.001883159 -0.0374905108
11350231900.0 1.001853234 -0.0529618893
11400231600.0 1.001367216 -0.068897396
11450231300.0 1.001208573 -0.0846382301
11500231000.0 0.9993770267 -0.1000675953
11550230700.0 0.9982251677 -0.1136924092
11600230400.0 0.9971298172 -0.1258339378
11650230100.0 0.9946966266 -0.1386199031
11700229800.0 0.9929089165 -0.1534934862
11750229500.0 0.990223502 -0.1673895555
11800229200.0 0.9876399899 -0.1810245438
11850228900.0 0.9836514376 -0.1925703402
11900228600.0 0.9800134323 -0.202376094
11950228300.0 0.9768181056 -0.2121130241
12000228000.0 0.9738252024 -0.2213346165
12050227700.0 0.970179971 -0.2333392094
12100227400.0 0.9670993633 -0.2444006877
12150227100.0 0.9615998746 -0.2622633285
12200226800.0 0.9577564831 -0.2725377689
12250226500.0 0.954140569 -0.2857826308
12300226200.0 0.9499005702 -0.2977316305
12350225900.0 0.9445951153 -0.3114945259
12400225600.0 0.9406848539 -0.3241571164
12450225300.0 0.9363055622 -0.3368072388
12500225000.0 0.9306409056 -0.3514634489
12550224700.0 0.9251376987 -0.3650522287
12600224400.0 0.92037959 -0.3778819585
12650224100.0 0.9145459757 -0.3920991412
12700223800.0 0.9091723595 -0.4049867164
12750223500.0 0.9036709005 -0.4179741372
12800223200.0 0.8985847679 -0.4304736867
12850222900.0 0.8933338193 -0.4424064451
12900222600.0 0.8873884178 -0.4545670208
12950222300.0 0.8814469615 -0.4678081723
13000222000.0 0.8753378604 -0.4789983837
13050221700.0 0.8687726436 -0.4918569044
13100221400.0 0.8618405469 -0.5037875619
13150221100.0 0.8555205602 -0.5161829889
13200220800.0 0.8477728368 -0.5273273752
13250220500.0 0.8407608316 -0.5398283733
13300220200.0 0.8332513963 -0.5507618501
13350219900.0 0.8250456178 -0.5626695095
13400219600.0 0.8165812867 -0.5746756678
13450219300.0 0.8077838882 -0.587635826
13500219000.0 0.7979006847 -0.6007753186
13550218700.0 0.7877521582 -0.6131886889
13600218400.0 0.7770704422 -0.6256039248
13650218100.0 0.7683059824 -0.6359283039
13700217800.0 0.7567702595 -0.6484699625
13750217500.0 0.7474574525 -0.6590770283
13800217200.0 0.7360682686 -0.6701390086
13850216900.0 0.7252470723 -0.681559723
13900216600.0 0.7161631561 -0.6898848775
13950216300.0 0.7049532492 -0.7004218849
14000216000.0 0.6957171527 -0.7098172647
14050215700.0 0.6861003345 -0.7177861132
14100215400.0 0.6764840781 -0.7268455118
14150215100.0 0.6675421555 -0.7353174107
14200214800.0 0.6579065207 -0.7442580731
14250214500.0 0.6473790067 -0.7537435774
14300214200.0 0.6369379209 -0.7631707916
14350213900.0 0.6258243671 -0.7728869872
14400213600.0 0.6140644751 -0.7824339074
14450213300.0 0.6014389183 -0.7929881641
14500213000.0 0.5879183612 -0.8028183545
14550212700.0 0.5754145828 -0.8118858523
14600212400.0 0.5633807197 -0.8207672117
14650212100.0 0.5505426741 -0.8297893987
14700211800.0 0.5364374379 -0.83908954
14750211500.0 0.5247357217 -0.847670736
14800211200.0 0.5120332426 -0.8556258362
14850210900.0 0.499668014 -0.8633014858
14900210600.0 0.4864471054 -0.8711387584
14950210300.0 0.4732535387 -0.8787529871
15000210000.0 0.4604717855 -0.8854658784
15050209700.0 0.4481447488 -0.8915259369
15100209400.0 0.4354523348 -0.8974575028
15150209100.0 0.4229826422 -0.9025706839
15200208800.0 0.4102305921 -0.9081160204
15250208500.0 0.3995288862 -0.9125418777
15300208200.0 0.3868979374 -0.9175693823
15350207900.0 0.3746458661 -0.9223191233
15400207600.0 0.3597083379 -0.9274037894
15450207300.0 0.3445534199 -0.9329979118
15500207000.0 0.3303290403 -0.937022565
15550206700.0 0.3145176365 -0.9423757454
15600206400.0 0.2987660223 -0.9474077612
15650206100.0 0.2839127581 -0.9513116534
15700205800.0 0.2700749022 -0.9541666575
15750205500.0 0.2557899968 -0.9581203054
15800205200.0 0.2418889502 -0.9616333171
15850204900.0 0.2275257955 -0.9648650762
15900204600.0 0.2125360363 -0.9684926976
15950204300.0 0.1982416105 -0.9716751104
16000204000.0 0.1839596518 -0.9746370062
16050203700.0 0.1693943797 -0.9773312345
16100203400.0 0.1536029751 -0.9795124114
16150203100.0 0.1393506286 -0.9817770721
16200202800.0 0.1252241268 -0.9845347685
16250202500.0 0.1101822522 -0.9856475139
16300202200.0 0.0948465849 -0.9871718991
16350201900.0 0.0796965763 -0.9889980256
16400201600.0 0.0652482479 -0.9902265656
16450201300.0 0.0497176902 -0.9914326551
16500201000.0 0.0326013734 -0.9921466421
16550200700.0 0.0166304985 -0.9925815809
16600200400.0 0.0007486908 -0.9928430928
16650200100.0 -0.0153021063 -0.9925379779
16700199800.0 -0.0318233931 -0.992253542
16750199500.0 -0.0502359869 -0.9919563776
16800199200.0 -0.0668857467 -0.9911563125
16850198900.0 -0.082033845 -0.9901958599
16900198600.0 -0.0961482499 -0.9885086884
16950198300.0 -0.1096886862 -0.9879204274
17000198000.0 -0.1229920933 -0.9853724174
17050197700.0 -0.1359360547 -0.9841264751
17100197400.0 -0.1485534385 -0.9822348909
17150197100.0 -0.1610654366 -0.9800660055
17200196800.0 -0.1740504465 -0.9780608367
17250196500.0 -0.1868800414 -0.975325031
17300196200.0 -0.1991238471 -0.9732334998
17350195900.0 -0.2110165659 -0.9708279859
17400195600.0 -0.2230442302 -0.9684185668
17450195300.0 -0.2357830952 -0.9656559892
17500195000.0 -0.2489647535 -0.9620567811
17550194700.0 -0.2628046516 -0.9586385157
17600194400.0 -0.2766675433 -0.9550344796
17650194100.0 -0.290475099 -0.9507997601
17700193800.0 -0.303033745 -0.9463078398
17750193500.0 -0.3175833177 -0.9419039619
17800193200.0 -0.3317340869 -0.9368233128
17850192900.0 -0.3468827696 -0.9312214887
17900192600.0 -0.3616827115 -0.9250828566
17950192300.0 -0.3770985141 -0.9182316477
18000192000.0 -0.3919557723 -0.9108022711
18050191700.0 -0.4058877675 -0.9028845448
18100191400.0 -0.4200192148 -0.8951490674
18150191100.0 -0.4349341506 -0.8870011136
18200190800.0 -0.4517390857 -0.8780459033
18250190500.0 -0.4687373711 -0.8683919254
18300190200.0 -0.4842454524 -0.8597974746
18350189900.0 -0.4997924036 -0.8509882719
18400189600.0 -0.5140429171 -0.8423200578
18450189300.0 -0.5273415555 -0.8348275428
18500189000.0 -0.540922519 -0.826871588
18550188700.0 -0.5535216698 -0.8195285209
18600188400.0 -0.5657448062 -0.8124675486
18650188100.0 -0.5770055284 -0.8060938657
18700187800.0 -0.5877529863 -0.7989474577
18750187500.0 -0.5986003632 -0.7925728867
18800187200.0 -0.6090445893 -0.7855153815
18850186900.0 -0.6194689702 -0.7784935849
18900186600.0 -0.6296524473 -0.7711726916
18950186300.0 -0.6399790525 -0.763472557
19000186000.0 -0.6473904175 -0.7573638343
19050185700.0 -0.6567831301 -0.7498227055
19100185400.0 -0.6663902609 -0.7423198703
19150185100.0 -0.6765807964 -0.7334962332
19200184800.0 -0.6865499737 -0.7258598841
19250184500.0 -0.6956635626 -0.7161814572
19300184200.0 -0.7078229984 -0.7063670312
19350183900.0 -0.7186107512 -0.6968769902
19400183600.0 -0.7279538866 -0.6871918098
19450183300.0 -0.7366900251 -0.6770219505
19500183000.0 -0.7452320486 -0.6673459471
19550182700.0 -0.7550203812 -0.6559523156
19600182400.0 -0.7649038819 -0.6446161747
19650182100.0 -0.7758527554 -0.6319802953
19700181800.0 -0.7865490419 -0.6187589694
19750181500.0 -0.7967621879 -0.6045792045
19800181200.0 -0.8069937448 -0.5897282518
19850180900.0 -0.8165329681 -0.574294007
19900180600.0 -0.8242201783 -0.5598091815
19950180300.0 -0.8335908757 -0.5436934241
20000180000.0 -0.8236732366 -0.5473059448
20050179700.0 -0.8311886559 -0.5340638373
20100179400.0 -0.8398058515 -0.5207685839
20150179100.0 -0.8477736642 -0.5098339677
20200178800.0 -0.856813539 -0.4970545176
20250178500.0 -0.866198189 -0.4842650783
20300178200.0 -0.8760884608 -0.4707320637
20350177900.0 -0.8853804182 -0.4567856119
20400177600.0 -0.894336983 -0.4424040989
20450177300.0 -0.9026838809 -0.4280158897
20500177000.0 -0.9106657002 -0.4141554937
20550176700.0 -0.9185834471 -0.4008018448
20600176400.0 -0.925322607 -0.3876602319
20650176100.0 -0.9321919337 -0.3755987179
20700175800.0 -0.9383917027 -0.3639155039
20750175500.0 -0.9458382159 -0.3519321716
20800175200.0 -0.9498604599 -0.3418275258
20850174900.0 -0.9543046002 -0.3303484353
20900174600.0 -0.9588887777 -0.3193373817
20950174300.0 -0.9618799318 -0.3086579663
21000174000.0 -0.9645295459 -0.2977228395
21050173700.0 -0.9665405824 -0.2875040197
21100173400.0 -0.9705150997 -0.2763976823
21150173100.0 -0.9742902247 -0.2647579076
21200172800.0 -0.9779744366 -0.25120783
21250172500.0 -0.9819167238 -0.2375971489
21300172200.0 -0.9850642108 -0.2236945716
21350171900.0 -0.9866434895 -0.209204675
21400171600.0 -0.9889147952 -0.1952767265
21450171300.0 -0.9896175049 -0.1802130954
21500171000.0 -0.9897515176 -0.1652732732
21550170700.0 -0.9904239281 -0.1508443399
21600170400.0 -0.9906779284 -0.1350800638
21650170100.0 -0.9912836178 -0.1193082763
21700169800.0 -0.9897260646 -0.1038643247
21750169500.0 -0.9909772605 -0.0877736756
21800169200.0 -0.9899443057 -0.071847754
21850168900.0 -0.9898522893 -0.0541043517
21900168600.0 -0.9888817356 -0.0383156068
21950168300.0 -0.988676274 -0.0229027034
22000168000.0 -0.9877869664 -0.008163911
22050167700.0 -0.9886497525 0.0068296266
22100167400.0 -0.9890929431 0.0223754281
22150167100.0 -0.9901920495 0.0385324367
22200166800.0 -0.990273738 0.0546310385
22250166500.0 -0.989209328 0.0720310218
22300166200.0 -0.9887592392 0.089209981
22350165900.0 -0.9880121173 0.1055154561
22400165600.0 -0.9869118613 0.1210282239
22450165300.0 -0.98424087 0.1362555017
22500165000.0 -0.983015377 0.1500067791
22550164700.0 -0.9821733228 0.1658821255
22600164400.0 -0.979118255 0.1811389466
22650164100.0 -0.9768311659 0.1966991084
22700163800.0 -0.9739014398 0.2130020768
22750163500.0 -0.9708866553 0.2276920757
22800163200.0 -0.9678142148 0.2413990381
22850162900.0 -0.9653774247 0.2546670266
22900162600.0 -0.9634060955 0.2682219595
22950162300.0 -0.9621721377 0.2819416831
23000162000.0 -0.9601326347 0.294687644
23050161700.0 -0.9577821845 0.3072759174
23100161400.0 -0.9548599412 0.3216014753
23150161100.0 -0.9522870643 0.3338008677
23200160800.0 -0.9498419577 0.3467183477
23250160500.0 -0.9465645654 0.3587523126
23300160200.0 -0.943999849 0.3714816006
23350159900.0 -0.9395395799 0.3847485674
23400159600.0 -0.9349744288 0.3984703652
23450159300.0 -0.9297077074 0.4123322099
23500159000.0 -0.9250326017 0.4262760699
23550158700.0 -0.9201686252 0.4399059125
23600158400.0 -0.91423161 0.4538895646
23650158100.0 -0.907053763 0.4682403051
23700157800.0 -0.8989783359 0.4824136315
23750157500.0 -0.8896836364 0.4968728722
23800157200.0 -0.8803512224 0.5099365634
23850156900.0 -0.8709183059 0.522715786
23900156600.0 -0.8613835415 0.5352048736
23950156300.0 -0.8512526167 0.548299725
24000156000.0 -0.8415559419 0.5604047639
24050155700.0 -0.8313611846 0.5722285944
24100155400.0 -0.8204883111 0.5852978183
24150155100.0 -0.8104539389 0.5960556761
24200154800.0 -0.7991995962 0.6089053997
24250154500.0 -0.7881121347 0.6205358576
24300154200.0 -0.7765189812 0.6328139045
24350153900.0 -0.7645060782 0.6438596462
24400153600.0 -0.7519425551 0.6542103957
24450153300.0 -0.7399575244 0.6647103336
24500153000.0 -0.7284598559 0.6744615548
24550152700.0 -0.7167326155 0.6843935981
24600152400.0 -0.7053633437 0.6940569031
24650152100.0 -0.693480706 0.7028648099
