!Created with skrf (http://scikit-rf.org).
# Hz S RI R 50.0 
!freq ReS11 ImS11
300000.0 -0.9742165885 -0.1202323063
50299700.0 -0.9998945582 0.0149742234
100299400.0 -0.9979839471 0.0278585682
150299100.0 -1.002932601 0.0449073253
200298800.0 -0.9994549768 0.0581224145
250298500.0 -0.9973224582 0.0716889958
300298200.0 -0.9857295592 0.0876126342
350297900.0 -0.9940615136 0.098340154
400297600.0 -0.9930175441 0.1149703108
450297300.0 -0.9912177457 0.1287198898
500297000.0 -0.9893073995 0.1433562715
550296700.0 -0.9843656813 0.1558129783
600296400.0 -1.017214983 0.189117701
650296100.0 -0.9820926556 0.1857598441
700295800.0 -0.9792049343 0.2002542189
750295500.0 -0.976289159 0.2138748391
800295200.0 -0.9727215218 0.2281979499
850294900.0 -0.9695071021 0.2419478206
900294600.0 -0.9656930409 0.2555040062
950294300.0 -0.9619774509 0.2692510416
1000294000.0 -0.9580892271 0.2831742923
1050293700.0 -0.9535315885 0.2972091246
1100293400.0 -0.9493960156 0.3116148275
1150293100.0 -0.9454917935 0.3233923712
1200292800.0 -0.9401112437 0.3378721207
1250292500.0 -0.9347984015 0.3512309036
1300292200.0 -0.9289935557 0.364532679
1350291900.0 -0.9233730117 0.3784925382
1400291600.0 -0.9180234693 0.3917465646
1450291300.0 -0.9124657319 0.4040863732
1500291000.0 -0.9061733759 0.417462809
1550290700.0 -0.8996731073 0.4306086715
1600290400.0 -0.8933565298 0.4436102896
1650290100.0 -0.8867986989 0.4556488028
1700289800.0 -0.8798699591 0.4693489628
1750289500.0 -0.872993646 0.4814915203
1800289200.0 -0.8656314531 0.4941326864
1850288900.0 -0.8587217611 0.5058191451
1900288600.0 -0.8510061791 0.5186558095
1950288300.0 -0.8430261463 0.5314442315
2000288000.0 -0.8354525324 0.5428114482
2050287700.0 -0.8272869736 0.5552976891
2100287400.0 -0.8193452591 0.5668733852
2150287100.0 -0.8107775682 0.5786291728
2200286800.0 -0.8029602165 0.5892490725
2250286500.0 -0.7939508934 0.6014747554
2300286200.0 -0.7853415349 0.6127886006
2350285900.0 -0.7769525069 0.6235111524
2400285600.0 -0.7680349487 0.6344449949
2450285300.0 -0.759101409 0.6450892647
2500285000.0 -0.7490162594 0.6564910867
2550284700.0 -0.7402941652 0.6670670149
2600284400.0 -0.7310110748 0.6766232785
2650284100.0 -0.7223611512 0.687159288
2700283800.0 -0.7119297528 0.6977662981
2750283500.0 -0.7014936225 0.708155389
2800283200.0 -0.6915779843 0.7180749502
2850282900.0 -0.681322282 0.7281881399
2900282600.0 -0.6706745381 0.7378337589
2950282300.0 -0.6602933281 0.7471889796
3000282000.0 -0.6496945213 0.7567001586
3050281700.0 -0.638367691 0.7659727906
3100281400.0 -0.6268691818 0.7750203571
3150281100.0 -0.6156479427 0.7839547286
3200280800.0 -0.6041390721 0.7923102727
3250280500.0 -0.5931119464 0.8003238615
3300280200.0 -0.5815145345 0.8085370617
3350279900.0 -0.5693378691 0.8166074229
3400279600.0 -0.5567017754 0.8245665251
3450279300.0 -0.5457433373 0.831549125
3500279000.0 -0.533789725 0.8384587694
3550278700.0 -0.5217219747 0.8456576584
3600278400.0 -0.5100636283 0.8524553116
3650278100.0 -0.4968392312 0.8600368125
3700277800.0 -0.4847660169 0.8664957313
3750277500.0 -0.4723103352 0.8731244112
3800277200.0 -0.4597999894 0.8796350816
3850276900.0 -0.4477226467 0.885666751
3900276600.0 -0.4369783307 0.8912944529
3950276300.0 -0.4248978896 0.8973944055
4000276000.0 -0.4129990426 0.9031493131
4050275700.0 -0.4002436953 0.9094349672
4100275400.0 -0.3891920262 0.9144802692
4150275100.0 -0.3760486815 0.9205117244
4200274800.0 -0.3625493376 0.9261712927
4250274500.0 -0.3502177845 0.9314636861
4300274200.0 -0.3366444439 0.9367035611
4350273900.0 -0.3226841818 0.9421021289
4400273600.0 -0.3078896265 0.9470670884
4450273300.0 -0.2929607554 0.9521565912
4500273000.0 -0.2796886223 0.9564531583
4550272700.0 -0.2661845255 0.9606081084
4600272400.0 -0.2509490461 0.9646929543
4650272100.0 -0.2396082791 0.9678203424
4700271800.0 -0.2265983176 0.9712671429
4750271500.0 -0.2151141372 0.9740349044
4800271200.0 -0.2026556854 0.9768120786
4850270900.0 -0.1888406735 0.9794198337
4900270600.0 -0.1750774923 0.9819563655
4950270300.0 -0.1606398378 0.9846066905
5000270000.0 -0.1461691013 0.9866240149
5050269700.0 -0.1326887711 0.9883752852
5100269400.0 -0.1184774098 0.9900826565
5150269100.0 -0.1044270549 0.9920033189
5200268800.0 -0.0912421127 0.9930431377
5250268500.0 -0.0780929758 0.9938147917
5300268200.0 -0.0647794531 0.9944574526
5350267900.0 -0.0518953334 0.9952906159
5400267600.0 -0.0356673749 0.9964702075
5450267300.0 -0.0221203287 0.996654629
5500267000.0 -0.0070865516 0.9968862186
5550266700.0 0.0079191045 0.9971895007
5600266400.0 0.0238181949 0.9971349156
5650266100.0 0.0403661408 0.9966820889
5700265800.0 0.0545719162 0.9959068119
5750265500.0 0.0696983965 0.9949277852
5800265200.0 0.0833972797 0.9941325275
5850264900.0 0.0964836487 0.993223213
5900264600.0 0.1130464071 0.9913586353
5950264300.0 0.1246290858 0.9897903972
6000264000.0 0.1377982511 0.987953267
6050263700.0 0.1498207208 0.986558969
6100263400.0 0.1617935064 0.9847049591
6150263100.0 0.1766131772 0.982653011
6200262800.0 0.1864226701 0.9810838582
6250262500.0 0.198980094 0.9786764131
6300262200.0 0.2112542949 0.9761650208
6350261900.0 0.2241823005 0.9733874297
6400261600.0 0.2380302513 0.9700960258
6450261300.0 0.2491863787 0.9678003796
6500261000.0 0.2623284502 0.9640596045
6550260700.0 0.275426154 0.9598565412
6600260400.0 0.2890150737 0.9561610902
6650260100.0 0.3031228823 0.9515464925
6700259800.0 0.3150224266 0.9473447663
6750259500.0 0.3285662445 0.9423263477
6800259200.0 0.3422775671 0.9371199526
6850258900.0 0.3543333988 0.9319344071
6900258600.0 0.3674957504 0.9268153869
6950258300.0 0.3799124037 0.9215933871
7000258000.0 0.3913343905 0.9160625243
7050257700.0 0.4033679202 0.9104113555
7100257400.0 0.4168073396 0.9038727341
7150257100.0 0.427367113 0.8985618834
7200256800.0 0.4406781798 0.892061245
7250256500.0 0.4528610313 0.8854537043
7300256200.0 0.4659159247 0.8788932384
7350255900.0 0.4787370245 0.8716961624
7400255600.0 0.4929485494 0.8643054065
7450255300.0 0.5082624912 0.8551126914
7500255000.0 0.520684766 0.847618387
7550254700.0 0.5349251685 0.8385372292
7600254400.0 0.5471452479 0.830233609
7650254100.0 0.5588055309 0.8224797636
7700253800.0 0.570475635 0.8141863584
7750253500.0 0.581559724 0.8066300691
7800253200.0 0.592241191 0.7987928603
7850252900.0 0.6020034394 0.7917165162
7900252600.0 0.6133110117 0.7829029543
7950252300.0 0.6219717147 0.7765817747
8000252000.0 0.631944642 0.7689956715
8050251700.0 0.6423426042 0.7608738215
8100251400.0 0.6522375588 0.752972175
8150251100.0 0.6622566289 0.7445049444
8200250800.0 0.6718470145 0.7361152893
8250250500.0 0.6804082235 0.7283266049
8300250200.0 0.6896661262 0.7200641744
8350249900.0 0.6991630734 0.7109699074
8400249600.0 0.7072212656 0.7030542257
8450249300.0 0.7157634133 0.6942491216
8500249000.0 0.7242430101 0.6855028533
8550248700.0 0.7326248103 0.6763252532
8600248400.0 0.7409583322 0.6670011818
8650248100.0 0.7487240246 0.6576856332
8700247800.0 0.7580388044 0.646475478
8750247500.0 0.7665299267 0.6364137016
8800247200.0 0.7743476787 0.6261137723
8850246900.0 0.7828902107 0.6148931835
8900246600.0 0.7911832128 0.6032951155
8950246300.0 0.8006874718 0.5904210305
9000246000.0 0.809251643 0.5785900761
9050245700.0 0.8179225914 0.5661897718
9100245400.0 0.826265669 0.5537783183
9150245100.0 0.8352012915 0.54071983
9200244800.0 0.8444896627 0.5263530911
9250244500.0 0.8537022147 0.5116564156
9300244200.0 0.8619769987 0.4980827558
9350243900.0 0.8696521879 0.4847515075
9400243600.0 0.8760203388 0.4728372983
9450243300.0 0.8816845442 0.4623940568
9500243000.0 0.8879039836 0.4505237465
9550242700.0 0.8918345366 0.4432717693
9600242400.0 0.8962735366 0.435497166
9650242100.0 0.900233925 0.4285814945
9700241800.0 0.9052268379 0.4199982557
9750241500.0 0.9093807663 0.4126292799
9800241200.0 0.9143370783 0.4029102427
9850240900.0 0.9202488928 0.3912846134
9900240600.0 0.9260559365 0.3795258521
9950240300.0 0.9330774875 0.3629413959
10000240000.0 0.9380310022 0.3506262436
10050239700.0 0.9438989194 0.3348827967
10100239400.0 0.9494848019 0.3186628631
10150239100.0 0.9542687386 0.3031204641
10200238800.0 0.9583693005 0.2875310016
10250238500.0 0.9615149902 0.2742662034
10300238200.0 0.9646937563 0.2601896893
10350237900.0 0.9673216141 0.2468287649
10400237600.0 0.9700590864 0.2333189307
10450237300.0 0.9727708757 0.2196328017
10500237000.0 0.9748566463 0.2072583034
10550236700.0 0.9776524444 0.1922256911
10600236400.0 0.9795804924 0.1783469364
10650236100.0 0.9813284732 0.1645665561
10700235800.0 0.9839437268 0.151974813
10750235500.0 0.9858382496 0.1384692632
10800235200.0 0.9878626478 0.1242381735
10850234900.0 0.9899316357 0.1091434039
10900234600.0 0.9917637145 0.0949199146
10950234300.0 0.993816344 0.0811818928
11000234000.0 0.9955983845 0.0657590507
11050233700.0 0.9973994055 0.049100389
11100233400.0 0.9989701792 0.0314989406
11150233100.0 1.000033731 0.0147624919
11200232800.0 1.001111324 -0.001078405
11250232500.0 1.001826194 -0.0192848672
11300232200.0 1.001917522 -0.0373079837
11350231900.0 1.002028139 -0.053076038
11400231600.0 1.002020824 -0.0692167113
11450231300.0 1.000526025 -0.0851569149
11500231000.0 0.9996741086 -0.1005854506
11550230700.0 0.9982339543 -0.1144348146
11600230400.0 0.9968505257 -0.1263696084
11650230100.0 0.9950117084 -0.138526277
11700229800.0 0.992502595 -0.1531997569
11750229500.0 0.9902473698 -0.1677955558
11800229200.0 0.9874431937 -0.1810117458
11850228900.0 0.9837698441 -0.1931897681
11900228600.0 0.9802075291 -0.2026095902
11950228300.0 0.9765357428 -0.2127074178
12000228000.0 0.9739743247 -0.2210353515
12050227700.0 0.9703048746 -0.2332924584
12100227400.0 0.9663986997 -0.2456523063
12150227100.0 0.9614046109 -0.2623106268
12200226800.0 0.9580730834 -0.2734584646
12250226500.0 0.953720385 -0.2863926329
12300226200.0 0.9498073493 -0.2979937358
12350225900.0 0.9447599253 -0.3117729853
12400225600.0 0.9406191343 -0.323846511
12450225300.0 0.9358555845 -0.3360130657
12500225000.0 0.9305465346 -0.3517750239
12550224700.0 0.9250389034 -0.3652744302
12600224400.0 0.9201887849 -0.378137226
12650224100.0 0.9143454146 -0.3922194254
12700223800.0 0.909120274 -0.405020199
12750223500.0 0.9036261167 -0.4182985958
12800223200.0 0.8985126588 -0.4308734267
12850222900.0 0.8932428401 -0.4425872884
12900222600.0 0.8875250151 -0.4547113029
12950222300.0 0.8809572754 -0.4675237848
13000222000.0 0.8753757661 -0.4789889729
13050221700.0 0.8685678303 -0.4920570971
13100221400.0 0.8616921447 -0.5044393073
13150221100.0 0.8550227694 -0.5166041625
13200220800.0 0.8479484003 -0.5276024214
13250220500.0 0.8405789521 -0.5398459782
13300220200.0 0.8330900186 -0.5511247384
13350219900.0 0.8249705318 -0.5627251153
13400219600.0 0.8165027919 -0.5748475282
13450219300.0 0.8071699011 -0.5878981787
13500219000.0 0.7972397764 -0.6011184846
13550218700.0 0.7871429832 -0.6135158045
13600218400.0 0.7777479519 -0.6254732375
13650218100.0 0.7680961514 -0.6361227303
13700217800.0 0.7572992897 -0.647922736
13750217500.0 0.7475553954 -0.6593071742
13800217200.0 0.736567953 -0.6704009227
13850216900.0 0.7259266258 -0.6820620367
13900216600.0 0.7157960807 -0.690534868
13950216300.0 0.7048669486 -0.7004985638
14000216000.0 0.6950749282 -0.7089135998
14050215700.0 0.6861664251 -0.7176522284
14100215400.0 0.6765944145 -0.7268001063
14150215100.0 0.6675179931 -0.7354711342
14200214800.0 0.6578588078 -0.7440502532
14250214500.0 0.6474602182 -0.7536449759
14300214200.0 0.6369355386 -0.7631016383
14350213900.0 0.6259687853 -0.7725230287
14400213600.0 0.6140126739 -0.782566224
14450213300.0 0.6013365457 -0.7925301777
14500213000.0 0.5882476464 -0.8028476395
14550212700.0 0.5758758891 -0.8118410446
14600212400.0 0.5633929137 -0.8210390356
14650212100.0 0.550551748 -0.8291968726
14700211800.0 0.5370479315 -0.838705552
14750211500.0 0.5248653571 -0.8473667636
14800211200.0 0.5122668128 -0.8554313042
14850210900.0 0.4996656046 -0.8631661475
14900210600.0 0.486479474 -0.8710551879
14950210300.0 0.4732294357 -0.8785849302
15000210000.0 0.4606882715 -0.8854963267
15050209700.0 0.4482980078 -0.8914314365
15100209400.0 0.4353744344 -0.8971114526
15150209100.0 0.4231538652 -0.9026708483
15200208800.0 0.4107785939 -0.908311255
15250208500.0 0.3994031824 -0.912988545
15300208200.0 0.3871188217 -0.9172276528
15350207900.0 0.3749535425 -0.9224307323
15400207600.0 0.3598067297 -0.927627822
15450207300.0 0.3448141155 -0.9329400513
15500207000.0 0.3304502881 -0.9372222397
15550206700.0 0.3158255225 -0.9426418033
15600206400.0 0.2997512127 -0.9463508155
15650206100.0 0.2838852268 -0.9508793133
15700205800.0 0.2703681785 -0.9541297121
15750205500.0 0.2562295355 -0.9578169525
15800205200.0 0.2420947954 -0.9612429819
15850204900.0 0.2278412256 -0.9647869775
15900204600.0 0.2129803303 -0.9684270138
15950204300.0 0.198649641 -0.9716624992
16000204000.0 0.1840224416 -0.9743004885
16050203700.0 0.1691776657 -0.9772997448
16100203400.0 0.1543287388 -0.9794804433
16150203100.0 0.1396319341 -0.9819779925
16200202800.0 0.1250300116 -0.9840502984
16250202500.0 0.1106845983 -0.9858308222
16300202200.0 0.0947505531 -0.9870929063
16350201900.0 0.0801769332 -0.9890661537
16400201600.0 0.0656312285 -0.9900429316
16450201300.0 0.0498853016 -0.9913474505
16500201000.0 0.032702623 -0.991883382
16550200700.0 0.0167998227 -0.9924397645
16600200400.0 0.0009988061 -0.9926291794
16650200100.0 -0.0151058133 -0.9924589712
16700199800.0 -0.0317033384 -0.9922381844
16750199500.0 -0.050472631 -0.9914917461
16800199200.0 -0.066486047 -0.9910099105
16850198900.0 -0.0814998272 -0.9899519739
16900198600.0 -0.0960140236 -0.9887978294
16950198300.0 -0.1098952397 -0.9877414928
17000198000.0 -0.1225125881 -0.9860458411
17050197700.0 -0.1354856011 -0.9842078476
17100197400.0 -0.148493402 -0.9824333988
17150197100.0 -0.1612088299 -0.9798566495
17200196800.0 -0.1737982966 -0.9779990318
17250196500.0 -0.1871863672 -0.9755651915
17300196200.0 -0.1989616039 -0.9733157271
17350195900.0 -0.2108710566 -0.9707020194
17400195600.0 -0.2229360769 -0.9681102446
17450195300.0 -0.2358265209 -0.9654339197
17500195000.0 -0.2492116306 -0.9620823277
17550194700.0 -0.2627215222 -0.9588050385
17600194400.0 -0.2767867257 -0.9545052642
17650194100.0 -0.2900012712 -0.9504163379
17700193800.0 -0.3033060397 -0.9462901453
17750193500.0 -0.3177760011 -0.9412247237
17800193200.0 -0.33133753 -0.9366360976
17850192900.0 -0.3464464487 -0.9311462865
17900192600.0 -0.3613580475 -0.9249796521
17950192300.0 -0.3774317304 -0.9178791764
18000192000.0 -0.392038032 -0.910610082
18050191700.0 -0.4057918146 -0.9027521969
18100191400.0 -0.4199358267 -0.8951678316
18150191100.0 -0.4347778663 -0.8872195493
18200190800.0 -0.4515892798 -0.8779166099
18250190500.0 -0.4685504664 -0.8682107647
18300190200.0 -0.4842328565 -0.8598147126
18350189900.0 -0.4993174079 -0.8510727752
18400189600.0 -0.5136512254 -0.842788794
18450189300.0 -0.5273471089 -0.8348522921
18500189000.0 -0.5406745503 -0.8266449093
18550188700.0 -0.5534868027 -0.8188838824
18600188400.0 -0.5652503575 -0.8120779818
18650188100.0 -0.5771196114 -0.8053200381
18700187800.0 -0.5878765716 -0.7990237871
18750187500.0 -0.5984731305 -0.7923099367
18800187200.0 -0.6091363563 -0.7855153199
18850186900.0 -0.6193322039 -0.7783707768
18900186600.0 -0.6296481906 -0.7711565092
18950186300.0 -0.6399041493 -0.7633934934
19000186000.0 -0.647595162 -0.7573695125
19050185700.0 -0.6567387915 -0.7501412999
19100185400.0 -0.6667909064 -0.7415951745
19150185100.0 -0.6766438935 -0.7339020148
19200184800.0 -0.6859860307 -0.7248461966
19250184500.0 -0.6961036015 -0.7165182245
19300184200.0 -0.7081429482 -0.7063768461
19350183900.0 -0.7183260724 -0.6966937912
19400183600.0 -0.7277191546 -0.6875325606
19450183300.0 -0.7375249693 -0.6769017321
19500183000.0 -0.7454995416 -0.6665234598
19550182700.0 -0.7550929515 -0.6554717893
19600182400.0 -0.7653646722 -0.6440684341
19650182100.0 -0.7759771309 -0.6319987968
19700181800.0 -0.7866642837 -0.6185953035
19750181500.0 -0.7965740867 -0.6044821181
19800181200.0 -0.8070446027 -0.5894493125
19850180900.0 -0.8164923045 -0.5741378019
19900180600.0 -0.8242533045 -0.5598056415
19950180300.0 -0.8336605487 -0.5432661421
20000180000.0 -0.8237248691 -0.5468216735
20050179700.0 -0.8320776856 -0.5340135666
20100179400.0 -0.8395569113 -0.5210552885
20150179100.0 -0.848075099 -0.5080679696
20200178800.0 -0.8561013396 -0.4972087541
20250178500.0 -0.8663763235 -0.4848899934
20300178200.0 -0.8759901109 -0.4708809315
20350177900.0 -0.885238201 -0.4566403922
20400177600.0 -0.8939696654 -0.4427785788
20450177300.0 -0.9021785454 -0.4284163818
20500177000.0 -0.9101539027 -0.4144715678
20550176700.0 -0.918191872 -0.4010003671
20600176400.0 -0.9250756301 -0.3882134827
20650176100.0 -0.9318685318 -0.3757091037
20700175800.0 -0.9383354731 -0.3638334604
20750175500.0 -0.9456714659 -0.3528867327
20800175200.0 -0.9497257118 -0.341446896
20850174900.0 -0.9545341954 -0.330664616
20900174600.0 -0.9591338346 -0.3197330351
20950174300.0 -0.9612666868 -0.3087641313
21000174000.0 -0.964397677 -0.2983440716
21050173700.0 -0.9670468587 -0.2882291797
21100173400.0 -0.9697902405 -0.2773449813
21150173100.0 -0.9740045655 -0.2653618549
21200172800.0 -0.9777512852 -0.2519728974
21250172500.0 -0.9812352987 -0.2380482022
21300172200.0 -0.9848508739 -0.2238273213
21350171900.0 -0.9866822772 -0.2100639886
21400171600.0 -0.9881205551 -0.1959727289
21450171300.0 -0.9895804661 -0.1814011419
21500171000.0 -0.9892090221 -0.1662582969
21550170700.0 -0.9903449556 -0.1519210954
21600170400.0 -0.9896575793 -0.1353219885
21650170100.0 -0.9909574685 -0.1207924379
21700169800.0 -0.9902004179 -0.104467405
21750169500.0 -0.989340982 -0.0894539359
21800169200.0 -0.9898951777 -0.0721335697
21850168900.0 -0.9898252146 -0.0556457535
21900168600.0 -0.9890687378 -0.0395846793
21950168300.0 -0.9883337302 -0.0236361783
22000168000.0 -0.988179784 -0.0091026628
22050167700.0 -0.9888820397 0.0058578713
22100167400.0 -0.9895990702 0.0217981496
22150167100.0 -0.9905951538 0.037738111
22200166800.0 -0.990686673 0.0536748828
22250166500.0 -0.9900339182 0.0715482588
22300166200.0 -0.989745996 0.0874083614
22350165900.0 -0.9883974068 0.1034855861
22400165600.0 -0.9867829921 0.1195696476
22450165300.0 -0.9856689805 0.1352040362
22500165000.0 -0.9825252951 0.1492173262
22550164700.0 -0.9821263942 0.1649693219
22600164400.0 -0.9801446868 0.1809547893
22650164100.0 -0.9766829762 0.1963337894
22700163800.0 -0.9740221596 0.2125763945
22750163500.0 -0.9708975621 0.2262213473
22800163200.0 -0.9681059762 0.240565846
22850162900.0 -0.9657642018 0.2540302824
22900162600.0 -0.9638060816 0.2675923817
22950162300.0 -0.9621961275 0.2816020907
23000162000.0 -0.9605379385 0.2936648634
23050161700.0 -0.9583892157 0.3070481495
23100161400.0 -0.955104221 0.3207351013
23150161100.0 -0.9524083909 0.3338281454
23200160800.0 -0.9493657795 0.3462680725
23250160500.0 -0.9466785463 0.3587733939
23300160200.0 -0.9442889689 0.3716830961
23350159900.0 -0.9394283641 0.3853441008
23400159600.0 -0.9346856834 0.398958648
23450159300.0 -0.9300216708 0.4123885774
23500159000.0 -0.924811542 0.4253928264
23550158700.0 -0.9200474279 0.4397785939
23600158400.0 -0.9140981077 0.453563738
23650158100.0 -0.9071936805 0.4683374967
23700157800.0 -0.8988717508 0.482563327
23750157500.0 -0.8893713902 0.4967108462
23800157200.0 -0.8797285307 0.5103427802
23850156900.0 -0.8701791779 0.5230184521
23900156600.0 -0.8608609773 0.5360142546
23950156300.0 -0.8505292674 0.5481703142
24000156000.0 -0.8407513289 0.5608049127
24050155700.0 -0.831503668 0.5734492471
24100155400.0 -0.8205216666 0.5844604012
24150155100.0 -0.8093368696 0.5972648916
24200154800.0 -0.7983141103 0.6086786624
24250154500.0 -0.7864609933 0.6208071609
24300154200.0 -0.7753535561 0.6330428746
24350153900.0 -0.7636969773 0.6442424222
24400153600.0 -0.7512446789 0.654830882
24450153300.0 -0.7390823857 0.6651657097
24500153000.0 -0.7273211371 0.6750486863
24550152700.0 -0.7164029907 0.6850031248
24600152400.0 -0.7045771995 0.694462723
