!Created with skrf (http://scikit-rf.org).
# Hz S RI R 50.0 
!freq ReS11 ImS11
300000.0 -0.9763512946 -0.1116769769
50299700.0 -1.000074328 0.0156915384
100299400.0 -0.9979279692 0.0286327902
150299100.0 -1.002938869 0.0455622525
200298800.0 -0.9997126382 0.0587395846
250298500.0 -0.9974972558 0.0725451484
300298200.0 -0.9860007797 0.0880900315
350297900.0 -0.9942551713 0.0991188647
400297600.0 -0.9931598359 0.1156586629
450297300.0 -0.9910938469 0.1296480488
500297000.0 -0.989425341 0.1443443497
550296700.0 -0.984383605 0.1568125586
600296400.0 -1.017250288 0.1900406886
650296100.0 -0.9823090508 0.1865090996
700295800.0 -0.9792670313 0.2012003044
750295500.0 -0.9764018973 0.2149732644
800295200.0 -0.9729528527 0.2293395844
850294900.0 -0.969582354 0.2428669554
900294600.0 -0.965827699 0.2565939813
950294300.0 -0.9620048018 0.270509159
1000294000.0 -0.9580771683 0.2843412709
1050293700.0 -0.9534655944 0.2983148032
1100293400.0 -0.9491622947 0.3126619408
1150293100.0 -0.9452858491 0.3243240749
1200292800.0 -0.9397612889 0.3389345759
1250292500.0 -0.9346379195 0.3521210939
1300292200.0 -0.9287883745 0.3654247223
1350291900.0 -0.9232919737 0.3794128951
1400291600.0 -0.917607024 0.3924935863
1450291300.0 -0.9124054225 0.4050529291
1500291000.0 -0.9060365248 0.4182315016
1550290700.0 -0.8995238053 0.4316705153
1600290400.0 -0.8932719002 0.444522249
1650290100.0 -0.8866428702 0.4566223708
1700289800.0 -0.879602038 0.4702658281
1750289500.0 -0.8724468538 0.4824128426
1800289200.0 -0.8652807049 0.4950858917
1850288900.0 -0.8584825275 0.5065263555
1900288600.0 -0.8508547212 0.5195120375
1950288300.0 -0.8425621459 0.53211938
2000288000.0 -0.8351630666 0.5437782274
2050287700.0 -0.8269045239 0.5558051391
2100287400.0 -0.8188500801 0.5676673769
2150287100.0 -0.8104719724 0.5795827531
2200286800.0 -0.8027346205 0.5900580208
2250286500.0 -0.7937263348 0.602009291
2300286200.0 -0.7848829712 0.6135536782
2350285900.0 -0.7760059596 0.624720273
2400285600.0 -0.7669799947 0.6356619339
2450285300.0 -0.7584570287 0.6459885348
2500285000.0 -0.7486874823 0.6573010776
2550284700.0 -0.7398349671 0.6675841831
2600284400.0 -0.7303532067 0.6777555366
2650284100.0 -0.7213436508 0.6881851773
2700283800.0 -0.7107005365 0.6987673121
2750283500.0 -0.7007058142 0.709646395
2800283200.0 -0.6908406733 0.7192641836
2850282900.0 -0.6803745048 0.7289772296
2900282600.0 -0.670186344 0.738577117
2950282300.0 -0.6598247007 0.7476005781
3000282000.0 -0.6492233193 0.7570653598
3050281700.0 -0.6381041859 0.7664679498
3100281400.0 -0.6261126888 0.7758906088
3150281100.0 -0.6142840765 0.7851975445
3200280800.0 -0.6027598642 0.7937832868
3250280500.0 -0.5918678621 0.8014466456
3300280200.0 -0.5807070748 0.8092806613
3350279900.0 -0.5693000952 0.8168023701
3400279600.0 -0.5571506032 0.8244836005
3450279300.0 -0.5460713265 0.8317748059
3500279000.0 -0.5338388854 0.8387585723
3550278700.0 -0.5213301137 0.8460158771
3600278400.0 -0.5091429668 0.8530324558
3650278100.0 -0.495946989 0.8608689716
3700277800.0 -0.4836319556 0.8671585912
3750277500.0 -0.4715066792 0.8734771182
3800277200.0 -0.4590062775 0.8801375519
3850276900.0 -0.4469707188 0.8860897639
3900276600.0 -0.436258331 0.8918822078
3950276300.0 -0.4235928578 0.8977819287
4000276000.0 -0.411699515 0.903970318
4050275700.0 -0.3985699195 0.9102012834
4100275400.0 -0.3873842853 0.9155217733
4150275100.0 -0.3749707966 0.9210495168
4200274800.0 -0.3620931123 0.9265786268
4250274500.0 -0.3496783838 0.9315411184
4300274200.0 -0.3367442922 0.9371087037
4350273900.0 -0.3229171204 0.9425482185
4400273600.0 -0.3079695592 0.9470670035
4450273300.0 -0.2925329045 0.9525482083
4500273000.0 -0.279029913 0.9566808598
4550272700.0 -0.2646502784 0.9611859876
4600272400.0 -0.2491398926 0.9654230512
4650272100.0 -0.2376054811 0.9686711326
4700271800.0 -0.2241184517 0.9719285112
4750271500.0 -0.2125866305 0.9746724682
4800271200.0 -0.2001776409 0.9774749671
4850270900.0 -0.1861712864 0.9802031931
4900270600.0 -0.1722595387 0.9824520897
4950270300.0 -0.1579554229 0.9852333267
5000270000.0 -0.1437485995 0.9871383701
5050269700.0 -0.1302545857 0.9887212512
5100269400.0 -0.1167527885 0.9905070294
5150269100.0 -0.1033473712 0.9923244928
5200268800.0 -0.090240768 0.9931010678
5250268500.0 -0.0768248742 0.9942311466
5300268200.0 -0.0641215629 0.9948348207
5350267900.0 -0.0517216004 0.9954350511
5400267600.0 -0.0355220206 0.996451986
5450267300.0 -0.0223950584 0.9966365258
5500267000.0 -0.0074022535 0.9971105414
5550266700.0 0.007622298 0.9974035852
5600266400.0 0.0232394083 0.9971130659
5650266100.0 0.0398890332 0.9969087393
5700265800.0 0.0544410025 0.9961924696
5750265500.0 0.0695726167 0.9954476113
5800265200.0 0.0834979473 0.9942478345
5850264900.0 0.0966877718 0.9938022316
5900264600.0 0.1133794986 0.9916342742
5950264300.0 0.1255740471 0.9904175758
6000264000.0 0.1394264825 0.9881104892
6050263700.0 0.1518372998 0.986646683
6100263400.0 0.1643554566 0.9850425972
6150263100.0 0.1786953255 0.9821935109
6200262800.0 0.1893983813 0.9804742756
6250262500.0 0.2021450662 0.9784151724
6300262200.0 0.2149169548 0.9753619332
6350261900.0 0.2279622257 0.9724519311
6400261600.0 0.2417946039 0.9690978825
6450261300.0 0.2531607937 0.9664780588
6500261000.0 0.2659160367 0.9630748952
6550260700.0 0.2790445155 0.958943756
6600260400.0 0.2922997437 0.954851257
6650260100.0 0.306155762 0.9505056128
6700259800.0 0.3177666474 0.9458763969
6750259500.0 0.3322375094 0.9411436202
6800259200.0 0.3452376938 0.9362720065
6850258900.0 0.357055432 0.9312832981
6900258600.0 0.3693399069 0.9261373432
6950258300.0 0.3816301603 0.9208237578
7000258000.0 0.3937236142 0.9152447603
7050257700.0 0.4060656595 0.9093585115
7100257400.0 0.4185822334 0.9031701206
7150257100.0 0.4292484892 0.8977661418
7200256800.0 0.4419376106 0.8915441586
7250256500.0 0.4538251639 0.8851288645
7300256200.0 0.4669044798 0.8783819252
7350255900.0 0.4791587202 0.8718101154
7400255600.0 0.492143349 0.8639427581
7450255300.0 0.5082333059 0.8551493265
7500255000.0 0.5191372867 0.8482047398
7550254700.0 0.533130891 0.839640001
7600254400.0 0.5456681361 0.8312556233
7650254100.0 0.5572749572 0.8237029321
7700253800.0 0.5690063286 0.8153613499
7750253500.0 0.5803337405 0.8078037648
7800253200.0 0.5911930857 0.8001690636
7850252900.0 0.6007989621 0.7929057012
7900252600.0 0.6123423033 0.7841630359
7950252300.0 0.6213113588 0.7777454573
8000252000.0 0.6313705834 0.7699840046
8050251700.0 0.6419157098 0.761583541
8100251400.0 0.6521507247 0.7534309904
8150251100.0 0.6619641628 0.7447570913
8200250800.0 0.6715549229 0.7368769807
8250250500.0 0.6801891035 0.7288259281
8300250200.0 0.6895774353 0.720350302
8350249900.0 0.6989428151 0.7117064878
8400249600.0 0.7071836455 0.7035668227
8450249300.0 0.7162607606 0.6941402961
8500249000.0 0.7247980533 0.6854224693
8550248700.0 0.7332341551 0.6764044506
8600248400.0 0.7415073453 0.6670593068
8650248100.0 0.7493854162 0.6573431254
8700247800.0 0.7587678117 0.6463074094
8750247500.0 0.7669163447 0.636050304
8800247200.0 0.7750631021 0.6256309484
8850246900.0 0.7842074723 0.6144068382
8900246600.0 0.7924366961 0.6029018581
8950246300.0 0.8020659004 0.5901140288
9000246000.0 0.8113272865 0.5771409281
9050245700.0 0.8204775452 0.564258968
9100245400.0 0.8288803064 0.5519406324
9150245100.0 0.8383887208 0.5381013466
9200244800.0 0.8483074633 0.5227222188
9250244500.0 0.8577794967 0.5068033704
9300244200.0 0.8662302785 0.4923597281
9350243900.0 0.8740595097 0.4786044427
9400243600.0 0.8804796564 0.4660400622
9450243300.0 0.8864949403 0.4544325685
9500243000.0 0.8926011927 0.4421261488
9550242700.0 0.8963710746 0.4344195636
9600242400.0 0.9001416184 0.4272275608
9650242100.0 0.9038033279 0.4206875786
9700241800.0 0.9083636028 0.4126026336
9750241500.0 0.9121923043 0.4048491023
9800241200.0 0.9167846114 0.3959383306
9850240900.0 0.9227328628 0.3842256097
9900240600.0 0.9281177059 0.3723982813
9950240300.0 0.9349377671 0.3564470501
10000240000.0 0.9394845465 0.344800954
10050239700.0 0.9448879215 0.3295419268
10100239400.0 0.9500657969 0.3139231974
10150239100.0 0.9542256925 0.2994956558
10200238800.0 0.9584932938 0.2843774087
10250238500.0 0.9617661423 0.2710754121
10300238200.0 0.9649212597 0.257154328
10350237900.0 0.9675632345 0.2441988347
10400237600.0 0.9698782883 0.2310497436
10450237300.0 0.9727671741 0.2172599401
10500237000.0 0.9751247166 0.2051853417
10550236700.0 0.9775426662 0.1910194583
10600236400.0 0.9791512383 0.178151128
10650236100.0 0.981081656 0.1634141117
10700235800.0 0.9834578921 0.1508979386
10750235500.0 0.9858667138 0.1380665226
10800235200.0 0.9877624056 0.1240290968
10850234900.0 0.9896312151 0.1093826146
10900234600.0 0.9918337782 0.0943108435
10950234300.0 0.9934575963 0.0810851638
11000234000.0 0.9952547575 0.0660585035
11050233700.0 0.9970246263 0.049447687
11100233400.0 0.9985660095 0.0322644901
11150233100.0 0.9990654683 0.0161834776
11200232800.0 1.000175794 0.0006944028
11250232500.0 1.000874484 -0.0152212988
11300232200.0 1.001005555 -0.0337401223
11350231900.0 1.001462058 -0.0491814553
11400231600.0 1.001258414 -0.0657085381
11450231300.0 1.000552421 -0.0807710067
11500231000.0 0.9996080225 -0.0970509602
11550230700.0 0.9985242301 -0.1101134645
11600230400.0 0.9967715639 -0.1233926657
11650230100.0 0.9945158032 -0.1340225741
11700229800.0 0.9926385809 -0.1490876117
11750229500.0 0.990431562 -0.1637463311
11800229200.0 0.9875967225 -0.1775901333
11850228900.0 0.9844607059 -0.190105925
11900228600.0 0.9806296665 -0.1999724546
11950228300.0 0.9774645274 -0.2101555004
12000228000.0 0.974865907 -0.218656278
12050227700.0 0.9713268778 -0.2321313456
12100227400.0 0.9678346768 -0.2428811526
12150227100.0 0.9628038208 -0.259330412
12200226800.0 0.9591997108 -0.2700709772
12250226500.0 0.9557306154 -0.2828842434
12300226200.0 0.9508464729 -0.2959636051
12350225900.0 0.9465241183 -0.3089213803
12400225600.0 0.9419855318 -0.3220975031
12450225300.0 0.9375857065 -0.3345676659
12500225000.0 0.9318764311 -0.3493993301
12550224700.0 0.9267411497 -0.3632602468
12600224400.0 0.9217846802 -0.3757764532
12650224100.0 0.9159976919 -0.3900296128
12700223800.0 0.9106962045 -0.4029776668
12750223500.0 0.9052224199 -0.4159389477
12800223200.0 0.8998846935 -0.4284373296
12850222900.0 0.8947173139 -0.440171812
12900222600.0 0.8884969259 -0.4526082968
12950222300.0 0.8825949205 -0.4653084151
13000222000.0 0.8765741712 -0.4769470325
13050221700.0 0.8697050064 -0.4898466477
13100221400.0 0.862994839 -0.5014159767
13150221100.0 0.856190024 -0.5139224359
13200220800.0 0.8493183215 -0.5254995487
13250220500.0 0.8416179395 -0.5377808009
13300220200.0 0.8344721588 -0.5486719415
13350219900.0 0.8261520289 -0.5605482264
13400219600.0 0.8179773147 -0.572821559
13450219300.0 0.8085387318 -0.5864319682
13500219000.0 0.7980063023 -0.6005544081
13550218700.0 0.7875191764 -0.6133871959
13600218400.0 0.7775229266 -0.6256239951
13650218100.0 0.7678048506 -0.6368209604
13700217800.0 0.7575268438 -0.6492727972
13750217500.0 0.74765942 -0.6608947726
13800217200.0 0.7359375346 -0.6724767438
13850216900.0 0.7243499285 -0.6833989404
13900216600.0 0.7149060685 -0.6925889956
13950216300.0 0.7042374621 -0.7025325734
14000216000.0 0.6936586322 -0.7119608507
14050215700.0 0.6840192465 -0.7204251357
14100215400.0 0.6745206289 -0.7293682223
14150215100.0 0.6655065786 -0.7374972634
14200214800.0 0.6561780058 -0.7461632469
14250214500.0 0.6459692067 -0.7553618288
14300214200.0 0.6356043598 -0.7645220333
14350213900.0 0.6244388703 -0.7739682581
14400213600.0 0.6127154498 -0.7837716642
14450213300.0 0.5998538227 -0.7941925605
14500213000.0 0.5863920922 -0.8038486144
14550212700.0 0.5739687121 -0.8135833609
14600212400.0 0.561559364 -0.8223474144
14650212100.0 0.5487104601 -0.8309585681
14700211800.0 0.5341784606 -0.8402161745
14750211500.0 0.5220374319 -0.8489269876
14800211200.0 0.5101107896 -0.8567338009
14850210900.0 0.497978302 -0.8641697279
14900210600.0 0.4844511371 -0.8720516554
14950210300.0 0.4711766666 -0.8796551608
15000210000.0 0.4579842934 -0.8865391017
15050209700.0 0.4456854022 -0.892776283
15100209400.0 0.4331629449 -0.8988934483
15150209100.0 0.4209321411 -0.903957149
15200208800.0 0.4081882868 -0.9095581608
15250208500.0 0.3974254042 -0.9137692262
15300208200.0 0.3840101407 -0.9183342382
15350207900.0 0.3713329867 -0.9236690494
15400207600.0 0.3561136153 -0.9288327579
15450207300.0 0.3418364737 -0.9334104209
15500207000.0 0.3275669562 -0.9383093267
15550206700.0 0.3127545841 -0.94340171
15600206400.0 0.296020469 -0.9476846308
15650206100.0 0.2801058665 -0.9524873038
15700205800.0 0.2666856371 -0.9556943795
15750205500.0 0.2521627231 -0.9592662119
15800205200.0 0.2377811795 -0.9625816131
15850204900.0 0.2233765531 -0.9660596158
15900204600.0 0.2083313966 -0.9696019245
15950204300.0 0.1943023783 -0.972573601
16000204000.0 0.1803890836 -0.9753076848
16050203700.0 0.1654912896 -0.9783379395
16100203400.0 0.1508408109 -0.9801694476
16150203100.0 0.1365326054 -0.9822170489
16200202800.0 0.1225935484 -0.9845404461
16250202500.0 0.1084474968 -0.9860373355
16300202200.0 0.0923837205 -0.9877894191
16350201900.0 0.0774999589 -0.9891771782
16400201600.0 0.0629601618 -0.9902880948
16450201300.0 0.0478037526 -0.9914576268
16500201000.0 0.031217764 -0.9919977252
16550200700.0 0.0154198949 -0.9924031475
16600200400.0 -8.95409e-05 -0.9926853799
16650200100.0 -0.0165586302 -0.9925727369
16700199800.0 -0.0326847617 -0.9924588486
16750199500.0 -0.051993138 -0.9916308968
16800199200.0 -0.0680286893 -0.9903531061
16850198900.0 -0.0823589716 -0.9890687524
16900198600.0 -0.0960741075 -0.9884123773
16950198300.0 -0.1101841299 -0.9872015545
17000198000.0 -0.1232053674 -0.9864767381
17050197700.0 -0.1360398297 -0.9837928294
17100197400.0 -0.148528113 -0.9819437356
17150197100.0 -0.1612569829 -0.9801616955
17200196800.0 -0.1739561662 -0.9778137793
17250196500.0 -0.1866306988 -0.9752697213
17300196200.0 -0.1987604767 -0.9730337907
17350195900.0 -0.2104256905 -0.9708662879
17400195600.0 -0.2229852123 -0.9684146208
17450195300.0 -0.2360837659 -0.9655230739
17500195000.0 -0.2495006923 -0.9621590514
17550194700.0 -0.2631829786 -0.9583573972
17600194400.0 -0.2770780724 -0.9544927652
17650194100.0 -0.2909733906 -0.9503779252
17700193800.0 -0.3038677993 -0.9459498868
17750193500.0 -0.3189134862 -0.9414370479
17800193200.0 -0.333281903 -0.9364809214
17850192900.0 -0.3481625011 -0.9311251155
17900192600.0 -0.3627025734 -0.9247949935
17950192300.0 -0.3783165713 -0.9174436482
18000192000.0 -0.3930835588 -0.9104533805
18050191700.0 -0.4070461767 -0.9024304901
18100191400.0 -0.4212591409 -0.8947465034
18150191100.0 -0.4361549895 -0.8866284972
18200190800.0 -0.4530891454 -0.8776137754
18250190500.0 -0.4699641585 -0.8678088125
18300190200.0 -0.4856711958 -0.8594562063
18350189900.0 -0.5005398187 -0.8507371725
18400189600.0 -0.5148850769 -0.842586426
18450189300.0 -0.5278158181 -0.8340166787
18500189000.0 -0.5413183765 -0.8263279926
18550188700.0 -0.5543675576 -0.8190277653
18600188400.0 -0.5659859543 -0.8121587246
18650188100.0 -0.5768315392 -0.8055511708
18700187800.0 -0.5874485094 -0.7990978482
18750187500.0 -0.5981449901 -0.792386556
18800187200.0 -0.6088052299 -0.7852597296
18850186900.0 -0.6192137437 -0.7784464555
18900186600.0 -0.6292471387 -0.7710717264
18950186300.0 -0.639408301 -0.76346453
19000186000.0 -0.6465790189 -0.7572429893
19050185700.0 -0.6562469217 -0.7499400302
19100185400.0 -0.6660738622 -0.7414752427
19150185100.0 -0.6758292116 -0.7332189964
19200184800.0 -0.6853318394 -0.724822765
19250184500.0 -0.695474857 -0.7157405352
19300184200.0 -0.7073825153 -0.7056105696
19350183900.0 -0.7186052086 -0.6961354717
19400183600.0 -0.7276355361 -0.6857824047
19450183300.0 -0.7367677663 -0.6763747212
19500183000.0 -0.7445180148 -0.6658712924
19550182700.0 -0.7547034497 -0.6554757334
19600182400.0 -0.7645981174 -0.6433824606
19650182100.0 -0.7757524441 -0.6310664614
19700181800.0 -0.7863069463 -0.6178493486
19750181500.0 -0.7967537615 -0.6038397085
19800181200.0 -0.8071884752 -0.5889785071
19850180900.0 -0.8169076501 -0.5735969994
19900180600.0 -0.8244146675 -0.5592021727
19950180300.0 -0.833884349 -0.5429742294
20000180000.0 -0.8269208368 -0.5449421294
20050179700.0 -0.8346574168 -0.5321467269
20100179400.0 -0.8427889709 -0.5178445293
20150179100.0 -0.8514837196 -0.5058409646
20200178800.0 -0.8606089513 -0.4933862996
20250178500.0 -0.87010774 -0.4800180203
20300178200.0 -0.8796002861 -0.4649187051
20350177900.0 -0.8890041221 -0.4507485587
20400177600.0 -0.8973408541 -0.4359904
20450177300.0 -0.9055270864 -0.4215959088
20500177000.0 -0.9135832806 -0.4076828699
20550176700.0 -0.921641607 -0.394265903
20600176400.0 -0.928044066 -0.3808520618
20650176100.0 -0.9348195823 -0.3683311791
20700175800.0 -0.9414612897 -0.356966988
20750175500.0 -0.9486890019 -0.3454989928
20800175200.0 -0.952847474 -0.3337729067
20850174900.0 -0.957764775 -0.3224097532
20900174600.0 -0.9632637672 -0.311709394
20950174300.0 -0.9666795124 -0.2998056879
21000174000.0 -0.9699752324 -0.2883248545
21050173700.0 -0.9726674429 -0.2766766206
21100173400.0 -0.9767247577 -0.2652674273
21150173100.0 -0.9810518002 -0.2522274109
21200172800.0 -0.9848096309 -0.2390712963
21250172500.0 -0.9877872004 -0.2247650255
21300172200.0 -0.9904147697 -0.2106836227
21350171900.0 -0.9918042623 -0.1970183832
21400171600.0 -0.9932014708 -0.1822575603
21450171300.0 -0.9935664659 -0.1675571866
21500171000.0 -0.9929782593 -0.1529110037
21550170700.0 -0.992758167 -0.1375508911
21600170400.0 -0.9949687947 -0.1217820755
21650170100.0 -0.9921144824 -0.1055992711
21700169800.0 -0.9901335836 -0.091025417
21750169500.0 -0.9883747727 -0.0738409143
21800169200.0 -0.9875934231 -0.0586080037
21850168900.0 -0.9869110284 -0.0421374921
21900168600.0 -0.9854652038 -0.0261371154
21950168300.0 -0.9840090486 -0.0096348072
22000168000.0 -0.9830144249 0.0052837507
22050167700.0 -0.9827845015 0.0192960999
22100167400.0 -0.9828141599 0.0344972484
22150167100.0 -0.9832579478 0.0500275456
22200166800.0 -0.9836557671 0.0662921183
22250166500.0 -0.9831869759 0.0834630878
22300166200.0 -0.9825076405 0.1006555791
22350165900.0 -0.9818103122 0.1168093081
22400165600.0 -0.9788441192 0.1326605902
22450165300.0 -0.9782026851 0.1478495178
22500165000.0 -0.9748850611 0.160927596
22550164700.0 -0.9738470781 0.1761154968
22600164400.0 -0.9730421298 0.1925063191
22650164100.0 -0.9706290807 0.2063870829
22700163800.0 -0.9676631675 0.2227365618
22750163500.0 -0.9648626839 0.2378261584
22800163200.0 -0.9623388191 0.2513617781
22850162900.0 -0.9597591641 0.2647675566
22900162600.0 -0.9585694835 0.278126251
22950162300.0 -0.957789861 0.290803418
23000162000.0 -0.956746243 0.3026550249
23050161700.0 -0.9550173374 0.3148892616
23100161400.0 -0.9525451505 0.3279722564
23150161100.0 -0.9499866912 0.3397392018
23200160800.0 -0.9469494862 0.3524877138
23250160500.0 -0.944258005 0.364101439
23300160200.0 -0.9418621056 0.3760035753
23350159900.0 -0.9375246475 0.3889802664
23400159600.0 -0.9335294504 0.4027030858
23450159300.0 -0.9286083819 0.4151964531
23500159000.0 -0.9236073782 0.4279824029
23550158700.0 -0.9195940368 0.441442559
23600158400.0 -0.9141819781 0.4546932633
23650158100.0 -0.9076798598 0.4684987463
23700157800.0 -0.9000737469 0.4824462713
23750157500.0 -0.8913885823 0.496537922
23800157200.0 -0.883111814 0.5095886303
23850156900.0 -0.8735342855 0.5223153931
23900156600.0 -0.8649371252 0.534174255
23950156300.0 -0.8558238473 0.5474202146
24000156000.0 -0.8465821681 0.5592917501
24050155700.0 -0.8356598666 0.570782793
24100155400.0 -0.8262834062 0.5829553141
24150155100.0 -0.815223262 0.5949336298
24200154800.0 -0.8044021378 0.6058381758
24250154500.0 -0.7926768504 0.6171836909
24300154200.0 -0.7815117796 0.6288850316
24350153900.0 -0.7699004786 0.6397326947
24400153600.0 -0.7572019283 0.6502815714
24450153300.0 -0.7455247734 0.6602304829
24500153000.0 -0.7338732986 0.6697104237
24550152700.0 -0.7227633612 0.6795951161
24600152400.0 -0.7111151453 0.688483686
24650152100.0 -0.6991711754 0.69698034
