!Created with skrf (http://scikit-rf.org).
# Hz S RI R 50.0 
!freq ReS11 ImS11
300000.0 -0.9763730351 -0.1178211101
50299700.0 -0.9999961225 0.0154007862
100299400.0 -0.9979868874 0.0282894298
150299100.0 -1.002731854 0.0453352293
200298800.0 -0.9996686156 0.0586735079
250298500.0 -0.9975266688 0.0720784735
300298200.0 -0.9861226226 0.0878230697
350297900.0 -0.9940433725 0.0986986983
400297600.0 -0.9932864344 0.115084145
450297300.0 -0.9910097832 0.1292553893
500297000.0 -0.9895412103 0.1438100775
550296700.0 -0.9844964513 0.1562957141
600296400.0 -1.017495906 0.1894631275
650296100.0 -0.9822053822 0.1861179481
700295800.0 -0.9794818066 0.2005960519
750295500.0 -0.9765003244 0.2145610847
800295200.0 -0.9730059612 0.2283970065
850294900.0 -0.9699181136 0.2423929938
900294600.0 -0.9658264135 0.2560592906
950294300.0 -0.9619727965 0.2698311873
1000294000.0 -0.9582403308 0.2839442193
1050293700.0 -0.9536008193 0.2977249607
1100293400.0 -0.9493591936 0.3120330471
1150293100.0 -0.9455827947 0.3237879413
1200292800.0 -0.9401571371 0.3383195535
1250292500.0 -0.9345314616 0.3517297209
1300292200.0 -0.9288042673 0.3647935868
1350291900.0 -0.9234361893 0.3790766856
1400291600.0 -0.9177618062 0.3921142011
1450291300.0 -0.9123281222 0.4044117332
1500291000.0 -0.9060652382 0.4180384644
1550290700.0 -0.8995251346 0.430989462
1600290400.0 -0.8935241571 0.4442181407
1650290100.0 -0.8869145924 0.4562538259
1700289800.0 -0.8797763578 0.4695914577
1750289500.0 -0.8726901521 0.4820310987
1800289200.0 -0.8656434544 0.4949682367
1850288900.0 -0.8587308877 0.5062377058
1900288600.0 -0.850947694 0.519460616
1950288300.0 -0.8427434969 0.5317791756
2000288000.0 -0.8353414567 0.5431727083
2050287700.0 -0.8271914411 0.555620441
2100287400.0 -0.8191198358 0.5672440118
2150287100.0 -0.8105903423 0.579189336
2200286800.0 -0.8029615064 0.5896265582
2250286500.0 -0.794272249 0.6015298805
2300286200.0 -0.7851302815 0.6131304531
2350285900.0 -0.7763609433 0.6242042808
2400285600.0 -0.7675858777 0.6350847613
2450285300.0 -0.7587576624 0.6452494137
2500285000.0 -0.7491789036 0.6569415619
2550284700.0 -0.7401259211 0.6671685425
2600284400.0 -0.7311344425 0.6772957091
2650284100.0 -0.7219526615 0.6880028355
2700283800.0 -0.7112111916 0.6984208162
2750283500.0 -0.7010321504 0.7089098119
2800283200.0 -0.6912765646 0.7185802081
2850282900.0 -0.6808554869 0.728406566
2900282600.0 -0.6704038207 0.7380056921
2950282300.0 -0.6602729443 0.7474005771
3000282000.0 -0.6496415925 0.7565491064
3050281700.0 -0.6383863573 0.7661621024
3100281400.0 -0.6264934121 0.7754166832
3150281100.0 -0.6148591647 0.7849102368
3200280800.0 -0.603174492 0.7932842417
3250280500.0 -0.5925257011 0.8009479383
3300280200.0 -0.5810960221 0.8089033391
3350279900.0 -0.5695725324 0.8164056196
3400279600.0 -0.557361292 0.8241090695
3450279300.0 -0.5462655172 0.8313432709
3500279000.0 -0.534138627 0.8384069313
3550278700.0 -0.521814542 0.8457957906
3600278400.0 -0.509662161 0.8528001306
3650278100.0 -0.496292987 0.8602903918
3700277800.0 -0.4842367216 0.8669081877
3750277500.0 -0.4722240376 0.8735580856
3800277200.0 -0.4597415576 0.8800873349
3850276900.0 -0.4474701558 0.8859219708
3900276600.0 -0.436581145 0.8916188537
3950276300.0 -0.4242411988 0.8975023565
4000276000.0 -0.4123757815 0.9037414982
4050275700.0 -0.3995544442 0.9096353587
4100275400.0 -0.3883912852 0.9150895933
4150275100.0 -0.3755726473 0.9207256911
4200274800.0 -0.3625719047 0.9263927262
4250274500.0 -0.3503109916 0.9313457598
4300274200.0 -0.3373659907 0.9367308434
4350273900.0 -0.3234571802 0.9420828068
4400273600.0 -0.3086555684 0.9471040095
4450273300.0 -0.29317689 0.9522951335
4500273000.0 -0.2796869142 0.9566523052
4550272700.0 -0.265544391 0.9611407264
4600272400.0 -0.2501211526 0.9651657997
4650272100.0 -0.238460877 0.968119973
4700271800.0 -0.2251537423 0.9717743306
4750271500.0 -0.2134805461 0.9746374324
4800271200.0 -0.2010449567 0.9772410723
4850270900.0 -0.1869474464 0.9801646036
4900270600.0 -0.1730781073 0.9825205299
4950270300.0 -0.1588437153 0.9849496789
5000270000.0 -0.1446261016 0.9871305171
5050269700.0 -0.1310999496 0.9883921813
5100269400.0 -0.1175075709 0.9903433016
5150269100.0 -0.1042264422 0.9923366555
5200268800.0 -0.0908514454 0.9931575357
5250268500.0 -0.077718632 0.994229759
5300268200.0 -0.0645489148 0.9950807895
5350267900.0 -0.0522231077 0.9953879871
5400267600.0 -0.036275157 0.9962907041
5450267300.0 -0.0230097633 0.9967971947
5500267000.0 -0.007949651 0.9971483956
5550266700.0 0.0070206487 0.997258052
5600266400.0 0.0225373043 0.9970531835
5650266100.0 0.0392192496 0.9970551458
5700265800.0 0.0536316071 0.9962642227
5750265500.0 0.0687475813 0.995388464
5800265200.0 0.08273591 0.9944827789
5850264900.0 0.0961012539 0.9939097218
5900264600.0 0.1121006673 0.9913377668
5950264300.0 0.1245283449 0.9903646727
6000264000.0 0.1386537549 0.9882928174
6050263700.0 0.1511970072 0.9870343636
6100263400.0 0.1633677947 0.9849847548
6150263100.0 0.1779777613 0.9828679201
6200262800.0 0.1884133996 0.9806931287
6250262500.0 0.2010342926 0.9785302174
6300262200.0 0.2137914893 0.9758399747
6350261900.0 0.2269623538 0.9728691877
6400261600.0 0.2407200995 0.9694090423
6450261300.0 0.2519373216 0.9669499565
6500261000.0 0.2646405172 0.9631902473
6550260700.0 0.2777610709 0.9594283393
6600260400.0 0.2908401798 0.9551858096
6650260100.0 0.3045838486 0.9506562406
6700259800.0 0.3173467318 0.9467629028
6750259500.0 0.3307453862 0.9413878416
6800259200.0 0.3443078502 0.9367969231
6850258900.0 0.356110762 0.9313111379
6900258600.0 0.3682271555 0.9265058737
6950258300.0 0.3809991768 0.9212111939
7000258000.0 0.3928115325 0.9156563953
7050257700.0 0.4051118582 0.9096671619
7100257400.0 0.4180168672 0.9034611375
7150257100.0 0.4281304476 0.8981483025
7200256800.0 0.4409304179 0.8918354037
7250256500.0 0.4528829991 0.8852619431
7300256200.0 0.4660841142 0.8787457413
7350255900.0 0.478932192 0.8722624316
7400255600.0 0.4917836105 0.8644622825
7450255300.0 0.5075641622 0.8554176886
7500255000.0 0.5191248999 0.8488343362
7550254700.0 0.5327355588 0.840179272
7600254400.0 0.5456150557 0.8317068931
7650254100.0 0.5569796512 0.8238627084
7700253800.0 0.5689509959 0.8158621858
7750253500.0 0.5797978397 0.80818943
7800253200.0 0.5907442456 0.800301535
7850252900.0 0.6003601043 0.7933664672
7900252600.0 0.6119423589 0.784520356
7950252300.0 0.6208060464 0.7779458423
8000252000.0 0.6309064232 0.7703872221
8050251700.0 0.6414142823 0.7621191652
8100251400.0 0.6515297415 0.7540942146
8150251100.0 0.6612490252 0.7453849376
8200250800.0 0.6707782828 0.7374747266
8250250500.0 0.6793966947 0.729653227
8300250200.0 0.688899107 0.7207784484
8350249900.0 0.6981164156 0.7124295158
8400249600.0 0.7064270952 0.7041435366
8450249300.0 0.7155805028 0.6949104477
8500249000.0 0.7243015569 0.6861211364
8550248700.0 0.7323723262 0.6770253965
8600248400.0 0.7409009817 0.6675372355
8650248100.0 0.7485897226 0.6581081052
8700247800.0 0.7582442443 0.6468372362
8750247500.0 0.7664602715 0.6366332859
8800247200.0 0.7745551091 0.626287976
8850246900.0 0.7832301974 0.6148549556
8900246600.0 0.7920902969 0.6035271
8950246300.0 0.8014783349 0.5906385772
9000246000.0 0.8106147297 0.5779392714
9050245700.0 0.8196043143 0.5651415535
9100245400.0 0.8283994733 0.5525178942
9150245100.0 0.8376855922 0.5388649556
9200244800.0 0.8476762514 0.5237406082
9250244500.0 0.8566955578 0.5083857884
9300244200.0 0.865069267 0.4939176474
9350243900.0 0.8729516795 0.4799260233
9400243600.0 0.8794802511 0.4676757692
9450243300.0 0.8853330149 0.4562505998
9500243000.0 0.8916308663 0.4439718184
9550242700.0 0.8954807032 0.4364064919
9600242400.0 0.8992097387 0.4291276787
9650242100.0 0.9028793764 0.4226391571
9700241800.0 0.9077195728 0.4143181176
9750241500.0 0.9116260202 0.4067583695
9800241200.0 0.916371652 0.3974060675
9850240900.0 0.9219888409 0.3859237814
9900240600.0 0.9275172785 0.3744303055
9950240300.0 0.934516362 0.3582763905
10000240000.0 0.9390867973 0.3465381088
10050239700.0 0.944898411 0.331111551
10100239400.0 0.9500004295 0.3157729243
10150239100.0 0.9539361258 0.3008909729
10200238800.0 0.9582469749 0.2859659619
10250238500.0 0.9615947779 0.2725327436
10300238200.0 0.9646525238 0.2586502244
10350237900.0 0.9673264685 0.2455555561
10400237600.0 0.96974446 0.232440754
10450237300.0 0.9725705398 0.2184207877
10500237000.0 0.9746707939 0.2066576471
10550236700.0 0.9773615639 0.192343556
10600236400.0 0.9792175463 0.1789917839
10650236100.0 0.9808766371 0.1640209675
10700235800.0 0.9834025848 0.1516449496
10750235500.0 0.9856818996 0.1381542678
10800235200.0 0.9873956653 0.1244257656
10850234900.0 0.9897210167 0.1095134511
10900234600.0 0.9916150838 0.0952174628
10950234300.0 0.9935323184 0.0817403863
11000234000.0 0.9952044244 0.0666674325
11050233700.0 0.9969749742 0.0504385561
11100233400.0 0.9985973633 0.0329495036
11150233100.0 0.9995032959 0.0160850027
11200232800.0 1.000088046 0.0017853091
11250232500.0 1.001400685 -0.0153700496
11300232200.0 1.002003063 -0.0337216042
11350231900.0 1.001731176 -0.0489611499
11400231600.0 1.00181919 -0.064412726
11450231300.0 1.001281364 -0.0796712767
11500231000.0 0.9998880118 -0.0962064648
11550230700.0 0.9989681809 -0.1093653325
11600230400.0 0.996948317 -0.1227177647
11650230100.0 0.9951445095 -0.1336120323
11700229800.0 0.9932693411 -0.1478935601
11750229500.0 0.990967246 -0.1625271954
11800229200.0 0.9882985092 -0.1765011595
11850228900.0 0.9845959343 -0.188702772
11900228600.0 0.9811123191 -0.1984121023
11950228300.0 0.9778921792 -0.2089052242
12000228000.0 0.9752675738 -0.2177920114
12050227700.0 0.9712831221 -0.230328593
12100227400.0 0.9680409605 -0.2421943153
12150227100.0 0.9628618672 -0.2583311146
12200226800.0 0.9597321399 -0.2690553888
12250226500.0 0.9553598789 -0.2813844873
12300226200.0 0.9516801204 -0.2943043052
12350225900.0 0.9465423773 -0.307984157
12400225600.0 0.9422425816 -0.3205203907
12450225300.0 0.9378913679 -0.3336662192
12500225000.0 0.9322904878 -0.3484318162
12550224700.0 0.9270011276 -0.36267191
12600224400.0 0.9219922741 -0.3754286423
12650224100.0 0.9160898093 -0.3896202474
12700223800.0 0.9108922641 -0.4024953277
12750223500.0 0.9053495665 -0.4156776398
12800223200.0 0.9000933963 -0.4280621676
12850222900.0 0.8945913083 -0.4403923266
12900222600.0 0.8890783106 -0.4525429053
12950222300.0 0.8826150907 -0.4656443917
13000222000.0 0.8768902531 -0.4770529342
13050221700.0 0.8700545141 -0.489492895
13100221400.0 0.8634477728 -0.5010506723
13150221100.0 0.8564657961 -0.5134122776
13200220800.0 0.8496180168 -0.5249539973
13250220500.0 0.8422746138 -0.5370622689
13300220200.0 0.835023545 -0.5481029879
13350219900.0 0.8270360437 -0.5598138063
13400219600.0 0.8187179352 -0.5720573544
13450219300.0 0.8090971018 -0.5858076727
13500219000.0 0.7987823175 -0.5993392385
13550218700.0 0.7889545067 -0.6121521759
13600218400.0 0.7791230747 -0.6241365195
13650218100.0 0.7696509723 -0.6352697129
13700217800.0 0.7581472632 -0.6475574737
13750217500.0 0.7484971066 -0.6586590921
13800217200.0 0.7370646556 -0.67065929
13850216900.0 0.7261182797 -0.6811518272
13900216600.0 0.7164799459 -0.6903035324
13950216300.0 0.7044502664 -0.701182445
14000216000.0 0.6946667895 -0.7103768225
14050215700.0 0.6856680592 -0.7191101578
14100215400.0 0.6758307621 -0.7278699828
14150215100.0 0.6667056836 -0.7365329457
14200214800.0 0.6572289626 -0.745196644
14250214500.0 0.6469815088 -0.754525066
14300214200.0 0.6364637717 -0.7638971009
14350213900.0 0.6252732746 -0.7734129368
14400213600.0 0.6133221448 -0.7830654358
14450213300.0 0.6004033471 -0.7937297599
14500213000.0 0.5873325915 -0.8033845556
14550212700.0 0.5748587442 -0.8128996531
14600212400.0 0.5628541939 -0.8213172139
14650212100.0 0.5496044275 -0.830233504
14700211800.0 0.5355745705 -0.8396251246
14750211500.0 0.5235371365 -0.8481917354
14800211200.0 0.5112459362 -0.8562854309
14850210900.0 0.499206068 -0.8635167421
14900210600.0 0.4861203234 -0.8714693145
14950210300.0 0.4724824084 -0.8791525309
15000210000.0 0.4598364448 -0.8858196862
15050209700.0 0.4476705541 -0.8921095966
15100209400.0 0.4349973466 -0.898079731
15150209100.0 0.4220849724 -0.9035259891
15200208800.0 0.4095888181 -0.9086845704
15250208500.0 0.398347586 -0.9132325078
15300208200.0 0.3867307115 -0.9180475298
15350207900.0 0.3732669018 -0.9226048816
15400207600.0 0.3585459143 -0.9272787738
15450207300.0 0.3436918626 -0.9331136694
15500207000.0 0.3292179082 -0.9375420322
15550206700.0 0.3143996534 -0.9428129497
15600206400.0 0.2986526499 -0.9472751547
15650206100.0 0.2828218946 -0.9513136181
15700205800.0 0.2688097694 -0.954970828
15750205500.0 0.2542198768 -0.9586908817
15800205200.0 0.2399929529 -0.9620844697
15850204900.0 0.2255035169 -0.9655564967
15900204600.0 0.2105659491 -0.9692422726
15950204300.0 0.196346889 -0.972107952
16000204000.0 0.1822679546 -0.9750018904
16050203700.0 0.166880426 -0.9778623734
16100203400.0 0.1525687442 -0.97987299
16150203100.0 0.1381578201 -0.9824023739
16200202800.0 0.1243076253 -0.9844893802
16250202500.0 0.1093348136 -0.9866797924
16300202200.0 0.093965445 -0.9877403708
16350201900.0 0.0791120646 -0.9888711973
16400201600.0 0.0644491395 -0.9898818171
16450201300.0 0.0489362195 -0.9915182389
16500201000.0 0.0324856079 -0.9920898167
16550200700.0 0.0167784912 -0.992535216
16600200400.0 0.0011117622 -0.99271551
16650200100.0 -0.014943192 -0.9928299935
16700199800.0 -0.0311898319 -0.9922850761
16750199500.0 -0.050207928 -0.9917979043
16800199200.0 -0.0663008087 -0.9907004229
16850198900.0 -0.0814148193 -0.9900374727
16900198600.0 -0.0949547485 -0.9889001214
16950198300.0 -0.1082526707 -0.9871618056
17000198000.0 -0.1217474195 -0.9864996915
17050197700.0 -0.1337575573 -0.9847161589
17100197400.0 -0.1466860561 -0.9818393528
17150197100.0 -0.1592105948 -0.980476879
17200196800.0 -0.1720403303 -0.9781582431
17250196500.0 -0.1850735745 -0.975821057
17300196200.0 -0.1970995982 -0.9734311719
17350195900.0 -0.2090029729 -0.9713084036
17400195600.0 -0.2213630055 -0.9687203582
17450195300.0 -0.2343118573 -0.9659379683
17500195000.0 -0.2479227271 -0.9626299588
17550194700.0 -0.2617371449 -0.9589701881
17600194400.0 -0.2757556564 -0.9552824168
17650194100.0 -0.289172488 -0.9508365593
17700193800.0 -0.3024338834 -0.946688793
17750193500.0 -0.3165157585 -0.9420683987
17800193200.0 -0.3310016485 -0.9367473795
17850192900.0 -0.3466069703 -0.9312645274
17900192600.0 -0.3614118402 -0.9255372607
17950192300.0 -0.3773307909 -0.9184429919
18000192000.0 -0.3918501093 -0.911134102
18050191700.0 -0.4057311209 -0.9032902003
18100191400.0 -0.4198798066 -0.8956359409
18150191100.0 -0.4348239558 -0.8874495676
18200190800.0 -0.4518651312 -0.8786058411
18250190500.0 -0.4686422384 -0.8692397198
18300190200.0 -0.4840750862 -0.8602746485
18350189900.0 -0.4991875661 -0.852224357
18400189600.0 -0.5137469074 -0.8434726771
18450189300.0 -0.5263930739 -0.8356967427
18500189000.0 -0.5402465867 -0.827625545
18550188700.0 -0.5524928274 -0.8200189292
18600188400.0 -0.56432044 -0.8133364706
18650188100.0 -0.575492739 -0.8071147297
18700187800.0 -0.5858664946 -0.8001567083
18750187500.0 -0.5970549888 -0.7938220595
18800187200.0 -0.6075699613 -0.7867402133
18850186900.0 -0.6178635354 -0.7798018897
18900186600.0 -0.6281899661 -0.7724538186
18950186300.0 -0.638057853 -0.7649157664
19000186000.0 -0.6455206644 -0.7587830919
19050185700.0 -0.6546871372 -0.7513485456
19100185400.0 -0.6643342181 -0.7429555945
19150185100.0 -0.6745435509 -0.7346595384
19200184800.0 -0.6838327229 -0.7264611665
19250184500.0 -0.6941826442 -0.7172499802
19300184200.0 -0.7060359333 -0.7072919434
19350183900.0 -0.7164823407 -0.6979571742
19400183600.0 -0.7262715627 -0.6875261536
19450183300.0 -0.7351162184 -0.6773324939
19500183000.0 -0.7435802835 -0.6679347481
19550182700.0 -0.7532405161 -0.6568659453
19600182400.0 -0.7637854083 -0.6452624626
19650182100.0 -0.7746198809 -0.6326722118
19700181800.0 -0.7851292478 -0.6197335229
19750181500.0 -0.7957261081 -0.6056371031
19800181200.0 -0.8059765907 -0.590705256
19850180900.0 -0.8157390085 -0.5751612533
19900180600.0 -0.8235821523 -0.5608173207
19950180300.0 -0.8329365434 -0.5443125462
20000180000.0 -0.825399962 -0.5468891458
20050179700.0 -0.8340534769 -0.53389664
20100179400.0 -0.8426086411 -0.5198941132
20150179100.0 -0.8511942704 -0.5077039441
20200178800.0 -0.8592391425 -0.4948962666
20250178500.0 -0.8688182843 -0.4812281234
20300178200.0 -0.8787158141 -0.4670167784
20350177900.0 -0.8875016277 -0.4526853576
20400177600.0 -0.8965366148 -0.4380751984
20450177300.0 -0.9050977086 -0.4234222625
20500177000.0 -0.9127157097 -0.4097619243
20550176700.0 -0.9206673021 -0.3964214284
20600176400.0 -0.9276459167 -0.3830313158
20650176100.0 -0.9340168841 -0.3703302815
20700175800.0 -0.9413462694 -0.3586216406
20750175500.0 -0.9478645672 -0.3475424719
20800175200.0 -0.9523961036 -0.3363094939
20850174900.0 -0.9573684251 -0.3254904514
20900174600.0 -0.9613336228 -0.3136284695
20950174300.0 -0.9652674562 -0.3025603754
21000174000.0 -0.9691116492 -0.2914754051
21050173700.0 -0.9723700516 -0.2807225572
21100173400.0 -0.97585248 -0.2692439085
21150173100.0 -0.9796798451 -0.2563253285
21200172800.0 -0.9833190427 -0.2429879719
21250172500.0 -0.9864730467 -0.229040324
21300172200.0 -0.9888441609 -0.2149912422
21350171900.0 -0.9909339951 -0.2003802363
21400171600.0 -0.9917957702 -0.1859433155
21450171300.0 -0.9927945716 -0.171646701
21500171000.0 -0.9931991638 -0.1560410541
21550170700.0 -0.9925643657 -0.141491289
21600170400.0 -0.992252217 -0.1248390168
21650170100.0 -0.991103023 -0.1095812558
21700169800.0 -0.9898758776 -0.0950118285
21750169500.0 -0.988837463 -0.0788129377
21800169200.0 -0.9873124029 -0.0624668702
21850168900.0 -0.9868417911 -0.045226618
21900168600.0 -0.986281864 -0.0287237384
21950168300.0 -0.9851408875 -0.013548781
22000168000.0 -0.9838684675 0.0020847571
22050167700.0 -0.9841175682 0.01599594
22100167400.0 -0.9839464605 0.0316562031
22150167100.0 -0.9844571608 0.0468698543
22200166800.0 -0.9851914392 0.0633737074
22250166500.0 -0.9846516264 0.0810954468
22300166200.0 -0.9839412471 0.0976646162
22350165900.0 -0.9817266609 0.1135910547
22400165600.0 -0.9807275232 0.1289453636
22450165300.0 -0.9789959297 0.1439819883
22500165000.0 -0.9773756609 0.1585476833
22550164700.0 -0.9755774679 0.1735210984
22600164400.0 -0.9742042647 0.189081026
22650164100.0 -0.9717876594 0.203795461
22700163800.0 -0.9689247722 0.2197105307
22750163500.0 -0.9667924223 0.2348297689
22800163200.0 -0.9641017422 0.2482277879
22850162900.0 -0.9616988338 0.2614295917
22900162600.0 -0.9599241666 0.2746690344
22950162300.0 -0.9589158478 0.2875275325
23000162000.0 -0.9579541198 0.2994575792
23050161700.0 -0.9558933002 0.3122142936
23100161400.0 -0.9537979828 0.3245984878
23150161100.0 -0.9512341272 0.3373414797
23200160800.0 -0.9479197757 0.3495219573
23250160500.0 -0.9444065707 0.3614216905
23300160200.0 -0.9418160832 0.3738156711
23350159900.0 -0.9391242517 0.3857066711
23400159600.0 -0.9339200226 0.3993641287
23450159300.0 -0.9291910523 0.4133660065
23500159000.0 -0.9250620985 0.4262510987
23550158700.0 -0.9202910804 0.4395049209
23600158400.0 -0.9145545618 0.4528977825
23650158100.0 -0.908278957 0.4669640126
23700157800.0 -0.9008970305 0.4808490915
23750157500.0 -0.8919326365 0.4948562844
23800157200.0 -0.8829768112 0.5085999977
23850156900.0 -0.874496485 0.5211622107
23900156600.0 -0.8654363314 0.5337311921
23950156300.0 -0.8560229148 0.5463454228
24000156000.0 -0.8471209355 0.5578403817
24050155700.0 -0.8373352244 0.5694925605
24100155400.0 -0.8268908191 0.5824946921
24150155100.0 -0.8161797272 0.5937824081
24200154800.0 -0.8054804768 0.6045076647
24250154500.0 -0.7941949055 0.6168638662
24300154200.0 -0.782391963 0.6278337166
24350153900.0 -0.7709334167 0.6386336134
24400153600.0 -0.7586058128 0.649144696
24450153300.0 -0.7469718723 0.6588158664
24500153000.0 -0.7352069903 0.6686507896
24550152700.0 -0.7237823722 0.6781966568
24600152400.0 -0.7122741428 0.687066024
24650152100.0 -0.7006744469 0.6953324019
