!Created with skrf (http://scikit-rf.org).
# Hz S RI R 50.0 
!freq ReS11 ImS11
300000.0 -0.977302302 -0.1188904637
50299700.0 -0.9998259526 0.015368664
100299400.0 -0.9979426355 0.0282989446
150299100.0 -1.002820073 0.0451715934
200298800.0 -0.9995334244 0.0584849174
250298500.0 -0.9975720076 0.072005119
300298200.0 -0.9860283069 0.0877735002
350297900.0 -0.9940765367 0.0985555165
400297600.0 -0.9932096472 0.1153892708
450297300.0 -0.9910586129 0.1293414991
500297000.0 -0.9895090154 0.1436651692
550296700.0 -0.9845589774 0.1562574239
600296400.0 -1.017383469 0.1895794062
650296100.0 -0.9824253418 0.1861203908
700295800.0 -0.9794768771 0.2005207498
750295500.0 -0.9763861234 0.2145074631
800295200.0 -0.9730397317 0.2287232376
850294900.0 -0.9697403005 0.2423672489
900294600.0 -0.9658889568 0.2561770393
950294300.0 -0.9620698463 0.2698719294
1000294000.0 -0.9581700339 0.2838259333
1050293700.0 -0.9536306043 0.2977051796
1100293400.0 -0.9492433549 0.3119814256
1150293100.0 -0.9454917941 0.3239027155
1200292800.0 -0.9400486264 0.3382464724
1250292500.0 -0.9347438008 0.3517221197
1300292200.0 -0.9291849759 0.3649718806
1350291900.0 -0.9233893493 0.3788792644
1400291600.0 -0.917921952 0.3922696456
1450291300.0 -0.9124794943 0.4045292749
1500291000.0 -0.9062268533 0.4177332489
1550290700.0 -0.8997334997 0.431168394
1600290400.0 -0.8932596036 0.4441011572
1650290100.0 -0.8867952893 0.4561303731
1700289800.0 -0.8798842904 0.4697497169
1750289500.0 -0.8728123373 0.4821405737
1800289200.0 -0.8654435457 0.4949042717
1850288900.0 -0.8588283183 0.5060494604
1900288600.0 -0.8510778876 0.5191270256
1950288300.0 -0.8428070337 0.5316649208
2000288000.0 -0.8352371621 0.5431216568
2050287700.0 -0.8271964994 0.5555310963
2100287400.0 -0.8194683297 0.567044829
2150287100.0 -0.8105966142 0.5791973937
2200286800.0 -0.8027297303 0.5895151202
2250286500.0 -0.7943296422 0.6015814708
2300286200.0 -0.7851662764 0.612954103
2350285900.0 -0.7765871785 0.6242435678
2400285600.0 -0.7675327349 0.6350509308
2450285300.0 -0.7588658588 0.645350638
2500285000.0 -0.7493190268 0.6569876608
2550284700.0 -0.7403835162 0.6668724349
2600284400.0 -0.7309944291 0.6773499982
2650284100.0 -0.7219959187 0.6876924416
2700283800.0 -0.7111446202 0.6982366598
2750283500.0 -0.701123976 0.708829008
2800283200.0 -0.6914010668 0.7185727602
2850282900.0 -0.6809321751 0.7285047252
2900282600.0 -0.6706351736 0.7381614116
2950282300.0 -0.6605693004 0.7474213213
3000282000.0 -0.6497800257 0.756880162
3050281700.0 -0.6384834428 0.7660712143
3100281400.0 -0.6265569856 0.7752910167
3150281100.0 -0.6149667422 0.7847975826
3200280800.0 -0.6032264863 0.7932872572
3250280500.0 -0.5924762945 0.8009783534
3300280200.0 -0.5812058926 0.8089259328
3350279900.0 -0.5696530699 0.8163763411
3400279600.0 -0.5574741997 0.8241112856
3450279300.0 -0.5460444259 0.8312059595
3500279000.0 -0.5342388886 0.8383276573
3550278700.0 -0.5218590681 0.8455877224
3600278400.0 -0.5096921302 0.8528309178
3650278100.0 -0.4964061577 0.8607100734
3700277800.0 -0.4844605304 0.8670523546
3750277500.0 -0.4722183331 0.8735655493
3800277200.0 -0.4595727491 0.8798042278
3850276900.0 -0.4477087227 0.8859485507
3900276600.0 -0.4367216097 0.8912954601
3950276300.0 -0.4242554362 0.8976181522
4000276000.0 -0.4123825548 0.9037002367
4050275700.0 -0.3997128548 0.9097436115
4100275400.0 -0.3882987563 0.9149523773
4150275100.0 -0.3757756874 0.9207163362
4200274800.0 -0.3625679588 0.926374878
4250274500.0 -0.3502887097 0.931415889
4300274200.0 -0.3373108437 0.9367795958
4350273900.0 -0.3234887536 0.9420888884
4400273600.0 -0.3087620095 0.9471397924
4450273300.0 -0.2934479023 0.9523272389
4500273000.0 -0.2799272948 0.95673263
4550272700.0 -0.2655975883 0.9608185397
4600272400.0 -0.2502156318 0.9651442271
4650272100.0 -0.2384861989 0.9683476208
4700271800.0 -0.2252545472 0.9716680925
4750271500.0 -0.2134609277 0.9746356856
4800271200.0 -0.2010129735 0.9772225916
4850270900.0 -0.187140949 0.9800924925
4900270600.0 -0.1731512965 0.9824113828
4950270300.0 -0.1588419682 0.984896427
5000270000.0 -0.1448150472 0.9870310472
5050269700.0 -0.1313314642 0.9889703844
5100269400.0 -0.1175663611 0.9905954288
5150269100.0 -0.1040485845 0.992143332
5200268800.0 -0.0908158629 0.9928451566
5250268500.0 -0.0777615323 0.9937012177
5300268200.0 -0.06473004 0.9950302692
5350267900.0 -0.0524130456 0.9953118094
5400267600.0 -0.0361872689 0.9963827028
5450267300.0 -0.0231869028 0.9967847723
5500267000.0 -0.0077340848 0.9971228931
5550266700.0 0.0071032675 0.9972774737
5600266400.0 0.0225681285 0.9972344956
5650266100.0 0.0393417368 0.9970007552
5700265800.0 0.0535578117 0.9963465676
5750265500.0 0.0689749891 0.9955641201
5800265200.0 0.0825590194 0.9945067877
5850264900.0 0.0958927296 0.993226345
5900264600.0 0.1125670202 0.9915771784
5950264300.0 0.1247048876 0.9904405037
6000264000.0 0.1386703525 0.9882831904
6050263700.0 0.1507469255 0.9867023701
6100263400.0 0.1633384658 0.9854029823
6150263100.0 0.1778112198 0.9828279222
6200262800.0 0.1881557379 0.9809187942
6250262500.0 0.2008658683 0.9785680751
6300262200.0 0.2137075581 0.9757956994
6350261900.0 0.2267661088 0.9730116255
6400261600.0 0.2406206474 0.9697064127
6450261300.0 0.2520114018 0.967083754
6500261000.0 0.2644746458 0.9633630761
6550260700.0 0.2778495396 0.9594839332
6600260400.0 0.2912266929 0.9554246569
6650260100.0 0.3044881801 0.9509169955
6700259800.0 0.3169540046 0.9466377234
6750259500.0 0.3307822885 0.941808635
6800259200.0 0.3439848517 0.9367507358
6850258900.0 0.3556888436 0.9314841249
6900258600.0 0.3682363231 0.92649362
6950258300.0 0.3806542902 0.921268791
7000258000.0 0.3925100965 0.9157349996
7050257700.0 0.4049465526 0.9098679728
7100257400.0 0.4177880772 0.9035088338
7150257100.0 0.4282308235 0.8981872928
7200256800.0 0.44067721 0.8917574727
7250256500.0 0.4529542728 0.8857013164
7300256200.0 0.4657333619 0.8787749573
7350255900.0 0.4781924296 0.8718360118
7400255600.0 0.4912481424 0.8644166935
7450255300.0 0.5071512925 0.855533788
7500255000.0 0.5189419814 0.8485790335
7550254700.0 0.5326426563 0.8400244444
7600254400.0 0.5456446276 0.8315725027
7650254100.0 0.5571306731 0.8237399276
7700253800.0 0.5686556403 0.8157526863
7750253500.0 0.5797727122 0.8079360975
7800253200.0 0.5907450833 0.8002444204
7850252900.0 0.6003638716 0.7932860835
7900252600.0 0.6119329722 0.7846559277
7950252300.0 0.6207138971 0.7780260389
8000252000.0 0.6308315929 0.7703058963
8050251700.0 0.6413953969 0.7622447191
8100251400.0 0.6515467546 0.7540616156
8150251100.0 0.6618995347 0.7453050458
8200250800.0 0.6709022794 0.7375666756
8250250500.0 0.6796220807 0.729417861
8300250200.0 0.6889936863 0.7209631091
8350249900.0 0.6983918817 0.7122775211
8400249600.0 0.7066351649 0.7043042873
8450249300.0 0.7153026723 0.6949933908
8500249000.0 0.723982345 0.6861435743
8550248700.0 0.7324241477 0.6771818024
8600248400.0 0.7408029327 0.6676599961
8650248100.0 0.7485600915 0.6583482704
8700247800.0 0.7581189516 0.6470657097
8750247500.0 0.7663425137 0.636800078
8800247200.0 0.7745687246 0.6263779912
8850246900.0 0.7834123475 0.6149341169
8900246600.0 0.7916692391 0.6036624209
8950246300.0 0.8013552347 0.5905329925
9000246000.0 0.8109282962 0.5778546778
9050245700.0 0.8195309085 0.5650631875
9100245400.0 0.828025799 0.5525838521
9150245100.0 0.8375157255 0.539092499
9200244800.0 0.8474311563 0.5238299974
9250244500.0 0.8566364751 0.5086487236
9300244200.0 0.8653137912 0.4941596215
9350243900.0 0.8728287556 0.4803258377
9400243600.0 0.8796155921 0.4678327597
9450243300.0 0.8853268668 0.4563880061
9500243000.0 0.8917225469 0.4443012478
9550242700.0 0.895461625 0.4365525016
9600242400.0 0.8993544163 0.429241858
9650242100.0 0.9028628205 0.4226504528
9700241800.0 0.9076903061 0.4145815214
9750241500.0 0.9117234693 0.4068397231
9800241200.0 0.9164088006 0.3979314582
9850240900.0 0.9222232001 0.3861515432
9900240600.0 0.9276146694 0.374425134
9950240300.0 0.9342856488 0.3581667207
10000240000.0 0.9388094751 0.3465894065
10050239700.0 0.9442925079 0.3314136435
10100239400.0 0.9494037108 0.3157818612
10150239100.0 0.9538825712 0.3010274478
10200238800.0 0.958191639 0.2858405477
10250238500.0 0.9615927342 0.2727015816
10300238200.0 0.9645003536 0.258753468
10350237900.0 0.967391283 0.2454830407
10400237600.0 0.9699506632 0.2325160069
10450237300.0 0.9726337682 0.2187161029
10500237000.0 0.9747328873 0.2063206031
10550236700.0 0.977083879 0.1926728817
10600236400.0 0.9790365161 0.1785422758
10650236100.0 0.9811398784 0.1639923358
10700235800.0 0.9829589722 0.1521799127
10750235500.0 0.9857618621 0.1384392762
10800235200.0 0.9877736552 0.1243543702
10850234900.0 0.9893064979 0.1095794799
10900234600.0 0.9917363757 0.0950544736
10950234300.0 0.9934946587 0.081697346
11000234000.0 0.9952229027 0.0665523683
11050233700.0 0.9969723347 0.0501881731
11100233400.0 0.9987073475 0.0328165891
11150233100.0 0.999537224 0.0160886093
11200232800.0 0.9997906449 0.001470021
11250232500.0 1.001274482 -0.0149300731
11300232200.0 1.001891054 -0.03262826
11350231900.0 1.002116909 -0.0489244002
11400231600.0 1.000953941 -0.0643323087
11450231300.0 1.001003304 -0.0801063385
11500231000.0 1.00003196 -0.0963214586
11550230700.0 0.9987265161 -0.1097973724
11600230400.0 0.997009832 -0.1222368501
11650230100.0 0.9946578203 -0.1335715511
11700229800.0 0.9930707674 -0.1482778497
11750229500.0 0.9908122071 -0.1629443283
11800229200.0 0.9883746344 -0.1765836252
11850228900.0 0.9844925535 -0.1886564486
11900228600.0 0.9809415547 -0.1985023677
11950228300.0 0.9778132979 -0.2089737363
12000228000.0 0.9746211792 -0.2179487132
12050227700.0 0.97180682 -0.2300291171
12100227400.0 0.9677064548 -0.2422716479
12150227100.0 0.9632100209 -0.2578657577
12200226800.0 0.9592929466 -0.2693357408
12250226500.0 0.9552463815 -0.2822820681
12300226200.0 0.9512520916 -0.294448298
12350225900.0 0.9465482559 -0.3075842436
12400225600.0 0.9419820479 -0.3211203431
12450225300.0 0.9374715997 -0.3336464316
12500225000.0 0.9321515257 -0.3487484913
12550224700.0 0.9268534067 -0.3625580233
12600224400.0 0.9217792374 -0.3756008614
12650224100.0 0.9160851106 -0.3898252978
12700223800.0 0.9108429917 -0.4025726836
12750223500.0 0.9053059528 -0.4156417236
12800223200.0 0.9000920149 -0.4283060842
12850222900.0 0.8944514474 -0.4403319586
12900222600.0 0.889016888 -0.4527452567
12950222300.0 0.8824176943 -0.4659624433
13000222000.0 0.8768817697 -0.4771562237
13050221700.0 0.8698851194 -0.489683883
13100221400.0 0.8631804121 -0.5013651095
13150221100.0 0.8565461393 -0.5136135766
13200220800.0 0.8496836833 -0.524948549
13250220500.0 0.8424890801 -0.5370054737
13300220200.0 0.8347864059 -0.5482608271
13350219900.0 0.826982725 -0.5600808657
13400219600.0 0.8186059825 -0.5721186022
13450219300.0 0.8089868539 -0.5855880019
13500219000.0 0.7986642238 -0.5994093427
13550218700.0 0.7894183971 -0.6122983144
13600218400.0 0.7786117974 -0.6245946038
13650218100.0 0.7693546983 -0.6350449053
13700217800.0 0.758444449 -0.6474419524
13750217500.0 0.7482077131 -0.6589982044
13800217200.0 0.7374836186 -0.6701693922
13850216900.0 0.7264493986 -0.6820695899
13900216600.0 0.7161303253 -0.6910811499
13950216300.0 0.7053012386 -0.701104194
14000216000.0 0.6949770017 -0.7100840468
14050215700.0 0.6855458109 -0.7187459299
14100215400.0 0.6758544969 -0.7277737886
14150215100.0 0.6667240522 -0.7363013219
14200214800.0 0.6570890335 -0.7450399278
14250214500.0 0.6469532539 -0.7545009373
14300214200.0 0.6366246108 -0.7637470374
14350213900.0 0.6254637341 -0.7733729265
14400213600.0 0.6134629511 -0.7832084113
14450213300.0 0.6004902118 -0.7934931424
14500213000.0 0.5869718636 -0.8035049973
14550212700.0 0.5747390188 -0.8129652914
14600212400.0 0.5624418461 -0.8214536596
14650212100.0 0.549677353 -0.830249242
14700211800.0 0.5357626111 -0.8400157805
14750211500.0 0.5238668685 -0.8476746195
14800211200.0 0.511347369 -0.8562531723
14850210900.0 0.4991831058 -0.8635623896
14900210600.0 0.4861211267 -0.8715519671
14950210300.0 0.4727706569 -0.8791005781
15000210000.0 0.4598618453 -0.8859674837
15050209700.0 0.4479042031 -0.8918476292
15100209400.0 0.4350860701 -0.898020536
15150209100.0 0.4224285466 -0.9033553821
15200208800.0 0.4097767672 -0.9083103947
15250208500.0 0.398150776 -0.9134008637
15300208200.0 0.3862361746 -0.918032419
15350207900.0 0.3727839275 -0.9224724293
15400207600.0 0.3580071326 -0.9278981842
15450207300.0 0.3444277904 -0.9329366237
15500207000.0 0.3300581844 -0.9370875467
15550206700.0 0.3141940164 -0.9432417592
15600206400.0 0.2987002193 -0.9469799774
15650206100.0 0.2827451808 -0.9512872712
15700205800.0 0.26868175 -0.955118041
15750205500.0 0.2544435395 -0.9588517383
15800205200.0 0.2399528655 -0.9621865254
15850204900.0 0.2255059866 -0.96552131
15900204600.0 0.210464332 -0.9691715082
15950204300.0 0.1961163864 -0.9721259966
16000204000.0 0.1821609217 -0.975331679
16050203700.0 0.167323717 -0.9778953227
16100203400.0 0.1526394745 -0.9799578612
16150203100.0 0.1379135292 -0.9826355747
16200202800.0 0.1243478737 -0.9846564988
16250202500.0 0.1094181817 -0.9861132307
16300202200.0 0.0937702211 -0.9876058545
16350201900.0 0.0791760775 -0.9891879868
16400201600.0 0.0645139549 -0.9900786776
16450201300.0 0.049299941 -0.9913678941
16500201000.0 0.0325030832 -0.9921546475
16550200700.0 0.0168252245 -0.9925243368
16600200400.0 0.0011748103 -0.9926635627
16650200100.0 -0.0150799735 -0.9927728878
16700199800.0 -0.0309199975 -0.9923671388
16750199500.0 -0.0497169591 -0.9917708661
16800199200.0 -0.0655085205 -0.9906970232
16850198900.0 -0.0813009161 -0.9899692981
16900198600.0 -0.0943540864 -0.9884831707
16950198300.0 -0.1078689073 -0.987614528
17000198000.0 -0.1213860668 -0.9862228888
17050197700.0 -0.1335685563 -0.9843841949
17100197400.0 -0.1467314253 -0.9820554239
17150197100.0 -0.1592811205 -0.9803159785
17200196800.0 -0.1720962416 -0.9781040723
17250196500.0 -0.185044976 -0.9755819434
17300196200.0 -0.1970933535 -0.9732312871
17350195900.0 -0.2091776053 -0.9712639266
17400195600.0 -0.2212630623 -0.9686746648
17450195300.0 -0.2343341547 -0.9658487756
17500195000.0 -0.2477427785 -0.9625594034
17550194700.0 -0.2616333862 -0.9588568335
17600194400.0 -0.2755483681 -0.9548911987
17650194100.0 -0.2895232191 -0.9506576203
17700193800.0 -0.3025039885 -0.9467641711
17750193500.0 -0.3166303282 -0.9419107842
17800193200.0 -0.331252616 -0.9368170412
17850192900.0 -0.3460085896 -0.9312225827
17900192600.0 -0.3615642144 -0.9251630697
17950192300.0 -0.377247201 -0.9180162769
18000192000.0 -0.3915718577 -0.9109272233
18050191700.0 -0.4056461344 -0.9031741474
18100191400.0 -0.4198155365 -0.8954328531
18150191100.0 -0.4348282234 -0.887474603
18200190800.0 -0.4518583666 -0.8783597754
18250190500.0 -0.4687448266 -0.8687708983
18300190200.0 -0.4841951729 -0.8601292313
18350189900.0 -0.4991983858 -0.8516616563
18400189600.0 -0.5135605942 -0.8433269038
18450189300.0 -0.5267016043 -0.8351374279
18500189000.0 -0.5402850361 -0.8272723132
18550188700.0 -0.5528142023 -0.8201361863
18600188400.0 -0.5645554167 -0.8131574554
18650188100.0 -0.5759170952 -0.8068163849
18700187800.0 -0.586591851 -0.8002308695
18750187500.0 -0.5969946732 -0.79351696
18800187200.0 -0.6077368861 -0.7866785822
18850186900.0 -0.6179097937 -0.7798822688
18900186600.0 -0.6280262495 -0.7724344899
18950186300.0 -0.6379636679 -0.7649828482
19000186000.0 -0.6453226169 -0.758654742
19050185700.0 -0.6544297797 -0.7520550815
19100185400.0 -0.6641231118 -0.7433038364
19150185100.0 -0.6746996222 -0.7348786394
19200184800.0 -0.6841636581 -0.7265644359
19250184500.0 -0.6943027538 -0.7171920062
19300184200.0 -0.7059567227 -0.7080888562
19350183900.0 -0.7166106146 -0.6987753146
19400183600.0 -0.7259130726 -0.6879302727
19450183300.0 -0.7351192475 -0.677773819
19500183000.0 -0.7434665855 -0.6679642727
19550182700.0 -0.7528604856 -0.6570656498
19600182400.0 -0.7632971311 -0.6453121948
19650182100.0 -0.7740976537 -0.6329825265
19700181800.0 -0.7848899344 -0.619630483
19750181500.0 -0.7954694176 -0.605700167
19800181200.0 -0.805877374 -0.5904071544
19850180900.0 -0.8154942776 -0.5751227559
19900180600.0 -0.8233719295 -0.560922793
19950180300.0 -0.83266098 -0.5442926465
20000180000.0 -0.8259469887 -0.5472556387
20050179700.0 -0.8330817584 -0.5336522201
20100179400.0 -0.8430578434 -0.51943631
20150179100.0 -0.850475376 -0.5072989958
20200178800.0 -0.8587392976 -0.4950989668
20250178500.0 -0.869229963 -0.4814502473
20300178200.0 -0.8780637043 -0.4668930231
20350177900.0 -0.8879627595 -0.4523288643
20400177600.0 -0.8964798026 -0.4380101708
20450177300.0 -0.9047838288 -0.4238621417
20500177000.0 -0.9127024426 -0.4098007677
20550176700.0 -0.9207191465 -0.3962476426
20600176400.0 -0.9276931318 -0.3832921731
20650176100.0 -0.9339909607 -0.3712215165
20700175800.0 -0.9409217251 -0.3593910654
20750175500.0 -0.9473494835 -0.3471659976
20800175200.0 -0.952301363 -0.3365887451
20850174900.0 -0.9576083454 -0.3262810859
20900174600.0 -0.9614411356 -0.3145238827
20950174300.0 -0.9655756197 -0.3017690461
21000174000.0 -0.9701711171 -0.2912308959
21050173700.0 -0.9713269538 -0.2809846003
21100173400.0 -0.9753485664 -0.268966153
21150173100.0 -0.9794738402 -0.2562538694
21200172800.0 -0.9828648374 -0.2432390218
21250172500.0 -0.9861352957 -0.2294903126
21300172200.0 -0.9888172659 -0.2151401412
21350171900.0 -0.9905880356 -0.2011284621
21400171600.0 -0.9920579328 -0.1865973506
21450171300.0 -0.9931656187 -0.1718753265
21500171000.0 -0.9921519148 -0.1562523008
21550170700.0 -0.9926592612 -0.1410769272
21600170400.0 -0.9923555762 -0.125653766
21650170100.0 -0.9919124566 -0.1098097195
21700169800.0 -0.9897496136 -0.0939764098
21750169500.0 -0.9887943919 -0.0776663902
21800169200.0 -0.987939921 -0.0622658207
21850168900.0 -0.9874954821 -0.0451601449
21900168600.0 -0.9859432891 -0.0292516303
21950168300.0 -0.9852189263 -0.0131235894
22000168000.0 -0.9839642709 0.0012644665
22050167700.0 -0.9838669887 0.0159237268
22100167400.0 -0.9839217807 0.0314038861
22150167100.0 -0.9844424313 0.0466229497
22200166800.0 -0.9850167339 0.0635825842
22250166500.0 -0.9845700279 0.0805423182
22300166200.0 -0.9845652492 0.0971659346
22350165900.0 -0.982943711 0.1134906372
22400165600.0 -0.9810464768 0.1284438747
22450165300.0 -0.9786111584 0.1436366086
22500165000.0 -0.9776828402 0.1578181359
22550164700.0 -0.9760664092 0.1727510346
22600164400.0 -0.9745111448 0.1881957071
22650164100.0 -0.972711021 0.2030950786
22700163800.0 -0.9694696188 0.2194431015
22750163500.0 -0.9673297385 0.2342980078
22800163200.0 -0.9639349604 0.2480353231
22850162900.0 -0.9615383684 0.26123156
22900162600.0 -0.9604146367 0.2744372084
22950162300.0 -0.9589335918 0.2874304598
23000162000.0 -0.9579719984 0.2993908616
23050161700.0 -0.955436747 0.3118681388
23100161400.0 -0.9527819194 0.3249356606
23150161100.0 -0.950622181 0.3373498144
23200160800.0 -0.9477300707 0.3492063826
23250160500.0 -0.9447536105 0.3610665488
23300160200.0 -0.9425435934 0.3737582414
23350159900.0 -0.9379656284 0.3867016622
23400159600.0 -0.9342669763 0.3994659148
23450159300.0 -0.9287699704 0.4136131954
23500159000.0 -0.9242360604 0.4264895807
23550158700.0 -0.9200967449 0.4395276698
23600158400.0 -0.91444713 0.4531755299
23650158100.0 -0.9082544329 0.4670950883
23700157800.0 -0.9005042343 0.4810294592
23750157500.0 -0.8918538657 0.4951505601
23800157200.0 -0.8830380925 0.5084248894
23850156900.0 -0.8743725263 0.5209435287
23900156600.0 -0.8649604588 0.5332328822
23950156300.0 -0.8561834639 0.54633725
24000156000.0 -0.8460993151 0.5577043463
24050155700.0 -0.8365143809 0.5699730996
24100155400.0 -0.8268366263 0.5814539459
24150155100.0 -0.8153961868 0.5932934782
24200154800.0 -0.8054828712 0.6044381029
24250154500.0 -0.7936582537 0.616760509
24300154200.0 -0.7824295706 0.6281046127
24350153900.0 -0.7709294722 0.638604559
24400153600.0 -0.7583139616 0.6490343789
24450153300.0 -0.7465459991 0.6590919402
24500153000.0 -0.7350524588 0.6685750556
24550152700.0 -0.7240341732 0.6782194641
24600152400.0 -0.7121867625 0.6875923653
24650152100.0 -0.7008847208 0.6955242741
