!Created with skrf (http://scikit-rf.org).
# Hz S RI R 50.0 
!freq ReS11 ImS11
300000.0 -0.9749355269 -0.1211103127
50299700.0 -0.9998733882 0.0149774393
100299400.0 -0.9978154375 0.0278495901
150299100.0 -1.002647637 0.0446952296
200298800.0 -0.9994469566 0.0582512004
250298500.0 -0.9972777808 0.0716443215
300298200.0 -0.9859349572 0.0874931446
350297900.0 -0.9939282528 0.09851136
400297600.0 -0.9930545932 0.1150701858
450297300.0 -0.9907933274 0.1288442106
500297000.0 -0.9894063728 0.1433908782
550296700.0 -0.9842811677 0.1559451847
600296400.0 -1.017230294 0.1892351066
650296100.0 -0.9820598563 0.1858257478
700295800.0 -0.9792342024 0.1999848302
750295500.0 -0.9762952876 0.213961802
800295200.0 -0.9729023068 0.2277567566
850294900.0 -0.9695560385 0.2417466584
900294600.0 -0.9660092495 0.255737983
950294300.0 -0.9620917619 0.2690857589
1000294000.0 -0.9579973836 0.2833572234
1050293700.0 -0.9535689909 0.2971566483
1100293400.0 -0.9492568213 0.3116462578
1150293100.0 -0.9455025241 0.3233984707
1200292800.0 -0.9402178627 0.3376994005
1250292500.0 -0.9346710919 0.351327079
1300292200.0 -0.9291321933 0.3643292937
1350291900.0 -0.9233981262 0.378524399
1400291600.0 -0.9180400772 0.3915489791
1450291300.0 -0.9124472536 0.4039445535
1500291000.0 -0.9061778173 0.4173248259
1550290700.0 -0.8998373886 0.4306445307
1600290400.0 -0.8935812208 0.4436042046
1650290100.0 -0.8867302967 0.455660782
1700289800.0 -0.8799806633 0.4691185176
1750289500.0 -0.8729258904 0.4815163439
1800289200.0 -0.8653945494 0.4944479726
1850288900.0 -0.85862336 0.5057121759
1900288600.0 -0.8511514354 0.5186832347
1950288300.0 -0.842811726 0.5313422728
2000288000.0 -0.8355438005 0.5428058531
2050287700.0 -0.8270217162 0.5552045622
2100287400.0 -0.8193493742 0.5665114784
2150287100.0 -0.8107798615 0.57847756
2200286800.0 -0.8030433392 0.5890297762
2250286500.0 -0.7940841097 0.6013797617
2300286200.0 -0.7853288108 0.6128415958
2350285900.0 -0.7768152655 0.6235052143
2400285600.0 -0.7678559144 0.6343483749
2450285300.0 -0.759198915 0.6451675873
2500285000.0 -0.749177581 0.6565745905
2550284700.0 -0.7400631119 0.6670565938
2600284400.0 -0.7308461179 0.6768792845
2650284100.0 -0.7224560598 0.6871738574
2700283800.0 -0.7118438436 0.6974544085
2750283500.0 -0.7012143336 0.7081005966
2800283200.0 -0.6917706214 0.7182361741
2850282900.0 -0.6809240873 0.7280893554
2900282600.0 -0.6704180555 0.7376858345
2950282300.0 -0.6603926186 0.7472661517
3000282000.0 -0.6495945653 0.7567395869
3050281700.0 -0.6384710322 0.7658466452
3100281400.0 -0.626898377 0.7749797889
3150281100.0 -0.6154997264 0.7840493333
3200280800.0 -0.6039388295 0.7923940792
3250280500.0 -0.593007543 0.8001978156
3300280200.0 -0.5814896951 0.8084961605
3350279900.0 -0.5693357667 0.8165795308
3400279600.0 -0.556772457 0.8245199157
3450279300.0 -0.5456205352 0.8316716112
3500279000.0 -0.5340070101 0.8384209686
3550278700.0 -0.5217707592 0.8457398096
3600278400.0 -0.5100045507 0.8522964065
3650278100.0 -0.4967616639 0.8600674864
3700277800.0 -0.4847275628 0.8666573931
3750277500.0 -0.4721692941 0.8733326083
3800277200.0 -0.4598220584 0.8798722916
3850276900.0 -0.4478984418 0.8855523383
3900276600.0 -0.4371040404 0.8913669943
3950276300.0 -0.424769916 0.8971766244
4000276000.0 -0.4132562136 0.9031847004
4050275700.0 -0.4002953326 0.9091093906
4100275400.0 -0.3893150317 0.9145059227
4150275100.0 -0.3760453427 0.9205094473
4200274800.0 -0.3626001984 0.9258755927
4250274500.0 -0.3501772914 0.9314971694
4300274200.0 -0.336852555 0.9367533199
4350273900.0 -0.3226546183 0.9420811965
4400273600.0 -0.3078201475 0.9472045722
4450273300.0 -0.2928455212 0.9521566366
4500273000.0 -0.2796579296 0.9564563591
4550272700.0 -0.2659326073 0.9605007833
4600272400.0 -0.2509963258 0.9647630072
4650272100.0 -0.2396171714 0.9677354877
4700271800.0 -0.2267818121 0.9711788291
4750271500.0 -0.2150586816 0.9739936971
4800271200.0 -0.2028566679 0.9767779013
4850270900.0 -0.1889681747 0.9796793082
4900270600.0 -0.1752183816 0.9819806403
4950270300.0 -0.1606395889 0.9847055879
5000270000.0 -0.1460090636 0.9866653282
5050269700.0 -0.1327139589 0.9881949709
5100269400.0 -0.1184859903 0.9899380345
5150269100.0 -0.1046718843 0.9918033135
5200268800.0 -0.0912143097 0.9927409227
5250268500.0 -0.0781204217 0.9938189845
5300268200.0 -0.0645027463 0.9944716521
5350267900.0 -0.0517338675 0.9952968128
5400267600.0 -0.0356175857 0.9964162681
5450267300.0 -0.0223573406 0.9965598216
5500267000.0 -0.0070362924 0.9970314933
5550266700.0 0.007808507 0.9972547953
5600266400.0 0.0239025665 0.9971513762
5650266100.0 0.040229687 0.9966564566
5700265800.0 0.0547044322 0.9960526296
5750265500.0 0.0696206331 0.995003854
5800265200.0 0.0832092898 0.9940973628
5850264900.0 0.0963283669 0.9933647885
5900264600.0 0.1132023805 0.9915569127
5950264300.0 0.1245318128 0.9894947329
6000264000.0 0.138015825 0.9880111902
6050263700.0 0.1497049012 0.9867103179
6100263400.0 0.1622465677 0.9848582512
6150263100.0 0.1765870774 0.9827455203
6200262800.0 0.1863257078 0.9810671654
6250262500.0 0.1990666825 0.9785821672
6300262200.0 0.2113192637 0.9761447906
6350261900.0 0.2240103666 0.9734109442
6400261600.0 0.2379864259 0.9700880855
6450261300.0 0.2490696783 0.9675118631
6500261000.0 0.2622536133 0.9638968951
6550260700.0 0.2755112709 0.9599814225
6600260400.0 0.2890051222 0.9559335067
6650260100.0 0.3030046481 0.9517786167
6700259800.0 0.3153154826 0.9472720818
6750259500.0 0.328962467 0.9422999143
6800259200.0 0.342498863 0.9376723885
6850258900.0 0.3548876074 0.9320320668
6900258600.0 0.3672382103 0.9269479917
6950258300.0 0.3797562472 0.9214853415
7000258000.0 0.3912642088 0.9163119933
7050257700.0 0.4033776018 0.9105918689
7100257400.0 0.4167676624 0.903983409
7150257100.0 0.4275431043 0.8986583225
7200256800.0 0.4406005726 0.8920327596
7250256500.0 0.4531154332 0.8853478772
7300256200.0 0.4662426149 0.8787528286
7350255900.0 0.4783567457 0.87166928
7400255600.0 0.4925707297 0.8640537484
7450255300.0 0.5086647644 0.8548686378
7500255000.0 0.5205760582 0.8474426279
7550254700.0 0.5353129591 0.8383704696
7600254400.0 0.5473739002 0.8300175035
7650254100.0 0.5589795823 0.8222472756
7700253800.0 0.5706063749 0.8142604544
7750253500.0 0.5816086017 0.8065358798
7800253200.0 0.5924192863 0.7987710582
7850252900.0 0.6020192818 0.7914208374
7900252600.0 0.6135822669 0.7828671533
7950252300.0 0.622160565 0.7763043866
8000252000.0 0.6319385347 0.7688217818
8050251700.0 0.6423222055 0.7607880623
8100251400.0 0.6521998139 0.7526964966
8150251100.0 0.662487754 0.7441623324
8200250800.0 0.671996585 0.7360192127
8250250500.0 0.6805241266 0.7282171601
8300250200.0 0.6894514874 0.7198561488
8350249900.0 0.6991714864 0.7109320862
8400249600.0 0.7071062554 0.7030575561
8450249300.0 0.7159240467 0.6940489851
8500249000.0 0.7246025299 0.6854291944
8550248700.0 0.7326228716 0.6763365267
8600248400.0 0.7409558037 0.6668839855
8650248100.0 0.748749161 0.6574383499
8700247800.0 0.7580708165 0.646378829
8750247500.0 0.7664115013 0.6360665185
8800247200.0 0.7741820123 0.6259452945
8850246900.0 0.7830200823 0.6145502744
8900246600.0 0.7914880471 0.6032038044
8950246300.0 0.8005172725 0.5906097217
9000246000.0 0.8092998429 0.5785287416
9050245700.0 0.8176112292 0.5661635934
9100245400.0 0.8262344174 0.5539385682
9150245100.0 0.8353361666 0.5409405452
9200244800.0 0.8443074701 0.5266211392
9250244500.0 0.8535595753 0.5118801363
9300244200.0 0.8617225104 0.4982437229
9350243900.0 0.8693282587 0.4849205306
9400243600.0 0.8757908545 0.4731963514
9450243300.0 0.8813829307 0.4624579202
9500243000.0 0.8877138747 0.4509093185
9550242700.0 0.8918459029 0.4432588487
9600242400.0 0.8958875619 0.4356339656
9650242100.0 0.9000027444 0.4290197022
9700241800.0 0.9052057408 0.4201333029
9750241500.0 0.9092441696 0.4128610515
9800241200.0 0.9142329745 0.4033498268
9850240900.0 0.9199781788 0.3914332305
9900240600.0 0.9260339378 0.3795055209
9950240300.0 0.9331034639 0.3628215993
10000240000.0 0.9380238443 0.3509186258
10050239700.0 0.9441528739 0.3346474721
10100239400.0 0.9493221343 0.3187548092
10150239100.0 0.9538320462 0.3030555568
10200238800.0 0.9583587955 0.2876919586
10250238500.0 0.9615243975 0.274046851
10300238200.0 0.964681032 0.2602114306
10350237900.0 0.9674040515 0.2468483913
10400237600.0 0.9700986533 0.2333262958
10450237300.0 0.9727092751 0.2197579295
10500237000.0 0.9751364161 0.2073826901
10550236700.0 0.9777282341 0.1923509829
10600236400.0 0.9793002987 0.179169878
10650236100.0 0.98164707 0.1645548695
10700235800.0 0.9839737637 0.1526782647
10750235500.0 0.9859090997 0.1390519903
10800235200.0 0.9878067065 0.1244705849
10850234900.0 0.9899853782 0.1093511394
10900234600.0 0.9922197137 0.0944678434
10950234300.0 0.9936875452 0.0810879465
11000234000.0 0.9955421839 0.0657195829
11050233700.0 0.9973381656 0.048966595
11100233400.0 0.9988190184 0.0310221485
11150233100.0 0.9999304631 0.0146225914
11200232800.0 1.000617038 -0.0012190896
11250232500.0 1.002103044 -0.0186770144
11300232200.0 1.002425284 -0.0377521086
11350231900.0 1.001962183 -0.0534623479
11400231600.0 1.001828174 -0.0698489329
11450231300.0 1.001185854 -0.0846572393
11500231000.0 0.999548372 -0.1005948246
11550230700.0 0.9980074969 -0.1146217837
11600230400.0 0.9966724763 -0.1268298351
11650230100.0 0.9944271492 -0.1388792621
11700229800.0 0.9925817387 -0.153904798
11750229500.0 0.9903554077 -0.1683984975
11800229200.0 0.9875292071 -0.181427746
11850228900.0 0.9836591738 -0.1932598452
11900228600.0 0.9798863802 -0.2027866141
11950228300.0 0.9769387328 -0.2127259018
12000228000.0 0.9741852543 -0.221166565
12050227700.0 0.9700590036 -0.23479212
12100227400.0 0.967096476 -0.2450504634
12150227100.0 0.9610496923 -0.262868712
12200226800.0 0.9582001171 -0.27260633
12250226500.0 0.9542955196 -0.2856894087
12300226200.0 0.9497747686 -0.2984442498
12350225900.0 0.9447245521 -0.3108316486
12400225600.0 0.9404011742 -0.3241198167
12450225300.0 0.9356720869 -0.3372329941
12500225000.0 0.9307119595 -0.3516164929
12550224700.0 0.9249902279 -0.3653789214
12600224400.0 0.9200951851 -0.3780968047
12650224100.0 0.9142596873 -0.3923982868
12700223800.0 0.9088192139 -0.4052310073
12750223500.0 0.9033819305 -0.4184789164
12800223200.0 0.8979831741 -0.4313313644
12850222900.0 0.8928098727 -0.4431825007
12900222600.0 0.8873274287 -0.4550327142
12950222300.0 0.8809615517 -0.4681051077
13000222000.0 0.8754139025 -0.4787637665
13050221700.0 0.8684825126 -0.4921884727
13100221400.0 0.8616303683 -0.503805965
13150221100.0 0.8551384399 -0.5164250673
13200220800.0 0.8479137048 -0.5275775143
13250220500.0 0.8403226619 -0.5400824011
13300220200.0 0.8329012099 -0.5509700752
13350219900.0 0.8247966844 -0.5630411673
13400219600.0 0.8163812267 -0.5748621927
13450219300.0 0.8070199207 -0.5882231426
13500219000.0 0.7972315206 -0.6013542753
13550218700.0 0.7878721449 -0.613494471
13600218400.0 0.7774228791 -0.6255888761
13650218100.0 0.7679620251 -0.6361894619
13700217800.0 0.7574067721 -0.64862099
13750217500.0 0.7481016157 -0.6591333385
13800217200.0 0.7365872189 -0.6703324279
13850216900.0 0.7254143034 -0.6812216284
13900216600.0 0.7162372178 -0.6902214056
13950216300.0 0.7059006082 -0.7003981365
14000216000.0 0.6956145305 -0.7089749778
14050215700.0 0.6865832406 -0.7173179616
14100215400.0 0.6766802524 -0.7267011385
14150215100.0 0.667117862 -0.7351614543
14200214800.0 0.6578513974 -0.7439186621
14250214500.0 0.6476642486 -0.7535786012
14300214200.0 0.6370754365 -0.7629934739
14350213900.0 0.6260645732 -0.7723213945
14400213600.0 0.614192989 -0.7822943314
14450213300.0 0.6010989778 -0.7923008389
14500213000.0 0.5882365139 -0.8025313307
14550212700.0 0.5759806157 -0.8119456156
14600212400.0 0.5634020205 -0.8207804289
14650212100.0 0.5507590519 -0.8296970403
14700211800.0 0.5368321416 -0.8391067133
14750211500.0 0.5254714877 -0.8473371192
14800211200.0 0.5119902312 -0.8554032364
14850210900.0 0.49997606 -0.8630732903
14900210600.0 0.4865530834 -0.8710860547
14950210300.0 0.4732497464 -0.878731634
15000210000.0 0.4607584786 -0.8855247616
15050209700.0 0.448385236 -0.8912135159
15100209400.0 0.4355954651 -0.8975651365
15150209100.0 0.4231536434 -0.9030633071
15200208800.0 0.4103798489 -0.9076713279
15250208500.0 0.3995770925 -0.912997224
15300208200.0 0.3873951829 -0.9170990113
15350207900.0 0.3741400177 -0.9223828016
15400207600.0 0.3592069054 -0.9281750289
15450207300.0 0.3445944569 -0.9327751221
15500207000.0 0.3297461266 -0.9377207502
15550206700.0 0.3157321498 -0.942102859
15600206400.0 0.299830206 -0.9469372886
15650206100.0 0.2837512407 -0.9513764461
15700205800.0 0.2699107632 -0.9545292183
15750205500.0 0.2564245945 -0.9579601931
15800205200.0 0.2422564233 -0.9611884759
15850204900.0 0.228014629 -0.9648047095
15900204600.0 0.2128612164 -0.9684247622
15950204300.0 0.1987711611 -0.9714316041
16000204000.0 0.1842273252 -0.9745970596
16050203700.0 0.1690858372 -0.9777601667
16100203400.0 0.1545079712 -0.9794172739
16150203100.0 0.139442925 -0.9822175496
16200202800.0 0.1251538533 -0.9841586376
16250202500.0 0.1103205608 -0.9861749764
16300202200.0 0.094565593 -0.9874850437
16350201900.0 0.0798142666 -0.9890927224
16400201600.0 0.0652582032 -0.9901069074
16450201300.0 0.0496541445 -0.9912192687
16500201000.0 0.0325705208 -0.9918776258
16550200700.0 0.0165431782 -0.9926302093
16600200400.0 0.0006591737 -0.9927957038
16650200100.0 -0.0152227472 -0.992537092
16700199800.0 -0.0320324124 -0.992264793
16750199500.0 -0.0504111616 -0.9917841192
16800199200.0 -0.066398883 -0.9906487204
16850198900.0 -0.0824984539 -0.9892676465
16900198600.0 -0.0960729835 -0.9886063165
16950198300.0 -0.1099160449 -0.9879190448
17000198000.0 -0.1231847066 -0.9859956858
17050197700.0 -0.1357254344 -0.9842987292
17100197400.0 -0.1489820737 -0.9823854019
17150197100.0 -0.1610977685 -0.9803014043
17200196800.0 -0.1743018834 -0.9778384222
17250196500.0 -0.1872668115 -0.9753444108
17300196200.0 -0.1993384514 -0.9734095466
17350195900.0 -0.2108765478 -0.9709162381
17400195600.0 -0.2229884877 -0.9681553355
17450195300.0 -0.2358910328 -0.9653758712
17500195000.0 -0.2492644894 -0.962263684
17550194700.0 -0.2630749426 -0.9585075461
17600194400.0 -0.2766847516 -0.9546669267
17650194100.0 -0.2902933643 -0.9503705229
17700193800.0 -0.3034715983 -0.9459810508
17750193500.0 -0.3176213836 -0.9416034331
17800193200.0 -0.3317627591 -0.9367006724
17850192900.0 -0.3466480872 -0.9309395167
17900192600.0 -0.3616439436 -0.9250512881
17950192300.0 -0.3772642315 -0.9178710296
18000192000.0 -0.3919381965 -0.9106266104
18050191700.0 -0.4059629265 -0.9028194434
18100191400.0 -0.4199574226 -0.8952659898
18150191100.0 -0.434713857 -0.8871471747
18200190800.0 -0.4516657506 -0.8779969553
18250190500.0 -0.4684607951 -0.868495668
18300190200.0 -0.4841265152 -0.8598963913
18350189900.0 -0.4993111703 -0.8512759552
18400189600.0 -0.5137646033 -0.8427694383
18450189300.0 -0.5270957646 -0.835062474
18500189000.0 -0.5409217677 -0.8271706756
18550188700.0 -0.5534359121 -0.8189930127
18600188400.0 -0.5656880768 -0.8127790411
18650188100.0 -0.5764889892 -0.8057847613
18700187800.0 -0.5876393307 -0.7992250684
18750187500.0 -0.5984664907 -0.7923268767
18800187200.0 -0.6092598559 -0.7853217343
18850186900.0 -0.6193642531 -0.7785749471
18900186600.0 -0.6296824955 -0.7712232234
18950186300.0 -0.6399365977 -0.7635825968
19000186000.0 -0.6474567893 -0.7575643783
19050185700.0 -0.6566430961 -0.7502369585
19100185400.0 -0.6664712791 -0.7421736969
19150185100.0 -0.6767653115 -0.7335248852
19200184800.0 -0.6858922878 -0.7251309925
19250184500.0 -0.6961306435 -0.7161282561
19300184200.0 -0.7078251236 -0.7069027856
19350183900.0 -0.7185711378 -0.6962770632
19400183600.0 -0.7282280422 -0.6873303656
19450183300.0 -0.7374981216 -0.676556737
19500183000.0 -0.7451913982 -0.666981208
19550182700.0 -0.7549760539 -0.6559077591
19600182400.0 -0.7652601871 -0.6443655603
19650182100.0 -0.7757376182 -0.6320437856
19700181800.0 -0.7865161372 -0.6187281491
19750181500.0 -0.7967838781 -0.6046268503
19800181200.0 -0.8070372156 -0.5897440253
19850180900.0 -0.8166682527 -0.5743425941
19900180600.0 -0.8241942555 -0.5602135634
19950180300.0 -0.8331986064 -0.5436052974
20000180000.0 -0.8231034981 -0.5461768485
20050179700.0 -0.8315677007 -0.534189671
20100179400.0 -0.8402808758 -0.5207979151
20150179100.0 -0.8470075979 -0.5091678039
20200178800.0 -0.8558463291 -0.4978123612
20250178500.0 -0.8656750979 -0.4851198938
20300178200.0 -0.8754021367 -0.471545973
20350177900.0 -0.8847877286 -0.4572353875
20400177600.0 -0.8936642728 -0.4430379879
20450177300.0 -0.9022465546 -0.428756301
20500177000.0 -0.9101619711 -0.4148122739
20550176700.0 -0.9180333158 -0.4013926021
20600176400.0 -0.9252751599 -0.3884186212
20650176100.0 -0.9316387078 -0.376203074
20700175800.0 -0.9381449716 -0.364089839
20750175500.0 -0.9450777873 -0.3524134122
20800175200.0 -0.949065818 -0.341648756
20850174900.0 -0.9540677236 -0.3306861833
20900174600.0 -0.9586191556 -0.3206281957
20950174300.0 -0.962263277 -0.3092060119
21000174000.0 -0.9643436887 -0.2981587195
21050173700.0 -0.9662712062 -0.2883832735
21100173400.0 -0.9701519589 -0.2774582824
21150173100.0 -0.9738105633 -0.2652688809
21200172800.0 -0.9780624284 -0.2526436036
21250172500.0 -0.9812586192 -0.2388480249
21300172200.0 -0.9843255219 -0.2247394658
21350171900.0 -0.9865108674 -0.2101777481
21400171600.0 -0.9884632924 -0.1961768092
21450171300.0 -0.9890786581 -0.1819552566
21500171000.0 -0.9897459277 -0.1665987864
21550170700.0 -0.9901190686 -0.1514104982
21600170400.0 -0.9913923989 -0.1350853909
21650170100.0 -0.9899732713 -0.1211050913
21700169800.0 -0.9894413223 -0.1063186467
21750169500.0 -0.9902750891 -0.0889165447
21800169200.0 -0.9904632686 -0.0720164168
21850168900.0 -0.9899047907 -0.0563036358
21900168600.0 -0.9886929991 -0.0399386974
21950168300.0 -0.9889030479 -0.0240100859
22000168000.0 -0.9887827983 -0.0095412493
22050167700.0 -0.9889007405 0.0052823799
22100167400.0 -0.989425654 0.0211038099
22150167100.0 -0.9905713963 0.0368642078
22200166800.0 -0.9912376645 0.0541665255
22250166500.0 -0.9908818075 0.0707860875
22300166200.0 -0.9906121008 0.0867051631
22350165900.0 -0.9889945475 0.1037404684
22400165600.0 -0.9879800112 0.1183741753
22450165300.0 -0.9851664966 0.135071721
22500165000.0 -0.9837264985 0.1489915401
22550164700.0 -0.9829559156 0.1648569247
22600164400.0 -0.9810212355 0.1812280012
22650164100.0 -0.977508187 0.1954213225
22700163800.0 -0.9740284696 0.2127151474
22750163500.0 -0.971839094 0.2270867787
22800163200.0 -0.9685474645 0.2399983199
22850162900.0 -0.9660035691 0.2538575195
22900162600.0 -0.9643959866 0.2677323663
22950162300.0 -0.9625217944 0.2811552219
23000162000.0 -0.9609346425 0.2937864467
23050161700.0 -0.9580057262 0.3072682238
23100161400.0 -0.9553623266 0.3204396243
23150161100.0 -0.9525775786 0.333482111
23200160800.0 -0.94980442 0.3466311052
23250160500.0 -0.9462058524 0.3579899175
23300160200.0 -0.9446470983 0.371297876
23350159900.0 -0.9403397433 0.3849023948
23400159600.0 -0.934737693 0.3984320505
23450159300.0 -0.9294849638 0.4124483435
23500159000.0 -0.9250310522 0.4254355662
23550158700.0 -0.9202669455 0.4399991626
23600158400.0 -0.9142090212 0.453884408
23650158100.0 -0.9070853984 0.4683440307
23700157800.0 -0.8987099614 0.4822097222
23750157500.0 -0.8893163151 0.4966880505
23800157200.0 -0.8801888018 0.5102918107
23850156900.0 -0.8697168697 0.5228233824
23900156600.0 -0.8601140747 0.535740488
23950156300.0 -0.8500955234 0.5490388231
24000156000.0 -0.8412094779 0.5607393927
24050155700.0 -0.8308649084 0.5730099992
24100155400.0 -0.8205828329 0.5850750684
24150155100.0 -0.8091461338 0.5973731458
24200154800.0 -0.7980875888 0.6092401878
24250154500.0 -0.7866924244 0.6217043264
24300154200.0 -0.775750317 0.6334505339
24350153900.0 -0.7635714014 0.644613857
24400153600.0 -0.7510113688 0.6551269038
24450153300.0 -0.7389717982 0.6654526591
24500153000.0 -0.7267798528 0.6752746304
24550152700.0 -0.7163916679 0.6854344063
24600152400.0 -0.7037593202 0.6950483042
