!Created with skrf (http://scikit-rf.org).
# Hz S RI R 50.0 
!freq ReS11 ImS11
300000.0 -0.9915836489 -0.0652148621
50299700.0 -0.9996849522 0.0164739346
100299400.0 -0.9977462073 0.0290275429
150299100.0 -1.002511299 0.046192611
200298800.0 -0.9992626698 0.0594532404
250298500.0 -0.9969658661 0.0727768023
300298200.0 -0.9856069227 0.0883743376
350297900.0 -0.9934782451 0.0993932548
400297600.0 -0.9924887346 0.1160468144
450297300.0 -0.9902835529 0.1299931948
500297000.0 -0.9887889818 0.1443783798
550296700.0 -0.9835502722 0.1567911689
600296400.0 -1.016394456 0.1902521614
650296100.0 -0.9811338975 0.1866217289
700295800.0 -0.9782269417 0.2009713361
750295500.0 -0.9756606991 0.215026749
800295200.0 -0.9719014988 0.22917295
850294900.0 -0.9686659099 0.2426996425
900294600.0 -0.9648495867 0.2566859067
950294300.0 -0.96128157 0.2701652487
1000294000.0 -0.9570964081 0.284139944
1050293700.0 -0.9525097837 0.2979726472
1100293400.0 -0.9482834573 0.3122086347
1150293100.0 -0.9445670318 0.3242438188
1200292800.0 -0.9392471325 0.3384431521
1250292500.0 -0.9337406842 0.3519450541
1300292200.0 -0.9283017508 0.3650328931
1350291900.0 -0.9226754831 0.379005403
1400291600.0 -0.9173278498 0.3922545134
1450291300.0 -0.9118166286 0.404310765
1500291000.0 -0.9055521667 0.4177116867
1550290700.0 -0.8992064091 0.4310097958
1600290400.0 -0.8928969883 0.4438630076
1650290100.0 -0.8861860612 0.4560657175
1700289800.0 -0.8793783701 0.4696068434
1750289500.0 -0.8723164916 0.4815366996
1800289200.0 -0.8651368819 0.4944861821
1850288900.0 -0.8583999207 0.5059032144
1900288600.0 -0.850904406 0.5188965318
1950288300.0 -0.8427598976 0.5312534507
2000288000.0 -0.8353484877 0.5429202333
2050287700.0 -0.8269062532 0.5551514985
2100287400.0 -0.8188187491 0.5668627741
2150287100.0 -0.8102955414 0.5788991257
2200286800.0 -0.8026391867 0.5892740418
2250286500.0 -0.7937818881 0.6014515752
2300286200.0 -0.7848872393 0.6128595119
2350285900.0 -0.776199335 0.6238794811
2400285600.0 -0.7670238898 0.6349910394
2450285300.0 -0.7582035027 0.6454206412
2500285000.0 -0.7486458673 0.6565426653
2550284700.0 -0.7393978058 0.6670777354
2600284400.0 -0.7300985587 0.6770506742
2650284100.0 -0.7209867215 0.6876295053
2700283800.0 -0.710547261 0.6978078142
2750283500.0 -0.7001831721 0.7085528054
2800283200.0 -0.6904269993 0.7179542673
2850282900.0 -0.6802440494 0.728009263
2900282600.0 -0.6698582978 0.7376167003
2950282300.0 -0.6598981042 0.7468177272
3000282000.0 -0.6490747978 0.7563086176
3050281700.0 -0.6380823503 0.7655154146
3100281400.0 -0.6266420355 0.7745449975
3150281100.0 -0.6150584821 0.7838675562
3200280800.0 -0.6032928654 0.7925229787
3250280500.0 -0.5926201529 0.8003012125
3300280200.0 -0.5815294482 0.808385438
3350279900.0 -0.5700692185 0.8158133641
3400279600.0 -0.5579629725 0.8237045095
3450279300.0 -0.5468942815 0.8310501138
3500279000.0 -0.534653713 0.838118875
3550278700.0 -0.5224576338 0.8453683764
3600278400.0 -0.5105880003 0.8523626833
3650278100.0 -0.497380164 0.8601559011
3700277800.0 -0.4852838879 0.8664979344
3750277500.0 -0.4732608058 0.8731539012
3800277200.0 -0.4606779274 0.8798574961
3850276900.0 -0.4483946457 0.8859397879
3900276600.0 -0.4371906666 0.8917051372
3950276300.0 -0.4242858482 0.8978848942
4000276000.0 -0.4123115507 0.9038724185
4050275700.0 -0.3990026711 0.909986958
4100275400.0 -0.3876122068 0.9151514134
4150275100.0 -0.3747895077 0.9210696356
4200274800.0 -0.3615534215 0.9262395762
4250274500.0 -0.3492656245 0.9314264125
4300274200.0 -0.3363259619 0.9369165979
4350273900.0 -0.3226037826 0.941616757
4400273600.0 -0.3082976747 0.9465750411
4450273300.0 -0.2931975714 0.9516623608
4500273000.0 -0.2798656019 0.9560179073
4550272700.0 -0.2661743168 0.9600378823
4600272400.0 -0.2505724432 0.964342125
4650272100.0 -0.2386161396 0.9675066358
4700271800.0 -0.2253015627 0.9709157415
4750271500.0 -0.2130392718 0.9737746364
4800271200.0 -0.2002342184 0.9766604157
4850270900.0 -0.1865409929 0.979360994
4900270600.0 -0.172859298 0.9817953842
4950270300.0 -0.1590593609 0.9841011291
5000270000.0 -0.1447770118 0.9862160221
5050269700.0 -0.1314378352 0.988075256
5100269400.0 -0.1177030529 0.9898828871
5150269100.0 -0.1042784009 0.9913721233
5200268800.0 -0.0909015546 0.9924255927
5250268500.0 -0.0779516275 0.9936706167
5300268200.0 -0.0647382094 0.9945003503
5350267900.0 -0.0525296298 0.9950457246
5400267600.0 -0.0365612088 0.9959882471
5450267300.0 -0.0235472115 0.9964652111
5500267000.0 -0.0087485955 0.9968362139
5550266700.0 0.0054041494 0.9969818496
5600266400.0 0.0205718233 0.9967655401
5650266100.0 0.0368411229 0.9966352413
5700265800.0 0.050840015 0.9956569129
5750265500.0 0.066015315 0.9951098247
5800265200.0 0.0798230451 0.9942671861
5850264900.0 0.0931524071 0.9928525579
5900264600.0 0.10971535 0.9913065184
5950264300.0 0.1221521826 0.9901127328
6000264000.0 0.1360255876 0.9879875693
6050263700.0 0.1488117239 0.986391852
6100263400.0 0.1617394716 0.984426066
6150263100.0 0.1766599121 0.9820536799
6200262800.0 0.1873241677 0.9799486831
6250262500.0 0.1999690133 0.9774672172
6300262200.0 0.2128519001 0.9747647183
6350261900.0 0.2261180827 0.9717408028
6400261600.0 0.2401695529 0.9684236817
6450261300.0 0.2516079844 0.9655673137
6500261000.0 0.2642058431 0.9622206736
6550260700.0 0.2776236023 0.9583548605
6600260400.0 0.2906935856 0.9543036234
6650260100.0 0.3046404309 0.9502369144
6700259800.0 0.316138073 0.9455412795
6750259500.0 0.3303035392 0.9411695593
6800259200.0 0.3431770093 0.9361162494
6850258900.0 0.3555109249 0.9312782623
6900258600.0 0.3680564486 0.9265335434
6950258300.0 0.3802201536 0.9211793753
7000258000.0 0.3921562992 0.9159539794
7050257700.0 0.4045636277 0.9100823569
7100257400.0 0.4174540451 0.9039334101
7150257100.0 0.4278658607 0.8985644735
7200256800.0 0.4407917884 0.8921591527
7250256500.0 0.4520900382 0.8862217329
7300256200.0 0.4652430556 0.8794412335
7350255900.0 0.4773412011 0.8729622854
7400255600.0 0.4894276508 0.8660971221
7450255300.0 0.5045938856 0.8575223372
7500255000.0 0.5157195152 0.8504931253
7550254700.0 0.5293009714 0.8424870713
7600254400.0 0.5415650188 0.8344533124
7650254100.0 0.5533022085 0.8266887516
7700253800.0 0.5651257036 0.8185067908
7750253500.0 0.5765018845 0.8105557887
7800253200.0 0.5874657283 0.802686696
7850252900.0 0.5973273271 0.7957180145
7900252600.0 0.6091062495 0.78693889
7950252300.0 0.6181991017 0.7798231307
8000252000.0 0.628653333 0.7719262955
8050251700.0 0.6393867269 0.7634285452
8100251400.0 0.6494736388 0.755234849
8150251100.0 0.6597428462 0.7458731536
8200250800.0 0.6692810838 0.7380182253
8250250500.0 0.678136832 0.7297610575
8300250200.0 0.6881266068 0.7211532345
8350249900.0 0.6971853416 0.7121900746
8400249600.0 0.7057467629 0.7038731833
8450249300.0 0.7149773925 0.6945240802
8500249000.0 0.7238486725 0.6855715071
8550248700.0 0.7325045707 0.6762845181
8600248400.0 0.7413005104 0.6667245081
8650248100.0 0.748976331 0.6572954134
8700247800.0 0.758396809 0.6462106766
8750247500.0 0.766725571 0.6363049571
8800247200.0 0.7745815105 0.626261155
8850246900.0 0.7830312305 0.6151602793
8900246600.0 0.7917217741 0.6041824177
8950246300.0 0.800646022 0.5916218028
9000246000.0 0.8095842052 0.5798608286
9050245700.0 0.8182210023 0.5675356997
9100245400.0 0.8266306247 0.5550153312
9150245100.0 0.8354479867 0.5421945744
9200244800.0 0.8443130215 0.5284496561
9250244500.0 0.8533486572 0.5140888237
9300244200.0 0.8613996915 0.5004710839
9350243900.0 0.8690162947 0.4870799304
9400243600.0 0.8760943646 0.4740734944
9450243300.0 0.8823705663 0.4618611412
9500243000.0 0.8890471019 0.4487407062
9550242700.0 0.8939071648 0.4390002117
9600242400.0 0.8982501464 0.4302060846
9650242100.0 0.9026323439 0.4221519201
9700241800.0 0.9070085231 0.4131535324
9750241500.0 0.9114032517 0.4044068303
9800241200.0 0.9163936956 0.3944445749
9850240900.0 0.9216288306 0.3829041325
9900240600.0 0.926836639 0.3719645979
9950240300.0 0.9329965016 0.3565834646
10000240000.0 0.9378092161 0.3445442436
10050239700.0 0.9433096747 0.3298543836
10100239400.0 0.9483298825 0.3147541468
10150239100.0 0.9523152656 0.3006934242
10200238800.0 0.9566229961 0.2857449973
10250238500.0 0.9603538994 0.272666119
10300238200.0 0.9637494417 0.2585631219
10350237900.0 0.9666144621 0.2456784379
10400237600.0 0.9693844992 0.2323852837
10450237300.0 0.9722537151 0.2186629105
10500237000.0 0.9744940393 0.206720195
10550236700.0 0.9771415763 0.1928913152
10600236400.0 0.9791413417 0.1797134995
10650236100.0 0.9812810344 0.1652188736
10700235800.0 0.9835022292 0.1528244888
10750235500.0 0.9858965545 0.1397057971
10800235200.0 0.9877997635 0.125971473
10850234900.0 0.9897491193 0.1116197031
10900234600.0 0.9915644682 0.0971751415
10950234300.0 0.9930658922 0.0840375886
11000234000.0 0.994626227 0.0697927253
11050233700.0 0.9962019097 0.0543104497
11100233400.0 0.9975954935 0.0375531919
11150233100.0 0.998702514 0.0215776794
11200232800.0 0.9991556457 0.0067594722
11250232500.0 0.9997669903 -0.0085160801
11300232200.0 1.00046864 -0.0256049287
11350231900.0 1.000521343 -0.0414287817
11400231600.0 1.000114444 -0.0570030315
11450231300.0 0.9990274337 -0.0716844329
11500231000.0 0.998353288 -0.0879189731
11550230700.0 0.9967824612 -0.1012500302
11600230400.0 0.9951781985 -0.1152258927
11650230100.0 0.9931386804 -0.1271158139
11700229800.0 0.9914004376 -0.1419127554
11750229500.0 0.9893868063 -0.1566688065
11800229200.0 0.9869291321 -0.1702539171
11850228900.0 0.9834323494 -0.1839124092
11900228600.0 0.9804299348 -0.1942358012
11950228300.0 0.9773366395 -0.2063748626
12000228000.0 0.9744768065 -0.2160825209
12050227700.0 0.9708520979 -0.2292118739
12100227400.0 0.9677149344 -0.2402760621
12150227100.0 0.9628657527 -0.2575260051
12200226800.0 0.959525783 -0.2689380492
12250226500.0 0.9557067815 -0.2808678288
12300226200.0 0.9517807125 -0.2932455634
12350225900.0 0.947395752 -0.3070420127
12400225600.0 0.9427118269 -0.319665259
12450225300.0 0.9390753278 -0.331503626
12500225000.0 0.9335764202 -0.3464613364
12550224700.0 0.9282009662 -0.3598575372
12600224400.0 0.9237004354 -0.3723576856
12650224100.0 0.9178102438 -0.3864417448
12700223800.0 0.9126166272 -0.3991473469
12750223500.0 0.9073278961 -0.4117858567
12800223200.0 0.9017817038 -0.4242078479
12850222900.0 0.8965668131 -0.4367341742
12900222600.0 0.8905884694 -0.4488711449
12950222300.0 0.8844779681 -0.461269555
13000222000.0 0.8780741069 -0.4732442234
13050221700.0 0.8711337505 -0.4861813279
13100221400.0 0.8643776411 -0.4981009019
13150221100.0 0.8570497052 -0.5105845261
13200220800.0 0.849927841 -0.5224655844
13250220500.0 0.8426958976 -0.5348940342
13300220200.0 0.8352261345 -0.5457227297
13350219900.0 0.8271186029 -0.5582115013
13400219600.0 0.8189196484 -0.5700150913
13450219300.0 0.8095236826 -0.5832074451
13500219000.0 0.7996333743 -0.5967503954
13550218700.0 0.7896579719 -0.6089701481
13600218400.0 0.7803228549 -0.6213105079
13650218100.0 0.7710640146 -0.6323400727
13700217800.0 0.7598476381 -0.6444591306
13750217500.0 0.7496558208 -0.6561544815
13800217200.0 0.7391991448 -0.6683872551
13850216900.0 0.7287905584 -0.6796233243
13900216600.0 0.7185487275 -0.6888614091
13950216300.0 0.7079163591 -0.6989458599
14000216000.0 0.6985413064 -0.7080534575
14050215700.0 0.6889066659 -0.7168162102
14100215400.0 0.6785257021 -0.7260556683
14150215100.0 0.6692575111 -0.7352933743
14200214800.0 0.6600147981 -0.7439336744
14250214500.0 0.6495604267 -0.752996466
14300214200.0 0.6393873179 -0.7622620553
14350213900.0 0.6282406539 -0.7715933904
14400213600.0 0.6172407209 -0.7811607322
14450213300.0 0.6043190585 -0.7909312526
14500213000.0 0.5920454998 -0.8001714233
14550212700.0 0.5799121615 -0.8093588215
14600212400.0 0.5674978752 -0.8180150126
14650212100.0 0.5551972579 -0.8264168536
14700211800.0 0.5413356059 -0.8361061398
14750211500.0 0.5288630971 -0.8441061447
14800211200.0 0.5165326189 -0.852438835
14850210900.0 0.5045963503 -0.8598442177
14900210600.0 0.4914532838 -0.8676907278
14950210300.0 0.4780010637 -0.8753915514
15000210000.0 0.4647717794 -0.8822437691
15050209700.0 0.4523062203 -0.8891024584
15100209400.0 0.4393652219 -0.8946854401
15150209100.0 0.4268006852 -0.9006333969
15200208800.0 0.4138573058 -0.9066112969
15250208500.0 0.4020456617 -0.9116402463
15300208200.0 0.3884687256 -0.9169538864
15350207900.0 0.3756678001 -0.9220690774
15400207600.0 0.3604002677 -0.927748863
15450207300.0 0.345504843 -0.9325825293
15500207000.0 0.3319095598 -0.9372230439
15550206700.0 0.317129351 -0.9417282856
15600206400.0 0.3019591218 -0.9463853095
15650206100.0 0.2867379871 -0.9511450508
15700205800.0 0.2727849693 -0.9547860201
15750205500.0 0.2585246387 -0.9584191396
15800205200.0 0.2443672167 -0.9620694623
15850204900.0 0.2302941348 -0.9654274176
15900204600.0 0.2153836356 -0.9690389556
15950204300.0 0.2016938824 -0.9720801995
16000204000.0 0.1875249997 -0.9747060358
16050203700.0 0.1726970267 -0.9781215939
16100203400.0 0.1589732274 -0.9800132086
16150203100.0 0.1443993284 -0.9825381216
16200202800.0 0.1301006914 -0.9842024023
16250202500.0 0.1156525525 -0.9864216802
16300202200.0 0.1008277976 -0.9877396571
16350201900.0 0.0858794309 -0.9894026035
16400201600.0 0.0712787715 -0.9904030029
16450201300.0 0.0562758419 -0.9913679217
16500201000.0 0.0400952078 -0.9924395498
16550200700.0 0.0245561412 -0.9929943648
16600200400.0 0.0087563986 -0.9932458192
16650200100.0 -0.0072439558 -0.9932245966
16700199800.0 -0.0231705175 -0.9934842766
16750199500.0 -0.0416654864 -0.9926884688
16800199200.0 -0.0575401413 -0.9913506466
16850198900.0 -0.0730688027 -0.990979526
16900198600.0 -0.0869017974 -0.9889228504
16950198300.0 -0.1008667124 -0.9889227281
17000198000.0 -0.1147859205 -0.9869008065
17050197700.0 -0.1285703465 -0.9856205635
17100197400.0 -0.1410965839 -0.9832368586
17150197100.0 -0.1546993591 -0.9812429843
17200196800.0 -0.1678069372 -0.9789825933
17250196500.0 -0.1816133701 -0.9765033861
17300196200.0 -0.1942852834 -0.974114392
17350195900.0 -0.2067683799 -0.9715670429
17400195600.0 -0.2194072622 -0.9689436397
17450195300.0 -0.2326860728 -0.965996655
17500195000.0 -0.2459345719 -0.9628010861
17550194700.0 -0.2599697358 -0.959105611
17600194400.0 -0.2742252608 -0.9550295435
17650194100.0 -0.2874903146 -0.9511161767
17700193800.0 -0.3005214015 -0.9466669264
17750193500.0 -0.3148556765 -0.9425032504
17800193200.0 -0.3286314065 -0.937663034
17850192900.0 -0.3429720641 -0.9326472266
17900192600.0 -0.3580210418 -0.9266572335
17950192300.0 -0.3732159817 -0.9199072442
18000192000.0 -0.3876550576 -0.9133946534
18050191700.0 -0.4016218401 -0.9057794613
18100191400.0 -0.4156681709 -0.8987253564
18150191100.0 -0.4299934419 -0.8911378791
18200190800.0 -0.4460001053 -0.8827841539
18250190500.0 -0.4621101967 -0.8738281926
18300190200.0 -0.4776788082 -0.8655596801
18350189900.0 -0.4926416278 -0.8575490271
18400189600.0 -0.5069732587 -0.8492288166
18450189300.0 -0.5201909679 -0.8409531092
18500189000.0 -0.5341339722 -0.8334422725
18550188700.0 -0.5465585058 -0.8256350296
18600188400.0 -0.5583697903 -0.8180993175
18650188100.0 -0.5706245909 -0.8108496094
18700187800.0 -0.5819668578 -0.8039155839
18750187500.0 -0.5930475719 -0.7966267181
18800187200.0 -0.6039712569 -0.7888735117
18850186900.0 -0.6147573859 -0.7812886408
18900186600.0 -0.6252345052 -0.7734010766
18950186300.0 -0.6358530047 -0.7649857445
19000186000.0 -0.6444137206 -0.7577211029
19050185700.0 -0.6542029844 -0.7500338166
19100185400.0 -0.6644633755 -0.7413089965
19150185100.0 -0.6745025942 -0.7326190044
19200184800.0 -0.6842291241 -0.7239926839
19250184500.0 -0.6944588822 -0.7137251119
19300184200.0 -0.7056688517 -0.7047904339
19350183900.0 -0.7162400726 -0.6953645549
19400183600.0 -0.7252989478 -0.6846827654
19450183300.0 -0.735247876 -0.6745036363
19500183000.0 -0.7430513907 -0.6645741523
19550182700.0 -0.7527697063 -0.6539646522
19600182400.0 -0.7623275713 -0.6429312872
19650182100.0 -0.7723358264 -0.6312960461
19700181800.0 -0.7827353608 -0.6184195444
19750181500.0 -0.7925409549 -0.6053690812
19800181200.0 -0.8023783931 -0.5917011512
19850180900.0 -0.8118975157 -0.5773654256
19900180600.0 -0.8196462176 -0.5641955968
19950180300.0 -0.8290937294 -0.5484571599
20000180000.0 -0.8268847609 -0.5461230179
20050179700.0 -0.8351958527 -0.5340086275
20100179400.0 -0.843115785 -0.5204642917
20150179100.0 -0.8509554907 -0.507292938
20200178800.0 -0.8591609642 -0.4956399499
20250178500.0 -0.867970862 -0.4822113626
20300178200.0 -0.8771731272 -0.4677632594
20350177900.0 -0.8857205972 -0.4546840754
20400177600.0 -0.8935649043 -0.4399220864
20450177300.0 -0.9014130463 -0.426170611
20500177000.0 -0.9088017753 -0.4124220139
20550176700.0 -0.916501144 -0.3987220685
20600176400.0 -0.9230572749 -0.3855863128
20650176100.0 -0.9290972817 -0.3728636741
20700175800.0 -0.9363284852 -0.3604139482
20750175500.0 -0.9427232289 -0.3486433306
20800175200.0 -0.9471258113 -0.3366975555
20850174900.0 -0.9520084634 -0.3245313799
20900174600.0 -0.9573356384 -0.3124587294
20950174300.0 -0.9602825004 -0.3008768844
21000174000.0 -0.9644707472 -0.288654046
21050173700.0 -0.9675515205 -0.276778161
21100173400.0 -0.9725257473 -0.2642173082
21150173100.0 -0.9757359968 -0.2516241734
21200172800.0 -0.9792072381 -0.2386076744
21250172500.0 -0.9824416515 -0.2241437416
21300172200.0 -0.9853124157 -0.2103622425
21350171900.0 -0.9873179394 -0.1960375128
21400171600.0 -0.9898572885 -0.1815396972
21450171300.0 -0.9905053471 -0.1679107559
21500171000.0 -0.9910249771 -0.1522673722
21550170700.0 -0.9919383598 -0.1378418921
21600170400.0 -0.9921091507 -0.1229058445
21650170100.0 -0.9926661957 -0.106967319
21700169800.0 -0.9902655962 -0.0917673803
21750169500.0 -0.9897930797 -0.0764361626
21800169200.0 -0.9902308623 -0.060607726
21850168900.0 -0.9890344321 -0.0444757397
21900168600.0 -0.9885108297 -0.0294116985
21950168300.0 -0.9874181474 -0.0131338747
22000168000.0 -0.9858208805 0.0016978441
22050167700.0 -0.9855828336 0.0157801266
22100167400.0 -0.9853323412 0.0302152216
22150167100.0 -0.9855427276 0.0457287584
22200166800.0 -0.9858626156 0.0609838714
22250166500.0 -0.9849123384 0.077701311
22300166200.0 -0.983807841 0.0937711565
22350165900.0 -0.9829424328 0.1096826111
22400165600.0 -0.9803435864 0.1249329972
22450165300.0 -0.9787547382 0.1405081934
22500165000.0 -0.9768946939 0.1536259167
22550164700.0 -0.9759552565 0.1682423561
22600164400.0 -0.9736355705 0.1839573088
22650164100.0 -0.9725531698 0.1984561607
22700163800.0 -0.9690153359 0.2136788406
22750163500.0 -0.9668245444 0.2286324174
22800163200.0 -0.9640410984 0.2422124282
22850162900.0 -0.9609702591 0.255441883
22900162600.0 -0.9595138175 0.2687417457
22950162300.0 -0.9574496687 0.2819455835
23000162000.0 -0.9556332604 0.2940731897
23050161700.0 -0.9535114171 0.3071379393
23100161400.0 -0.95133564 0.3198297429
23150161100.0 -0.9481268117 0.3317445239
23200160800.0 -0.9451047976 0.3446243627
23250160500.0 -0.9413512442 0.3564624661
23300160200.0 -0.9380373468 0.3689407672
23350159900.0 -0.9355257508 0.3812265309
23400159600.0 -0.9307751715 0.3945546985
23450159300.0 -0.9263662315 0.4077654213
23500159000.0 -0.9209226375 0.4195748722
23550158700.0 -0.9168174128 0.4332111771
23600158400.0 -0.9112782539 0.4454023604
23650158100.0 -0.9050843826 0.4587997876
23700157800.0 -0.8978388495 0.4723928439
23750157500.0 -0.8900847738 0.4856960424
23800157200.0 -0.8819722508 0.4990262882
23850156900.0 -0.8732433165 0.5116655395
23900156600.0 -0.864162049 0.5234270362
23950156300.0 -0.8555866258 0.536375743
24000156000.0 -0.8465541447 0.5477720644
24050155700.0 -0.8372658574 0.5602522907
24100155400.0 -0.8273512496 0.5719304731
24150155100.0 -0.8176761621 0.584024674
24200154800.0 -0.8073553238 0.5947522429
24250154500.0 -0.7967978693 0.6064871417
24300154200.0 -0.786106712 0.6186712667
24350153900.0 -0.7750573755 0.6296411401
24400153600.0 -0.7634685537 0.6404273056
24450153300.0 -0.7523699011 0.6508909486
24500153000.0 -0.741253526 0.6609599869
24550152700.0 -0.7299930591 0.6715680682
24600152400.0 -0.7185961086 0.681199357
