!Created with skrf (http://scikit-rf.org).
# Hz S RI R 50.0 
!freq ReS11 ImS11
300000.0 -0.9737140594 -0.1204410416
50299700.0 -1.000013777 0.0151341153
100299400.0 -0.9978740724 0.0279972238
150299100.0 -1.00270211 0.0448701413
200298800.0 -0.9996265859 0.0583260468
250298500.0 -0.9974024442 0.071871047
300298200.0 -0.9858670572 0.0875033468
350297900.0 -0.9937905045 0.098535136
400297600.0 -0.9929207451 0.1147581037
450297300.0 -0.9909752778 0.1287998289
500297000.0 -0.9893188092 0.143668387
550296700.0 -0.9844347254 0.1559206972
600296400.0 -1.017274758 0.1893582412
650296100.0 -0.9820588885 0.1857861605
700295800.0 -0.9793035559 0.2001969949
750295500.0 -0.9763209483 0.2140698898
800295200.0 -0.9731486362 0.2281283905
850294900.0 -0.9698425369 0.2418726163
900294600.0 -0.9658545013 0.2557976149
950294300.0 -0.9620627232 0.2694716309
1000294000.0 -0.958271641 0.2836027426
1050293700.0 -0.9535707746 0.297300611
1100293400.0 -0.9492174321 0.3117410316
1150293100.0 -0.9454174975 0.3236373217
1200292800.0 -0.9402899815 0.3378801744
1250292500.0 -0.9346567498 0.3512931038
1300292200.0 -0.9288096297 0.3644648605
1350291900.0 -0.9233831211 0.3786629643
1400291600.0 -0.9181330436 0.3916250669
1450291300.0 -0.9124410465 0.4041137404
1500291000.0 -0.9062424169 0.4173146993
1550290700.0 -0.8997581641 0.430832364
1600290400.0 -0.8933496573 0.4436343489
1650290100.0 -0.8868185196 0.4559083447
1700289800.0 -0.8797458279 0.4693332043
1750289500.0 -0.8727549142 0.4817079075
1800289200.0 -0.8653816111 0.4946405674
1850288900.0 -0.8587274313 0.5058669218
1900288600.0 -0.8507166532 0.518847562
1950288300.0 -0.8427068839 0.5315237161
2000288000.0 -0.8353503731 0.5428585525
2050287700.0 -0.8271602651 0.555196538
2100287400.0 -0.8191973157 0.5666722937
2150287100.0 -0.8108554316 0.5787216645
2200286800.0 -0.8030827171 0.5891784711
2250286500.0 -0.7941196552 0.6013904497
2300286200.0 -0.7850821149 0.6128005796
2350285900.0 -0.7766714177 0.6236120216
2400285600.0 -0.7678781942 0.6346730128
2450285300.0 -0.75901023 0.6449570075
2500285000.0 -0.7490648197 0.6566317751
2550284700.0 -0.7401251369 0.6669628453
2600284400.0 -0.7309405126 0.6769961849
2650284100.0 -0.7221999041 0.6873522028
2700283800.0 -0.7115048472 0.697930435
2750283500.0 -0.7013231363 0.7085014024
2800283200.0 -0.6915411844 0.7184240422
2850282900.0 -0.6811351388 0.7283698062
2900282600.0 -0.6706899661 0.7378779844
2950282300.0 -0.6603593454 0.7472352119
3000282000.0 -0.6497098808 0.7567465289
3050281700.0 -0.6383346219 0.7658613731
3100281400.0 -0.6268447326 0.7750687688
3150281100.0 -0.6153924809 0.7843064419
3200280800.0 -0.6039009034 0.7925846929
3250280500.0 -0.592721358 0.8004258947
3300280200.0 -0.581313747 0.8086650508
3350279900.0 -0.5693841975 0.8165617802
3400279600.0 -0.5571020536 0.8242891128
3450279300.0 -0.5458499244 0.8314811697
3500279000.0 -0.5340659286 0.8383885079
3550278700.0 -0.5216362661 0.845576527
3600278400.0 -0.5098805419 0.8526170391
3650278100.0 -0.4965961836 0.8601340853
3700277800.0 -0.4846844046 0.8665235985
3750277500.0 -0.472134814 0.8733589361
3800277200.0 -0.4598608932 0.8799293972
3850276900.0 -0.447922026 0.8855468424
3900276600.0 -0.4366690381 0.8915689743
3950276300.0 -0.4246416584 0.8972209538
4000276000.0 -0.4127888925 0.9031957811
4050275700.0 -0.4002099783 0.9093597644
4100275400.0 -0.3889799847 0.9144488244
4150275100.0 -0.3758951067 0.9205683863
4200274800.0 -0.3627220042 0.9260762163
4250274500.0 -0.3501388661 0.9314871822
4300274200.0 -0.3371612504 0.9366300219
4350273900.0 -0.3229452205 0.9418225446
4400273600.0 -0.3082407373 0.9473234504
4450273300.0 -0.2932705322 0.95230236
4500273000.0 -0.2798069605 0.9564295513
4550272700.0 -0.2660301995 0.9606809053
4600272400.0 -0.2507019425 0.9648994084
4650272100.0 -0.239363444 0.9679952072
4700271800.0 -0.2263066581 0.971375248
4750271500.0 -0.2145828447 0.9741388936
4800271200.0 -0.20214248 0.9768930076
4850270900.0 -0.1883716518 0.9797851493
4900270600.0 -0.1745051299 0.9820649352
4950270300.0 -0.160044812 0.9848670231
5000270000.0 -0.1454757402 0.9870662243
5050269700.0 -0.1321989818 0.9887784855
5100269400.0 -0.1184586304 0.9897544978
5150269100.0 -0.1046633882 0.9917867034
5200268800.0 -0.0910437271 0.992751082
5250268500.0 -0.0781830737 0.9936350183
5300268200.0 -0.0646461076 0.9945733559
5350267900.0 -0.0520641103 0.9951012535
5400267600.0 -0.0359261119 0.9961756013
5450267300.0 -0.0225347788 0.9968260041
5500267000.0 -0.0073076374 0.9966798918
5550266700.0 0.0076398354 0.9972358996
5600266400.0 0.0233361522 0.9972492176
5650266100.0 0.0399574125 0.9968910931
5700265800.0 0.0541988023 0.9958793873
5750265500.0 0.0693506574 0.9955812416
5800265200.0 0.0830694305 0.9939399942
5850264900.0 0.0960210818 0.9927866917
5900264600.0 0.1127148437 0.9914273677
5950264300.0 0.1242916632 0.989633731
6000264000.0 0.138011565 0.9881279666
6050263700.0 0.1496914754 0.9865149665
6100263400.0 0.1624404002 0.9847443234
6150263100.0 0.1772326498 0.9827000653
6200262800.0 0.1870441983 0.9811899674
6250262500.0 0.1994105257 0.9784497779
6300262200.0 0.2122084356 0.9759353006
6350261900.0 0.2251014651 0.973278425
6400261600.0 0.2388389618 0.9698428123
6450261300.0 0.25020099 0.9674283264
6500261000.0 0.2632066768 0.9635843508
6550260700.0 0.2764447943 0.9597512051
6600260400.0 0.2896441626 0.9558159432
6650260100.0 0.3037328441 0.9513212994
6700259800.0 0.3158598344 0.9471544159
6750259500.0 0.3293416707 0.9421315705
6800259200.0 0.3429133361 0.9370156153
6850258900.0 0.3552053799 0.9317916211
6900258600.0 0.36754877 0.9265699494
6950258300.0 0.379948738 0.9214326174
7000258000.0 0.3917557732 0.9158544619
7050257700.0 0.4039974481 0.9102567366
7100257400.0 0.4170867912 0.9038382391
7150257100.0 0.4275943868 0.8983666359
7200256800.0 0.4404870427 0.8920581812
7250256500.0 0.4530665541 0.8854293862
7300256200.0 0.4655375787 0.8786386904
7350255900.0 0.4786045293 0.8719038002
7400255600.0 0.4920002796 0.8642811736
7450255300.0 0.5078179626 0.8551551664
7500255000.0 0.5203259371 0.8477813752
7550254700.0 0.5340429997 0.8389232492
7600254400.0 0.5465067695 0.8309479658
7650254100.0 0.5581174217 0.8229202993
7700253800.0 0.5701290035 0.8149632406
7750253500.0 0.580925932 0.8071825612
7800253200.0 0.5915899935 0.7993657336
7850252900.0 0.6012606523 0.7923969999
7900252600.0 0.6128988857 0.7836202776
7950252300.0 0.6214390289 0.777224184
8000252000.0 0.6316067355 0.7694594133
8050251700.0 0.6418797497 0.7614819851
8100251400.0 0.6521778099 0.7533620121
8150251100.0 0.6618364087 0.7448631112
8200250800.0 0.6713454365 0.7366361173
8250250500.0 0.6800377178 0.7288157063
8300250200.0 0.6893125381 0.720309991
8350249900.0 0.6989235427 0.7113471013
8400249600.0 0.7064126544 0.7035966745
8450249300.0 0.7155995019 0.6945580613
8500249000.0 0.7240375318 0.6858736498
8550248700.0 0.7324784635 0.6767512721
8600248400.0 0.7409709544 0.66719567
8650248100.0 0.7485033819 0.6576697344
8700247800.0 0.7578232368 0.6466636038
8750247500.0 0.7662284719 0.6364504738
8800247200.0 0.7742565259 0.6262856697
8850246900.0 0.7831150471 0.6148275091
8900246600.0 0.7915362496 0.6036276875
8950246300.0 0.8009830271 0.5907235146
9000246000.0 0.8097679625 0.5783233602
9050245700.0 0.8183142005 0.5658912522
9100245400.0 0.8267994015 0.5536616621
9150245100.0 0.8357899598 0.5405203023
9200244800.0 0.8453879003 0.5255244775
9250244500.0 0.8546785311 0.5104992545
9300244200.0 0.8629008367 0.4966319815
9350243900.0 0.8705775895 0.483334034
9400243600.0 0.8772877277 0.4712124987
9450243300.0 0.883058098 0.4600979609
9500243000.0 0.8891883729 0.4483915822
9550242700.0 0.8932548256 0.4407791611
9600242400.0 0.897118637 0.4332412105
9650242100.0 0.9010537707 0.4265416184
9700241800.0 0.9059288482 0.4179403731
9750241500.0 0.910064841 0.4103572898
9800241200.0 0.9150460307 0.4009497275
9850240900.0 0.9209468562 0.3896857875
9900240600.0 0.9267005569 0.3775397114
9950240300.0 0.9331637624 0.3612256191
10000240000.0 0.938260152 0.3492702856
10050239700.0 0.9440204827 0.333908534
10100239400.0 0.949435799 0.3176289055
10150239100.0 0.9539684642 0.3022692059
10200238800.0 0.9582368025 0.2870174526
10250238500.0 0.9614875317 0.2736669215
10300238200.0 0.9645479254 0.2597975226
10350237900.0 0.9673207232 0.2464456034
10400237600.0 0.9697539614 0.2329147763
10450237300.0 0.9726972613 0.2192590746
10500237000.0 0.9745956463 0.2072528953
10550236700.0 0.9771207633 0.1927468118
10600236400.0 0.9790994333 0.179091124
10650236100.0 0.9812391629 0.1647653692
10700235800.0 0.9834985287 0.1522583052
10750235500.0 0.9857459282 0.1389307157
10800235200.0 0.9876931284 0.1246509586
10850234900.0 0.9896590623 0.1097647589
10900234600.0 0.9920781407 0.0949706987
10950234300.0 0.9934927068 0.081570349
11000234000.0 0.9954080439 0.0661716496
11050233700.0 0.9971878726 0.0497367915
11100233400.0 0.9988188087 0.0317066127
11150233100.0 0.9997007766 0.015428333
11200232800.0 1.000616472 -0.0002726488
11250232500.0 1.00130348 -0.0176450256
11300232200.0 1.002890799 -0.0354031512
11350231900.0 1.001697222 -0.0517731309
11400231600.0 1.001351497 -0.0677141641
11450231300.0 1.00064117 -0.0832116819
11500231000.0 0.9998652228 -0.0989008223
11550230700.0 0.9981268068 -0.1123768217
11600230400.0 0.9967656438 -0.1254868818
11650230100.0 0.9952134133 -0.1368892742
11700229800.0 0.9929786456 -0.1518092689
11750229500.0 0.990241381 -0.1653693391
11800229200.0 0.9876010286 -0.1787449513
11850228900.0 0.9839341371 -0.1913956558
11900228600.0 0.9805472867 -0.2007094227
11950228300.0 0.9773215597 -0.210580457
12000228000.0 0.9743540276 -0.219676175
12050227700.0 0.9706780736 -0.2323448725
12100227400.0 0.9672712055 -0.2437242871
12150227100.0 0.9624788266 -0.2601001508
12200226800.0 0.9586435308 -0.2712423052
12250226500.0 0.953989155 -0.2844906523
12300226200.0 0.9505790468 -0.2964426346
12350225900.0 0.9453855224 -0.3102160672
12400225600.0 0.9408769592 -0.3231105604
12450225300.0 0.936497929 -0.3359215979
12500225000.0 0.9313773764 -0.3502483381
12550224700.0 0.9259363739 -0.3643632981
12600224400.0 0.9210923819 -0.3769005289
12650224100.0 0.915112845 -0.3912386086
12700223800.0 0.9097678347 -0.4040692584
12750223500.0 0.9043657875 -0.4170293136
12800223200.0 0.8992333421 -0.4295558657
12850222900.0 0.893562437 -0.4422538703
12900222600.0 0.8879706708 -0.4537021994
12950222300.0 0.8818945107 -0.4667957681
13000222000.0 0.8758235905 -0.478109319
13050221700.0 0.86938237 -0.490992048
13100221400.0 0.8625314018 -0.503488127
13150221100.0 0.8557211243 -0.5150043421
13200220800.0 0.8483920826 -0.5264255143
13250220500.0 0.8412554054 -0.5389625061
13300220200.0 0.8336347051 -0.5495484134
13350219900.0 0.8256895481 -0.5615005114
13400219600.0 0.8173216799 -0.5736497728
13450219300.0 0.8081657953 -0.5867101203
13500219000.0 0.7980248935 -0.6003152979
13550218700.0 0.7881234857 -0.6124341659
13600218400.0 0.7780196626 -0.624855671
13650218100.0 0.7682719548 -0.6351890256
13700217800.0 0.757812513 -0.6478337205
13750217500.0 0.7480008501 -0.6587358892
13800217200.0 0.7369583551 -0.6696443297
13850216900.0 0.7263346231 -0.6810565122
13900216600.0 0.716047019 -0.6899795022
13950216300.0 0.7048566624 -0.7006535798
14000216000.0 0.6955215409 -0.7091211452
14050215700.0 0.6863011578 -0.7181676443
14100215400.0 0.676612089 -0.7269059974
14150215100.0 0.6675270493 -0.7354780441
14200214800.0 0.6578209792 -0.7445132833
14250214500.0 0.6475310501 -0.7537589896
14300214200.0 0.6369927471 -0.7630816937
14350213900.0 0.6259208912 -0.7725567333
14400213600.0 0.6139967291 -0.7824573999
14450213300.0 0.6010270676 -0.7928446785
14500213000.0 0.5878458912 -0.8028195759
14550212700.0 0.5755073119 -0.8121205809
14600212400.0 0.5630889332 -0.8205204296
14650212100.0 0.5503635294 -0.8292289036
14700211800.0 0.5367772457 -0.8394591462
14750211500.0 0.5248008662 -0.847485381
14800211200.0 0.5122713876 -0.8555993677
14850210900.0 0.4998795528 -0.8630342542
14900210600.0 0.4865345575 -0.8711382721
14950210300.0 0.4732510643 -0.8788029009
15000210000.0 0.4604231363 -0.8854711718
15050209700.0 0.4482028959 -0.8917646857
15100209400.0 0.4351519202 -0.8975765537
15150209100.0 0.4229914189 -0.9033306227
15200208800.0 0.4102495705 -0.9082169758
15250208500.0 0.3998075074 -0.9130447192
15300208200.0 0.3868072967 -0.9173556553
15350207900.0 0.3735023308 -0.9223514547
15400207600.0 0.3590116427 -0.9272970304
15450207300.0 0.3448296778 -0.9329524541
15500207000.0 0.3298298629 -0.9370570187
15550206700.0 0.3153771534 -0.9421553982
15600206400.0 0.299500232 -0.9466795271
15650206100.0 0.2839871837 -0.9509172176
15700205800.0 0.2701403161 -0.9544918237
15750205500.0 0.2556845768 -0.9580589014
15800205200.0 0.2417567991 -0.9613672202
15850204900.0 0.227218432 -0.9648274263
15900204600.0 0.2123095481 -0.9685699917
15950204300.0 0.1980299678 -0.9717965891
16000204000.0 0.1835970794 -0.9746265576
16050203700.0 0.1684001892 -0.9776820631
16100203400.0 0.1538189776 -0.9796996415
16150203100.0 0.1393985292 -0.9823271752
16200202800.0 0.1250498053 -0.9839966956
16250202500.0 0.110037843 -0.9856774532
16300202200.0 0.0945735486 -0.9876372561
16350201900.0 0.0798481714 -0.9891197125
16400201600.0 0.065107961 -0.9900365317
16450201300.0 0.0497456255 -0.9912467408
16500201000.0 0.032693359 -0.9919015233
16550200700.0 0.0168219168 -0.9924790302
16600200400.0 0.0009875685 -0.9926198944
16650200100.0 -0.0148860024 -0.9922760256
16700199800.0 -0.0315173645 -0.9924572035
16750199500.0 -0.0499557674 -0.9914870471
16800199200.0 -0.0662190552 -0.9908190092
16850198900.0 -0.0819281281 -0.9894944798
16900198600.0 -0.0956860369 -0.987966918
16950198300.0 -0.108566512 -0.9875415313
17000198000.0 -0.1221705315 -0.9862239448
17050197700.0 -0.1346631181 -0.9839196461
17100197400.0 -0.1478500483 -0.9822607643
17150197100.0 -0.1604700045 -0.9797545959
17200196800.0 -0.1731577269 -0.9780837694
17250196500.0 -0.1860990327 -0.9756546773
17300196200.0 -0.1981556957 -0.9731649376
17350195900.0 -0.2099211806 -0.9708193164
17400195600.0 -0.2220165282 -0.9684066756
17450195300.0 -0.235037796 -0.965648592
17500195000.0 -0.2483842752 -0.9624553787
17550194700.0 -0.2621852058 -0.9586534181
17600194400.0 -0.2762731189 -0.9547710399
17650194100.0 -0.2898851925 -0.9505715841
17700193800.0 -0.3024976955 -0.9461384108
17750193500.0 -0.3168976787 -0.9415439838
17800193200.0 -0.3315249345 -0.9370029937
17850192900.0 -0.3461499267 -0.9308708112
17900192600.0 -0.3612087227 -0.9251091355
17950192300.0 -0.3767927725 -0.9181598744
18000192000.0 -0.3915912299 -0.9108316435
18050191700.0 -0.405582498 -0.9030427744
18100191400.0 -0.4197503805 -0.8953271201
18150191100.0 -0.4346621972 -0.8872043073
18200190800.0 -0.4515513199 -0.8781553056
18250190500.0 -0.4686133286 -0.8686242137
18300190200.0 -0.483856773 -0.859690143
18350189900.0 -0.4990148071 -0.8513479958
18400189600.0 -0.5137884269 -0.8434951623
18450189300.0 -0.5271276766 -0.8352792587
18500189000.0 -0.5405105857 -0.8271626125
18550188700.0 -0.5531971014 -0.8189719832
18600188400.0 -0.5651179986 -0.8125117182
18650188100.0 -0.5765212343 -0.8063078227
18700187800.0 -0.5869190726 -0.7995894664
18750187500.0 -0.5978772127 -0.7930448758
18800187200.0 -0.608376116 -0.7859517674
18850186900.0 -0.6187650981 -0.7792902266
18900186600.0 -0.6289904841 -0.7717059387
18950186300.0 -0.6391061915 -0.7641460748
19000186000.0 -0.6463517679 -0.7576230908
19050185700.0 -0.6559292611 -0.7506003814
19100185400.0 -0.6655445327 -0.7421252095
19150185100.0 -0.6761100699 -0.7339432857
19200184800.0 -0.6853529987 -0.7256415301
19250184500.0 -0.6952120079 -0.7163090464
19300184200.0 -0.7066911493 -0.7070731807
19350183900.0 -0.7176916349 -0.6969605004
19400183600.0 -0.7276011435 -0.687644952
19450183300.0 -0.736124371 -0.6771363542
19500183000.0 -0.7447210416 -0.6675393317
19550182700.0 -0.7548166796 -0.655780323
19600182400.0 -0.7649405785 -0.6443000776
19650182100.0 -0.7755434789 -0.6319006094
19700181800.0 -0.785955951 -0.6190376556
19750181500.0 -0.7964601678 -0.6047437015
19800181200.0 -0.806750184 -0.5897690087
19850180900.0 -0.816279133 -0.5745352101
19900180600.0 -0.8240792913 -0.5599809029
19950180300.0 -0.8333494214 -0.543575936
20000180000.0 -0.8251353101 -0.5464427192
20050179700.0 -0.8325651096 -0.534025795
20100179400.0 -0.8403862774 -0.521075333
20150179100.0 -0.8490510527 -0.508584431
20200178800.0 -0.8575546438 -0.496489737
20250178500.0 -0.8677590154 -0.4837052039
20300178200.0 -0.8770191676 -0.4701183573
20350177900.0 -0.8858486829 -0.4553113076
20400177600.0 -0.8951369704 -0.4412272573
20450177300.0 -0.903348694 -0.4264786097
20500177000.0 -0.9109424065 -0.412680849
20550176700.0 -0.9188974973 -0.3991667285
20600176400.0 -0.9260902137 -0.3861195383
20650176100.0 -0.9326252052 -0.3742626547
20700175800.0 -0.9390756341 -0.3626322698
20750175500.0 -0.9460431304 -0.3509579759
20800175200.0 -0.9502498718 -0.3403458292
20850174900.0 -0.9549028246 -0.3285091377
20900174600.0 -0.9594589323 -0.3184798808
20950174300.0 -0.9631475582 -0.3067267543
21000174000.0 -0.9667606829 -0.2954485352
21050173700.0 -0.9676014888 -0.2850901799
21100173400.0 -0.9716282032 -0.2743561024
21150173100.0 -0.9757745551 -0.2622759603
21200172800.0 -0.9797635733 -0.2490081274
21250172500.0 -0.9830506124 -0.2353463799
21300172200.0 -0.9866455711 -0.220730483
21350171900.0 -0.9883470822 -0.2065259478
21400171600.0 -0.9901633556 -0.1923559261
21450171300.0 -0.9906383288 -0.1781817
21500171000.0 -0.9906119573 -0.1624150246
21550170700.0 -0.9914801797 -0.1473873275
21600170400.0 -0.9919001842 -0.131886224
21650170100.0 -0.9915825193 -0.1162985174
21700169800.0 -0.9898981234 -0.101075742
21750169500.0 -0.9886103681 -0.0846178417
21800169200.0 -0.9892237101 -0.0690474983
21850168900.0 -0.9881263966 -0.0524870839
21900168600.0 -0.9878797319 -0.0353560329
21950168300.0 -0.9871626906 -0.0204885167
22000168000.0 -0.9867827826 -0.0047812524
22050167700.0 -0.987006982 0.0096939072
22100167400.0 -0.987372305 0.0247790355
22150167100.0 -0.9881697009 0.0409283728
22200166800.0 -0.9891161815 0.0568637318
22250166500.0 -0.9887515924 0.0735063056
22300166200.0 -0.9883983898 0.0909433012
22350165900.0 -0.98668275 0.1072397595
22400165600.0 -0.9835184891 0.122906046
22450165300.0 -0.9834883887 0.1391573119
22500165000.0 -0.9808244096 0.1517317794
22550164700.0 -0.9809131767 0.1683429589
22600164400.0 -0.9786956127 0.1839227969
22650164100.0 -0.9757584967 0.1989953677
22700163800.0 -0.9723189109 0.2150546829
22750163500.0 -0.9699929134 0.2300834721
22800163200.0 -0.9668511218 0.2435512502
22850162900.0 -0.9640271878 0.2564580273
22900162600.0 -0.962520334 0.2701248123
22950162300.0 -0.9614820779 0.2836377158
23000162000.0 -0.9596778418 0.2959784619
23050161700.0 -0.9573330944 0.3086281773
23100161400.0 -0.9547194983 0.322525101
23150161100.0 -0.9519903301 0.3346450085
23200160800.0 -0.9491107567 0.3476968146
23250160500.0 -0.9459924749 0.359893384
23300160200.0 -0.9435541377 0.3718128457
23350159900.0 -0.9395017392 0.3857069293
23400159600.0 -0.9342314206 0.3993434547
23450159300.0 -0.9294193762 0.4128448429
23500159000.0 -0.9249193678 0.4258573024
23550158700.0 -0.9200319885 0.4397806982
23600158400.0 -0.9144586505 0.453479313
23650158100.0 -0.9074390603 0.4678003745
23700157800.0 -0.8995138198 0.4819703571
23750157500.0 -0.890288483 0.4958590832
23800157200.0 -0.8810815685 0.5095080817
23850156900.0 -0.8718636571 0.5224877394
23900156600.0 -0.8615109248 0.5349767644
23950156300.0 -0.8531969204 0.5474628083
24000156000.0 -0.8437074349 0.5589693822
24050155700.0 -0.8324196716 0.5717336219
24100155400.0 -0.8224805117 0.5843388875
24150155100.0 -0.8123350765 0.5950583188
24200154800.0 -0.8011792155 0.6076601076
24250154500.0 -0.7895118992 0.6192365368
24300154200.0 -0.7780209934 0.6311687316
24350153900.0 -0.7663174678 0.6422595809
24400153600.0 -0.7541328856 0.6531075432
24450153300.0 -0.7420951415 0.6629383987
24500153000.0 -0.7306085565 0.6728065855
24550152700.0 -0.7187042163 0.6828140095
24600152400.0 -0.7074210379 0.6920082241
24650152100.0 -0.6953373376 0.7010131933
