!Created with skrf (http://scikit-rf.org).
# Hz S RI R 50.0 
!freq ReS11 ImS11
300000.0 -0.9825611958 -0.1022959412
50299700.0 -1.000060454 0.0161140502
100299400.0 -0.9980581723 0.0290399298
150299100.0 -1.002909127 0.0459489334
200298800.0 -0.9996270686 0.0591803488
250298500.0 -0.9974656547 0.0727833338
300298200.0 -0.9860019662 0.0886388234
350297900.0 -0.9940944173 0.0994400125
400297600.0 -0.9932002372 0.1162048303
450297300.0 -0.9910147017 0.1299699471
500297000.0 -0.9893557133 0.1448037383
550296700.0 -0.9843434424 0.1574177036
600296400.0 -1.017220036 0.1905166614
650296100.0 -0.982088415 0.1870962149
700295800.0 -0.979093821 0.2016517373
750295500.0 -0.9761629712 0.2153432534
800295200.0 -0.9726499808 0.22948425
850294900.0 -0.9694201878 0.2431957741
900294600.0 -0.9655905997 0.2570634018
950294300.0 -0.9616881818 0.2710147785
1000294000.0 -0.9577617384 0.2849126408
1050293700.0 -0.9534625179 0.2986012493
1100293400.0 -0.9489312667 0.3130677072
1150293100.0 -0.9451226488 0.3249611963
1200292800.0 -0.9397044377 0.3393407133
1250292500.0 -0.9343086987 0.3526546042
1300292200.0 -0.9285686902 0.3660029981
1350291900.0 -0.9230016764 0.3799068677
1400291600.0 -0.9174280865 0.3929032476
1450291300.0 -0.9121144789 0.4052868973
1500291000.0 -0.9058497746 0.418752411
1550290700.0 -0.8993672399 0.4319438374
1600290400.0 -0.8929840691 0.4448600627
1650290100.0 -0.8862902558 0.4569980347
1700289800.0 -0.8794695111 0.4703738963
1750289500.0 -0.8723804935 0.4828703743
1800289200.0 -0.8649115778 0.4953544933
1850288900.0 -0.8583595335 0.5068091176
1900288600.0 -0.8505293576 0.5197458145
1950288300.0 -0.8425204508 0.5324696595
2000288000.0 -0.8350573842 0.5437050953
2050287700.0 -0.8266169973 0.5562646642
2100287400.0 -0.8187609511 0.567943269
2150287100.0 -0.8101147061 0.5797342207
2200286800.0 -0.8023120338 0.5902218957
2250286500.0 -0.7935775662 0.6023628276
2300286200.0 -0.7843566869 0.6138211236
2350285900.0 -0.775656748 0.6247714799
2400285600.0 -0.7667903958 0.6359477289
2450285300.0 -0.7579210937 0.6462293048
2500285000.0 -0.748432356 0.6575484614
2550284700.0 -0.7394804235 0.6680295395
2600284400.0 -0.7298939611 0.6781133325
2650284100.0 -0.720843319 0.6886707019
2700283800.0 -0.7101251068 0.6990195009
2750283500.0 -0.6999801493 0.7097221597
2800283200.0 -0.6901469223 0.7193069105
2850282900.0 -0.6797838551 0.7290955157
2900282600.0 -0.6694904567 0.7387642167
2950282300.0 -0.6594705992 0.7481782313
3000282000.0 -0.6486952522 0.7575668077
3050281700.0 -0.6377681159 0.7668263649
3100281400.0 -0.6258296489 0.7760569192
3150281100.0 -0.614007302 0.785487089
3200280800.0 -0.6023512736 0.7938650922
3250280500.0 -0.5915201004 0.8016035929
3300280200.0 -0.5804419956 0.8093654314
3350279900.0 -0.5689711326 0.8169088994
3400279600.0 -0.5568904489 0.8246302542
3450279300.0 -0.5458066742 0.8317711112
3500279000.0 -0.533631429 0.8389364671
3550278700.0 -0.5214320187 0.8463437274
3600278400.0 -0.5089413343 0.8534626964
3650278100.0 -0.495890489 0.8610300305
3700277800.0 -0.4837686011 0.8672662065
3750277500.0 -0.4715259329 0.8740671806
3800277200.0 -0.4589180011 0.880367729
3850276900.0 -0.4466858766 0.8864618452
3900276600.0 -0.4359375 0.8920146263
3950276300.0 -0.4232975902 0.8981937655
4000276000.0 -0.4111635038 0.9043162732
4050275700.0 -0.3982564969 0.9101393827
4100275400.0 -0.3870802776 0.9155080657
4150275100.0 -0.3744152243 0.9212238723
4200274800.0 -0.3612030833 0.9266915981
4250274500.0 -0.3489014556 0.931715537
4300274200.0 -0.3359265169 0.9373777084
4350273900.0 -0.3221363662 0.9422747078
4400273600.0 -0.307344324 0.9476233315
4450273300.0 -0.2918156809 0.9524302196
4500273000.0 -0.278217752 0.9568514417
4550272700.0 -0.264077248 0.9611319616
4600272400.0 -0.2486874134 0.9653764313
4650272100.0 -0.2369110604 0.9685352515
4700271800.0 -0.2237186506 0.9718690455
4750271500.0 -0.2119582264 0.9747040359
4800271200.0 -0.1993348294 0.977428571
4850270900.0 -0.1855056745 0.9802382053
4900270600.0 -0.1716585696 0.9825776783
4950270300.0 -0.1576060882 0.9852575779
5000270000.0 -0.1431932058 0.9868971284
5050269700.0 -0.1299213456 0.9888045209
5100269400.0 -0.1163283569 0.9906314399
5150269100.0 -0.1030760441 0.9918872864
5200268800.0 -0.0896499046 0.9928574327
5250268500.0 -0.076685336 0.9939537054
5300268200.0 -0.0636259342 0.9950004076
5350267900.0 -0.0515611003 0.9951949087
5400267600.0 -0.0350944087 0.996373296
5450267300.0 -0.0221776374 0.996787775
5500267000.0 -0.00707365 0.9973080356
5550266700.0 0.0078240682 0.997472213
5600266400.0 0.0233000232 0.9971915046
5650266100.0 0.0399362577 0.9972040668
5700265800.0 0.0544724193 0.9958949511
5750265500.0 0.0694803239 0.9952356066
5800265200.0 0.0835371894 0.9939795103
5850264900.0 0.0969228506 0.9935719478
5900264600.0 0.1136192489 0.99128823
5950264300.0 0.1256672806 0.9897685946
6000264000.0 0.139730664 0.9874884234
6050263700.0 0.1522087862 0.986538527
6100263400.0 0.1646539281 0.9844745932
6150263100.0 0.1794867102 0.9821248414
6200262800.0 0.189998113 0.9803179607
6250262500.0 0.2025796554 0.9776931575
6300262200.0 0.2154714816 0.9750261166
6350261900.0 0.2286194547 0.9720789583
6400261600.0 0.2423640988 0.9687424831
6450261300.0 0.2537325457 0.9660693923
6500261000.0 0.2665905193 0.9626724461
6550260700.0 0.2792536625 0.9584863177
6600260400.0 0.2930530161 0.9545934235
6650260100.0 0.3066704057 0.9500420161
6700259800.0 0.319148007 0.9461372795
6750259500.0 0.3325238138 0.9408566417
6800259200.0 0.3455525655 0.9361252225
6850258900.0 0.3575536172 0.931186515
6900258600.0 0.3694488548 0.9258430869
6950258300.0 0.3820978651 0.920744055
7000258000.0 0.3941450548 0.9154411275
7050257700.0 0.4064138107 0.9094263756
7100257400.0 0.4192084853 0.902883213
7150257100.0 0.429359442 0.8978908969
7200256800.0 0.4420297926 0.891426428
7250256500.0 0.4537891212 0.8851009673
7300256200.0 0.4670381578 0.8783866672
7350255900.0 0.4793495606 0.8714575931
7400255600.0 0.4921935417 0.8644613472
7450255300.0 0.5079268524 0.8555432735
7500255000.0 0.5195547811 0.848279198
7550254700.0 0.5330161081 0.8399475232
7600254400.0 0.5458940479 0.8313961226
7650254100.0 0.5571776719 0.8236168618
7700253800.0 0.569200752 0.8153203496
7750253500.0 0.5803576374 0.8074550035
7800253200.0 0.5913344768 0.7998236628
7850252900.0 0.6008147237 0.792866677
7900252600.0 0.6125772372 0.7838413944
7950252300.0 0.6214199648 0.7771563943
8000252000.0 0.6317813704 0.7692605163
8050251700.0 0.6421762077 0.76109836
8100251400.0 0.6523228969 0.7529282037
8150251100.0 0.6624976695 0.7442691685
8200250800.0 0.671770826 0.7361292529
8250250500.0 0.6809494744 0.7283023568
8300250200.0 0.6902941944 0.7195442282
8350249900.0 0.699311661 0.7109576549
8400249600.0 0.7075736653 0.70293833
8450249300.0 0.7167070756 0.693716963
8500249000.0 0.725290691 0.6846815559
8550248700.0 0.7335150727 0.6755687539
8600248400.0 0.7419421986 0.666371186
8650248100.0 0.7498116598 0.6570136469
8700247800.0 0.7592270073 0.645700034
8750247500.0 0.7674433799 0.6356547689
8800247200.0 0.7753712559 0.6253236118
8850246900.0 0.7843514724 0.6139967871
8900246600.0 0.7924411854 0.6028535633
8950246300.0 0.8023411902 0.5898906697
9000246000.0 0.8115725031 0.5769873901
9050245700.0 0.8207512745 0.5642456177
9100245400.0 0.8290835329 0.5516198895
9150245100.0 0.8384547243 0.5380986841
9200244800.0 0.8482990685 0.5229194615
9250244500.0 0.8576480051 0.5073621355
9300244200.0 0.8660898987 0.4928151564
9350243900.0 0.8738362981 0.4789044398
9400243600.0 0.8803338559 0.4663464415
9450243300.0 0.8862510014 0.4544053756
9500243000.0 0.8924917652 0.4420082001
9550242700.0 0.8965477326 0.4340890609
9600242400.0 0.9004282969 0.4264802551
9650242100.0 0.9042141359 0.4195614331
9700241800.0 0.9089098635 0.411312068
9750241500.0 0.9127186371 0.403770719
9800241200.0 0.9173017637 0.3947074778
9850240900.0 0.9229036818 0.3830025473
9900240600.0 0.9281701388 0.3717194885
9950240300.0 0.9348962906 0.3555904591
10000240000.0 0.9393836499 0.3435682508
10050239700.0 0.9449907177 0.3288109825
10100239400.0 0.9503763471 0.3131676263
10150239100.0 0.9545854899 0.2986994195
10200238800.0 0.9585239344 0.2836908385
10250238500.0 0.9618277882 0.2703647896
10300238200.0 0.9650279617 0.2565130147
10350237900.0 0.9674232212 0.2435114616
10400237600.0 0.9700637044 0.2304498389
10450237300.0 0.9729054357 0.2163314384
10500237000.0 0.9750276204 0.2049346276
10550236700.0 0.9771231211 0.1910137411
10600236400.0 0.9791100378 0.1773370439
10650236100.0 0.9814038551 0.162901103
10700235800.0 0.9838986431 0.1507376676
10750235500.0 0.9859061373 0.1374125459
10800235200.0 0.9878951229 0.1234347676
10850234900.0 0.9896985455 0.1087946375
10900234600.0 0.992028808 0.0943136001
10950234300.0 0.9934659351 0.0810631256
11000234000.0 0.9951835621 0.0660376618
11050233700.0 0.9969696099 0.0497590959
11100233400.0 0.9982994137 0.0323083703
11150233100.0 0.9994722034 0.016219216
11200232800.0 1.000047997 0.0009369852
11250232500.0 1.000939377 -0.0155652579
11300232200.0 1.000838883 -0.0328425035
11350231900.0 1.001372921 -0.0496926599
11400231600.0 1.000674084 -0.0655882643
11450231300.0 1.000342194 -0.0807192197
11500231000.0 0.9992708888 -0.0962725858
11550230700.0 0.9979426212 -0.1107602028
11600230400.0 0.9964094166 -0.1238363745
11650230100.0 0.9943601242 -0.134737034
11700229800.0 0.9922855965 -0.1500238738
11750229500.0 0.9900391352 -0.1649553306
11800229200.0 0.9872097465 -0.1783043744
11850228900.0 0.9837153846 -0.1909937591
11900228600.0 0.9803126939 -0.2006136594
11950228300.0 0.9767667062 -0.2111350016
12000228000.0 0.9740358409 -0.2199294399
12050227700.0 0.9705422754 -0.2334289486
12100227400.0 0.9674594161 -0.2442649441
12150227100.0 0.962745631 -0.2606946593
12200226800.0 0.9590916557 -0.27133109
12250226500.0 0.9551603304 -0.2841273202
12300226200.0 0.9507065402 -0.2963840617
12350225900.0 0.9460779438 -0.3101164092
12400225600.0 0.9417060289 -0.3225380068
12450225300.0 0.9373848043 -0.3350547594
12500225000.0 0.9315533621 -0.3503325634
12550224700.0 0.926485982 -0.3635886676
12600224400.0 0.9216350183 -0.376001293
12650224100.0 0.9158776799 -0.3904235051
12700223800.0 0.9108644806 -0.4030260504
12750223500.0 0.905170101 -0.4160174701
12800223200.0 0.8998145012 -0.4285755781
12850222900.0 0.8944792764 -0.4408402725
12900222600.0 0.8886192218 -0.4529114038
12950222300.0 0.8825735639 -0.4661322332
13000222000.0 0.8764288115 -0.4767565771
13050221700.0 0.8691167987 -0.490612433
13100221400.0 0.8631242007 -0.5019047113
13150221100.0 0.8557245042 -0.514350481
13200220800.0 0.8488883135 -0.5257174543
13250220500.0 0.8413306412 -0.5382248356
13300220200.0 0.8339431067 -0.5489512451
13350219900.0 0.8257641363 -0.5609922273
13400219600.0 0.8174931174 -0.5733975455
13450219300.0 0.8078400541 -0.5869533464
13500219000.0 0.7972505507 -0.6008577921
13550218700.0 0.7880233862 -0.6136486497
13600218400.0 0.7769853603 -0.6261852923
13650218100.0 0.7670454547 -0.6381018415
13700217800.0 0.7557901308 -0.6492341864
13750217500.0 0.7459563657 -0.6611531323
13800217200.0 0.7350123967 -0.6723263693
13850216900.0 0.7239051528 -0.6838342733
13900216600.0 0.7143739031 -0.693504595
13950216300.0 0.7027848172 -0.7035920876
14000216000.0 0.6932037095 -0.7124669069
14050215700.0 0.6838028954 -0.7211280777
14100215400.0 0.6739754428 -0.7300131661
14150215100.0 0.6647637847 -0.7382770913
14200214800.0 0.6556319039 -0.7466607406
14250214500.0 0.645605722 -0.7558575617
14300214200.0 0.6352694252 -0.7649990514
14350213900.0 0.6241399915 -0.7744640739
14400213600.0 0.6125402816 -0.7839685269
14450213300.0 0.5995583208 -0.7948575569
14500213000.0 0.5866928794 -0.8036604064
14550212700.0 0.5741863137 -0.8135436528
14600212400.0 0.5615937302 -0.8222176895
14650212100.0 0.5489370107 -0.8307759013
14700211800.0 0.5346326412 -0.8403063072
14750211500.0 0.5224217409 -0.8483324168
14800211200.0 0.5103839458 -0.856386431
14850210900.0 0.4985222701 -0.8637909636
14900210600.0 0.4848381171 -0.8716621354
14950210300.0 0.4710705066 -0.879473173
15000210000.0 0.4583860083 -0.8863448683
15050209700.0 0.4458404083 -0.8925164565
15100209400.0 0.4330393035 -0.8986885219
15150209100.0 0.4204294806 -0.9038904436
15200208800.0 0.4076268496 -0.9090518038
15250208500.0 0.3960973455 -0.9140653933
15300208200.0 0.3840906004 -0.9189799205
15350207900.0 0.3697810867 -0.9236355051
15400207600.0 0.3551975669 -0.9288657075
15450207300.0 0.3408486332 -0.9341831678
15500207000.0 0.3265259492 -0.9386353511
15550206700.0 0.3112606739 -0.9434894661
15600206400.0 0.2950096316 -0.9483266254
15650206100.0 0.2798410525 -0.9524694189
15700205800.0 0.2661627663 -0.9560334389
15750205500.0 0.2512367521 -0.9595429517
15800205200.0 0.2369491453 -0.9629775696
15850204900.0 0.222607977 -0.9661476035
15900204600.0 0.2078437131 -0.9697880859
15950204300.0 0.1938760819 -0.9728968199
16000204000.0 0.1794037561 -0.9754207979
16050203700.0 0.1652436276 -0.9782203081
16100203400.0 0.1509637475 -0.9802025515
16150203100.0 0.136626144 -0.9825301667
16200202800.0 0.1228875936 -0.9849133849
16250202500.0 0.1080252176 -0.9861255721
16300202200.0 0.0929457791 -0.9882252737
16350201900.0 0.0782325748 -0.9891813046
16400201600.0 0.0635801052 -0.9902426724
16450201300.0 0.0482216114 -0.9911152791
16500201000.0 0.0317820424 -0.9919804333
16550200700.0 0.0160482781 -0.9925885617
16600200400.0 0.0003154424 -0.9926366056
16650200100.0 -0.0158131602 -0.9926358883
16700199800.0 -0.0328170995 -0.9922487595
16750199500.0 -0.0514559333 -0.991942228
16800199200.0 -0.0675190773 -0.9907095133
16850198900.0 -0.082795709 -0.9890686147
16900198600.0 -0.0967382917 -0.9890981642
16950198300.0 -0.1103699781 -0.9873983359
17000198000.0 -0.1234447714 -0.9852954244
17050197700.0 -0.1362710385 -0.9843194955
17100197400.0 -0.1487134453 -0.980960001
17150197100.0 -0.1618069943 -0.9796883761
17200196800.0 -0.1744273373 -0.9774850163
17250196500.0 -0.1874240457 -0.975443828
17300196200.0 -0.1996925737 -0.9729021615
17350195900.0 -0.2116418781 -0.9704671247
17400195600.0 -0.2240835516 -0.9680579386
17450195300.0 -0.2369488238 -0.9652697381
17500195000.0 -0.2506634561 -0.9617832504
17550194700.0 -0.2644770852 -0.9581237162
17600194400.0 -0.2788043843 -0.9539828661
17650194100.0 -0.2919816868 -0.9502284849
17700193800.0 -0.304398323 -0.9457165488
17750193500.0 -0.3192209822 -0.9414165507
17800193200.0 -0.3333092916 -0.9361805051
17850192900.0 -0.3479652599 -0.9309342273
17900192600.0 -0.363097059 -0.9247769928
17950192300.0 -0.3788195162 -0.917411423
18000192000.0 -0.3931089193 -0.9103459627
18050191700.0 -0.4069535156 -0.9027521567
18100191400.0 -0.4211252095 -0.8949801966
18150191100.0 -0.4359578272 -0.8870122722
18200190800.0 -0.4528073614 -0.877713496
18250190500.0 -0.4697062489 -0.8683491507
18300190200.0 -0.484913563 -0.8595650699
18350189900.0 -0.5000388185 -0.8513381726
18400189600.0 -0.5144134377 -0.8427472904
18450189300.0 -0.5278886232 -0.8349641717
18500189000.0 -0.5409610358 -0.8268371952
18550188700.0 -0.5539404614 -0.8188735723
18600188400.0 -0.5655173294 -0.8119722789
18650188100.0 -0.5767353711 -0.8054381025
18700187800.0 -0.5878043143 -0.798590392
18750187500.0 -0.598767899 -0.7919086234
18800187200.0 -0.6094181269 -0.7848236784
18850186900.0 -0.6198091381 -0.7776985555
18900186600.0 -0.6302405633 -0.7700077896
18950186300.0 -0.6407765928 -0.762107505
19000186000.0 -0.6481383385 -0.7559501352
19050185700.0 -0.6569870731 -0.7485583597
19100185400.0 -0.6675142049 -0.7402898239
19150185100.0 -0.6776406067 -0.7311056139
19200184800.0 -0.6877105706 -0.7229075616
19250184500.0 -0.6976122221 -0.7134896877
19300184200.0 -0.7083210682 -0.7041704592
19350183900.0 -0.7192006734 -0.6943443245
19400183600.0 -0.7296530924 -0.6844046907
19450183300.0 -0.7380248296 -0.674276604
19500183000.0 -0.746462316 -0.6644465357
19550182700.0 -0.7561934007 -0.6535455306
19600182400.0 -0.7658625891 -0.6420847528
19650182100.0 -0.7766248925 -0.6298442608
19700181800.0 -0.7871449632 -0.6168458281
19750181500.0 -0.7977027531 -0.6026687721
19800181200.0 -0.807671246 -0.5880823935
19850180900.0 -0.8171222915 -0.5731394704
19900180600.0 -0.8249064913 -0.5588535263
19950180300.0 -0.8339945119 -0.5426981464
20000180000.0 -0.8274199087 -0.5436251658
20050179700.0 -0.8357440272 -0.530330369
20100179400.0 -0.8444871689 -0.5178049347
20150179100.0 -0.8523267099 -0.5054141361
20200178800.0 -0.8614208505 -0.492943488
20250178500.0 -0.8701074893 -0.4792400512
20300178200.0 -0.8792611202 -0.4639586319
20350177900.0 -0.8881979332 -0.4498988488
20400177600.0 -0.8973702282 -0.4361134667
20450177300.0 -0.9051933149 -0.4214579302
20500177000.0 -0.91328171 -0.4075284444
20550176700.0 -0.9207982558 -0.3938582772
20600176400.0 -0.9277808015 -0.3804911569
20650176100.0 -0.9345978845 -0.3679183662
20700175800.0 -0.9411378215 -0.3561287668
20750175500.0 -0.9480831337 -0.3445116783
20800175200.0 -0.9524912393 -0.3336803475
20850174900.0 -0.957804128 -0.3220150957
20900174600.0 -0.9623088981 -0.3103218061
20950174300.0 -0.9657319032 -0.297885348
21000174000.0 -0.970075885 -0.2871273704
21050173700.0 -0.9729014837 -0.275523198
21100173400.0 -0.9771520295 -0.2633943743
21150173100.0 -0.9810550062 -0.2504146048
21200172800.0 -0.9846629815 -0.2368120843
21250172500.0 -0.9879205103 -0.2233518785
21300172200.0 -0.9908204053 -0.208773266
21350171900.0 -0.9926277164 -0.194328936
21400171600.0 -0.9937134486 -0.1797079646
21450171300.0 -0.9937585251 -0.1657048214
21500171000.0 -0.9938346923 -0.1501435359
21550170700.0 -0.9934071907 -0.1351755786
21600170400.0 -0.9931049086 -0.119376815
21650170100.0 -0.992901061 -0.1045317916
21700169800.0 -0.9910043422 -0.0896013599
21750169500.0 -0.9890526427 -0.0725765912
21800169200.0 -0.9884673498 -0.0557022794
21850168900.0 -0.9863901495 -0.0406987002
21900168600.0 -0.9858671539 -0.0235758755
21950168300.0 -0.9839046302 -0.0089277919
22000168000.0 -0.982770945 0.0066653939
22050167700.0 -0.9825173458 0.0203281527
22100167400.0 -0.9823322212 0.0355741077
22150167100.0 -0.9831053707 0.0508806667
22200166800.0 -0.9834579059 0.0669867627
22250166500.0 -0.9827804788 0.0842055478
22300166200.0 -0.9822242151 0.1009286401
22350165900.0 -0.9809894706 0.1164528916
22400165600.0 -0.9794027301 0.1323239029
22450165300.0 -0.9762440385 0.1473754272
22500165000.0 -0.9757063108 0.1606985132
22550164700.0 -0.9737924929 0.176013686
22600164400.0 -0.9719074983 0.1917088469
22650164100.0 -0.9707452779 0.2065515022
22700163800.0 -0.9671857212 0.2240614051
22750163500.0 -0.9650354422 0.2381094801
22800163200.0 -0.9619188588 0.2514376012
22850162900.0 -0.9597440349 0.2649392357
22900162600.0 -0.9582642767 0.2780018258
22950162300.0 -0.9573384474 0.2909708258
23000162000.0 -0.9561660761 0.3025975814
23050161700.0 -0.9542282515 0.315193668
23100161400.0 -0.9512250867 0.3286500988
23150161100.0 -0.9494669635 0.3403987143
23200160800.0 -0.9468735879 0.3520912007
23250160500.0 -0.9432826855 0.3647279113
23300160200.0 -0.9409687427 0.3763241247
23350159900.0 -0.9366905473 0.3890522632
23400159600.0 -0.9323260164 0.4023756745
23450159300.0 -0.9273563789 0.4154374625
23500159000.0 -0.9231110187 0.4283173258
23550158700.0 -0.9184053505 0.4413393708
23600158400.0 -0.9131547073 0.4542362482
23650158100.0 -0.906783919 0.4681262027
23700157800.0 -0.8993894799 0.4818715235
23750157500.0 -0.8906043228 0.4958511594
23800157200.0 -0.882271276 0.5086618625
23850156900.0 -0.8731468084 0.5215986549
23900156600.0 -0.8637667993 0.5345600343
23950156300.0 -0.854845616 0.5460518475
24000156000.0 -0.8455937067 0.5581630328
24050155700.0 -0.8348548013 0.5703022082
24100155400.0 -0.8251548471 0.5825392761
24150155100.0 -0.8153719086 0.5938335439
24200154800.0 -0.80349733 0.6049414749
24250154500.0 -0.7923884868 0.6169239047
24300154200.0 -0.7810308551 0.6285440639
24350153900.0 -0.7691107898 0.6394995885
24400153600.0 -0.7570914331 0.6492617421
24450153300.0 -0.745289901 0.6593405343
24500153000.0 -0.7340931692 0.669388761
24550152700.0 -0.7224895789 0.6785804288
24600152400.0 -0.7113537512 0.6881283971
24650152100.0 -0.6996618742 0.6966791361
