!Created with skrf (http://scikit-rf.org).
# Hz S RI R 50.0 
!freq ReS11 ImS11
300000.0 -0.9730338966 -0.1205181129
50299700.0 -0.9999366236 0.0151073111
100299400.0 -0.9978756219 0.0279140383
150299100.0 -1.002570652 0.044916081
200298800.0 -0.9993742104 0.0581628517
250298500.0 -0.9972757277 0.0716449129
300298200.0 -0.9858391859 0.0875132142
350297900.0 -0.9941327222 0.0984775858
400297600.0 -0.9930902105 0.1149117658
450297300.0 -0.9909632132 0.1286565966
500297000.0 -0.9891902786 0.1435153172
550296700.0 -0.9842219207 0.1558829014
600296400.0 -1.017155087 0.1890818131
650296100.0 -0.9822547259 0.1858450344
700295800.0 -0.9791521412 0.2001408237
750295500.0 -0.9763778286 0.2142271965
800295200.0 -0.9726997633 0.2280645976
850294900.0 -0.9694631226 0.2418498037
900294600.0 -0.9657049419 0.255790782
950294300.0 -0.9621064905 0.269203448
1000294000.0 -0.9581619091 0.2833941941
1050293700.0 -0.9535937588 0.297072954
1100293400.0 -0.9492915465 0.3114630617
1150293100.0 -0.9454955526 0.3232962733
1200292800.0 -0.9401416218 0.3379930625
1250292500.0 -0.9347581849 0.3512680254
1300292200.0 -0.9288685857 0.3644680768
1350291900.0 -0.9234463568 0.3787818053
1400291600.0 -0.9179495893 0.3918234651
1450291300.0 -0.912584439 0.4041801361
1500291000.0 -0.9061475484 0.4174198125
1550290700.0 -0.8995378646 0.4307657902
1600290400.0 -0.893443757 0.4435710148
1650290100.0 -0.8867995638 0.455793747
1700289800.0 -0.8797544331 0.4689990184
1750289500.0 -0.8728922999 0.4816266821
1800289200.0 -0.8655607373 0.4944796485
1850288900.0 -0.8587098884 0.505800605
1900288600.0 -0.8510689261 0.518840968
1950288300.0 -0.8429579319 0.5312494829
2000288000.0 -0.8352854862 0.5428123284
2050287700.0 -0.8271033916 0.5554107178
2100287400.0 -0.8192487775 0.5665062448
2150287100.0 -0.8108093754 0.5785465197
2200286800.0 -0.8028213629 0.5891065097
2250286500.0 -0.7941258352 0.6014466452
2300286200.0 -0.7853197564 0.6128490857
2350285900.0 -0.7767101423 0.6235674408
2400285600.0 -0.7677706522 0.6345139222
2450285300.0 -0.7589242186 0.6452457814
2500285000.0 -0.7491354882 0.65689419
2550284700.0 -0.7401696259 0.6669019066
2600284400.0 -0.7309401635 0.6767426707
2650284100.0 -0.7223243674 0.6872003983
2700283800.0 -0.7118980752 0.6976791845
2750283500.0 -0.7016866402 0.7083452824
2800283200.0 -0.6914683722 0.7180599702
2850282900.0 -0.6812903737 0.7282441895
2900282600.0 -0.6708916405 0.7378726689
2950282300.0 -0.6602085489 0.7471421003
3000282000.0 -0.6495353122 0.7565419274
3050281700.0 -0.6384158779 0.7658809275
3100281400.0 -0.6268948042 0.7751788843
3150281100.0 -0.6154131458 0.7841063917
3200280800.0 -0.6038640598 0.7924654207
3250280500.0 -0.5929002734 0.8003333043
3300280200.0 -0.5814075671 0.80856146
3350279900.0 -0.569349778 0.8162861373
3400279600.0 -0.5568531026 0.8242791799
3450279300.0 -0.5456741115 0.8315084016
3500279000.0 -0.5339128941 0.8383024726
3550278700.0 -0.5217544095 0.8455495303
3600278400.0 -0.5097143015 0.8525415191
3650278100.0 -0.4966939295 0.8599444587
3700277800.0 -0.4847343117 0.8664860046
3750277500.0 -0.4724493264 0.8732081194
3800277200.0 -0.4598265494 0.8797017711
3850276900.0 -0.4476942194 0.8856399315
3900276600.0 -0.4368931468 0.8911820851
3950276300.0 -0.4246070031 0.8973360389
4000276000.0 -0.4129394462 0.9033862674
4050275700.0 -0.4002598511 0.9088736775
4100275400.0 -0.3889222227 0.9146421117
4150275100.0 -0.3757475117 0.920397072
4200274800.0 -0.362594678 0.9261535644
4250274500.0 -0.3501734324 0.9313511433
4300274200.0 -0.3369990837 0.9364710999
4350273900.0 -0.3230143034 0.9416889921
4400273600.0 -0.3080653036 0.9471021454
4450273300.0 -0.2928031933 0.9521855021
4500273000.0 -0.2799441936 0.9564537355
4550272700.0 -0.2660385324 0.9604985863
4600272400.0 -0.2507662914 0.9647742729
4650272100.0 -0.2394319496 0.9678802642
4700271800.0 -0.2264228841 0.9711464543
4750271500.0 -0.2147785487 0.9741187713
4800271200.0 -0.2023921632 0.9767359477
4850270900.0 -0.1885289438 0.9796782648
4900270600.0 -0.174686296 0.9821015628
4950270300.0 -0.1601762802 0.9845295571
5000270000.0 -0.1460716717 0.9867726905
5050269700.0 -0.1325276462 0.9884249442
5100269400.0 -0.1184665279 0.9900473458
5150269100.0 -0.1045958034 0.9916999145
5200268800.0 -0.0911614445 0.9926468587
5250268500.0 -0.0781522847 0.9936136195
5300268200.0 -0.06453316 0.9945624744
5350267900.0 -0.0516653107 0.995020274
5400267600.0 -0.0358281606 0.9964627997
5450267300.0 -0.022692266 0.9966153494
5500267000.0 -0.0072672155 0.9969533441
5550266700.0 0.0076709031 0.997077383
5600266400.0 0.0232829966 0.9973564909
5650266100.0 0.0399807121 0.9969584304
5700265800.0 0.0542965727 0.9958124721
5750265500.0 0.0696312241 0.9953328099
5800265200.0 0.0827570662 0.994019422
5850264900.0 0.0962353504 0.9930684559
5900264600.0 0.1130552923 0.9915245098
5950264300.0 0.1242641505 0.989625143
6000264000.0 0.1380385078 0.9878352104
6050263700.0 0.1498524624 0.9865151915
6100263400.0 0.1621071937 0.9851717449
6150263100.0 0.1766138309 0.982538589
6200262800.0 0.1867375422 0.9807971932
6250262500.0 0.1992146958 0.9785083095
6300262200.0 0.2114540412 0.9761067148
6350261900.0 0.2244546317 0.9732307658
6400261600.0 0.2385033002 0.9700301499
6450261300.0 0.2497311894 0.9673911186
6500261000.0 0.2625791185 0.9635726321
6550260700.0 0.2758243055 0.9599729851
6600260400.0 0.2894587078 0.9557720036
6650260100.0 0.3035749141 0.9517310027
6700259800.0 0.3153490831 0.9470927937
6750259500.0 0.3289404171 0.9422456939
6800259200.0 0.3427602026 0.9373803083
6850258900.0 0.3550318159 0.932080841
6900258600.0 0.3673763993 0.9269184265
6950258300.0 0.3799511966 0.9213048349
7000258000.0 0.3917735435 0.9160186167
7050257700.0 0.4036983001 0.9102838251
7100257400.0 0.4169214241 0.9036871545
7150257100.0 0.4276596307 0.898420442
7200256800.0 0.440591078 0.8920926289
7250256500.0 0.4531349255 0.8854828208
7300256200.0 0.4660673425 0.8790048222
7350255900.0 0.4784967663 0.8716125508
7400255600.0 0.4927138858 0.8641417491
7450255300.0 0.5077359814 0.8552450063
7500255000.0 0.5198341471 0.8476938384
7550254700.0 0.5345638381 0.8388755616
7600254400.0 0.5465641488 0.8304625372
7650254100.0 0.5584485201 0.822641727
7700253800.0 0.5702868393 0.814777648
7750253500.0 0.5809914156 0.8070273068
7800253200.0 0.5917024508 0.7993209455
7850252900.0 0.6017029061 0.7919033454
7900252600.0 0.6131043903 0.7831627046
7950252300.0 0.6217105054 0.7768807354
8000252000.0 0.631574872 0.7693925905
8050251700.0 0.6424048541 0.7610285858
8100251400.0 0.6521381829 0.7531610248
8150251100.0 0.6619833628 0.7445272155
8200250800.0 0.6715517173 0.736403406
8250250500.0 0.6803075278 0.7285689454
8300250200.0 0.689672712 0.7199900242
8350249900.0 0.6985325361 0.7112628866
8400249600.0 0.7069231893 0.7032174681
8450249300.0 0.7157076939 0.6944561822
8500249000.0 0.7242081025 0.685688732
8550248700.0 0.7324133605 0.6766078595
8600248400.0 0.7408882929 0.6669926785
8650248100.0 0.7485237067 0.6576244629
8700247800.0 0.7579692883 0.6464586527
8750247500.0 0.7662499898 0.636374973
8800247200.0 0.7742719614 0.6260402029
8850246900.0 0.782963785 0.6148240303
8900246600.0 0.7915798227 0.6032997866
8950246300.0 0.80091229 0.5905179297
9000246000.0 0.8094677781 0.5784464439
9050245700.0 0.8182216517 0.5659353853
9100245400.0 0.826597538 0.553800869
9150245100.0 0.835588879 0.5406549963
9200244800.0 0.8453409863 0.526162769
9250244500.0 0.8542972471 0.5112488806
9300244200.0 0.8623127347 0.4973676252
9350243900.0 0.8700896018 0.4839613601
9400243600.0 0.8766599454 0.4721404446
9450243300.0 0.8822231395 0.4614026747
9500243000.0 0.8886863336 0.4496919026
9550242700.0 0.8926396212 0.4419823988
9600242400.0 0.8967625776 0.4344675661
9650242100.0 0.9008547545 0.427572221
9700241800.0 0.9056635024 0.4188280433
9750241500.0 0.9096359259 0.4116811361
9800241200.0 0.914259851 0.4024335847
9850240900.0 0.9204522076 0.3901710471
9900240600.0 0.9262986432 0.3784067847
9950240300.0 0.9334855477 0.3619225101
10000240000.0 0.9382181857 0.349805481
10050239700.0 0.9439655607 0.3341429968
10100239400.0 0.9491117081 0.3180070293
10150239100.0 0.954067121 0.3025317181
10200238800.0 0.9581120116 0.2874623673
10250238500.0 0.9614274676 0.2738459239
10300238200.0 0.9645683898 0.2599856777
10350237900.0 0.9673414764 0.2465476939
10400237600.0 0.9699344422 0.2332262322
10450237300.0 0.9726883606 0.2194179882
10500237000.0 0.9749232274 0.2075417332
10550236700.0 0.9773642647 0.1928895557
10600236400.0 0.9790278754 0.1794961703
10650236100.0 0.9813838812 0.1642788339
10700235800.0 0.9835078024 0.1526626647
10750235500.0 0.9861796316 0.1383280861
10800235200.0 0.9879798908 0.1242467604
10850234900.0 0.9900739912 0.1093661522
10900234600.0 0.9919973308 0.094761911
10950234300.0 0.9938828692 0.0813194577
11000234000.0 0.9955060922 0.0659477382
11050233700.0 0.9972707449 0.0493082011
11100233400.0 0.9988687204 0.0317542217
11150233100.0 0.9996192153 0.0150127679
11200232800.0 1.000513361 -0.0006836776
11250232500.0 1.001448779 -0.0177257469
11300232200.0 1.001598654 -0.0366942258
11350231900.0 1.001766222 -0.05264465
11400231600.0 1.001228041 -0.0674755163
11450231300.0 1.001283884 -0.0833021669
11500231000.0 0.999162404 -0.0990185139
11550230700.0 0.998361969 -0.1127685608
11600230400.0 0.9964612194 -0.1256308606
11650230100.0 0.9946367737 -0.1372994765
11700229800.0 0.992802426 -0.1525781711
11750229500.0 0.9904661714 -0.1662756852
11800229200.0 0.9873858183 -0.1802538173
11850228900.0 0.9836005196 -0.1918803926
11900228600.0 0.9800790296 -0.2017306642
11950228300.0 0.9765715855 -0.2118743354
12000228000.0 0.9741453699 -0.2207438712
12050227700.0 0.9702084319 -0.2333663
12100227400.0 0.9672564261 -0.2446994131
12150227100.0 0.9618490879 -0.26185512
12200226800.0 0.9579215387 -0.2722672112
12250226500.0 0.9544179484 -0.284983077
12300226200.0 0.9497288981 -0.2980670767
12350225900.0 0.9448915842 -0.3113942077
12400225600.0 0.9403938987 -0.3237314264
12450225300.0 0.9363019597 -0.3356224872
12500225000.0 0.930559063 -0.3510344645
12550224700.0 0.9253279366 -0.3647611209
12600224400.0 0.9204462852 -0.3774904163
12650224100.0 0.9145602432 -0.3917363304
12700223800.0 0.9093800864 -0.404672065
12750223500.0 0.9037996384 -0.4175841932
12800223200.0 0.8983354512 -0.4302754995
12850222900.0 0.8928633596 -0.4427261112
12900222600.0 0.8876878938 -0.4541653787
12950222300.0 0.881519267 -0.4668155887
13000222000.0 0.875473167 -0.4791328365
13050221700.0 0.8692199467 -0.4916119648
13100221400.0 0.8617875568 -0.5037005142
13150221100.0 0.8553451804 -0.5156318988
13200220800.0 0.8480117478 -0.5274063413
13250220500.0 0.8408761595 -0.5397777307
13300220200.0 0.8333417675 -0.5503110871
13350219900.0 0.8254083238 -0.5624251507
13400219600.0 0.8167228132 -0.5740723452
13450219300.0 0.8075467826 -0.5872170657
13500219000.0 0.7980213027 -0.6003823412
13550218700.0 0.7876963798 -0.6134355476
13600218400.0 0.7779306662 -0.6251430086
13650218100.0 0.7684385906 -0.6355304932
13700217800.0 0.7578583433 -0.6479435508
13750217500.0 0.7482586463 -0.6589519684
13800217200.0 0.736494507 -0.6700677982
13850216900.0 0.7255106208 -0.6818612476
13900216600.0 0.7163573467 -0.6902481837
13950216300.0 0.7053596976 -0.7002527241
14000216000.0 0.6953822074 -0.7098800094
14050215700.0 0.6858540712 -0.7178922552
14100215400.0 0.6766606236 -0.7266461773
14150215100.0 0.6673260631 -0.7354874662
14200214800.0 0.657889219 -0.7442540847
14250214500.0 0.6474988534 -0.7535501979
14300214200.0 0.6369662648 -0.7630560518
14350213900.0 0.6260094518 -0.772600384
14400213600.0 0.6141407755 -0.7824514316
14450213300.0 0.6009873041 -0.7923614364
14500213000.0 0.5877320384 -0.8028166804
14550212700.0 0.5755278752 -0.8121676519
14600212400.0 0.5635447307 -0.820302167
14650212100.0 0.5504264337 -0.8292832883
14700211800.0 0.5370086753 -0.8393640626
14750211500.0 0.5244498949 -0.8475255083
14800211200.0 0.5120434206 -0.855476587
14850210900.0 0.4998614116 -0.8632204652
14900210600.0 0.4864237115 -0.8710120201
14950210300.0 0.4732252974 -0.8785301828
15000210000.0 0.4607149362 -0.8854139923
15050209700.0 0.4480881437 -0.8914639465
15100209400.0 0.4353930199 -0.8972745782
15150209100.0 0.4229494148 -0.9028946811
15200208800.0 0.4106297832 -0.9083657915
15250208500.0 0.4000131581 -0.9125851823
15300208200.0 0.3868356704 -0.916705431
15350207900.0 0.3743745286 -0.9226319797
15400207600.0 0.3593462657 -0.9277403786
15450207300.0 0.3452753001 -0.931613355
15500207000.0 0.3299722141 -0.937311103
15550206700.0 0.3151948661 -0.9424896217
15600206400.0 0.2992808564 -0.9466444999
15650206100.0 0.2839009518 -0.9509733557
15700205800.0 0.2701703856 -0.9541152343
15750205500.0 0.2560664865 -0.957826543
15800205200.0 0.2418528361 -0.9613209751
15850204900.0 0.2277059839 -0.9648316194
15900204600.0 0.2126108569 -0.9685143698
15950204300.0 0.1982368348 -0.9713811708
16000204000.0 0.1839665771 -0.9746558587
16050203700.0 0.1688041334 -0.9772814354
16100203400.0 0.1541062133 -0.9797113817
16150203100.0 0.1393942011 -0.9821458494
16200202800.0 0.124901947 -0.9843470946
16250202500.0 0.1103009124 -0.9855807937
16300202200.0 0.0949110546 -0.987588698
16350201900.0 0.0798466651 -0.9888730151
16400201600.0 0.065326377 -0.990235188
16450201300.0 0.0496224138 -0.9912819852
16500201000.0 0.0329478638 -0.9920144796
16550200700.0 0.0168557704 -0.9926088485
16600200400.0 0.0009677861 -0.9927346144
16650200100.0 -0.0152492813 -0.9925321134
16700199800.0 -0.0312224569 -0.9921261122
16750199500.0 -0.0502796496 -0.9917825531
16800199200.0 -0.0664197888 -0.9910742835
16850198900.0 -0.0817259778 -0.9895640562
16900198600.0 -0.0953096586 -0.9882332911
16950198300.0 -0.1094671999 -0.9871267569
17000198000.0 -0.1222082539 -0.9860304925
17050197700.0 -0.1347740683 -0.9841599993
17100197400.0 -0.1482468526 -0.9822588457
17150197100.0 -0.1608930468 -0.9807261485
17200196800.0 -0.1732262852 -0.9778993864
17250196500.0 -0.1864641009 -0.9757633067
17300196200.0 -0.1986669572 -0.9732962552
17350195900.0 -0.2106510347 -0.9708825414
17400195600.0 -0.2224854933 -0.9683257725
17450195300.0 -0.235312562 -0.9655671459
17500195000.0 -0.2486856195 -0.9623460305
17550194700.0 -0.2626699583 -0.958667266
17600194400.0 -0.276427876 -0.9547551482
17650194100.0 -0.290016683 -0.9506171383
17700193800.0 -0.3027785926 -0.9463163542
17750193500.0 -0.3173970874 -0.9416621252
17800193200.0 -0.3315344829 -0.936571328
17850192900.0 -0.3462984328 -0.9314270101
17900192600.0 -0.3616965758 -0.9252818474
17950192300.0 -0.3771587079 -0.9183239417
18000192000.0 -0.3916602246 -0.9108996526
18050191700.0 -0.4057887934 -0.9028293713
18100191400.0 -0.4198017918 -0.8953394218
18150191100.0 -0.4348115225 -0.8873107642
18200190800.0 -0.4514911232 -0.8782121453
18250190500.0 -0.468409936 -0.8687632761
18300190200.0 -0.4837947922 -0.8598769662
18350189900.0 -0.4992101842 -0.85138419
18400189600.0 -0.5136575828 -0.8432852714
18450189300.0 -0.5273273678 -0.8347555106
18500189000.0 -0.5402646432 -0.8268760914
18550188700.0 -0.5532298473 -0.8192036869
18600188400.0 -0.5647234146 -0.8122891584
18650188100.0 -0.5766260698 -0.8061701389
18700187800.0 -0.587449063 -0.7993815436
18750187500.0 -0.5984178824 -0.7928869915
18800187200.0 -0.608720043 -0.7857346585
18850186900.0 -0.6191524123 -0.7789448238
18900186600.0 -0.6293729054 -0.7715172744
18950186300.0 -0.6396352839 -0.7637886114
19000186000.0 -0.6469788577 -0.7574345843
19050185700.0 -0.65636463 -0.7508150065
19100185400.0 -0.6661647956 -0.7425264424
19150185100.0 -0.6760960771 -0.733905257
19200184800.0 -0.6852601601 -0.7255254491
19250184500.0 -0.6959118541 -0.7163711114
19300184200.0 -0.7069739241 -0.7066391522
19350183900.0 -0.7182865545 -0.6965721758
19400183600.0 -0.7275472932 -0.6871147958
19450183300.0 -0.7371276336 -0.6767930536
19500183000.0 -0.7449579662 -0.6673798642
19550182700.0 -0.7548784825 -0.65636193
19600182400.0 -0.7648387168 -0.6447261824
19650182100.0 -0.7753639509 -0.6320032535
19700181800.0 -0.7858985375 -0.618899226
19750181500.0 -0.7964380356 -0.6049012103
19800181200.0 -0.8066873313 -0.5899310169
19850180900.0 -0.8162594534 -0.5747081904
19900180600.0 -0.8239833894 -0.5600895177
19950180300.0 -0.8332574456 -0.5438366324
20000180000.0 -0.8241471793 -0.5471508842
20050179700.0 -0.8324111612 -0.534346652
20100179400.0 -0.8402942202 -0.5213398272
20150179100.0 -0.8486226827 -0.5090201441
20200178800.0 -0.8577617838 -0.4979352282
20250178500.0 -0.8664373351 -0.4846216001
20300178200.0 -0.8756950268 -0.4705429663
20350177900.0 -0.8856476537 -0.4558973401
20400177600.0 -0.8944762118 -0.441911914
20450177300.0 -0.9026974934 -0.4278398163
20500177000.0 -0.9110765257 -0.4140987472
20550176700.0 -0.9186401482 -0.4003446952
20600176400.0 -0.9257164531 -0.3873017765
20650176100.0 -0.932117699 -0.3754484901
20700175800.0 -0.9387525923 -0.3629220502
20750175500.0 -0.94484273 -0.3516557207
20800175200.0 -0.9490113236 -0.3408934832
20850174900.0 -0.9551101524 -0.3297482048
20900174600.0 -0.9593668143 -0.3193361451
20950174300.0 -0.9631186938 -0.3077217092
21000174000.0 -0.9654657282 -0.2965948794
21050173700.0 -0.9669437728 -0.2875993892
21100173400.0 -0.9708413336 -0.276208906
21150173100.0 -0.97472699 -0.2643568959
21200172800.0 -0.9785278469 -0.2511757265
21250172500.0 -0.982074666 -0.2374058402
21300172200.0 -0.9854059502 -0.2234990522
21350171900.0 -0.9871039611 -0.2087329052
21400171600.0 -0.9886964243 -0.1946606577
21450171300.0 -0.989717448 -0.1801515535
21500171000.0 -0.9897133332 -0.1651773042
21550170700.0 -0.99090206 -0.1507316735
21600170400.0 -0.9911124685 -0.1346404253
21650170100.0 -0.9904063599 -0.1191589362
21700169800.0 -0.9908018985 -0.1031106477
21750169500.0 -0.9911066726 -0.0864523326
21800169200.0 -0.9897617844 -0.0703213545
21850168900.0 -0.989671765 -0.0540282008
21900168600.0 -0.9892447956 -0.0378710402
21950168300.0 -0.9883307119 -0.0218105533
22000168000.0 -0.988408847 -0.0069195207
22050167700.0 -0.987958974 0.0076555398
22100167400.0 -0.9886549141 0.0231476862
22150167100.0 -0.989437516 0.0390218525
22200166800.0 -0.9903881126 0.0551464907
22250166500.0 -0.9899387596 0.0725297584
22300166200.0 -0.9891819314 0.0893568579
22350165900.0 -0.988141958 0.1064371089
22400165600.0 -0.9861424458 0.1207923964
22450165300.0 -0.9835594303 0.1355831981
22500165000.0 -0.9825048891 0.1501821075
22550164700.0 -0.981115742 0.1661116051
22600164400.0 -0.9790732291 0.1816460216
22650164100.0 -0.9761619395 0.1974490667
22700163800.0 -0.9733485936 0.2137465567
22750163500.0 -0.9705698735 0.2286186873
22800163200.0 -0.96770828 0.2415647575
22850162900.0 -0.9649956154 0.2547480385
22900162600.0 -0.9634579733 0.2685948754
22950162300.0 -0.9617898194 0.2820300698
23000162000.0 -0.959951877 0.2942778113
23050161700.0 -0.9575838151 0.3077248265
23100161400.0 -0.9548902554 0.3210294319
23150161100.0 -0.9519437892 0.3341232868
23200160800.0 -0.9488944332 0.3469457512
23250160500.0 -0.9464088572 0.358115585
23300160200.0 -0.9429023214 0.3713975821
23350159900.0 -0.9401129747 0.3853601194
23400159600.0 -0.9347309599 0.3988827555
23450159300.0 -0.9293846903 0.4124226932
23500159000.0 -0.9250208675 0.4257111016
23550158700.0 -0.9199543343 0.4392201741
23600158400.0 -0.9145904014 0.4531933075
23650158100.0 -0.9072645377 0.4678312939
23700157800.0 -0.8991049868 0.4820563064
23750157500.0 -0.8899834931 0.496111271
23800157200.0 -0.8806941505 0.5093487282
23850156900.0 -0.8709447224 0.5224371124
23900156600.0 -0.8616784173 0.5353990468
23950156300.0 -0.8517960619 0.5477713702
24000156000.0 -0.8426872275 0.5596177076
24050155700.0 -0.8323211118 0.5722039797
24100155400.0 -0.821314481 0.5841329972
24150155100.0 -0.8112727047 0.5968190209
24200154800.0 -0.7999730704 0.6082616463
24250154500.0 -0.7887040038 0.6202466447
24300154200.0 -0.7771382238 0.6318203343
24350153900.0 -0.7654689971 0.6431711352
24400153600.0 -0.7529584499 0.6533080296
24450153300.0 -0.7412728209 0.6637138329
24500153000.0 -0.7293974121 0.6739634859
24550152700.0 -0.7180192117 0.6838845499
24600152400.0 -0.7067731112 0.6927884729
24650152100.0 -0.6943813569 0.700534856
