!Created with skrf (http://scikit-rf.org).
# Hz S RI R 50.0 
!freq ReS11 ImS11
300000.0 -0.9742830795 -0.1200349858
50299700.0 -0.9998707475 0.0151069071
100299400.0 -0.9981093892 0.0281098719
150299100.0 -1.002785268 0.0450366666
200298800.0 -0.9996990179 0.0583807867
250298500.0 -0.9974542854 0.0718092369
300298200.0 -0.9860291261 0.087537893
350297900.0 -0.9940310326 0.0983793663
400297600.0 -0.9933134615 0.1150788386
450297300.0 -0.9910105999 0.1289159427
500297000.0 -0.9894715455 0.1436822797
550296700.0 -0.9843634178 0.1561322255
600296400.0 -1.017448357 0.1893861789
650296100.0 -0.9820724789 0.1860969782
700295800.0 -0.9793257477 0.2001181948
750295500.0 -0.9764383574 0.2143248622
800295200.0 -0.9730417602 0.2284012327
850294900.0 -0.969553785 0.242209786
900294600.0 -0.9659680186 0.2558298909
950294300.0 -0.9621879759 0.2695244283
1000294000.0 -0.9581990189 0.283463732
1050293700.0 -0.9536646332 0.2971591937
1100293400.0 -0.949537403 0.3117407547
1150293100.0 -0.9455125401 0.3235175032
1200292800.0 -0.94014743 0.3379161786
1250292500.0 -0.9347526193 0.3514824991
1300292200.0 -0.9291445154 0.3646232042
1350291900.0 -0.923458104 0.378587464
1400291600.0 -0.917985348 0.3919030548
1450291300.0 -0.912530028 0.4042094848
1500291000.0 -0.9063101648 0.4175180376
1550290700.0 -0.8996406954 0.4310401619
1600290400.0 -0.8935815457 0.4438272406
1650290100.0 -0.8870776308 0.4559435959
1700289800.0 -0.879820579 0.469443734
1750289500.0 -0.8727738612 0.4814953715
1800289200.0 -0.8654668666 0.4946362586
1850288900.0 -0.8587774129 0.5059131098
1900288600.0 -0.8510568582 0.5190504712
1950288300.0 -0.8426862576 0.5315293318
2000288000.0 -0.8356721066 0.5428244454
2050287700.0 -0.8271602399 0.5553593302
2100287400.0 -0.8193647549 0.5667800095
2150287100.0 -0.8107125756 0.5787548045
2200286800.0 -0.8028754869 0.5891679903
2250286500.0 -0.7941381992 0.6013695693
2300286200.0 -0.7852155354 0.6128234057
2350285900.0 -0.7765703155 0.6238418375
2400285600.0 -0.7675946745 0.6346200966
2450285300.0 -0.758978049 0.6451893247
2500285000.0 -0.7494438123 0.6566755962
2550284700.0 -0.7403306697 0.6670827851
2600284400.0 -0.7309076072 0.6770880001
2650284100.0 -0.7222195246 0.6874644964
2700283800.0 -0.7116594114 0.6981062125
2750283500.0 -0.7013135618 0.7086698368
2800283200.0 -0.6913470707 0.7181041772
2850282900.0 -0.6811967455 0.7285638624
2900282600.0 -0.6705930994 0.7378963083
2950282300.0 -0.6604063368 0.7472048398
3000282000.0 -0.6497807698 0.7566185344
3050281700.0 -0.638619282 0.765999353
3100281400.0 -0.6268183075 0.7751347835
3150281100.0 -0.6152470111 0.784295186
3200280800.0 -0.6035648166 0.7927986588
3250280500.0 -0.5927169347 0.8007113033
3300280200.0 -0.5812573365 0.8086622466
3350279900.0 -0.569472469 0.8164700591
3400279600.0 -0.5571706726 0.8242060168
3450279300.0 -0.5460943153 0.8312773958
3500279000.0 -0.5343643816 0.8384752998
3550278700.0 -0.5219564235 0.8455713147
3600278400.0 -0.5097444507 0.8525627196
3650278100.0 -0.4964712622 0.8601815568
3700277800.0 -0.4846471311 0.8667762519
3750277500.0 -0.472388059 0.8732275051
3800277200.0 -0.4599313503 0.8798580041
3850276900.0 -0.4479591881 0.8855691096
3900276600.0 -0.4369787519 0.8913514523
3950276300.0 -0.4246454784 0.8974445533
4000276000.0 -0.412575315 0.9033288526
4050275700.0 -0.3999552141 0.9095441071
4100275400.0 -0.3887611157 0.9146667577
4150275100.0 -0.3759133455 0.9205884555
4200274800.0 -0.3628665253 0.9261379463
4250274500.0 -0.3505204138 0.9314094657
4300274200.0 -0.337197118 0.9366519568
4350273900.0 -0.323515023 0.9418613814
4400273600.0 -0.3086822292 0.947186095
4450273300.0 -0.2933971389 0.9522384625
4500273000.0 -0.2799953347 0.95645917
4550272700.0 -0.2661188519 0.9606900913
4600272400.0 -0.2506475964 0.9647587512
4650272100.0 -0.2390887148 0.968053266
4700271800.0 -0.2258383107 0.9714341262
4750271500.0 -0.214077706 0.9743313016
4800271200.0 -0.2017457676 0.9770363856
4850270900.0 -0.1878989468 0.9797685605
4900270600.0 -0.1741557226 0.9822955235
4950270300.0 -0.1595515553 0.9848790274
5000270000.0 -0.1454335395 0.9869472471
5050269700.0 -0.1318592611 0.9884830597
5100269400.0 -0.1181205394 0.9902059278
5150269100.0 -0.104583234 0.9919907332
5200268800.0 -0.090903354 0.9934021619
5250268500.0 -0.0779580537 0.993920312
5300268200.0 -0.0649189771 0.99430927
5350267900.0 -0.0525042167 0.9953605993
5400267600.0 -0.0361168694 0.996264706
5450267300.0 -0.0230202001 0.996767355
5500267000.0 -0.0078724174 0.9970101284
5550266700.0 0.0071476436 0.9971826839
5600266400.0 0.0227739262 0.9970550898
5650266100.0 0.0390329982 0.9970586886
5700265800.0 0.0534687621 0.9962619808
5750265500.0 0.0689886899 0.9956349711
5800265200.0 0.0823387296 0.9944099186
5850264900.0 0.09582895 0.9935840778
5900264600.0 0.1122934879 0.9915375682
5950264300.0 0.1242932336 0.9902660692
6000264000.0 0.1380812871 0.9880127747
6050263700.0 0.150212324 0.9868529115
6100263400.0 0.1627768236 0.9852443912
6150263100.0 0.1771188423 0.9827093946
6200262800.0 0.1875095043 0.9809899628
6250262500.0 0.1999756172 0.9786193378
6300262200.0 0.2126656143 0.9761136388
6350261900.0 0.2257103854 0.9729799018
6400261600.0 0.2396870252 0.9700284992
6450261300.0 0.250786665 0.9672299592
6500261000.0 0.2638149588 0.9636595107
6550260700.0 0.2768388204 0.9596836774
6600260400.0 0.2901106504 0.95543896
6650260100.0 0.3043639228 0.951154924
6700259800.0 0.3160634872 0.9467392282
6750259500.0 0.329986194 0.9418943498
6800259200.0 0.3433481498 0.9369316982
6850258900.0 0.3553166471 0.9317287225
6900258600.0 0.3675950662 0.9266180977
6950258300.0 0.3803168481 0.9212591917
7000258000.0 0.3921237846 0.9158816621
7050257700.0 0.4042722401 0.9100848915
7100257400.0 0.41708093 0.9037846479
7150257100.0 0.4276683504 0.8983393822
7200256800.0 0.4405910781 0.8920159072
7250256500.0 0.4528404472 0.8855707429
7300256200.0 0.4657240741 0.8786744865
7350255900.0 0.4786587707 0.8721497745
7400255600.0 0.4921110387 0.8647375643
7450255300.0 0.507406495 0.8557521393
7500255000.0 0.5189600943 0.8483077603
7550254700.0 0.5331378145 0.8396646131
7600254400.0 0.5456895728 0.8313852068
7650254100.0 0.5570981941 0.8235393044
7700253800.0 0.5691624262 0.8156004251
7750253500.0 0.5801945022 0.80799628
7800253200.0 0.5908552348 0.8002027704
7850252900.0 0.6005830927 0.7930958977
7900252600.0 0.6121476746 0.7843571568
7950252300.0 0.620912895 0.7779992702
8000252000.0 0.6308246043 0.7702184801
8050251700.0 0.6414228606 0.7619499397
8100251400.0 0.6514403404 0.7539172259
8150251100.0 0.6612625734 0.7453897081
8200250800.0 0.6707555131 0.7373780585
8250250500.0 0.6796578118 0.7295756576
8300250200.0 0.6891908031 0.7206411375
8350249900.0 0.6982153376 0.7121222908
8400249600.0 0.7060436115 0.7039513506
8450249300.0 0.7153005598 0.6951606383
8500249000.0 0.7239837833 0.686141354
8550248700.0 0.7321624947 0.6771358495
8600248400.0 0.7406683635 0.6675616167
8650248100.0 0.7483127521 0.6583086031
8700247800.0 0.7579025316 0.6470766304
8750247500.0 0.766198582 0.6369792472
8800247200.0 0.7743491029 0.6265345081
8850246900.0 0.7830803195 0.6150403942
8900246600.0 0.7913263774 0.6036918002
8950246300.0 0.8010183064 0.5908086523
9000246000.0 0.8098443888 0.578195554
9050245700.0 0.8188707948 0.5657864196
9100245400.0 0.8275435978 0.5534645462
9150245100.0 0.8367944795 0.539690343
9200244800.0 0.8463637114 0.5250245069
9250244500.0 0.8557556035 0.5098735745
9300244200.0 0.8639755776 0.4955358433
9350243900.0 0.8716022378 0.4817711927
9400243600.0 0.8784056647 0.4696803226
9450243300.0 0.8842434159 0.4583935079
9500243000.0 0.8903598614 0.446309863
9550242700.0 0.8942284754 0.4387423946
9600242400.0 0.8982584481 0.4316093689
9650242100.0 0.9021387681 0.4246536261
9700241800.0 0.9072397025 0.4161487024
9750241500.0 0.9107764501 0.4085512728
9800241200.0 0.91570775 0.3996693358
9850240900.0 0.9211305547 0.3878877683
9900240600.0 0.9268524661 0.3765427246
9950240300.0 0.9337534098 0.359947657
10000240000.0 0.9387581419 0.34811509
10050239700.0 0.944396803 0.3325670734
10100239400.0 0.9491423201 0.317260598
10150239100.0 0.9539737336 0.3019734146
10200238800.0 0.9580729415 0.2868248579
10250238500.0 0.9613988644 0.2735192297
10300238200.0 0.9646361702 0.2596325881
10350237900.0 0.9672070917 0.2463215951
10400237600.0 0.9698375493 0.2330805025
10450237300.0 0.9726007404 0.2193543584
10500237000.0 0.9748947541 0.2068565378
10550236700.0 0.9771556439 0.1927131821
10600236400.0 0.9789104483 0.1796517503
10650236100.0 0.9809733061 0.1642903485
10700235800.0 0.9839339942 0.1519883955
10750235500.0 0.9856977977 0.1384753743
10800235200.0 0.9878749431 0.124748793
10850234900.0 0.989649663 0.1098140596
10900234600.0 0.991822369 0.095023885
10950234300.0 0.9935004074 0.082034354
11000234000.0 0.9953136705 0.0666131792
11050233700.0 0.9969865467 0.0500796011
11100233400.0 0.9984795003 0.0328499437
11150233100.0 0.9996539844 0.0163236963
11200232800.0 1.000277158 0.0007215076
11250232500.0 1.001318151 -0.0157117328
11300232200.0 1.001923752 -0.0338498312
11350231900.0 1.002173824 -0.0492101166
11400231600.0 1.001578256 -0.0653070149
11450231300.0 1.001536225 -0.0814402879
11500231000.0 0.9998027182 -0.0960478064
11550230700.0 0.9987045599 -0.1106255343
11600230400.0 0.9972256294 -0.1233498784
11650230100.0 0.9946247323 -0.1350818763
11700229800.0 0.9929352062 -0.1492480398
11750229500.0 0.9907956054 -0.1634276213
11800229200.0 0.9880774169 -0.1770510433
11850228900.0 0.984498232 -0.1892249249
11900228600.0 0.9807924855 -0.1986583682
11950228300.0 0.9774678396 -0.2094291637
12000228000.0 0.9744763419 -0.2181134255
12050227700.0 0.9713978448 -0.230870075
12100227400.0 0.9678273668 -0.2419102324
12150227100.0 0.9624008023 -0.2590074721
12200226800.0 0.9598286786 -0.2696479619
12250226500.0 0.9547556354 -0.2829427399
12300226200.0 0.9508610441 -0.2950697425
12350225900.0 0.9462867075 -0.3092242894
12400225600.0 0.9420476163 -0.321457447
12450225300.0 0.937773653 -0.3341577873
12500225000.0 0.9317079592 -0.3495138048
12550224700.0 0.9262922945 -0.3626421692
12600224400.0 0.9215494325 -0.3756253458
12650224100.0 0.9158011013 -0.3902140522
12700223800.0 0.9105229735 -0.4028851254
12750223500.0 0.9051533456 -0.4158955777
12800223200.0 0.8997297805 -0.4284484819
12850222900.0 0.893928695 -0.4411798546
12900222600.0 0.8885675894 -0.4525533706
12950222300.0 0.8822065863 -0.465498214
13000222000.0 0.8765898099 -0.4771091939
13050221700.0 0.869814516 -0.4892962023
13100221400.0 0.8630678338 -0.5020587376
13150221100.0 0.8563674855 -0.5138210795
13200220800.0 0.8493385095 -0.5253640356
13250220500.0 0.8420242222 -0.5374489227
13300220200.0 0.8345270256 -0.5484078912
13350219900.0 0.8263986847 -0.5602683665
13400219600.0 0.8182910286 -0.5723531794
13450219300.0 0.8087673479 -0.5856925575
13500219000.0 0.7990959655 -0.5992761335
13550218700.0 0.7888835092 -0.6118759497
13600218400.0 0.7786165588 -0.6240799016
13650218100.0 0.7691759745 -0.6355046052
13700217800.0 0.7592227626 -0.6470500679
13750217500.0 0.7486910373 -0.65849569
13800217200.0 0.7361993828 -0.6701804011
13850216900.0 0.7262220802 -0.6814371242
13900216600.0 0.7163996015 -0.690652501
13950216300.0 0.7052942287 -0.7004521466
14000216000.0 0.6959548455 -0.7095928979
14050215700.0 0.6863034518 -0.7178214302
14100215400.0 0.6763356733 -0.7274231796
14150215100.0 0.6671297025 -0.7360040752
14200214800.0 0.6578942641 -0.7445596567
14250214500.0 0.6476017452 -0.7538254271
14300214200.0 0.6372597431 -0.7631567166
14350213900.0 0.6259275802 -0.7728386196
14400213600.0 0.6137616008 -0.7828408979
14450213300.0 0.6011455876 -0.7927259478
14500213000.0 0.5879605689 -0.8030135527
14550212700.0 0.5760073046 -0.8122287653
14600212400.0 0.56346886 -0.8205369457
14650212100.0 0.5501884908 -0.8292962685
14700211800.0 0.5366071349 -0.8391965917
14750211500.0 0.5241927656 -0.847305207
14800211200.0 0.5120026024 -0.8554153232
14850210900.0 0.5000920916 -0.8631854443
14900210600.0 0.4866328532 -0.8708923856
14950210300.0 0.4732129434 -0.878521067
15000210000.0 0.4606785276 -0.8852800688
15050209700.0 0.4482069859 -0.891345472
15100209400.0 0.4355630069 -0.897291197
15150209100.0 0.4233411813 -0.903174727
15200208800.0 0.4105757676 -0.9086647419
15250208500.0 0.3996707816 -0.9133150932
15300208200.0 0.3878931764 -0.9175770519
15350207900.0 0.374377471 -0.9220445626
15400207600.0 0.359659263 -0.9271741114
15450207300.0 0.344377219 -0.9329192818
15500207000.0 0.3306826477 -0.9371003339
15550206700.0 0.3150334071 -0.9418859127
15600206400.0 0.2999602867 -0.9465292345
15650206100.0 0.2839220627 -0.9510449249
15700205800.0 0.2699272535 -0.9548514677
15750205500.0 0.2556596264 -0.9583046503
15800205200.0 0.2413608298 -0.9616668268
15850204900.0 0.2270133172 -0.9652173426
15900204600.0 0.2119319067 -0.9688152227
15950204300.0 0.1977273605 -0.9720186
16000204000.0 0.1833308827 -0.9746057706
16050203700.0 0.1681517767 -0.9779286332
16100203400.0 0.1539424423 -0.9800140892
16150203100.0 0.1390838345 -0.9823288785
16200202800.0 0.1248403402 -0.9846941901
16250202500.0 0.1097603052 -0.9859653824
16300202200.0 0.0951438593 -0.9874157755
16350201900.0 0.0801298748 -0.9890998441
16400201600.0 0.0653596345 -0.9903672598
16450201300.0 0.0497425079 -0.9911608639
16500201000.0 0.0331089675 -0.9920567809
16550200700.0 0.0172550351 -0.9925002832
16600200400.0 0.0013157573 -0.9929002884
16650200100.0 -0.0144103641 -0.9929854303
16700199800.0 -0.0309610806 -0.9924459911
16750199500.0 -0.0493491015 -0.9917442618
16800199200.0 -0.0659341468 -0.9906499204
16850198900.0 -0.0804304146 -0.9895455989
16900198600.0 -0.0951960268 -0.988513281
16950198300.0 -0.108310946 -0.9877177644
17000198000.0 -0.1211713358 -0.986549091
17050197700.0 -0.1337702316 -0.9846480061
17100197400.0 -0.1463944238 -0.9821425438
17150197100.0 -0.1588287305 -0.980392934
17200196800.0 -0.1720985538 -0.9781403819
17250196500.0 -0.184828672 -0.9755348741
17300196200.0 -0.1968337867 -0.9734817387
17350195900.0 -0.2088686583 -0.9712251475
17400195600.0 -0.2211777711 -0.968718303
17450195300.0 -0.2342791778 -0.9659273073
17500195000.0 -0.2475656513 -0.9626768423
17550194700.0 -0.2616563951 -0.9590941601
17600194400.0 -0.2753818614 -0.9551255818
17650194100.0 -0.2890971122 -0.9509873593
17700193800.0 -0.3020707539 -0.9465858466
17750193500.0 -0.3166260824 -0.9420956205
17800193200.0 -0.3306772572 -0.9367461664
17850192900.0 -0.3457053529 -0.9313988838
17900192600.0 -0.3609165094 -0.9255875288
17950192300.0 -0.3763906793 -0.918225019
18000192000.0 -0.391324751 -0.9112802599
18050191700.0 -0.4053824829 -0.9031194405
18100191400.0 -0.4195121855 -0.8955492418
18150191100.0 -0.4344604126 -0.8874793372
18200190800.0 -0.4513824851 -0.878316485
18250190500.0 -0.4683008184 -0.8689249597
18300190200.0 -0.4835133694 -0.8602380214
18350189900.0 -0.4989130807 -0.8515496035
18400189600.0 -0.5131778792 -0.843739793
18450189300.0 -0.5270483033 -0.8357902008
18500189000.0 -0.5400780883 -0.8276000994
18550188700.0 -0.5528303178 -0.819943665
18600188400.0 -0.5649116576 -0.8132112402
18650188100.0 -0.5755181844 -0.8067946191
18700187800.0 -0.58650015 -0.800457456
18750187500.0 -0.5968894295 -0.793867718
18800187200.0 -0.6075359378 -0.7869269143
18850186900.0 -0.6175688053 -0.7799848988
18900186600.0 -0.6279811943 -0.7727038996
18950186300.0 -0.637882635 -0.7650090122
19000186000.0 -0.6452035335 -0.7586999197
19050185700.0 -0.6546518211 -0.7517617718
19100185400.0 -0.6641715868 -0.7433334124
19150185100.0 -0.6742424055 -0.7350889202
19200184800.0 -0.6837940631 -0.7270019081
19250184500.0 -0.6942818713 -0.7173633988
19300184200.0 -0.7058398889 -0.7074383215
19350183900.0 -0.7161149319 -0.6978017712
19400183600.0 -0.7264192033 -0.6879899747
19450183300.0 -0.7349917764 -0.6783023891
19500183000.0 -0.743024963 -0.6677434315
19550182700.0 -0.7534137346 -0.6569890498
19600182400.0 -0.7632589995 -0.6452028468
19650182100.0 -0.7742904762 -0.6333373833
19700181800.0 -0.7848836259 -0.6199516583
19750181500.0 -0.7954680305 -0.6056984563
19800181200.0 -0.8056948118 -0.5908613243
19850180900.0 -0.8153851282 -0.5753826931
19900180600.0 -0.823248634 -0.5609387586
19950180300.0 -0.8324596684 -0.5445143324
20000180000.0 -0.8249172107 -0.5471550507
20050179700.0 -0.833611379 -0.5339859617
20100179400.0 -0.8411533549 -0.5209436548
20150179100.0 -0.8497949675 -0.5087906631
20200178800.0 -0.858348832 -0.4955309876
20250178500.0 -0.8680531529 -0.4833133785
20300178200.0 -0.8771508192 -0.4685425774
20350177900.0 -0.886530291 -0.4542985366
20400177600.0 -0.8956084317 -0.4400081163
20450177300.0 -0.9039264312 -0.4254785874
20500177000.0 -0.9118739026 -0.411542746
20550176700.0 -0.9198123187 -0.3982696061
20600176400.0 -0.9265551181 -0.3850018949
20650176100.0 -0.9334277423 -0.3727453501
20700175800.0 -0.9400105911 -0.3604289319
20750175500.0 -0.9462425486 -0.3494761423
20800175200.0 -0.9509430431 -0.3387095039
20850174900.0 -0.9561670157 -0.3276111114
20900174600.0 -0.9602701759 -0.3173258085
20950174300.0 -0.9642858301 -0.3046148917
21000174000.0 -0.9673646221 -0.2939371257
21050173700.0 -0.9698809625 -0.2833501648
21100173400.0 -0.97359423 -0.272092274
21150173100.0 -0.9775468384 -0.2592173751
21200172800.0 -0.9813475004 -0.2466761385
21250172500.0 -0.9847771373 -0.2324304967
21300172200.0 -0.987474928 -0.2185252123
21350171900.0 -0.9893310208 -0.2042090974
21400171600.0 -0.9905627168 -0.1903165363
21450171300.0 -0.9917246365 -0.1757824614
21500171000.0 -0.9916283423 -0.1591981009
21550170700.0 -0.9911429457 -0.1450726483
21600170400.0 -0.9914575194 -0.1298216594
21650170100.0 -0.9918442974 -0.112088237
21700169800.0 -0.9890396694 -0.0984805484
21750169500.0 -0.9888048308 -0.0823486818
21800169200.0 -0.9888159832 -0.0658993107
21850168900.0 -0.9880774925 -0.0492870767
21900168600.0 -0.9875650112 -0.0329716045
21950168300.0 -0.9863774318 -0.0169956275
22000168000.0 -0.9855488628 -0.0018578765
22050167700.0 -0.9855612512 0.0124868402
22100167400.0 -0.9855598245 0.0279365168
22150167100.0 -0.9866703102 0.0433127367
22200166800.0 -0.9872046527 0.060342061
22250166500.0 -0.9857586198 0.0769137468
22300166200.0 -0.9861420608 0.0934595411
22350165900.0 -0.9839674631 0.1099929127
22400165600.0 -0.982874662 0.1257364468
22450165300.0 -0.9810420313 0.1412734057
22500165000.0 -0.9784565067 0.1553060254
22550164700.0 -0.9776367576 0.1706932178
22600164400.0 -0.976544078 0.1863127564
22650164100.0 -0.9736331394 0.2011990244
22700163800.0 -0.9710460404 0.2166315397
22750163500.0 -0.9684790386 0.231877426
22800163200.0 -0.966140241 0.2450172048
22850162900.0 -0.9625789786 0.2584872785
22900162600.0 -0.9612669495 0.2719711758
22950162300.0 -0.9599437636 0.2851532779
23000162000.0 -0.9589602279 0.2968764456
23050161700.0 -0.9565217278 0.3101465696
23100161400.0 -0.9543033124 0.3233451415
23150161100.0 -0.9511936758 0.3354437265
23200160800.0 -0.948028987 0.3481208853
23250160500.0 -0.945919654 0.3604448091
23300160200.0 -0.943325063 0.3729004315
23350159900.0 -0.9387041868 0.3860609241
23400159600.0 -0.9344249923 0.39945338
23450159300.0 -0.9291802996 0.4126496033
23500159000.0 -0.9244252315 0.4256261527
23550158700.0 -0.920129853 0.4390951139
23600158400.0 -0.9147010025 0.4529114976
23650158100.0 -0.9079240312 0.4669942321
23700157800.0 -0.9000700979 0.4813101864
23750157500.0 -0.8913310625 0.4954694248
23800157200.0 -0.8825046394 0.5085103052
23850156900.0 -0.8735793819 0.5211325661
23900156600.0 -0.8639801655 0.5338564848
23950156300.0 -0.8537663927 0.54669306
24000156000.0 -0.8449054693 0.5582892026
24050155700.0 -0.8354610118 0.570588874
24100155400.0 -0.8251149729 0.5827759225
24150155100.0 -0.8144032174 0.594415854
24200154800.0 -0.8036810773 0.6056360272
24250154500.0 -0.7921882656 0.6178157724
24300154200.0 -0.780369928 0.6294031249
24350153900.0 -0.7688859315 0.6400518322
24400153600.0 -0.7567268935 0.6504464429
24450153300.0 -0.7449926198 0.6608567727
24500153000.0 -0.7335728297 0.6707289252
24550152700.0 -0.7216325614 0.6803892118
24600152400.0 -0.7106608901 0.6895357062
24650152100.0 -0.69855547 0.6982344908
