!Created with skrf (http://scikit-rf.org).
# Hz S RI R 50.0 
!freq ReS11 ImS11
300000.0 -0.9944222852 -0.0423042512
50299700.0 -0.9992424752 0.0161746095
100299400.0 -0.9973112725 0.029005709
150299100.0 -1.002046981 0.0456721174
200298800.0 -0.9989628566 0.0589825891
250298500.0 -0.9966103443 0.0724474253
300298200.0 -0.985215624 0.0880682751
350297900.0 -0.9931299258 0.0988835448
400297600.0 -0.9922624576 0.115422727
450297300.0 -0.9898237575 0.1292666684
500297000.0 -0.9881735736 0.1437121753
550296700.0 -0.9830479357 0.1560460469
600296400.0 -1.015994265 0.1894448262
650296100.0 -0.9807747217 0.1856206069
700295800.0 -0.9778263053 0.2000022181
750295500.0 -0.9747310982 0.2142607629
800295200.0 -0.9713224796 0.2281262274
850294900.0 -0.9681652833 0.241659636
900294600.0 -0.9643851963 0.2555516758
950294300.0 -0.9605168696 0.269072865
1000294000.0 -0.9567983689 0.282920672
1050293700.0 -0.952306134 0.2965156612
1100293400.0 -0.9481289432 0.3112336532
1150293100.0 -0.9443523193 0.3229688202
1200292800.0 -0.9389632246 0.337209881
1250292500.0 -0.9336449116 0.3507579154
1300292200.0 -0.9280829046 0.3636826988
1350291900.0 -0.9224808164 0.3777409667
1400291600.0 -0.9172110905 0.3909570353
1450291300.0 -0.9118856566 0.4029752336
1500291000.0 -0.9055804698 0.4164104948
1550290700.0 -0.8991298423 0.4298404782
1600290400.0 -0.8929949338 0.4426857804
1650290100.0 -0.8865643137 0.4547705508
1700289800.0 -0.8796117425 0.4681053945
1750289500.0 -0.8727093724 0.4804072468
1800289200.0 -0.8655607225 0.4930490894
1850288900.0 -0.8587251868 0.5043587438
1900288600.0 -0.851194811 0.5176051974
1950288300.0 -0.8430615935 0.5301341957
2000288000.0 -0.8355826792 0.5417394218
2050287700.0 -0.8274044845 0.5537961803
2100287400.0 -0.8193865156 0.5652681366
2150287100.0 -0.8109012232 0.5776103581
2200286800.0 -0.8030772072 0.5879347151
2250286500.0 -0.7944056675 0.5999522672
2300286200.0 -0.7855625162 0.6113773059
2350285900.0 -0.7769938025 0.6222832293
2400285600.0 -0.7680122183 0.6335327539
2450285300.0 -0.7589617365 0.6439546506
2500285000.0 -0.7494627794 0.6549026616
2550284700.0 -0.7403999497 0.665429355
2600284400.0 -0.730543455 0.6756903975
2650284100.0 -0.7222264597 0.6861344352
2700283800.0 -0.7116122398 0.6966189667
2750283500.0 -0.7016502122 0.707048255
2800283200.0 -0.6914382005 0.7167442571
2850282900.0 -0.6811546867 0.7265425246
2900282600.0 -0.6708977387 0.7359355333
2950282300.0 -0.6607282201 0.745368065
3000282000.0 -0.6500236357 0.7547400849
3050281700.0 -0.6390175853 0.7639403632
3100281400.0 -0.627832913 0.7729075738
3150281100.0 -0.6164899169 0.78199255
3200280800.0 -0.6049490455 0.7907840009
3250280500.0 -0.5938353597 0.7988576155
3300280200.0 -0.5824852844 0.8069338795
3350279900.0 -0.571489574 0.8145997251
3400279600.0 -0.5593352161 0.8226489795
3450279300.0 -0.5480756268 0.8301649419
3500279000.0 -0.5360252263 0.8373433098
3550278700.0 -0.5239695243 0.8444447671
3600278400.0 -0.5125511499 0.8516536078
3650278100.0 -0.4993051088 0.8592633351
3700277800.0 -0.487500583 0.8660625467
3750277500.0 -0.4752541396 0.8725660207
3800277200.0 -0.4627052141 0.8792113171
3850276900.0 -0.4504784355 0.8853629844
3900276600.0 -0.4388608021 0.8911470354
3950276300.0 -0.4260451405 0.897366914
4000276000.0 -0.4138667432 0.903381185
4050275700.0 -0.4007952021 0.9095900644
4100275400.0 -0.3892121077 0.9148583586
4150275100.0 -0.3765179678 0.9205409281
4200274800.0 -0.3629767759 0.9260165214
4250274500.0 -0.3506692551 0.9312172786
4300274200.0 -0.3380075124 0.9360308729
4350273900.0 -0.3242925911 0.941211405
4400273600.0 -0.310251759 0.9459738802
4450273300.0 -0.2955041225 0.9507568824
4500273000.0 -0.2823850268 0.9550049497
4550272700.0 -0.2687554157 0.9591192936
4600272400.0 -0.2535139195 0.9630859605
4650272100.0 -0.24144271 0.9664014317
4700271800.0 -0.2280900155 0.9698019994
4750271500.0 -0.215353302 0.9727223059
4800271200.0 -0.2023128286 0.9756781535
4850270900.0 -0.1885905238 0.9784027262
4900270600.0 -0.1750577175 0.9808647012
4950270300.0 -0.161400144 0.9831599804
5000270000.0 -0.1474097502 0.9852905271
5050269700.0 -0.1337531586 0.9872175739
5100269400.0 -0.1198604839 0.989094008
5150269100.0 -0.1063419375 0.9908378142
5200268800.0 -0.0926651323 0.9920303577
5250268500.0 -0.0799782307 0.9933048242
5300268200.0 -0.0661232138 0.9940941019
5350267900.0 -0.0541173849 0.9946092974
5400267600.0 -0.0378585834 0.9959157901
5450267300.0 -0.0256855755 0.9959122301
5500267000.0 -0.0111310709 0.9964179466
5550266700.0 0.0027229813 0.9963524991
5600266400.0 0.0178203206 0.9965775881
5650266100.0 0.0333939891 0.9961555822
5700265800.0 0.0475923756 0.9955408509
5750265500.0 0.0623299816 0.9953352261
5800265200.0 0.0758293987 0.9936095387
5850264900.0 0.0891240255 0.9930269752
5900264600.0 0.1054054214 0.9915597232
5950264300.0 0.1177789874 0.9900447825
6000264000.0 0.1317419537 0.9879866861
6050263700.0 0.1444008264 0.9865134869
6100263400.0 0.1574679683 0.9843994284
6150263100.0 0.1727376429 0.9820470763
6200262800.0 0.1836436916 0.9800564989
6250262500.0 0.1967746937 0.9777701267
6300262200.0 0.2094741195 0.9749576137
6350261900.0 0.2225921247 0.9721908006
6400261600.0 0.2368143355 0.9686808388
6450261300.0 0.2484634513 0.9659552971
6500261000.0 0.2613898273 0.9623135741
6550260700.0 0.2746055918 0.958620232
6600260400.0 0.287575376 0.9546619826
6650260100.0 0.3014411595 0.9505393154
6700259800.0 0.3136033691 0.9463773164
6750259500.0 0.327066986 0.9418239911
6800259200.0 0.3405049005 0.936970245
6850258900.0 0.3521776763 0.9319703727
6900258600.0 0.364999579 0.9271939455
6950258300.0 0.3774762895 0.9218502976
7000258000.0 0.3896876927 0.9166623545
7050257700.0 0.4015536547 0.9111907982
7100257400.0 0.4149627198 0.9049065801
7150257100.0 0.4256372828 0.8997277159
7200256800.0 0.4384913627 0.8935718721
7250256500.0 0.4500833217 0.8874341621
7300256200.0 0.4629490175 0.8807128003
7350255900.0 0.4751820688 0.8743444455
7400255600.0 0.4865231998 0.8680984987
7450255300.0 0.5009966521 0.8595127392
7500255000.0 0.5127916574 0.8529952184
7550254700.0 0.5251687029 0.8452672455
7600254400.0 0.5379132344 0.8374531381
7650254100.0 0.5494005123 0.8298960447
7700253800.0 0.5609428548 0.8219606338
7750253500.0 0.5723222666 0.8141558748
7800253200.0 0.5834322178 0.8061238295
7850252900.0 0.5932737433 0.7989704594
7900252600.0 0.6051476127 0.7901351338
7950252300.0 0.6146488038 0.7829458448
8000252000.0 0.6250377302 0.7748954094
8050251700.0 0.6358204787 0.7662699325
8100251400.0 0.6457414248 0.7583662289
8150251100.0 0.6563781905 0.7491378928
8200250800.0 0.6657235642 0.7411985907
8250250500.0 0.6754895798 0.7324975149
8300250200.0 0.6851291295 0.7234694918
8350249900.0 0.6944083018 0.714635443
8400249600.0 0.7030738792 0.7062380052
8450249300.0 0.7124301725 0.6966542605
8500249000.0 0.7215260647 0.6874378636
8550248700.0 0.73069729 0.6777295463
8600248400.0 0.7396729445 0.6678192428
8650248100.0 0.7473426777 0.6586379205
8700247800.0 0.7569120082 0.6477618068
8750247500.0 0.7651938548 0.6377646056
8800247200.0 0.7734335094 0.6276028454
8850246900.0 0.7821786736 0.6167122049
8900246600.0 0.7900939632 0.6058243128
8950246300.0 0.7994645846 0.5937168658
9000246000.0 0.8075785177 0.5823891937
9050245700.0 0.8162494062 0.5704028928
9100245400.0 0.8243195389 0.5583809183
9150245100.0 0.8330734207 0.5460500148
9200244800.0 0.8411054801 0.5336602214
9250244500.0 0.8497885832 0.5196733785
9300244200.0 0.8575794789 0.5069897165
9350243900.0 0.8650327494 0.493931779
9400243600.0 0.8720753233 0.4815017684
9450243300.0 0.8782827489 0.4697777286
9500243000.0 0.8852313646 0.4565085081
9550242700.0 0.8906886023 0.4460816655
9600242400.0 0.8958071769 0.4356109267
9650242100.0 0.9004510832 0.4266062301
9700241800.0 0.9053148626 0.4169658848
9750241500.0 0.9101157497 0.4070308526
9800241200.0 0.9150404138 0.3961316964
9850240900.0 0.9203833551 0.3843505748
9900240600.0 0.9252297612 0.3738476192
9950240300.0 0.9314255858 0.3591386835
10000240000.0 0.9361708349 0.3466338204
10050239700.0 0.9413215422 0.3328127647
10100239400.0 0.946368319 0.3181801567
10150239100.0 0.9506637873 0.3043183356
10200238800.0 0.9549874562 0.2895304619
10250238500.0 0.9589975466 0.2763541331
10300238200.0 0.9622255733 0.2625008491
10350237900.0 0.9654218142 0.249672893
10400237600.0 0.9684372711 0.2361834895
10450237300.0 0.971556696 0.2226176386
10500237000.0 0.9742305781 0.2097251064
10550236700.0 0.9765819588 0.1958731273
10600236400.0 0.9787017642 0.183127741
10650236100.0 0.9812018668 0.1683955817
10700235800.0 0.9834399601 0.1556793766
10750235500.0 0.9856338304 0.1430003337
10800235200.0 0.9878078512 0.1286395237
10850234900.0 0.9894213153 0.1145172421
10900234600.0 0.9913475835 0.1003347202
10950234300.0 0.9930646707 0.0872011514
11000234000.0 0.9942580329 0.0731755485
11050233700.0 0.9955753306 0.0585235306
11100233400.0 0.9969031078 0.0425020155
11150233100.0 0.9977305772 0.0268756339
11200232800.0 0.9985348418 0.0124408864
11250232500.0 0.998645122 -0.0023705778
11300232200.0 0.9990941905 -0.0190613441
11350231900.0 0.998966437 -0.034157141
11400231600.0 0.9984147973 -0.0486084681
11450231300.0 0.9984283382 -0.0629679053
11500231000.0 0.9973188891 -0.0792535654
11550230700.0 0.9958156825 -0.0929319657
11600230400.0 0.9950293681 -0.1066489983
11650230100.0 0.9930799403 -0.1182575484
11700229800.0 0.9916903618 -0.1335476181
11750229500.0 0.9896863535 -0.1473728165
11800229200.0 0.987093831 -0.1616577945
11850228900.0 0.9844778203 -0.1749724058
11900228600.0 0.9810814055 -0.1869235776
11950228300.0 0.9781191316 -0.1996401625
12000228000.0 0.9755393505 -0.2099936705
12050227700.0 0.9717583675 -0.2235645077
12100227400.0 0.9691276468 -0.2348169725
12150227100.0 0.9649565331 -0.2513015546
12200226800.0 0.9614609634 -0.2618070462
12250226500.0 0.9575853404 -0.2761063116
12300226200.0 0.9535213007 -0.2875025457
12350225900.0 0.9493160488 -0.3030427962
12400225600.0 0.9450634039 -0.3151977391
12450225300.0 0.9407644582 -0.3271413431
12500225000.0 0.9355791096 -0.3416186947
12550224700.0 0.9301580639 -0.3554743631
12600224400.0 0.9254564941 -0.3682529682
12650224100.0 0.9197609322 -0.3821688078
12700223800.0 0.9146274212 -0.3948301578
12750223500.0 0.9088751794 -0.407992767
12800223200.0 0.9034351944 -0.4206703299
12850222900.0 0.8983785756 -0.4326257582
12900222600.0 0.8924630072 -0.4448088856
12950222300.0 0.8855502138 -0.4584480854
13000222000.0 0.8797048182 -0.4699040877
13050221700.0 0.8728018811 -0.4824561351
13100221400.0 0.8659680001 -0.494275126
13150221100.0 0.859579728 -0.5068800162
13200220800.0 0.8518353274 -0.5187692146
13250220500.0 0.8444850997 -0.5314227272
13300220200.0 0.837406818 -0.5421045551
13350219900.0 0.8290494667 -0.554937932
13400219600.0 0.8208739119 -0.5664203226
13450219300.0 0.8123625472 -0.5789251392
13500219000.0 0.8034017236 -0.5918154929
13550218700.0 0.7931904939 -0.6042817681
13600218400.0 0.7846679694 -0.6158669834
13650218100.0 0.7753958872 -0.6264375058
13700217800.0 0.764296092 -0.6392033715
13750217500.0 0.7558097894 -0.6501448648
13800217200.0 0.744070478 -0.6622616763
13850216900.0 0.733500938 -0.6738673345
13900216600.0 0.7247488429 -0.6836644747
13950216300.0 0.7138726307 -0.6939996892
14000216000.0 0.7041677294 -0.7034690564
14050215700.0 0.6946022202 -0.7118219123
14100215400.0 0.6842288924 -0.7219855202
14150215100.0 0.6745604332 -0.7309337521
14200214800.0 0.665015091 -0.7399643992
14250214500.0 0.6546272558 -0.749472516
14300214200.0 0.6439644479 -0.7590836086
14350213900.0 0.6328441858 -0.7685643282
14400213600.0 0.6215698984 -0.7777988932
14450213300.0 0.6097578197 -0.7874271549
14500213000.0 0.5976996196 -0.7965811045
14550212700.0 0.5854867896 -0.8052822196
14600212400.0 0.5733308696 -0.8141767247
14650212100.0 0.5614805547 -0.8224925525
14700211800.0 0.5474192522 -0.8317834324
14750211500.0 0.5356503078 -0.8403683643
14800211200.0 0.5229816894 -0.8482451759
14850210900.0 0.5108334639 -0.8559201077
14900210600.0 0.4980804819 -0.8637089493
14950210300.0 0.4848538059 -0.8713052492
15000210000.0 0.4719431888 -0.8782003393
15050209700.0 0.4593068494 -0.8850971569
15100209400.0 0.4464163929 -0.8917832766
15150209100.0 0.4333636592 -0.8968792792
15200208800.0 0.4204545355 -0.9034384077
15250208500.0 0.4085246663 -0.9089159388
15300208200.0 0.3949410635 -0.9145088834
15350207900.0 0.3822196592 -0.9202052697
15400207600.0 0.3675437417 -0.9252438134
15450207300.0 0.3540301328 -0.9301968632
15500207000.0 0.3394092687 -0.9354752243
15550206700.0 0.3252044881 -0.9401603536
15600206400.0 0.3106390933 -0.9447191467
15650206100.0 0.2954875624 -0.9493708183
15700205800.0 0.2819771254 -0.9531736232
15750205500.0 0.2672137983 -0.9570570174
15800205200.0 0.2533129421 -0.9608283481
15850204900.0 0.2392601553 -0.9642903856
15900204600.0 0.2244631658 -0.968128678
15950204300.0 0.2104250917 -0.9710338973
16000204000.0 0.1964019348 -0.9739815
16050203700.0 0.1817339737 -0.9768908283
16100203400.0 0.1678004683 -0.9793625348
16150203100.0 0.1527893295 -0.9818866808
16200202800.0 0.1390559787 -0.9845911331
16250202500.0 0.1243318189 -0.9861206264
16300202200.0 0.1085575411 -0.9874900357
16350201900.0 0.0941438741 -0.9892960238
16400201600.0 0.0790400449 -0.9905759337
16450201300.0 0.0645381977 -0.9918068961
16500201000.0 0.048295208 -0.9928517487
16550200700.0 0.0328057485 -0.9935895938
16600200400.0 0.017489068 -0.9940238858
16650200100.0 0.0014520343 -0.9941450466
16700199800.0 -0.0137373539 -0.9940824639
16750199500.0 -0.0314325455 -0.9939302653
16800199200.0 -0.0467195398 -0.9933668162
16850198900.0 -0.0626078123 -0.9916481839
16900198600.0 -0.0769358269 -0.9919966422
16950198300.0 -0.0912034666 -0.9905350491
17000198000.0 -0.1053931611 -0.9886573291
17050197700.0 -0.1187771581 -0.9874806235
17100197400.0 -0.1325234633 -0.9852222512
17150197100.0 -0.1465922809 -0.9831341526
17200196800.0 -0.159995658 -0.9807892147
17250196500.0 -0.1736145639 -0.9785818882
17300196200.0 -0.186707188 -0.9758755276
17350195900.0 -0.1999417361 -0.9736037369
17400195600.0 -0.2128107825 -0.9706939926
17450195300.0 -0.2260904455 -0.9678176799
17500195000.0 -0.2397379035 -0.964644819
17550194700.0 -0.2538077584 -0.9611069778
17600194400.0 -0.2680372864 -0.9572706724
17650194100.0 -0.2818109115 -0.9532503913
17700193800.0 -0.2946610053 -0.9490455008
17750193500.0 -0.3089337812 -0.9448633802
17800193200.0 -0.3228146667 -0.9394944513
17850192900.0 -0.3370004278 -0.9352374931
17900192600.0 -0.3515661986 -0.9297404628
17950192300.0 -0.3663865908 -0.9228077449
18000192000.0 -0.3809095694 -0.9167556663
18050191700.0 -0.3950663908 -0.9096069068
18100191400.0 -0.4093337596 -0.9027095977
18150191100.0 -0.423335077 -0.895565192
18200190800.0 -0.4388347648 -0.8880274938
18250190500.0 -0.4545928334 -0.8794158839
18300190200.0 -0.4695175976 -0.8716612032
18350189900.0 -0.4846673811 -0.8639785797
18400189600.0 -0.4987627512 -0.856528866
18450189300.0 -0.5122091799 -0.8484218102
18500189000.0 -0.5255465814 -0.8402472677
18550188700.0 -0.5390768411 -0.8324307381
18600188400.0 -0.5511026996 -0.8248462908
18650188100.0 -0.5628900875 -0.817665876
18700187800.0 -0.5744335314 -0.8104574718
18750187500.0 -0.5858209019 -0.8027516153
18800187200.0 -0.5970059304 -0.7948689491
18850186900.0 -0.608050244 -0.7870112755
18900186600.0 -0.6188075094 -0.7789734713
18950186300.0 -0.6297097485 -0.770288502
19000186000.0 -0.6386799233 -0.7627476804
19050185700.0 -0.6485670353 -0.7548294416
19100185400.0 -0.6588476864 -0.7463956606
19150185100.0 -0.6695237333 -0.7370057963
19200184800.0 -0.6789568768 -0.7280208763
19250184500.0 -0.6890109417 -0.7184530426
19300184200.0 -0.7000407621 -0.7092531378
19350183900.0 -0.7103827037 -0.6993174282
19400183600.0 -0.7205020823 -0.6885259181
19450183300.0 -0.7293749153 -0.6788800708
19500183000.0 -0.7380401048 -0.6687936427
19550182700.0 -0.7478037655 -0.6581483494
19600182400.0 -0.7570825996 -0.6468093593
19650182100.0 -0.7663786648 -0.6350049801
19700181800.0 -0.7766306927 -0.6228714456
19750181500.0 -0.7866498724 -0.6102967468
19800181200.0 -0.7964714495 -0.5967842901
19850180900.0 -0.8059696878 -0.5830797585
19900180600.0 -0.8139929446 -0.570186011
19950180300.0 -0.823770549 -0.5557026496
20000180000.0 -0.8248823068 -0.5507109748
20050179700.0 -0.8328270158 -0.5375298411
20100179400.0 -0.8421722066 -0.5245567097
20150179100.0 -0.8493964659 -0.5116025926
20200178800.0 -0.8572687289 -0.4988864682
20250178500.0 -0.8661367265 -0.4868869601
20300178200.0 -0.8745199885 -0.4727892042
20350177900.0 -0.8823872591 -0.4596584289
20400177600.0 -0.8905751112 -0.445893219
20450177300.0 -0.8981726752 -0.4321493134
20500177000.0 -0.9049791171 -0.4192138635
20550176700.0 -0.9123397 -0.4058690567
20600176400.0 -0.9185733289 -0.3926834692
20650176100.0 -0.924653123 -0.3792185171
20700175800.0 -0.9310238986 -0.366950132
20750175500.0 -0.9374236569 -0.3544340251
20800175200.0 -0.9415311434 -0.3428621914
20850174900.0 -0.9467429291 -0.3308866441
20900174600.0 -0.9515110476 -0.3185689297
20950174300.0 -0.9557906444 -0.3068414828
21000174000.0 -0.9594403711 -0.2941396479
21050173700.0 -0.9626511906 -0.2819532994
21100173400.0 -0.9667715846 -0.269127236
21150173100.0 -0.9701655822 -0.2568257626
21200172800.0 -0.9737764169 -0.2428243342
21250172500.0 -0.9765880683 -0.2291464912
21300172200.0 -0.9801226401 -0.2154758195
21350171900.0 -0.9828830107 -0.2006151446
21400171600.0 -0.9855130464 -0.187224767
21450171300.0 -0.9866164286 -0.1719490871
21500171000.0 -0.9875792567 -0.1582070668
21550170700.0 -0.9884283695 -0.1429217246
21600170400.0 -0.9912600115 -0.1271727423
21650170100.0 -0.9917675524 -0.1130637197
21700169800.0 -0.990506897 -0.0968192926
21750169500.0 -0.9902823155 -0.0821116381
21800169200.0 -0.9914647372 -0.0654924951
21850168900.0 -0.989977354 -0.0505780745
21900168600.0 -0.990551695 -0.0351928203
21950168300.0 -0.9894799066 -0.0200328993
22000168000.0 -0.9888136596 -0.00510702
22050167700.0 -0.9884751503 0.0092940494
22100167400.0 -0.9886092612 0.0243996607
22150167100.0 -0.9886180397 0.039490143
22200166800.0 -0.9882789888 0.0546375741
22250166500.0 -0.9877951545 0.0706838145
22300166200.0 -0.9871628052 0.0865066957
22350165900.0 -0.9851107674 0.1017461352
22400165600.0 -0.983964323 0.1169507746
22450165300.0 -0.9810614803 0.1315421157
22500165000.0 -0.979889536 0.1442773687
22550164700.0 -0.9784881196 0.1599387387
22600164400.0 -0.9770233349 0.174637838
22650164100.0 -0.9745596085 0.1873024453
22700163800.0 -0.9725210226 0.2024160395
22750163500.0 -0.9696512945 0.2179438169
22800163200.0 -0.9666041826 0.2308070526
22850162900.0 -0.9638232702 0.24432904
22900162600.0 -0.9615846136 0.2578708839
22950162300.0 -0.9594717085 0.2708959819
23000162000.0 -0.9569971594 0.2834262168
23050161700.0 -0.9544159833 0.2964017983
23100161400.0 -0.9515115185 0.309876029
23150161100.0 -0.9484532185 0.3222360803
23200160800.0 -0.9456061272 0.334708675
23250160500.0 -0.941801333 0.3461472171
23300160200.0 -0.9390633834 0.3595885607
23350159900.0 -0.9340832684 0.3730227588
23400159600.0 -0.9300494338 0.3853226683
23450159300.0 -0.9254209504 0.3979419359
23500159000.0 -0.9206620914 0.4109120812
23550158700.0 -0.9160942893 0.4235846573
23600158400.0 -0.9104417903 0.4360407655
23650158100.0 -0.9047192334 0.4491475206
23700157800.0 -0.8980325324 0.4621420147
23750157500.0 -0.8905198844 0.4755625085
23800157200.0 -0.8825077286 0.4886504531
23850156900.0 -0.8746468962 0.5009883913
23900156600.0 -0.8659929858 0.5134126132
23950156300.0 -0.8580567335 0.5250680162
24000156000.0 -0.8505453137 0.5376021006
24050155700.0 -0.8405569494 0.5496751658
24100155400.0 -0.8318935013 0.5613727311
24150155100.0 -0.8223953925 0.5731872767
24200154800.0 -0.8129624512 0.5849857263
24250154500.0 -0.8030525582 0.596087241
24300154200.0 -0.7932154992 0.6076160376
24350153900.0 -0.7828389087 0.6190849912
24400153600.0 -0.7722734069 0.6300334824
24450153300.0 -0.7616963893 0.6403081262
24500153000.0 -0.7511916738 0.6507578078
24550152700.0 -0.7407280958 0.6608859376
24600152400.0 -0.7299170152 0.6712152503
