!Created with skrf (http://scikit-rf.org).
# Hz S RI R 50.0 
!freq ReS11 ImS11
300000.0 -0.9784020668 -0.1084622793
50299700.0 -1.000086599 0.0159492432
100299400.0 -0.9979497964 0.0287167309
150299100.0 -1.002801341 0.0457095014
200298800.0 -0.9997203297 0.0590066733
250298500.0 -0.997393951 0.0725869186
300298200.0 -0.9859100659 0.0884429926
350297900.0 -0.9940543623 0.0991797617
400297600.0 -0.9930560667 0.1159804493
450297300.0 -0.9909826855 0.1295793392
500297000.0 -0.98934421 0.1446633124
550296700.0 -0.9844368831 0.1569274159
600296400.0 -1.017215557 0.1905505922
650296100.0 -0.9820475406 0.1869014146
700295800.0 -0.9793310983 0.2012424587
750295500.0 -0.9762639392 0.2152169119
800295200.0 -0.9729949262 0.2291576324
850294900.0 -0.9696137921 0.2432721451
900294600.0 -0.9657067515 0.2568768469
950294300.0 -0.9619083023 0.2706630874
1000294000.0 -0.9578792996 0.2846184712
1050293700.0 -0.9534530438 0.2982584563
1100293400.0 -0.9491793024 0.3128352353
1150293100.0 -0.9453294471 0.3245358506
1200292800.0 -0.9400510462 0.339079357
1250292500.0 -0.9344560387 0.3523797747
1300292200.0 -0.9287728813 0.3656384602
1350291900.0 -0.9232787167 0.3795260846
1400291600.0 -0.9176413251 0.3928526635
1450291300.0 -0.9122037598 0.405141581
1500291000.0 -0.905744518 0.4184813082
1550290700.0 -0.8994248706 0.4317321645
1600290400.0 -0.8932260639 0.4447170942
1650290100.0 -0.8865211287 0.4568476114
1700289800.0 -0.8796729407 0.4701473461
1750289500.0 -0.8724582414 0.4826795605
1800289200.0 -0.8652639714 0.4953201041
1850288900.0 -0.8583873662 0.5067525949
1900288600.0 -0.8505009508 0.5197134909
1950288300.0 -0.842341759 0.5322814028
2000288000.0 -0.8351938061 0.5437162702
2050287700.0 -0.8269877309 0.5560885228
2100287400.0 -0.8188499959 0.5676229375
2150287100.0 -0.8102381826 0.579639455
2200286800.0 -0.8025898547 0.5900761751
2250286500.0 -0.7935230042 0.602004957
2300286200.0 -0.7847820396 0.6138363614
2350285900.0 -0.775980196 0.6248292052
2400285600.0 -0.7668856567 0.6358578741
2450285300.0 -0.7584660945 0.6459904691
2500285000.0 -0.7485768126 0.6573106248
2550284700.0 -0.7396467275 0.6677351047
2600284400.0 -0.7302860084 0.6777882187
2650284100.0 -0.721050242 0.6883119477
2700283800.0 -0.7105903981 0.6990120019
2750283500.0 -0.70032149 0.7096620931
2800283200.0 -0.6905344947 0.7195051753
2850282900.0 -0.6803718994 0.7291298717
2900282600.0 -0.6699044427 0.7386994452
2950282300.0 -0.6598733645 0.7478123399
3000282000.0 -0.6490379071 0.7571475549
3050281700.0 -0.6378786943 0.7665903533
3100281400.0 -0.6260821224 0.7761094755
3150281100.0 -0.6140633736 0.7853182336
3200280800.0 -0.6024862249 0.7937506969
3250280500.0 -0.591714522 0.8016526758
3300280200.0 -0.5805941712 0.8093833749
3350279900.0 -0.5690817066 0.816832494
3400279600.0 -0.557103314 0.8246699289
3450279300.0 -0.5459645961 0.8317710031
3500279000.0 -0.5337653272 0.8387373921
3550278700.0 -0.5212577561 0.8461324404
3600278400.0 -0.5089355275 0.8531636639
3650278100.0 -0.4957818167 0.8608876116
3700277800.0 -0.4838162964 0.8674580725
3750277500.0 -0.4714275541 0.8738039453
3800277200.0 -0.459072295 0.8803819352
3850276900.0 -0.4468301767 0.8861316929
3900276600.0 -0.4358645692 0.8918881753
3950276300.0 -0.4235165759 0.8982198526
4000276000.0 -0.4113446274 0.9038543745
4050275700.0 -0.3984592412 0.9100007198
4100275400.0 -0.387323097 0.9154950247
4150275100.0 -0.3747901848 0.9213290266
4200274800.0 -0.3614823487 0.9263457282
4250274500.0 -0.3493490872 0.9316480755
4300274200.0 -0.3362496216 0.9370813173
4350273900.0 -0.3226010231 0.9423436149
4400273600.0 -0.3075713112 0.9473862863
4450273300.0 -0.2923348224 0.9523411604
4500273000.0 -0.2786037515 0.9570847572
4550272700.0 -0.2643715936 0.9612299022
4600272400.0 -0.2489509308 0.9653432443
4650272100.0 -0.2372119479 0.968517077
4700271800.0 -0.2239263262 0.972028443
4750271500.0 -0.2122935828 0.9746980965
4800271200.0 -0.1997808254 0.9774868958
4850270900.0 -0.1859292281 0.9802916965
4900270600.0 -0.171909229 0.9825400049
4950270300.0 -0.1577934903 0.9853458896
5000270000.0 -0.1435001136 0.9871778138
5050269700.0 -0.1300277984 0.9889820957
5100269400.0 -0.1165646144 0.9906499388
5150269100.0 -0.1034384039 0.991949622
5200268800.0 -0.0900300008 0.9930519098
5250268500.0 -0.0768375371 0.9943286169
5300268200.0 -0.0639264059 0.9948230814
5350267900.0 -0.0517360987 0.9956813262
5400267600.0 -0.0352677052 0.9965390106
5450267300.0 -0.0225435248 0.9970716764
5500267000.0 -0.0071954048 0.9972247972
5550266700.0 0.0077311356 0.9974892537
5600266400.0 0.0234772921 0.9971829102
5650266100.0 0.039829462 0.9967270001
5700265800.0 0.0543666736 0.9957393362
5750265500.0 0.06985714 0.9954933962
5800265200.0 0.0838256757 0.9942745989
5850264900.0 0.0970560523 0.9933064098
5900264600.0 0.1137431021 0.9915147273
5950264300.0 0.1256723656 0.9900600573
6000264000.0 0.139664794 0.9880356245
6050263700.0 0.1522868351 0.9868036291
6100263400.0 0.164634379 0.9849792188
6150263100.0 0.1791217643 0.9823681947
6200262800.0 0.1895973249 0.980312058
6250262500.0 0.2021883141 0.9780404578
6300262200.0 0.2153001919 0.9752854786
6350261900.0 0.2281144308 0.9724399854
6400261600.0 0.241974681 0.9689838545
6450261300.0 0.2532065903 0.9661854575
6500261000.0 0.2661230877 0.9628613107
6550260700.0 0.2792640847 0.9587808139
6600260400.0 0.2923351731 0.9548400833
6650260100.0 0.3066059343 0.9507501844
6700259800.0 0.318637969 0.9464398508
6750259500.0 0.3321451891 0.9410107884
6800259200.0 0.3449852571 0.9362154134
6850258900.0 0.3573082803 0.9311592994
6900258600.0 0.369163504 0.9261006141
6950258300.0 0.3820848074 0.9208547038
7000258000.0 0.3936244483 0.9152814269
7050257700.0 0.406109656 0.9091699602
7100257400.0 0.4187321744 0.9030940668
7150257100.0 0.4291018741 0.8980790713
7200256800.0 0.4418739422 0.8915054915
7250256500.0 0.4534765306 0.8849519757
7300256200.0 0.466702471 0.8784992036
7350255900.0 0.4793479704 0.8713129318
7400255600.0 0.4921907549 0.8640705621
7450255300.0 0.5074699965 0.8550588174
7500255000.0 0.5189992231 0.8479009642
7550254700.0 0.533063168 0.8394289302
7600254400.0 0.5461200515 0.8311811494
7650254100.0 0.5574864473 0.8232845262
7700253800.0 0.5691707162 0.8150752265
7750253500.0 0.5808260355 0.807446208
7800253200.0 0.5913253481 0.799863853
7850252900.0 0.6009917884 0.7926417925
7900252600.0 0.6127976826 0.7839559778
7950252300.0 0.6216632516 0.7773291628
8000252000.0 0.6317793766 0.7695783655
8050251700.0 0.6423577225 0.7612724226
8100251400.0 0.6524797865 0.7531836026
8150251100.0 0.6623701197 0.7444716864
8200250800.0 0.671711559 0.7366282722
8250250500.0 0.6807641414 0.7285860358
8300250200.0 0.6898600031 0.7200931239
8350249900.0 0.6991352195 0.7113378972
8400249600.0 0.7071588031 0.7030875898
8450249300.0 0.7163368282 0.6939390187
8500249000.0 0.7250885946 0.6851517798
8550248700.0 0.7331745678 0.6761778233
8600248400.0 0.7416856173 0.6667377865
8650248100.0 0.7494835474 0.6571609175
8700247800.0 0.758984268 0.6461192774
8750247500.0 0.7671430075 0.6360251883
8800247200.0 0.7750847447 0.6255254984
8850246900.0 0.7840460726 0.6142593607
8900246600.0 0.7926094528 0.602949507
8950246300.0 0.8021995147 0.5898391217
9000246000.0 0.8117697211 0.5771932491
9050245700.0 0.8202029057 0.5642071826
9100245400.0 0.8290192562 0.5518895399
9150245100.0 0.8382464043 0.5379690479
9200244800.0 0.8483772143 0.522602231
9250244500.0 0.857531537 0.5072060172
9300244200.0 0.8659545864 0.4925077113
9350243900.0 0.8738647755 0.4783245356
9400243600.0 0.880483382 0.466097944
9450243300.0 0.8864288735 0.4543619858
9500243000.0 0.8927390482 0.4420032863
9550242700.0 0.8962499679 0.4344478514
9600242400.0 0.9002773135 0.4271460584
9650242100.0 0.9038126882 0.4204084655
9700241800.0 0.9083287849 0.4123302616
9750241500.0 0.912528792 0.4049362599
9800241200.0 0.9170659496 0.3956917904
9850240900.0 0.9227280836 0.3840140704
9900240600.0 0.9281823694 0.3722368866
9950240300.0 0.9349484458 0.3557621379
10000240000.0 0.9397158308 0.3444515009
10050239700.0 0.944838403 0.3295598455
10100239400.0 0.9498392886 0.313703413
10150239100.0 0.9545730411 0.2990728154
10200238800.0 0.9587055195 0.2842478774
10250238500.0 0.9617448735 0.2709478887
10300238200.0 0.9649407305 0.256997454
10350237900.0 0.967585445 0.2436965101
10400237600.0 0.9702435462 0.2307264105
10450237300.0 0.9730415939 0.2170800139
10500237000.0 0.9747534264 0.2052812782
10550236700.0 0.9771279758 0.1912212685
10600236400.0 0.9795415901 0.1771260318
10650236100.0 0.9815928176 0.1627669031
10700235800.0 0.9834497262 0.1511473553
10750235500.0 0.9860763149 0.1369219413
10800235200.0 0.9880469406 0.1233602871
10850234900.0 0.9894021594 0.1088595649
10900234600.0 0.9916263979 0.0945222338
10950234300.0 0.9935026738 0.0809800695
11000234000.0 0.9952003004 0.0658404613
11050233700.0 0.9971515735 0.0494676132
11100233400.0 0.9983886717 0.0319834027
11150233100.0 0.9995145519 0.015507204
11200232800.0 1.000251799 0.0008260521
11250232500.0 1.001645168 -0.0163619108
11300232200.0 1.001402191 -0.0335898469
11350231900.0 1.001758039 -0.0494016053
11400231600.0 1.001395694 -0.0661665695
11450231300.0 1.000364383 -0.0812301901
11500231000.0 0.9993601094 -0.0974639213
11550230700.0 0.9981847013 -0.1101042232
11600230400.0 0.9963126247 -0.1238384087
11650230100.0 0.9947909734 -0.134495516
11700229800.0 0.9927206428 -0.1497801077
11750229500.0 0.9902743058 -0.1642982102
11800229200.0 0.9875989659 -0.1782750361
11850228900.0 0.9837469133 -0.190508869
11900228600.0 0.9804651744 -0.2003667754
11950228300.0 0.9770315312 -0.2109209738
12000228000.0 0.9738984561 -0.2201208193
12050227700.0 0.9707453017 -0.2328021279
12100227400.0 0.967868245 -0.2432965098
12150227100.0 0.9631241359 -0.2595605916
12200226800.0 0.9591905713 -0.2711093448
12250226500.0 0.9547425072 -0.2839646783
12300226200.0 0.9508292447 -0.2958907313
12350225900.0 0.9460648355 -0.3096770411
12400225600.0 0.9419186854 -0.3224042029
12450225300.0 0.9367801061 -0.3346123097
12500225000.0 0.9320595274 -0.3500264134
12550224700.0 0.9264411229 -0.3638271545
12600224400.0 0.9216754284 -0.3763114103
12650224100.0 0.9157964184 -0.3906971739
12700223800.0 0.9105554593 -0.4031556655
12750223500.0 0.9053610062 -0.4159582031
12800223200.0 0.899956039 -0.4286017121
12850222900.0 0.8943551876 -0.4411431448
12900222600.0 0.888837671 -0.4526367663
12950222300.0 0.8823081913 -0.4662428775
13000222000.0 0.8763809137 -0.4773081226
13050221700.0 0.8697431866 -0.4905752654
13100221400.0 0.8628750222 -0.5018796725
13150221100.0 0.8562187432 -0.5143497428
13200220800.0 0.8487574623 -0.5253859908
13250220500.0 0.8416694269 -0.5379245711
13300220200.0 0.8342259852 -0.5488715387
13350219900.0 0.8261213039 -0.560841785
13400219600.0 0.8174731253 -0.5733218505
13450219300.0 0.8081896188 -0.5869075892
13500219000.0 0.7979717312 -0.6009079559
13550218700.0 0.7873314904 -0.6136864264
13600218400.0 0.7767871187 -0.625808601
13650218100.0 0.7677068639 -0.6370617076
13700217800.0 0.7563839687 -0.6490531091
13750217500.0 0.746572333 -0.6613830777
13800217200.0 0.7357572496 -0.6719905579
13850216900.0 0.7238135572 -0.6839302996
13900216600.0 0.7141721485 -0.6930274034
13950216300.0 0.7031413229 -0.7027364065
14000216000.0 0.6936789726 -0.7123125592
14050215700.0 0.6834919239 -0.7203130969
14100215400.0 0.6742732013 -0.7301777889
14150215100.0 0.6648249181 -0.7378192569
14200214800.0 0.6556050323 -0.7464809546
14250214500.0 0.6454303596 -0.7556807159
14300214200.0 0.6350834813 -0.7649636246
14350213900.0 0.624189386 -0.7744038063
14400213600.0 0.6126006546 -0.7840409244
14450213300.0 0.5993808998 -0.7943475149
14500213000.0 0.586571489 -0.8041040147
14550212700.0 0.5743120227 -0.8132172965
14600212400.0 0.5613930523 -0.8227228629
14650212100.0 0.5477547929 -0.8312889953
14700211800.0 0.5340394919 -0.8406163883
14750211500.0 0.5220612029 -0.848697576
14800211200.0 0.5102442956 -0.8566593232
14850210900.0 0.4976896593 -0.8643531854
14900210600.0 0.4845144369 -0.8721760895
14950210300.0 0.470874401 -0.879762303
15000210000.0 0.4581168343 -0.8866106084
15050209700.0 0.4459688609 -0.8929763533
15100209400.0 0.4329141383 -0.8986427828
15150209100.0 0.4199608237 -0.9041426702
15200208800.0 0.4074276065 -0.9097905184
15250208500.0 0.3959178553 -0.9145382587
15300208200.0 0.3838791968 -0.9186729632
15350207900.0 0.3704584056 -0.9234591236
15400207600.0 0.355706507 -0.9288721207
15450207300.0 0.3419031937 -0.9336602005
15500207000.0 0.3268433419 -0.9383105087
15550206700.0 0.3117173029 -0.9437683036
15600206400.0 0.2959999395 -0.9480278857
15650206100.0 0.2802919961 -0.9522652656
15700205800.0 0.2658851947 -0.9556990271
15750205500.0 0.2514578754 -0.9595322512
15800205200.0 0.237066309 -0.9627220294
15850204900.0 0.2227100704 -0.9662892051
15900204600.0 0.2078516076 -0.9697530324
15950204300.0 0.1935893652 -0.9726609668
16000204000.0 0.1797978413 -0.9755735717
16050203700.0 0.1647948096 -0.9780765463
16100203400.0 0.1503774842 -0.9806658118
16150203100.0 0.1361930019 -0.9827862207
16200202800.0 0.1222638238 -0.9847785727
16250202500.0 0.1074512669 -0.9862181259
16300202200.0 0.0923821737 -0.9877262706
16350201900.0 0.0773417803 -0.9889240545
16400201600.0 0.0628028823 -0.9904324233
16450201300.0 0.0476967115 -0.9912932756
16500201000.0 0.0311398322 -0.9921488866
16550200700.0 0.0156414262 -0.9926344206
16600200400.0 -0.0003666638 -0.9927595233
16650200100.0 -0.0166723074 -0.9926334715
16700199800.0 -0.0329809763 -0.9921881161
16750199500.0 -0.0516215588 -0.9916109848
16800199200.0 -0.0676741446 -0.9901441305
16850198900.0 -0.0829257148 -0.9890084654
16900198600.0 -0.0972703588 -0.9881261876
16950198300.0 -0.1103237653 -0.9871025105
17000198000.0 -0.1234646008 -0.9854828193
17050197700.0 -0.1360632029 -0.9837094702
17100197400.0 -0.1491251329 -0.9814452485
17150197100.0 -0.1615736392 -0.9797027746
17200196800.0 -0.1744180104 -0.9777074826
17250196500.0 -0.1872774226 -0.975008343
17300196200.0 -0.1998309917 -0.9729777008
17350195900.0 -0.2114490278 -0.9705612129
17400195600.0 -0.2235238262 -0.9680750051
17450195300.0 -0.2365486762 -0.9651792524
17500195000.0 -0.250065977 -0.9620390495
17550194700.0 -0.2638219476 -0.9582282732
17600194400.0 -0.2779496598 -0.9546479229
17650194100.0 -0.2915929513 -0.9500079848
17700193800.0 -0.3046857304 -0.9465063406
17750193500.0 -0.3190293986 -0.9412865362
17800193200.0 -0.3330177573 -0.9361886615
17850192900.0 -0.3478682916 -0.930838492
17900192600.0 -0.3634383289 -0.9248027084
17950192300.0 -0.3788320436 -0.9174960633
18000192000.0 -0.3933651177 -0.9105856818
18050191700.0 -0.407168613 -0.9026787892
18100191400.0 -0.4213722819 -0.894909225
18150191100.0 -0.43622792 -0.8866995812
18200190800.0 -0.4532313911 -0.8776449486
18250190500.0 -0.4702768244 -0.8680250522
18300190200.0 -0.4854853853 -0.8592336266
18350189900.0 -0.5003326502 -0.8507513557
18400189600.0 -0.514791054 -0.8419675994
18450189300.0 -0.5284297569 -0.8343473472
18500189000.0 -0.5411039558 -0.8263544602
18550188700.0 -0.5541488666 -0.8185669251
18600188400.0 -0.5659865834 -0.8118916439
18650188100.0 -0.5770837334 -0.8054995552
18700187800.0 -0.5881667549 -0.7988831045
18750187500.0 -0.5985948436 -0.7920730515
18800187200.0 -0.6094648537 -0.7851123183
18850186900.0 -0.6196238749 -0.7779781744
18900186600.0 -0.6301596711 -0.7706312122
18950186300.0 -0.6400840526 -0.7628080231
19000186000.0 -0.6474921381 -0.7564907912
19050185700.0 -0.6569111134 -0.7487541456
19100185400.0 -0.6667837657 -0.7406471824
19150185100.0 -0.6770174726 -0.7320871628
19200184800.0 -0.686281554 -0.7235208397
19250184500.0 -0.696821723 -0.7147020116
19300184200.0 -0.7083170426 -0.7053938981
19350183900.0 -0.7187724588 -0.695205992
19400183600.0 -0.7290322587 -0.6859831256
19450183300.0 -0.7376545309 -0.6749417686
19500183000.0 -0.745545585 -0.6656320531
19550182700.0 -0.7553801491 -0.6547791889
19600182400.0 -0.7659008394 -0.643272467
19650182100.0 -0.7765300446 -0.6307368558
19700181800.0 -0.7870198936 -0.617255366
19750181500.0 -0.7975074738 -0.6036934439
19800181200.0 -0.8077694749 -0.5888123107
19850180900.0 -0.817341539 -0.5733313121
19900180600.0 -0.8251924222 -0.5589026014
19950180300.0 -0.8343604329 -0.5425133214
20000180000.0 -0.8271005355 -0.5455692008
20050179700.0 -0.834679288 -0.5319124741
20100179400.0 -0.8438566364 -0.5183243645
20150179100.0 -0.8516810314 -0.5059154105
20200178800.0 -0.8607567443 -0.4934967111
20250178500.0 -0.8706889563 -0.4795086024
20300178200.0 -0.8793051568 -0.464531264
20350177900.0 -0.8885842982 -0.4505008668
20400177600.0 -0.897143575 -0.4359312312
20450177300.0 -0.9053613628 -0.4216485334
20500177000.0 -0.9135467224 -0.4073984004
20550176700.0 -0.9214875518 -0.3939066289
20600176400.0 -0.9278644183 -0.3806312888
20650176100.0 -0.9349805403 -0.3678042629
20700175800.0 -0.9415089134 -0.3562166465
20750175500.0 -0.9480630525 -0.3450050314
20800175200.0 -0.9531220267 -0.3334630099
20850174900.0 -0.9581032742 -0.3230489811
20900174600.0 -0.9628200596 -0.3106888197
20950174300.0 -0.9671344239 -0.2997121784
21000174000.0 -0.9699666026 -0.287618365
21050173700.0 -0.973057015 -0.2759196832
21100173400.0 -0.9775016225 -0.264531335
21150173100.0 -0.9811678561 -0.2521649543
21200172800.0 -0.9849616989 -0.238116687
21250172500.0 -0.9877535681 -0.2244450515
21300172200.0 -0.9906221404 -0.21058583
21350171900.0 -0.9919823404 -0.1961454729
21400171600.0 -0.9934413942 -0.1816312485
21450171300.0 -0.9933699471 -0.1671198006
21500171000.0 -0.9931778286 -0.15257147
21550170700.0 -0.9934200152 -0.1365809266
21600170400.0 -0.9930070441 -0.12175039
21650170100.0 -0.9914289718 -0.1052661506
21700169800.0 -0.9908352941 -0.0901339199
21750169500.0 -0.9883199871 -0.0741212774
21800169200.0 -0.988213077 -0.0583482164
21850168900.0 -0.9861461365 -0.0413268357
21900168600.0 -0.985915454 -0.0248131159
21950168300.0 -0.9840414473 -0.0094784154
22000168000.0 -0.9826549424 0.0054400277
22050167700.0 -0.9827689777 0.0198666933
22100167400.0 -0.9827176601 0.0347672527
22150167100.0 -0.9832015646 0.0505609916
22200166800.0 -0.9836441225 0.0668871978
22250166500.0 -0.9832117047 0.0840193668
22300166200.0 -0.9823333033 0.1008051634
22350165900.0 -0.9814204839 0.11704587
22400165600.0 -0.9796987167 0.1329673701
22450165300.0 -0.9769922415 0.1469960824
22500165000.0 -0.9756122393 0.160971055
22550164700.0 -0.9743007809 0.1762751469
22600164400.0 -0.972791302 0.1918420811
22650164100.0 -0.9701221286 0.2075232508
22700163800.0 -0.9685880922 0.2227508907
22750163500.0 -0.9658347035 0.2380176053
22800163200.0 -0.9626799507 0.2511155946
22850162900.0 -0.9599754042 0.2644280239
22900162600.0 -0.9587341822 0.278181372
22950162300.0 -0.9578042679 0.2909505561
23000162000.0 -0.9564465112 0.3026444811
23050161700.0 -0.9545439685 0.3149756953
23100161400.0 -0.9525484418 0.32787155
23150161100.0 -0.950033284 0.3402022692
23200160800.0 -0.946950534 0.3520062186
23250160500.0 -0.9442564072 0.3642235649
23300160200.0 -0.9414005916 0.3761062039
23350159900.0 -0.9376555523 0.3887855947
23400159600.0 -0.9324283367 0.4021355439
23450159300.0 -0.927586902 0.4149259896
23500159000.0 -0.9236122481 0.4281738955
23550158700.0 -0.9191287551 0.4417456499
23600158400.0 -0.9136467925 0.4548929771
23650158100.0 -0.9072087845 0.468854091
23700157800.0 -0.8995421199 0.4824199175
23750157500.0 -0.8912854147 0.4965801591
23800157200.0 -0.8820577012 0.5098156293
23850156900.0 -0.8736480825 0.5225586162
23900156600.0 -0.8637492034 0.5345804432
23950156300.0 -0.8545460561 0.5478779084
24000156000.0 -0.8458619514 0.5594297905
24050155700.0 -0.8356446363 0.5712711586
24100155400.0 -0.8254894039 0.582752736
24150155100.0 -0.8154652047 0.5951505885
24200154800.0 -0.8039873533 0.6063849617
24250154500.0 -0.7924686839 0.6174262736
24300154200.0 -0.7809314278 0.6297116246
24350153900.0 -0.7692658482 0.6400473565
24400153600.0 -0.7570499626 0.6501860206
24450153300.0 -0.7452362835 0.6602152672
24500153000.0 -0.7339056673 0.6697340367
24550152700.0 -0.7226175609 0.6797602913
24600152400.0 -0.7112307722 0.6884500291
24650152100.0 -0.6992150535 0.6963063097
