!Created with skrf (http://scikit-rf.org).
# Hz S RI R 50.0 
!freq ReS11 ImS11
300000.0 -0.9831132644 -0.0973899217
50299700.0 -1.000167753 0.0163980469
100299400.0 -0.9981108395 0.0292516571
150299100.0 -1.002810488 0.0462259906
200298800.0 -0.9995584479 0.0594225528
250298500.0 -0.9974200564 0.0728995182
300298200.0 -0.985922478 0.0887237561
350297900.0 -0.9940034065 0.0995500909
400297600.0 -0.9930127508 0.1163178163
450297300.0 -0.9908345397 0.1300938417
500297000.0 -0.9893106913 0.1446567821
550296700.0 -0.9841021997 0.1570505073
600296400.0 -1.017131832 0.1907366039
650296100.0 -0.9820560364 0.1874077904
700295800.0 -0.9792200028 0.2016210842
750295500.0 -0.9758826143 0.215573601
800295200.0 -0.9726464248 0.2297006325
850294900.0 -0.9692516877 0.243499946
900294600.0 -0.965476197 0.2572786715
950294300.0 -0.9618483982 0.2710028603
1000294000.0 -0.9578024113 0.2849023289
1050293700.0 -0.9531979612 0.2987092664
1100293400.0 -0.9489575131 0.3130611113
1150293100.0 -0.944960574 0.3249778168
1200292800.0 -0.9397872442 0.3393692786
1250292500.0 -0.9341692025 0.3528186309
1300292200.0 -0.9284625451 0.3659684409
1350291900.0 -0.9227709439 0.379962042
1400291600.0 -0.9175175374 0.3930453957
1450291300.0 -0.9119513251 0.4054063977
1500291000.0 -0.9058618284 0.4186182574
1550290700.0 -0.8994413951 0.4319742295
1600290400.0 -0.8931274163 0.4447604335
1650290100.0 -0.8863343914 0.4571309966
1700289800.0 -0.8795597632 0.4702880774
1750289500.0 -0.8723890181 0.4828068707
1800289200.0 -0.865232531 0.4956536964
1850288900.0 -0.8583399852 0.507061387
1900288600.0 -0.8505505409 0.5198928515
1950288300.0 -0.8424583864 0.5326819041
2000288000.0 -0.8349285619 0.5439577486
2050287700.0 -0.8266562959 0.5561459743
2100287400.0 -0.8187257124 0.5678047714
2150287100.0 -0.8100824894 0.580134397
2200286800.0 -0.8022960191 0.5903407814
2250286500.0 -0.793391814 0.6025254826
2300286200.0 -0.7843811963 0.6139795744
2350285900.0 -0.7756469181 0.6250417841
2400285600.0 -0.7665184002 0.6359212323
2450285300.0 -0.7579292195 0.6465179796
2500285000.0 -0.7482566614 0.6578061511
2550284700.0 -0.7392627212 0.6680080054
2600284400.0 -0.7298833322 0.6782653478
2650284100.0 -0.7207177971 0.6887433361
2700283800.0 -0.7102670346 0.6992693391
2750283500.0 -0.6999045997 0.7096521312
2800283200.0 -0.6900399252 0.7197571926
2850282900.0 -0.6798691376 0.7291885073
2900282600.0 -0.6696643368 0.7390379391
2950282300.0 -0.659413657 0.7482032625
3000282000.0 -0.6486858419 0.7576289378
3050281700.0 -0.6375957555 0.766650291
3100281400.0 -0.6257143494 0.7761093547
3150281100.0 -0.6141217113 0.7854738375
3200280800.0 -0.6024500852 0.7939260394
3250280500.0 -0.591758691 0.8016188242
3300280200.0 -0.5804220046 0.8095330139
3350279900.0 -0.5689818743 0.8171069654
3400279600.0 -0.5569569305 0.8248128782
3450279300.0 -0.54585604 0.8319409852
3500279000.0 -0.5338139943 0.838800613
3550278700.0 -0.5212235742 0.8461746469
3600278400.0 -0.5090993549 0.8533339054
3650278100.0 -0.4959092755 0.8612289539
3700277800.0 -0.483652015 0.8674553922
3750277500.0 -0.4714727695 0.8739519324
3800277200.0 -0.4590013789 0.880453065
3850276900.0 -0.4466952296 0.8866092634
3900276600.0 -0.4356935909 0.892236853
3950276300.0 -0.423327681 0.8980066765
4000276000.0 -0.4112829835 0.9040033781
4050275700.0 -0.3979836571 0.9103779352
4100275400.0 -0.3867580456 0.9154102043
4150275100.0 -0.3738624607 0.921177261
4200274800.0 -0.3608637686 0.9268116643
4250274500.0 -0.3486341822 0.9319584945
4300274200.0 -0.3358554749 0.9372857007
4350273900.0 -0.3217483545 0.9425936597
4400273600.0 -0.3070283102 0.947476591
4450273300.0 -0.2918070959 0.95255348
4500273000.0 -0.2780552746 0.9569327648
4550272700.0 -0.2638210609 0.9611249883
4600272400.0 -0.2485689887 0.9653231763
4650272100.0 -0.2368359623 0.9685070309
4700271800.0 -0.2235527657 0.9718023982
4750271500.0 -0.2117395521 0.9746930151
4800271200.0 -0.1991099174 0.9774054289
4850270900.0 -0.1853655174 0.9801059813
4900270600.0 -0.1715671468 0.9825842404
4950270300.0 -0.1576135783 0.9853986271
5000270000.0 -0.1433432742 0.987146228
5050269700.0 -0.1297989637 0.9890584929
5100269400.0 -0.1162010656 0.9905558669
5150269100.0 -0.1029927117 0.9919425124
5200268800.0 -0.0898127569 0.9932327861
5250268500.0 -0.0765028319 0.9940860677
5300268200.0 -0.0633951937 0.9946244542
5350267900.0 -0.0513653096 0.9956612982
5400267600.0 -0.0350518373 0.9966652655
5450267300.0 -0.0220840531 0.9967917881
5500267000.0 -0.007062538 0.9972423907
5550266700.0 0.007694453 0.9973286852
5600266400.0 0.0233327035 0.99737505
5650266100.0 0.0398152267 0.9970776272
5700265800.0 0.0545136729 0.9961601077
5750265500.0 0.0695087347 0.9950744859
5800265200.0 0.0835564636 0.9941830776
5850264900.0 0.0970366901 0.9934627502
5900264600.0 0.1136252289 0.9913462232
5950264300.0 0.1255671497 0.9897004761
6000264000.0 0.1396267389 0.9879061491
6050263700.0 0.1523540339 0.9863171471
6100263400.0 0.1645690707 0.9841883692
6150263100.0 0.1795343188 0.9819128176
6200262800.0 0.1899373095 0.9802426079
6250262500.0 0.2024983194 0.9777897795
6300262200.0 0.2154943579 0.9749012459
6350261900.0 0.2286257027 0.9721163286
6400261600.0 0.2424288311 0.968540921
6450261300.0 0.2538529253 0.9660298863
6500261000.0 0.2663676367 0.9621166124
6550260700.0 0.2796596912 0.9584875166
6600260400.0 0.292983148 0.9545607854
6650260100.0 0.3066331849 0.9499638861
6700259800.0 0.3189312613 0.9459926705
6750259500.0 0.3324248285 0.9408711381
6800259200.0 0.3453973345 0.935830836
6850258900.0 0.3576165967 0.9307703351
6900258600.0 0.3697415655 0.9258689331
6950258300.0 0.3823295934 0.9208125191
7000258000.0 0.3942257402 0.9153034627
7050257700.0 0.4065442851 0.909356487
7100257400.0 0.4191963268 0.9031725255
7150257100.0 0.4296797376 0.8979568909
7200256800.0 0.4420469435 0.8911530581
7250256500.0 0.4540346945 0.885069607
7300256200.0 0.4669587117 0.8783645316
7350255900.0 0.4794160861 0.8716688474
7400255600.0 0.4923893621 0.8647989404
7450255300.0 0.5077598931 0.855278811
7500255000.0 0.519373037 0.8483735665
7550254700.0 0.5328635551 0.8398588095
7600254400.0 0.5458720822 0.8314783407
7650254100.0 0.5573319057 0.8236489876
7700253800.0 0.5687077239 0.8155806592
7750253500.0 0.5803483606 0.8075891068
7800253200.0 0.5910811723 0.7999673041
7850252900.0 0.60081506 0.7926144182
7900252600.0 0.6126825012 0.78385055
7950252300.0 0.6214898084 0.777201601
8000252000.0 0.6318197403 0.7693176192
8050251700.0 0.6422584775 0.7610247108
8100251400.0 0.6523413687 0.7527749099
8150251100.0 0.6624139314 0.7441226931
8200250800.0 0.6718082318 0.7359862925
8250250500.0 0.6812789483 0.7281336904
8300250200.0 0.690042061 0.7195104167
8350249900.0 0.6992254004 0.7106715183
8400249600.0 0.7074960733 0.7026573991
8450249300.0 0.7167512689 0.693536726
8500249000.0 0.7253039584 0.6844928406
8550248700.0 0.733726444 0.6753915097
8600248400.0 0.742194363 0.6658429239
8650248100.0 0.749827086 0.6565774181
8700247800.0 0.7592739605 0.6454987312
8750247500.0 0.7674871249 0.6356013789
8800247200.0 0.7756546935 0.6251956214
8850246900.0 0.7844709577 0.6138120902
8900246600.0 0.7925120621 0.6027354228
8950246300.0 0.8022534951 0.5899509722
9000246000.0 0.8113825295 0.5773457659
9050245700.0 0.8203196322 0.5645015292
9100245400.0 0.8291694159 0.5517159417
9150245100.0 0.8378725807 0.5386054984
9200244800.0 0.847992406 0.5233247955
9250244500.0 0.8572538905 0.5079064829
9300244200.0 0.8656259367 0.4934154937
9350243900.0 0.8732501209 0.4794231068
9400243600.0 0.8802217372 0.4669113446
9450243300.0 0.8860864523 0.4548775977
9500243000.0 0.8924622228 0.4424381819
9550242700.0 0.8961693558 0.4343807206
9600242400.0 0.9003106336 0.4265156718
9650242100.0 0.9039177521 0.4197435604
9700241800.0 0.9087099426 0.4112867068
9750241500.0 0.9124888107 0.4036528316
9800241200.0 0.917246691 0.3943861759
9850240900.0 0.9223930436 0.3828307377
9900240600.0 0.92816739 0.3708764739
9950240300.0 0.9347718246 0.3552118495
10000240000.0 0.9388277087 0.3436054288
10050239700.0 0.9453841219 0.3280080975
10100239400.0 0.9501793806 0.3125352661
10150239100.0 0.9539781469 0.2984390578
10200238800.0 0.9584975135 0.2833132376
10250238500.0 0.9618292932 0.2700139036
10300238200.0 0.9649694907 0.2562510712
10350237900.0 0.9676703895 0.2429577266
10400237600.0 0.9700650016 0.2302415587
10450237300.0 0.9728859192 0.2165750894
10500237000.0 0.9749270665 0.2042261721
10550236700.0 0.9774499154 0.1909694422
10600236400.0 0.9796785983 0.1769205838
10650236100.0 0.9816456537 0.1624465432
10700235800.0 0.9837616903 0.150405581
10750235500.0 0.9862227376 0.1371396641
10800235200.0 0.9879579018 0.1234294612
10850234900.0 0.9896058205 0.1088627417
10900234600.0 0.9918713457 0.0940626839
10950234300.0 0.9934122218 0.0811829999
11000234000.0 0.9951565475 0.0661993441
11050233700.0 0.9967312783 0.0500086507
11100233400.0 0.998014471 0.0326114601
11150233100.0 0.999217298 0.016337062
11200232800.0 0.9997218731 0.0017697882
11250232500.0 1.000731248 -0.0158172694
11300232200.0 1.001079719 -0.0328949363
11350231900.0 1.001299978 -0.0489677806
11400231600.0 1.000924971 -0.0637793022
11450231300.0 1.000264172 -0.0806351446
11500231000.0 0.9988934669 -0.0958651919
11550230700.0 0.9976076634 -0.1095912952
11600230400.0 0.9962573428 -0.1233476092
11650230100.0 0.9939323323 -0.1345104418
11700229800.0 0.9921115747 -0.1497430452
11750229500.0 0.9898462384 -0.1643228711
11800229200.0 0.9869776297 -0.1779125915
11850228900.0 0.9836856867 -0.190885176
11900228600.0 0.9800017276 -0.2007312813
11950228300.0 0.9771071063 -0.211096516
12000228000.0 0.9741010198 -0.2203268944
12050227700.0 0.9698900559 -0.2338824288
12100227400.0 0.9678427405 -0.2435233678
12150227100.0 0.9619673509 -0.2611445038
12200226800.0 0.9583803485 -0.271902228
12250226500.0 0.9550657775 -0.2847808061
12300226200.0 0.9502009622 -0.2969628545
12350225900.0 0.9460416099 -0.3107213288
12400225600.0 0.9419844254 -0.3229638292
12450225300.0 0.9372892051 -0.3355123312
12500225000.0 0.9316502349 -0.3499751469
12550224700.0 0.9266571817 -0.363357717
12600224400.0 0.9217017849 -0.3763568706
12650224100.0 0.9160010286 -0.3902428896
12700223800.0 0.910805733 -0.402887512
12750223500.0 0.9054019212 -0.4156679399
12800223200.0 0.8999802164 -0.4282320305
12850222900.0 0.8944686002 -0.4406087807
12900222600.0 0.8887028455 -0.4524943934
12950222300.0 0.8827440078 -0.4653931902
13000222000.0 0.8764348004 -0.4773671855
13050221700.0 0.8695959363 -0.4896518376
13100221400.0 0.8625814703 -0.5014912266
13150221100.0 0.8557741652 -0.5142670078
13200220800.0 0.848858593 -0.5257565389
13250220500.0 0.841290356 -0.5382875191
13300220200.0 0.8337816836 -0.5491561061
13350219900.0 0.8255316001 -0.5613652735
13400219600.0 0.8170355332 -0.5735773067
13450219300.0 0.8073794789 -0.5872161245
13500219000.0 0.797238347 -0.6010618176
13550218700.0 0.7872377237 -0.6140228987
13600218400.0 0.7773477509 -0.6263968697
13650218100.0 0.7673162825 -0.6374054754
13700217800.0 0.7562292301 -0.6498770282
13750217500.0 0.7463302574 -0.6609168844
13800217200.0 0.7348686437 -0.6727045007
13850216900.0 0.7240254952 -0.6842749198
13900216600.0 0.7138765545 -0.6933680438
13950216300.0 0.7028796087 -0.7037976197
14000216000.0 0.6929906931 -0.7127864199
14050215700.0 0.6834568769 -0.7208319169
14100215400.0 0.6738283734 -0.7299524451
14150215100.0 0.6647170868 -0.7386512317
14200214800.0 0.6554414429 -0.7467739698
14250214500.0 0.6453646223 -0.7558687834
14300214200.0 0.635047133 -0.7651323455
14350213900.0 0.6239696598 -0.7745144567
14400213600.0 0.6122471223 -0.784188345
14450213300.0 0.5995537379 -0.7940178012
14500213000.0 0.5864043437 -0.8041540295
14550212700.0 0.5739344081 -0.8132138557
14600212400.0 0.5615650304 -0.8219802036
14650212100.0 0.5490832447 -0.8305160672
14700211800.0 0.5347625518 -0.8399227438
14750211500.0 0.5229526459 -0.8482522672
14800211200.0 0.5106584328 -0.8563563051
14850210900.0 0.4983969838 -0.8637429061
14900210600.0 0.4847452465 -0.87162406
14950210300.0 0.4712905728 -0.8793589435
15000210000.0 0.458213143 -0.886168625
15050209700.0 0.4459429917 -0.8922159254
15100209400.0 0.4330245173 -0.8986151633
15150209100.0 0.4200098 -0.9036226343
15200208800.0 0.407736128 -0.9095030063
15250208500.0 0.3958017922 -0.9144888024
15300208200.0 0.3830515156 -0.9193948846
15350207900.0 0.3700254493 -0.9237142754
15400207600.0 0.3550008202 -0.9294758594
15450207300.0 0.3400998739 -0.9341139946
15500207000.0 0.3257209994 -0.9384122421
15550206700.0 0.311323336 -0.9436823143
15600206400.0 0.2950721793 -0.9483024328
15650206100.0 0.2795974493 -0.9528290906
15700205800.0 0.2656113114 -0.9560855694
15750205500.0 0.2512045987 -0.9595014006
15800205200.0 0.2368616982 -0.9629461575
15850204900.0 0.2225980829 -0.966333961
15900204600.0 0.2077656477 -0.9698972006
15950204300.0 0.1938097425 -0.9727823904
16000204000.0 0.1796730554 -0.975557536
16050203700.0 0.1653365475 -0.9784983608
16100203400.0 0.1511290775 -0.9807830879
16150203100.0 0.1365425665 -0.9825156608
16200202800.0 0.1230625555 -0.9845253199
16250202500.0 0.1081298471 -0.9862357618
16300202200.0 0.0930844348 -0.987769776
16350201900.0 0.0779439744 -0.9889460692
16400201600.0 0.0638565391 -0.9902954392
16450201300.0 0.0485895969 -0.991435649
16500201000.0 0.0321280819 -0.9920399181
16550200700.0 0.0163403463 -0.9926124234
16600200400.0 0.0005506815 -0.9928631654
16650200100.0 -0.0157531911 -0.9927034801
16700199800.0 -0.0326343191 -0.9924366509
16750199500.0 -0.050749295 -0.9914308013
16800199200.0 -0.0670065582 -0.9909349145
16850198900.0 -0.0825192548 -0.9894865619
16900198600.0 -0.0966188026 -0.9886975211
16950198300.0 -0.1099684425 -0.9870969834
17000198000.0 -0.1233193684 -0.9859095433
17050197700.0 -0.1359306959 -0.9840935621
17100197400.0 -0.1486565573 -0.9815327578
17150197100.0 -0.1618551978 -0.9796630701
17200196800.0 -0.1745593799 -0.9774254153
17250196500.0 -0.187585838 -0.975063058
17300196200.0 -0.1999198444 -0.9725952742
17350195900.0 -0.2119568725 -0.9704198885
17400195600.0 -0.2243425159 -0.9677323454
17450195300.0 -0.2374543003 -0.9649958043
17500195000.0 -0.2506640568 -0.9618840477
17550194700.0 -0.2647709222 -0.9579244781
17600194400.0 -0.2786649952 -0.9539780457
17650194100.0 -0.2923768422 -0.9503718812
17700193800.0 -0.305424682 -0.9452119359
17750193500.0 -0.3196720662 -0.9416874488
17800193200.0 -0.333533903 -0.936312872
17850192900.0 -0.3483629175 -0.9304634021
17900192600.0 -0.3632308259 -0.9247536573
17950192300.0 -0.3788120982 -0.9175766421
18000192000.0 -0.3931427712 -0.9103661489
18050191700.0 -0.407087068 -0.9026077649
18100191400.0 -0.421155366 -0.8950985459
18150191100.0 -0.4359711329 -0.8871090444
18200190800.0 -0.4527368449 -0.8779489862
18250190500.0 -0.4693243352 -0.8685044104
18300190200.0 -0.4850143207 -0.8599835708
18350189900.0 -0.4996244581 -0.8519331939
18400189600.0 -0.514119493 -0.8430098344
18450189300.0 -0.5274892942 -0.8347388099
18500189000.0 -0.5409093811 -0.8267884324
18550188700.0 -0.5536158803 -0.8195844524
18600188400.0 -0.5661306111 -0.8117769589
18650188100.0 -0.5768749592 -0.8055993015
18700187800.0 -0.5878054877 -0.7984718174
18750187500.0 -0.5988288244 -0.7918111507
18800187200.0 -0.609607014 -0.7844372173
18850186900.0 -0.620000798 -0.7771765947
18900186600.0 -0.6306040269 -0.7695625357
18950186300.0 -0.6409194864 -0.7617016396
19000186000.0 -0.6484451475 -0.7554349497
19050185700.0 -0.657888025 -0.7479556116
19100185400.0 -0.6678415656 -0.7391860295
19150185100.0 -0.6787800417 -0.7300630451
19200184800.0 -0.6883092691 -0.7221661846
19250184500.0 -0.6985487488 -0.7122332251
19300184200.0 -0.7095038365 -0.7027353741
19350183900.0 -0.7203923044 -0.6936474778
19400183600.0 -0.7301350406 -0.6834259823
19450183300.0 -0.7388548184 -0.673408858
19500183000.0 -0.7474484348 -0.6630273242
19550182700.0 -0.7566958416 -0.6530434589
19600182400.0 -0.7669226171 -0.6411280076
19650182100.0 -0.7774006696 -0.6289200336
19700181800.0 -0.7877576164 -0.6160037614
19750181500.0 -0.7979349327 -0.6024178768
19800181200.0 -0.8081014276 -0.5877281235
19850180900.0 -0.8173531896 -0.5727800309
19900180600.0 -0.825174357 -0.5584471635
19950180300.0 -0.833909465 -0.5421742147
20000180000.0 -0.82843595 -0.5444507177
20050179700.0 -0.8358704128 -0.5310290229
20100179400.0 -0.844452838 -0.5171647304
20150179100.0 -0.8522172759 -0.5051679208
20200178800.0 -0.8610001737 -0.4933461586
20250178500.0 -0.8699909208 -0.4790890845
20300178200.0 -0.879543616 -0.4642859918
20350177900.0 -0.8882806336 -0.4504899836
20400177600.0 -0.8968391098 -0.435666929
20450177300.0 -0.9051373371 -0.4215314502
20500177000.0 -0.9128528495 -0.4075913391
20550176700.0 -0.9206858068 -0.3937519173
20600176400.0 -0.92739908 -0.3806221037
20650176100.0 -0.9340400382 -0.3680146796
20700175800.0 -0.9409948854 -0.3559433669
20750175500.0 -0.9474086824 -0.3437566736
20800175200.0 -0.9519050367 -0.3326396544
20850174900.0 -0.9574025183 -0.3214425735
20900174600.0 -0.9619017121 -0.3095529693
20950174300.0 -0.966334478 -0.2972589899
21000174000.0 -0.9705807566 -0.2862830946
21050173700.0 -0.9725181669 -0.2743016865
21100173400.0 -0.9767798252 -0.2619762962
21150173100.0 -0.9815216726 -0.2495753443
21200172800.0 -0.9846220371 -0.2362700037
21250172500.0 -0.987431399 -0.221882205
21300172200.0 -0.9902890929 -0.2083369715
21350171900.0 -0.9921533056 -0.1933257244
21400171600.0 -0.9931746487 -0.1793442867
21450171300.0 -0.9939285099 -0.1653591956
21500171000.0 -0.9942969638 -0.1491944666
21550170700.0 -0.9941065246 -0.1340563985
21600170400.0 -0.9942245039 -0.1188715394
21650170100.0 -0.9932278274 -0.1032326068
21700169800.0 -0.9912545448 -0.0883641926
21750169500.0 -0.9895683186 -0.0727198493
21800169200.0 -0.988290694 -0.0571881372
21850168900.0 -0.987728959 -0.041449399
21900168600.0 -0.9856244619 -0.0240903227
21950168300.0 -0.9840071715 -0.0084146951
22000168000.0 -0.9833101399 0.0064734354
22050167700.0 -0.9830091075 0.0206694974
22100167400.0 -0.9825737504 0.0355998087
22150167100.0 -0.9831048812 0.0513018234
22200166800.0 -0.9836702078 0.0668226735
22250166500.0 -0.982696561 0.0837894173
22300166200.0 -0.9826001144 0.0998295832
22350165900.0 -0.9803783157 0.1169477963
22400165600.0 -0.9782466455 0.1328091115
22450165300.0 -0.9769927105 0.1475665836
22500165000.0 -0.9754866319 0.1615216288
22550164700.0 -0.974481377 0.1766562938
22600164400.0 -0.972051057 0.1915252871
22650164100.0 -0.9696261112 0.2069432446
22700163800.0 -0.9673967047 0.2225281537
22750163500.0 -0.9647894107 0.2383044483
22800163200.0 -0.9616662822 0.2512055003
22850162900.0 -0.9594114864 0.2647733053
22900162600.0 -0.9582666736 0.2782219459
22950162300.0 -0.9571257082 0.2907136976
23000162000.0 -0.9556556847 0.3024689127
23050161700.0 -0.9540725753 0.3154749208
23100161400.0 -0.9514682685 0.3285081217
23150161100.0 -0.9488563774 0.3406469946
23200160800.0 -0.9461593126 0.3532251173
23250160500.0 -0.9427267749 0.3648587079
23300160200.0 -0.9401524004 0.3766402521
23350159900.0 -0.9369033349 0.3895368916
23400159600.0 -0.9318552202 0.4021818983
23450159300.0 -0.9271116649 0.4153442484
23500159000.0 -0.9228241902 0.4282167124
23550158700.0 -0.9179255065 0.4412875321
23600158400.0 -0.9126966445 0.4541807423
23650158100.0 -0.906470037 0.4680559679
23700157800.0 -0.8987821714 0.4818672842
23750157500.0 -0.8902554122 0.4954944808
23800157200.0 -0.8815108516 0.5085636429
23850156900.0 -0.8725401602 0.5210050288
23900156600.0 -0.8630293484 0.5333325649
23950156300.0 -0.8543409654 0.5462679062
24000156000.0 -0.8448565703 0.5583198428
24050155700.0 -0.8353125628 0.5700111465
24100155400.0 -0.8247210089 0.5817304691
24150155100.0 -0.8149022063 0.5933729973
24200154800.0 -0.8037649293 0.6045952162
24250154500.0 -0.7924105467 0.6164771222
24300154200.0 -0.7810149737 0.6280089468
24350153900.0 -0.7693202885 0.6388217444
24400153600.0 -0.7571505896 0.6496571828
24450153300.0 -0.7451877878 0.6597567186
24500153000.0 -0.7338437673 0.6693077953
24550152700.0 -0.7227117958 0.678711711
24600152400.0 -0.7109146285 0.6888576876
24650152100.0 -0.6996992344 0.696833663
