!Created with skrf (http://scikit-rf.org).
# Hz S RI R 50.0 
!freq ReS11 ImS11
300000.0 -0.9742390533 -0.1215474399
50299700.0 -0.999949517 0.0150467296
100299400.0 -0.9978010908 0.0278956349
150299100.0 -1.002653693 0.0449562488
200298800.0 -0.9993770609 0.058037157
250298500.0 -0.9974532168 0.071556255
300298200.0 -0.9857515162 0.0873674043
350297900.0 -0.9939830374 0.098440381
400297600.0 -0.993234752 0.1148088806
450297300.0 -0.9909573808 0.128687626
500297000.0 -0.9894663061 0.1436070993
550296700.0 -0.9843165932 0.1559243691
600296400.0 -1.017351577 0.1889415508
650296100.0 -0.9820908922 0.1859435775
700295800.0 -0.9791666519 0.2001525804
750295500.0 -0.9763819075 0.213802092
800295200.0 -0.9730941049 0.2281659412
850294900.0 -0.9697335599 0.2418940446
900294600.0 -0.9658498841 0.2556096894
950294300.0 -0.9619982073 0.2689937636
1000294000.0 -0.9581214916 0.2833501921
1050293700.0 -0.953758287 0.2971213621
1100293400.0 -0.9493536046 0.31150441
1150293100.0 -0.9454931576 0.3235227077
1200292800.0 -0.9403215623 0.3377559574
1250292500.0 -0.9347662397 0.3513426959
1300292200.0 -0.9289313797 0.3644891588
1350291900.0 -0.9234615924 0.3785839515
1400291600.0 -0.9179872981 0.3916476947
1450291300.0 -0.9126229856 0.4041636115
1500291000.0 -0.9062388442 0.4173791836
1550290700.0 -0.8996178612 0.4308181881
1600290400.0 -0.8934259817 0.4435692225
1650290100.0 -0.8867049266 0.4559812011
1700289800.0 -0.8799115194 0.4692302623
1750289500.0 -0.8727367981 0.4815573332
1800289200.0 -0.8654839549 0.4946416717
1850288900.0 -0.85876561 0.5057342586
1900288600.0 -0.8510466977 0.5186839847
1950288300.0 -0.8429431001 0.5314540848
2000288000.0 -0.8352861978 0.5428788097
2050287700.0 -0.8272437545 0.5554197948
2100287400.0 -0.8193234074 0.5668379501
2150287100.0 -0.8109608768 0.5786716511
2200286800.0 -0.8028611746 0.5892375113
2250286500.0 -0.7941555946 0.6016531933
2300286200.0 -0.7852835601 0.612923117
2350285900.0 -0.7768240721 0.6235143976
2400285600.0 -0.7680459203 0.6344214574
2450285300.0 -0.759203214 0.6450247291
2500285000.0 -0.7490030099 0.656580749
2550284700.0 -0.7401664422 0.6668397297
2600284400.0 -0.731008444 0.67688096
2650284100.0 -0.7223138939 0.6873065863
2700283800.0 -0.7118995213 0.6976054287
2750283500.0 -0.7013897601 0.7079626136
2800283200.0 -0.6915393455 0.7182571224
2850282900.0 -0.6809729982 0.7280857141
2900282600.0 -0.6707572636 0.7378751751
2950282300.0 -0.6602114058 0.7473770113
3000282000.0 -0.6496354439 0.7567334296
3050281700.0 -0.6381933275 0.765934377
3100281400.0 -0.6267839342 0.774965312
3150281100.0 -0.6155599243 0.7840419893
3200280800.0 -0.6041942847 0.7922402107
3250280500.0 -0.5930303799 0.8004084426
3300280200.0 -0.5813592473 0.808506245
3350279900.0 -0.5692125843 0.8164821954
3400279600.0 -0.5567158003 0.8243767191
3450279300.0 -0.5452207283 0.8315040185
3500279000.0 -0.5338634855 0.8384970541
3550278700.0 -0.5215054257 0.845910863
3600278400.0 -0.5097982117 0.8523874326
3650278100.0 -0.4968430377 0.859891678
3700277800.0 -0.4847767134 0.8666422639
3750277500.0 -0.4721580423 0.8734175599
3800277200.0 -0.459671554 0.8798666133
3850276900.0 -0.4475759766 0.8855499506
3900276600.0 -0.4368569322 0.8912513524
3950276300.0 -0.424722837 0.8972676719
4000276000.0 -0.4129869136 0.9032544816
4050275700.0 -0.4004614704 0.9091724748
4100275400.0 -0.3892596359 0.9146318849
4150275100.0 -0.3758692417 0.9205336381
4200274800.0 -0.3625471261 0.9261191898
4250274500.0 -0.3500789879 0.9315560904
4300274200.0 -0.3368171925 0.9368982746
4350273900.0 -0.3226193963 0.9421972239
4400273600.0 -0.307670128 0.9473957868
4450273300.0 -0.2927589479 0.9524847183
4500273000.0 -0.2796462936 0.9566042969
4550272700.0 -0.2660826129 0.9604845409
4600272400.0 -0.2509624672 0.9647504163
4650272100.0 -0.2394505918 0.9677716337
4700271800.0 -0.2265406944 0.971195024
4750271500.0 -0.2149688035 0.9741568433
4800271200.0 -0.2028249421 0.9766969545
4850270900.0 -0.1889454299 0.9794931588
4900270600.0 -0.1751130009 0.9819753954
4950270300.0 -0.1606259215 0.9844950421
5000270000.0 -0.1460819007 0.9866297211
5050269700.0 -0.1326076339 0.9883167945
5100269400.0 -0.1185274788 0.9897606976
5150269100.0 -0.1045039164 0.9918526278
5200268800.0 -0.0911948828 0.9926652619
5250268500.0 -0.0780102802 0.9935865835
5300268200.0 -0.0646023725 0.9946917518
5350267900.0 -0.0516639181 0.9951975877
5400267600.0 -0.035448893 0.9964367929
5450267300.0 -0.0220739112 0.9968356593
5500267000.0 -0.0070253705 0.9970232058
5550266700.0 0.0082022422 0.9971373872
5600266400.0 0.0238424443 0.9972833719
5650266100.0 0.040485881 0.996957806
5700265800.0 0.0546515864 0.9957273658
5750265500.0 0.069773727 0.9951395168
5800265200.0 0.0832989082 0.9940223278
5850264900.0 0.096700943 0.9929630519
5900264600.0 0.1129112005 0.9914094768
5950264300.0 0.1245646466 0.9896136997
6000264000.0 0.1382598039 0.9880389624
6050263700.0 0.1497304546 0.9865488769
6100263400.0 0.1621872963 0.9849889586
6150263100.0 0.1763617735 0.9823679239
6200262800.0 0.1863989137 0.9810478741
6250262500.0 0.198910827 0.9788220931
6300262200.0 0.211192726 0.9762253006
6350261900.0 0.2241526803 0.9734305161
6400261600.0 0.2380088656 0.9701943628
6450261300.0 0.249013731 0.9675549208
6500261000.0 0.2624132988 0.9640596565
6550260700.0 0.2754338614 0.9599708762
6600260400.0 0.2888655868 0.956028706
6650260100.0 0.3031914607 0.9517407487
6700259800.0 0.3150152091 0.9472626301
6750259500.0 0.328683429 0.9422374765
6800259200.0 0.3423558506 0.9375785262
6850258900.0 0.3549769577 0.9321062732
6900258600.0 0.3675200377 0.9268415634
6950258300.0 0.3797175878 0.921411796
7000258000.0 0.3915273325 0.9161034335
7050257700.0 0.4033837162 0.9103331134
7100257400.0 0.4167587157 0.9039129677
7150257100.0 0.4276510667 0.8985388339
7200256800.0 0.4405124343 0.8922624283
7250256500.0 0.4531618247 0.8855100323
7300256200.0 0.4659655453 0.8786304717
7350255900.0 0.4787750135 0.8715361716
7400255600.0 0.4930400724 0.8641508388
7450255300.0 0.5084504456 0.8546873007
7500255000.0 0.5209065003 0.8473499984
7550254700.0 0.5350891867 0.8384977271
7600254400.0 0.5474098014 0.830021005
7650254100.0 0.5591227427 0.8219868739
7700253800.0 0.5708771922 0.8140686625
7750253500.0 0.5817468506 0.8063328621
7800253200.0 0.592498566 0.7984754862
7850252900.0 0.6022277022 0.7913863397
7900252600.0 0.6137618848 0.7825732896
7950252300.0 0.6221939928 0.7764103432
8000252000.0 0.6322336507 0.768583334
8050251700.0 0.6425924247 0.7605047023
8100251400.0 0.6526567485 0.7525856344
8150251100.0 0.6625178158 0.7440956084
8200250800.0 0.6721687767 0.7358901892
8250250500.0 0.6808912511 0.7280100411
8300250200.0 0.6898510409 0.7196859585
8350249900.0 0.6991011364 0.7109139091
8400249600.0 0.7071090119 0.70287177
8450249300.0 0.7159027639 0.6941741548
8500249000.0 0.7245369391 0.6853133799
8550248700.0 0.7328877666 0.6762230266
8600248400.0 0.7411870698 0.6667412303
8650248100.0 0.7486967112 0.6574566933
8700247800.0 0.7581459046 0.6463169443
8750247500.0 0.7664193591 0.6361958593
8800247200.0 0.7744221244 0.6258321078
8850246900.0 0.7829446127 0.6146526691
8900246600.0 0.7915484736 0.6032079736
8950246300.0 0.8005286204 0.5903680433
9000246000.0 0.8093886688 0.5783000357
9050245700.0 0.8180804238 0.5660584141
9100245400.0 0.8265084502 0.5537926249
9150245100.0 0.8349334922 0.5408771763
9200244800.0 0.8447393747 0.5265511557
9250244500.0 0.8537150204 0.5115706846
9300244200.0 0.8615392405 0.4981231387
9350243900.0 0.8693396603 0.4849591707
9400243600.0 0.8759422799 0.4732755103
9450243300.0 0.8815323818 0.4625469868
9500243000.0 0.8877396494 0.4509421035
9550242700.0 0.8917884767 0.4433547504
9600242400.0 0.8960349302 0.435961009
9650242100.0 0.9001636862 0.4288337357
9700241800.0 0.9048183923 0.4204498388
9750241500.0 0.9091224187 0.4129138962
9800241200.0 0.914329186 0.4034406197
9850240900.0 0.9200316122 0.3917039932
9900240600.0 0.9260984218 0.3800485696
9950240300.0 0.933037949 0.3630389623
10000240000.0 0.9380911487 0.3511373593
10050239700.0 0.9439108592 0.3349635609
10100239400.0 0.9494554681 0.3184954123
10150239100.0 0.9538852624 0.3032442635
10200238800.0 0.9583953252 0.2875570736
10250238500.0 0.9616406761 0.2740962641
10300238200.0 0.964847914 0.2601075134
10350237900.0 0.9674894864 0.2464655026
10400237600.0 0.9700916569 0.2333227488
10450237300.0 0.9727522696 0.2194289275
10500237000.0 0.975166268 0.2069829658
10550236700.0 0.9774264786 0.1927179078
10600236400.0 0.9793697593 0.178969951
10650236100.0 0.9814836997 0.1645667213
10700235800.0 0.9836461569 0.1523770845
10750235500.0 0.9859559194 0.1387464768
10800235200.0 0.9879648994 0.1246457466
10850234900.0 0.9900342362 0.1095356696
10900234600.0 0.9921227272 0.0943942877
10950234300.0 0.99377044 0.0810272823
11000234000.0 0.9955568823 0.0655163976
11050233700.0 0.9973277825 0.0486770958
11100233400.0 0.9988069443 0.030881178
11150233100.0 1.000233388 0.014258038
11200232800.0 1.001041735 -0.0022956461
11250232500.0 1.00169678 -0.0192715756
11300232200.0 1.001864522 -0.0379293647
11350231900.0 1.001854696 -0.0541646352
11400231600.0 1.001353261 -0.0697726047
11450231300.0 1.001242523 -0.0856466832
11500231000.0 1.000001643 -0.1020170909
11550230700.0 0.9990136 -0.1149957483
11600230400.0 0.9970049493 -0.1281945429
11650230100.0 0.9948385664 -0.1396040938
11700229800.0 0.9926487779 -0.1543344571
11750229500.0 0.9903750749 -0.1682680101
11800229200.0 0.9874391301 -0.1820135948
11850228900.0 0.9837574753 -0.1936756886
11900228600.0 0.9801288522 -0.2030037733
11950228300.0 0.9767768781 -0.2130027632
12000228000.0 0.9737741696 -0.2217701118
12050227700.0 0.9702619619 -0.2340997781
12100227400.0 0.9669553364 -0.2456909623
12150227100.0 0.9620521167 -0.2611898598
12200226800.0 0.9580702795 -0.2734602357
12250226500.0 0.9538040123 -0.2862041901
12300226200.0 0.9496017853 -0.2976559102
12350225900.0 0.9448146503 -0.3118139012
12400225600.0 0.9399372924 -0.3243483988
12450225300.0 0.935807074 -0.3365798768
12500225000.0 0.9305076714 -0.351770531
12550224700.0 0.924993959 -0.3654601855
12600224400.0 0.9199756932 -0.3783338391
12650224100.0 0.9141498029 -0.3926017432
12700223800.0 0.908848184 -0.4054174766
12750223500.0 0.9031594267 -0.4186351407
12800223200.0 0.8979358019 -0.431019853
12850222900.0 0.8926770405 -0.4432295692
12900222600.0 0.8868077482 -0.4549719845
12950222300.0 0.8808945055 -0.4680484683
13000222000.0 0.8749609488 -0.4794277408
13050221700.0 0.8686078095 -0.4923796366
13100221400.0 0.8615283757 -0.5045117491
13150221100.0 0.8546708525 -0.5165279877
13200220800.0 0.847409321 -0.5285775727
13250220500.0 0.8405630106 -0.5406147011
13300220200.0 0.8328796975 -0.5516335457
13350219900.0 0.8247339448 -0.5631654315
13400219600.0 0.8164969931 -0.5751026442
13450219300.0 0.8073109447 -0.5881377003
13500219000.0 0.7973926324 -0.6013445763
13550218700.0 0.7873764518 -0.6139894631
13600218400.0 0.7772093804 -0.6257908957
13650218100.0 0.7676438225 -0.6366657152
13700217800.0 0.7562096315 -0.6483994975
13750217500.0 0.7473141144 -0.6589357979
13800217200.0 0.736427335 -0.6701599881
13850216900.0 0.726440533 -0.681225224
13900216600.0 0.7159494326 -0.6904579592
13950216300.0 0.7047354125 -0.7004074341
14000216000.0 0.69515681 -0.7094443477
14050215700.0 0.6858938212 -0.7173606657
14100215400.0 0.6764785344 -0.7260948681
14150215100.0 0.6674416438 -0.7352537428
14200214800.0 0.6579697699 -0.7440968899
14250214500.0 0.6473556292 -0.7535514177
14300214200.0 0.6369654913 -0.7630582482
14350213900.0 0.6258387375 -0.7726252017
14400213600.0 0.6141436524 -0.7824532419
14450213300.0 0.6012797332 -0.7924150221
14500213000.0 0.5883298515 -0.8025109752
14550212700.0 0.5756172023 -0.8120908603
14600212400.0 0.5633094981 -0.8206539804
14650212100.0 0.5504225414 -0.8292877889
14700211800.0 0.5367195542 -0.8388216173
14750211500.0 0.5246400375 -0.8473848788
14800211200.0 0.5121958356 -0.8556180071
14850210900.0 0.4999276931 -0.8631496443
14900210600.0 0.4864912295 -0.871031941
14950210300.0 0.4731392352 -0.8788280038
15000210000.0 0.4606702625 -0.8856282621
15050209700.0 0.4481796689 -0.8915997428
15100209400.0 0.4355902509 -0.8975226694
15150209100.0 0.4233838962 -0.9028353825
15200208800.0 0.4104875938 -0.9080931461
15250208500.0 0.3994987127 -0.9117360489
15300208200.0 0.3873213816 -0.9175512242
15350207900.0 0.3737863712 -0.9218866496
15400207600.0 0.3591588577 -0.9276924866
15450207300.0 0.3451582632 -0.9328360687
15500207000.0 0.3308935915 -0.9371527055
15550206700.0 0.3155671759 -0.9420481524
15600206400.0 0.2993628768 -0.9465731709
15650206100.0 0.2836596149 -0.9508817443
15700205800.0 0.270203891 -0.9545101421
15750205500.0 0.256069019 -0.9576197944
15800205200.0 0.2420330972 -0.9611559025
15850204900.0 0.2278838928 -0.9647633127
15900204600.0 0.2128125058 -0.9683947441
15950204300.0 0.1983613933 -0.9714455939
16000204000.0 0.1841863726 -0.9745813672
16050203700.0 0.1688787684 -0.9772661318
16100203400.0 0.1541347603 -0.9798065694
16150203100.0 0.1392073262 -0.9819115395
16200202800.0 0.1248919848 -0.9846030062
16250202500.0 0.1102132564 -0.9859404983
16300202200.0 0.0946543985 -0.9874399587
16350201900.0 0.0798606733 -0.9888499146
16400201600.0 0.0653355991 -0.9901792771
16450201300.0 0.0497168752 -0.9912281731
16500201000.0 0.032444599 -0.9920063458
16550200700.0 0.0164321948 -0.9924962416
16600200400.0 0.0007873859 -0.9927899485
16650200100.0 -0.0154476612 -0.992603432
16700199800.0 -0.0319210892 -0.9918489018
16750199500.0 -0.0516913484 -0.9913594706
16800199200.0 -0.0671437443 -0.9908929493
16850198900.0 -0.0823799316 -0.9894277867
16900198600.0 -0.0961583654 -0.9891243654
16950198300.0 -0.1103608635 -0.9869133603
17000198000.0 -0.122866713 -0.986230529
17050197700.0 -0.1360671387 -0.9837705517
17100197400.0 -0.1487868274 -0.9820846763
17150197100.0 -0.1615306689 -0.9797256127
17200196800.0 -0.1739658608 -0.9776424265
17250196500.0 -0.1871928264 -0.9754541659
17300196200.0 -0.1994135848 -0.9732045923
17350195900.0 -0.2113096732 -0.9706625117
17400195600.0 -0.2232970858 -0.9680417826
17450195300.0 -0.236090487 -0.9653268254
17500195000.0 -0.2496418537 -0.9618736165
17550194700.0 -0.2634288284 -0.9581807691
17600194400.0 -0.2770825648 -0.9543385525
17650194100.0 -0.2909081483 -0.9502612024
17700193800.0 -0.303788753 -0.9463702545
17750193500.0 -0.3177718979 -0.9417020894
17800193200.0 -0.3320415448 -0.9364003828
17850192900.0 -0.3468946215 -0.9312182452
17900192600.0 -0.3622133621 -0.9250261378
17950192300.0 -0.3775783656 -0.9178074904
18000192000.0 -0.392043364 -0.9108388269
18050191700.0 -0.4060478753 -0.9026646622
18100191400.0 -0.4201904564 -0.8950388838
18150191100.0 -0.4350553604 -0.8870787129
18200190800.0 -0.4520311168 -0.8778072264
18250190500.0 -0.4689789774 -0.8683595971
18300190200.0 -0.484060864 -0.8597097378
18350189900.0 -0.4994872122 -0.8512916864
18400189600.0 -0.5140377462 -0.8425715511
18450189300.0 -0.527409 -0.8349012955
18500189000.0 -0.5408354757 -0.8265100545
18550188700.0 -0.5533900954 -0.8193182933
18600188400.0 -0.565557574 -0.8122967272
18650188100.0 -0.5769795504 -0.8054671791
18700187800.0 -0.5879153641 -0.7989783995
18750187500.0 -0.598760347 -0.7921551596
18800187200.0 -0.6094455082 -0.7850371749
18850186900.0 -0.6194715784 -0.7782485842
18900186600.0 -0.6300474048 -0.7708015979
18950186300.0 -0.6403399411 -0.763116403
19000186000.0 -0.6477349249 -0.756958811
19050185700.0 -0.6568803484 -0.7495356354
19100185400.0 -0.6668758311 -0.7415813537
19150185100.0 -0.6767368906 -0.7330197847
19200184800.0 -0.6858304257 -0.7251765334
19250184500.0 -0.6961909404 -0.7149174479
19300184200.0 -0.7083461743 -0.7053942235
19350183900.0 -0.7185448769 -0.6965724068
19400183600.0 -0.7283162566 -0.6863407507
19450183300.0 -0.7379956379 -0.6763737286
19500183000.0 -0.7458466919 -0.6662628482
19550182700.0 -0.7557515921 -0.6555358449
19600182400.0 -0.76587752 -0.6440467674
19650182100.0 -0.7762602651 -0.6316321315
19700181800.0 -0.7868316738 -0.6184224333
19750181500.0 -0.797182822 -0.6042716955
19800181200.0 -0.8072745616 -0.5892914611
19850180900.0 -0.8169775679 -0.5741775595
19900180600.0 -0.8246437226 -0.5596703121
19950180300.0 -0.8335693925 -0.5433588597
20000180000.0 -0.823358434 -0.5476099525
20050179700.0 -0.8317403452 -0.5337923169
20100179400.0 -0.8398770951 -0.5216811931
20150179100.0 -0.8485623062 -0.5105433237
20200178800.0 -0.8562338715 -0.4976456621
20250178500.0 -0.8658758929 -0.4850372867
20300178200.0 -0.8753142568 -0.4709296385
20350177900.0 -0.8847478532 -0.4575062673
20400177600.0 -0.89355399 -0.4434727697
20450177300.0 -0.9021320575 -0.4286555902
20500177000.0 -0.9100182063 -0.4150726984
20550176700.0 -0.9180248756 -0.4013556809
20600176400.0 -0.9251106858 -0.3883292884
20650176100.0 -0.9316209364 -0.3763883017
20700175800.0 -0.9378472592 -0.3647819421
20750175500.0 -0.9450140721 -0.3531333755
20800175200.0 -0.9493511409 -0.3416004072
20850174900.0 -0.9541705284 -0.3313011198
20900174600.0 -0.9590131973 -0.3201177341
20950174300.0 -0.9610764923 -0.3090298165
21000174000.0 -0.9641803411 -0.2978399043
21050173700.0 -0.9659199274 -0.2887471237
21100173400.0 -0.9693346263 -0.2776223516
21150173100.0 -0.9737346958 -0.2663594215
21200172800.0 -0.9772690975 -0.2529641015
21250172500.0 -0.9809768331 -0.2391123498
21300172200.0 -0.9845576949 -0.2248049177
21350171900.0 -0.9866721106 -0.2108223831
21400171600.0 -0.9882007632 -0.1963329935
21450171300.0 -0.9887794358 -0.1824570644
21500171000.0 -0.9892513528 -0.1677328669
21550170700.0 -0.9898835417 -0.1521249541
21600170400.0 -0.9903874355 -0.1369221486
21650170100.0 -0.9909547097 -0.1218284299
21700169800.0 -0.9900343207 -0.1055746517
21750169500.0 -0.9906808026 -0.0895523543
21800169200.0 -0.9897558572 -0.072283912
21850168900.0 -0.98950248 -0.055902325
21900168600.0 -0.98950048 -0.0404713675
21950168300.0 -0.9888751476 -0.024457804
22000168000.0 -0.9888978051 -0.0096584386
22050167700.0 -0.9890611074 0.0046174785
22100167400.0 -0.9899111992 0.0206427006
22150167100.0 -0.9909038319 0.0370449642
22200166800.0 -0.9915562159 0.0530240327
22250166500.0 -0.9905085579 0.0707266273
22300166200.0 -0.9899796426 0.0867773576
22350165900.0 -0.9893934734 0.1036853457
22400165600.0 -0.9872724034 0.1186723931
22450165300.0 -0.9857283302 0.1335575239
22500165000.0 -0.9836512911 0.1476656494
22550164700.0 -0.9829717222 0.1644275235
22600164400.0 -0.9805482817 0.1806996571
22650164100.0 -0.9781833697 0.1953960336
22700163800.0 -0.9743113114 0.2117611664
22750163500.0 -0.9716204066 0.2269683549
22800163200.0 -0.9688819132 0.2401353102
22850162900.0 -0.9663495474 0.2535640783
22900162600.0 -0.9646761052 0.267522964
22950162300.0 -0.9626221594 0.2808177148
23000162000.0 -0.9612219601 0.2936682212
23050161700.0 -0.9587041384 0.3065609997
23100161400.0 -0.9551644479 0.3206439792
23150161100.0 -0.952388551 0.3334362269
23200160800.0 -0.9497605678 0.3460592136
23250160500.0 -0.9469633442 0.3580665349
23300160200.0 -0.9440934173 0.370787489
23350159900.0 -0.9398867398 0.3847916597
23400159600.0 -0.9356183124 0.3984929463
23450159300.0 -0.9298129198 0.4121944971
23500159000.0 -0.9252794855 0.4258482336
23550158700.0 -0.919911234 0.4398286895
23600158400.0 -0.9139246694 0.4539589458
23650158100.0 -0.9068471422 0.4688408755
23700157800.0 -0.8984063432 0.482900129
23750157500.0 -0.8889445405 0.4974536986
23800157200.0 -0.8789641904 0.510708662
23850156900.0 -0.8697095937 0.5235614551
23900156600.0 -0.859898334 0.5363599007
23950156300.0 -0.8502294981 0.5490085085
24000156000.0 -0.840567272 0.5610823977
24050155700.0 -0.8302889297 0.5735564681
24100155400.0 -0.8200556366 0.5855947482
24150155100.0 -0.8091312826 0.5972184235
24200154800.0 -0.798537423 0.6097660645
24250154500.0 -0.7864502628 0.6221853039
24300154200.0 -0.7750951796 0.6340553271
24350153900.0 -0.7628883055 0.6452742719
24400153600.0 -0.750172271 0.655486536
24450153300.0 -0.7386307862 0.6657686069
24500153000.0 -0.726761121 0.6756635244
24550152700.0 -0.7157470129 0.685731301
24600152400.0 -0.7032991165 0.6959420701
24650152100.0 -0.6914725418 0.7036600311
