!Created with skrf (http://scikit-rf.org).
# Hz S RI R 50.0 
!freq ReS11 ImS11
300000.0 -0.9741780394 -0.1207139846
50299700.0 -1.000026637 0.0150076337
100299400.0 -0.9979182229 0.0279506561
150299100.0 -1.002686079 0.044822139
200298800.0 -0.9995597624 0.058145306
250298500.0 -0.9973263711 0.071611312
300298200.0 -0.985909633 0.0874698089
350297900.0 -0.9937799674 0.0982601161
400297600.0 -0.9931213039 0.1148121043
450297300.0 -0.9910548137 0.128681862
500297000.0 -0.9894597331 0.1433613497
550296700.0 -0.9841488951 0.1558652309
600296400.0 -1.017248362 0.1891741648
650296100.0 -0.9822380245 0.1858348951
700295800.0 -0.9793040995 0.1999970113
750295500.0 -0.9761879597 0.2141220346
800295200.0 -0.9729641158 0.2278914143
850294900.0 -0.96958165 0.2418330241
900294600.0 -0.9657185175 0.2555347641
950294300.0 -0.962049601 0.2692026083
1000294000.0 -0.9582664605 0.2832681945
1050293700.0 -0.953532466 0.2970437633
1100293400.0 -0.9493118155 0.311424245
1150293100.0 -0.9454660584 0.3233592843
1200292800.0 -0.9400297508 0.3378446938
1250292500.0 -0.9348419732 0.3510441955
1300292200.0 -0.9290111095 0.3644907459
1350291900.0 -0.9233539473 0.3784464321
1400291600.0 -0.9179133658 0.3914768436
1450291300.0 -0.912382617 0.4041209217
1500291000.0 -0.9062065588 0.4172362712
1550290700.0 -0.8996248399 0.4309114072
1600290400.0 -0.8934928808 0.4435888848
1650290100.0 -0.8868185217 0.4558903643
1700289800.0 -0.8800862565 0.4693162412
1750289500.0 -0.8728617446 0.4815605681
1800289200.0 -0.8655025759 0.4943564994
1850288900.0 -0.8586781771 0.5057168511
1900288600.0 -0.8510012687 0.5186356336
1950288300.0 -0.843123765 0.5313590726
2000288000.0 -0.8354480372 0.5427841516
2050287700.0 -0.8272303203 0.555396696
2100287400.0 -0.8194757994 0.566633292
2150287100.0 -0.8108647574 0.5784887575
2200286800.0 -0.8030297048 0.5891213338
2250286500.0 -0.7940435125 0.6013266907
2300286200.0 -0.785406101 0.6128252895
2350285900.0 -0.7767159805 0.6235846881
2400285600.0 -0.7682399151 0.6343181596
2450285300.0 -0.7593474855 0.6449787706
2500285000.0 -0.7491422474 0.6567288031
2550284700.0 -0.7401067273 0.6669408251
2600284400.0 -0.7309972426 0.6770140603
2650284100.0 -0.7223528619 0.6871888029
2700283800.0 -0.7118822212 0.6976937565
2750283500.0 -0.7016345527 0.7081242325
2800283200.0 -0.6915383629 0.7179052099
2850282900.0 -0.6811588092 0.7282562344
2900282600.0 -0.6705837318 0.737827949
2950282300.0 -0.6603093516 0.7473596856
3000282000.0 -0.6495166216 0.7564959002
3050281700.0 -0.6384820741 0.7658142788
3100281400.0 -0.6268893604 0.7749553613
3150281100.0 -0.6155385201 0.7840311498
3200280800.0 -0.6042011484 0.7922273125
3250280500.0 -0.593057364 0.8003878307
3300280200.0 -0.5814338662 0.8083753946
3350279900.0 -0.5694426508 0.8164310544
3400279600.0 -0.5567431234 0.8244886497
3450279300.0 -0.5455251733 0.831518865
3500279000.0 -0.5337040651 0.8383789683
3550278700.0 -0.5219059353 0.8459376571
3600278400.0 -0.5099661342 0.8524014068
3650278100.0 -0.4970536315 0.8597977493
3700277800.0 -0.4847614716 0.8664556046
3750277500.0 -0.472518055 0.8732574094
3800277200.0 -0.4598550825 0.8797288431
3850276900.0 -0.4479441944 0.8853686541
3900276600.0 -0.4367586286 0.8912899936
3950276300.0 -0.4247859196 0.897138959
4000276000.0 -0.413106606 0.9032110386
4050275700.0 -0.4003696418 0.9092134497
4100275400.0 -0.3891601669 0.9145141258
4150275100.0 -0.3760916994 0.9206479018
4200274800.0 -0.3625078877 0.9260993325
4250274500.0 -0.3498421301 0.931441599
4300274200.0 -0.3368911686 0.9366673687
4350273900.0 -0.3226615382 0.9421795871
4400273600.0 -0.3078208779 0.9473444907
4450273300.0 -0.2929042945 0.9521555086
4500273000.0 -0.2798766762 0.956576715
4550272700.0 -0.2661733815 0.9605345652
4600272400.0 -0.2509994669 0.9646851773
4650272100.0 -0.2396933799 0.9679340544
4700271800.0 -0.2266260139 0.9711109704
4750271500.0 -0.2150676002 0.9739913058
4800271200.0 -0.2027749718 0.9766222161
4850270900.0 -0.1889901127 0.9794455028
4900270600.0 -0.1751947724 0.9819558007
4950270300.0 -0.1607757241 0.9846421569
5000270000.0 -0.1461759092 0.9867117736
5050269700.0 -0.1327402169 0.9883914424
5100269400.0 -0.1186976098 0.9903246771
5150269100.0 -0.10467499 0.9919029913
5200268800.0 -0.0913132492 0.9926991628
5250268500.0 -0.0781039623 0.9937556334
5300268200.0 -0.0644722359 0.9944336878
5350267900.0 -0.0518807443 0.9955001518
5400267600.0 -0.0357363109 0.9962661999
5450267300.0 -0.0222963519 0.9968216695
5500267000.0 -0.0070413144 0.9970107596
5550266700.0 0.0077630145 0.9970556031
5600266400.0 0.0236233935 0.9971659439
5650266100.0 0.0406942605 0.9969717589
5700265800.0 0.0547495209 0.9959775906
5750265500.0 0.0693347774 0.9949567716
5800265200.0 0.0830961592 0.9944770706
5850264900.0 0.0962299739 0.992957314
5900264600.0 0.1128284495 0.9915384324
5950264300.0 0.1243023787 0.9896333674
6000264000.0 0.1378462344 0.9877618473
6050263700.0 0.1493787579 0.9867438981
6100263400.0 0.1619328278 0.9848831129
6150263100.0 0.1763515994 0.9825840809
6200262800.0 0.1863312232 0.9811248804
6250262500.0 0.198865527 0.9785567778
6300262200.0 0.2111196541 0.9761828125
6350261900.0 0.2239969071 0.9734545477
6400261600.0 0.2377812777 0.9702034282
6450261300.0 0.2487654616 0.9676516936
6500261000.0 0.2624743116 0.9641219241
6550260700.0 0.2754585884 0.9604488723
6600260400.0 0.2888090774 0.9560312861
6650260100.0 0.3029064096 0.9516080883
6700259800.0 0.314825673 0.9473100423
6750259500.0 0.3288162646 0.9426266151
6800259200.0 0.3422288404 0.9371315413
6850258900.0 0.3547679325 0.9323390621
6900258600.0 0.3671846427 0.9267744899
6950258300.0 0.379774943 0.9215362429
7000258000.0 0.3913615172 0.9161925436
7050257700.0 0.4032831743 0.9103447637
7100257400.0 0.4167939377 0.9039743313
7150257100.0 0.4272694198 0.8984895003
7200256800.0 0.4405383336 0.8923164296
7250256500.0 0.4530802104 0.885588197
7300256200.0 0.466045102 0.8788706487
7350255900.0 0.4784970524 0.8716608628
7400255600.0 0.4926094397 0.8641477835
7450255300.0 0.5081784551 0.8550798504
7500255000.0 0.5206077814 0.84754986
7550254700.0 0.5345828031 0.8382962371
7600254400.0 0.5474892786 0.8301320342
7650254100.0 0.5589934929 0.822163996
7700253800.0 0.5708180675 0.8144682373
7750253500.0 0.5815372727 0.8068777044
7800253200.0 0.5921050911 0.7987595684
7850252900.0 0.6019798904 0.7916588169
7900252600.0 0.6135170472 0.7829316587
7950252300.0 0.6218172117 0.7765363113
8000252000.0 0.6320212205 0.7688519305
8050251700.0 0.6425809908 0.7608867301
8100251400.0 0.6522050478 0.7529496997
8150251100.0 0.662274877 0.7443543287
8200250800.0 0.6717083902 0.7362362396
8250250500.0 0.6805065023 0.7282504887
8300250200.0 0.6895346591 0.7198228525
8350249900.0 0.6991247873 0.7108674794
8400249600.0 0.7071472167 0.703073862
8450249300.0 0.7155604905 0.6942010748
8500249000.0 0.7243125238 0.6853887807
8550248700.0 0.7327649854 0.6763642247
8600248400.0 0.7409137733 0.6667630803
8650248100.0 0.7485847767 0.6575904387
8700247800.0 0.7579830282 0.6463795483
8750247500.0 0.7663333991 0.6362768239
8800247200.0 0.7742691852 0.6261026773
8850246900.0 0.7828655328 0.614844078
8900246600.0 0.7912710084 0.6033702057
8950246300.0 0.8007690105 0.5904899443
9000246000.0 0.8091145694 0.5785869006
9050245700.0 0.8180422011 0.5662119973
9100245400.0 0.8260809284 0.5539888211
9150245100.0 0.8349208311 0.540912252
9200244800.0 0.8447030222 0.5267902126
9250244500.0 0.8534523657 0.5119245126
9300244200.0 0.8615848014 0.4984673876
9350243900.0 0.8690258933 0.4850891302
9400243600.0 0.8757652462 0.4732993451
9450243300.0 0.8813436871 0.4628042313
9500243000.0 0.8877048125 0.4510296733
9550242700.0 0.8917730393 0.4437164511
9600242400.0 0.8959771831 0.4358549215
9650242100.0 0.9000928574 0.4289847685
9700241800.0 0.9052582907 0.4203520797
9750241500.0 0.9091642212 0.4128160067
9800241200.0 0.9140639952 0.4034707344
9850240900.0 0.9203080295 0.391739181
9900240600.0 0.9260609806 0.3797193998
9950240300.0 0.9330344174 0.3631895005
10000240000.0 0.9376917246 0.3512422671
10050239700.0 0.9440763279 0.3347804063
10100239400.0 0.9496061293 0.3185848156
10150239100.0 0.9541519453 0.3032887204
10200238800.0 0.9582546954 0.2878545162
10250238500.0 0.9615376815 0.274271919
10300238200.0 0.9647088487 0.2603001172
10350237900.0 0.9675793022 0.2469568374
10400237600.0 0.9700136582 0.2334525554
10450237300.0 0.9726448584 0.2199936555
10500237000.0 0.9751749918 0.2076073725
10550236700.0 0.9776332914 0.1925990664
10600236400.0 0.9790589397 0.1794956806
10650236100.0 0.9809568185 0.1645883226
10700235800.0 0.9838063115 0.1520934837
10750235500.0 0.9858308195 0.1386371183
10800235200.0 0.9878145284 0.1248853569
10850234900.0 0.9897867435 0.1094779852
10900234600.0 0.9920409365 0.0947422969
10950234300.0 0.9938050196 0.0811384281
11000234000.0 0.9956426009 0.0656737305
11050233700.0 0.9974539804 0.0490642869
11100233400.0 0.9989939317 0.0311792004
11150233100.0 0.9998592152 0.0142260509
11200232800.0 1.001237012 -0.0009755111
11250232500.0 1.001358877 -0.0183937424
11300232200.0 1.002428156 -0.0384569664
11350231900.0 1.001657666 -0.0535014724
11400231600.0 1.002280243 -0.0702532319
11450231300.0 1.001291633 -0.0851692544
11500231000.0 1.00016612 -0.1020690869
11550230700.0 0.9983154392 -0.1138177571
11600230400.0 0.9968621179 -0.1269056624
11650230100.0 0.9948450501 -0.1385111363
11700229800.0 0.992731504 -0.1536585306
11750229500.0 0.9904361475 -0.168041192
11800229200.0 0.9874439371 -0.1813586903
11850228900.0 0.9839352658 -0.1930984468
11900228600.0 0.9801330459 -0.2026731941
11950228300.0 0.9766660552 -0.2128498947
12000228000.0 0.9739665914 -0.2211802617
12050227700.0 0.969800387 -0.2346287498
12100227400.0 0.9672001729 -0.2452262856
12150227100.0 0.961525215 -0.2624652697
12200226800.0 0.957835102 -0.2735176137
12250226500.0 0.9541634849 -0.2856185032
12300226200.0 0.9493715848 -0.2978307441
12350225900.0 0.9448413151 -0.3122489097
12400225600.0 0.9403367025 -0.3244072684
12450225300.0 0.9357157201 -0.3371713981
12500225000.0 0.9302729591 -0.3519280136
12550224700.0 0.9251200577 -0.3654589942
12600224400.0 0.9201116117 -0.3781883059
12650224100.0 0.9142351893 -0.3924086986
12700223800.0 0.9089699909 -0.4052829543
12750223500.0 0.9037062304 -0.4180761577
12800223200.0 0.898029408 -0.4310116908
12850222900.0 0.8932885114 -0.4425718378
12900222600.0 0.8872710352 -0.4551117506
12950222300.0 0.8813116641 -0.4679428596
13000222000.0 0.8751524603 -0.4797929454
13050221700.0 0.8686315216 -0.4916074387
13100221400.0 0.8618627092 -0.5042880608
13150221100.0 0.8547922194 -0.5166169404
13200220800.0 0.847757888 -0.528021746
13250220500.0 0.8401690284 -0.5401060306
13300220200.0 0.8330338817 -0.5509525825
13350219900.0 0.8248757166 -0.5631214574
13400219600.0 0.8165134384 -0.5748033935
13450219300.0 0.8071508163 -0.58783855
13500219000.0 0.7973212935 -0.6014690909
13550218700.0 0.7874004645 -0.6133235381
13600218400.0 0.7780276452 -0.6252826657
13650218100.0 0.7685466505 -0.635675375
13700217800.0 0.7573852719 -0.6485031318
13750217500.0 0.7473569641 -0.6586633764
13800217200.0 0.7371735142 -0.6692686973
13850216900.0 0.7260003246 -0.6812303513
13900216600.0 0.7161790323 -0.6893270274
13950216300.0 0.7055097496 -0.7001175865
14000216000.0 0.6956648882 -0.7096134852
14050215700.0 0.6865311314 -0.7172111356
14100215400.0 0.6764312223 -0.726387938
14150215100.0 0.6677414517 -0.7350634641
14200214800.0 0.6581298305 -0.7439872261
14250214500.0 0.6477218019 -0.7534189868
14300214200.0 0.6372443229 -0.7629590478
14350213900.0 0.625957992 -0.7727060779
14400213600.0 0.6146556451 -0.7824756034
14450213300.0 0.6015010775 -0.7927135134
14500213000.0 0.5885288908 -0.8028278959
14550212700.0 0.5760987914 -0.8117960135
14600212400.0 0.5633365325 -0.8204516436
14650212100.0 0.5509552107 -0.8290754213
14700211800.0 0.5367620782 -0.8386322277
14750211500.0 0.5249809299 -0.8469580122
14800211200.0 0.5124758824 -0.8555164883
14850210900.0 0.5001548598 -0.8630217635
14900210600.0 0.4869446773 -0.8710076226
14950210300.0 0.4735811707 -0.8786148305
15000210000.0 0.4607592609 -0.8854201576
15050209700.0 0.4485019307 -0.8914709757
15100209400.0 0.435072522 -0.8975000261
15150209100.0 0.4237203903 -0.9029991528
15200208800.0 0.4110396115 -0.9085951231
15250208500.0 0.3997006821 -0.9125174952
15300208200.0 0.3866849675 -0.9171071602
15350207900.0 0.3740977398 -0.9222160803
15400207600.0 0.3591025194 -0.9284769409
15450207300.0 0.3450886378 -0.9326372141
15500207000.0 0.3310600386 -0.937515853
15550206700.0 0.3154013919 -0.9424610655
15600206400.0 0.2996978949 -0.9464890262
15650206100.0 0.2840559039 -0.9510815473
15700205800.0 0.2705097992 -0.9541624299
15750205500.0 0.2563191673 -0.9579506207
15800205200.0 0.2422766066 -0.9612633001
15850204900.0 0.2281400283 -0.9648336774
15900204600.0 0.2130128153 -0.9684433018
15950204300.0 0.1988385985 -0.971450386
16000204000.0 0.1843353216 -0.9745280351
16050203700.0 0.1692161947 -0.9774019786
16100203400.0 0.1542552446 -0.9796998008
16150203100.0 0.1400824944 -0.9819264389
16200202800.0 0.1250172017 -0.9843921469
16250202500.0 0.1106003517 -0.9857768927
16300202200.0 0.0953295067 -0.9876549551
16350201900.0 0.0800915006 -0.989243927
16400201600.0 0.0655408978 -0.9899902846
16450201300.0 0.0498100687 -0.9911431441
16500201000.0 0.0329674143 -0.9920927432
16550200700.0 0.016974744 -0.9927900297
16600200400.0 0.0008734623 -0.9929995426
16650200100.0 -0.0149841191 -0.9926880815
16700199800.0 -0.0314915926 -0.9927002637
16750199500.0 -0.0503067126 -0.9921049024
16800199200.0 -0.0663563874 -0.9906835908
16850198900.0 -0.0818056415 -0.9893939236
16900198600.0 -0.0961904925 -0.9887651129
16950198300.0 -0.1098128369 -0.9876259349
17000198000.0 -0.1226999912 -0.9859972855
17050197700.0 -0.135838868 -0.9842917387
17100197400.0 -0.1484943502 -0.982282432
17150197100.0 -0.1613710255 -0.9797955262
17200196800.0 -0.1742311298 -0.9780436292
17250196500.0 -0.1866971068 -0.9756065417
17300196200.0 -0.1991057275 -0.9733434636
17350195900.0 -0.210793421 -0.9709214381
17400195600.0 -0.2228356468 -0.9682301029
17450195300.0 -0.235813307 -0.9655239254
17500195000.0 -0.2489680482 -0.9622449852
17550194700.0 -0.2631272552 -0.9586133544
17600194400.0 -0.2762961986 -0.9549679506
17650194100.0 -0.2902716532 -0.9507348632
17700193800.0 -0.3031753283 -0.9461710108
17750193500.0 -0.3173646946 -0.9419055815
17800193200.0 -0.3318638038 -0.9368041025
17850192900.0 -0.3467437452 -0.9312155375
17900192600.0 -0.3617363696 -0.924780349
17950192300.0 -0.3769726597 -0.9178165064
18000192000.0 -0.3918578661 -0.9106580594
18050191700.0 -0.4056467484 -0.9029989269
18100191400.0 -0.4198705701 -0.895209341
18150191100.0 -0.4346816749 -0.8872693483
18200190800.0 -0.451442554 -0.8780030794
18250190500.0 -0.4683015337 -0.8682961608
18300190200.0 -0.4840523048 -0.8600847415
18350189900.0 -0.4989351788 -0.8514776123
18400189600.0 -0.5136144685 -0.8426420872
18450189300.0 -0.5270085014 -0.8352413934
18500189000.0 -0.5400658543 -0.8272561856
18550188700.0 -0.5537387915 -0.8192329954
18600188400.0 -0.5654275612 -0.8120985165
18650188100.0 -0.5765964631 -0.8056625654
18700187800.0 -0.587577107 -0.7993011949
18750187500.0 -0.5984385908 -0.7925972324
18800187200.0 -0.6092750348 -0.7854810723
18850186900.0 -0.6193428649 -0.7786643636
18900186600.0 -0.6297029027 -0.7712264565
18950186300.0 -0.6399539657 -0.7635334577
19000186000.0 -0.6477945837 -0.7573274411
19050185700.0 -0.6570384413 -0.7499797721
19100185400.0 -0.6669655432 -0.7422433378
19150185100.0 -0.6768591286 -0.7336075002
19200184800.0 -0.6865675633 -0.7253579836
19250184500.0 -0.6965320282 -0.7156612961
19300184200.0 -0.7077815166 -0.7067391889
19350183900.0 -0.7181999251 -0.6970156068
19400183600.0 -0.7280973114 -0.6872898386
19450183300.0 -0.7373894708 -0.6772384971
19500183000.0 -0.7456625189 -0.6672219695
19550182700.0 -0.7553068692 -0.6559129159
19600182400.0 -0.7655710622 -0.6442024516
19650182100.0 -0.7758767671 -0.6322709944
19700181800.0 -0.7864679077 -0.6187684781
19750181500.0 -0.7968071966 -0.6046881384
19800181200.0 -0.8068614687 -0.5897908624
19850180900.0 -0.8164128237 -0.5745419695
19900180600.0 -0.8240872382 -0.5602984209
19950180300.0 -0.8332459455 -0.5436117217
20000180000.0 -0.8235061029 -0.5470720443
20050179700.0 -0.8308769911 -0.5345871278
20100179400.0 -0.8391800782 -0.5222306276
20150179100.0 -0.8478966185 -0.5097205145
20200178800.0 -0.8559861704 -0.4980833208
20250178500.0 -0.8661462252 -0.4858631433
20300178200.0 -0.8755192213 -0.4713983305
20350177900.0 -0.884769924 -0.4578953721
20400177600.0 -0.8934143616 -0.4434080513
20450177300.0 -0.9021430461 -0.4293610475
20500177000.0 -0.9100528772 -0.4153339232
20550176700.0 -0.9178611231 -0.4018616962
20600176400.0 -0.9251215663 -0.388920651
20650176100.0 -0.9317885476 -0.3766842298
20700175800.0 -0.9379964929 -0.3645653318
20750175500.0 -0.9450317776 -0.3534712351
20800175200.0 -0.9486057377 -0.3423767751
20850174900.0 -0.9546734587 -0.3311810341
20900174600.0 -0.9570965187 -0.3208402683
20950174300.0 -0.9619627368 -0.3098906868
21000174000.0 -0.9638720227 -0.2983870434
21050173700.0 -0.9655273688 -0.2888774431
21100173400.0 -0.9695492164 -0.2781844374
21150173100.0 -0.9727363207 -0.2662107909
21200172800.0 -0.977297475 -0.2536186637
21250172500.0 -0.9811573034 -0.2392962524
21300172200.0 -0.9844729256 -0.2254958562
21350171900.0 -0.9862082551 -0.2112150531
21400171600.0 -0.9887117548 -0.1970577393
21450171300.0 -0.9890133223 -0.1830196949
21500171000.0 -0.9892672554 -0.1673074931
21550170700.0 -0.9908058374 -0.1526134708
21600170400.0 -0.9907014558 -0.1369081722
21650170100.0 -0.9915399098 -0.1219250843
21700169800.0 -0.9902377343 -0.1066086348
21750169500.0 -0.9900575962 -0.0906589248
21800169200.0 -0.9911287826 -0.0738943004
21850168900.0 -0.9896439198 -0.0574874845
21900168600.0 -0.9888769466 -0.040255042
21950168300.0 -0.9892966895 -0.0246803155
22000168000.0 -0.9884573071 -0.0097826621
22050167700.0 -0.9896939829 0.0046717045
22100167400.0 -0.9900085133 0.0206341111
22150167100.0 -0.9909531265 0.0362941159
22200166800.0 -0.9912226165 0.0529760219
22250166500.0 -0.9906804587 0.0700760211
22300166200.0 -0.9904634364 0.0868650118
22350165900.0 -0.9889944095 0.1025057663
22400165600.0 -0.9867732183 0.1193400303
22450165300.0 -0.986010814 0.1338555324
22500165000.0 -0.9836984802 0.1484803
22550164700.0 -0.9827450526 0.1640755152
22600164400.0 -0.9805979345 0.1809957202
22650164100.0 -0.9775926497 0.1959579114
22700163800.0 -0.9747800573 0.211824946
22750163500.0 -0.9721406181 0.2261761472
22800163200.0 -0.9689572961 0.2394103457
22850162900.0 -0.9659005077 0.2529007334
22900162600.0 -0.9641808793 0.267057016
22950162300.0 -0.96269395 0.2803281191
23000162000.0 -0.9610120716 0.2930228665
23050161700.0 -0.9585880192 0.3065436602
23100161400.0 -0.9558943301 0.3193442033
23150161100.0 -0.9528418898 0.3321757238
23200160800.0 -0.9498154695 0.3450375133
23250160500.0 -0.9460313974 0.3576202594
23300160200.0 -0.9437344231 0.3701723177
23350159900.0 -0.9405926721 0.384665551
23400159600.0 -0.9346942648 0.398492392
23450159300.0 -0.9299849636 0.4119440749
23500159000.0 -0.9251065983 0.4249591418
23550158700.0 -0.920227823 0.439181502
23600158400.0 -0.9143316116 0.4532835634
23650158100.0 -0.9071707184 0.467804861
23700157800.0 -0.8987050084 0.4821708432
23750157500.0 -0.8894437809 0.496424675
23800157200.0 -0.8797927334 0.5104950281
23850156900.0 -0.8699342657 0.5229165304
23900156600.0 -0.8599934562 0.5351288613
23950156300.0 -0.8508595417 0.5479719879
24000156000.0 -0.8408115424 0.5600779615
24050155700.0 -0.8312485907 0.572978505
24100155400.0 -0.8202508446 0.5849492416
24150155100.0 -0.8087671832 0.5975747489
24200154800.0 -0.7980549285 0.6086592121
24250154500.0 -0.7867139597 0.6209814214
24300154200.0 -0.7755564036 0.6335125969
24350153900.0 -0.764082024 0.6441267034
24400153600.0 -0.7516522142 0.654686555
24450153300.0 -0.7391678611 0.6650285401
24500153000.0 -0.7278368768 0.6748677006
24550152700.0 -0.7165847077 0.6848621562
24600152400.0 -0.7040090847 0.6942887117
