!Created with skrf (http://scikit-rf.org).
# Hz S RI R 50.0 
!freq ReS11 ImS11
300000.0 -0.9763073337 -0.1160476031
50299700.0 -1.000032493 0.0155960158
100299400.0 -0.9979856083 0.0286329567
150299100.0 -1.002911807 0.0454588134
200298800.0 -0.9995671719 0.058826203
250298500.0 -0.9973935204 0.0721889481
300298200.0 -0.986106091 0.0879203696
350297900.0 -0.9941660345 0.0989449499
400297600.0 -0.9931524726 0.1154007127
450297300.0 -0.9911199695 0.1294087745
500297000.0 -0.9896305425 0.1440315123
550296700.0 -0.9845445931 0.1564982648
600296400.0 -1.017246299 0.1898818453
650296100.0 -0.9821958131 0.1865008769
700295800.0 -0.9794065363 0.2008076884
750295500.0 -0.9762763382 0.2144564716
800295200.0 -0.9730657166 0.2286245157
850294900.0 -0.9695647703 0.2424718668
900294600.0 -0.9658952016 0.2565377108
950294300.0 -0.9620788031 0.2699910538
1000294000.0 -0.9582382421 0.2841432645
1050293700.0 -0.9534192857 0.2978353853
1100293400.0 -0.9492962578 0.3121778243
1150293100.0 -0.9455090066 0.324181576
1200292800.0 -0.9402491888 0.3385130146
1250292500.0 -0.9346556388 0.3518447762
1300292200.0 -0.928975048 0.3652597641
1350291900.0 -0.923271124 0.3792490845
1400291600.0 -0.9178246611 0.3923392407
1450291300.0 -0.9123157827 0.4046528606
1500291000.0 -0.9060815044 0.4182008301
1550290700.0 -0.8994962912 0.4314039057
1600290400.0 -0.8933686895 0.4443250406
1650290100.0 -0.8866981471 0.4566019371
1700289800.0 -0.8797222917 0.4697708092
1750289500.0 -0.8725851768 0.4821609512
1800289200.0 -0.865314409 0.4949901819
1850288900.0 -0.8585965481 0.5063311394
1900288600.0 -0.8509528946 0.5193526778
1950288300.0 -0.8426710809 0.5319346654
2000288000.0 -0.8351905717 0.543354728
2050287700.0 -0.8269693963 0.5555912657
2100287400.0 -0.8189156341 0.567175541
2150287100.0 -0.8103385145 0.5793454246
2200286800.0 -0.8027525418 0.589736098
2250286500.0 -0.7939103583 0.6016399341
2300286200.0 -0.7852407164 0.6132853508
2350285900.0 -0.776270723 0.624252848
2400285600.0 -0.7673375505 0.6353190872
2450285300.0 -0.7588966367 0.645799156
2500285000.0 -0.748986661 0.6570454325
2550284700.0 -0.7401339622 0.6672462487
2600284400.0 -0.7307262389 0.6773218438
2650284100.0 -0.7215068326 0.6880299501
2700283800.0 -0.7112193125 0.6985447405
2750283500.0 -0.7006877909 0.7090989971
2800283200.0 -0.6910253224 0.7187686221
2850282900.0 -0.680901748 0.7287380744
2900282600.0 -0.6702938948 0.7380316964
2950282300.0 -0.6603631942 0.7475042434
3000282000.0 -0.6494702767 0.7570449981
3050281700.0 -0.6384177937 0.7662229144
3100281400.0 -0.6264743623 0.7756522553
3150281100.0 -0.6145424995 0.7849993127
3200280800.0 -0.6030045319 0.7933878852
3250280500.0 -0.5921844804 0.8011970048
3300280200.0 -0.580859863 0.8089249804
3350279900.0 -0.5693295447 0.8164646373
3400279600.0 -0.5573409273 0.8242180648
3450279300.0 -0.5463146971 0.8314484958
3500279000.0 -0.5342132053 0.8382859817
3550278700.0 -0.5216655082 0.8458209901
3600278400.0 -0.5094402066 0.8527358261
3650278100.0 -0.4962039565 0.8606498307
3700277800.0 -0.4841301287 0.8671830929
3750277500.0 -0.4719614391 0.873706292
3800277200.0 -0.4595492273 0.8800061057
3850276900.0 -0.4472495451 0.8858973247
3900276600.0 -0.436478445 0.891437635
3950276300.0 -0.4241111411 0.8977233553
4000276000.0 -0.4121943014 0.9035276163
4050275700.0 -0.3991312777 0.9098589907
4100275400.0 -0.3877773811 0.9150925906
4150275100.0 -0.3752401964 0.9207219987
4200274800.0 -0.3623582119 0.9264565991
4250274500.0 -0.3502407568 0.9315207334
4300274200.0 -0.3370288651 0.9368365095
4350273900.0 -0.3233176112 0.9421625703
4400273600.0 -0.3084201849 0.9473149765
4450273300.0 -0.2931831095 0.9523862808
4500273000.0 -0.2795436385 0.9569507952
4550272700.0 -0.2653405859 0.9610964822
4600272400.0 -0.2497695029 0.9651813535
4650272100.0 -0.2380445411 0.9684912792
4700271800.0 -0.2248954153 0.971781265
4750271500.0 -0.2131405317 0.9747146887
4800271200.0 -0.200569102 0.9772576118
4850270900.0 -0.1866676454 0.9800425494
4900270600.0 -0.1727705098 0.9825168446
4950270300.0 -0.1585660733 0.9851407324
5000270000.0 -0.144441492 0.9868126817
5050269700.0 -0.1307783436 0.9886358277
5100269400.0 -0.1170765903 0.990262274
5150269100.0 -0.1039084219 0.9918782642
5200268800.0 -0.090559825 0.992970677
5250268500.0 -0.0773438754 0.9943171824
5300268200.0 -0.0644964351 0.9946850603
5350267900.0 -0.0524782562 0.9953204527
5400267600.0 -0.0360485023 0.9963196061
5450267300.0 -0.0228711866 0.996488821
5500267000.0 -0.0077537527 0.9969859287
5550266700.0 0.0071598388 0.9973064468
5600266400.0 0.0225309594 0.9972687877
5650266100.0 0.0394134076 0.9970203198
5700265800.0 0.0538469499 0.996334551
5750265500.0 0.0687060026 0.9952063774
5800265200.0 0.0828100918 0.9943117826
5850264900.0 0.0963030184 0.9932679142
5900264600.0 0.1126208725 0.9913807097
5950264300.0 0.1249903882 0.9902892074
6000264000.0 0.1388350558 0.9885004469
6050263700.0 0.1512239447 0.9865938217
6100263400.0 0.1638420949 0.984945693
6150263100.0 0.178231219 0.9828305574
6200262800.0 0.1886736597 0.9809264523
6250262500.0 0.2014142272 0.9782222702
6300262200.0 0.2142319653 0.975668459
6350261900.0 0.227173191 0.9726774815
6400261600.0 0.2410307964 0.9692735428
6450261300.0 0.2526368764 0.9666236749
6500261000.0 0.2654305784 0.9632128258
6550260700.0 0.2783668756 0.9593669545
6600260400.0 0.2915977218 0.9551197296
6650260100.0 0.3055959307 0.9508010156
6700259800.0 0.3177035484 0.9462799798
6750259500.0 0.3310771017 0.9412625159
6800259200.0 0.3445931404 0.93653179
6850258900.0 0.3563967222 0.9312121483
6900258600.0 0.3684912803 0.9265063744
6950258300.0 0.381148386 0.9210606647
7000258000.0 0.3929894711 0.9156306296
7050257700.0 0.4053400695 0.9095458381
7100257400.0 0.4179952065 0.9033352704
7150257100.0 0.4283898056 0.8981932935
7200256800.0 0.4409832413 0.8916562855
7250256500.0 0.4527240125 0.8851761264
7300256200.0 0.4659427542 0.8784826031
7350255900.0 0.4787510855 0.8717328921
7400255600.0 0.49187264 0.864304831
7450255300.0 0.507143182 0.8554911261
7500255000.0 0.5185207466 0.8483735947
7550254700.0 0.5324585496 0.8398014223
7600254400.0 0.5450289661 0.8315458689
7650254100.0 0.5568766422 0.8236765639
7700253800.0 0.568751221 0.8157876477
7750253500.0 0.5800122837 0.8079690234
7800253200.0 0.590575246 0.8003415922
7850252900.0 0.6002329601 0.793286026
7900252600.0 0.6119643835 0.7844998945
7950252300.0 0.6207002792 0.7779534408
8000252000.0 0.6309806072 0.7703215307
8050251700.0 0.6412158092 0.7622573934
8100251400.0 0.6516955382 0.7540730909
8150251100.0 0.6615810965 0.7452265893
8200250800.0 0.6709403204 0.7372482149
8250250500.0 0.6795030387 0.7294119468
8300250200.0 0.6889472494 0.720913999
8350249900.0 0.6980250482 0.7121454956
8400249600.0 0.7064492336 0.7041365969
8450249300.0 0.715487351 0.6947389644
8500249000.0 0.7242891906 0.6860607492
8550248700.0 0.7326440439 0.6771177636
8600248400.0 0.7410255119 0.6675745724
8650248100.0 0.7486817663 0.6580920613
8700247800.0 0.7582857988 0.6468566581
8750247500.0 0.7666319584 0.6367040127
8800247200.0 0.7745483281 0.6264596222
8850246900.0 0.7833431907 0.615004067
8900246600.0 0.7920714979 0.6035135504
8950246300.0 0.8015721048 0.5905438328
9000246000.0 0.8111558363 0.5778134776
9050245700.0 0.8200949665 0.5648470724
9100245400.0 0.8284268727 0.5522445862
9150245100.0 0.837841173 0.5387050319
9200244800.0 0.8479384907 0.5232513414
9250244500.0 0.8573445899 0.5078291416
9300244200.0 0.8656149318 0.4931062112
9350243900.0 0.8733925643 0.4791654743
9400243600.0 0.8800220059 0.4667864117
9450243300.0 0.8858861427 0.4551448099
9500243000.0 0.8922971306 0.4429562939
9550242700.0 0.8958321082 0.4352888616
9600242400.0 0.8996596529 0.4279695719
9650242100.0 0.9035187684 0.4215594703
9700241800.0 0.9077671262 0.413699741
9750241500.0 0.9116178866 0.4061399426
9800241200.0 0.916662427 0.3966706131
9850240900.0 0.9223567912 0.3850154175
9900240600.0 0.9283555542 0.3732430284
9950240300.0 0.9345179667 0.3573456953
10000240000.0 0.9392056587 0.3457419404
10050239700.0 0.9449251206 0.3303705254
10100239400.0 0.9498097051 0.3152548351
10150239100.0 0.9542030647 0.3002132036
10200238800.0 0.9583382684 0.2854098242
10250238500.0 0.9615356369 0.2721776082
10300238200.0 0.9646828158 0.2580871833
10350237900.0 0.9673115457 0.2452453362
10400237600.0 0.9699483882 0.2320394033
10450237300.0 0.9725883708 0.2183776013
10500237000.0 0.9745060283 0.2058250187
10550236700.0 0.9768799911 0.1920885993
10600236400.0 0.9792268864 0.1783279227
10650236100.0 0.9811229321 0.1637785858
10700235800.0 0.9836250686 0.1516818509
10750235500.0 0.985737268 0.1382160428
10800235200.0 0.9876866134 0.1245481668
10850234900.0 0.9897229109 0.1095426042
10900234600.0 0.9917127812 0.0948140881
10950234300.0 0.9933827731 0.0817147403
11000234000.0 0.9952337143 0.0665104195
11050233700.0 0.9970575541 0.050370455
11100233400.0 0.9983129344 0.0331682466
11150233100.0 0.9992897802 0.0166627952
11200232800.0 0.9999604852 0.0018476122
11250232500.0 1.001485199 -0.0151993044
11300232200.0 1.002081053 -0.0323426336
11350231900.0 1.001619979 -0.0490221055
11400231600.0 1.001528479 -0.0634236399
11450231300.0 1.001267037 -0.0795135978
11500231000.0 0.9997721213 -0.0966426925
11550230700.0 0.9983522343 -0.1085955595
11600230400.0 0.9973629297 -0.1216488688
11650230100.0 0.9947776871 -0.1329530227
11700229800.0 0.9929626087 -0.1478136476
11750229500.0 0.990529639 -0.1625719118
11800229200.0 0.9881087367 -0.1761351612
11850228900.0 0.9842906351 -0.188800892
11900228600.0 0.9809781146 -0.1983996241
11950228300.0 0.9777345646 -0.208517769
12000228000.0 0.9750316678 -0.2173432066
12050227700.0 0.971610332 -0.2298654753
12100227400.0 0.9679677116 -0.2416213693
12150227100.0 0.9632407909 -0.2584183877
12200226800.0 0.9595221367 -0.2688758744
12250226500.0 0.9556532091 -0.2821570618
12300226200.0 0.9514452825 -0.2938084937
12350225900.0 0.9462757875 -0.3087266867
12400225600.0 0.9418673614 -0.3215195396
12450225300.0 0.9378139027 -0.3335527433
12500225000.0 0.9324557837 -0.3485421232
12550224700.0 0.9269302998 -0.3622031715
12600224400.0 0.9222030137 -0.3753167825
12650224100.0 0.9162163087 -0.3896473647
12700223800.0 0.9110388457 -0.4023866477
12750223500.0 0.9054877751 -0.4153862467
12800223200.0 0.9003043205 -0.4279719064
12850222900.0 0.8950051241 -0.4398357334
12900222600.0 0.889210111 -0.4527726576
12950222300.0 0.8825194866 -0.4653746076
13000222000.0 0.8768392452 -0.4765857853
13050221700.0 0.8700267966 -0.4890897098
13100221400.0 0.8635345273 -0.5016622076
13150221100.0 0.8566993735 -0.5128470659
13200220800.0 0.8495824384 -0.5247570925
13250220500.0 0.8424058624 -0.536830318
13300220200.0 0.8350054179 -0.5479192994
13350219900.0 0.8271624016 -0.5596251722
13400219600.0 0.8186430628 -0.5718051057
13450219300.0 0.8092054222 -0.5853667042
13500219000.0 0.7990249715 -0.5989544637
13550218700.0 0.788838981 -0.6120386817
13600218400.0 0.7787908398 -0.6244912606
13650218100.0 0.7685208842 -0.635663923
13700217800.0 0.7576627203 -0.6484100074
13750217500.0 0.7480666821 -0.6593316149
13800217200.0 0.7362743162 -0.6713887611
13850216900.0 0.7257611024 -0.682383602
13900216600.0 0.7160733526 -0.691189497
13950216300.0 0.7047520825 -0.701548173
14000216000.0 0.6948565744 -0.7109257778
14050215700.0 0.6851214433 -0.7190470627
14100215400.0 0.6753680325 -0.7286490428
14150215100.0 0.6663047116 -0.7369169446
14200214800.0 0.6568365901 -0.7452595024
14250214500.0 0.6466309382 -0.7546489795
14300214200.0 0.6361838852 -0.7639715406
14350213900.0 0.6249161835 -0.7736661149
14400213600.0 0.6129955274 -0.783512277
14450213300.0 0.6003265898 -0.7936786418
14500213000.0 0.5871207172 -0.8039515142
14550212700.0 0.5744161269 -0.8128533746
14600212400.0 0.5624916069 -0.8216719223
14650212100.0 0.5491572915 -0.8305439512
14700211800.0 0.5354188647 -0.8405282508
14750211500.0 0.5231002159 -0.8484731796
14800211200.0 0.5109483288 -0.8561548108
14850210900.0 0.4990182283 -0.8637664404
14900210600.0 0.4853653162 -0.8716661173
14950210300.0 0.4720364776 -0.8792508489
15000210000.0 0.4593571971 -0.8858249424
15050209700.0 0.4469443614 -0.8921640436
15100209400.0 0.4342419834 -0.8978737841
15150209100.0 0.4215353474 -0.9030366675
15200208800.0 0.409057141 -0.9089605611
15250208500.0 0.3975180018 -0.9132808491
15300208200.0 0.3855038994 -0.9178380653
15350207900.0 0.3723273812 -0.9225113865
15400207600.0 0.3575031422 -0.9277777992
15450207300.0 0.3441996458 -0.9330012353
15500207000.0 0.3291575732 -0.9378053762
15550206700.0 0.3137981343 -0.9425071511
15600206400.0 0.2976177408 -0.947276763
15650206100.0 0.28195361 -0.9517491647
15700205800.0 0.2678380483 -0.9550563285
15750205500.0 0.253551882 -0.9588621939
15800205200.0 0.2392331787 -0.962331067
15850204900.0 0.2246435753 -0.9657646944
15900204600.0 0.2097245805 -0.9694904409
15950204300.0 0.1954873939 -0.972413207
16000204000.0 0.1815459819 -0.9753226179
16050203700.0 0.166336969 -0.9780246372
16100203400.0 0.1519260891 -0.9805877562
16150203100.0 0.1373981719 -0.9828324195
16200202800.0 0.1232840075 -0.9848267716
16250202500.0 0.1086214512 -0.9864753055
16300202200.0 0.0933465997 -0.9875379238
16350201900.0 0.0787454315 -0.9895013237
16400201600.0 0.0639960302 -0.99007656
16450201300.0 0.048705423 -0.9911849815
16500201000.0 0.0320734437 -0.9918689629
16550200700.0 0.016385026 -0.9924516438
16600200400.0 0.0007061937 -0.9927190841
16650200100.0 -0.0155005938 -0.9925016008
16700199800.0 -0.0317148118 -0.9924998824
16750199500.0 -0.0501739824 -0.9916053608
16800199200.0 -0.0665453625 -0.9910581089
16850198900.0 -0.0811425643 -0.9897720979
16900198600.0 -0.0946020414 -0.9889341807
16950198300.0 -0.109006563 -0.9875858066
17000198000.0 -0.1210267231 -0.9860108874
17050197700.0 -0.1339500129 -0.9837882295
17100197400.0 -0.1469548508 -0.9821907245
17150197100.0 -0.159255612 -0.9801052196
17200196800.0 -0.172503627 -0.9780938999
17250196500.0 -0.1852343961 -0.9754727999
17300196200.0 -0.1973600583 -0.973453027
17350195900.0 -0.2092747751 -0.9711063788
17400195600.0 -0.2214604834 -0.9685935384
17450195300.0 -0.2348650343 -0.9656439064
17500195000.0 -0.2482765401 -0.9622891524
17550194700.0 -0.262053859 -0.9587779877
17600194400.0 -0.275984755 -0.9548724577
17650194100.0 -0.289700808 -0.9505690727
17700193800.0 -0.3027334518 -0.9468153968
17750193500.0 -0.3173231448 -0.9415404872
17800193200.0 -0.3315453332 -0.9365722925
17850192900.0 -0.346757396 -0.9314267471
17900192600.0 -0.3620070551 -0.9253900134
17950192300.0 -0.3774321335 -0.9179782299
18000192000.0 -0.3923329741 -0.9109651918
18050191700.0 -0.4058985072 -0.9029854787
18100191400.0 -0.4201416293 -0.8952963226
18150191100.0 -0.4353073897 -0.8872694382
18200190800.0 -0.4522746318 -0.8780244966
18250190500.0 -0.4691786666 -0.8686529681
18300190200.0 -0.4844821855 -0.8596290026
18350189900.0 -0.4996323497 -0.851473412
18400189600.0 -0.5135295768 -0.843217357
18450189300.0 -0.5271440404 -0.8354460638
18500189000.0 -0.5405717087 -0.8275492889
18550188700.0 -0.5527306011 -0.8200778893
18600188400.0 -0.5650801365 -0.8130847816
18650188100.0 -0.576179672 -0.8067128889
18700187800.0 -0.586760079 -0.8002297694
18750187500.0 -0.5970375744 -0.7937395278
18800187200.0 -0.6075062246 -0.7864309473
18850186900.0 -0.6178120499 -0.7795249553
18900186600.0 -0.6280716701 -0.7721488569
18950186300.0 -0.6381165478 -0.7646041871
19000186000.0 -0.6453164447 -0.7582990544
19050185700.0 -0.6543586991 -0.7510612522
19100185400.0 -0.6643796166 -0.7425766552
19150185100.0 -0.6749006868 -0.734664585
19200184800.0 -0.6841751418 -0.7259584328
19250184500.0 -0.694744486 -0.7163322954
19300184200.0 -0.7063060963 -0.706809976
19350183900.0 -0.7160786884 -0.6970660094
19400183600.0 -0.7268507619 -0.6874745699
19450183300.0 -0.7352049235 -0.6772618572
19500183000.0 -0.7437381606 -0.6675207859
19550182700.0 -0.7536438668 -0.6564420182
19600182400.0 -0.7641394541 -0.6449705219
19650182100.0 -0.7748130391 -0.6323463662
19700181800.0 -0.7854512377 -0.6190467866
19750181500.0 -0.796212346 -0.6050864749
19800181200.0 -0.8065313319 -0.5900286311
19850180900.0 -0.816099152 -0.574534561
19900180600.0 -0.8237611317 -0.5605077272
19950180300.0 -0.8329102958 -0.543803766
20000180000.0 -0.8260336884 -0.5464565265
20050179700.0 -0.8341271855 -0.5335852018
20100179400.0 -0.8432345563 -0.5191116704
20150179100.0 -0.8520173653 -0.5065726486
20200178800.0 -0.8593726866 -0.4941247546
20250178500.0 -0.8695361804 -0.4807103828
20300178200.0 -0.8785833524 -0.465483517
20350177900.0 -0.8878996224 -0.4516865985
20400177600.0 -0.89708702 -0.4367959382
20450177300.0 -0.9055756466 -0.4224411974
20500177000.0 -0.9134172433 -0.4083158744
20550176700.0 -0.921393642 -0.3949961905
20600176400.0 -0.9284412928 -0.3814810013
20650176100.0 -0.9345319129 -0.3687311479
20700175800.0 -0.9420678531 -0.3570132412
20750175500.0 -0.9478867227 -0.3462745571
20800175200.0 -0.9531086288 -0.3350777304
20850174900.0 -0.958200812 -0.3232582103
20900174600.0 -0.9621348593 -0.312278
20950174300.0 -0.9667010978 -0.3007844124
21000174000.0 -0.9697052672 -0.2893886097
21050173700.0 -0.9732338069 -0.279080179
21100173400.0 -0.9775526018 -0.2665963247
21150173100.0 -0.9810714914 -0.2539676012
21200172800.0 -0.9842226278 -0.2409908357
21250172500.0 -0.986950223 -0.2270655288
21300172200.0 -0.9901948236 -0.2130222021
21350171900.0 -0.9916486901 -0.1989004644
21400171600.0 -0.9931889811 -0.1843359664
21450171300.0 -0.9936852834 -0.1695082848
21500171000.0 -0.9937208836 -0.154012489
21550170700.0 -0.9924020475 -0.1383837869
21600170400.0 -0.9915968941 -0.122913055
21650170100.0 -0.9921706668 -0.1066134271
21700169800.0 -0.9899011651 -0.0917205927
21750169500.0 -0.9882424183 -0.0746148333
21800169200.0 -0.9887152407 -0.0600776373
21850168900.0 -0.9874920766 -0.0429705094
21900168600.0 -0.9857272008 -0.0260910613
21950168300.0 -0.9844370489 -0.0111196125
22000168000.0 -0.9836965984 0.0040467113
22050167700.0 -0.982881755 0.0182099114
22100167400.0 -0.9828258231 0.0335979717
22150167100.0 -0.9841511724 0.0494147102
22200166800.0 -0.9843121967 0.0656128451
22250166500.0 -0.9836739303 0.0826507683
22300166200.0 -0.9824764782 0.0998266892
22350165900.0 -0.9808357995 0.1156341471
22400165600.0 -0.9802447901 0.1314984487
22450165300.0 -0.9778417654 0.1464820497
22500165000.0 -0.9759349499 0.1592134895
22550164700.0 -0.9753360303 0.1754735943
22600164400.0 -0.9728094404 0.1899655743
22650164100.0 -0.9708630285 0.2055032507
22700163800.0 -0.9676586008 0.221376751
22750163500.0 -0.965246994 0.236580593
22800163200.0 -0.9629758284 0.2507118728
22850162900.0 -0.9605777498 0.2634366136
22900162600.0 -0.9590280816 0.2767105404
22950162300.0 -0.9579333827 0.2896627742
23000162000.0 -0.957327256 0.3010537687
23050161700.0 -0.9551777351 0.3144166718
23100161400.0 -0.9524975124 0.3267836914
23150161100.0 -0.9501506825 0.3392974969
23200160800.0 -0.9472218586 0.3509662466
23250160500.0 -0.94447319 0.3628176123
23300160200.0 -0.9420773485 0.3750329321
23350159900.0 -0.9383817785 0.3884257259
23400159600.0 -0.9333113327 0.4016748411
23450159300.0 -0.929406259 0.4145009026
23500159000.0 -0.9239930977 0.4272447725
23550158700.0 -0.9198486139 0.440664111
23600158400.0 -0.9144419507 0.4537321967
23650158100.0 -0.9081678373 0.4680544487
23700157800.0 -0.9006885464 0.4817668315
23750157500.0 -0.8922887014 0.4957358207
23800157200.0 -0.8833633234 0.5089228266
23850156900.0 -0.8743946226 0.5220170442
23900156600.0 -0.8648368466 0.5335025248
23950156300.0 -0.8560695057 0.5465343415
24000156000.0 -0.8474461524 0.5579446951
24050155700.0 -0.8374482646 0.5702103055
24100155400.0 -0.826616352 0.5819561237
24150155100.0 -0.8162306505 0.5939646278
24200154800.0 -0.8050766843 0.6056246762
24250154500.0 -0.7939164507 0.617368037
24300154200.0 -0.7824761845 0.6287784986
24350153900.0 -0.770779997 0.6388142137
24400153600.0 -0.7585085239 0.6489863333
24450153300.0 -0.7465125339 0.6590633941
24500153000.0 -0.7348626896 0.6688649856
24550152700.0 -0.723633261 0.6783207035
24600152400.0 -0.7126550357 0.6871406942
24650152100.0 -0.7009540034 0.6960621335
