!Created with skrf (http://scikit-rf.org).
# Hz S RI R 50.0 
!freq ReS11 ImS11
300000.0 -0.9764783937 -0.1159699579
50299700.0 -0.9999012578 0.0157167788
100299400.0 -0.9980408127 0.0285971182
150299100.0 -1.002847654 0.0453836412
200298800.0 -0.9996915529 0.0588577705
250298500.0 -0.9974917213 0.0721167325
300298200.0 -0.9859777604 0.0880984985
350297900.0 -0.9939781673 0.0989638344
400297600.0 -0.993069713 0.1155156852
450297300.0 -0.9911637367 0.1293913188
500297000.0 -0.9895629003 0.1443255044
550296700.0 -0.9844456412 0.1566057997
600296400.0 -1.01747038 0.1898526296
650296100.0 -0.98216635 0.186438563
700295800.0 -0.9791763344 0.2008106463
750295500.0 -0.9764650118 0.2148117953
800295200.0 -0.9730544681 0.2289665452
850294900.0 -0.9696363627 0.2426656896
900294600.0 -0.9658941533 0.2565141904
950294300.0 -0.9621201469 0.2703104109
1000294000.0 -0.9582104248 0.2841319931
1050293700.0 -0.9535150243 0.2979636532
1100293400.0 -0.9492706778 0.3123225397
1150293100.0 -0.945370119 0.324193639
1200292800.0 -0.9400327007 0.3384999163
1250292500.0 -0.9345515746 0.3519424389
1300292200.0 -0.9289572392 0.3653494987
1350291900.0 -0.9233683415 0.3791873548
1400291600.0 -0.9177660862 0.3923891123
1450291300.0 -0.9123987229 0.404792626
1500291000.0 -0.9061273072 0.4180618416
1550290700.0 -0.8994246719 0.4313474792
1600290400.0 -0.8933574909 0.4443877871
1650290100.0 -0.8867446168 0.4563834637
1700289800.0 -0.8797481616 0.4700845325
1750289500.0 -0.8728051961 0.4824379414
1800289200.0 -0.8653680774 0.4951277201
1850288900.0 -0.8585356537 0.5064731633
1900288600.0 -0.8509548022 0.5195383795
1950288300.0 -0.842748959 0.5319947532
2000288000.0 -0.8351931531 0.5434101718
2050287700.0 -0.8269058267 0.555618082
2100287400.0 -0.8190603969 0.5675956158
2150287100.0 -0.8105885723 0.5794878604
2200286800.0 -0.802537736 0.5897059566
2250286500.0 -0.7938493842 0.6019515518
2300286200.0 -0.7848876385 0.6135326935
2350285900.0 -0.7762439408 0.6245178867
2400285600.0 -0.7672424928 0.6354396726
2450285300.0 -0.7588852812 0.6457377697
2500285000.0 -0.7488834637 0.6570832497
2550284700.0 -0.740068747 0.6675257123
2600284400.0 -0.7306419904 0.6777483584
2650284100.0 -0.7214008443 0.6880475061
2700283800.0 -0.7109444786 0.6986653426
2750283500.0 -0.7005323011 0.7090714472
2800283200.0 -0.6909257565 0.7192008154
2850282900.0 -0.6806991861 0.7288366035
2900282600.0 -0.6702702035 0.7385558494
2950282300.0 -0.660150053 0.7476107054
3000282000.0 -0.6493815814 0.7571727834
3050281700.0 -0.6381866895 0.7662864139
3100281400.0 -0.6261989769 0.7757781656
3150281100.0 -0.614524171 0.7851133113
3200280800.0 -0.6029607685 0.7935907605
3250280500.0 -0.5919535996 0.8012974894
3300280200.0 -0.5809275039 0.8092223398
3350279900.0 -0.569216897 0.8166188476
3400279600.0 -0.557204588 0.8244958357
3450279300.0 -0.5461978383 0.8315045939
3500279000.0 -0.5339081522 0.8385898567
3550278700.0 -0.5215855112 0.8459459665
3600278400.0 -0.5091286536 0.8529766962
3650278100.0 -0.4960453152 0.8606054831
3700277800.0 -0.483921456 0.867072269
3750277500.0 -0.4714381634 0.8735492955
3800277200.0 -0.4594377931 0.8801551427
3850276900.0 -0.4470667248 0.8860341094
3900276600.0 -0.4362388589 0.8916510548
3950276300.0 -0.4238848255 0.8979554368
4000276000.0 -0.4119845792 0.9039066261
4050275700.0 -0.3991290536 0.9098360392
4100275400.0 -0.3881187614 0.9152740377
4150275100.0 -0.3752336618 0.9209148429
4200274800.0 -0.362014444 0.9261548102
4250274500.0 -0.3499569669 0.9313745931
4300274200.0 -0.3368396396 0.9369308225
4350273900.0 -0.3230677644 0.9419873882
4400273600.0 -0.308272613 0.9473759227
4450273300.0 -0.2927802022 0.9524250136
4500273000.0 -0.2791355175 0.9568418561
4550272700.0 -0.2650630642 0.9610587178
4600272400.0 -0.2495395885 0.9654587975
4650272100.0 -0.2379895292 0.9685770174
4700271800.0 -0.224575001 0.9718323647
4750271500.0 -0.2129338781 0.9746292536
4800271200.0 -0.2004548577 0.9773672559
4850270900.0 -0.1864524258 0.9800369359
4900270600.0 -0.1726472982 0.9825918243
4950270300.0 -0.1583569724 0.9851231465
5000270000.0 -0.1440493131 0.9872220822
5050269700.0 -0.1305139326 0.9888969316
5100269400.0 -0.1169156551 0.9905349034
5150269100.0 -0.1037749503 0.9920645273
5200268800.0 -0.090417489 0.9931478543
5250268500.0 -0.0776460501 0.9942115173
5300268200.0 -0.0642894393 0.9944087262
5350267900.0 -0.0519772432 0.9953730946
5400267600.0 -0.0357278261 0.9966022744
5450267300.0 -0.0226214127 0.9966374375
5500267000.0 -0.0072216423 0.9973041446
5550266700.0 0.0076845005 0.997083966
5600266400.0 0.0230504383 0.9970814057
5650266100.0 0.0395758674 0.9969317701
5700265800.0 0.0538560454 0.995889395
5750265500.0 0.0693517162 0.9957339425
5800265200.0 0.0832971004 0.9943796841
5850264900.0 0.0961720728 0.9931745359
5900264600.0 0.1134462423 0.9916715722
5950264300.0 0.1253494153 0.9902146071
6000264000.0 0.1390662338 0.9879043912
6050263700.0 0.1518014907 0.9871585323
6100263400.0 0.1638319488 0.9847013963
6150263100.0 0.1786206239 0.9828402027
6200262800.0 0.1890547529 0.9806362206
6250262500.0 0.2016263636 0.9782961083
6300262200.0 0.2145574716 0.975721203
6350261900.0 0.2274959741 0.9727192358
6400261600.0 0.2412162299 0.9693137806
6450261300.0 0.2528321397 0.9664502533
6500261000.0 0.2655748865 0.9631563846
6550260700.0 0.278647261 0.9593830095
6600260400.0 0.2916894536 0.9548858136
6650260100.0 0.3058761247 0.9507144004
6700259800.0 0.3177286242 0.9464636254
6750259500.0 0.3315491792 0.9415044089
6800259200.0 0.34456238 0.9364442292
6850258900.0 0.3566718123 0.9314508858
6900258600.0 0.3687902631 0.9262579647
6950258300.0 0.3814203733 0.9210271926
7000258000.0 0.3933156364 0.9156521578
7050257700.0 0.4057316606 0.9095357727
7100257400.0 0.4182818573 0.9032061181
7150257100.0 0.4287137568 0.8978658027
7200256800.0 0.4413874536 0.8917394214
7250256500.0 0.4534486947 0.8851521738
7300256200.0 0.466319505 0.8782289139
7350255900.0 0.4793507557 0.871710742
7400255600.0 0.492142765 0.8641493562
7450255300.0 0.50788076 0.8552682072
7500255000.0 0.5191801343 0.8481042888
7550254700.0 0.5330793256 0.839745971
7600254400.0 0.5458079203 0.8313163617
7650254100.0 0.5571849458 0.8234807042
7700253800.0 0.5690452768 0.8153715885
7750253500.0 0.5801777973 0.8075568673
7800253200.0 0.5909629813 0.8001157021
7850252900.0 0.600621475 0.7930088533
7900252600.0 0.6124120073 0.7842719888
7950252300.0 0.6212133185 0.7776771231
8000252000.0 0.6312770135 0.7699187871
8050251700.0 0.6419406026 0.7616488967
8100251400.0 0.6518189418 0.7535233014
8150251100.0 0.6622143266 0.7449596517
8200250800.0 0.6712319773 0.7370380685
8250250500.0 0.6801595613 0.729082466
8300250200.0 0.6895973692 0.7204788599
8350249900.0 0.6986108717 0.7118120393
8400249600.0 0.7071803497 0.7038125518
8450249300.0 0.7161838395 0.6943968061
8500249000.0 0.7243537732 0.6857160716
8550248700.0 0.7328454933 0.6767546679
8600248400.0 0.7411673679 0.6670837574
8650248100.0 0.7490376529 0.6575954533
8700247800.0 0.7586800577 0.6463299438
8750247500.0 0.7668052903 0.6364649401
8800247200.0 0.7750334929 0.6259653109
8850246900.0 0.7836522392 0.6145517455
8900246600.0 0.7920766439 0.6033332573
8950246300.0 0.8022869486 0.5900156236
9000246000.0 0.8112086037 0.5773948062
9050245700.0 0.8200806405 0.564473064
9100245400.0 0.8286186517 0.5520184172
9150245100.0 0.8380713366 0.5382750203
9200244800.0 0.8479844451 0.5229138596
9250244500.0 0.8577080309 0.5075250143
9300244200.0 0.8660332799 0.4926412351
9350243900.0 0.8735690692 0.4787501836
9400243600.0 0.8801645694 0.4664582897
9450243300.0 0.8861386489 0.4548225652
9500243000.0 0.8924679816 0.4425544434
9550242700.0 0.8960364054 0.4349034394
9600242400.0 0.8999256718 0.4276591056
9650242100.0 0.9035556573 0.4212234928
9700241800.0 0.9081698128 0.4132351563
9750241500.0 0.9121997234 0.4055553978
9800241200.0 0.9169477911 0.3962701933
9850240900.0 0.9225776997 0.3848914856
9900240600.0 0.9280033161 0.3733359839
9950240300.0 0.9344891343 0.3570677111
10000240000.0 0.9392428949 0.3454206163
10050239700.0 0.9449857551 0.3303187068
10100239400.0 0.949906349 0.3147783127
10150239100.0 0.9542996337 0.2999136123
10200238800.0 0.9586009699 0.2850112566
10250238500.0 0.961735687 0.271768476
10300238200.0 0.9647754102 0.2577849173
10350237900.0 0.9675343897 0.2445282874
10400237600.0 0.9699526511 0.2313141025
10450237300.0 0.9727296483 0.2177155055
10500237000.0 0.9749464757 0.2052979243
10550236700.0 0.9771404631 0.1915587189
10600236400.0 0.9789475328 0.1784211255
10650236100.0 0.9812119042 0.1636007201
10700235800.0 0.983156942 0.1519261604
10750235500.0 0.9860521944 0.1373880079
10800235200.0 0.9874994408 0.1241081859
10850234900.0 0.9896303629 0.1090430695
10900234600.0 0.9915001767 0.0945873475
10950234300.0 0.9934304248 0.081292014
11000234000.0 0.995207494 0.0660968595
11050233700.0 0.9971162161 0.0496235127
11100233400.0 0.9985644415 0.032312043
11150233100.0 0.9996707768 0.0160375433
11200232800.0 1.000286018 0.0007168917
11250232500.0 1.001439515 -0.0163528101
11300232200.0 1.002115554 -0.0336631576
11350231900.0 1.001206833 -0.0493700723
11400231600.0 1.001849769 -0.0654877661
11450231300.0 1.000568559 -0.0807011087
11500231000.0 1.000355948 -0.0966780755
11550230700.0 0.9982543686 -0.1103569457
11600230400.0 0.9972582669 -0.1232435211
11650230100.0 0.9950777673 -0.1345601136
11700229800.0 0.9923453538 -0.1489819658
11750229500.0 0.9905785854 -0.1636921405
11800229200.0 0.9878248922 -0.1775407188
11850228900.0 0.9840092311 -0.1898963592
11900228600.0 0.9806475617 -0.1999094488
11950228300.0 0.9772988296 -0.2097450634
12000228000.0 0.9747874359 -0.2184718365
12050227700.0 0.9708319237 -0.2318866349
12100227400.0 0.9682286867 -0.2419304281
12150227100.0 0.962738493 -0.2596088441
12200226800.0 0.959290519 -0.270160638
12250226500.0 0.9559442301 -0.2825767424
12300226200.0 0.9515936037 -0.2950774289
12350225900.0 0.9463119025 -0.3086356621
12400225600.0 0.9421936059 -0.3215543414
12450225300.0 0.9373676865 -0.3345398902
12500225000.0 0.9321750867 -0.3496438398
12550224700.0 0.9265639665 -0.3626330213
12600224400.0 0.9216713237 -0.3757917541
12650224100.0 0.9158753115 -0.3902132072
12700223800.0 0.9106920708 -0.4030534683
12750223500.0 0.9052038588 -0.4160643697
12800223200.0 0.8999180261 -0.4283776445
12850222900.0 0.894512155 -0.4409196886
12900222600.0 0.8887442098 -0.4534474098
12950222300.0 0.8825414437 -0.4655563587
13000222000.0 0.8767653608 -0.4769020937
13050221700.0 0.8700984488 -0.4897183695
13100221400.0 0.8633900945 -0.5016212293
13150221100.0 0.8564125196 -0.5140167848
13200220800.0 0.8491777927 -0.5254423551
13250220500.0 0.8420745251 -0.5378423958
13300220200.0 0.83450721 -0.5485488981
13350219900.0 0.8266463362 -0.56035261
13400219600.0 0.8181218973 -0.5727693452
13450219300.0 0.808752086 -0.586134918
13500219000.0 0.7982260106 -0.6001165899
13550218700.0 0.7881615838 -0.6132202574
13600218400.0 0.7774114448 -0.6252036892
13650218100.0 0.7684732784 -0.6362798012
13700217800.0 0.7574575713 -0.6489574964
13750217500.0 0.7473900705 -0.6602172446
13800217200.0 0.735519085 -0.6716860615
13850216900.0 0.7252179599 -0.6832386426
13900216600.0 0.7150272419 -0.6914225481
13950216300.0 0.7037666499 -0.7026722176
14000216000.0 0.6942466523 -0.7113931308
14050215700.0 0.6845819208 -0.7200244338
14100215400.0 0.6749025408 -0.7286782677
14150215100.0 0.665668899 -0.7373712983
14200214800.0 0.6563163201 -0.7459590147
14250214500.0 0.6462017229 -0.7551655814
14300214200.0 0.6357435932 -0.7644695765
14350213900.0 0.6247841433 -0.7740171775
14400213600.0 0.6127164989 -0.7836542328
14450213300.0 0.600248051 -0.7935558259
14500213000.0 0.5863851558 -0.8040530153
14550212700.0 0.5737059391 -0.8131367352
14600212400.0 0.5614284759 -0.8217763839
14650212100.0 0.5488531466 -0.8309991433
14700211800.0 0.5347574569 -0.8404938944
14750211500.0 0.5221954784 -0.8489247167
14800211200.0 0.5104317173 -0.8565569558
14850210900.0 0.4980712063 -0.8641355796
14900210600.0 0.4846662056 -0.87194808
14950210300.0 0.4711208373 -0.8796996312
15000210000.0 0.4584502045 -0.8863408036
15050209700.0 0.4462472491 -0.8924914812
15100209400.0 0.4330836608 -0.8988484248
15150209100.0 0.4206239536 -0.9041158778
15200208800.0 0.407849086 -0.9090199041
15250208500.0 0.3971236782 -0.9141521946
15300208200.0 0.3839860202 -0.9183982436
15350207900.0 0.3709991391 -0.9229465456
15400207600.0 0.3566302555 -0.928202011
15450207300.0 0.3421390959 -0.9328833795
15500207000.0 0.3275270665 -0.9384221803
15550206700.0 0.3128611549 -0.9431196317
15600206400.0 0.2966931469 -0.9476171041
15650206100.0 0.2809258547 -0.9522936981
15700205800.0 0.2666940436 -0.9559892298
15750205500.0 0.2524616411 -0.9589840072
15800205200.0 0.2381246036 -0.9624437289
15850204900.0 0.2236472288 -0.9659143625
15900204600.0 0.208846748 -0.9694565278
15950204300.0 0.1945982926 -0.9724736638
16000204000.0 0.1803318267 -0.9753325007
16050203700.0 0.1656311981 -0.9784382497
16100203400.0 0.1516527371 -0.9801394125
16150203100.0 0.1367823184 -0.9829259976
16200202800.0 0.1224891456 -0.9844298166
16250202500.0 0.1083728956 -0.9864064591
16300202200.0 0.0929644239 -0.9876584474
16350201900.0 0.0780111212 -0.9892278758
16400201600.0 0.063398977 -0.9901798834
16450201300.0 0.0476749198 -0.9911789331
16500201000.0 0.0314337691 -0.99196826
16550200700.0 0.0155977621 -0.9925413854
16600200400.0 -4.78159e-05 -0.9926784097
16650200100.0 -0.0163496033 -0.9925215043
16700199800.0 -0.0328943159 -0.9922808014
16750199500.0 -0.0515689257 -0.9914135711
16800199200.0 -0.0676236999 -0.9905099313
16850198900.0 -0.0826331698 -0.9892474629
16900198600.0 -0.0959322284 -0.9888872577
16950198300.0 -0.109739757 -0.9871444423
17000198000.0 -0.1225078353 -0.9862383546
17050197700.0 -0.1356285097 -0.9842974499
17100197400.0 -0.1481563854 -0.9815051539
17150197100.0 -0.1607357146 -0.9797717435
17200196800.0 -0.1739873338 -0.9780778409
17250196500.0 -0.1865546609 -0.975445961
17300196200.0 -0.19849413 -0.9731520285
17350195900.0 -0.210422749 -0.9708136945
17400195600.0 -0.2226550574 -0.9685174335
17450195300.0 -0.2356735717 -0.9656086113
17500195000.0 -0.2492317128 -0.9622471806
17550194700.0 -0.2629399004 -0.9587096957
17600194400.0 -0.2772103639 -0.9544119596
17650194100.0 -0.2906148038 -0.9504631893
17700193800.0 -0.3035861254 -0.9462783908
17750193500.0 -0.3180205621 -0.9414236547
17800193200.0 -0.3323071274 -0.9364908307
17850192900.0 -0.3473359642 -0.9306203141
17900192600.0 -0.3625517294 -0.9248264766
17950192300.0 -0.3778909237 -0.9178008574
18000192000.0 -0.3928533389 -0.9106686524
18050191700.0 -0.4066833472 -0.902766442
18100191400.0 -0.4208630567 -0.8949555024
18150191100.0 -0.4359016312 -0.8869222089
18200190800.0 -0.4528809827 -0.8777063198
18250190500.0 -0.4697965282 -0.8683169032
18300190200.0 -0.4850369965 -0.8593006208
18350189900.0 -0.5005283889 -0.8508259698
18400189600.0 -0.5148080365 -0.8428316041
18450189300.0 -0.5278784268 -0.8345790582
18500189000.0 -0.5413126945 -0.8265994293
18550188700.0 -0.5538212288 -0.8195262438
18600188400.0 -0.5659430887 -0.8122994076
18650188100.0 -0.5767922614 -0.8059770046
18700187800.0 -0.5877913688 -0.7995710249
18750187500.0 -0.5983001075 -0.7927849506
18800187200.0 -0.608704449 -0.7858317922
18850186900.0 -0.6190988574 -0.7787691502
18900186600.0 -0.6292231971 -0.7715231677
18950186300.0 -0.6391605319 -0.7637790837
19000186000.0 -0.6466581231 -0.7578915762
19050185700.0 -0.6559280518 -0.7502670389
19100185400.0 -0.6653531347 -0.7424777385
19150185100.0 -0.6754273578 -0.7336096138
19200184800.0 -0.6855051127 -0.725438148
19250184500.0 -0.6960373244 -0.7157957669
19300184200.0 -0.7070438044 -0.7066553268
19350183900.0 -0.7180540756 -0.6971880844
19400183600.0 -0.7274391432 -0.687159635
19450183300.0 -0.7364202201 -0.6769055678
19500183000.0 -0.7442997095 -0.6671458705
19550182700.0 -0.7540271119 -0.6563688316
19600182400.0 -0.7648873263 -0.6441958918
19650182100.0 -0.7752756243 -0.6317565649
19700181800.0 -0.7860760792 -0.6187920369
19750181500.0 -0.7965901417 -0.6044744831
19800181200.0 -0.8069270351 -0.5894662202
19850180900.0 -0.8166339784 -0.574109843
19900180600.0 -0.8245256232 -0.5594064223
19950180300.0 -0.8338242055 -0.5431658718
20000180000.0 -0.8264236481 -0.5458124286
20050179700.0 -0.834715294 -0.5327218469
20100179400.0 -0.8427987988 -0.5190527028
20150179100.0 -0.8511945733 -0.5066236242
20200178800.0 -0.8599786233 -0.4940004772
20250178500.0 -0.8687647382 -0.4801946296
20300178200.0 -0.8790041374 -0.4657869367
20350177900.0 -0.8880655129 -0.4514787331
20400177600.0 -0.8966698714 -0.4369826051
20450177300.0 -0.9053998227 -0.4223486213
20500177000.0 -0.9134188312 -0.4085282996
20550176700.0 -0.9212166262 -0.3948811534
20600176400.0 -0.9282367989 -0.3820449032
20650176100.0 -0.9348242767 -0.369715069
20700175800.0 -0.9413627002 -0.3572849486
20750175500.0 -0.9475090902 -0.346444315
20800175200.0 -0.9524675816 -0.3349304747
20850174900.0 -0.957352681 -0.3247636066
20900174600.0 -0.9617560435 -0.3132684824
20950174300.0 -0.9657489198 -0.3012518278
21000174000.0 -0.9690041062 -0.2896412869
21050173700.0 -0.9718583639 -0.2790266761
21100173400.0 -0.9767052454 -0.2669923095
21150173100.0 -0.9805569362 -0.2552590175
21200172800.0 -0.9835419196 -0.2408246711
21250172500.0 -0.9869512901 -0.2275385116
21300172200.0 -0.9897172894 -0.2128764608
21350171900.0 -0.9909169723 -0.1991235924
21400171600.0 -0.9928608137 -0.1844013108
21450171300.0 -0.9936684944 -0.1703648908
21500171000.0 -0.9930996558 -0.1545192027
21550170700.0 -0.9928241381 -0.1399997359
21600170400.0 -0.9933071599 -0.1231036841
21650170100.0 -0.9920602228 -0.1072949135
21700169800.0 -0.9900064356 -0.0928441531
21750169500.0 -0.9894961036 -0.0760758637
21800169200.0 -0.9876125852 -0.0597075419
21850168900.0 -0.9865690669 -0.0436094384
21900168600.0 -0.9855079614 -0.0272176395
21950168300.0 -0.9843122403 -0.0110690827
22000168000.0 -0.9833074651 0.0038177569
22050167700.0 -0.9827706856 0.0177359369
22100167400.0 -0.9831349036 0.0331285622
22150167100.0 -0.9839710938 0.0486568352
22200166800.0 -0.9843571553 0.0651380095
22250166500.0 -0.9835054595 0.082434654
22300166200.0 -0.9831091683 0.0986885096
22350165900.0 -0.9819451354 0.1159067976
22400165600.0 -0.9795228827 0.1316342792
22450165300.0 -0.9776584981 0.145461588
22500165000.0 -0.9759831294 0.1605218073
22550164700.0 -0.975729767 0.1742589438
22600164400.0 -0.9731767959 0.1910712613
22650164100.0 -0.971207119 0.2056304546
22700163800.0 -0.9689844629 0.2215681526
22750163500.0 -0.9661699607 0.2364250027
22800163200.0 -0.9630489119 0.2498574465
22850162900.0 -0.9604102936 0.2632429307
22900162600.0 -0.9592944405 0.2767236164
22950162300.0 -0.9579721089 0.2897695896
23000162000.0 -0.9570653569 0.301200207
23050161700.0 -0.9550133516 0.3140432349
23100161400.0 -0.9531505443 0.3266933205
23150161100.0 -0.9493032087 0.338836054
23200160800.0 -0.9471862174 0.3513944773
23250160500.0 -0.9440995436 0.3628910039
23300160200.0 -0.9418694757 0.3751649867
23350159900.0 -0.9383012715 0.3880476767
23400159600.0 -0.9336291826 0.4016876374
23450159300.0 -0.9289730458 0.4148559596
23500159000.0 -0.9240238776 0.4273966841
23550158700.0 -0.9197406986 0.44104327
23600158400.0 -0.9141682645 0.4540264559
23650158100.0 -0.9082522964 0.4682984461
23700157800.0 -0.9003690371 0.4821550137
23750157500.0 -0.8919988806 0.4960139476
23800157200.0 -0.8831146408 0.5092017324
23850156900.0 -0.8740389971 0.5221655594
23900156600.0 -0.8646818193 0.5351420191
23950156300.0 -0.8552371884 0.546700688
24000156000.0 -0.8472740739 0.55938398
24050155700.0 -0.836935522 0.5698672897
24100155400.0 -0.8261445896 0.5822384145
24150155100.0 -0.8153090825 0.5939592241
24200154800.0 -0.8043718866 0.6059793423
24250154500.0 -0.7934570851 0.6178011957
24300154200.0 -0.7818394069 0.6288319717
24350153900.0 -0.7700720254 0.6392879691
24400153600.0 -0.7577069608 0.6496771089
24450153300.0 -0.745945594 0.6594242492
24500153000.0 -0.7344471566 0.6689480583
24550152700.0 -0.7234155753 0.6789897316
24600152400.0 -0.7110172255 0.6877923152
