!Created with skrf (http://scikit-rf.org).
# Hz S RI R 50.0 
!freq ReS11 ImS11
300000.0 -0.9735820846 -0.1225840752
50299700.0 -1.00000902 0.0149438481
100299400.0 -0.9979584004 0.0278085345
150299100.0 -1.002709878 0.0447070717
200298800.0 -0.9994671566 0.0582065234
250298500.0 -0.9974391041 0.0716233971
300298200.0 -0.985883865 0.0874343335
350297900.0 -0.9938113479 0.0982977992
400297600.0 -0.9930942729 0.1147741123
450297300.0 -0.9908856591 0.1285402405
500297000.0 -0.989374636 0.1434010393
550296700.0 -0.9843003868 0.1560703929
600296400.0 -1.017092175 0.1891171683
650296100.0 -0.9822037607 0.1856232791
700295800.0 -0.9793496606 0.200121685
750295500.0 -0.9763291737 0.2138808783
800295200.0 -0.9728490805 0.2279511434
850294900.0 -0.9696916944 0.2419073486
900294600.0 -0.9657717208 0.255557008
950294300.0 -0.9620318451 0.2692529808
1000294000.0 -0.9581234039 0.2831889776
1050293700.0 -0.9535298484 0.2971078515
1100293400.0 -0.9492697165 0.3113835932
1150293100.0 -0.9455086812 0.3233628106
1200292800.0 -0.940144651 0.3376800574
1250292500.0 -0.9345879998 0.3511412505
1300292200.0 -0.9289586873 0.3644091105
1350291900.0 -0.9234890025 0.3784281651
1400291600.0 -0.9179852914 0.3915692924
1450291300.0 -0.9125412154 0.4038520525
1500291000.0 -0.9063118144 0.4174418342
1550290700.0 -0.8996731222 0.4305305777
1600290400.0 -0.8933349583 0.4435761107
1650290100.0 -0.8867037248 0.4557100225
1700289800.0 -0.8801430473 0.4692519288
1750289500.0 -0.8729962791 0.4816589441
1800289200.0 -0.8655486714 0.4943968716
1850288900.0 -0.8588202739 0.5056790323
1900288600.0 -0.850996754 0.5187753257
1950288300.0 -0.8429877606 0.5312896422
2000288000.0 -0.8354329146 0.5427447659
2050287700.0 -0.8270745493 0.5551904213
2100287400.0 -0.8193165762 0.5667489389
2150287100.0 -0.8108102162 0.5784181103
2200286800.0 -0.8030419116 0.5891305805
2250286500.0 -0.793948411 0.6013900443
2300286200.0 -0.7850236324 0.6128210218
2350285900.0 -0.7768780535 0.6233138892
2400285600.0 -0.7680930509 0.6344238392
2450285300.0 -0.7591863829 0.6450686287
2500285000.0 -0.749196279 0.6566040817
2550284700.0 -0.7401083491 0.6671343098
2600284400.0 -0.7309323266 0.6769672172
2650284100.0 -0.7224299252 0.6871846097
2700283800.0 -0.711935966 0.6975691734
2750283500.0 -0.7015184321 0.7083277502
2800283200.0 -0.6917380824 0.7180985868
2850282900.0 -0.681208385 0.7281520361
2900282600.0 -0.6705994759 0.7379046762
2950282300.0 -0.6602852496 0.7474725012
3000282000.0 -0.6495372516 0.7568758286
3050281700.0 -0.6382136371 0.7661409128
3100281400.0 -0.6268882863 0.7750702898
3150281100.0 -0.6157135263 0.7838157546
3200280800.0 -0.6041783653 0.7923440453
3250280500.0 -0.5931292274 0.8002647768
3300280200.0 -0.5814754192 0.8086064512
3350279900.0 -0.5690977668 0.8162452136
3400279600.0 -0.5566632338 0.8244655103
3450279300.0 -0.5453923221 0.8316996588
3500279000.0 -0.5336883111 0.8385930937
3550278700.0 -0.5216042608 0.84560739
3600278400.0 -0.5096204261 0.852340876
3650278100.0 -0.4966300916 0.8598596984
3700277800.0 -0.4848063745 0.8664599461
3750277500.0 -0.4722640739 0.8731306353
3800277200.0 -0.4596901266 0.8795326178
3850276900.0 -0.4477327172 0.8855859597
3900276600.0 -0.4368433032 0.891104548
3950276300.0 -0.4246116231 0.8971630542
4000276000.0 -0.4131537332 0.9030769514
4050275700.0 -0.4004671919 0.9091510082
4100275400.0 -0.3892761312 0.9145859892
4150275100.0 -0.376155469 0.9205197412
4200274800.0 -0.3626249525 0.9262384565
4250274500.0 -0.3501860333 0.9316155514
4300274200.0 -0.3367147533 0.9367922112
4350273900.0 -0.322508228 0.942034015
4400273600.0 -0.3076914438 0.9471621301
4450273300.0 -0.2928485666 0.952206135
4500273000.0 -0.2796625369 0.9566245111
4550272700.0 -0.2660915043 0.9606162984
4600272400.0 -0.2510646169 0.9645509306
4650272100.0 -0.2396977524 0.9678533152
4700271800.0 -0.2267051316 0.9710249034
4750271500.0 -0.2151721752 0.9740507425
4800271200.0 -0.2030840262 0.9766291085
4850270900.0 -0.1892565578 0.9794580043
4900270600.0 -0.1754196521 0.9819591362
4950270300.0 -0.1610263983 0.9844071733
5000270000.0 -0.1464133972 0.9866539978
5050269700.0 -0.1329666304 0.988261714
5100269400.0 -0.1189202605 0.9900918965
5150269100.0 -0.1047241233 0.9918308286
5200268800.0 -0.0913418316 0.9928358166
5250268500.0 -0.0781313591 0.9936278937
5300268200.0 -0.0648679097 0.9944215254
5350267900.0 -0.0515658882 0.9949207089
5400267600.0 -0.0356210409 0.9961198146
5450267300.0 -0.022120187 0.9966250542
5500267000.0 -0.0067973918 0.9969344801
5550266700.0 0.0082358184 0.9972482627
5600266400.0 0.0240586512 0.997171762
5650266100.0 0.0407979042 0.9967287292
5700265800.0 0.0547462944 0.9957106715
5750265500.0 0.0696817378 0.9950529352
5800265200.0 0.0832197763 0.9939336343
5850264900.0 0.0966246868 0.9932788165
5900264600.0 0.1132701724 0.9914289689
5950264300.0 0.1244621948 0.9896809321
6000264000.0 0.137897662 0.9878851488
6050263700.0 0.149652131 0.9865311191
6100263400.0 0.1617979358 0.9850629553
6150263100.0 0.1762731107 0.9825523011
6200262800.0 0.1859510633 0.9809983983
6250262500.0 0.1985802163 0.9787387415
6300262200.0 0.210794944 0.9761974083
6350261900.0 0.2237803438 0.9735288781
6400261600.0 0.2376101672 0.9702130769
6450261300.0 0.2484712626 0.9676423422
6500261000.0 0.2618204738 0.9640154047
6550260700.0 0.2750842185 0.9602449659
6600260400.0 0.2885701315 0.9561472164
6650260100.0 0.3026365403 0.9513367301
6700259800.0 0.3146875646 0.9475302001
6750259500.0 0.328138417 0.942330712
6800259200.0 0.3423439171 0.9373980573
6850258900.0 0.354655734 0.93207732
6900258600.0 0.3672296904 0.9268483775
6950258300.0 0.3793282242 0.9214084569
7000258000.0 0.3912309871 0.9162867941
7050257700.0 0.4031221521 0.9103734902
7100257400.0 0.4165186709 0.9040212851
7150257100.0 0.4271324713 0.8985122071
7200256800.0 0.4402912877 0.8923159719
7250256500.0 0.4530539539 0.8854252537
7300256200.0 0.4656315886 0.878847095
7350255900.0 0.4791124912 0.8719885079
7400255600.0 0.4929587249 0.8640777598
7450255300.0 0.5082263876 0.8550531047
7500255000.0 0.5213734207 0.8474625251
7550254700.0 0.5356740256 0.838096858
7600254400.0 0.5477282566 0.8295563092
7650254100.0 0.5595394857 0.8218587006
7700253800.0 0.5708794707 0.8137707032
7750253500.0 0.5819434063 0.8063966279
7800253200.0 0.5926445931 0.7984917245
7850252900.0 0.6023493468 0.7910937097
7900252600.0 0.6138178363 0.7826230754
7950252300.0 0.6222938948 0.7762000656
8000252000.0 0.6321686381 0.7686216508
8050251700.0 0.6425784165 0.7603357014
8100251400.0 0.6525570094 0.7525448294
8150251100.0 0.6623246061 0.7440606513
8200250800.0 0.6722558061 0.7357565667
8250250500.0 0.6806493373 0.7280083049
8300250200.0 0.6898425314 0.719725482
8350249900.0 0.6989875776 0.7107044464
8400249600.0 0.7069249975 0.7026997987
8450249300.0 0.7159844801 0.6941186661
8500249000.0 0.7243268659 0.6852738682
8550248700.0 0.73280065 0.6762645659
8600248400.0 0.7411345339 0.6667179875
8650248100.0 0.7486084368 0.6574000858
8700247800.0 0.7579461163 0.6464187018
8750247500.0 0.766135789 0.636313728
8800247200.0 0.7740594774 0.6259779558
8850246900.0 0.7829604492 0.6144356113
8900246600.0 0.7913713146 0.6030953224
8950246300.0 0.800335959 0.5905399
9000246000.0 0.8093721272 0.5784642799
9050245700.0 0.8176298664 0.5662910405
9100245400.0 0.8258126394 0.5542865136
9150245100.0 0.8348022509 0.5409965918
9200244800.0 0.8437957319 0.5269493069
9250244500.0 0.8530347409 0.5123050172
9300244200.0 0.8611386633 0.4986956487
9350243900.0 0.8686966379 0.4854597768
9400243600.0 0.8752990039 0.4737614801
9450243300.0 0.880989846 0.4632757892
9500243000.0 0.8871413052 0.4517775721
9550242700.0 0.89119679 0.444345218
9600242400.0 0.8955977236 0.4366017399
9650242100.0 0.8996040753 0.4298126734
9700241800.0 0.9045387306 0.4213021784
9750241500.0 0.908837681 0.4137046801
9800241200.0 0.9136275424 0.4043848854
9850240900.0 0.9198874882 0.3922328749
9900240600.0 0.9257105516 0.3805828994
9950240300.0 0.9329303044 0.3634447061
10000240000.0 0.9381354106 0.3511994296
10050239700.0 0.943809259 0.3351719522
10100239400.0 0.9491692421 0.3189109648
10150239100.0 0.9538700443 0.303529339
10200238800.0 0.9584740642 0.2877633287
10250238500.0 0.9616043183 0.2744118995
10300238200.0 0.9646838608 0.2604091562
10350237900.0 0.9677663882 0.2468614618
10400237600.0 0.9700776948 0.2331325884
10450237300.0 0.9729979867 0.2197878378
10500237000.0 0.9751426788 0.207248109
10550236700.0 0.9777555199 0.1926913811
10600236400.0 0.979494867 0.1792775554
10650236100.0 0.981260127 0.1648049991
10700235800.0 0.9835725303 0.1528186457
10750235500.0 0.9863618829 0.138645451
10800235200.0 0.9880983822 0.1241671025
10850234900.0 0.9897208516 0.1094075738
10900234600.0 0.9920819036 0.0946608725
10950234300.0 0.9937173025 0.0812106094
11000234000.0 0.9956419628 0.0655157594
11050233700.0 0.9974586548 0.0489472143
11100233400.0 0.9989939749 0.0309837361
11150233100.0 0.9999391061 0.014051908
11200232800.0 1.001001885 -0.0016804674
11250232500.0 1.001934433 -0.0197498986
11300232200.0 1.002162086 -0.0381537608
11350231900.0 1.001475664 -0.0546780613
11400231600.0 1.001839193 -0.0697303678
11450231300.0 1.001420988 -0.0859194168
11500231000.0 0.9992860497 -0.1018312654
11550230700.0 0.9983205375 -0.1156352105
11600230400.0 0.99672252 -0.1278272339
11650230100.0 0.9944479188 -0.1398253821
11700229800.0 0.9923471025 -0.1549629301
11750229500.0 0.9900559846 -0.1692002088
11800229200.0 0.9873532637 -0.1822161594
11850228900.0 0.9835164796 -0.1939276688
11900228600.0 0.9797586704 -0.2033353275
11950228300.0 0.9763818274 -0.2134396532
12000228000.0 0.9735724293 -0.2228485464
12050227700.0 0.9694147798 -0.2348943774
12100227400.0 0.9670691466 -0.2458666618
12150227100.0 0.9615363789 -0.2628633376
12200226800.0 0.9581256882 -0.2736040284
12250226500.0 0.9535954908 -0.2867205661
12300226200.0 0.9493286465 -0.2986456807
12350225900.0 0.9442720536 -0.3123076372
12400225600.0 0.939962715 -0.3250779208
12450225300.0 0.9357402327 -0.3372913562
12500225000.0 0.9301591544 -0.3521029365
12550224700.0 0.9246667937 -0.3658833473
12600224400.0 0.9198492359 -0.3783003221
12650224100.0 0.9139330737 -0.392707798
12700223800.0 0.9085741407 -0.405688655
12750223500.0 0.9033417152 -0.41849995
12800223200.0 0.8979066161 -0.4313471845
12850222900.0 0.8924843057 -0.4439544766
12900222600.0 0.8871261503 -0.455642525
12950222300.0 0.8808681437 -0.4680606974
13000222000.0 0.8750296797 -0.4793479702
13050221700.0 0.8679334194 -0.4929225452
13100221400.0 0.8610341609 -0.5043876744
13150221100.0 0.8543638417 -0.5174624343
13200220800.0 0.8472193043 -0.5283444386
13250220500.0 0.8404094074 -0.5405668838
13300220200.0 0.8327205691 -0.5513869074
13350219900.0 0.8245522507 -0.5635049237
13400219600.0 0.8161501723 -0.5754699096
13450219300.0 0.8068528169 -0.588457814
13500219000.0 0.7969544192 -0.6015488384
13550218700.0 0.7871684377 -0.6139744383
13600218400.0 0.7774524016 -0.6251819838
13650218100.0 0.7679232205 -0.6359935685
13700217800.0 0.7571609265 -0.6480967081
13750217500.0 0.7472417795 -0.6587022607
13800217200.0 0.7364487241 -0.670590047
13850216900.0 0.725804968 -0.6818069089
13900216600.0 0.7155515262 -0.6904175251
13950216300.0 0.7052568874 -0.7004299913
14000216000.0 0.6952538026 -0.7090447867
14050215700.0 0.6865462972 -0.7171111394
14100215400.0 0.6766478166 -0.7260082659
14150215100.0 0.6674951662 -0.7349475401
14200214800.0 0.6579562393 -0.7439596889
14250214500.0 0.6475832814 -0.7535778723
14300214200.0 0.6370007819 -0.7627300313
14350213900.0 0.6258990518 -0.7725885815
14400213600.0 0.614272655 -0.7824250307
14450213300.0 0.6013100954 -0.79251497
14500213000.0 0.5878204357 -0.8022845951
14550212700.0 0.575550774 -0.8119788119
14600212400.0 0.5635501834 -0.8207949948
14650212100.0 0.5502533419 -0.8297943157
14700211800.0 0.5367382024 -0.8388017902
14750211500.0 0.5246281735 -0.8472065282
14800211200.0 0.512202458 -0.8556890212
14850210900.0 0.4999365336 -0.8630603003
14900210600.0 0.4866600318 -0.8708692156
14950210300.0 0.473329963 -0.8787019924
15000210000.0 0.4605263215 -0.8853306568
15050209700.0 0.4482829184 -0.8912325457
15100209400.0 0.4348759867 -0.8974560287
15150209100.0 0.4230238303 -0.9030177119
15200208800.0 0.4111959851 -0.9081049575
15250208500.0 0.3996961148 -0.9122878493
15300208200.0 0.3873492264 -0.9176323869
15350207900.0 0.3747775853 -0.9217323076
15400207600.0 0.3589044311 -0.9277199912
15450207300.0 0.3449508628 -0.9330072457
15500207000.0 0.3308206834 -0.9373589439
15550206700.0 0.3157922874 -0.9417493976
15600206400.0 0.2995541167 -0.946809412
15650206100.0 0.2835342071 -0.9510085697
15700205800.0 0.2703422229 -0.9543998178
15750205500.0 0.2563359719 -0.9576415322
15800205200.0 0.2421652349 -0.9612179136
15850204900.0 0.2281403381 -0.9646379676
15900204600.0 0.2130375537 -0.9682130615
15950204300.0 0.1987292733 -0.9713657345
16000204000.0 0.1842758491 -0.9744047425
16050203700.0 0.1689930395 -0.9772299429
16100203400.0 0.1541881683 -0.97981658
16150203100.0 0.1389553709 -0.9818101286
16200202800.0 0.1256761121 -0.98419249
16250202500.0 0.1104677704 -0.9859029198
16300202200.0 0.0951649012 -0.9876512702
16350201900.0 0.0798183098 -0.9888793847
16400201600.0 0.0651773566 -0.9902350661
16450201300.0 0.0496414076 -0.9910175049
16500201000.0 0.0326572451 -0.9920626491
16550200700.0 0.0166475376 -0.9926295456
16600200400.0 0.0005263316 -0.9927821647
16650200100.0 -0.0156921456 -0.9924780391
16700199800.0 -0.0318944224 -0.9923987055
16750199500.0 -0.0508533441 -0.9916499186
16800199200.0 -0.0668806504 -0.9903945645
16850198900.0 -0.0823522654 -0.9895565099
16900198600.0 -0.0969722231 -0.9883531205
16950198300.0 -0.1100772454 -0.9875746194
17000198000.0 -0.123433594 -0.9862070172
17050197700.0 -0.1364163831 -0.9838175143
17100197400.0 -0.1484144442 -0.9818062936
17150197100.0 -0.1619278032 -0.9801125855
17200196800.0 -0.1748434987 -0.9775212112
17250196500.0 -0.1873762376 -0.975275306
17300196200.0 -0.1994346813 -0.9729031387
17350195900.0 -0.2113122929 -0.9706705947
17400195600.0 -0.2234692906 -0.968092177
17450195300.0 -0.2362345502 -0.9654201624
17500195000.0 -0.2495352269 -0.9619211127
17550194700.0 -0.2633896561 -0.9582729596
17600194400.0 -0.2771393254 -0.9546862049
17650194100.0 -0.2904018852 -0.9500659442
17700193800.0 -0.3036608847 -0.946313039
17750193500.0 -0.3179128141 -0.9417378224
17800193200.0 -0.3320673937 -0.9358885172
17850192900.0 -0.3466545563 -0.931327104
17900192600.0 -0.3617658614 -0.9249442052
17950192300.0 -0.3772749205 -0.9178201328
18000192000.0 -0.3921627261 -0.9103107964
18050191700.0 -0.4061332232 -0.9026045699
18100191400.0 -0.4201862955 -0.8950122364
18150191100.0 -0.4350453501 -0.8869916614
18200190800.0 -0.4518139693 -0.8778753803
18250190500.0 -0.4688031354 -0.8683423522
18300190200.0 -0.4841586631 -0.8595087073
18350189900.0 -0.4995313295 -0.8509675868
18400189600.0 -0.513863608 -0.8425024397
18450189300.0 -0.5273404381 -0.834608363
18500189000.0 -0.5407643366 -0.8267825843
18550188700.0 -0.5534140716 -0.8187684252
18600188400.0 -0.5656397794 -0.812311845
18650188100.0 -0.5770740601 -0.8056297506
18700187800.0 -0.5878558523 -0.7989019817
18750187500.0 -0.5987443889 -0.7922276144
18800187200.0 -0.6093171825 -0.785263558
18850186900.0 -0.619399759 -0.7782999347
18900186600.0 -0.6299020351 -0.7710271975
18950186300.0 -0.6399679861 -0.7631626413
19000186000.0 -0.6476240093 -0.7571112645
19050185700.0 -0.6567769239 -0.7500549033
19100185400.0 -0.6667724833 -0.7413964426
19150185100.0 -0.6768975579 -0.7328554625
19200184800.0 -0.6860387152 -0.7251953091
19250184500.0 -0.6961215741 -0.715467709
19300184200.0 -0.7086443119 -0.7070320132
19350183900.0 -0.7197685063 -0.6966921183
19400183600.0 -0.7289421063 -0.6868396777
19450183300.0 -0.7379918654 -0.6762733963
19500183000.0 -0.7458900077 -0.6661544261
19550182700.0 -0.7559153196 -0.6553078443
19600182400.0 -0.7658238987 -0.6435914333
19650182100.0 -0.7764237543 -0.6312214515
19700181800.0 -0.7867544748 -0.6183245108
19750181500.0 -0.797271457 -0.6041539782
19800181200.0 -0.8074555547 -0.5891831349
19850180900.0 -0.8171188985 -0.5738482762
19900180600.0 -0.8246699753 -0.5594764926
19950180300.0 -0.8335406434 -0.5431379826
20000180000.0 -0.8238443661 -0.5469154312
20050179700.0 -0.8313394196 -0.5343482118
20100179400.0 -0.8401574098 -0.521162431
20150179100.0 -0.8482656762 -0.5091193366
20200178800.0 -0.8562243563 -0.4978466752
20250178500.0 -0.86558176 -0.4858197721
20300178200.0 -0.8749962522 -0.4721222255
20350177900.0 -0.884095213 -0.4578221694
20400177600.0 -0.8936881038 -0.4436530399
20450177300.0 -0.901731899 -0.429446055
20500177000.0 -0.9101048638 -0.4153447737
20550176700.0 -0.9178525732 -0.4020267476
20600176400.0 -0.9247078968 -0.3889090641
20650176100.0 -0.9312387779 -0.3772399093
20700175800.0 -0.9384624969 -0.364507539
20750175500.0 -0.944659772 -0.3534085
20800175200.0 -0.9494453038 -0.3421208954
20850174900.0 -0.9538841395 -0.3314716622
20900174600.0 -0.9580077277 -0.3210405374
20950174300.0 -0.9612471555 -0.3095640322
21000174000.0 -0.9632144481 -0.2984692621
21050173700.0 -0.9660128694 -0.2892147958
21100173400.0 -0.9690536289 -0.279030825
21150173100.0 -0.9724761112 -0.2672268274
21200172800.0 -0.9767300862 -0.2536145832
21250172500.0 -0.9806868963 -0.2400103527
21300172200.0 -0.9838598246 -0.2256613688
21350171900.0 -0.9857523241 -0.2114331556
21400171600.0 -0.9884486421 -0.197633623
21450171300.0 -0.9892587755 -0.1832253244
21500171000.0 -0.9894287316 -0.1684461733
21550170700.0 -0.9893424466 -0.1534210509
21600170400.0 -0.9903278947 -0.1385478341
21650170100.0 -0.9906621786 -0.1215405266
21700169800.0 -0.9901384691 -0.1070400811
21750169500.0 -0.9908207234 -0.0908235643
21800169200.0 -0.9892613349 -0.074333659
21850168900.0 -0.9898593917 -0.0571151765
21900168600.0 -0.9890815296 -0.0415195418
21950168300.0 -0.9891996549 -0.026090499
22000168000.0 -0.9897003713 -0.0106047455
22050167700.0 -0.989698581 0.003930961
22100167400.0 -0.9904904667 0.0197991832
22150167100.0 -0.991399645 0.0359810227
22200166800.0 -0.9917235454 0.0523016686
22250166500.0 -0.9913131996 0.0696926707
22300166200.0 -0.9912701858 0.0858887467
22350165900.0 -0.9892961401 0.1020729138
22400165600.0 -0.9878464325 0.1176058999
22450165300.0 -0.986834248 0.133624548
22500165000.0 -0.9852727409 0.1468716971
22550164700.0 -0.9834849809 0.1638847192
22600164400.0 -0.9804055775 0.180390007
22650164100.0 -0.9780151235 0.1952420317
22700163800.0 -0.9751372322 0.2118981581
22750163500.0 -0.9721970132 0.2268244978
22800163200.0 -0.969286781 0.2397580966
22850162900.0 -0.9665629809 0.2531182587
22900162600.0 -0.9648197192 0.2670366086
22950162300.0 -0.9628535625 0.2810992172
23000162000.0 -0.9609517519 0.2936705402
23050161700.0 -0.9586757221 0.3069006227
23100161400.0 -0.9559751107 0.3203365683
23150161100.0 -0.9528803851 0.3334269096
23200160800.0 -0.9498314169 0.3458555292
23250160500.0 -0.9466404428 0.3582350979
23300160200.0 -0.9438285544 0.370891765
23350159900.0 -0.940034565 0.3849328678
23400159600.0 -0.9357590943 0.3986862642
23450159300.0 -0.929565613 0.4128258652
23500159000.0 -0.9251529456 0.4257398375
23550158700.0 -0.9205349122 0.4400127411
23600158400.0 -0.9141596352 0.4542999011
23650158100.0 -0.9068359602 0.4691469244
23700157800.0 -0.8982378167 0.4833105442
23750157500.0 -0.8887517405 0.4977539884
23800157200.0 -0.8788680723 0.5109176724
23850156900.0 -0.8690886004 0.5237317638
23900156600.0 -0.859458897 0.5365179181
23950156300.0 -0.8489918778 0.5493706774
24000156000.0 -0.8399264151 0.5616239617
24050155700.0 -0.8290512932 0.5735782184
24100155400.0 -0.8187782345 0.5863639305
24150155100.0 -0.8075632564 0.5986590742
24200154800.0 -0.7964985045 0.6110697151
24250154500.0 -0.7854068771 0.6222177254
24300154200.0 -0.7738364646 0.6350487605
24350153900.0 -0.7618514372 0.6458058308
24400153600.0 -0.7493656237 0.6565807292
24450153300.0 -0.7370415794 0.6669146669
24500153000.0 -0.7258075162 0.6763137674
24550152700.0 -0.7142410822 0.6867266991
24600152400.0 -0.7020509465 0.696573894
24650152100.0 -0.6896662023 0.7046820705
