!Created with skrf (http://scikit-rf.org).
# Hz S RI R 50.0 
!freq ReS11 ImS11
300000.0 -0.9741254858 -0.1199111024
50299700.0 -0.9999557231 0.0152929824
100299400.0 -0.9980334283 0.0283084834
150299100.0 -1.002912846 0.0449862928
200298800.0 -0.9996161198 0.0583547025
250298500.0 -0.9975028246 0.0717576607
300298200.0 -0.9858490862 0.0876379609
350297900.0 -0.9939022981 0.0987522807
400297600.0 -0.9932914686 0.1151906398
450297300.0 -0.9910984026 0.1290437092
500297000.0 -0.9895694537 0.143743924
550296700.0 -0.9845356233 0.156015693
600296400.0 -1.017241042 0.1894870265
650296100.0 -0.9822900736 0.1862214885
700295800.0 -0.9794924898 0.2004722611
750295500.0 -0.976267112 0.2142241798
800295200.0 -0.9730031202 0.2284087709
850294900.0 -0.9698009797 0.2422440009
900294600.0 -0.9656977874 0.2561144234
950294300.0 -0.9620560608 0.269575802
1000294000.0 -0.9581991807 0.2836629049
1050293700.0 -0.9537184523 0.2973916046
1100293400.0 -0.9492904108 0.311904461
1150293100.0 -0.9454506899 0.323875328
1200292800.0 -0.9401761241 0.3381141992
1250292500.0 -0.9347484435 0.3514835673
1300292200.0 -0.9290943965 0.3647981631
1350291900.0 -0.9233582352 0.3788456929
1400291600.0 -0.9178637673 0.3918703823
1450291300.0 -0.9125063161 0.4043449282
1500291000.0 -0.9063764952 0.4176638064
1550290700.0 -0.8996582307 0.4310123024
1600290400.0 -0.8934744279 0.4439295222
1650290100.0 -0.8868719529 0.4560686672
1700289800.0 -0.8798631267 0.4693308631
1750289500.0 -0.8729321451 0.4818299507
1800289200.0 -0.8655703984 0.4947725301
1850288900.0 -0.8587349398 0.5060769653
1900288600.0 -0.8507066879 0.519068844
1950288300.0 -0.8429892893 0.5317784339
2000288000.0 -0.8353432151 0.5430350525
2050287700.0 -0.8271436095 0.5552863951
2100287400.0 -0.8194060049 0.5669439245
2150287100.0 -0.8107147128 0.5791793875
2200286800.0 -0.8029287012 0.5893458627
2250286500.0 -0.7941062545 0.6014759977
2300286200.0 -0.7852247802 0.6129126605
2350285900.0 -0.7767228047 0.6240375583
2400285600.0 -0.7675184041 0.6349517403
2450285300.0 -0.7590374597 0.645348402
2500285000.0 -0.7493841121 0.6567284027
2550284700.0 -0.7404302584 0.6669442304
2600284400.0 -0.7310689367 0.6770633975
2650284100.0 -0.7221181539 0.6875131578
2700283800.0 -0.7114651398 0.698081332
2750283500.0 -0.7011365062 0.7088504166
2800283200.0 -0.6913924559 0.7183815692
2850282900.0 -0.68117919 0.7284965052
2900282600.0 -0.6707969978 0.7377720386
2950282300.0 -0.6605649997 0.7472223745
3000282000.0 -0.6498861409 0.7565212101
3050281700.0 -0.638741901 0.7660895799
3100281400.0 -0.6267421278 0.7753880113
3150281100.0 -0.6150363061 0.7847527939
3200280800.0 -0.6034013024 0.7929724535
3250280500.0 -0.5924192113 0.8007949254
3300280200.0 -0.5812270854 0.8088572295
3350279900.0 -0.5696606251 0.816476692
3400279600.0 -0.5575893078 0.8238979549
3450279300.0 -0.5464734483 0.8312439084
3500279000.0 -0.5345249459 0.8383744214
3550278700.0 -0.5222516786 0.8456282147
3600278400.0 -0.5097440651 0.8527777197
3650278100.0 -0.4967009256 0.8605379028
3700277800.0 -0.4846882728 0.8668839299
3750277500.0 -0.4723635067 0.8734102958
3800277200.0 -0.4598234676 0.8797480893
3850276900.0 -0.4476983647 0.8856301713
3900276600.0 -0.4370915352 0.8913117726
3950276300.0 -0.4243636863 0.897463599
4000276000.0 -0.4125123114 0.9034317206
4050275700.0 -0.3995483476 0.9094401454
4100275400.0 -0.3884430438 0.9148747396
4150275100.0 -0.375931544 0.9206557444
4200274800.0 -0.3628362657 0.9261964763
4250274500.0 -0.3507647405 0.9311979955
4300274200.0 -0.3375879402 0.9366162052
4350273900.0 -0.3237894253 0.9418663234
4400273600.0 -0.3090039921 0.9470014241
4450273300.0 -0.2936608263 0.9522854672
4500273000.0 -0.2799615358 0.9565734911
4550272700.0 -0.2658627589 0.9608625789
4600272400.0 -0.2504626441 0.9650153729
4650272100.0 -0.238761099 0.9682643082
4700271800.0 -0.2256110217 0.9717104367
4750271500.0 -0.2137844207 0.9744210759
4800271200.0 -0.2011592438 0.9772123503
4850270900.0 -0.187168103 0.9801505762
4900270600.0 -0.1734208909 0.982303247
4950270300.0 -0.1591762777 0.984917674
5000270000.0 -0.1448809657 0.9870611471
5050269700.0 -0.1314315478 0.9887059912
5100269400.0 -0.1178163896 0.9901476868
5150269100.0 -0.1045866065 0.9922540133
5200268800.0 -0.0911406024 0.9928595692
5250268500.0 -0.077827023 0.9942095337
5300268200.0 -0.0649749893 0.9946100833
5350267900.0 -0.0526031133 0.9952934919
5400267600.0 -0.0363127358 0.9963648436
5450267300.0 -0.023186924 0.9964830213
5500267000.0 -0.0080416984 0.9971648551
5550266700.0 0.0066734279 0.9973672942
5600266400.0 0.0223925046 0.9972666506
5650266100.0 0.0388507465 0.9970956825
5700265800.0 0.0532292594 0.9962404681
5750265500.0 0.0685162577 0.9957229727
5800265200.0 0.0821487208 0.9939930778
5850264900.0 0.0956427753 0.9933568631
5900264600.0 0.1124419174 0.9918137775
5950264300.0 0.1240333317 0.9896969299
6000264000.0 0.1383089491 0.9886334698
6050263700.0 0.1505040722 0.9868160801
6100263400.0 0.1628721835 0.9851749959
6150263100.0 0.1774022387 0.9827825926
6200262800.0 0.1878986418 0.9808794185
6250262500.0 0.2005116876 0.9785007787
6300262200.0 0.2132961541 0.9757892442
6350261900.0 0.2263104865 0.9728616946
6400261600.0 0.2404069332 0.9695212905
6450261300.0 0.2516042466 0.9668780595
6500261000.0 0.2644958431 0.9634314679
6550260700.0 0.2773414681 0.9594937045
6600260400.0 0.2906254669 0.9552963298
6650260100.0 0.3046550332 0.9510537044
6700259800.0 0.3165709033 0.9465500759
6750259500.0 0.330603537 0.9419369074
6800259200.0 0.3436983448 0.936779218
6850258900.0 0.3557943865 0.9318591057
6900258600.0 0.3679327287 0.926607312
6950258300.0 0.380657131 0.9214265694
7000258000.0 0.3926221659 0.9159946518
7050257700.0 0.4046304226 0.9098844846
7100257400.0 0.4174423486 0.903728851
7150257100.0 0.4278455437 0.8982393194
7200256800.0 0.4406583075 0.8920370328
7250256500.0 0.4526581676 0.8855960851
7300256200.0 0.4659419314 0.878825367
7350255900.0 0.4780701574 0.8716382088
7400255600.0 0.4912215932 0.8646549609
7450255300.0 0.5065709436 0.8557258569
7500255000.0 0.5183796915 0.848581518
7550254700.0 0.5321262475 0.8399303196
7600254400.0 0.5447594473 0.8319105311
7650254100.0 0.5566065119 0.8242336008
7700253800.0 0.5685835866 0.8162447162
7750253500.0 0.5796680746 0.8084526921
7800253200.0 0.5902274901 0.8006455208
7850252900.0 0.5999507227 0.7936029863
7900252600.0 0.6115695956 0.7849937995
7950252300.0 0.6203837279 0.7785495295
8000252000.0 0.6305502767 0.7708061157
8050251700.0 0.6409470954 0.7625291482
8100251400.0 0.6509701905 0.7542907265
8150251100.0 0.6614244378 0.7458184891
8200250800.0 0.6706137869 0.7377746476
8250250500.0 0.6792589725 0.7299374617
8300250200.0 0.6887279922 0.7211502837
8350249900.0 0.6977219931 0.7125658788
8400249600.0 0.705952187 0.7045758928
8450249300.0 0.7150616031 0.6952607205
8500249000.0 0.7238369801 0.6863874121
8550248700.0 0.7321727976 0.6774407652
8600248400.0 0.7406026905 0.6679947517
8650248100.0 0.7483958857 0.6585314098
8700247800.0 0.7578597084 0.6471989052
8750247500.0 0.7661491477 0.6372285682
8800247200.0 0.7743368072 0.6267798572
8850246900.0 0.7831144497 0.6153700303
8900246600.0 0.791561036 0.6039598654
8950246300.0 0.8013639642 0.5906628001
9000246000.0 0.8105143733 0.5783988913
9050245700.0 0.8195758264 0.565422615
9100245400.0 0.827923459 0.5529616896
9150245100.0 0.8372766995 0.5395144805
9200244800.0 0.8472411204 0.5243338501
9250244500.0 0.8565074219 0.5089055137
9300244200.0 0.8649315332 0.4942969886
9350243900.0 0.8726334875 0.4805232986
9400243600.0 0.8793453518 0.4682229714
9450243300.0 0.8851580094 0.4567066533
9500243000.0 0.8913288575 0.4445223442
9550242700.0 0.895180834 0.4368993887
9600242400.0 0.8990162446 0.4295673742
9650242100.0 0.9029724587 0.4230764655
9700241800.0 0.9075228636 0.4147875863
9750241500.0 0.9115249159 0.4068971685
9800241200.0 0.9162880883 0.3979156141
9850240900.0 0.922025164 0.3860106883
9900240600.0 0.9274879329 0.3750642889
9950240300.0 0.9341472372 0.3584721286
10000240000.0 0.9387244845 0.3471247162
10050239700.0 0.9444991759 0.3319022887
10100239400.0 0.9493269523 0.3164751786
10150239100.0 0.9537959094 0.3016416129
10200238800.0 0.9581517757 0.2865035996
10250238500.0 0.9613515592 0.2731993119
10300238200.0 0.9644770277 0.259274389
10350237900.0 0.9671262642 0.246072519
10400237600.0 0.9697625885 0.232736637
10450237300.0 0.9726611914 0.2188725012
10500237000.0 0.9746374152 0.20671926
10550236700.0 0.9769973795 0.1928261763
10600236400.0 0.9790790131 0.1786551668
10650236100.0 0.9805957968 0.1648314627
10700235800.0 0.983422337 0.1522289799
10750235500.0 0.9859419463 0.138641136
10800235200.0 0.9875963415 0.1247484246
10850234900.0 0.9895606344 0.1098652799
10900234600.0 0.9917208764 0.0952107514
10950234300.0 0.9934732893 0.0820661768
11000234000.0 0.9950917902 0.0670113273
11050233700.0 0.9969472667 0.0507628674
11100233400.0 0.9986281562 0.0335694197
11150233100.0 0.9993697678 0.0169635317
11200232800.0 1.000398687 0.0020643043
11250232500.0 1.001563787 -0.0147729459
11300232200.0 1.001793341 -0.032034993
11350231900.0 1.001663306 -0.0470955188
11400231600.0 1.00197422 -0.064527404
11450231300.0 1.001332374 -0.0781989283
11500231000.0 1.000134164 -0.0953928215
11550230700.0 0.9980713375 -0.1075901701
11600230400.0 0.9969682599 -0.1212704821
11650230100.0 0.9954761655 -0.1327361904
11700229800.0 0.9931487476 -0.1469530481
11750229500.0 0.9907976865 -0.161871307
11800229200.0 0.9881685961 -0.1753786697
11850228900.0 0.9847463144 -0.1876810765
11900228600.0 0.9812103453 -0.1974499388
11950228300.0 0.9777060178 -0.2081891813
12000228000.0 0.9753392002 -0.2173710822
12050227700.0 0.9719177708 -0.2291340597
12100227400.0 0.9678491808 -0.2417910582
12150227100.0 0.9637225396 -0.2572949219
12200226800.0 0.9602019163 -0.2681408125
12250226500.0 0.9558634742 -0.2810528311
12300226200.0 0.9515429881 -0.2927383937
12350225900.0 0.9466054694 -0.3077054001
12400225600.0 0.9422068345 -0.3203482956
12450225300.0 0.9380107295 -0.3333011302
12500225000.0 0.9321650185 -0.3482007322
12550224700.0 0.9271557294 -0.3620861006
12600224400.0 0.9222348845 -0.3747736646
12650224100.0 0.9164023849 -0.389141669
12700223800.0 0.9111865458 -0.4020189467
12750223500.0 0.9055233154 -0.4152066107
12800223200.0 0.900201206 -0.42787309
12850222900.0 0.8949504228 -0.439522152
12900222600.0 0.8892332384 -0.4519736497
12950222300.0 0.8831939165 -0.464810265
13000222000.0 0.8775109662 -0.4761442272
13050221700.0 0.8705056547 -0.4889898796
13100221400.0 0.8638781265 -0.5006063278
13150221100.0 0.8570970734 -0.5132268887
13200220800.0 0.8499119607 -0.5244715065
13250220500.0 0.8429348431 -0.5365625348
13300220200.0 0.835187574 -0.5473950932
13350219900.0 0.8273310546 -0.5593604867
13400219600.0 0.8190801239 -0.5713642607
13450219300.0 0.8098819526 -0.5847148642
13500219000.0 0.7993816299 -0.5986456317
13550218700.0 0.7890436258 -0.6117338439
13600218400.0 0.7792641732 -0.6237679663
13650218100.0 0.7691674778 -0.6347750295
13700217800.0 0.7588785081 -0.6468747236
13750217500.0 0.7490111576 -0.6585000248
13800217200.0 0.7376719898 -0.6697993234
13850216900.0 0.72644446 -0.6804732577
13900216600.0 0.7168963652 -0.6897597943
13950216300.0 0.7057335376 -0.7011206787
14000216000.0 0.6956539866 -0.7095593278
14050215700.0 0.6862069182 -0.7182123354
14100215400.0 0.6762697452 -0.727827387
14150215100.0 0.6672224371 -0.7359188296
14200214800.0 0.6577294857 -0.7448397358
14250214500.0 0.647362963 -0.7540624239
14300214200.0 0.6370925271 -0.7635004687
14350213900.0 0.6256530759 -0.7731972352
14400213600.0 0.6139022952 -0.782918338
14450213300.0 0.6014134253 -0.7930271052
14500213000.0 0.5880980366 -0.8032067429
14550212700.0 0.5753136682 -0.812291829
14600212400.0 0.5626253341 -0.8213028518
14650212100.0 0.5500073364 -0.82975654
14700211800.0 0.5364338811 -0.8392277498
14750211500.0 0.5243559713 -0.8474024344
14800211200.0 0.5120380329 -0.8558347835
14850210900.0 0.4999547461 -0.8632663797
14900210600.0 0.4867128909 -0.8711395345
14950210300.0 0.4732621939 -0.878600449
15000210000.0 0.4604855693 -0.8854838895
15050209700.0 0.4480818884 -0.8915449951
15100209400.0 0.435422712 -0.8981736307
15150209100.0 0.4228046845 -0.9027960861
15200208800.0 0.4102597209 -0.9087818268
15250208500.0 0.3987114502 -0.9132126146
15300208200.0 0.3871866687 -0.917951496
15350207900.0 0.3739269781 -0.9225726376
15400207600.0 0.3601397258 -0.9278660252
15450207300.0 0.3445424025 -0.9328992121
15500207000.0 0.3298903288 -0.9370801502
15550206700.0 0.3152678141 -0.9423702108
15600206400.0 0.2990326587 -0.9469557553
15650206100.0 0.2839859683 -0.9514682244
15700205800.0 0.2695872421 -0.9549167042
15750205500.0 0.2552393458 -0.9582171921
15800205200.0 0.2405849875 -0.9621276669
15850204900.0 0.2263481225 -0.9653903845
15900204600.0 0.2112539232 -0.9690648987
15950204300.0 0.1973518915 -0.9722106086
16000204000.0 0.1829640294 -0.9749247247
16050203700.0 0.1677839818 -0.9778132946
16100203400.0 0.1535512225 -0.9802635454
16150203100.0 0.1385839991 -0.9825442826
16200202800.0 0.1247688338 -0.9842381401
16250202500.0 0.1098144405 -0.9861984061
16300202200.0 0.0942147834 -0.9878099719
16350201900.0 0.0799100297 -0.989352046
16400201600.0 0.064837577 -0.9904950123
16450201300.0 0.0497468086 -0.9912804368
16500201000.0 0.0330337216 -0.9922071191
16550200700.0 0.0173196483 -0.9926113551
16600200400.0 0.0016093159 -0.9926943336
16650200100.0 -0.0144178855 -0.9927867669
16700199800.0 -0.0304608121 -0.9922142669
16750199500.0 -0.0492794839 -0.991459164
16800199200.0 -0.0651742455 -0.9909725056
16850198900.0 -0.0799599097 -0.990058712
16900198600.0 -0.0933859567 -0.9885839181
16950198300.0 -0.1076848739 -0.9882172153
17000198000.0 -0.1204460245 -0.9865922352
17050197700.0 -0.1333764476 -0.984241521
17100197400.0 -0.1459488716 -0.9822324063
17150197100.0 -0.1588118487 -0.980154609
17200196800.0 -0.1719009916 -0.9780855132
17250196500.0 -0.1844089725 -0.9758642334
17300196200.0 -0.1966657728 -0.9734205946
17350195900.0 -0.2086604069 -0.9712005439
17400195600.0 -0.220710416 -0.9688929578
17450195300.0 -0.2339005323 -0.9660556666
17500195000.0 -0.2472024886 -0.962714333
17550194700.0 -0.2615679388 -0.9592116313
17600194400.0 -0.2748519952 -0.9551766341
17650194100.0 -0.2890288108 -0.9509083169
17700193800.0 -0.3020083222 -0.9470909902
17750193500.0 -0.3162640806 -0.941927314
17800193200.0 -0.3305148594 -0.9375536198
17850192900.0 -0.3459264086 -0.9317581206
17900192600.0 -0.3607719564 -0.9254762597
17950192300.0 -0.3764196903 -0.9182607636
18000192000.0 -0.3912836013 -0.9112859347
18050191700.0 -0.4051049053 -0.9033048835
18100191400.0 -0.4192835344 -0.895839328
18150191100.0 -0.4342414712 -0.8878995957
18200190800.0 -0.4512491719 -0.8786347421
18250190500.0 -0.4681324407 -0.8693890589
18300190200.0 -0.4834964993 -0.860490116
18350189900.0 -0.4984308189 -0.85205313
18400189600.0 -0.5127746274 -0.8436859078
18450189300.0 -0.5264835831 -0.8359603078
18500189000.0 -0.539312459 -0.8277672515
18550188700.0 -0.5526226627 -0.8201693009
18600188400.0 -0.5644336994 -0.8134184851
18650188100.0 -0.5752997286 -0.8070274556
18700187800.0 -0.5860555772 -0.8005368807
18750187500.0 -0.5965013384 -0.7940042404
18800187200.0 -0.6073079381 -0.7870317078
18850186900.0 -0.6173596596 -0.7802922442
18900186600.0 -0.6276376445 -0.7730469931
18950186300.0 -0.6373064433 -0.7654247294
19000186000.0 -0.6449354635 -0.7592867446
19050185700.0 -0.6541637712 -0.7517041317
19100185400.0 -0.6637466758 -0.7433788426
19150185100.0 -0.6738155745 -0.7355742407
19200184800.0 -0.6835524418 -0.7270068612
19250184500.0 -0.6934322585 -0.7176989816
19300184200.0 -0.7049167413 -0.7082221005
19350183900.0 -0.7160573316 -0.6981747536
19400183600.0 -0.7251440244 -0.6885829921
19450183300.0 -0.7342928161 -0.6782832965
19500183000.0 -0.743288803 -0.6681211526
19550182700.0 -0.7524679457 -0.6574746598
19600182400.0 -0.7631033342 -0.6458911226
19650182100.0 -0.7738060562 -0.6336204121
19700181800.0 -0.7845550546 -0.6201188665
19750181500.0 -0.7949732918 -0.6059369319
19800181200.0 -0.8055494139 -0.5910559425
19850180900.0 -0.8151869671 -0.5754769149
19900180600.0 -0.8231220416 -0.561096078
19950180300.0 -0.8323404671 -0.5448461665
20000180000.0 -0.825066711 -0.5472734625
20050179700.0 -0.8337096932 -0.535054316
20100179400.0 -0.8421176657 -0.5203030024
20150179100.0 -0.8501686631 -0.5084233708
20200178800.0 -0.8594727283 -0.4949358189
20250178500.0 -0.8683981169 -0.4817051617
20300178200.0 -0.8777471865 -0.4669194911
20350177900.0 -0.8873863886 -0.453539132
20400177600.0 -0.8963629067 -0.438443469
20450177300.0 -0.9041643722 -0.4243142116
20500177000.0 -0.9126001682 -0.4103748362
20550176700.0 -0.9205780086 -0.3969345128
20600176400.0 -0.9276281433 -0.3838690924
20650176100.0 -0.9340093888 -0.3715281394
20700175800.0 -0.9401407653 -0.3598227738
20750175500.0 -0.9477026594 -0.3481730381
20800175200.0 -0.9515215843 -0.3361882136
20850174900.0 -0.9572475724 -0.3259520914
20900174600.0 -0.9607108988 -0.3154150348
20950174300.0 -0.9647022934 -0.3035536502
21000174000.0 -0.9688807893 -0.292568344
21050173700.0 -0.9704075135 -0.2815589809
21100173400.0 -0.9755386949 -0.26919891
21150173100.0 -0.9793432825 -0.2576670263
21200172800.0 -0.9824565824 -0.2440317986
21250172500.0 -0.9857742545 -0.2302075698
21300172200.0 -0.9884137716 -0.2162780487
21350171900.0 -0.9904735223 -0.2010312465
21400171600.0 -0.9917248561 -0.1870421181
21450171300.0 -0.9918378934 -0.1723544108
21500171000.0 -0.9917821803 -0.1581018115
21550170700.0 -0.9918091558 -0.142191069
21600170400.0 -0.9918845828 -0.1263169881
21650170100.0 -0.9925355654 -0.1107316247
21700169800.0 -0.9897488957 -0.0951319325
21750169500.0 -0.9891904483 -0.0792887252
21800169200.0 -0.9883757907 -0.0635044741
21850168900.0 -0.9870503222 -0.0458704038
21900168600.0 -0.9859836067 -0.030366018
21950168300.0 -0.9850599771 -0.0136031993
22000168000.0 -0.9837994413 0.0007262705
22050167700.0 -0.984119814 0.0149622247
22100167400.0 -0.9842045281 0.030519741
22150167100.0 -0.9849016233 0.0460766065
22200166800.0 -0.9852854898 0.0626828547
22250166500.0 -0.9850468497 0.0795772287
22300166200.0 -0.984338241 0.096238181
22350165900.0 -0.983021667 0.1125896093
22400165600.0 -0.9813586831 0.1295508899
22450165300.0 -0.9793785275 0.1434743179
22500165000.0 -0.9774973447 0.1565215199
22550164700.0 -0.9772067846 0.172340611
22600164400.0 -0.9739972022 0.1881797483
22650164100.0 -0.9722708792 0.2033839079
22700163800.0 -0.9694916121 0.2183378101
22750163500.0 -0.9675606598 0.2333052708
22800163200.0 -0.9645207828 0.2471050439
22850162900.0 -0.9615953588 0.2603747501
22900162600.0 -0.9605649801 0.273831708
22950162300.0 -0.9594609308 0.2866656524
23000162000.0 -0.9579647493 0.298340059
23050161700.0 -0.9558061332 0.3110135114
23100161400.0 -0.9532107546 0.3241505559
23150161100.0 -0.9510142424 0.3361831722
23200160800.0 -0.948060586 0.3492744731
23250160500.0 -0.9445707934 0.3603180182
23300160200.0 -0.9420768105 0.3723654021
23350159900.0 -0.9382514331 0.3858818778
23400159600.0 -0.9341080059 0.3990855231
23450159300.0 -0.9286049443 0.4122474611
23500159000.0 -0.9247690265 0.4257059519
23550158700.0 -0.9199914915 0.4389367912
23600158400.0 -0.9147042779 0.4525094816
23650158100.0 -0.9085148709 0.4666054577
23700157800.0 -0.9007738446 0.4805105553
23750157500.0 -0.892544729 0.494578312
23800157200.0 -0.8833468147 0.5085031664
23850156900.0 -0.8741345069 0.5210548603
23900156600.0 -0.8649518148 0.5326258411
23950156300.0 -0.8562488923 0.5457569763
24000156000.0 -0.8474429278 0.5580730031
24050155700.0 -0.8369583458 0.5691592935
24100155400.0 -0.8273147144 0.5807124356
24150155100.0 -0.8165496223 0.593584146
24200154800.0 -0.8052933518 0.6046153552
24250154500.0 -0.7934990461 0.616359181
24300154200.0 -0.7836914478 0.6281398652
24350153900.0 -0.7708318248 0.6382731903
24400153600.0 -0.7589011236 0.6485743239
24450153300.0 -0.7472151098 0.6585910565
24500153000.0 -0.7358662548 0.668036966
24550152700.0 -0.7247385511 0.6782706995
24600152400.0 -0.7125989457 0.6864821118
24650152100.0 -0.7006789848 0.6956318768
