!Created with skrf (http://scikit-rf.org).
# Hz S RI R 50.0 
!freq ReS11 ImS11
300000.0 -0.9730927013 -0.1189858837
50299700.0 -0.9998185847 0.0150839382
100299400.0 -0.9978011598 0.0280389235
150299100.0 -1.00280634 0.044908617
200298800.0 -0.9993466186 0.0581637096
250298500.0 -0.9972953784 0.0714740532
300298200.0 -0.9858215907 0.0874823977
350297900.0 -0.9938713835 0.098316328
400297600.0 -0.9930720053 0.1149420921
450297300.0 -0.9908316154 0.1286056634
500297000.0 -0.9893901731 0.1432773198
550296700.0 -0.9842354723 0.1559552697
600296400.0 -1.017457525 0.1892859919
650296100.0 -0.9819205312 0.1858833143
700295800.0 -0.9791241852 0.1998925945
750295500.0 -0.9762149009 0.2139241511
800295200.0 -0.9731375359 0.2279477082
850294900.0 -0.9696997339 0.2417952889
900294600.0 -0.9659288621 0.2555795735
950294300.0 -0.9619192607 0.2693880746
1000294000.0 -0.9580691977 0.2833409316
1050293700.0 -0.9535710787 0.2970894499
1100293400.0 -0.9493033165 0.3115878092
1150293100.0 -0.9455754252 0.3234308317
1200292800.0 -0.9400969208 0.3375743192
1250292500.0 -0.9346337047 0.351322597
1300292200.0 -0.928972081 0.3644567943
1350291900.0 -0.923511338 0.3784461641
1400291600.0 -0.9179594488 0.3915976853
1450291300.0 -0.912670688 0.4041141033
1500291000.0 -0.9062470046 0.4173407318
1550290700.0 -0.8998312434 0.4305911477
1600290400.0 -0.893463454 0.4435739565
1650290100.0 -0.8868865425 0.4558636128
1700289800.0 -0.8800091825 0.4691021007
1750289500.0 -0.8728877909 0.4814305112
1800289200.0 -0.8655483849 0.4944533772
1850288900.0 -0.8588070294 0.5057322842
1900288600.0 -0.8511446052 0.518663778
1950288300.0 -0.8429607481 0.5314228367
2000288000.0 -0.8355373665 0.542637688
2050287700.0 -0.8271336547 0.5551295914
2100287400.0 -0.8195716608 0.5664601074
2150287100.0 -0.8108407061 0.5787178055
2200286800.0 -0.8030363287 0.5891113844
2250286500.0 -0.7941208883 0.6012933786
2300286200.0 -0.7852636525 0.6128503692
2350285900.0 -0.7767836593 0.6235463915
2400285600.0 -0.7676690122 0.6345638893
2450285300.0 -0.7592311981 0.6450787895
2500285000.0 -0.7491467908 0.6567477615
2550284700.0 -0.740437532 0.6667623226
2600284400.0 -0.7309785504 0.6770015289
2650284100.0 -0.7221630373 0.6869895207
2700283800.0 -0.7119667732 0.6975255493
2750283500.0 -0.7014125415 0.7080648374
2800283200.0 -0.6917648745 0.7181328913
2850282900.0 -0.6813614096 0.7282500198
2900282600.0 -0.6707080375 0.7377949013
2950282300.0 -0.660247149 0.7470851708
3000282000.0 -0.6495778578 0.7566650144
3050281700.0 -0.6385904135 0.7656972671
3100281400.0 -0.6269632987 0.7748541654
3150281100.0 -0.6154277667 0.7840653828
3200280800.0 -0.6040328426 0.7923903537
3250280500.0 -0.5930218711 0.8002850372
3300280200.0 -0.5815623604 0.8083770561
3350279900.0 -0.5693501448 0.8163336082
3400279600.0 -0.5567905897 0.8243517452
3450279300.0 -0.5459064089 0.8314085926
3500279000.0 -0.5340713966 0.8383883298
3550278700.0 -0.5217679098 0.8456491597
3600278400.0 -0.5098593085 0.8522506649
3650278100.0 -0.4966756272 0.8599149728
3700277800.0 -0.4848389516 0.8663751747
3750277500.0 -0.4724206364 0.8730628307
3800277200.0 -0.4600600384 0.8798425403
3850276900.0 -0.4477994494 0.8857968045
3900276600.0 -0.4368836063 0.8913401441
3950276300.0 -0.4249751655 0.8972642872
4000276000.0 -0.4132757634 0.9030233612
4050275700.0 -0.4003013417 0.9093410651
4100275400.0 -0.3893056771 0.9147215994
4150275100.0 -0.3760161113 0.9203557132
4200274800.0 -0.3629080724 0.9262389554
4250274500.0 -0.3503403482 0.9312761805
4300274200.0 -0.3371109581 0.9367937191
4350273900.0 -0.3229011821 0.9420051575
4400273600.0 -0.3080138717 0.9471472412
4450273300.0 -0.2932680484 0.9522565795
4500273000.0 -0.2800174576 0.9563887456
4550272700.0 -0.2660964969 0.9605347431
4600272400.0 -0.2510290105 0.9646196555
4650272100.0 -0.2396376599 0.9679210242
4700271800.0 -0.2264814885 0.9711736289
4750271500.0 -0.214889871 0.9741909127
4800271200.0 -0.2026011266 0.976729306
4850270900.0 -0.1888736985 0.9795370705
4900270600.0 -0.1749883974 0.9819092555
4950270300.0 -0.1604591005 0.9847356443
5000270000.0 -0.1461954814 0.9869548946
5050269700.0 -0.1325341497 0.9884046566
5100269400.0 -0.1185426793 0.9902882544
5150269100.0 -0.1046980988 0.9917086756
5200268800.0 -0.0913370291 0.9927061145
5250268500.0 -0.0782760101 0.9940055247
5300268200.0 -0.064940378 0.994396139
5350267900.0 -0.052110993 0.9952244463
5400267600.0 -0.0360171274 0.9964573047
5450267300.0 -0.0226243151 0.9965897089
5500267000.0 -0.0072790888 0.9971143586
5550266700.0 0.0076639308 0.9971922114
5600266400.0 0.023251441 0.997083977
5650266100.0 0.0399599673 0.9968467144
5700265800.0 0.0542429514 0.9963344988
5750265500.0 0.0692465625 0.9953991848
5800265200.0 0.0829280198 0.994063847
5850264900.0 0.0960672768 0.9932446171
5900264600.0 0.1126476828 0.9912462704
5950264300.0 0.1242557503 0.9898076356
6000264000.0 0.1379818842 0.9883386425
6050263700.0 0.1498492031 0.9867808603
6100263400.0 0.1619250408 0.9850753665
6150263100.0 0.1764443735 0.9824816329
6200262800.0 0.1863700236 0.9809385003
6250262500.0 0.199046971 0.9785846482
6300262200.0 0.2114215515 0.9760746177
6350261900.0 0.2244122028 0.9732531856
6400261600.0 0.2383406525 0.9700540101
6450261300.0 0.2494012405 0.9675966654
6500261000.0 0.2625418243 0.9639705532
6550260700.0 0.2758923695 0.960133421
6600260400.0 0.2888045488 0.9558436977
6650260100.0 0.3029969824 0.9514778288
6700259800.0 0.3153814107 0.9470994782
6750259500.0 0.3289046669 0.9421711135
6800259200.0 0.3423443341 0.9371498613
6850258900.0 0.3548337727 0.9318869602
6900258600.0 0.367150186 0.926750973
6950258300.0 0.3795787156 0.9214590021
7000258000.0 0.3915117508 0.9161531816
7050257700.0 0.4033726546 0.9102630299
7100257400.0 0.416771758 0.9038305002
7150257100.0 0.4276984856 0.8984804924
7200256800.0 0.440371675 0.8922644572
7250256500.0 0.452761204 0.8854703071
7300256200.0 0.4657269428 0.8787574282
7350255900.0 0.4784592218 0.8717026841
7400255600.0 0.4926693421 0.8644857506
7450255300.0 0.5076554885 0.8551414339
7500255000.0 0.5199931319 0.8475623793
7550254700.0 0.5342585672 0.838916014
7600254400.0 0.5468927669 0.8305965626
7650254100.0 0.5581463034 0.8226982601
7700253800.0 0.5702958613 0.8146119791
7750253500.0 0.5811173674 0.8072264751
7800253200.0 0.5915451026 0.7992223871
7850252900.0 0.6015688231 0.7920581712
7900252600.0 0.6129962998 0.783326779
7950252300.0 0.6215296817 0.7768714161
8000252000.0 0.6314708104 0.7693958901
8050251700.0 0.6419983589 0.7612101356
8100251400.0 0.6520201646 0.753039866
8150251100.0 0.6616621712 0.7447643001
8200250800.0 0.6715883044 0.7365248067
8250250500.0 0.6801152193 0.7286148695
8300250200.0 0.689392332 0.7202304779
8350249900.0 0.6989572869 0.7113830421
8400249600.0 0.7070989661 0.7034666592
8450249300.0 0.7157900853 0.6945875629
8500249000.0 0.7240270447 0.6856388085
8550248700.0 0.7325872847 0.67650943
8600248400.0 0.7408430584 0.6671256173
8650248100.0 0.7484707583 0.6578100195
8700247800.0 0.7579350513 0.6466139289
8750247500.0 0.7660965628 0.6366045313
8800247200.0 0.7740431896 0.6262761246
8850246900.0 0.7828558232 0.6148081816
8900246600.0 0.7913277947 0.6033049707
8950246300.0 0.8009950658 0.5906647637
9000246000.0 0.8094016191 0.5786656407
9050245700.0 0.8176610768 0.56624165
9100245400.0 0.8264037758 0.5541125961
9150245100.0 0.835679368 0.5408575839
9200244800.0 0.8449150157 0.5264249831
9250244500.0 0.8538214799 0.5116788216
9300244200.0 0.8619702998 0.4980393351
9350243900.0 0.8699588979 0.4845182994
9400243600.0 0.8762153363 0.4726452508
9450243300.0 0.8819869462 0.4619071714
9500243000.0 0.8883210789 0.4499259729
9550242700.0 0.8921206618 0.4424531735
9600242400.0 0.8961762761 0.4350486414
9650242100.0 0.9006308574 0.4279487269
9700241800.0 0.9053336962 0.419427086
9750241500.0 0.9094444868 0.411929796
9800241200.0 0.9146046298 0.4024052896
9850240900.0 0.9206450248 0.3905196856
9900240600.0 0.9264830589 0.3787770827
9950240300.0 0.9330939266 0.3624366784
10000240000.0 0.9380428767 0.3501758781
10050239700.0 0.9441631702 0.3345232401
10100239400.0 0.9496156393 0.3182758896
10150239100.0 0.953906108 0.3029937812
10200238800.0 0.9582824119 0.2875762067
10250238500.0 0.9615723638 0.2740970036
10300238200.0 0.9646626815 0.2602043909
10350237900.0 0.9674506807 0.2468418344
10400237600.0 0.9700919032 0.2331146927
10450237300.0 0.9722988021 0.2201960877
10500237000.0 0.9749870639 0.2070571547
10550236700.0 0.977098925 0.1933662456
10600236400.0 0.9794816363 0.178912375
10650236100.0 0.9815083355 0.1645875883
10700235800.0 0.9839823357 0.1521788842
10750235500.0 0.9859639329 0.1388144659
10800235200.0 0.9881779263 0.1242944832
10850234900.0 0.9896009809 0.1096789933
10900234600.0 0.9921576116 0.0947729238
10950234300.0 0.9936373554 0.0815006342
11000234000.0 0.9954593255 0.0661504241
11050233700.0 0.9972312287 0.0496357499
11100233400.0 0.9986918213 0.0321445497
11150233100.0 0.9995826526 0.0153217023
11200232800.0 1.000613366 -0.0005209432
11250232500.0 1.001806019 -0.0175219581
11300232200.0 1.002124059 -0.0367265699
11350231900.0 1.001942576 -0.0522614819
11400231600.0 1.001598182 -0.0675144554
11450231300.0 1.001417903 -0.0834851425
11500231000.0 0.9997941054 -0.0996110562
11550230700.0 0.9984759625 -0.1129676309
11600230400.0 0.9970599513 -0.1256711784
11650230100.0 0.9948485926 -0.1374756156
11700229800.0 0.9927226784 -0.1525336442
11750229500.0 0.9903999797 -0.166417366
11800229200.0 0.9876492728 -0.1797500537
11850228900.0 0.9840383809 -0.1918472538
11900228600.0 0.9803009271 -0.2015146389
11950228300.0 0.9771596269 -0.2111312407
12000228000.0 0.9738550065 -0.2205668934
12050227700.0 0.9704212904 -0.2328792492
12100227400.0 0.9671515742 -0.2441518701
12150227100.0 0.9620579652 -0.2612249288
12200226800.0 0.9586416672 -0.2718714041
12250226500.0 0.954512868 -0.2852616946
12300226200.0 0.9505975051 -0.2967316283
12350225900.0 0.9451079038 -0.3104235394
12400225600.0 0.9406825375 -0.322912004
12450225300.0 0.9366991075 -0.3362762353
12500225000.0 0.9305303264 -0.3507570287
12550224700.0 0.9254831587 -0.3646316703
12600224400.0 0.9205009448 -0.3773131134
12650224100.0 0.9146999819 -0.3916165578
12700223800.0 0.9094689869 -0.4044389224
12750223500.0 0.9039036506 -0.4175485664
12800223200.0 0.8988095325 -0.4299826467
12850222900.0 0.8933932432 -0.442298803
12900222600.0 0.8877595571 -0.4543151352
12950222300.0 0.8814927813 -0.4670653923
13000222000.0 0.8757810241 -0.4787443236
13050221700.0 0.8690150684 -0.4912840442
13100221400.0 0.8621117811 -0.5036580332
13150221100.0 0.8555373861 -0.5155603292
13200220800.0 0.8481889738 -0.526779675
13250220500.0 0.8410280769 -0.5394137847
13300220200.0 0.833461259 -0.5502539662
13350219900.0 0.8252730936 -0.5621857543
13400219600.0 0.8170496293 -0.5741761183
13450219300.0 0.8079165777 -0.5870604061
13500219000.0 0.7978761261 -0.6007118985
13550218700.0 0.7881724729 -0.6127054782
13600218400.0 0.777752007 -0.6246906559
13650218100.0 0.768708012 -0.635477575
13700217800.0 0.7586245764 -0.6474285274
13750217500.0 0.7478460941 -0.6590528635
13800217200.0 0.7366481555 -0.6700424947
13850216900.0 0.7262274551 -0.6810864494
13900216600.0 0.7172690765 -0.6897274787
13950216300.0 0.705531746 -0.7008253078
14000216000.0 0.6956096963 -0.7097138659
14050215700.0 0.6859463085 -0.7173240527
14100215400.0 0.6763585316 -0.7264996546
14150215100.0 0.6677124199 -0.7350286757
14200214800.0 0.6581345966 -0.7438180814
14250214500.0 0.6478762509 -0.7533971324
14300214200.0 0.6373287871 -0.7629065665
14350213900.0 0.626097598 -0.7727057409
14400213600.0 0.6142886442 -0.7823563529
14450213300.0 0.6011909108 -0.7925661334
14500213000.0 0.5889010026 -0.8020892121
14550212700.0 0.5759308021 -0.8122537831
14600212400.0 0.5637568579 -0.8204791212
14650212100.0 0.5508068505 -0.829322019
14700211800.0 0.5367697596 -0.8387961175
14750211500.0 0.5247006626 -0.8470313621
14800211200.0 0.5125863568 -0.8553347438
14850210900.0 0.5000775745 -0.8631845399
14900210600.0 0.4870620251 -0.8708545478
14950210300.0 0.4735993509 -0.8785164248
15000210000.0 0.4609382361 -0.8853277052
15050209700.0 0.4484256239 -0.8912366419
15100209400.0 0.4357699224 -0.8973197856
15150209100.0 0.42314474 -0.9025082927
15200208800.0 0.4110181204 -0.9085363795
15250208500.0 0.3999958364 -0.9120060819
15300208200.0 0.3871450033 -0.917444138
15350207900.0 0.3736862774 -0.9224616959
15400207600.0 0.360046242 -0.927436388
15450207300.0 0.3451005884 -0.9330905743
15500207000.0 0.3304830383 -0.9376041429
15550206700.0 0.3164383035 -0.9425022258
15600206400.0 0.30009363 -0.9465325424
15650206100.0 0.2841302376 -0.9505139544
15700205800.0 0.2704667336 -0.9542294914
15750205500.0 0.2565619032 -0.9576460685
15800205200.0 0.2423661284 -0.9612526019
15850204900.0 0.2281057689 -0.9647538836
15900204600.0 0.2130005909 -0.9684424172
15950204300.0 0.1988824265 -0.971548728
16000204000.0 0.1843543136 -0.9745298216
16050203700.0 0.1692080931 -0.9773770944
16100203400.0 0.1545964152 -0.9793951558
16150203100.0 0.1400471793 -0.9823054896
16200202800.0 0.1252844962 -0.9842813775
16250202500.0 0.1109517481 -0.9860825387
16300202200.0 0.0952174212 -0.9874545751
16350201900.0 0.080152619 -0.9890903843
16400201600.0 0.0656149197 -0.9902826143
16450201300.0 0.0501089777 -0.991313292
16500201000.0 0.0331476568 -0.9921034382
16550200700.0 0.0171266708 -0.9926008777
16600200400.0 0.0011657946 -0.9927443667
16650200100.0 -0.0148862023 -0.9926615815
16700199800.0 -0.0310050966 -0.9925306292
16750199500.0 -0.049790536 -0.9920336771
16800199200.0 -0.0655614878 -0.990640839
16850198900.0 -0.081695018 -0.9900418057
16900198600.0 -0.0951870399 -0.9892395817
16950198300.0 -0.1087888094 -0.9874596136
17000198000.0 -0.1227674481 -0.9863087733
17050197700.0 -0.1341827375 -0.9842239387
17100197400.0 -0.1480072126 -0.9819097584
17150197100.0 -0.160420026 -0.9803142909
17200196800.0 -0.1731729464 -0.9780038092
17250196500.0 -0.186311805 -0.9756655743
17300196200.0 -0.1984594984 -0.9735269367
17350195900.0 -0.2102931739 -0.9710535068
17400195600.0 -0.222156494 -0.9683064518
17450195300.0 -0.2351609999 -0.9656547489
17500195000.0 -0.2483707497 -0.9624750103
17550194700.0 -0.2624357017 -0.9587947376
17600194400.0 -0.2762309129 -0.9548172978
17650194100.0 -0.2900350329 -0.9507326367
17700193800.0 -0.3028497744 -0.9470108731
17750193500.0 -0.3169014624 -0.9420992046
17800193200.0 -0.3312965048 -0.9367920555
17850192900.0 -0.3462059637 -0.9313559459
17900192600.0 -0.3613313507 -0.9254982481
17950192300.0 -0.3768066613 -0.918263384
18000192000.0 -0.3913416177 -0.9109803014
18050191700.0 -0.405466439 -0.9028885455
18100191400.0 -0.4196200692 -0.8954243279
18150191100.0 -0.4345594178 -0.8874455939
18200190800.0 -0.4512101823 -0.8782055885
18250190500.0 -0.468115973 -0.8687396272
18300190200.0 -0.4840658778 -0.8602772126
18350189900.0 -0.4990114361 -0.8520123085
18400189600.0 -0.5132809801 -0.8430200171
18450189300.0 -0.5269735795 -0.8355599132
18500189000.0 -0.5405529476 -0.8272539666
18550188700.0 -0.5531586555 -0.8199836276
18600188400.0 -0.5649354081 -0.8125065615
18650188100.0 -0.5757636112 -0.8062859846
18700187800.0 -0.5871299432 -0.7998697567
18750187500.0 -0.5980880113 -0.7929169089
18800187200.0 -0.6085554604 -0.7860490985
18850186900.0 -0.6188221115 -0.7789317944
18900186600.0 -0.6291549016 -0.771686722
18950186300.0 -0.6390259348 -0.7638856578
19000186000.0 -0.6463772718 -0.7577232433
19050185700.0 -0.6559486914 -0.7507246688
19100185400.0 -0.6658782456 -0.7425978885
19150185100.0 -0.6761025785 -0.734151136
19200184800.0 -0.6855776049 -0.7256226316
19250184500.0 -0.6956424378 -0.7167321476
19300184200.0 -0.7070945034 -0.7072336271
19350183900.0 -0.7176371346 -0.6965656442
19400183600.0 -0.7276979992 -0.6871620724
19450183300.0 -0.7365531108 -0.6771609337
19500183000.0 -0.744429507 -0.6671748373
19550182700.0 -0.7543437003 -0.6564962906
19600182400.0 -0.7648864639 -0.6448392607
19650182100.0 -0.7753708953 -0.6322662575
19700181800.0 -0.7859817321 -0.618984606
19750181500.0 -0.7962063133 -0.6050025616
19800181200.0 -0.8064739163 -0.5901675227
19850180900.0 -0.8162713044 -0.5749783174
19900180600.0 -0.823899097 -0.5604961206
19950180300.0 -0.8332538456 -0.5441507844
20000180000.0 -0.8239331999 -0.5462811577
20050179700.0 -0.8322247677 -0.5344777356
20100179400.0 -0.8400355045 -0.5218180467
20150179100.0 -0.8483519049 -0.5092054393
20200178800.0 -0.8579031506 -0.4975495821
20250178500.0 -0.8655052904 -0.484578656
20300178200.0 -0.8762984631 -0.4712541893
20350177900.0 -0.8849002364 -0.4565272985
20400177600.0 -0.8935557525 -0.4423346165
20450177300.0 -0.9025766895 -0.4281921676
20500177000.0 -0.910495415 -0.4141863292
20550176700.0 -0.9184199679 -0.4008786237
20600176400.0 -0.925512235 -0.3881416404
20650176100.0 -0.9319261957 -0.3757468178
20700175800.0 -0.9386027768 -0.3641943178
20750175500.0 -0.9448812531 -0.3515263113
20800175200.0 -0.9484548852 -0.3415639376
20850174900.0 -0.9534915203 -0.3300240689
20900174600.0 -0.9589286347 -0.3197879417
20950174300.0 -0.9623399146 -0.3088252679
21000174000.0 -0.9650635082 -0.2968850436
21050173700.0 -0.9665854307 -0.2875848369
21100173400.0 -0.9707802696 -0.2763135432
21150173100.0 -0.9742083688 -0.264324336
21200172800.0 -0.9786265361 -0.2506495117
21250172500.0 -0.9819829651 -0.2370178029
21300172200.0 -0.9849424289 -0.2236759509
21350171900.0 -0.9870316292 -0.2093990651
21400171600.0 -0.9890248227 -0.1951241895
21450171300.0 -0.9889952966 -0.180816727
21500171000.0 -0.9908889124 -0.165457628
21550170700.0 -0.989873616 -0.1495542368
21600170400.0 -0.9909080771 -0.1359120571
21650170100.0 -0.9909478611 -0.1203882023
21700169800.0 -0.9893637872 -0.1040445248
21750169500.0 -0.9908124751 -0.0885585334
21800169200.0 -0.9895822652 -0.0707885535
21850168900.0 -0.9901162993 -0.0538715951
21900168600.0 -0.9881821988 -0.037818218
21950168300.0 -0.9879416258 -0.0229258398
22000168000.0 -0.9876199254 -0.0078976275
22050167700.0 -0.9885460505 0.0069905101
22100167400.0 -0.9887188641 0.0225610452
22150167100.0 -0.9898060606 0.0385620201
22200166800.0 -0.9903721084 0.0547963805
22250166500.0 -0.989814415 0.0719957604
22300166200.0 -0.9893192308 0.0881386646
22350165900.0 -0.9879677735 0.1050641867
22400165600.0 -0.9865987138 0.1208216128
22450165300.0 -0.9848204411 0.1353247269
22500165000.0 -0.9826145318 0.1490069236
22550164700.0 -0.9819572396 0.1660324054
22600164400.0 -0.9792534824 0.1819647806
22650164100.0 -0.9767074729 0.197896152
22700163800.0 -0.974307234 0.2124270646
22750163500.0 -0.9706800749 0.2281976731
22800163200.0 -0.9680147812 0.2408394015
22850162900.0 -0.9653879016 0.2545787255
22900162600.0 -0.9637424966 0.2682386013
22950162300.0 -0.9619453178 0.2817806498
23000162000.0 -0.9603765558 0.2941486695
23050161700.0 -0.9583123957 0.3073495104
23100161400.0 -0.9556350618 0.3211197046
23150161100.0 -0.9522527393 0.3335939587
23200160800.0 -0.9490835967 0.3461018399
23250160500.0 -0.9465066816 0.3583857327
23300160200.0 -0.9430444215 0.3709137459
23350159900.0 -0.9398641409 0.3849974592
23400159600.0 -0.9347302828 0.3983344704
23450159300.0 -0.9297003388 0.4117529161
23500159000.0 -0.9249221876 0.4253473228
23550158700.0 -0.9203154181 0.4391060793
23600158400.0 -0.9143496831 0.4530465715
23650158100.0 -0.9072732153 0.4676148729
23700157800.0 -0.8992776313 0.4817910519
23750157500.0 -0.8898499921 0.4962018931
23800157200.0 -0.8803721263 0.509474733
23850156900.0 -0.8709926726 0.5221796295
23900156600.0 -0.8616843823 0.5350238778
23950156300.0 -0.8516080878 0.5473602095
24000156000.0 -0.8420258283 0.5597990468
24050155700.0 -0.8323175311 0.5719529273
24100155400.0 -0.8211592462 0.5840442498
24150155100.0 -0.8106933843 0.59672092
24200154800.0 -0.7997142288 0.6082737077
24250154500.0 -0.7885671762 0.6199592721
24300154200.0 -0.7774581341 0.6322969765
24350153900.0 -0.7654000291 0.6430797173
24400153600.0 -0.7530265773 0.6539101055
24450153300.0 -0.7409409493 0.6639742525
24500153000.0 -0.7294691563 0.6740864166
24550152700.0 -0.7177551163 0.6834771757
24600152400.0 -0.7059225359 0.6930337124
