!Created with skrf (http://scikit-rf.org).
# Hz S RI R 50.0 
!freq ReS11 ImS11
300000.0 -0.9740118861 -0.1219171842
50299700.0 -0.9998278887 0.015206168
100299400.0 -0.9979461365 0.0281433556
150299100.0 -1.00274113 0.045078501
200298800.0 -0.9996484926 0.0583861023
250298500.0 -0.9974307732 0.0717128922
300298200.0 -0.9859468141 0.0875845275
350297900.0 -0.994025864 0.09848302
400297600.0 -0.9930514406 0.115178281
450297300.0 -0.9909850624 0.1289157996
500297000.0 -0.9894643046 0.1437256708
550296700.0 -0.9843603183 0.1561411554
600296400.0 -1.017266157 0.189239177
650296100.0 -0.9821304047 0.1860145293
700295800.0 -0.9794823212 0.2004443429
750295500.0 -0.9764080696 0.2142515477
800295200.0 -0.9729230038 0.228276902
850294900.0 -0.9696766325 0.2421212995
900294600.0 -0.9659031384 0.2558575738
950294300.0 -0.961943175 0.2694879289
1000294000.0 -0.9581723843 0.2834169723
1050293700.0 -0.9535756414 0.2973217697
1100293400.0 -0.9493063595 0.3116572683
1150293100.0 -0.9455620901 0.3237110336
1200292800.0 -0.9402224445 0.3378616965
1250292500.0 -0.9346274151 0.3513114615
1300292200.0 -0.9288708081 0.3645668833
1350291900.0 -0.9235204898 0.3786941585
1400291600.0 -0.9179778197 0.3918544747
1450291300.0 -0.9123898652 0.4042561021
1500291000.0 -0.90628967 0.4174464514
1550290700.0 -0.899718931 0.4309568666
1600290400.0 -0.8935653254 0.4438166539
1650290100.0 -0.8868061946 0.4559309445
1700289800.0 -0.8798688142 0.4693450685
1750289500.0 -0.8729879472 0.4816800614
1800289200.0 -0.8656471499 0.4945259866
1850288900.0 -0.8586549743 0.5059494805
1900288600.0 -0.851064152 0.5190079754
1950288300.0 -0.8429441233 0.5314654665
2000288000.0 -0.8355283932 0.5429084927
2050287700.0 -0.8269482721 0.5550529581
2100287400.0 -0.819178822 0.5666683046
2150287100.0 -0.8108174639 0.5789027259
2200286800.0 -0.8027341191 0.5891945529
2250286500.0 -0.7942520477 0.6014916601
2300286200.0 -0.7851923486 0.6128698627
2350285900.0 -0.7764994032 0.6238963596
2400285600.0 -0.7677871941 0.6348354816
2450285300.0 -0.7590287098 0.6452216943
2500285000.0 -0.749061533 0.6565670482
2550284700.0 -0.7402376354 0.6670077353
2600284400.0 -0.7312455657 0.6770466164
2650284100.0 -0.7223030258 0.6873858253
2700283800.0 -0.7117111635 0.6978784643
2750283500.0 -0.7013855378 0.7084309216
2800283200.0 -0.691299743 0.7180624544
2850282900.0 -0.6810208382 0.728293072
2900282600.0 -0.6706210473 0.7377917676
2950282300.0 -0.6604345988 0.7472910761
3000282000.0 -0.6497396452 0.7566396995
3050281700.0 -0.6384671233 0.7659542412
3100281400.0 -0.6267595911 0.7753233492
3150281100.0 -0.6152204041 0.784470578
3200280800.0 -0.6035754416 0.7926697947
3250280500.0 -0.5926191651 0.8006104617
3300280200.0 -0.581269814 0.8087093162
3350279900.0 -0.5695260171 0.8164296744
3400279600.0 -0.5571778243 0.824169657
3450279300.0 -0.5460814558 0.83124791
3500279000.0 -0.5341490157 0.8383490984
3550278700.0 -0.521869519 0.8455665048
3600278400.0 -0.5098430402 0.8526466299
3650278100.0 -0.4966077937 0.8601782394
3700277800.0 -0.4844667048 0.8666228619
3750277500.0 -0.4722470506 0.8729559544
3800277200.0 -0.4599207378 0.8795932686
3850276900.0 -0.4476180247 0.8856568462
3900276600.0 -0.4369341161 0.8913695096
3950276300.0 -0.4244375287 0.897415886
4000276000.0 -0.4126510331 0.9033491228
4050275700.0 -0.3997500955 0.9093614293
4100275400.0 -0.3887625907 0.9147341454
4150275100.0 -0.3760884352 0.9207510757
4200274800.0 -0.3629021326 0.9262116207
4250274500.0 -0.3503481917 0.9314391756
4300274200.0 -0.3372656704 0.9365833038
4350273900.0 -0.3232159362 0.9418911846
4400273600.0 -0.3087391675 0.9471571815
4450273300.0 -0.2932594809 0.9521856402
4500273000.0 -0.2799422 0.9565818236
4550272700.0 -0.265970952 0.9607942503
4600272400.0 -0.2505452571 0.9649824159
4650272100.0 -0.2390515122 0.9680605463
4700271800.0 -0.2257450408 0.9713756195
4750271500.0 -0.2140280894 0.9743556792
4800271200.0 -0.2018096675 0.9769543957
4850270900.0 -0.1877912862 0.9797313
4900270600.0 -0.1739502187 0.9821575328
4950270300.0 -0.1597449924 0.9846556552
5000270000.0 -0.1453105266 0.9868456259
5050269700.0 -0.1318252687 0.9882123495
5100269400.0 -0.1180426709 0.990368729
5150269100.0 -0.1043615899 0.9917608781
5200268800.0 -0.09095125 0.9928416177
5250268500.0 -0.0782025458 0.9936775773
5300268200.0 -0.0647358612 0.9942823814
5350267900.0 -0.052235339 0.9953178311
5400267600.0 -0.0361025418 0.9964693539
5450267300.0 -0.0229426007 0.9967116199
5500267000.0 -0.0076968806 0.9969874753
5550266700.0 0.0072360918 0.9974094218
5600266400.0 0.0228167415 0.9970873151
5650266100.0 0.0394441669 0.9970947574
5700265800.0 0.0536122946 0.9959634069
5750265500.0 0.0686232308 0.9952925073
5800265200.0 0.0828985857 0.9940351727
5850264900.0 0.0960729218 0.9936049337
5900264600.0 0.1123469002 0.9914392667
5950264300.0 0.1245469292 0.9904579118
6000264000.0 0.1380689602 0.9878870983
6050263700.0 0.1502003454 0.9867872022
6100263400.0 0.1626879246 0.9850959773
6150263100.0 0.1770700422 0.9827036271
6200262800.0 0.1875826385 0.9810841339
6250262500.0 0.2002658793 0.9786922455
6300262200.0 0.2125432907 0.9759661174
6350261900.0 0.2256757123 0.9730842049
6400261600.0 0.2394324212 0.9698260334
6450261300.0 0.2508626901 0.9671230472
6500261000.0 0.2637080636 0.9636668642
6550260700.0 0.2767861963 0.959475233
6600260400.0 0.2901667897 0.9555507519
6650260100.0 0.3038994455 0.951031614
6700259800.0 0.3160384983 0.9468512729
6750259500.0 0.3299687305 0.9418814428
6800259200.0 0.3431680575 0.9370248591
6850258900.0 0.3552148097 0.9315403533
6900258600.0 0.367900186 0.9265963671
6950258300.0 0.3802499235 0.9213553337
7000258000.0 0.392126124 0.9160330999
7050257700.0 0.4044048053 0.910034503
7100257400.0 0.4173238182 0.9035721053
7150257100.0 0.4276642578 0.8983920575
7200256800.0 0.4408020515 0.8920201308
7250256500.0 0.4526101913 0.8856527553
7300256200.0 0.4660676969 0.8787973759
7350255900.0 0.4781787292 0.8717690925
7400255600.0 0.4917197969 0.8642201999
7450255300.0 0.5075372729 0.8552911482
7500255000.0 0.51932738 0.8482908875
7550254700.0 0.5330399017 0.8395135766
7600254400.0 0.5458006018 0.8311910322
7650254100.0 0.5570101425 0.8234540208
7700253800.0 0.5693320943 0.8153491943
7750253500.0 0.5801756482 0.8077481019
7800253200.0 0.5911208201 0.8001958354
7850252900.0 0.6006212574 0.792949988
7900252600.0 0.6122833968 0.784284904
7950252300.0 0.6208091224 0.7777410712
8000252000.0 0.6311177822 0.7700660285
8050251700.0 0.6415500537 0.7620360546
8100251400.0 0.651458475 0.7539034921
8150251100.0 0.6617689629 0.7451448709
8200250800.0 0.6709031493 0.7372150328
8250250500.0 0.6796576879 0.7294065231
8300250200.0 0.6890117014 0.7205336374
8350249900.0 0.6982758079 0.7121351301
8400249600.0 0.7064407904 0.7041088269
8450249300.0 0.7155665983 0.694938212
8500249000.0 0.7240737124 0.6861177504
8550248700.0 0.7323374865 0.6770594463
8600248400.0 0.7407747182 0.6673929736
8650248100.0 0.748441185 0.6580796116
8700247800.0 0.7579993627 0.6469293543
8750247500.0 0.7663166561 0.6367663912
8800247200.0 0.7742960489 0.6265260382
8850246900.0 0.7831864732 0.6148802296
8900246600.0 0.7917810265 0.6034422346
8950246300.0 0.8008063363 0.5908240196
9000246000.0 0.8102859235 0.5782948346
9050245700.0 0.819033931 0.5655835261
9100245400.0 0.8274772878 0.5529102167
9150245100.0 0.8367222533 0.5397184172
9200244800.0 0.8463887416 0.5249187478
9250244500.0 0.8556562925 0.5097533225
9300244200.0 0.8638024129 0.4955214305
9350243900.0 0.8713441879 0.4820083694
9400243600.0 0.8782832117 0.4696852643
9450243300.0 0.8840013408 0.4584766603
9500243000.0 0.8903321297 0.4465871013
9550242700.0 0.8943436179 0.4391913217
9600242400.0 0.8983242839 0.4313918533
9650242100.0 0.9018849198 0.4248597105
9700241800.0 0.9067730966 0.4163126656
9750241500.0 0.9108231384 0.4090580973
9800241200.0 0.915784538 0.3996964306
9850240900.0 0.9213344361 0.387886411
9900240600.0 0.9273045703 0.3763022503
9950240300.0 0.934070093 0.3598932639
10000240000.0 0.9385592351 0.3481595262
10050239700.0 0.944467879 0.3328247941
10100239400.0 0.9492126734 0.3171788572
10150239100.0 0.9538060122 0.302063861
10200238800.0 0.9580512603 0.2868292061
10250238500.0 0.9615575317 0.2733710335
10300238200.0 0.9645147529 0.2595331331
10350237900.0 0.9672942612 0.2461808477
10400237600.0 0.9699103272 0.2327941538
10450237300.0 0.972284063 0.2193425601
10500237000.0 0.9746837695 0.2068464377
10550236700.0 0.9773266553 0.1929036053
10600236400.0 0.9790208859 0.1795024434
10650236100.0 0.9813650107 0.164335024
10700235800.0 0.983508504 0.1526401297
10750235500.0 0.9856132882 0.1386589977
10800235200.0 0.9878865352 0.1244405596
10850234900.0 0.989576167 0.1097943403
10900234600.0 0.9918288612 0.0950059225
10950234300.0 0.9935180994 0.0818576391
11000234000.0 0.9952658927 0.0664979562
11050233700.0 0.9971177727 0.0501876215
11100233400.0 0.9985023511 0.0326341473
11150233100.0 0.99959796 0.0163241295
11200232800.0 1.000388129 0.0006948391
11250232500.0 1.001471197 -0.0161892992
11300232200.0 1.001836659 -0.0335324054
11350231900.0 1.001726254 -0.0494938007
11400231600.0 1.001921083 -0.0648686276
11450231300.0 1.001329109 -0.0807347703
11500231000.0 0.9997833248 -0.0969252016
11550230700.0 0.9985898646 -0.1100069175
11600230400.0 0.9967993441 -0.123264829
11650230100.0 0.9950241934 -0.1349669929
11700229800.0 0.9930953704 -0.1495259899
11750229500.0 0.9906740705 -0.1636275669
11800229200.0 0.9880374867 -0.1775314439
11850228900.0 0.9845273795 -0.1897518982
11900228600.0 0.9807978364 -0.1994101002
11950228300.0 0.9774739804 -0.2097296493
12000228000.0 0.9746474727 -0.2188731444
12050227700.0 0.9709383164 -0.23160502
12100227400.0 0.9680349037 -0.2426633346
12150227100.0 0.9629106343 -0.2591997187
12200226800.0 0.9587614463 -0.2705133749
12250226500.0 0.9553767912 -0.2835184239
12300226200.0 0.950945122 -0.2953958176
12350225900.0 0.9456489265 -0.3093958208
12400225600.0 0.9416774234 -0.3218526738
12450225300.0 0.9372607343 -0.3345258947
12500225000.0 0.9315200229 -0.3492038223
12550224700.0 0.9264292055 -0.3631607437
12600224400.0 0.9214554747 -0.3758785969
12650224100.0 0.9155873569 -0.3902277863
12700223800.0 0.9102705787 -0.4032094614
12750223500.0 0.9049257036 -0.4161196022
12800223200.0 0.8995792011 -0.428866554
12850222900.0 0.8942861461 -0.4409854943
12900222600.0 0.8886984058 -0.4524301322
12950222300.0 0.882116662 -0.4657873687
13000222000.0 0.8762107299 -0.4772856024
13050221700.0 0.869750972 -0.4898092163
13100221400.0 0.8633389943 -0.5017195608
13150221100.0 0.8558179767 -0.5146545745
13200220800.0 0.8491982992 -0.5261439936
13250220500.0 0.8418273131 -0.537970363
13300220200.0 0.8345872265 -0.548859393
13350219900.0 0.826473477 -0.5606115514
13400219600.0 0.8181642377 -0.5725712442
13450219300.0 0.8085264846 -0.5860409351
13500219000.0 0.7987769736 -0.599414806
13550218700.0 0.7889622697 -0.6121607763
13600218400.0 0.7791886955 -0.6244355423
13650218100.0 0.7689857794 -0.6349338318
13700217800.0 0.7582104367 -0.6473177886
13750217500.0 0.7481448541 -0.6589527615
13800217200.0 0.7375544147 -0.6701657227
13850216900.0 0.7265755786 -0.6816354103
13900216600.0 0.7163324738 -0.6904554524
13950216300.0 0.7053951876 -0.7004247903
14000216000.0 0.6952544893 -0.7098886593
14050215700.0 0.6862459208 -0.7183333246
14100215400.0 0.6762701635 -0.7272558991
14150215100.0 0.6672950136 -0.7355708331
14200214800.0 0.6579012693 -0.7443449909
14250214500.0 0.6475097758 -0.7539199911
14300214200.0 0.6370673537 -0.7633268049
14350213900.0 0.6260012482 -0.7729274916
14400213600.0 0.6142343563 -0.7825218014
14450213300.0 0.6009826678 -0.7929197509
14500213000.0 0.5881501086 -0.8026511317
14550212700.0 0.5756124775 -0.8122732234
14600212400.0 0.5630564727 -0.8211216985
14650212100.0 0.550413609 -0.8297017485
14700211800.0 0.5363963283 -0.8393816637
14750211500.0 0.5241554735 -0.8477057184
14800211200.0 0.5118433406 -0.8553997977
14850210900.0 0.4999057618 -0.8633750531
14900210600.0 0.48640382 -0.8709489143
14950210300.0 0.4729586303 -0.8787464661
15000210000.0 0.4604202161 -0.8853216376
15050209700.0 0.448233377 -0.8916382522
15100209400.0 0.435370674 -0.8973401332
15150209100.0 0.4229476493 -0.9027234662
15200208800.0 0.4101771395 -0.9089254057
15250208500.0 0.399238424 -0.9133898707
15300208200.0 0.3866790965 -0.9183559417
15350207900.0 0.3733839468 -0.9226648302
15400207600.0 0.3586782572 -0.928402451
15450207300.0 0.3450925053 -0.9338900028
15500207000.0 0.3306597199 -0.937529123
15550206700.0 0.3156772618 -0.9422133601
15600206400.0 0.2992543194 -0.9467218267
15650206100.0 0.283001974 -0.9512344834
15700205800.0 0.2701004141 -0.9545325816
15750205500.0 0.2553862213 -0.9581024637
15800205200.0 0.2411132874 -0.9619890108
15850204900.0 0.2267609664 -0.9652579903
15900204600.0 0.2119287505 -0.9687324211
15950204300.0 0.1975804025 -0.9719224331
16000204000.0 0.1834503084 -0.9746069215
16050203700.0 0.1682762532 -0.9776899899
16100203400.0 0.1535202731 -0.9799762541
16150203100.0 0.1394970858 -0.9826688243
16200202800.0 0.1252955188 -0.9846284168
16250202500.0 0.1101453338 -0.9861006606
16300202200.0 0.0945969596 -0.987683545
16350201900.0 0.0797184107 -0.9891700061
16400201600.0 0.0651094919 -0.9901338685
16450201300.0 0.0498068946 -0.9913432326
16500201000.0 0.0329419823 -0.9921461082
16550200700.0 0.0172650851 -0.9926335147
16600200400.0 0.0014576479 -0.9928130135
16650200100.0 -0.0145041673 -0.9927726487
16700199800.0 -0.0309610998 -0.9926391626
16750199500.0 -0.0497754199 -0.9915965918
16800199200.0 -0.0652442693 -0.9913967372
16850198900.0 -0.081180894 -0.9892477227
16900198600.0 -0.0950845743 -0.9889370206
16950198300.0 -0.108038336 -0.9877518362
17000198000.0 -0.1206943502 -0.9859339214
17050197700.0 -0.1338789486 -0.9839367161
17100197400.0 -0.1464931498 -0.9820161885
17150197100.0 -0.1589502432 -0.9801278929
17200196800.0 -0.1720935379 -0.9780211162
17250196500.0 -0.1851878163 -0.9757492059
17300196200.0 -0.1973575647 -0.9733811483
17350195900.0 -0.2090183387 -0.97105617
17400195600.0 -0.2213821858 -0.9686656502
17450195300.0 -0.2343574459 -0.9659250481
17500195000.0 -0.247952686 -0.962433892
17550194700.0 -0.2617668543 -0.9589062374
17600194400.0 -0.2754333545 -0.9551289509
17650194100.0 -0.2893678317 -0.9505344565
17700193800.0 -0.3025788656 -0.9466142477
17750193500.0 -0.3169470411 -0.9420592024
17800193200.0 -0.3308326969 -0.9371289916
17850192900.0 -0.3458886325 -0.9312676508
17900192600.0 -0.3611425424 -0.9252565175
17950192300.0 -0.3766821798 -0.9183227162
18000192000.0 -0.3916926321 -0.9112189735
18050191700.0 -0.4053979663 -0.9031434706
18100191400.0 -0.4196477327 -0.8955776419
18150191100.0 -0.4344886018 -0.8877301207
18200190800.0 -0.4514870513 -0.8783974561
18250190500.0 -0.4686264123 -0.8691591051
18300190200.0 -0.4840736288 -0.8604918954
18350189900.0 -0.4990105865 -0.8521005106
18400189600.0 -0.5132974222 -0.8434119595
18450189300.0 -0.5265985983 -0.8357216848
18500189000.0 -0.5398849623 -0.8274354105
18550188700.0 -0.5530984572 -0.8197289408
18600188400.0 -0.5648064918 -0.8134220276
18650188100.0 -0.5755757503 -0.8068260974
18700187800.0 -0.5864930942 -0.8001790106
18750187500.0 -0.5970484116 -0.7934803935
18800187200.0 -0.6077055813 -0.7865123571
18850186900.0 -0.6179471045 -0.7798015459
18900186600.0 -0.6279909992 -0.7726076887
18950186300.0 -0.6380892813 -0.7649532593
19000186000.0 -0.6457057127 -0.7585507984
19050185700.0 -0.6547327618 -0.7513832431
19100185400.0 -0.6643397079 -0.7430254457
19150185100.0 -0.6743828233 -0.7346824326
19200184800.0 -0.6838100339 -0.726520105
19250184500.0 -0.6943798613 -0.7170580498
19300184200.0 -0.7061177262 -0.7077717951
19350183900.0 -0.7164530852 -0.6983433103
19400183600.0 -0.7253979081 -0.6881691075
19450183300.0 -0.7351863694 -0.6785540682
19500183000.0 -0.7435514627 -0.6684240018
19550182700.0 -0.7531850556 -0.6573169575
19600182400.0 -0.7632595607 -0.6455239322
19650182100.0 -0.7746022841 -0.6331147997
19700181800.0 -0.7848396455 -0.6201136007
19750181500.0 -0.7954628001 -0.6056237238
19800181200.0 -0.8058567534 -0.5907626586
19850180900.0 -0.8154566358 -0.5752763666
19900180600.0 -0.8234239634 -0.5607699264
19950180300.0 -0.8327425384 -0.5445595445
20000180000.0 -0.8247966685 -0.5471559593
20050179700.0 -0.8319260103 -0.533677745
20100179400.0 -0.8416241279 -0.5209694661
20150179100.0 -0.8494525671 -0.508563752
20200178800.0 -0.8588056576 -0.495412112
20250178500.0 -0.8679445344 -0.4825051566
20300178200.0 -0.8776028698 -0.4687677725
20350177900.0 -0.8864706605 -0.4543744093
20400177600.0 -0.8956737162 -0.4398682302
20450177300.0 -0.9036834304 -0.4255167674
20500177000.0 -0.9118594382 -0.4115866347
20550176700.0 -0.9198199893 -0.3981348716
20600176400.0 -0.92686822 -0.385016275
20650176100.0 -0.9329301868 -0.3729995296
20700175800.0 -0.9400060259 -0.3609538505
20750175500.0 -0.9469091649 -0.3487713776
20800175200.0 -0.9513837584 -0.338368657
20850174900.0 -0.9554915336 -0.3269670843
20900174600.0 -0.9600850463 -0.3165546019
20950174300.0 -0.9629293655 -0.3055056452
21000174000.0 -0.9676824673 -0.294170129
21050173700.0 -0.9700709202 -0.2834016197
21100173400.0 -0.9739703006 -0.2719427133
21150173100.0 -0.9777934616 -0.2598285299
21200172800.0 -0.9811269891 -0.2462011286
21250172500.0 -0.9843806725 -0.2326821844
21300172200.0 -0.9876860292 -0.2188353817
21350171900.0 -0.988769647 -0.2038102726
21400171600.0 -0.9907860401 -0.190067569
21450171300.0 -0.9913650891 -0.1757617068
21500171000.0 -0.9920905103 -0.1610685861
21550170700.0 -0.9915183964 -0.1453297363
21600170400.0 -0.9912575302 -0.1287753192
21650170100.0 -0.9913211105 -0.113064233
21700169800.0 -0.9891289012 -0.0972516859
21750169500.0 -0.9886610728 -0.0818225619
21800169200.0 -0.9881846981 -0.0660264483
21850168900.0 -0.98834324 -0.0492601985
21900168600.0 -0.9872180678 -0.0330160566
21950168300.0 -0.9863871965 -0.01705769
22000168000.0 -0.985665093 -0.0015438314
22050167700.0 -0.9855550479 0.0126217677
22100167400.0 -0.9859286188 0.0277339495
22150167100.0 -0.9867390584 0.0438175056
22200166800.0 -0.9871603796 0.060123178
22250166500.0 -0.986663421 0.0774883248
22300166200.0 -0.9857931297 0.0935367246
22350165900.0 -0.9845080388 0.1100720828
22400165600.0 -0.9841630558 0.1252939606
22450165300.0 -0.9810296154 0.1417887222
22500165000.0 -0.9792709834 0.1539088565
22550164700.0 -0.9787446215 0.1693318267
22600164400.0 -0.9760286852 0.1852356867
22650164100.0 -0.9740378759 0.2011044062
22700163800.0 -0.9711167089 0.2169340345
22750163500.0 -0.9684679307 0.2323765994
22800163200.0 -0.9654402118 0.245275771
22850162900.0 -0.9634601888 0.2582538038
22900162600.0 -0.9613826483 0.2721977455
22950162300.0 -0.9600958498 0.284993039
23000162000.0 -0.9588233313 0.2970936032
23050161700.0 -0.9565908459 0.3103151067
23100161400.0 -0.9540461537 0.3229673491
23150161100.0 -0.9512197531 0.3352364828
23200160800.0 -0.9482834962 0.3485767477
23250160500.0 -0.9458188153 0.3605283149
23300160200.0 -0.942949707 0.3732553512
23350159900.0 -0.9395400323 0.3859625394
23400159600.0 -0.9345521138 0.3993692793
23450159300.0 -0.9293472363 0.4125818781
23500159000.0 -0.9242378325 0.4257348217
23550158700.0 -0.9199875677 0.4395169943
23600158400.0 -0.9145041152 0.4529976456
23650158100.0 -0.9079171601 0.4673454824
23700157800.0 -0.9002107844 0.4812364369
23750157500.0 -0.8912369082 0.4952386417
23800157200.0 -0.8822989192 0.5090062242
23850156900.0 -0.8727638095 0.5216916066
23900156600.0 -0.8636029794 0.5337142173
23950156300.0 -0.8543141974 0.5462404548
24000156000.0 -0.8448397681 0.5583691453
24050155700.0 -0.8352386912 0.5703544687
24100155400.0 -0.8250465503 0.5831168494
24150155100.0 -0.8142792392 0.594461167
24200154800.0 -0.8034976305 0.606622023
24250154500.0 -0.7922044616 0.618498
24300154200.0 -0.780894105 0.6294476633
24350153900.0 -0.7688758142 0.6404946818
24400153600.0 -0.7563348971 0.6507182682
24450153300.0 -0.7448624521 0.6608940384
24500153000.0 -0.7332075581 0.6708037559
24550152700.0 -0.7224236577 0.6801060992
24600152400.0 -0.7102468574 0.6892389784
24650152100.0 -0.6981147389 0.6974171707
