!Created with skrf (http://scikit-rf.org).
# Hz S RI R 50.0 
!freq ReS11 ImS11
300000.0 -0.9913279078 -0.0577849025
50299700.0 -0.9995292617 0.0165595066
100299400.0 -0.9976928568 0.0291095043
150299100.0 -1.002389332 0.0462014067
200298800.0 -0.9992038102 0.059205271
250298500.0 -0.99683704 0.0726728519
300298200.0 -0.9852635379 0.088393867
350297900.0 -0.9933812489 0.0994145384
400297600.0 -0.9924063124 0.1159519873
450297300.0 -0.990232574 0.1297230168
500297000.0 -0.988703742 0.1442535994
550296700.0 -0.9834446309 0.1567862393
600296400.0 -1.016241212 0.1898096067
650296100.0 -0.9811344662 0.1866065139
700295800.0 -0.9782443223 0.2008254309
750295500.0 -0.9752470078 0.2148263466
800295200.0 -0.9718856203 0.2287865547
850294900.0 -0.9686034051 0.2425473786
900294600.0 -0.9646841878 0.2562159047
950294300.0 -0.9609765745 0.2700984203
1000294000.0 -0.9570695799 0.2839320513
1050293700.0 -0.9525186133 0.2978162716
1100293400.0 -0.9481684209 0.3120813199
1150293100.0 -0.9444609062 0.3237681097
1200292800.0 -0.9392213225 0.338119583
1250292500.0 -0.9337048488 0.3515341066
1300292200.0 -0.9280108212 0.3645538236
1350291900.0 -0.9226241228 0.3787323193
1400291600.0 -0.9172601919 0.3918666404
1450291300.0 -0.9119782663 0.4041579822
1500291000.0 -0.9054388271 0.4174220011
1550290700.0 -0.8991335845 0.43071993
1600290400.0 -0.8929884427 0.4436690087
1650290100.0 -0.8863743736 0.4557411481
1700289800.0 -0.8794921892 0.4690670132
1750289500.0 -0.872645545 0.4813578196
1800289200.0 -0.8652505462 0.4943053993
1850288900.0 -0.8586668145 0.5054853014
1900288600.0 -0.8507402505 0.5184167273
1950288300.0 -0.8427568687 0.531061664
2000288000.0 -0.835252963 0.5425681111
2050287700.0 -0.8271377427 0.5549369329
2100287400.0 -0.8190187443 0.5664304934
2150287100.0 -0.8104881101 0.5785395996
2200286800.0 -0.8026467749 0.5889900544
2250286500.0 -0.7936324511 0.6010518219
2300286200.0 -0.7850006287 0.6122603314
2350285900.0 -0.7762679601 0.6234534208
2400285600.0 -0.7672035359 0.6346397884
2450285300.0 -0.7584663922 0.6451421311
2500285000.0 -0.7488895434 0.6561485459
2550284700.0 -0.7398836037 0.6665727157
2600284400.0 -0.7301962189 0.6768481565
2650284100.0 -0.7213380677 0.6870835722
2700283800.0 -0.7108884461 0.6976978731
2750283500.0 -0.7004268839 0.7081350903
2800283200.0 -0.6905736109 0.7177485502
2850282900.0 -0.6804580976 0.7277932932
2900282600.0 -0.6702310217 0.7372778958
2950282300.0 -0.6602407682 0.746439923
3000282000.0 -0.6493999884 0.7560169728
3050281700.0 -0.6382892945 0.7650044683
3100281400.0 -0.6269492458 0.7742408431
3150281100.0 -0.6155811719 0.7833129976
3200280800.0 -0.6037788008 0.7920077796
3250280500.0 -0.5928727648 0.800042166
3300280200.0 -0.5815897129 0.807929793
3350279900.0 -0.5703575126 0.8154823261
3400279600.0 -0.558326293 0.8234562098
3450279300.0 -0.5471682452 0.8304145241
3500279000.0 -0.5353382323 0.8377810568
3550278700.0 -0.5230049058 0.8453222802
3600278400.0 -0.5109121242 0.8521363779
3650278100.0 -0.4977703564 0.8598555619
3700277800.0 -0.4859150041 0.8665366438
3750277500.0 -0.4737392025 0.8730195187
3800277200.0 -0.4611533512 0.8795315916
3850276900.0 -0.4489807908 0.8858539981
3900276600.0 -0.4375392454 0.8917213731
3950276300.0 -0.4247928814 0.8975860702
4000276000.0 -0.4128659314 0.9036488935
4050275700.0 -0.3993873513 0.9097683646
4100275400.0 -0.3882543248 0.9150054725
4150275100.0 -0.3751809067 0.9209135688
4200274800.0 -0.361939741 0.926483612
4250274500.0 -0.349601796 0.9313237898
4300274200.0 -0.336806105 0.9364665888
4350273900.0 -0.3229365899 0.9415672093
4400273600.0 -0.3088324751 0.9464199837
4450273300.0 -0.2937548998 0.9515603652
4500273000.0 -0.2804544547 0.9557576693
4550272700.0 -0.2668172027 0.9598619931
4600272400.0 -0.2512227665 0.9639981979
4650272100.0 -0.2393154791 0.9672727561
4700271800.0 -0.2259600778 0.9706522206
4750271500.0 -0.2134885607 0.9736205019
4800271200.0 -0.2007538048 0.9763105254
4850270900.0 -0.1869913115 0.9791953644
4900270600.0 -0.1734674413 0.9815528004
4950270300.0 -0.159612575 0.9841301676
5000270000.0 -0.1454251241 0.986174881
5050269700.0 -0.1319037896 0.9877627167
5100269400.0 -0.1183783953 0.9894574911
5150269100.0 -0.1049471139 0.9910645846
5200268800.0 -0.0913747061 0.992467272
5250268500.0 -0.0784097707 0.9933233304
5300268200.0 -0.0652239329 0.9943686067
5350267900.0 -0.0528322321 0.99497309
5400267600.0 -0.0367048268 0.9959305777
5450267300.0 -0.0240681904 0.9964303808
5500267000.0 -0.0092792075 0.996535758
5550266700.0 0.0048170691 0.9967696232
5600266400.0 0.0198478973 0.9965536779
5650266100.0 0.0358319363 0.9964097213
5700265800.0 0.0500119471 0.9956651494
5750265500.0 0.0649298655 0.9949226026
5800265200.0 0.0788356988 0.9942014307
5850264900.0 0.0922453972 0.9932488089
5900264600.0 0.1086050769 0.9912772596
5950264300.0 0.1210276776 0.9899825612
6000264000.0 0.1347996551 0.9877093245
6050263700.0 0.1476860334 0.9860713983
6100263400.0 0.1605690105 0.984585168
6150263100.0 0.1756683815 0.9820409412
6200262800.0 0.1862945041 0.9800701084
6250262500.0 0.1991598814 0.977402676
6300262200.0 0.2122474066 0.9747679809
6350261900.0 0.2252140664 0.9718932735
6400261600.0 0.2393975789 0.9684786851
6450261300.0 0.2508885663 0.965543566
6500261000.0 0.2637810486 0.9621254426
6550260700.0 0.2769334833 0.9585933698
6600260400.0 0.2899438917 0.9542650936
6650260100.0 0.3039392141 0.9502424057
6700259800.0 0.3158412335 0.9460909921
6750259500.0 0.3296236264 0.9413868807
6800259200.0 0.34287084 0.9363349639
6850258900.0 0.3547453081 0.9316222192
6900258600.0 0.3670329095 0.9265151512
6950258300.0 0.3794003231 0.9214016002
7000258000.0 0.391582584 0.9160934571
7050257700.0 0.4036452408 0.9101760856
7100257400.0 0.4169595712 0.9041881736
7150257100.0 0.4274379433 0.8988510108
7200256800.0 0.4400934445 0.8926174728
7250256500.0 0.45164405 0.8865180729
7300256200.0 0.4646532413 0.8798583549
7350255900.0 0.4767065375 0.873495636
7400255600.0 0.4885335213 0.8667579882
7450255300.0 0.5037884563 0.8582749866
7500255000.0 0.5151128629 0.8511865343
7550254700.0 0.5279480243 0.8434947642
7600254400.0 0.5406069256 0.8349601018
7650254100.0 0.5517060881 0.8276020325
7700253800.0 0.5642167336 0.8197420926
7750253500.0 0.5752064699 0.8116682153
7800253200.0 0.5863918996 0.8038640688
7850252900.0 0.5959165264 0.796559906
7900252600.0 0.607932142 0.7876089865
7950252300.0 0.6171095513 0.7808814341
8000252000.0 0.6275497526 0.7726450225
8050251700.0 0.6381268413 0.764356734
8100251400.0 0.6483461091 0.7558809985
8150251100.0 0.6586191425 0.7471452239
8200250800.0 0.6683439236 0.7388077881
8250250500.0 0.6775139284 0.7303615629
8300250200.0 0.6871463971 0.7216832581
8350249900.0 0.6963962669 0.7127709083
8400249600.0 0.7047730141 0.704353921
8450249300.0 0.7141526689 0.6948809788
8500249000.0 0.7232770874 0.6858512582
8550248700.0 0.7320928501 0.6766989794
8600248400.0 0.7407580259 0.6667598219
8650248100.0 0.7484623124 0.6575819188
8700247800.0 0.7580253235 0.646619063
8750247500.0 0.7664704183 0.6366948765
8800247200.0 0.7746010928 0.6265304937
8850246900.0 0.7832384005 0.6154653884
8900246600.0 0.7912843243 0.604406409
8950246300.0 0.8004667962 0.5921878183
9000246000.0 0.8094809127 0.5802478492
9050245700.0 0.8179434226 0.5680365733
9100245400.0 0.8262610502 0.5561411633
9150245100.0 0.8348369742 0.5435023051
9200244800.0 0.8438471218 0.5297027452
9250244500.0 0.8524754269 0.5156456163
9300244200.0 0.8604006455 0.5022209797
9350243900.0 0.8680484924 0.4888545895
9400243600.0 0.8750161288 0.47626609
9450243300.0 0.8812337316 0.4638449692
9500243000.0 0.8882130295 0.4506458219
9550242700.0 0.8931218144 0.4408962678
9600242400.0 0.8978715485 0.4313961124
9650242100.0 0.9019111256 0.4232596758
9700241800.0 0.9066724673 0.4139784329
9750241500.0 0.9109099865 0.4048991238
9800241200.0 0.9157437506 0.3947866945
9850240900.0 0.9210057606 0.3831158828
9900240600.0 0.9265514891 0.3716817542
9950240300.0 0.9326219896 0.3567756828
10000240000.0 0.937423693 0.3450916396
10050239700.0 0.9425462729 0.3303872733
10100239400.0 0.9476971556 0.315706662
10150239100.0 0.9520554017 0.3015749445
10200238800.0 0.9562473522 0.2870380126
10250238500.0 0.9600009633 0.2735150718
10300238200.0 0.9632586506 0.2596340091
10350237900.0 0.9663441477 0.2464336981
10400237600.0 0.9691326829 0.2334112671
10450237300.0 0.9723333081 0.2193688614
10500237000.0 0.9744207394 0.2072300519
10550236700.0 0.976923795 0.1937741775
10600236400.0 0.9792042527 0.1804269171
10650236100.0 0.9815389751 0.1656788027
10700235800.0 0.9833567315 0.1533870779
10750235500.0 0.9858192979 0.1403425956
10800235200.0 0.9878993608 0.1261597444
10850234900.0 0.9894968841 0.1122352947
10900234600.0 0.991658598 0.0978540598
10950234300.0 0.993270778 0.0846272639
11000234000.0 0.9945923308 0.0703970096
11050233700.0 0.996117313 0.055427389
11100233400.0 0.9975317785 0.0388755605
11150233100.0 0.9978813457 0.0233993308
11200232800.0 0.9986268167 0.0089144061
11250232500.0 0.9992665107 -0.0071175292
11300232200.0 0.9995724352 -0.023100383
11350231900.0 0.999391108 -0.0390020607
11400231600.0 0.9993310437 -0.0541080218
11450231300.0 0.9989701208 -0.069319081
11500231000.0 0.9977196264 -0.0855091675
11550230700.0 0.9967568599 -0.0997265604
11600230400.0 0.9951256842 -0.1135485444
11650230100.0 0.9935893726 -0.125052714
11700229800.0 0.991519172 -0.1393185781
11750229500.0 0.9891243722 -0.1540178376
11800229200.0 0.986829792 -0.1681383248
11850228900.0 0.98372974 -0.1816423618
11900228600.0 0.980388171 -0.1927108911
11950228300.0 0.9771038463 -0.2048557072
12000228000.0 0.9746413989 -0.2146887492
12050227700.0 0.9710471589 -0.2280840676
12100227400.0 0.9680992683 -0.2387450281
12150227100.0 0.9628935342 -0.2563974625
12200226800.0 0.9598925337 -0.2673725806
12250226500.0 0.9559925203 -0.2800317191
12300226200.0 0.9529742974 -0.2917102154
12350225900.0 0.9476918321 -0.3058163471
12400225600.0 0.9429819225 -0.3188765411
12450225300.0 0.9393988719 -0.3306124697
12500225000.0 0.9342032782 -0.345216116
12550224700.0 0.9285727157 -0.3588895561
12600224400.0 0.9240501196 -0.3712469528
12650224100.0 0.918330574 -0.3854003066
12700223800.0 0.9130077542 -0.3979822241
12750223500.0 0.9077441641 -0.4108476744
12800223200.0 0.9022715812 -0.423022098
12850222900.0 0.8969103729 -0.435567758
12900222600.0 0.8912847306 -0.4476550752
12950222300.0 0.8843974125 -0.4609047234
13000222000.0 0.8782987962 -0.4721255921
13050221700.0 0.8714679155 -0.4851813971
13100221400.0 0.8647421976 -0.4973593608
13150221100.0 0.8580379961 -0.5095069546
13200220800.0 0.8503078043 -0.5212519955
13250220500.0 0.8432529513 -0.5334981613
13300220200.0 0.8356137632 -0.5448947054
13350219900.0 0.8275055168 -0.5574506032
13400219600.0 0.8190837074 -0.5691758881
13450219300.0 0.8105445828 -0.5820103857
13500219000.0 0.8005554112 -0.5955225564
13550218700.0 0.790777149 -0.6079906921
13600218400.0 0.7806911499 -0.6201167696
13650218100.0 0.7719649362 -0.6308101194
13700217800.0 0.7610721551 -0.642558393
13750217500.0 0.7512132567 -0.6553414633
13800217200.0 0.7403467225 -0.6662001919
13850216900.0 0.7293835068 -0.6788236146
13900216600.0 0.719592981 -0.6871836273
13950216300.0 0.7098983518 -0.6976663708
14000216000.0 0.6994530973 -0.7071898784
14050215700.0 0.6902499714 -0.7154496667
14100215400.0 0.6800307049 -0.7253543004
14150215100.0 0.6704842761 -0.7343465558
14200214800.0 0.661198572 -0.7427447792
14250214500.0 0.6508814794 -0.7522282465
14300214200.0 0.6402397625 -0.761575171
14350213900.0 0.6297141354 -0.7707267134
14400213600.0 0.6181972678 -0.7801891574
14450213300.0 0.6059666045 -0.7896398347
14500213000.0 0.5927014865 -0.7995917261
14550212700.0 0.5810918147 -0.8081325079
14600212400.0 0.569016108 -0.8171558537
14650212100.0 0.5564916494 -0.8253398353
14700211800.0 0.542648643 -0.8347371668
14750211500.0 0.5300254302 -0.8431621616
14800211200.0 0.5183179128 -0.8512970803
14850210900.0 0.5062418032 -0.8585211288
14900210600.0 0.4928107281 -0.8667520749
14950210300.0 0.4795008652 -0.8744022083
15000210000.0 0.4668445612 -0.8813707569
15050209700.0 0.4537888223 -0.8880639449
15100209400.0 0.4410593693 -0.8945219099
15150209100.0 0.4283214877 -0.8999526023
15200208800.0 0.4152424144 -0.905459214
15250208500.0 0.4029272363 -0.9113370236
15300208200.0 0.3893700889 -0.9162520892
15350207900.0 0.3773667943 -0.9209953813
15400207600.0 0.3617046768 -0.9273044021
15450207300.0 0.3484593423 -0.9317100138
15500207000.0 0.3326851854 -0.9364948955
15550206700.0 0.3189967048 -0.9418330524
15600206400.0 0.3041988475 -0.946126775
15650206100.0 0.2889886859 -0.9501989676
15700205800.0 0.2751320576 -0.9541304712
15750205500.0 0.2603995341 -0.9581803011
15800205200.0 0.2466239777 -0.9616989612
15850204900.0 0.2327381769 -0.9650699147
15900204600.0 0.217715175 -0.9689142815
15950204300.0 0.2038809684 -0.9716019964
16000204000.0 0.1896955863 -0.974612852
16050203700.0 0.175183353 -0.9774744513
16100203400.0 0.1606446539 -0.9797148979
16150203100.0 0.1468401993 -0.9823005598
16200202800.0 0.1326738482 -0.9847143163
16250202500.0 0.1181096887 -0.9862243125
16300202200.0 0.1032665996 -0.987853012
16350201900.0 0.0880002386 -0.9890673764
16400201600.0 0.073332791 -0.9904830293
16450201300.0 0.0584191138 -0.9914220426
16500201000.0 0.0421631041 -0.9924389092
16550200700.0 0.0269672757 -0.9932324093
16600200400.0 0.0113854618 -0.9935801102
16650200100.0 -0.0051434861 -0.9937401598
16700199800.0 -0.020529613 -0.9936017255
16750199500.0 -0.0386216804 -0.9929803363
16800199200.0 -0.0546085489 -0.9922968722
16850198900.0 -0.0705476878 -0.9906493035
16900198600.0 -0.0844314646 -0.9899881119
16950198300.0 -0.0988414231 -0.9893984088
17000198000.0 -0.1125286045 -0.9877482986
17050197700.0 -0.1255866826 -0.9858974894
17100197400.0 -0.1391625944 -0.9836517387
17150197100.0 -0.1532090254 -0.9813015384
17200196800.0 -0.1658725798 -0.9797735259
17250196500.0 -0.1792791169 -0.9771090445
17300196200.0 -0.1923344138 -0.9745474587
17350195900.0 -0.2049078244 -0.9719339587
17400195600.0 -0.2176087794 -0.9694044306
17450195300.0 -0.2308590268 -0.9665299158
17500195000.0 -0.2442529309 -0.96318653
17550194700.0 -0.2580953957 -0.9596704362
17600194400.0 -0.2721685056 -0.9554610573
17650194100.0 -0.2864227656 -0.9518167329
17700193800.0 -0.2989942845 -0.9472335308
17750193500.0 -0.3127185303 -0.943476969
17800193200.0 -0.3267283396 -0.938068579
17850192900.0 -0.3417147105 -0.9330358289
17900192600.0 -0.356175295 -0.9277477254
17950192300.0 -0.371010984 -0.9210203611
18000192000.0 -0.3858186094 -0.9141922279
18050191700.0 -0.3999666803 -0.9066711683
18100191400.0 -0.4140041442 -0.8999099227
18150191100.0 -0.4282752205 -0.8922918199
18200190800.0 -0.4441970566 -0.883993092
18250190500.0 -0.4605932552 -0.8756162513
18300190200.0 -0.4755292288 -0.8670121186
18350189900.0 -0.4901775305 -0.8588365528
18400189600.0 -0.5049863875 -0.851242463
18450189300.0 -0.5185597347 -0.8432971752
18500189000.0 -0.5322890216 -0.8352391385
18550188700.0 -0.5449147431 -0.8270329373
18600188400.0 -0.5566783806 -0.8198477781
18650188100.0 -0.5684314234 -0.8123934844
18700187800.0 -0.5799805561 -0.8055594485
18750187500.0 -0.591140321 -0.7982305519
18800187200.0 -0.6022831326 -0.790238282
18850186900.0 -0.6129802504 -0.7828486912
18900186600.0 -0.6235122924 -0.7747878586
18950186300.0 -0.6344992276 -0.7664029795
19000186000.0 -0.6428395306 -0.7591014155
19050185700.0 -0.652768766 -0.7513185949
19100185400.0 -0.6624596318 -0.7426370518
19150185100.0 -0.6732166318 -0.7334701252
19200184800.0 -0.6821855915 -0.7253543653
19250184500.0 -0.6924320263 -0.7158366373
19300184200.0 -0.7037882827 -0.7059537534
19350183900.0 -0.7142291764 -0.6966065744
19400183600.0 -0.7235131867 -0.6863013314
19450183300.0 -0.7320941942 -0.6760602886
19500183000.0 -0.7410772572 -0.6658621053
19550182700.0 -0.7506135523 -0.6553890153
19600182400.0 -0.7603208631 -0.6439718991
19650182100.0 -0.7707907336 -0.6320397151
19700181800.0 -0.7805628589 -0.6198547582
19750181500.0 -0.7903838206 -0.6069724051
19800181200.0 -0.8003610214 -0.5931354184
19850180900.0 -0.8099821669 -0.5788620089
19900180600.0 -0.8179873442 -0.565585823
19950180300.0 -0.8275843333 -0.5504484406
20000180000.0 -0.8264413785 -0.5474336172
20050179700.0 -0.8346662381 -0.5344867151
20100179400.0 -0.8421235928 -0.5213459919
20150179100.0 -0.850859949 -0.5098732984
20200178800.0 -0.8590730455 -0.4965911122
20250178500.0 -0.8680698257 -0.4835556046
20300178200.0 -0.8766499088 -0.4688421117
20350177900.0 -0.8849108685 -0.4557266244
20400177600.0 -0.8925176192 -0.4419894762
20450177300.0 -0.9006990718 -0.4279839233
20500177000.0 -0.9079958877 -0.4144041884
20550176700.0 -0.9152618093 -0.4007845625
20600176400.0 -0.9219637612 -0.3876203454
20650176100.0 -0.9279948947 -0.3748129094
20700175800.0 -0.9341387184 -0.3624798019
20750175500.0 -0.9404724535 -0.3497674385
20800175200.0 -0.94515767 -0.3382069017
20850174900.0 -0.950543193 -0.3272073463
20900174600.0 -0.9558626264 -0.3136850569
20950174300.0 -0.9595126204 -0.3021208675
21000174000.0 -0.9635976915 -0.2899699506
21050173700.0 -0.9666089142 -0.2776941009
21100173400.0 -0.9707674744 -0.2655669646
21150173100.0 -0.9741748898 -0.2528838773
21200172800.0 -0.9775608369 -0.2392968072
21250172500.0 -0.9812000956 -0.2256614885
21300172200.0 -0.9842704562 -0.2112155452
21350171900.0 -0.9863863755 -0.1970381841
21400171600.0 -0.9882910354 -0.1833187289
21450171300.0 -0.9891173327 -0.1690170797
21500171000.0 -0.9896995678 -0.1533481913
21550170700.0 -0.9910934548 -0.1388422129
21600170400.0 -0.9914130532 -0.1232509619
21650170100.0 -0.9918885277 -0.1076426378
21700169800.0 -0.9908746636 -0.0933426516
21750169500.0 -0.9900712671 -0.0771017837
21800169200.0 -0.9896303885 -0.0619767156
21850168900.0 -0.9886926734 -0.046222287
21900168600.0 -0.9883932913 -0.0304275642
21950168300.0 -0.9875410513 -0.0142327117
22000168000.0 -0.9867906097 -0.0002630487
22050167700.0 -0.9862164771 0.0139729918
22100167400.0 -0.9859439422 0.0290152659
22150167100.0 -0.9859611518 0.0439357976
22200166800.0 -0.9861005538 0.0593737578
22250166500.0 -0.9855872311 0.0761015969
22300166200.0 -0.9844513633 0.0918711132
22350165900.0 -0.9830963731 0.1069279835
22400165600.0 -0.9814955034 0.1230188673
22450165300.0 -0.9794926709 0.1373193182
22500165000.0 -0.9781055334 0.150919623
22550164700.0 -0.9771770257 0.1673600165
22600164400.0 -0.9738463087 0.1816698506
22650164100.0 -0.9722019434 0.1959061735
22700163800.0 -0.9696154078 0.2105933108
22750163500.0 -0.9668459212 0.2254854576
22800163200.0 -0.9641228574 0.239245671
22850162900.0 -0.9615516727 0.2528348303
22900162600.0 -0.9596768164 0.2658187734
22950162300.0 -0.9579348513 0.2790839649
23000162000.0 -0.9561489474 0.2912458382
23050161700.0 -0.953530986 0.3038443322
23100161400.0 -0.9510799718 0.3173377957
23150161100.0 -0.9477894974 0.329555179
23200160800.0 -0.9449017573 0.3420504
23250160500.0 -0.9423224151 0.3542212982
23300160200.0 -0.9395946621 0.3657051171
23350159900.0 -0.9359107856 0.3784763632
23400159600.0 -0.930413929 0.3914595435
23450159300.0 -0.9255237922 0.4047252339
23500159000.0 -0.9215195369 0.4176460229
23550158700.0 -0.9166410203 0.4302050426
23600158400.0 -0.9112774587 0.4427479616
23650158100.0 -0.9052682889 0.4558434789
23700157800.0 -0.8982617469 0.4692320749
23750157500.0 -0.890199128 0.4828165739
23800157200.0 -0.8820701728 0.4957535712
23850156900.0 -0.8736202279 0.5082483635
23900156600.0 -0.8654900662 0.5198542466
23950156300.0 -0.8566646972 0.5331215501
24000156000.0 -0.8484068219 0.543807367
24050155700.0 -0.8394172358 0.5566413421
24100155400.0 -0.8297657834 0.5684501652
24150155100.0 -0.8188464102 0.5798544848
24200154800.0 -0.8095492519 0.5916616831
24250154500.0 -0.7990257669 0.6036090018
24300154200.0 -0.7889216866 0.6149915417
24350153900.0 -0.7782569736 0.625870437
24400153600.0 -0.7660993078 0.6368117175
24450153300.0 -0.7552529047 0.647207637
24500153000.0 -0.7444399934 0.6571302965
24550152700.0 -0.7337325936 0.667746496
24600152400.0 -0.7227538434 0.6774219598
24650152100.0 -0.7116753394 0.6870732881
