!Created with skrf (http://scikit-rf.org).
# Hz S RI R 50.0 
!freq ReS11 ImS11
300000.0 -0.9738877104 -0.123308358
50299700.0 -0.9999239045 0.0149668474
100299400.0 -0.9979706884 0.0279082909
150299100.0 -1.002829893 0.0447674068
200298800.0 -0.9996755233 0.0581380875
250298500.0 -0.9974095948 0.0718234058
300298200.0 -0.985773799 0.0873533364
350297900.0 -0.9939721544 0.0984362114
400297600.0 -0.9931889392 0.1150951838
450297300.0 -0.9909165129 0.1289478579
500297000.0 -0.9895683566 0.1433539945
550296700.0 -0.9842181428 0.1559274882
600296400.0 -1.017368503 0.1890642688
650296100.0 -0.9822044686 0.1858562017
700295800.0 -0.9791837718 0.2001133573
750295500.0 -0.9762762778 0.2139626793
800295200.0 -0.9729605611 0.2280658656
850294900.0 -0.9696674064 0.2416949789
900294600.0 -0.9657523531 0.2557542127
950294300.0 -0.9621591133 0.2693334762
1000294000.0 -0.9582041975 0.2832406095
1050293700.0 -0.9535666109 0.2971378917
1100293400.0 -0.9494233187 0.3116568041
1150293100.0 -0.9455309359 0.3233065731
1200292800.0 -0.9401391355 0.3377070385
1250292500.0 -0.9346897697 0.3511373115
1300292200.0 -0.9291327669 0.3644138985
1350291900.0 -0.9235723247 0.3786256956
1400291600.0 -0.9179483831 0.3915532871
1450291300.0 -0.9124547865 0.4040664524
1500291000.0 -0.9063450317 0.4172924114
1550290700.0 -0.8997560564 0.4306316048
1600290400.0 -0.8933809161 0.4434742444
1650290100.0 -0.8869830594 0.455799155
1700289800.0 -0.8801172089 0.4692083989
1750289500.0 -0.8728853524 0.4815499953
1800289200.0 -0.8656343404 0.4944988364
1850288900.0 -0.8586207931 0.5057446633
1900288600.0 -0.8509996136 0.5186338523
1950288300.0 -0.8428370097 0.5314050929
2000288000.0 -0.8355955127 0.5428052832
2050287700.0 -0.8271819643 0.555235437
2100287400.0 -0.8194753051 0.5666069114
2150287100.0 -0.8108040527 0.5785554803
2200286800.0 -0.8028938303 0.5891173379
2250286500.0 -0.7940450375 0.6014719637
2300286200.0 -0.785269922 0.6126660567
2350285900.0 -0.7769913736 0.6234327728
2400285600.0 -0.7679860664 0.6343414891
2450285300.0 -0.7591503461 0.6450227034
2500285000.0 -0.749149564 0.6565388752
2550284700.0 -0.7399240116 0.6669081114
2600284400.0 -0.7310062918 0.6768735158
2650284100.0 -0.7222463516 0.6872224962
2700283800.0 -0.7117855806 0.6976065891
2750283500.0 -0.7016199642 0.7083182661
2800283200.0 -0.69181561 0.7181284966
2850282900.0 -0.6811529624 0.728202699
2900282600.0 -0.6704758244 0.7376632615
2950282300.0 -0.6602719104 0.747374662
3000282000.0 -0.6495206309 0.756845526
3050281700.0 -0.6383532861 0.7659308775
3100281400.0 -0.6267910646 0.7749049621
3150281100.0 -0.6155699334 0.7840464694
3200280800.0 -0.6041544176 0.7922544671
3250280500.0 -0.592996582 0.8003221206
3300280200.0 -0.5815356479 0.8085316496
3350279900.0 -0.569234924 0.8165175998
3400279600.0 -0.5566321948 0.8244963304
3450279300.0 -0.5457008637 0.8316735035
3500279000.0 -0.5336974817 0.8385261545
3550278700.0 -0.5218142584 0.8456493497
3600278400.0 -0.5098942199 0.8525299406
3650278100.0 -0.4967050228 0.859850373
3700277800.0 -0.484685671 0.8663410949
3750277500.0 -0.4720950112 0.8733911984
3800277200.0 -0.4599572189 0.8798250289
3850276900.0 -0.4478728547 0.8855321449
3900276600.0 -0.4368836193 0.8912458858
3950276300.0 -0.4245121749 0.897085151
4000276000.0 -0.4131864404 0.9032575877
4050275700.0 -0.400522083 0.9090576274
4100275400.0 -0.3892567877 0.9148228823
4150275100.0 -0.3760879236 0.9205905122
4200274800.0 -0.3626585088 0.9262551262
4250274500.0 -0.3500483502 0.9311965888
4300274200.0 -0.3367242455 0.9368232233
4350273900.0 -0.322687646 0.9421012755
4400273600.0 -0.3075931782 0.9472710903
4450273300.0 -0.2926947621 0.9522223001
4500273000.0 -0.2796150661 0.9564380016
4550272700.0 -0.2660827066 0.9606230847
4600272400.0 -0.2510984686 0.9646461023
4650272100.0 -0.2396143656 0.9677920847
4700271800.0 -0.2267648077 0.9711853651
4750271500.0 -0.2149505617 0.9740615951
4800271200.0 -0.2028254445 0.976756099
4850270900.0 -0.1889242781 0.9794541148
4900270600.0 -0.1752583718 0.9819629612
4950270300.0 -0.1606260921 0.9846243814
5000270000.0 -0.1460980422 0.9866926022
5050269700.0 -0.1327233045 0.9883542535
5100269400.0 -0.118549486 0.9903687438
5150269100.0 -0.1045817715 0.9916859918
5200268800.0 -0.0912790408 0.9925432169
5250268500.0 -0.0781016687 0.9941008258
5300268200.0 -0.0647373558 0.9946103019
5350267900.0 -0.0517359749 0.9948027367
5400267600.0 -0.0355928865 0.9964210368
5450267300.0 -0.0221713503 0.9967168452
5500267000.0 -0.006889692 0.9970065937
5550266700.0 0.0080966531 0.9971863774
5600266400.0 0.023916679 0.9971893787
5650266100.0 0.0404189057 0.9968499896
5700265800.0 0.0546704334 0.9960307658
5750265500.0 0.0697924582 0.9951844125
5800265200.0 0.0831171959 0.9939962748
5850264900.0 0.0964744845 0.9931279746
5900264600.0 0.1128778038 0.9910362822
5950264300.0 0.1245341595 0.9897278024
6000264000.0 0.1380196209 0.9879795452
6050263700.0 0.1495323154 0.9863302613
6100263400.0 0.162139653 0.9851827072
6150263100.0 0.17655191 0.9825883516
6200262800.0 0.1861426579 0.9809354839
6250262500.0 0.198921813 0.9786285897
6300262200.0 0.2112269171 0.9760350289
6350261900.0 0.2241014395 0.9733715093
6400261600.0 0.2378815175 0.9701183516
6450261300.0 0.2490944489 0.9678382479
6500261000.0 0.2623209067 0.9639369847
6550260700.0 0.2752827486 0.960214311
6600260400.0 0.2885296432 0.9559685582
6650260100.0 0.303066712 0.9517986353
6700259800.0 0.314899287 0.9473188219
6750259500.0 0.3285061259 0.9423636949
6800259200.0 0.3423835135 0.9371774317
6850258900.0 0.354540298 0.9319312719
6900258600.0 0.3671767959 0.9268535467
6950258300.0 0.3796169385 0.9215106395
7000258000.0 0.3914322998 0.9162754488
7050257700.0 0.4032184063 0.9104773554
7100257400.0 0.4165952762 0.904092457
7150257100.0 0.4271284087 0.8984954063
7200256800.0 0.4404660929 0.8919593458
7250256500.0 0.4532140019 0.885576026
7300256200.0 0.4661491617 0.8789666821
7350255900.0 0.4786515614 0.8715512046
7400255600.0 0.4932851524 0.8642047032
7450255300.0 0.5085962465 0.8547563057
7500255000.0 0.5211245546 0.8474111216
7550254700.0 0.5352156215 0.8380156246
7600254400.0 0.5480248276 0.8300005134
7650254100.0 0.5593842142 0.8219721253
7700253800.0 0.5710845498 0.8140177088
7750253500.0 0.5818882323 0.8064292987
7800253200.0 0.5924856855 0.7984782124
7850252900.0 0.6023291614 0.7911958545
7900252600.0 0.6138793498 0.7826137616
7950252300.0 0.6221982568 0.7761080731
8000252000.0 0.6322031789 0.7686587812
8050251700.0 0.6426890894 0.7605392465
8100251400.0 0.6526691987 0.7525120868
8150251100.0 0.6624302117 0.7441067252
8200250800.0 0.6719987347 0.7358493001
8250250500.0 0.6807869813 0.7282003085
8300250200.0 0.6901546122 0.7196890186
8350249900.0 0.6991028446 0.7108897291
8400249600.0 0.7075210963 0.7028451536
8450249300.0 0.7158969471 0.6940679168
8500249000.0 0.7244311508 0.6852965783
8550248700.0 0.732802206 0.6762054717
8600248400.0 0.7410397477 0.6667364606
8650248100.0 0.7487101614 0.6573558283
8700247800.0 0.7580699988 0.6463272997
8750247500.0 0.7663050744 0.6362744706
8800247200.0 0.7742979494 0.625887646
8850246900.0 0.7831576461 0.6144473764
8900246600.0 0.7913561459 0.6030195425
8950246300.0 0.8005947027 0.5902886592
9000246000.0 0.8091649704 0.5785628797
9050245700.0 0.8177042526 0.5662240479
9100245400.0 0.8259065415 0.5540789918
9150245100.0 0.8346130389 0.5410854114
9200244800.0 0.8444074494 0.5266613868
9250244500.0 0.8532957695 0.5119858082
9300244200.0 0.8612338716 0.4984614785
9350243900.0 0.8691803172 0.4852331373
9400243600.0 0.8758211158 0.4735275141
9450243300.0 0.881249597 0.4628042499
9500243000.0 0.8875569627 0.4512916934
9550242700.0 0.8915782202 0.4437850753
9600242400.0 0.8957236555 0.4361498898
9650242100.0 0.9000448497 0.4292200855
9700241800.0 0.9049236156 0.420635967
9750241500.0 0.9090677249 0.4129098299
9800241200.0 0.9140065567 0.4034637506
9850240900.0 0.9199793733 0.3921203771
9900240600.0 0.9260734395 0.379938417
9950240300.0 0.9329169101 0.3633820042
10000240000.0 0.9380817627 0.3511511629
10050239700.0 0.9439115502 0.3349757893
10100239400.0 0.9493997538 0.3187274471
10150239100.0 0.9538793893 0.3030957127
10200238800.0 0.9582009319 0.2876492284
10250238500.0 0.9615284787 0.2741149531
10300238200.0 0.9647931291 0.2604239006
10350237900.0 0.9675384781 0.2471363779
10400237600.0 0.9701150681 0.2335705755
10450237300.0 0.9728783072 0.2195063924
10500237000.0 0.9749719231 0.2071459829
10550236700.0 0.9773178614 0.1926486499
10600236400.0 0.9791707406 0.1790783769
10650236100.0 0.9816632147 0.1645500511
10700235800.0 0.9836520533 0.1526119897
10750235500.0 0.9858817468 0.1388065663
10800235200.0 0.9879356615 0.1245208899
10850234900.0 0.9900605754 0.1094160515
10900234600.0 0.9919930249 0.0945358089
10950234300.0 0.9938263467 0.0810821879
11000234000.0 0.9955497884 0.0654659943
11050233700.0 0.9974383944 0.0488842673
11100233400.0 0.9989938524 0.0307466098
11150233100.0 1.000218596 0.0141781705
11200232800.0 1.000501111 -0.0016793671
11250232500.0 1.001363987 -0.0189356177
11300232200.0 1.002326514 -0.0370749339
11350231900.0 1.002030652 -0.0547474869
11400231600.0 1.002037095 -0.0703406451
11450231300.0 1.001337323 -0.0856925824
11500231000.0 0.9997732394 -0.1016105479
11550230700.0 0.9983590372 -0.1149652811
11600230400.0 0.9972059935 -0.1283041953
11650230100.0 0.9948282879 -0.1398182776
11700229800.0 0.9925069667 -0.1548410922
11750229500.0 0.9900699615 -0.1689271764
11800229200.0 0.9871268891 -0.1818407957
11850228900.0 0.9838297028 -0.1935344559
11900228600.0 0.979944878 -0.2030267012
11950228300.0 0.9766513595 -0.2133084279
12000228000.0 0.9736300842 -0.222457936
12050227700.0 0.9697915162 -0.2344722873
12100227400.0 0.9664371756 -0.2454073308
12150227100.0 0.9618511457 -0.2627939473
12200226800.0 0.9581896165 -0.2730705386
12250226500.0 0.9535882046 -0.2862303797
12300226200.0 0.9495867082 -0.2987153641
12350225900.0 0.9447213744 -0.3125241338
12400225600.0 0.9402946041 -0.3248536148
12450225300.0 0.935500775 -0.3370616002
12500225000.0 0.9300526525 -0.3520973369
12550224700.0 0.9247860152 -0.3658721637
12600224400.0 0.9199578818 -0.3783134063
12650224100.0 0.9141211294 -0.3928177541
12700223800.0 0.9087567555 -0.4056244375
12750223500.0 0.903189795 -0.4187282086
12800223200.0 0.8977447259 -0.4312398649
12850222900.0 0.8927193226 -0.4435631648
12900222600.0 0.8871321806 -0.455519531
12950222300.0 0.8812136386 -0.4681679337
13000222000.0 0.8748189077 -0.4800223231
13050221700.0 0.8683329156 -0.4924021761
13100221400.0 0.8615911947 -0.5041100627
13150221100.0 0.8548394333 -0.5165972611
13200220800.0 0.8474868241 -0.5283995668
13250220500.0 0.8403827648 -0.5404031215
13300220200.0 0.8328351968 -0.5514170536
13350219900.0 0.8245458433 -0.563426743
13400219600.0 0.8162889571 -0.5752523097
13450219300.0 0.8069966843 -0.5883032196
13500219000.0 0.7968852623 -0.6015854227
13550218700.0 0.7866912722 -0.6139906176
13600218400.0 0.7774110522 -0.6254919055
13650218100.0 0.767553652 -0.6368867284
13700217800.0 0.7568156296 -0.6490410798
13750217500.0 0.7467455106 -0.6597347477
13800217200.0 0.7361921485 -0.6706974582
13850216900.0 0.7245919461 -0.6810567177
13900216600.0 0.7162424762 -0.6903064553
13950216300.0 0.7045471828 -0.7001569252
14000216000.0 0.6949540487 -0.7092674781
14050215700.0 0.6863049161 -0.7176631659
14100215400.0 0.6764341483 -0.7264482783
14150215100.0 0.6673091343 -0.7353492924
14200214800.0 0.6579035308 -0.7441220219
14250214500.0 0.647459159 -0.7535635923
14300214200.0 0.637106524 -0.7629769558
14350213900.0 0.6258883362 -0.7727127019
14400213600.0 0.6138624579 -0.7825154569
14450213300.0 0.6012019848 -0.7927785473
14500213000.0 0.5882191151 -0.8022819177
14550212700.0 0.5755369034 -0.8116972793
14600212400.0 0.5634772156 -0.8205742885
14650212100.0 0.5507877252 -0.8295051236
14700211800.0 0.5371151571 -0.8389684874
14750211500.0 0.5246967262 -0.8471725887
14800211200.0 0.5124220321 -0.8556528765
14850210900.0 0.4996820092 -0.8631705314
14900210600.0 0.4865615931 -0.8711151558
14950210300.0 0.4732768436 -0.8786513742
15000210000.0 0.4606093268 -0.8853065992
15050209700.0 0.4483860253 -0.8914417727
15100209400.0 0.4354565506 -0.8976391881
15150209100.0 0.4234044801 -0.9026016048
15200208800.0 0.4103521857 -0.9077515937
15250208500.0 0.4003809861 -0.913323912
15300208200.0 0.3869870949 -0.916988153
15350207900.0 0.3735889467 -0.9217349291
15400207600.0 0.3585860693 -0.9282855414
15450207300.0 0.3439822693 -0.9332221604
15500207000.0 0.3297637834 -0.9372475712
15550206700.0 0.3153681197 -0.9415840022
15600206400.0 0.2991919244 -0.9465698755
15650206100.0 0.2837163289 -0.9507966345
15700205800.0 0.2702726897 -0.9547723573
15750205500.0 0.2560649155 -0.9578930393
15800205200.0 0.2419052792 -0.9613185039
15850204900.0 0.2279237491 -0.9647230422
15900204600.0 0.2127495353 -0.9684119223
15950204300.0 0.1982972526 -0.9714719132
16000204000.0 0.1841999726 -0.9745484872
16050203700.0 0.1689915391 -0.9775148536
16100203400.0 0.1537420043 -0.9797415266
16150203100.0 0.139656704 -0.9822824936
16200202800.0 0.1253392242 -0.9842426994
16250202500.0 0.1104108562 -0.9859591447
16300202200.0 0.0946076407 -0.9876074134
16350201900.0 0.0802522939 -0.9888914508
16400201600.0 0.0652994373 -0.9902066471
16450201300.0 0.0495485388 -0.9911045564
16500201000.0 0.0325535783 -0.9921497449
16550200700.0 0.0164048507 -0.9926114578
16600200400.0 0.0005310918 -0.9928271674
16650200100.0 -0.0156022725 -0.9924982185
16700199800.0 -0.0321792907 -0.992137714
16750199500.0 -0.0514920047 -0.9918791247
16800199200.0 -0.0669208468 -0.99030823
16850198900.0 -0.0824586828 -0.989221153
16900198600.0 -0.0965357864 -0.988251693
16950198300.0 -0.1097554298 -0.987062971
17000198000.0 -0.1233227267 -0.9856036284
17050197700.0 -0.1356952286 -0.9839639123
17100197400.0 -0.1488919791 -0.9817280253
17150197100.0 -0.1614624341 -0.9802477876
17200196800.0 -0.1739879388 -0.9780163202
17250196500.0 -0.1874278511 -0.9753362821
17300196200.0 -0.1994242893 -0.9730830265
17350195900.0 -0.2114456446 -0.9706338484
17400195600.0 -0.2235428243 -0.9680321641
17450195300.0 -0.2361405083 -0.9653491936
17500195000.0 -0.2494784859 -0.9619730928
17550194700.0 -0.2635229254 -0.9583654254
17600194400.0 -0.2771356523 -0.9547368774
17650194100.0 -0.2908235618 -0.950407612
17700193800.0 -0.3036742874 -0.9465854599
17750193500.0 -0.3179722289 -0.9417348758
17800193200.0 -0.332033375 -0.9365609643
17850192900.0 -0.3468683539 -0.9311832068
17900192600.0 -0.3620902098 -0.9250541522
17950192300.0 -0.3776087791 -0.9180500141
18000192000.0 -0.3922683218 -0.9105645922
18050191700.0 -0.4061102576 -0.9025865368
18100191400.0 -0.4201832684 -0.8949880808
18150191100.0 -0.4350159737 -0.8870941756
18200190800.0 -0.4518304896 -0.8777834497
18250190500.0 -0.4689494712 -0.8681738784
18300190200.0 -0.4841573392 -0.8595338912
18350189900.0 -0.4993295584 -0.8510963681
18400189600.0 -0.5137527505 -0.8426670303
18450189300.0 -0.5274758254 -0.8345117758
18500189000.0 -0.5406423292 -0.8267565974
18550188700.0 -0.5537437689 -0.8188286125
18600188400.0 -0.5660009999 -0.8120525109
18650188100.0 -0.5769295395 -0.8052956805
18700187800.0 -0.5877375947 -0.7985442045
18750187500.0 -0.5989202326 -0.7921798803
18800187200.0 -0.6097107019 -0.7851145069
18850186900.0 -0.6196321101 -0.7782592844
18900186600.0 -0.6302530167 -0.7708375799
18950186300.0 -0.64004082 -0.7630753016
19000186000.0 -0.6478938279 -0.7565898538
19050185700.0 -0.657299321 -0.7496796459
19100185400.0 -0.6671496856 -0.7409594024
19150185100.0 -0.676967732 -0.7331626666
19200184800.0 -0.6866732961 -0.7248873115
19250184500.0 -0.6965906725 -0.7159362554
19300184200.0 -0.707769345 -0.7062352829
19350183900.0 -0.7185088853 -0.6966712942
19400183600.0 -0.7283551384 -0.6869133027
19450183300.0 -0.736966374 -0.6765774042
19500183000.0 -0.7456941313 -0.6666527621
19550182700.0 -0.7550689904 -0.6554984044
19600182400.0 -0.7658869771 -0.6439073028
19650182100.0 -0.7764497676 -0.6315897918
19700181800.0 -0.7867290228 -0.6183390092
19750181500.0 -0.7971998604 -0.6044459789
19800181200.0 -0.8073651192 -0.5893353136
19850180900.0 -0.8168014186 -0.5741236592
19900180600.0 -0.8245313619 -0.5593501415
19950180300.0 -0.8337872655 -0.5434413946
20000180000.0 -0.8238521611 -0.5468888933
20050179700.0 -0.830975572 -0.5347603763
20100179400.0 -0.8397856474 -0.5208654925
20150179100.0 -0.8475366137 -0.5099490409
20200178800.0 -0.8559153963 -0.4976898601
20250178500.0 -0.8655322017 -0.4852175135
20300178200.0 -0.8749684895 -0.4719079599
20350177900.0 -0.8844523638 -0.4573559011
20400177600.0 -0.8934117216 -0.443411742
20450177300.0 -0.9019248926 -0.4290474501
20500177000.0 -0.9100936693 -0.4153442069
20550176700.0 -0.9183283231 -0.40165569
20600176400.0 -0.9248724329 -0.3887511599
20650176100.0 -0.9317744347 -0.3767951911
20700175800.0 -0.9378215024 -0.3645397258
20750175500.0 -0.9443486815 -0.3532348452
20800175200.0 -0.9490714759 -0.3430049161
20850174900.0 -0.9534105041 -0.3315462382
20900174600.0 -0.9579809551 -0.3205801357
20950174300.0 -0.9613631998 -0.3101971359
21000174000.0 -0.9638241361 -0.2988112272
21050173700.0 -0.9659838752 -0.2888697909
21100173400.0 -0.9688863239 -0.2787541485
21150173100.0 -0.9729378496 -0.2667958987
21200172800.0 -0.9767299337 -0.2530809293
21250172500.0 -0.9804965714 -0.2395310526
21300172200.0 -0.9839817412 -0.22546469
21350171900.0 -0.9861586167 -0.2114890133
21400171600.0 -0.9879956554 -0.1969976171
21450171300.0 -0.989387506 -0.1830173881
21500171000.0 -0.9890080778 -0.1676392461
21550170700.0 -0.9891381687 -0.15297045
21600170400.0 -0.9909540119 -0.1369885476
21650170100.0 -0.9905854323 -0.1215340655
21700169800.0 -0.9908931809 -0.1066028616
21750169500.0 -0.9902165988 -0.0901892619
21800169200.0 -0.9907285517 -0.0735264231
21850168900.0 -0.9899705555 -0.0571358619
21900168600.0 -0.9895262741 -0.0409826465
21950168300.0 -0.989209743 -0.0253864686
22000168000.0 -0.9891422555 -0.0101702473
22050167700.0 -0.9894823161 0.0045723042
22100167400.0 -0.9905050097 0.0200365123
22150167100.0 -0.9912978815 0.0362735416
22200166800.0 -0.9924387094 0.0530595604
22250166500.0 -0.9909875249 0.0699391487
22300166200.0 -0.990836435 0.0860159267
22350165900.0 -0.9895964924 0.1023317472
22400165600.0 -0.9876166831 0.1186613276
22450165300.0 -0.9858893416 0.132624352
22500165000.0 -0.9846948653 0.1486148075
22550164700.0 -0.9823868807 0.1633949894
22600164400.0 -0.9804200084 0.1797040341
22650164100.0 -0.9774292896 0.1962570296
22700163800.0 -0.9745997103 0.2124950848
22750163500.0 -0.9719916049 0.2271295594
22800163200.0 -0.9692225069 0.2399270605
22850162900.0 -0.9660874025 0.2533655649
22900162600.0 -0.9645432101 0.2673141165
22950162300.0 -0.9628694234 0.2806414814
23000162000.0 -0.9612203125 0.2933411192
23050161700.0 -0.9584320135 0.3065016276
23100161400.0 -0.955477784 0.3203678226
23150161100.0 -0.9525465519 0.3329704536
23200160800.0 -0.9495353985 0.3461450187
23250160500.0 -0.9464453071 0.3586912977
23300160200.0 -0.9441975424 0.3710694161
23350159900.0 -0.9401100077 0.3849379894
23400159600.0 -0.9347406718 0.3983043682
23450159300.0 -0.9305159491 0.4123238189
23500159000.0 -0.9251426593 0.4262299067
23550158700.0 -0.920435904 0.439955637
23600158400.0 -0.9141096691 0.4541628391
23650158100.0 -0.9068977509 0.4685664904
23700157800.0 -0.8983902368 0.4829702917
23750157500.0 -0.8889613699 0.4972816384
23800157200.0 -0.8794632808 0.5103506054
23850156900.0 -0.8694755632 0.5235207383
23900156600.0 -0.8594206793 0.5358155307
23950156300.0 -0.8500939394 0.548452783
24000156000.0 -0.8396757952 0.5612352731
24050155700.0 -0.8303483181 0.5734634817
24100155400.0 -0.8199484048 0.5858119691
24150155100.0 -0.8085054723 0.5979568319
24200154800.0 -0.7976639846 0.6098707973
24250154500.0 -0.7864012557 0.6217370695
24300154200.0 -0.7749981795 0.6340100834
24350153900.0 -0.7626486729 0.6450649906
24400153600.0 -0.7502244722 0.6554544697
24450153300.0 -0.7383814799 0.6657363202
24500153000.0 -0.7264593108 0.6755546507
24550152700.0 -0.7157470934 0.6858817782
24600152400.0 -0.703503634 0.6947534801
