!Created with skrf (http://scikit-rf.org).
# Hz S RI R 50.0 
!freq ReS11 ImS11
300000.0 -0.9754070147 -0.1176376884
50299700.0 -1.000090739 0.0154881354
100299400.0 -0.998091499 0.0283914275
150299100.0 -1.002931913 0.0450820624
200298800.0 -0.9997228173 0.0586057095
250298500.0 -0.9974624753 0.0720032325
300298200.0 -0.985985239 0.0878040452
350297900.0 -0.9940761234 0.0986697947
400297600.0 -0.9931232506 0.115389226
450297300.0 -0.9910497948 0.1292671631
500297000.0 -0.9894041463 0.1438522252
550296700.0 -0.9843783257 0.1562226422
600296400.0 -1.017256569 0.1895662435
650296100.0 -0.9821998913 0.1861830898
700295800.0 -0.9793434306 0.2005261349
750295500.0 -0.9763784141 0.2146560551
800295200.0 -0.9729676794 0.2285795007
850294900.0 -0.9697528743 0.2423182437
900294600.0 -0.9659655144 0.256283366
950294300.0 -0.9622651139 0.269931734
1000294000.0 -0.9580824312 0.2837139553
1050293700.0 -0.9535345491 0.2975939184
1100293400.0 -0.9493964213 0.3119059807
1150293100.0 -0.945464995 0.3238843488
1200292800.0 -0.9400480177 0.3382678272
1250292500.0 -0.9346654689 0.3517840357
1300292200.0 -0.9289663469 0.364922876
1350291900.0 -0.9235304986 0.3790062845
1400291600.0 -0.9180458446 0.3918743616
1450291300.0 -0.9123858927 0.4043111049
1500291000.0 -0.9061342695 0.4176494089
1550290700.0 -0.8997014733 0.4311589221
1600290400.0 -0.8934606226 0.4442496428
1650290100.0 -0.8867884801 0.4563172229
1700289800.0 -0.879992864 0.4695925042
1750289500.0 -0.8729332794 0.4820465423
1800289200.0 -0.8654703698 0.4948367807
1850288900.0 -0.8586627657 0.5062688381
1900288600.0 -0.851216907 0.5192813479
1950288300.0 -0.8427357018 0.5318548007
2000288000.0 -0.835399229 0.5431893295
2050287700.0 -0.8271996116 0.5553600926
2100287400.0 -0.819323623 0.5670747992
2150287100.0 -0.8106223308 0.579420289
2200286800.0 -0.8029878314 0.5895040232
2250286500.0 -0.7940294395 0.6015852738
2300286200.0 -0.7852775418 0.6131497168
2350285900.0 -0.7766352827 0.6241038354
2400285600.0 -0.7675160692 0.6353332348
2450285300.0 -0.7589777986 0.6455432847
2500285000.0 -0.749210721 0.6570272557
2550284700.0 -0.7403543238 0.6671904824
2600284400.0 -0.7311501209 0.6773185122
2650284100.0 -0.7218321291 0.687825822
2700283800.0 -0.7113985663 0.6982669495
2750283500.0 -0.7010516799 0.7089631437
2800283200.0 -0.6912570055 0.7185877537
2850282900.0 -0.6812523456 0.7285466021
2900282600.0 -0.6707213841 0.7380711721
2950282300.0 -0.660481545 0.7473951538
3000282000.0 -0.6497136902 0.7567567484
3050281700.0 -0.6386144159 0.7662675742
3100281400.0 -0.6267603779 0.7754978067
3150281100.0 -0.6147961311 0.7846750017
3200280800.0 -0.6032360702 0.7934575579
3250280500.0 -0.5924900814 0.8011173007
3300280200.0 -0.5811761051 0.8089075565
3350279900.0 -0.5694050706 0.816421157
3400279600.0 -0.5573917891 0.8242743954
3450279300.0 -0.5463356876 0.8312109844
3500279000.0 -0.5342235178 0.8385736637
3550278700.0 -0.5217888709 0.8457276458
3600278400.0 -0.509784866 0.8528519669
3650278100.0 -0.4963329261 0.8603057102
3700277800.0 -0.4844527919 0.8666729208
3750277500.0 -0.4721981492 0.8733918085
3800277200.0 -0.4597335821 0.8800344336
3850276900.0 -0.4475853874 0.8859627973
3900276600.0 -0.4370185682 0.8916679709
3950276300.0 -0.424230474 0.8977608364
4000276000.0 -0.4125767241 0.9034710351
4050275700.0 -0.3995826337 0.9097818846
4100275400.0 -0.38848583 0.9149177495
4150275100.0 -0.3758506113 0.9206314178
4200274800.0 -0.3626429527 0.9262496287
4250274500.0 -0.3502833702 0.9313944109
4300274200.0 -0.3375717051 0.9366406359
4350273900.0 -0.3235330388 0.9420556516
4400273600.0 -0.3086904843 0.9473155096
4450273300.0 -0.2934302496 0.9525104642
4500273000.0 -0.279562766 0.9566885387
4550272700.0 -0.2656295118 0.9610518584
4600272400.0 -0.250367515 0.9651212391
4650272100.0 -0.2385062269 0.9682885696
4700271800.0 -0.2253058039 0.9715785976
4750271500.0 -0.2134328374 0.9745599704
4800271200.0 -0.2011635747 0.9772792525
4850270900.0 -0.1871351022 0.9800596852
4900270600.0 -0.1731641963 0.9824750338
4950270300.0 -0.1588721739 0.9850676032
5000270000.0 -0.1448045872 0.9870518918
5050269700.0 -0.1313335113 0.9886862321
5100269400.0 -0.1175878962 0.9906135938
5150269100.0 -0.1042932896 0.9920359454
5200268800.0 -0.090881013 0.9932434744
5250268500.0 -0.0778137328 0.9938484787
5300268200.0 -0.0644223166 0.9945305262
5350267900.0 -0.0525283827 0.9950801127
5400267600.0 -0.0360142141 0.9965556584
5450267300.0 -0.0231357544 0.9966922334
5500267000.0 -0.0078465291 0.9971933597
5550266700.0 0.0070716201 0.9973435844
5600266400.0 0.0226787375 0.9972981258
5650266100.0 0.0391972814 0.9970142469
5700265800.0 0.0533353638 0.9960595198
5750265500.0 0.0688832868 0.9955560374
5800265200.0 0.0829627539 0.9944837243
5850264900.0 0.095986689 0.9935611289
5900264600.0 0.1124891893 0.9916178858
5950264300.0 0.1244096241 0.990080981
6000264000.0 0.1383832183 0.9883085133
6050263700.0 0.1511135296 0.987311594
6100263400.0 0.1633630311 0.9849275616
6150263100.0 0.1776600811 0.9825187023
6200262800.0 0.1883023669 0.9809819922
6250262500.0 0.2008399257 0.9785298316
6300262200.0 0.2137227466 0.9755912363
6350261900.0 0.2266744782 0.9728988433
6400261600.0 0.2407754012 0.9695532548
6450261300.0 0.251768284 0.9668220316
6500261000.0 0.2646390354 0.9633026991
6550260700.0 0.2777280292 0.959613226
6600260400.0 0.2911995051 0.955412847
6650260100.0 0.3052205831 0.9511607777
6700259800.0 0.3172626378 0.9469185532
6750259500.0 0.330589452 0.9415587875
6800259200.0 0.3440914237 0.9367990167
6850258900.0 0.3561342996 0.9315964133
6900258600.0 0.3682775042 0.9266719679
6950258300.0 0.3806854566 0.9211563303
7000258000.0 0.3927143133 0.9156751268
7050257700.0 0.405062132 0.9098843019
7100257400.0 0.4176434083 0.9036931548
7150257100.0 0.4282055694 0.8982001576
7200256800.0 0.4408548985 0.8918033719
7250256500.0 0.4529282764 0.8853873548
7300256200.0 0.4662976369 0.87891435
7350255900.0 0.478231393 0.8719086537
7400255600.0 0.4913742566 0.864527654
7450255300.0 0.5072740219 0.8559894123
7500255000.0 0.5191834843 0.8486706699
7550254700.0 0.5326344231 0.8398779519
7600254400.0 0.5455086222 0.8318595294
7650254100.0 0.5567269985 0.8240495564
7700253800.0 0.5686738613 0.8160726306
7750253500.0 0.5797253289 0.808151911
7800253200.0 0.5905967231 0.8005520766
7850252900.0 0.6002742942 0.7934111155
7900252600.0 0.6119182855 0.784631997
7950252300.0 0.6206598492 0.7780918455
8000252000.0 0.6308811243 0.7705221727
8050251700.0 0.6413989032 0.7621811137
8100251400.0 0.6512055022 0.7539387145
8150251100.0 0.6616756873 0.7454637788
8200250800.0 0.6706579884 0.7375304464
8250250500.0 0.6797709297 0.7295653121
8300250200.0 0.6892333644 0.7209212584
8350249900.0 0.6982184688 0.7123522721
8400249600.0 0.7063049854 0.7043229387
8450249300.0 0.7156265308 0.6950924023
8500249000.0 0.7239998768 0.6863227476
8550248700.0 0.732527538 0.6771066358
8600248400.0 0.7408264983 0.6676914883
8650248100.0 0.7486121794 0.6581426584
8700247800.0 0.7579953753 0.6471895781
8750247500.0 0.7662838364 0.6369680903
8800247200.0 0.774407143 0.626457059
8850246900.0 0.7834909161 0.6148437612
8900246600.0 0.7917714714 0.6036756367
8950246300.0 0.8014678215 0.5907190751
9000246000.0 0.8108417593 0.5779850944
9050245700.0 0.8194421226 0.565365943
9100245400.0 0.8280333216 0.5526273364
9150245100.0 0.8376552594 0.5390577055
9200244800.0 0.8474702357 0.5239721642
9250244500.0 0.8567023933 0.5084615162
9300244200.0 0.8651627651 0.4940056026
9350243900.0 0.8727004847 0.4801113902
9400243600.0 0.8796009243 0.4679318239
9450243300.0 0.8853993273 0.4562720612
9500243000.0 0.8915330139 0.4442587586
9550242700.0 0.8953933022 0.4364831136
9600242400.0 0.8992043072 0.4291450874
9650242100.0 0.9028229211 0.4227458333
9700241800.0 0.907628622 0.4144184595
9750241500.0 0.9118188137 0.4067840949
9800241200.0 0.9162382845 0.3977094097
9850240900.0 0.9220350817 0.3859761709
9900240600.0 0.9277536326 0.37425638
9950240300.0 0.934340378 0.3581401814
10000240000.0 0.9390392022 0.3465500028
10050239700.0 0.9444845121 0.3316656721
10100239400.0 0.9497733906 0.3155676409
10150239100.0 0.9541851682 0.3009481529
10200238800.0 0.9583621731 0.286204356
10250238500.0 0.9615555328 0.2726697858
10300238200.0 0.9646751041 0.2585007454
10350237900.0 0.9673062703 0.2456341413
10400237600.0 0.9698771816 0.2322863941
10450237300.0 0.9725556571 0.218676155
10500237000.0 0.9745266898 0.2065890958
10550236700.0 0.9772159496 0.1918843077
10600236400.0 0.9789500907 0.1788452501
10650236100.0 0.9808580286 0.1643283592
10700235800.0 0.9835148552 0.1515756388
10750235500.0 0.9855063833 0.1385209504
10800235200.0 0.9874802044 0.1246606404
10850234900.0 0.9893191384 0.1098200409
10900234600.0 0.991961706 0.0949205377
10950234300.0 0.9936475826 0.0818130814
11000234000.0 0.9952432579 0.0666851132
11050233700.0 0.9970372336 0.0502815582
11100233400.0 0.9987728305 0.0329581455
11150233100.0 0.9993581892 0.0166326302
11200232800.0 1.00022502 0.0012772403
11250232500.0 1.001328628 -0.0147431107
11300232200.0 1.001944911 -0.0332090096
11350231900.0 1.001925018 -0.048309803
11400231600.0 1.00139689 -0.0642801039
11450231300.0 1.000752422 -0.078808831
11500231000.0 0.999611002 -0.0957573354
11550230700.0 0.9982326503 -0.1087167555
11600230400.0 0.9973195743 -0.1223916437
11650230100.0 0.9950114391 -0.1337233199
11700229800.0 0.9930555366 -0.1478383979
11750229500.0 0.9908710682 -0.1627217379
11800229200.0 0.9882105177 -0.176187155
11850228900.0 0.9845646781 -0.1885607104
11900228600.0 0.9810062263 -0.1982670625
11950228300.0 0.9777252872 -0.2085476598
12000228000.0 0.975180244 -0.2171948725
12050227700.0 0.9708133025 -0.2313053623
12100227400.0 0.9680409005 -0.2421170629
12150227100.0 0.9634695844 -0.2582344483
12200226800.0 0.9591267554 -0.2704941456
12250226500.0 0.9560634089 -0.2815752983
12300226200.0 0.9514539816 -0.2942956472
12350225900.0 0.9463507176 -0.3083283853
12400225600.0 0.9421584545 -0.3211402162
12450225300.0 0.9378419554 -0.3339294977
12500225000.0 0.9322784848 -0.348368885
12550224700.0 0.9271062847 -0.3626019093
12600224400.0 0.9220604691 -0.3754857353
12650224100.0 0.9161007619 -0.3896862884
12700223800.0 0.9110442289 -0.4023854087
12750223500.0 0.9054831029 -0.4153144118
12800223200.0 0.9001141905 -0.4281178892
12850222900.0 0.895096809 -0.4401123728
12900222600.0 0.8886401536 -0.4527233195
12950222300.0 0.8827851992 -0.4650823302
13000222000.0 0.8765705919 -0.4766447448
13050221700.0 0.8701208316 -0.4891446481
13100221400.0 0.8634217589 -0.5011825499
13150221100.0 0.8566096231 -0.5134297756
13200220800.0 0.8496946167 -0.5249616477
13250220500.0 0.8423883473 -0.537201869
13300220200.0 0.8350405987 -0.5481132216
13350219900.0 0.8270048434 -0.5598522666
13400219600.0 0.8187086227 -0.5719682856
13450219300.0 0.809333422 -0.5853281053
13500219000.0 0.7990956756 -0.5993963971
13550218700.0 0.7888220384 -0.611836306
13600218400.0 0.7781600036 -0.6246237989
13650218100.0 0.7696972293 -0.6348786855
13700217800.0 0.7575817111 -0.6475487371
13750217500.0 0.7483875627 -0.6583606
13800217200.0 0.7363702175 -0.670904106
13850216900.0 0.7268337636 -0.6815650755
13900216600.0 0.715729773 -0.6912610317
13950216300.0 0.7053491537 -0.7013987639
14000216000.0 0.6957368915 -0.7104745893
14050215700.0 0.6859385747 -0.7189052401
14100215400.0 0.6759711718 -0.7277237519
14150215100.0 0.6667832108 -0.7366266345
14200214800.0 0.6574412935 -0.7450394299
14250214500.0 0.6470424319 -0.7544534514
14300214200.0 0.6367558686 -0.7637743813
14350213900.0 0.6256552986 -0.7730624643
14400213600.0 0.6136528887 -0.7829168214
14450213300.0 0.6007191861 -0.793161502
14500213000.0 0.5880853349 -0.8033776912
14550212700.0 0.5751614829 -0.8127885904
14600212400.0 0.5629569682 -0.8216545743
14650212100.0 0.5494742261 -0.8304874736
14700211800.0 0.5363696308 -0.8396547624
14750211500.0 0.5236877014 -0.848061686
14800211200.0 0.5115769103 -0.8556078185
14850210900.0 0.4993266711 -0.8635640531
14900210600.0 0.4859705234 -0.8714712748
14950210300.0 0.4728089767 -0.8789142705
15000210000.0 0.4600437185 -0.8857850927
15050209700.0 0.4479308615 -0.8922724477
15100209400.0 0.4351724833 -0.8980577624
15150209100.0 0.4228940605 -0.9035725964
15200208800.0 0.409219271 -0.9086711147
15250208500.0 0.3989333436 -0.9128046932
15300208200.0 0.3862852222 -0.9177423567
15350207900.0 0.3730811585 -0.9228337793
15400207600.0 0.3581809523 -0.9281590717
15450207300.0 0.3444953535 -0.9328505149
15500207000.0 0.3291494479 -0.9378866511
15550206700.0 0.3140134465 -0.9425174022
15600206400.0 0.2981553535 -0.9474163067
15650206100.0 0.2826017055 -0.9515335838
15700205800.0 0.268889738 -0.9549820722
15750205500.0 0.2541976346 -0.9588049396
15800205200.0 0.2398056295 -0.962216319
15850204900.0 0.2255491316 -0.9656945373
15900204600.0 0.2104193432 -0.9691644451
15950204300.0 0.196561512 -0.9721176994
16000204000.0 0.1824829848 -0.9749938747
16050203700.0 0.1671351876 -0.9777255319
16100203400.0 0.1528324653 -0.979956875
16150203100.0 0.138429245 -0.982618301
16200202800.0 0.1238628943 -0.9848716865
16250202500.0 0.1096299364 -0.9861503884
16300202200.0 0.094245779 -0.9876149758
16350201900.0 0.0790536821 -0.9891269778
16400201600.0 0.0644631763 -0.9903172057
16450201300.0 0.0490991337 -0.9913445238
16500201000.0 0.0322829851 -0.9920192579
16550200700.0 0.0167180565 -0.9924971912
16600200400.0 0.0009652978 -0.9927953277
16650200100.0 -0.0150819887 -0.992453168
16700199800.0 -0.0316290969 -0.9926346256
16750199500.0 -0.0503869446 -0.9915804123
16800199200.0 -0.0657768172 -0.9908409592
16850198900.0 -0.0806148477 -0.9898183513
16900198600.0 -0.0948002968 -0.98890709
16950198300.0 -0.1081028761 -0.9879568039
17000198000.0 -0.1213402489 -0.9865658353
17050197700.0 -0.134735907 -0.9842155972
17100197400.0 -0.1467101884 -0.9822704835
17150197100.0 -0.1593144161 -0.9802591905
17200196800.0 -0.1721901438 -0.9782287976
17250196500.0 -0.1850916555 -0.9758473642
17300196200.0 -0.1974119606 -0.9733125727
17350195900.0 -0.2093008125 -0.9711763632
17400195600.0 -0.2214514436 -0.9688195064
17450195300.0 -0.2343914758 -0.9659554948
17500195000.0 -0.2478281578 -0.9627112228
17550194700.0 -0.261656429 -0.9589771504
17600194400.0 -0.2756951155 -0.9550370255
17650194100.0 -0.2897143157 -0.9509864892
17700193800.0 -0.3024051723 -0.9464203197
17750193500.0 -0.3164697937 -0.9419476327
17800193200.0 -0.3312713579 -0.9369957012
17850192900.0 -0.3463460682 -0.9312702382
17900192600.0 -0.3614009456 -0.9255636687
17950192300.0 -0.3770198315 -0.9182096068
18000192000.0 -0.3916057246 -0.911028253
18050191700.0 -0.405726851 -0.9032120312
18100191400.0 -0.4199789443 -0.8954096738
18150191100.0 -0.4349931119 -0.8874579201
18200190800.0 -0.4519036102 -0.8781632194
18250190500.0 -0.4686683675 -0.8688210675
18300190200.0 -0.4842215245 -0.8599268914
18350189900.0 -0.4994799048 -0.8517630813
18400189600.0 -0.5138635774 -0.843695126
18450189300.0 -0.5270399291 -0.8356145523
18500189000.0 -0.540267261 -0.8278336906
18550188700.0 -0.5533265219 -0.8196546673
18600188400.0 -0.5649116568 -0.8131368663
18650188100.0 -0.5755844601 -0.806368335
18700187800.0 -0.5867645877 -0.8003109267
18750187500.0 -0.5975306641 -0.7936282905
18800187200.0 -0.6078955597 -0.786571795
18850186900.0 -0.6180375016 -0.7796646332
18900186600.0 -0.6281404558 -0.7722921232
18950186300.0 -0.638115219 -0.7647118798
19000186000.0 -0.6451643041 -0.7585774996
19050185700.0 -0.6550029223 -0.7512479429
19100185400.0 -0.6646005867 -0.7434246611
19150185100.0 -0.674839104 -0.7348893019
19200184800.0 -0.6844590448 -0.7268208087
19250184500.0 -0.694558768 -0.7166293248
19300184200.0 -0.7058878327 -0.7073950834
19350183900.0 -0.7166374517 -0.6978900048
19400183600.0 -0.7263620402 -0.6885873961
19450183300.0 -0.7349330171 -0.6778836608
19500183000.0 -0.7435534287 -0.6675861528
19550182700.0 -0.7534851163 -0.6570024736
19600182400.0 -0.7633258542 -0.645291652
19650182100.0 -0.7745665075 -0.6331281496
19700181800.0 -0.7848875954 -0.6198355327
19750181500.0 -0.7955815417 -0.6055219676
19800181200.0 -0.8058319762 -0.5908195471
19850180900.0 -0.8155221358 -0.5753131036
19900180600.0 -0.8233778488 -0.5608461114
19950180300.0 -0.832601997 -0.544507379
20000180000.0 -0.8261068964 -0.5467629963
20050179700.0 -0.833459149 -0.533159009
20100179400.0 -0.842847761 -0.5196029294
20150179100.0 -0.8510390308 -0.5074217752
20200178800.0 -0.8597540733 -0.4948972769
20250178500.0 -0.8690887166 -0.4813110207
20300178200.0 -0.8782040009 -0.4663724579
20350177900.0 -0.887233545 -0.4521714672
20400177600.0 -0.8965674835 -0.4378565963
20450177300.0 -0.904959049 -0.4236140912
20500177000.0 -0.9127933216 -0.4096315955
20550176700.0 -0.9206477761 -0.3960926662
20600176400.0 -0.9277556883 -0.3829380383
20650176100.0 -0.9345061361 -0.3708045752
20700175800.0 -0.9408417405 -0.3583084503
20750175500.0 -0.9476348201 -0.3473852535
20800175200.0 -0.9518173287 -0.336578667
20850174900.0 -0.9571291669 -0.3250342426
20900174600.0 -0.9620711413 -0.3136075116
20950174300.0 -0.9659285001 -0.3025783469
21000174000.0 -0.9688447508 -0.2910727455
21050173700.0 -0.9717548931 -0.2801053408
21100173400.0 -0.9758137408 -0.2683956899
21150173100.0 -0.979560405 -0.2556755558
21200172800.0 -0.9830271441 -0.2423327786
21250172500.0 -0.9864007836 -0.2288039778
21300172200.0 -0.9889719438 -0.2148209781
21350171900.0 -0.9903581058 -0.1997707552
21400171600.0 -0.992766313 -0.1861694737
21450171300.0 -0.9922040341 -0.171394025
21500171000.0 -0.9924525838 -0.1563096688
21550170700.0 -0.9918390882 -0.1410649458
21600170400.0 -0.9921803816 -0.1246881319
21650170100.0 -0.9909820711 -0.1091661327
21700169800.0 -0.990253716 -0.0943926753
21750169500.0 -0.989000935 -0.0782373564
21800169200.0 -0.9883889104 -0.0622840885
21850168900.0 -0.9876555608 -0.0454523333
21900168600.0 -0.9857162325 -0.0287196064
21950168300.0 -0.9846897388 -0.0129654422
22000168000.0 -0.9837176711 0.0021378428
22050167700.0 -0.9838246395 0.0161927807
22100167400.0 -0.9839961979 0.0313723343
22150167100.0 -0.984855277 0.0472417372
22200166800.0 -0.9851653115 0.0633483342
22250166500.0 -0.9846682486 0.0802282352
22300166200.0 -0.9838011599 0.0975254386
22350165900.0 -0.9821593058 0.1136306745
22400165600.0 -0.9802272041 0.1291887253
22450165300.0 -0.9784853133 0.1450970176
22500165000.0 -0.9766546728 0.1575410973
22550164700.0 -0.9759579697 0.1727457908
22600164400.0 -0.9735083958 0.1886589611
22650164100.0 -0.9721005499 0.2034402119
22700163800.0 -0.9692737175 0.2195746147
22750163500.0 -0.9670066218 0.2345292514
22800163200.0 -0.9644526029 0.2482044718
22850162900.0 -0.9617454654 0.2616694686
22900162600.0 -0.9602525279 0.2747709751
22950162300.0 -0.9590653821 0.287632339
23000162000.0 -0.9577094577 0.2995750324
23050161700.0 -0.9553721345 0.3120294859
23100161400.0 -0.9532752279 0.3254727431
23150161100.0 -0.9503828413 0.3372360859
23200160800.0 -0.947694894 0.3500261055
23250160500.0 -0.9448949507 0.3617083625
23300160200.0 -0.94201918 0.3741788338
23350159900.0 -0.9385621594 0.3865948775
23400159600.0 -0.9337858594 0.4002834298
23450159300.0 -0.9296145272 0.4131779821
23500159000.0 -0.9248501788 0.4265828934
23550158700.0 -0.9203062595 0.4401341579
23600158400.0 -0.9146148184 0.4527925759
23650158100.0 -0.9082216114 0.4672601596
23700157800.0 -0.9004501964 0.481039431
23750157500.0 -0.8919309862 0.4952816439
23800157200.0 -0.8832398376 0.5083807197
23850156900.0 -0.8742036846 0.5210908077
23900156600.0 -0.8656543743 0.5338105473
23950156300.0 -0.8558580718 0.5461872505
24000156000.0 -0.8465834538 0.5578852373
24050155700.0 -0.8375922536 0.5697582032
24100155400.0 -0.8265841047 0.5815690499
24150155100.0 -0.8158896125 0.5941649394
24200154800.0 -0.8050379469 0.6051616052
24250154500.0 -0.7933205037 0.6167543564
24300154200.0 -0.782061291 0.628435098
24350153900.0 -0.7703318329 0.6392766241
24400153600.0 -0.758393547 0.6492157444
24450153300.0 -0.7463864423 0.6592458679
24500153000.0 -0.7350847998 0.6686688969
24550152700.0 -0.7240904917 0.6785439628
24600152400.0 -0.712215337 0.6881718995
24650152100.0 -0.7009168172 0.6959393265
