!Created with skrf (http://scikit-rf.org).
# Hz S RI R 50.0 
!freq ReS11 ImS11
300000.0 -0.9873817943 -0.0788723067
50299700.0 -0.9997930561 0.0165336992
100299400.0 -0.9977166225 0.0293447585
150299100.0 -1.002516171 0.0462095028
200298800.0 -0.9994474369 0.0593466186
250298500.0 -0.9972036399 0.0730206106
300298200.0 -0.9857417063 0.0888109319
350297900.0 -0.9935923463 0.0996446483
400297600.0 -0.9927275582 0.116149134
450297300.0 -0.9905814998 0.1300115404
500297000.0 -0.9890459395 0.1447060651
550296700.0 -0.9837506231 0.1572008177
600296400.0 -1.016664585 0.1904755347
650296100.0 -0.9815020573 0.1872328197
700295800.0 -0.9787457662 0.2016766754
750295500.0 -0.9755531041 0.2153873078
800295200.0 -0.9725321788 0.2295256315
850294900.0 -0.9688479046 0.2431816016
900294600.0 -0.9650076807 0.2571297868
950294300.0 -0.9612642941 0.2707621373
1000294000.0 -0.9574135194 0.2847269461
1050293700.0 -0.9527713129 0.2984664713
1100293400.0 -0.9484821055 0.3126835078
1150293100.0 -0.9448394325 0.3246809272
1200292800.0 -0.9394224447 0.3389561889
1250292500.0 -0.9339137894 0.3525004599
1300292200.0 -0.9283141639 0.3656596054
1350291900.0 -0.922694955 0.3796115632
1400291600.0 -0.9172684498 0.3926646304
1450291300.0 -0.9119749537 0.4051951768
1500291000.0 -0.905634024 0.4182840959
1550290700.0 -0.8990576549 0.4316649226
1600290400.0 -0.8928650275 0.4444395099
1650290100.0 -0.8862770274 0.4566019073
1700289800.0 -0.8794601617 0.4700316643
1750289500.0 -0.8721639161 0.4823864873
1800289200.0 -0.8650044481 0.4952861136
1850288900.0 -0.8583953921 0.5065723709
1900288600.0 -0.8505291392 0.5195147688
1950288300.0 -0.8424681679 0.5320513735
2000288000.0 -0.8351052068 0.543385091
2050287700.0 -0.8268263486 0.5558246508
2100287400.0 -0.8185883664 0.5674190991
2150287100.0 -0.8099473041 0.5795546148
2200286800.0 -0.8024146811 0.5898810622
2250286500.0 -0.793510113 0.6020904909
2300286200.0 -0.7845479389 0.6135364926
2350285900.0 -0.7757492231 0.6246995274
2400285600.0 -0.7665659335 0.6357984934
2450285300.0 -0.7577753361 0.6460428609
2500285000.0 -0.7481364431 0.6573049385
2550284700.0 -0.7392866928 0.6676303269
2600284400.0 -0.7294921096 0.6777544125
2650284100.0 -0.7208691517 0.6884377591
2700283800.0 -0.7102844987 0.6986816727
2750283500.0 -0.6997237191 0.70930489
2800283200.0 -0.6900174902 0.719163135
2850282900.0 -0.6798728386 0.7289036233
2900282600.0 -0.6695591406 0.7382287932
2950282300.0 -0.6593043025 0.7475833065
3000282000.0 -0.6487477402 0.7570141345
3050281700.0 -0.6376471816 0.7661381812
3100281400.0 -0.6260877131 0.7755062454
3150281100.0 -0.6144146938 0.7847631559
3200280800.0 -0.6027920541 0.7933839714
3250280500.0 -0.5919417172 0.8010226878
3300280200.0 -0.5806141942 0.8090512504
3350279900.0 -0.5691490782 0.8164441296
3400279600.0 -0.5573551307 0.8241589272
3450279300.0 -0.5460142711 0.8314106024
3500279000.0 -0.5340824495 0.8386762021
3550278700.0 -0.5220305439 0.8459012902
3600278400.0 -0.5097435777 0.852989196
3650278100.0 -0.496488529 0.8607122986
3700277800.0 -0.4844850277 0.8671548982
3750277500.0 -0.4723160468 0.8737442895
3800277200.0 -0.4595282561 0.880195949
3850276900.0 -0.4474748432 0.8861420979
3900276600.0 -0.4364530191 0.8919704815
3950276300.0 -0.4235234972 0.8979993557
4000276000.0 -0.4115706761 0.9040279156
4050275700.0 -0.3984633461 0.9100067199
4100275400.0 -0.387047653 0.9153981523
4150275100.0 -0.37438626 0.9211591767
4200274800.0 -0.3609992659 0.9266522935
4250274500.0 -0.3487542823 0.9315066349
4300274200.0 -0.3357086794 0.9368914881
4350273900.0 -0.3219959187 0.9419293587
4400273600.0 -0.307451598 0.9471291842
4450273300.0 -0.2922720672 0.9521806077
4500273000.0 -0.2787657727 0.9567010681
4550272700.0 -0.264696938 0.9607598907
4600272400.0 -0.2491623537 0.9647775502
4650272100.0 -0.2373414599 0.9680064054
4700271800.0 -0.2239699808 0.9714746286
4750271500.0 -0.2121414293 0.9743620381
4800271200.0 -0.199407835 0.9771358913
4850270900.0 -0.1855297718 0.9798762075
4900270600.0 -0.1719767203 0.9820589982
4950270300.0 -0.1580855155 0.9845984102
5000270000.0 -0.1438717117 0.9868949855
5050269700.0 -0.1302790063 0.9885732755
5100269400.0 -0.1168546104 0.990111404
5150269100.0 -0.1034393871 0.9917508412
5200268800.0 -0.0902989414 0.9931458382
5250268500.0 -0.0771186897 0.994052359
5300268200.0 -0.0639101596 0.994533753
5350267900.0 -0.0517227425 0.9953556278
5400267600.0 -0.0356526165 0.9963691383
5450267300.0 -0.0228381337 0.9965884689
5500267000.0 -0.0077975824 0.9967897003
5550266700.0 0.0067476803 0.9968531619
5600266400.0 0.0221930472 0.9969394607
5650266100.0 0.0383043153 0.9967184793
5700265800.0 0.0527682862 0.9959052577
5750265500.0 0.067565934 0.9950437588
5800265200.0 0.0819960423 0.9944364189
5850264900.0 0.0950416997 0.9931306762
5900264600.0 0.1115803329 0.9913167172
5950264300.0 0.1237769534 0.9898505393
6000264000.0 0.1376527353 0.9878569266
6050263700.0 0.1507239481 0.9864651808
6100263400.0 0.1633557937 0.9845559344
6150263100.0 0.178262668 0.9820107094
6200262800.0 0.188978394 0.9800052283
6250262500.0 0.2016947911 0.9773874454
6300262200.0 0.214536298 0.9747225709
6350261900.0 0.227729954 0.9717098568
6400261600.0 0.2415515225 0.9684110472
6450261300.0 0.2530474242 0.965689858
6500261000.0 0.2659211236 0.9623074573
6550260700.0 0.2789276796 0.958291351
6600260400.0 0.2920622054 0.9543497655
6650260100.0 0.3061426435 0.9500129239
6700259800.0 0.3179625951 0.9457791336
6750259500.0 0.3315743291 0.9408447669
6800259200.0 0.3445023067 0.9358601093
6850258900.0 0.3568074789 0.9311560605
6900258600.0 0.368674503 0.9259188236
6950258300.0 0.3814785727 0.9208781244
7000258000.0 0.3931479352 0.9153660643
7050257700.0 0.4057064159 0.9096108974
7100257400.0 0.4185486968 0.9031770299
7150257100.0 0.4288571157 0.8982506003
7200256800.0 0.4415199543 0.8919466097
7250256500.0 0.4529314797 0.8855383047
7300256200.0 0.4661618885 0.8788768684
7350255900.0 0.4780742525 0.8721353492
7400255600.0 0.4905723952 0.8653561542
7450255300.0 0.5056913246 0.8563574355
7500255000.0 0.5175123172 0.8494228789
7550254700.0 0.5309584136 0.8412690616
7600254400.0 0.5436189799 0.8327666976
7650254100.0 0.5552906196 0.8251769621
7700253800.0 0.5670129953 0.8171435905
7750253500.0 0.5783457177 0.8091514535
7800253200.0 0.5892366223 0.8011827115
7850252900.0 0.5992019725 0.7941204729
7900252600.0 0.6108991647 0.7852366397
7950252300.0 0.6198594395 0.7783254483
8000252000.0 0.6303797211 0.7703295876
8050251700.0 0.6407835478 0.7620608022
8100251400.0 0.6508874917 0.7536617286
8150251100.0 0.6613354374 0.7447625407
8200250800.0 0.6706387448 0.7368211033
8250250500.0 0.6798600131 0.7285962556
8300250200.0 0.6892441976 0.7197282507
8350249900.0 0.6984646126 0.7109899731
8400249600.0 0.7071193047 0.702912896
8450249300.0 0.7160776257 0.6935669594
8500249000.0 0.724696229 0.6847012387
8550248700.0 0.733082518 0.6755399263
8600248400.0 0.7419014305 0.6658149882
8650248100.0 0.7496445119 0.656544122
8700247800.0 0.7591774276 0.6457478486
8750247500.0 0.7673225254 0.6355054115
8800247200.0 0.7753698698 0.6254222149
8850246900.0 0.784060883 0.614333395
8900246600.0 0.7921667629 0.6034017746
8950246300.0 0.8017559381 0.5905229284
9000246000.0 0.8111245933 0.5782161852
9050245700.0 0.8194507181 0.5658425985
9100245400.0 0.8280983425 0.5536238721
9150245100.0 0.836869579 0.540116947
9200244800.0 0.8462466377 0.5259709783
9250244500.0 0.8551716658 0.5111598919
9300244200.0 0.8633910009 0.4972152158
9350243900.0 0.8712249007 0.4831327888
9400243600.0 0.8781614419 0.4704668225
9450243300.0 0.8842967147 0.4583746225
9500243000.0 0.8909365235 0.4453328851
9550242700.0 0.8951131092 0.436394849
9600242400.0 0.8994452187 0.4278499464
9650242100.0 0.903273599 0.4206540775
9700241800.0 0.9083134804 0.4119119748
9750241500.0 0.9120191106 0.40340626
9800241200.0 0.9166434303 0.3940381554
9850240900.0 0.9223359827 0.3821931498
9900240600.0 0.927656822 0.3711974281
9950240300.0 0.9341491315 0.3551939577
10000240000.0 0.9387223866 0.3435957195
10050239700.0 0.9436761186 0.3286223398
10100239400.0 0.9491122751 0.31369389
10150239100.0 0.9534696897 0.2991693535
10200238800.0 0.9574545683 0.2842671147
10250238500.0 0.961108534 0.2709550923
10300238200.0 0.9644069175 0.2570471967
10350237900.0 0.9671781231 0.2439563661
10400237600.0 0.9698127636 0.2310266674
10450237300.0 0.972780297 0.2169262697
10500237000.0 0.974700207 0.205222556
10550236700.0 0.9772044764 0.1916206214
10600236400.0 0.9795165731 0.1780200415
10650236100.0 0.9811760107 0.163766858
10700235800.0 0.9834217237 0.1515410182
10750235500.0 0.9860441193 0.1384141869
10800235200.0 0.9879910096 0.1244524926
10850234900.0 0.9898261278 0.1095525828
10900234600.0 0.9915168219 0.0956496753
10950234300.0 0.9933699361 0.0825147263
11000234000.0 0.9948937363 0.0679024655
11050233700.0 0.9965305384 0.0520646003
11100233400.0 0.9977369174 0.0351781972
11150233100.0 0.9988822925 0.0190781308
11200232800.0 0.9997049477 0.0043324276
11250232500.0 1.000430671 -0.0118594035
11300232200.0 1.000469118 -0.0294567168
11350231900.0 1.000611503 -0.0448942071
11400231600.0 1.000279054 -0.061393602
11450231300.0 0.9997447653 -0.0762694627
11500231000.0 0.9987733468 -0.0921059944
11550230700.0 0.9971689028 -0.1063757112
11600230400.0 0.995568769 -0.1193197016
11650230100.0 0.9933289109 -0.1315384547
11700229800.0 0.9911259129 -0.1458079845
11750229500.0 0.9890913614 -0.1606834387
11800229200.0 0.9866168019 -0.1746720909
11850228900.0 0.983333378 -0.1876876005
11900228600.0 0.979728236 -0.1983427611
11950228300.0 0.9766256531 -0.2093659616
12000228000.0 0.974051521 -0.2187153783
12050227700.0 0.9703372393 -0.2316429708
12100227400.0 0.9674520004 -0.2427017576
12150227100.0 0.9626649332 -0.2592968061
12200226800.0 0.9590214604 -0.2700553474
12250226500.0 0.9548726042 -0.284146744
12300226200.0 0.9507613466 -0.2949060631
12350225900.0 0.9460513329 -0.3092289124
12400225600.0 0.9422038868 -0.3217111793
12450225300.0 0.9378979109 -0.3335791061
12500225000.0 0.9326083489 -0.3485308024
12550224700.0 0.9273457901 -0.3621195609
12600224400.0 0.9226021704 -0.3744761627
12650224100.0 0.9167940104 -0.388537888
12700223800.0 0.9115828943 -0.401150377
12750223500.0 0.9061328028 -0.4140186073
12800223200.0 0.9007130298 -0.4266804664
12850222900.0 0.8953468826 -0.4386049502
12900222600.0 0.8897683264 -0.4508510982
12950222300.0 0.8829012099 -0.4637983205
13000222000.0 0.8775188462 -0.474896796
13050221700.0 0.8703843484 -0.4879710184
13100221400.0 0.8634996668 -0.4998591425
13150221100.0 0.8563557104 -0.5126232364
13200220800.0 0.8492183581 -0.5245346769
13250220500.0 0.841743237 -0.5365141098
13300220200.0 0.834137526 -0.5478231019
13350219900.0 0.8259948579 -0.5598766977
13400219600.0 0.8174416454 -0.5719611752
13450219300.0 0.8081691755 -0.5854411795
13500219000.0 0.7978328197 -0.5990593193
13550218700.0 0.7882444989 -0.6120137056
13600218400.0 0.7783134789 -0.6237432177
13650218100.0 0.7683572373 -0.6347608537
13700217800.0 0.7585332119 -0.6472791717
13750217500.0 0.7474108261 -0.6588575447
13800217200.0 0.7365402501 -0.6702553138
13850216900.0 0.7256159042 -0.6825737806
13900216600.0 0.7156280888 -0.6914177437
13950216300.0 0.7051400773 -0.7018209264
14000216000.0 0.6951919617 -0.7103027265
14050215700.0 0.6859168074 -0.719234027
14100215400.0 0.6760772871 -0.7284864396
14150215100.0 0.6665809854 -0.7371009152
14200214800.0 0.6574330924 -0.7455352954
14250214500.0 0.6471405381 -0.7546973702
14300214200.0 0.6369668921 -0.7640776728
14350213900.0 0.6259080454 -0.7733025877
14400213600.0 0.6144151981 -0.7829511986
14450213300.0 0.6018777406 -0.7924238516
14500213000.0 0.5893090847 -0.8020647032
14550212700.0 0.5771513001 -0.8111582372
14600212400.0 0.5647420995 -0.8198171944
14650212100.0 0.5521575631 -0.8288979004
14700211800.0 0.538202638 -0.8382711314
14750211500.0 0.5260746529 -0.8463806682
14800211200.0 0.5133432669 -0.8541153037
14850210900.0 0.5011405644 -0.8615866694
14900210600.0 0.4879131837 -0.869686659
14950210300.0 0.4743466672 -0.8774960311
15000210000.0 0.4614758432 -0.8842898739
15050209700.0 0.4487234992 -0.8905641964
15100209400.0 0.4361751622 -0.8965072061
15150209100.0 0.4234993924 -0.902532989
15200208800.0 0.4093469345 -0.907893354
15250208500.0 0.3985696251 -0.9133113999
15300208200.0 0.3852658242 -0.9174525245
15350207900.0 0.3729520766 -0.922636827
15400207600.0 0.3578575734 -0.928145466
15450207300.0 0.3423681713 -0.9334028425
15500207000.0 0.3280468484 -0.9385658365
15550206700.0 0.3134648151 -0.943383774
15600206400.0 0.2980617143 -0.9477949185
15650206100.0 0.2828325287 -0.9515531516
15700205800.0 0.268633209 -0.9557895359
15750205500.0 0.2540881979 -0.9594710245
15800205200.0 0.2399180003 -0.962737605
15850204900.0 0.2259479017 -0.9659169671
15900204600.0 0.2108369042 -0.9696378018
15950204300.0 0.1971440965 -0.972557188
16000204000.0 0.1830758621 -0.9754036344
16050203700.0 0.1687828791 -0.978112625
16100203400.0 0.1544106709 -0.980052388
16150203100.0 0.1403576934 -0.9824812249
16200202800.0 0.126233961 -0.9847923229
16250202500.0 0.1119519336 -0.9860947743
16300202200.0 0.0968915244 -0.9877516215
16350201900.0 0.0818317192 -0.9890344581
16400201600.0 0.0678104935 -0.990636811
16450201300.0 0.0525171448 -0.9914473254
16500201000.0 0.0361641551 -0.9919820795
16550200700.0 0.0205989808 -0.9926413386
16600200400.0 0.0047014078 -0.9928920321
16650200100.0 -0.0117159729 -0.9927326277
16700199800.0 -0.0276136489 -0.9924931036
16750199500.0 -0.0466141713 -0.9917953947
16800199200.0 -0.0625280086 -0.9910987068
16850198900.0 -0.0782432606 -0.9896194726
16900198600.0 -0.0923023992 -0.9883657972
16950198300.0 -0.106221384 -0.9875282451
17000198000.0 -0.1193099367 -0.9863291869
17050197700.0 -0.1326346095 -0.9844542829
17100197400.0 -0.1459281817 -0.9820056143
17150197100.0 -0.1589104186 -0.9798354388
17200196800.0 -0.1718915142 -0.977995323
17250196500.0 -0.1851366862 -0.9753524303
17300196200.0 -0.1977609483 -0.9732527601
17350195900.0 -0.2101102938 -0.9707080986
17400195600.0 -0.2222589294 -0.9681609895
17450195300.0 -0.2354779123 -0.9652342745
17500195000.0 -0.2489997839 -0.9619523752
17550194700.0 -0.2631511622 -0.9583711326
17600194400.0 -0.2767844336 -0.9545384269
17650194100.0 -0.2905076257 -0.950575911
17700193800.0 -0.3036678904 -0.9465585216
17750193500.0 -0.3173096915 -0.9419073051
17800193200.0 -0.3314991254 -0.9367367314
17850192900.0 -0.345979086 -0.9316393446
17900192600.0 -0.3609227626 -0.9256969817
17950192300.0 -0.3761599609 -0.918821966
18000192000.0 -0.3906927213 -0.9116089897
18050191700.0 -0.4043008691 -0.9041661395
18100191400.0 -0.4184236061 -0.8966549559
18150191100.0 -0.4331144035 -0.8889616015
18200190800.0 -0.4494058181 -0.8803496892
18250190500.0 -0.4659917937 -0.8711947792
18300190200.0 -0.4813853632 -0.8627415705
18350189900.0 -0.4960495331 -0.854595895
18400189600.0 -0.5104224392 -0.8461843217
18450189300.0 -0.5236579892 -0.8377206561
18500189000.0 -0.5374442509 -0.8302780673
18550188700.0 -0.5503887832 -0.8223917891
18600188400.0 -0.5625197515 -0.8146549086
18650188100.0 -0.5739341677 -0.8077975382
18700187800.0 -0.5852046282 -0.8010270509
18750187500.0 -0.5961584909 -0.7937799786
18800187200.0 -0.6071299639 -0.786175456
18850186900.0 -0.6177437221 -0.7788363495
18900186600.0 -0.628330774 -0.7709922399
18950186300.0 -0.6391561597 -0.7628486244
19000186000.0 -0.6466861632 -0.7557634808
19050185700.0 -0.6565632053 -0.7482689084
19100185400.0 -0.6662594287 -0.7401318789
19150185100.0 -0.677316477 -0.7306554224
19200184800.0 -0.6862139697 -0.7222851083
19250184500.0 -0.6967050386 -0.712947675
19300184200.0 -0.7078372687 -0.7034895484
19350183900.0 -0.7184385388 -0.6930249819
19400183600.0 -0.7281917632 -0.6841172513
19450183300.0 -0.7374412551 -0.6732716421
19500183000.0 -0.7457770176 -0.6640676591
19550182700.0 -0.7547798943 -0.6529656222
19600182400.0 -0.7647900741 -0.6414140377
19650182100.0 -0.7748510325 -0.6293131355
19700181800.0 -0.7849661587 -0.6169716009
19750181500.0 -0.7951219238 -0.6037274714
19800181200.0 -0.8051123722 -0.5893454608
19850180900.0 -0.8147680877 -0.5745840126
19900180600.0 -0.8221818366 -0.561065561
19950180300.0 -0.8316116745 -0.5449647863
20000180000.0 -0.8276105516 -0.545239948
20050179700.0 -0.8345815313 -0.5317438757
20100179400.0 -0.8439608973 -0.518250381
20150179100.0 -0.8515370001 -0.5064379657
20200178800.0 -0.8594738116 -0.4936235379
20250178500.0 -0.8695160497 -0.480668195
20300178200.0 -0.8777498185 -0.465719414
20350177900.0 -0.8859236829 -0.4523623715
20400177600.0 -0.895382074 -0.4378729285
20450177300.0 -0.9034851433 -0.4234789802
20500177000.0 -0.910867919 -0.4097492426
20550176700.0 -0.9185064726 -0.3960601222
20600176400.0 -0.9253681724 -0.3828529882
20650176100.0 -0.9321220586 -0.3700417676
20700175800.0 -0.9387220935 -0.3581601185
20750175500.0 -0.9445882602 -0.345753576
20800175200.0 -0.9497569782 -0.3344451249
20850174900.0 -0.9547029996 -0.3229039268
20900174600.0 -0.9592745571 -0.3104030442
20950174300.0 -0.9637218092 -0.2989843492
21000174000.0 -0.9670579324 -0.2869612082
21050173700.0 -0.9702111536 -0.2748250436
21100173400.0 -0.9736018795 -0.2629554825
21150173100.0 -0.977670918 -0.2498836658
21200172800.0 -0.9814540639 -0.2361800529
21250172500.0 -0.9845809838 -0.2223122989
21300172200.0 -0.9882341595 -0.2082003185
21350171900.0 -0.9897557921 -0.1936373322
21400171600.0 -0.9908592717 -0.1798842157
21450171300.0 -0.9918467351 -0.1655424108
21500171000.0 -0.9917034794 -0.1503712907
21550170700.0 -0.9916974576 -0.134924238
21600170400.0 -0.9922095878 -0.1194258766
21650170100.0 -0.9920752796 -0.1038964776
21700169800.0 -0.9908652568 -0.0900831869
21750169500.0 -0.9895810661 -0.0734034331
21800169200.0 -0.989332815 -0.0583483391
21850168900.0 -0.9885619501 -0.0423993642
21900168600.0 -0.9867248395 -0.0261760741
21950168300.0 -0.9856709072 -0.0104070117
22000168000.0 -0.9846137873 0.0047250434
22050167700.0 -0.9841076835 0.0179987033
22100167400.0 -0.9837853415 0.0334425269
22150167100.0 -0.9842161003 0.0487684277
22200166800.0 -0.9842520524 0.0645445062
22250166500.0 -0.9837162839 0.0808512518
22300166200.0 -0.9823412542 0.0970882761
22350165900.0 -0.9811924592 0.1135264605
22400165600.0 -0.9792416461 0.1290886353
22450165300.0 -0.9773553248 0.1445225533
22500165000.0 -0.9757836372 0.1574897554
22550164700.0 -0.9752052943 0.1719975813
22600164400.0 -0.9730171644 0.1878312461
22650164100.0 -0.9703658925 0.2025335182
22700163800.0 -0.9673555179 0.2185027471
22750163500.0 -0.9656702238 0.2335325962
22800163200.0 -0.9623126933 0.246531495
22850162900.0 -0.9599206687 0.2599954131
22900162600.0 -0.9581022603 0.2736326149
22950162300.0 -0.9565408479 0.2864987683
23000162000.0 -0.9553740721 0.2987449197
23050161700.0 -0.9529811283 0.3116604747
23100161400.0 -0.9508013182 0.3245341831
23150161100.0 -0.9475562259 0.3363520293
23200160800.0 -0.9448671292 0.3493153519
23250160500.0 -0.9417932082 0.36105021
23300160200.0 -0.9388191931 0.372549178
23350159900.0 -0.9351130421 0.3856577655
23400159600.0 -0.9311889849 0.3988766112
23450159300.0 -0.9258721948 0.4114205855
23500159000.0 -0.9218067046 0.4240166024
23550158700.0 -0.9169232054 0.4370051563
23600158400.0 -0.91180904 0.4501442842
23650158100.0 -0.9053638201 0.4636499413
23700157800.0 -0.8980143282 0.4770654998
23750157500.0 -0.8896244559 0.4908514795
23800157200.0 -0.88106203 0.504417531
23850156900.0 -0.8725904613 0.5161095369
23900156600.0 -0.8639692294 0.5286288806
23950156300.0 -0.8550749443 0.5409178374
24000156000.0 -0.8457066174 0.5528371071
24050155700.0 -0.8363307898 0.5645757011
24100155400.0 -0.826638316 0.5762899171
24150155100.0 -0.815961245 0.5880423998
24200154800.0 -0.8051195479 0.5987609312
24250154500.0 -0.7943160059 0.6111480792
24300154200.0 -0.7833922851 0.6230831834
24350153900.0 -0.7716746953 0.6339433736
24400153600.0 -0.7598920034 0.6445281247
24450153300.0 -0.7483305417 0.6550194945
24500153000.0 -0.7366320714 0.6651867576
24550152700.0 -0.7255328145 0.6752155345
24600152400.0 -0.7144633745 0.6840394341
24650152100.0 -0.7027960367 0.6935772382
