!Created with skrf (http://scikit-rf.org).
# Hz S RI R 50.0 
!freq ReS11 ImS11
300000.0 -0.9798113191 -0.1100529846
50299700.0 -1.000008938 0.0159075338
100299400.0 -0.9980039442 0.0289313715
150299100.0 -1.002874233 0.0460077987
200298800.0 -0.9996316116 0.059100943
250298500.0 -0.9973203532 0.0724398014
300298200.0 -0.9859791673 0.0881680385
350297900.0 -0.9939282367 0.0992984139
400297600.0 -0.9931713649 0.1158056993
450297300.0 -0.9911073958 0.1297891953
500297000.0 -0.9894533199 0.1444821373
550296700.0 -0.9841857626 0.1568520687
600296400.0 -1.017278598 0.190392518
650296100.0 -0.9821395835 0.1869277906
700295800.0 -0.9791039122 0.2011030566
750295500.0 -0.9761939175 0.215143928
800295200.0 -0.9728861802 0.229293675
850294900.0 -0.9695272963 0.2429836794
900294600.0 -0.9655362991 0.2568396319
950294300.0 -0.961923744 0.2705766288
1000294000.0 -0.9578977432 0.2846925235
1050293700.0 -0.9535093712 0.2984399184
1100293400.0 -0.949311024 0.3127924838
1150293100.0 -0.9450074006 0.3245810775
1200292800.0 -0.9399716052 0.3389718407
1250292500.0 -0.9344592355 0.3525209048
1300292200.0 -0.928931748 0.3655479099
1350291900.0 -0.9231854967 0.3796636994
1400291600.0 -0.9175944391 0.3927354771
1450291300.0 -0.9120693699 0.4050258987
1500291000.0 -0.9060331962 0.4185069098
1550290700.0 -0.8994822852 0.4317614331
1600290400.0 -0.8933186895 0.444659463
1650290100.0 -0.8864969149 0.4567882561
1700289800.0 -0.8796876981 0.4700523544
1750289500.0 -0.8726206016 0.4824523331
1800289200.0 -0.8653258208 0.4952730188
1850288900.0 -0.8584359394 0.506794195
1900288600.0 -0.8507598058 0.5197206667
1950288300.0 -0.8425881498 0.5321499008
2000288000.0 -0.8351421525 0.5436099956
2050287700.0 -0.8269506756 0.5559721645
2100287400.0 -0.818897712 0.5675137519
2150287100.0 -0.8102264045 0.5797112632
2200286800.0 -0.8027633536 0.5901374072
2250286500.0 -0.7937213684 0.6019830602
2300286200.0 -0.7847490003 0.6137481201
2350285900.0 -0.7760608167 0.6248556907
2400285600.0 -0.7669494413 0.6359394532
2450285300.0 -0.7585510539 0.6460925531
2500285000.0 -0.7486156425 0.6573858877
2550284700.0 -0.7397253687 0.6677391598
2600284400.0 -0.7303116083 0.6779456559
2650284100.0 -0.7211120905 0.6882387915
2700283800.0 -0.7106905708 0.698957651
2750283500.0 -0.7003840847 0.7092315462
2800283200.0 -0.6905539295 0.7192932821
2850282900.0 -0.6806523937 0.7293474076
2900282600.0 -0.6699814169 0.7386509994
2950282300.0 -0.6599892838 0.7478261013
3000282000.0 -0.6490359029 0.7573300986
3050281700.0 -0.6380257653 0.7665220739
3100281400.0 -0.6260950113 0.7760110381
3150281100.0 -0.6141796773 0.7852442688
3200280800.0 -0.6025886866 0.7935908741
3250280500.0 -0.5918009255 0.8012904898
3300280200.0 -0.5805349819 0.809398748
3350279900.0 -0.569171466 0.816750481
3400279600.0 -0.5571837412 0.824362582
3450279300.0 -0.5459661296 0.8313863264
3500279000.0 -0.5337727289 0.8385963091
3550278700.0 -0.5214247525 0.8461108738
3600278400.0 -0.5092990643 0.8531303913
3650278100.0 -0.4958347833 0.8609076193
3700277800.0 -0.4837039541 0.8671268886
3750277500.0 -0.471439092 0.873924766
3800277200.0 -0.4590003246 0.8804579524
3850276900.0 -0.4470024258 0.8861325964
3900276600.0 -0.435847413 0.89193981
3950276300.0 -0.42361691 0.8978412976
4000276000.0 -0.4115091435 0.9039853184
4050275700.0 -0.3985803837 0.9096652802
4100275400.0 -0.3874048079 0.9152540594
4150275100.0 -0.3746354539 0.9211260869
4200274800.0 -0.3616675248 0.9263582883
4250274500.0 -0.3497312757 0.9318218685
4300274200.0 -0.3365253915 0.9367787988
4350273900.0 -0.3227075579 0.9421224682
4400273600.0 -0.3080097936 0.9475345874
4450273300.0 -0.2925523702 0.9524584048
4500273000.0 -0.2788391112 0.9568613027
4550272700.0 -0.2646486372 0.9611725163
4600272400.0 -0.2491168308 0.9653838998
4650272100.0 -0.2373157447 0.9685150225
4700271800.0 -0.2241249477 0.9718587677
4750271500.0 -0.2123245097 0.974672664
4800271200.0 -0.1998163013 0.9774535383
4850270900.0 -0.1859147869 0.9803279518
4900270600.0 -0.1721536656 0.9826309503
4950270300.0 -0.1578998734 0.9852692453
5000270000.0 -0.1438002631 0.9870374057
5050269700.0 -0.1300241055 0.9889808985
5100269400.0 -0.1164937437 0.9902432909
5150269100.0 -0.1034719799 0.9921651678
5200268800.0 -0.0901871177 0.993046581
5250268500.0 -0.0770513371 0.9939257824
5300268200.0 -0.0641364736 0.9949472692
5350267900.0 -0.0518862569 0.9950087735
5400267600.0 -0.0356712802 0.9965737365
5450267300.0 -0.0225678998 0.9966886626
5500267000.0 -0.007334791 0.9971505839
5550266700.0 0.0076789432 0.9971179828
5600266400.0 0.0228831823 0.9972797932
5650266100.0 0.0395260922 0.9967987444
5700265800.0 0.0539749423 0.9960586593
5750265500.0 0.0695989088 0.9955668431
5800265200.0 0.0832521014 0.9945555718
5850264900.0 0.0965294232 0.9931377404
5900264600.0 0.113191296 0.9915217545
5950264300.0 0.1255273865 0.990584613
6000264000.0 0.1390674936 0.9877132179
6050263700.0 0.151810484 0.9866242666
6100263400.0 0.1646554687 0.9849226997
6150263100.0 0.1788540918 0.9823249581
6200262800.0 0.1892627664 0.9805448188
6250262500.0 0.2021478847 0.9780563961
6300262200.0 0.2148533294 0.9753679106
6350261900.0 0.2281689021 0.9724893842
6400261600.0 0.2417625225 0.96908301
6450261300.0 0.2530505567 0.9662548796
6500261000.0 0.2660762027 0.9628892208
6550260700.0 0.2790768373 0.9589423824
6600260400.0 0.2923616738 0.9548510446
6650260100.0 0.306077706 0.9503133379
6700259800.0 0.3183726698 0.9460961463
6750259500.0 0.3322915283 0.9412442698
6800259200.0 0.3450361791 0.9361877622
6850258900.0 0.3569737309 0.931100207
6900258600.0 0.3689817371 0.9259297023
6950258300.0 0.3817241636 0.920853637
7000258000.0 0.3936470418 0.9155009508
7050257700.0 0.405795055 0.9094866384
7100257400.0 0.4185963176 0.903225146
7150257100.0 0.4288886353 0.897817049
7200256800.0 0.4417444873 0.8913782362
7250256500.0 0.4535178791 0.885047149
7300256200.0 0.4665370722 0.8783961854
7350255900.0 0.4792859136 0.8716518856
7400255600.0 0.4922754246 0.8643688834
7450255300.0 0.507220799 0.8552885397
7500255000.0 0.519097336 0.8482541021
7550254700.0 0.5326627785 0.8394531621
7600254400.0 0.5458741123 0.8316625334
7650254100.0 0.5570900041 0.8233931546
7700253800.0 0.5692113597 0.8154591624
7750253500.0 0.5802894154 0.8077368268
7800253200.0 0.5911348834 0.7999233936
7850252900.0 0.6006843436 0.7928945404
7900252600.0 0.6123615731 0.7840118769
7950252300.0 0.6212911338 0.7775262856
8000252000.0 0.6311946837 0.7697977216
8050251700.0 0.6420866218 0.7613905992
8100251400.0 0.6520233096 0.753296969
8150251100.0 0.6623408095 0.7447297642
8200250800.0 0.6716047872 0.7367884153
8250250500.0 0.6802073856 0.7289067386
8300250200.0 0.6899227591 0.7201043991
8350249900.0 0.6987994002 0.7113077425
8400249600.0 0.7070604371 0.7033347039
8450249300.0 0.7160387517 0.6940846649
8500249000.0 0.7243501733 0.6852409778
8550248700.0 0.7329843349 0.6764029079
8600248400.0 0.7414930349 0.6668695825
8650248100.0 0.7491198341 0.6574660803
8700247800.0 0.7586893436 0.6462330041
8750247500.0 0.7670110721 0.6361335551
8800247200.0 0.7751992701 0.6258904175
8850246900.0 0.7838590659 0.6142593887
8900246600.0 0.7922774964 0.6029785239
8950246300.0 0.8016746665 0.5902023451
9000246000.0 0.8114693831 0.5773292363
9050245700.0 0.8205220024 0.5644054745
9100245400.0 0.8286977812 0.5519290994
9150245100.0 0.8380194077 0.5382650906
9200244800.0 0.8479695839 0.5227793453
9250244500.0 0.8574279601 0.5073563668
9300244200.0 0.8659889421 0.4926469461
9350243900.0 0.8737310461 0.4788438042
9400243600.0 0.8804421434 0.4661355521
9450243300.0 0.8862248168 0.4545201437
9500243000.0 0.892466456 0.4422687074
9550242700.0 0.8963850275 0.4343528037
9600242400.0 0.9000954273 0.4271393408
9650242100.0 0.9036417785 0.4206753489
9700241800.0 0.9083458404 0.4125685877
9750241500.0 0.9121385701 0.4050671318
9800241200.0 0.9171291775 0.3955983522
9850240900.0 0.9227644023 0.3839414691
9900240600.0 0.9279835151 0.3724190136
9950240300.0 0.9344709684 0.3565156013
10000240000.0 0.9389764199 0.344737651
10050239700.0 0.9450863468 0.3291986817
10100239400.0 0.9500912728 0.3138737905
10150239100.0 0.954371072 0.2992680575
10200238800.0 0.9585286238 0.284162741
10250238500.0 0.9616666862 0.2710282527
10300238200.0 0.9647775056 0.2569935959
10350237900.0 0.9673849067 0.2440790455
10400237600.0 0.9701310651 0.2307600463
10450237300.0 0.972788732 0.2171033991
10500237000.0 0.9747559487 0.2051683719
10550236700.0 0.9767412931 0.1918155523
10600236400.0 0.9793340481 0.1777660734
10650236100.0 0.981073322 0.1631972337
10700235800.0 0.983544883 0.1509487941
10750235500.0 0.9861014382 0.1376872405
10800235200.0 0.9878995987 0.1237713159
10850234900.0 0.9896353812 0.1092533702
10900234600.0 0.9919234777 0.094471658
10950234300.0 0.9934880442 0.0812822636
11000234000.0 0.9953098674 0.0661006976
11050233700.0 0.9970034207 0.0498218518
11100233400.0 0.9983725296 0.032511098
11150233100.0 0.9995475666 0.0160704918
11200232800.0 1.000318664 0.001047142
11250232500.0 1.000998012 -0.0151144819
11300232200.0 1.001600117 -0.0332531668
11350231900.0 1.001443679 -0.0490120335
11400231600.0 1.001211006 -0.0647912598
11450231300.0 1.000723512 -0.0810137991
11500231000.0 0.9990100727 -0.0976977365
11550230700.0 0.9982920923 -0.1105478039
11600230400.0 0.9966938857 -0.1232042585
11650230100.0 0.9945410398 -0.134429973
11700229800.0 0.9927243853 -0.1492725275
11750229500.0 0.9900871387 -0.1640219124
11800229200.0 0.9875834167 -0.177419226
11850228900.0 0.9839235882 -0.1899932555
11900228600.0 0.9805692771 -0.1998933993
11950228300.0 0.9771566894 -0.2103074872
12000228000.0 0.9742327215 -0.2193517002
12050227700.0 0.9710602499 -0.2317260277
12100227400.0 0.9677535625 -0.2429407501
12150227100.0 0.9628906723 -0.2593102175
12200226800.0 0.9591409596 -0.2705566216
12250226500.0 0.9553021964 -0.2830773065
12300226200.0 0.9507085479 -0.295851185
12350225900.0 0.9461391985 -0.3089830719
12400225600.0 0.9417651179 -0.3215904145
12450225300.0 0.9375523003 -0.334997418
12500225000.0 0.932350129 -0.3496254666
12550224700.0 0.9267145262 -0.3631878317
12600224400.0 0.9216613044 -0.3758518048
12650224100.0 0.9160118881 -0.3902147554
12700223800.0 0.9109270177 -0.4026506852
12750223500.0 0.9054769427 -0.415633038
12800223200.0 0.9001583375 -0.4278703904
12850222900.0 0.8944918852 -0.4403432879
12900222600.0 0.8889948761 -0.4521298719
12950222300.0 0.8827523428 -0.4653026509
13000222000.0 0.8767632934 -0.4762818952
13050221700.0 0.8699481323 -0.4887770152
13100221400.0 0.8629399779 -0.5015974716
13150221100.0 0.8560288607 -0.5136132323
13200220800.0 0.8488892062 -0.525303748
13250220500.0 0.8419060329 -0.537441551
13300220200.0 0.8343657332 -0.5485967254
13350219900.0 0.8262649795 -0.5605816512
13400219600.0 0.8177466771 -0.5728455239
13450219300.0 0.8081685676 -0.5864425737
13500219000.0 0.7978771595 -0.6003007785
13550218700.0 0.7876161201 -0.6131347169
13600218400.0 0.7776436716 -0.6255281985
13650218100.0 0.768298563 -0.636508727
13700217800.0 0.7567893289 -0.6491338342
13750217500.0 0.7472802296 -0.6607271546
13800217200.0 0.7359211977 -0.6717382456
13850216900.0 0.7241620781 -0.6841097136
13900216600.0 0.7143069829 -0.6923888285
13950216300.0 0.704261825 -0.7027961717
14000216000.0 0.6941358844 -0.7119778728
14050215700.0 0.6841463559 -0.7206258057
14100215400.0 0.674577225 -0.7291609258
14150215100.0 0.6654948079 -0.7375001024
14200214800.0 0.6561009108 -0.74623531
14250214500.0 0.645886184 -0.7554564268
14300214200.0 0.6355278089 -0.7647887641
14350213900.0 0.6243322102 -0.7740424413
14400213600.0 0.612860811 -0.7840635326
14450213300.0 0.5993975126 -0.7941657896
14500213000.0 0.5861666975 -0.8038625316
14550212700.0 0.573917136 -0.8136103716
14600212400.0 0.5615720447 -0.8221473088
14650212100.0 0.5489256727 -0.8306503475
14700211800.0 0.5344822454 -0.8403003533
14750211500.0 0.5223663221 -0.8485623916
14800211200.0 0.510314599 -0.8563251731
14850210900.0 0.4979273316 -0.8639739135
14900210600.0 0.4846300145 -0.8715978773
14950210300.0 0.4710973817 -0.8794013601
15000210000.0 0.4583371243 -0.8862819157
15050209700.0 0.445896887 -0.8923977436
15100209400.0 0.433218801 -0.8985179172
15150209100.0 0.4210062026 -0.9034400462
15200208800.0 0.407774111 -0.9094354297
15250208500.0 0.3963593986 -0.9134054756
15300208200.0 0.3845322474 -0.9186190085
15350207900.0 0.370954388 -0.9235898957
15400207600.0 0.356891792 -0.9286174191
15450207300.0 0.3417363828 -0.9338395833
15500207000.0 0.3272736057 -0.9384279753
15550206700.0 0.3126001545 -0.9434777864
15600206400.0 0.296302215 -0.9473417822
15650206100.0 0.280902898 -0.9519510314
15700205800.0 0.2666399566 -0.9558139631
15750205500.0 0.2518818388 -0.9592825347
15800205200.0 0.2377290652 -0.962642091
15850204900.0 0.2232530006 -0.9659563855
15900204600.0 0.2084419178 -0.9697342028
15950204300.0 0.1944121765 -0.9724830198
16000204000.0 0.180352658 -0.975239445
16050203700.0 0.1650804573 -0.9780054817
16100203400.0 0.1511118947 -0.9800533283
16150203100.0 0.1368679161 -0.9827503545
16200202800.0 0.1229050147 -0.9846484432
16250202500.0 0.1076023269 -0.9865958237
16300202200.0 0.0927901956 -0.9875799026
16350201900.0 0.0779331169 -0.9891113513
16400201600.0 0.0634784934 -0.990102945
16450201300.0 0.0480587151 -0.9912657171
16500201000.0 0.0315866416 -0.9919162996
16550200700.0 0.0160386934 -0.9922589243
16600200400.0 2.21997e-05 -0.9924773062
16650200100.0 -0.0163517245 -0.9924127615
16700199800.0 -0.0330569167 -0.9919772138
16750199500.0 -0.0516885105 -0.9917230243
16800199200.0 -0.0674711015 -0.9904734903
16850198900.0 -0.0826014388 -0.9892458242
16900198600.0 -0.0966375955 -0.9885934089
16950198300.0 -0.1098786273 -0.9871495288
17000198000.0 -0.1227412716 -0.9856493787
17050197700.0 -0.1348769917 -0.9839163967
17100197400.0 -0.147937765 -0.9820106008
17150197100.0 -0.160614754 -0.9800651827
17200196800.0 -0.1741716074 -0.9775600309
17250196500.0 -0.1866067008 -0.974868208
17300196200.0 -0.198897603 -0.9729690015
17350195900.0 -0.2106976926 -0.9706574187
17400195600.0 -0.2230639601 -0.9681688604
17450195300.0 -0.2360055715 -0.9654371254
17500195000.0 -0.2493800812 -0.9621337926
17550194700.0 -0.263284123 -0.958189718
17600194400.0 -0.2775183028 -0.9543764363
17650194100.0 -0.2909973773 -0.9501486389
17700193800.0 -0.3040284925 -0.9462457379
17750193500.0 -0.3184907219 -0.9415793399
17800193200.0 -0.3328109593 -0.9362032211
17850192900.0 -0.34765744 -0.9308083439
17900192600.0 -0.3627744864 -0.9246839066
17950192300.0 -0.3783019 -0.9173337887
18000192000.0 -0.3930692041 -0.9104871945
18050191700.0 -0.4067533625 -0.9024296057
18100191400.0 -0.4208814846 -0.8946974539
18150191100.0 -0.4360444963 -0.8866213953
18200190800.0 -0.4529299558 -0.877647648
18250190500.0 -0.4697946023 -0.8679232256
18300190200.0 -0.4849242489 -0.8591534873
18350189900.0 -0.5001485539 -0.8509653001
18400189600.0 -0.5144741222 -0.8421895654
18450189300.0 -0.5281479681 -0.8342194105
18500189000.0 -0.5412129863 -0.8261250069
18550188700.0 -0.5536421707 -0.8189419095
18600188400.0 -0.565676326 -0.8122067997
18650188100.0 -0.5765194925 -0.8058554665
18700187800.0 -0.5874104884 -0.7990581603
18750187500.0 -0.5982363584 -0.7923496494
18800187200.0 -0.60866828 -0.7854821559
18850186900.0 -0.6188276361 -0.7783988094
18900186600.0 -0.6295692719 -0.7708468224
18950186300.0 -0.6393407433 -0.7630382226
19000186000.0 -0.6466852217 -0.7568766193
19050185700.0 -0.6559337585 -0.7496885268
19100185400.0 -0.6664621094 -0.7405653133
19150185100.0 -0.6762541924 -0.7328958844
19200184800.0 -0.6853600187 -0.7241115543
19250184500.0 -0.695815341 -0.715525968
19300184200.0 -0.7072119657 -0.7048484056
19350183900.0 -0.7188601058 -0.6959690083
19400183600.0 -0.7283563433 -0.6854688543
19450183300.0 -0.7366618475 -0.6750836818
19500183000.0 -0.7456233457 -0.6657200082
19550182700.0 -0.7553421361 -0.654542147
19600182400.0 -0.7654047038 -0.6429285845
19650182100.0 -0.7764620451 -0.6307206992
19700181800.0 -0.7867910266 -0.6174824774
19750181500.0 -0.7972634686 -0.603456027
19800181200.0 -0.8074817762 -0.5883838101
19850180900.0 -0.8170838319 -0.573149212
19900180600.0 -0.8249046632 -0.5587914834
19950180300.0 -0.833737176 -0.5423682251
20000180000.0 -0.8272017807 -0.545088768
20050179700.0 -0.8355954613 -0.5316713418
20100179400.0 -0.8434614846 -0.5184126459
20150179100.0 -0.8519310489 -0.5060964265
20200178800.0 -0.8605404672 -0.4927958261
20250178500.0 -0.8702752265 -0.4795559263
20300178200.0 -0.8790718803 -0.4645366902
20350177900.0 -0.8884679286 -0.4503673376
20400177600.0 -0.8974650997 -0.4358811004
20450177300.0 -0.9053094907 -0.4212604142
20500177000.0 -0.9136506252 -0.4074362569
20550176700.0 -0.9210790825 -0.3937614454
20600176400.0 -0.927983681 -0.3807601078
20650176100.0 -0.9349976549 -0.3682136718
20700175800.0 -0.9419922843 -0.3565462458
20750175500.0 -0.9478858505 -0.3437226833
20800175200.0 -0.9537043461 -0.3331951425
20850174900.0 -0.957689027 -0.3220208784
20900174600.0 -0.9627089617 -0.3107196857
20950174300.0 -0.9663669823 -0.2989542068
21000174000.0 -0.9703497532 -0.287775406
21050173700.0 -0.9735539476 -0.27658578
21100173400.0 -0.977127078 -0.2642702929
21150173100.0 -0.9816559437 -0.2513217464
21200172800.0 -0.985126581 -0.2378066619
21250172500.0 -0.9878442773 -0.2240256909
21300172200.0 -0.9909373805 -0.2102538479
21350171900.0 -0.9921483135 -0.1956131157
21400171600.0 -0.9936710762 -0.1808057475
21450171300.0 -0.9936200146 -0.1664207778
21500171000.0 -0.9927873731 -0.1515735934
21550170700.0 -0.9934109564 -0.1359662642
21600170400.0 -0.9934930052 -0.1201503393
21650170100.0 -0.991861726 -0.1040267137
21700169800.0 -0.990313022 -0.0901536757
21750169500.0 -0.9890041826 -0.0740118427
21800169200.0 -0.9884084741 -0.0581322643
21850168900.0 -0.9867473799 -0.040687659
21900168600.0 -0.9854889546 -0.0250400115
21950168300.0 -0.9843193985 -0.0083436743
22000168000.0 -0.9829965244 0.0056559273
22050167700.0 -0.9823512213 0.0197287994
22100167400.0 -0.9824228118 0.0347409846
22150167100.0 -0.9831715555 0.0504365477
22200166800.0 -0.9835299883 0.0667043288
22250166500.0 -0.9832670598 0.0837333879
22300166200.0 -0.9821506568 0.1007349131
22350165900.0 -0.9800963721 0.1171475626
22400165600.0 -0.9792136466 0.1327669722
22450165300.0 -0.977354036 0.1483022304
22500165000.0 -0.974877292 0.1611807
22550164700.0 -0.974255832 0.1766726701
22600164400.0 -0.9724703427 0.1924352685
22650164100.0 -0.9702467032 0.2072198636
22700163800.0 -0.9674898315 0.2230418594
22750163500.0 -0.9654099497 0.2380392891
22800163200.0 -0.962341934 0.2519053527
22850162900.0 -0.959972561 0.265206392
22900162600.0 -0.9583623807 0.2783365231
22950162300.0 -0.9575473462 0.2912069037
23000162000.0 -0.9562202383 0.3028735291
23050161700.0 -0.9543538003 0.3154474101
23100161400.0 -0.9522041763 0.3279421081
23150161100.0 -0.9492418418 0.3403693665
23200160800.0 -0.9465837722 0.3528054008
23250160500.0 -0.943894922 0.3640064798
23300160200.0 -0.9411288882 0.3766886165
23350159900.0 -0.9373216574 0.3892344207
23400159600.0 -0.9326156236 0.4023810417
23450159300.0 -0.9279708582 0.4158413905
23500159000.0 -0.9231209021 0.4284829631
23550158700.0 -0.9186208209 0.4418668734
23600158400.0 -0.913591792 0.4547298294
23650158100.0 -0.9072731359 0.4687216359
23700157800.0 -0.8997690653 0.4822231551
23750157500.0 -0.8909120469 0.4963525627
23800157200.0 -0.8823724574 0.5094788566
23850156900.0 -0.8735991847 0.5219603196
23900156600.0 -0.8640220811 0.534324881
23950156300.0 -0.8551171925 0.5472978046
24000156000.0 -0.8457828076 0.5594595027
24050155700.0 -0.8362357294 0.5711115083
24100155400.0 -0.8262025973 0.582698224
24150155100.0 -0.8150577748 0.594548473
24200154800.0 -0.8039900353 0.605360216
24250154500.0 -0.7922671321 0.6175254701
24300154200.0 -0.7812317038 0.6292148599
24350153900.0 -0.768997256 0.6397956663
24400153600.0 -0.7571839314 0.6502197536
24450153300.0 -0.7452499401 0.6598723443
24500153000.0 -0.7336071117 0.6698218433
24550152700.0 -0.7224066227 0.6788031169
24600152400.0 -0.7114405174 0.6883034058
24650152100.0 -0.6985806219 0.6967357605
