!Created with skrf (http://scikit-rf.org).
# Hz S RI R 50.0 
!freq ReS11 ImS11
300000.0 -0.9750703391 -0.1235230683
50299700.0 -1.000031907 0.0148805229
100299400.0 -0.9980034057 0.0278612598
150299100.0 -1.002663742 0.0447850041
200298800.0 -0.999667499 0.0581675866
250298500.0 -0.997352496 0.0716980093
300298200.0 -0.9858615704 0.0874941501
350297900.0 -0.9940375693 0.0983831956
400297600.0 -0.9931567484 0.1149534909
450297300.0 -0.9909319891 0.1286779232
500297000.0 -0.9894456351 0.1434952711
550296700.0 -0.9843362498 0.1558400733
600296400.0 -1.017172134 0.1889983794
650296100.0 -0.9823232689 0.1857234024
700295800.0 -0.9793326922 0.1998728477
750295500.0 -0.9764007785 0.2138632166
800295200.0 -0.9730008419 0.2280260583
850294900.0 -0.9695786191 0.242065549
900294600.0 -0.9660515515 0.2555225685
950294300.0 -0.9622590111 0.2692642031
1000294000.0 -0.9582551934 0.2832948573
1050293700.0 -0.9535283531 0.2972110786
1100293400.0 -0.9492466614 0.3116202247
1150293100.0 -0.9456795153 0.3233778254
1200292800.0 -0.9402379825 0.3376364429
1250292500.0 -0.9348220829 0.3511980818
1300292200.0 -0.9291468787 0.3646006341
1350291900.0 -0.9235266469 0.3786005249
1400291600.0 -0.9179392851 0.3916540035
1450291300.0 -0.9125704857 0.4041121557
1500291000.0 -0.9063358907 0.417397358
1550290700.0 -0.8996077513 0.4307493833
1600290400.0 -0.8936064523 0.4436934902
1650290100.0 -0.8869170966 0.4558453196
1700289800.0 -0.8799919475 0.4691898402
1750289500.0 -0.8729763422 0.4814887071
1800289200.0 -0.8655549099 0.4946049532
1850288900.0 -0.8588484215 0.5058397733
1900288600.0 -0.8511797106 0.5187612771
1950288300.0 -0.8427962465 0.5314061572
2000288000.0 -0.8353402491 0.5428428717
2050287700.0 -0.8272230411 0.5552944724
2100287400.0 -0.8194144514 0.5667026657
2150287100.0 -0.8110572492 0.5788381133
2200286800.0 -0.8030665525 0.5894124699
2250286500.0 -0.7941958113 0.6015359426
2300286200.0 -0.7852880456 0.6127700578
2350285900.0 -0.7769630743 0.6233423238
2400285600.0 -0.7680780278 0.6343937473
2450285300.0 -0.7590775629 0.6450218696
2500285000.0 -0.7490490758 0.6568165199
2550284700.0 -0.7400639832 0.6668777929
2600284400.0 -0.7311231828 0.6769239257
2650284100.0 -0.722270595 0.6873146872
2700283800.0 -0.7118267778 0.6973931396
2750283500.0 -0.7015584065 0.708286794
2800283200.0 -0.6915671842 0.7183759277
2850282900.0 -0.681174738 0.7281643985
2900282600.0 -0.6707697229 0.737965858
2950282300.0 -0.6603768844 0.7473212127
3000282000.0 -0.6494623418 0.7565834854
3050281700.0 -0.6383590428 0.7661525201
3100281400.0 -0.6266883153 0.775205143
3150281100.0 -0.6154619906 0.7840710744
3200280800.0 -0.6040243915 0.7922406641
3250280500.0 -0.5931390322 0.8004924187
3300280200.0 -0.5814607473 0.8083878976
3350279900.0 -0.5692472191 0.8165895919
3400279600.0 -0.5565056769 0.8245598882
3450279300.0 -0.5453953673 0.8319000526
3500279000.0 -0.533715169 0.8385410373
3550278700.0 -0.521587566 0.8455621503
3600278400.0 -0.5097592654 0.8524746757
3650278100.0 -0.4967373728 0.8598742744
3700277800.0 -0.4847160574 0.8665754503
3750277500.0 -0.4721293727 0.8732273408
3800277200.0 -0.4598989877 0.8799099524
3850276900.0 -0.4477631132 0.8856954654
3900276600.0 -0.4369145974 0.8912600382
3950276300.0 -0.4247479175 0.8973048141
4000276000.0 -0.4129742744 0.9030915431
4050275700.0 -0.4003051855 0.9091785217
4100275400.0 -0.3891924125 0.9146463901
4150275100.0 -0.376174855 0.9203948342
4200274800.0 -0.3625519771 0.9262915747
4250274500.0 -0.3498140955 0.9315264512
4300274200.0 -0.3367433279 0.9369854292
4350273900.0 -0.3224167258 0.9424027265
4400273600.0 -0.3077267181 0.9473097022
4450273300.0 -0.2925660793 0.952259605
4500273000.0 -0.2795721394 0.9564378709
4550272700.0 -0.2660695194 0.9605603183
4600272400.0 -0.2509179514 0.964712946
4650272100.0 -0.2395374451 0.9677719175
4700271800.0 -0.2266783057 0.9711764162
4750271500.0 -0.2148397748 0.9739928783
4800271200.0 -0.2027789573 0.9767243509
4850270900.0 -0.1889834896 0.9795534342
4900270600.0 -0.1751436474 0.9819032682
4950270300.0 -0.1606388801 0.9846911772
5000270000.0 -0.1460886018 0.9867112732
5050269700.0 -0.1326430934 0.988038289
5100269400.0 -0.1184751554 0.9900220133
5150269100.0 -0.1046615265 0.9919627723
5200268800.0 -0.091133223 0.9928599263
5250268500.0 -0.0780699539 0.9938095697
5300268200.0 -0.0644086542 0.9945791455
5350267900.0 -0.0515098559 0.9955173257
5400267600.0 -0.0354607315 0.9963694717
5450267300.0 -0.0221146729 0.9968561631
5500267000.0 -0.0067272791 0.9970929482
5550266700.0 0.0082003471 0.9973106374
5600266400.0 0.0240342498 0.9972555445
5650266100.0 0.0405888757 0.9968084866
5700265800.0 0.0549276198 0.9959352974
5750265500.0 0.0698899548 0.9950257674
5800265200.0 0.0830302472 0.9942391817
5850264900.0 0.0968292782 0.9935056805
5900264600.0 0.11297305 0.9911754089
5950264300.0 0.1247067362 0.9897442274
6000264000.0 0.1382367771 0.9880544832
6050263700.0 0.1500726621 0.9866075482
6100263400.0 0.1620247601 0.9848201583
6150263100.0 0.1768132501 0.9827092996
6200262800.0 0.1863322055 0.9810320305
6250262500.0 0.1988901666 0.9784969764
6300262200.0 0.2111774532 0.9761396616
6350261900.0 0.2240218929 0.9734019574
6400261600.0 0.2379947803 0.9701636898
6450261300.0 0.2489718358 0.9678816892
6500261000.0 0.2622950925 0.9640436249
6550260700.0 0.2752692947 0.9600084045
6600260400.0 0.2890173525 0.955878842
6650260100.0 0.3028629147 0.9515565388
6700259800.0 0.3150523986 0.9473594009
6750259500.0 0.3289110223 0.9423956314
6800259200.0 0.3423065015 0.9373213256
6850258900.0 0.3546604282 0.9321258315
6900258600.0 0.3670627423 0.926686259
6950258300.0 0.3797507133 0.9215386764
7000258000.0 0.3913031354 0.9162110598
7050257700.0 0.4034218217 0.9105305058
7100257400.0 0.4166853645 0.904132673
7150257100.0 0.4275601007 0.8985616877
7200256800.0 0.4406774018 0.8921010369
7250256500.0 0.4531202302 0.8855847165
7300256200.0 0.4658266769 0.8787270089
7350255900.0 0.479189703 0.8714831608
7400255600.0 0.4933899408 0.8643817233
7450255300.0 0.5087362999 0.8549609358
7500255000.0 0.5208989855 0.8471005024
7550254700.0 0.535417341 0.8381469537
7600254400.0 0.5477501709 0.829899733
7650254100.0 0.5592963535 0.8219506997
7700253800.0 0.5712052522 0.8140516786
7750253500.0 0.5822125826 0.8061880695
7800253200.0 0.5927757446 0.7983723602
7850252900.0 0.6024361855 0.7911726092
7900252600.0 0.6138500758 0.7825928847
7950252300.0 0.6222742268 0.776163578
8000252000.0 0.6323422513 0.7685625159
8050251700.0 0.6428332977 0.7604026868
8100251400.0 0.6524837685 0.7526551899
8150251100.0 0.6623837064 0.7440235339
8200250800.0 0.6718663025 0.73583266
8250250500.0 0.6807792632 0.7280535151
8300250200.0 0.6898908943 0.7195798312
8350249900.0 0.6990878676 0.7106500938
8400249600.0 0.7070683553 0.702766565
8450249300.0 0.7160508906 0.6940713078
8500249000.0 0.7246511863 0.6852158495
8550248700.0 0.7327416021 0.6761756607
8600248400.0 0.7411527922 0.666821396
8650248100.0 0.7487597958 0.6574375323
8700247800.0 0.7580066416 0.646327612
8750247500.0 0.7663834904 0.6360839828
8800247200.0 0.7743174486 0.6259054539
8850246900.0 0.7831587675 0.6142903034
8900246600.0 0.7915074789 0.603043387
8950246300.0 0.8006126507 0.5903463519
9000246000.0 0.8092202023 0.5784651908
9050245700.0 0.8177296237 0.5658425117
9100245400.0 0.8261178457 0.5541528231
9150245100.0 0.8349489398 0.5409268934
9200244800.0 0.8445438758 0.5266357859
9250244500.0 0.8535932351 0.5115572123
9300244200.0 0.8616033046 0.4981597081
9350243900.0 0.8692178072 0.4850120454
9400243600.0 0.8758174171 0.4733607331
9450243300.0 0.8814610708 0.4629655529
9500243000.0 0.8876485333 0.4511625399
9550242700.0 0.8916950838 0.4436398911
9600242400.0 0.8958865437 0.4359381834
9650242100.0 0.9000819393 0.4292205182
9700241800.0 0.9047543699 0.4205502564
9750241500.0 0.9089711704 0.4127508709
9800241200.0 0.9141576214 0.4033220771
9850240900.0 0.9201789601 0.3915489336
9900240600.0 0.9261846549 0.3797638392
9950240300.0 0.9332469608 0.3628800101
10000240000.0 0.9378262454 0.3509226607
10050239700.0 0.9437276496 0.3349858447
10100239400.0 0.949441269 0.3186805234
10150239100.0 0.9540569231 0.3028844228
10200238800.0 0.9584552942 0.2875061129
10250238500.0 0.9617512954 0.2742022946
10300238200.0 0.9646523841 0.2602029252
10350237900.0 0.9675048507 0.2469895673
10400237600.0 0.970164139 0.2331621894
10450237300.0 0.9727232301 0.219955888
10500237000.0 0.9750075029 0.2071696466
10550236700.0 0.9772857312 0.1927722695
10600236400.0 0.9795643858 0.1791024622
10650236100.0 0.9815819814 0.1642834677
10700235800.0 0.9837349508 0.1517951831
10750235500.0 0.9859719415 0.1385596835
10800235200.0 0.9882515819 0.1239748279
10850234900.0 0.9900980518 0.1092166848
10900234600.0 0.9920328335 0.0946477291
10950234300.0 0.9938350366 0.0809325185
11000234000.0 0.995651501 0.0652521685
11050233700.0 0.9974632199 0.0487230024
11100233400.0 0.999020134 0.0308555137
11150233100.0 1.000316217 0.0140093927
11200232800.0 1.000840647 -0.0017788081
11250232500.0 1.001974744 -0.0196094348
11300232200.0 1.00252669 -0.0383132979
11350231900.0 1.002578267 -0.0545814735
11400231600.0 1.002071022 -0.0710387951
11450231300.0 1.001194813 -0.0862902812
11500231000.0 0.9999396786 -0.1022375014
11550230700.0 0.9986572572 -0.1149840793
11600230400.0 0.9979196185 -0.1278820502
11650230100.0 0.9952212093 -0.1393028282
11700229800.0 0.992441218 -0.1542794613
11750229500.0 0.9903194859 -0.1687825285
11800229200.0 0.9875754828 -0.1821859197
11850228900.0 0.9836087326 -0.1938475837
11900228600.0 0.9799738172 -0.2032775377
11950228300.0 0.9765401557 -0.2133043188
12000228000.0 0.9735053504 -0.2222910992
12050227700.0 0.9697710273 -0.2349749589
12100227400.0 0.9668121666 -0.2453788185
12150227100.0 0.9614503787 -0.2622346121
12200226800.0 0.9578921955 -0.273777952
12250226500.0 0.9533610573 -0.2863754805
12300226200.0 0.949580366 -0.2981968389
12350225900.0 0.9445600569 -0.3130953853
12400225600.0 0.9402846481 -0.3246422157
12450225300.0 0.9357735915 -0.3373790427
12500225000.0 0.92996428 -0.3520658606
12550224700.0 0.9248200428 -0.3656635479
12600224400.0 0.9199585573 -0.3784066567
12650224100.0 0.9140762034 -0.3928064202
12700223800.0 0.9087127215 -0.4055380871
12750223500.0 0.9034450289 -0.4186470354
12800223200.0 0.8977589429 -0.4311774768
12850222900.0 0.8927331206 -0.4432991913
12900222600.0 0.8868182401 -0.4554888034
12950222300.0 0.8809937082 -0.4681064388
13000222000.0 0.8754286221 -0.4790622454
13050221700.0 0.8683311252 -0.4922054053
13100221400.0 0.8613584838 -0.5047327924
13150221100.0 0.8548703991 -0.5169871933
13200220800.0 0.8474664583 -0.5281582479
13250220500.0 0.8403448616 -0.5406994121
13300220200.0 0.8330397791 -0.5515769701
13350219900.0 0.8246613439 -0.5633437994
13400219600.0 0.8161230309 -0.5752469231
13450219300.0 0.8072885135 -0.5881855168
13500219000.0 0.7969601748 -0.6017980481
13550218700.0 0.7876887888 -0.6137653885
13600218400.0 0.7777272283 -0.6255421166
13650218100.0 0.7677530775 -0.6364461329
13700217800.0 0.7568052378 -0.648509589
13750217500.0 0.7477159956 -0.6590181933
13800217200.0 0.7364357503 -0.6704744319
13850216900.0 0.7253827348 -0.6819555785
13900216600.0 0.7150988681 -0.6903454523
13950216300.0 0.7051056654 -0.7010021809
14000216000.0 0.694764826 -0.709846394
14050215700.0 0.6858842768 -0.7175924922
14100215400.0 0.6762382438 -0.7268899683
14150215100.0 0.667233817 -0.7351310511
14200214800.0 0.6577363672 -0.7440888904
14250214500.0 0.6474136748 -0.7536651258
14300214200.0 0.6369614318 -0.7631041704
14350213900.0 0.6257997799 -0.7726378822
14400213600.0 0.6142565362 -0.7826612988
14450213300.0 0.6011900426 -0.7926978626
14500213000.0 0.5877999153 -0.803223931
14550212700.0 0.5756603175 -0.8119148427
14600212400.0 0.5628038882 -0.8208661855
14650212100.0 0.5501552432 -0.8293908257
14700211800.0 0.5371662138 -0.8388920926
14750211500.0 0.5244246578 -0.8474233128
14800211200.0 0.5123700221 -0.8555590215
14850210900.0 0.4998877154 -0.8631320738
14900210600.0 0.4865520089 -0.8711620632
14950210300.0 0.4732497048 -0.8788103362
15000210000.0 0.4605165555 -0.8854597621
15050209700.0 0.4481823924 -0.8915936154
15100209400.0 0.4352868487 -0.8973695372
15150209100.0 0.4234147167 -0.9028401262
15200208800.0 0.410290296 -0.908216483
15250208500.0 0.3993980233 -0.9129794811
15300208200.0 0.3872379581 -0.917069723
15350207900.0 0.3735944354 -0.9222498539
15400207600.0 0.3592236652 -0.9274891194
15450207300.0 0.3449157648 -0.9318953012
15500207000.0 0.3300962869 -0.9371050309
15550206700.0 0.315185916 -0.9424462609
15600206400.0 0.299270638 -0.946255908
15650206100.0 0.2835386301 -0.9509825595
15700205800.0 0.2701378425 -0.9544896338
15750205500.0 0.2561500981 -0.957787879
15800205200.0 0.2418948323 -0.961272285
15850204900.0 0.227779701 -0.9647715619
15900204600.0 0.2127973425 -0.9684569893
15950204300.0 0.1983847893 -0.9714643807
16000204000.0 0.1839251835 -0.9746528549
16050203700.0 0.1691193661 -0.9775709629
16100203400.0 0.1540026574 -0.9800494759
16150203100.0 0.1390214148 -0.9819644044
16200202800.0 0.1252934222 -0.984209099
16250202500.0 0.1102628146 -0.9861507316
16300202200.0 0.0946588964 -0.987889342
16350201900.0 0.0797994928 -0.9889406225
16400201600.0 0.0649591242 -0.9902048747
16450201300.0 0.0495844835 -0.9913491073
16500201000.0 0.0326013634 -0.9920923056
16550200700.0 0.0164745436 -0.9924559295
16600200400.0 0.0004623089 -0.9927061802
16650200100.0 -0.0158499744 -0.9925587434
16700199800.0 -0.0319752971 -0.9925819639
16750199500.0 -0.0511858324 -0.9918473244
16800199200.0 -0.0666229617 -0.9904287238
16850198900.0 -0.0829607198 -0.9891517006
16900198600.0 -0.0965526006 -0.9884242701
16950198300.0 -0.1109485425 -0.9869339614
17000198000.0 -0.1232011693 -0.9856700491
17050197700.0 -0.1364821499 -0.9838120256
17100197400.0 -0.1491039704 -0.9821084752
17150197100.0 -0.1617249449 -0.9793612686
17200196800.0 -0.1749384982 -0.9778801143
17250196500.0 -0.1877059976 -0.9755219943
17300196200.0 -0.1999831996 -0.9730117295
17350195900.0 -0.2114899144 -0.970699745
17400195600.0 -0.2235685304 -0.968072416
17450195300.0 -0.2364209512 -0.9652402071
17500195000.0 -0.2497882296 -0.9619395819
17550194700.0 -0.2632499592 -0.9586003393
17600194400.0 -0.2774360067 -0.9543809844
17650194100.0 -0.290512125 -0.9504983542
17700193800.0 -0.3037058192 -0.9461620865
17750193500.0 -0.3180273347 -0.9420696294
17800193200.0 -0.3317747593 -0.9364880731
17850192900.0 -0.3472239861 -0.9313513843
17900192600.0 -0.3619492114 -0.9249647281
17950192300.0 -0.3778223208 -0.9175062101
18000192000.0 -0.3922500027 -0.910691327
18050191700.0 -0.4061686634 -0.9026908457
18100191400.0 -0.4202679437 -0.8950389936
18150191100.0 -0.4350146146 -0.8871338738
18200190800.0 -0.4520736704 -0.8777498831
18250190500.0 -0.4689116893 -0.8683653013
18300190200.0 -0.4843741905 -0.8592278935
18350189900.0 -0.4998492184 -0.8505251306
18400189600.0 -0.5139896813 -0.8428061988
18450189300.0 -0.5275806974 -0.8345899027
18500189000.0 -0.5408316901 -0.8263182724
18550188700.0 -0.554393084 -0.8186687417
18600188400.0 -0.5658720125 -0.8118327342
18650188100.0 -0.5772731064 -0.8052392138
18700187800.0 -0.588139345 -0.7986882736
18750187500.0 -0.5990085238 -0.7921064393
18800187200.0 -0.6095783659 -0.7849899056
18850186900.0 -0.6198881617 -0.77811824
18900186600.0 -0.6301712464 -0.7708491593
18950186300.0 -0.6403645175 -0.7631545165
19000186000.0 -0.6478770298 -0.7567424543
19050185700.0 -0.6573376748 -0.7499242821
19100185400.0 -0.6670585346 -0.7415181025
19150185100.0 -0.6772271048 -0.7333156059
19200184800.0 -0.686289112 -0.7250567045
19250184500.0 -0.6969659126 -0.7154879304
19300184200.0 -0.7076796442 -0.7063606922
19350183900.0 -0.7189961907 -0.696579767
19400183600.0 -0.7282088986 -0.6873485169
19450183300.0 -0.7372955735 -0.6766439825
19500183000.0 -0.7460473844 -0.6661799792
19550182700.0 -0.7555169545 -0.6558241116
19600182400.0 -0.7658533243 -0.6442651138
19650182100.0 -0.7761184705 -0.632009005
19700181800.0 -0.7867062645 -0.6182708785
19750181500.0 -0.7970116855 -0.6042862248
19800181200.0 -0.8071402765 -0.5894288918
19850180900.0 -0.8168127804 -0.5742000007
19900180600.0 -0.8242909031 -0.5597624737
19950180300.0 -0.8336155491 -0.5434302334
20000180000.0 -0.8235402249 -0.5473310828
20050179700.0 -0.831567647 -0.5345564945
20100179400.0 -0.8399438724 -0.5211172954
20150179100.0 -0.8472633598 -0.5097236653
20200178800.0 -0.85674313 -0.4979967547
20250178500.0 -0.8653930458 -0.4853490264
20300178200.0 -0.8746581842 -0.4720898293
20350177900.0 -0.8845603868 -0.4574398094
20400177600.0 -0.8937168991 -0.4436263297
20450177300.0 -0.9021635506 -0.4292243919
20500177000.0 -0.9101295713 -0.4151021823
20550176700.0 -0.9182863947 -0.401850537
20600176400.0 -0.924853951 -0.3888092675
20650176100.0 -0.9311810273 -0.3767677231
20700175800.0 -0.9381058803 -0.3644439736
20750175500.0 -0.9443927078 -0.3530705641
20800175200.0 -0.9501220356 -0.3421091957
20850174900.0 -0.9537927999 -0.3316739134
20900174600.0 -0.9583011099 -0.3199834895
20950174300.0 -0.9605502455 -0.3096996771
21000174000.0 -0.9644493446 -0.2987807386
21050173700.0 -0.9666407563 -0.2899906734
21100173400.0 -0.9694785189 -0.2783989179
21150173100.0 -0.9731343344 -0.2672376359
21200172800.0 -0.9769857842 -0.2538251522
21250172500.0 -0.9807059274 -0.2397350177
21300172200.0 -0.9838164678 -0.2258061838
21350171900.0 -0.98590404 -0.2115431141
21400171600.0 -0.9879175445 -0.1975016075
21450171300.0 -0.989167362 -0.1828198866
21500171000.0 -0.9886466841 -0.1681376906
21550170700.0 -0.9893585942 -0.1534939689
21600170400.0 -0.9908527223 -0.1376391581
21650170100.0 -0.9905567682 -0.1222738537
21700169800.0 -0.9894333457 -0.1072865378
21750169500.0 -0.9907819632 -0.08977735
21800169200.0 -0.9899450548 -0.0736454424
21850168900.0 -0.9894778574 -0.0570747463
21900168600.0 -0.9893948771 -0.0405212232
21950168300.0 -0.9887049936 -0.0257183335
22000168000.0 -0.989222546 -0.0102203868
22050167700.0 -0.9894155499 0.0044422737
22100167400.0 -0.9900235593 0.0201863393
22150167100.0 -0.9912578677 0.0363595111
22200166800.0 -0.9919466415 0.0530171482
22250166500.0 -0.9913764942 0.0701244635
22300166200.0 -0.9907555027 0.0861922664
22350165900.0 -0.9891750657 0.1033421718
22400165600.0 -0.9881289586 0.1178561359
22450165300.0 -0.9857324676 0.1325105963
22500165000.0 -0.9843762699 0.1480874912
22550164700.0 -0.9829214624 0.16417438
22600164400.0 -0.9814720261 0.1797812186
22650164100.0 -0.9785407816 0.1957431432
22700163800.0 -0.974998778 0.2124031691
22750163500.0 -0.9721318349 0.2268888102
22800163200.0 -0.9691582089 0.2395220699
22850162900.0 -0.9663121695 0.2530316894
22900162600.0 -0.9642151591 0.2670392592
22950162300.0 -0.9628536293 0.2805064607
23000162000.0 -0.9610096875 0.2933902488
23050161700.0 -0.9585399228 0.3060615946
23100161400.0 -0.9559633748 0.3201386624
23150161100.0 -0.9527226522 0.3329829638
23200160800.0 -0.9494027461 0.3456941907
23250160500.0 -0.9469842482 0.3575957644
23300160200.0 -0.9442835676 0.3711496033
23350159900.0 -0.9397644691 0.384460303
23400159600.0 -0.9355675389 0.398130157
23450159300.0 -0.9296854833 0.411598999
23500159000.0 -0.9253953166 0.4257632464
23550158700.0 -0.9198639783 0.4396615887
23600158400.0 -0.9143105141 0.4539832209
23650158100.0 -0.9070489041 0.4686419618
23700157800.0 -0.898605205 0.4829003601
23750157500.0 -0.8892703471 0.49705165
23800157200.0 -0.8794212933 0.5102699633
23850156900.0 -0.8698832363 0.5230864359
23900156600.0 -0.8600692442 0.5356506944
23950156300.0 -0.8506639375 0.5484685401
24000156000.0 -0.8407902235 0.5609546612
24050155700.0 -0.8302108799 0.5729813682
24100155400.0 -0.82029528 0.5857266717
24150155100.0 -0.8089013237 0.597386014
24200154800.0 -0.7977203839 0.6098273242
24250154500.0 -0.7865037977 0.6218519859
24300154200.0 -0.7748001722 0.6337763661
24350153900.0 -0.7630159972 0.644965515
24400153600.0 -0.7504341672 0.655366756
24450153300.0 -0.7385375148 0.6655765651
24500153000.0 -0.7271338827 0.6757691855
24550152700.0 -0.7158964061 0.6856587848
24600152400.0 -0.7037090957 0.6950674346
