!Created with skrf (http://scikit-rf.org).
# Hz S RI R 50.0 
!freq ReS11 ImS11
300000.0 -0.9754476174 -0.1182965647
50299700.0 -1.000035616 0.0152619855
100299400.0 -0.9979997555 0.0284299423
150299100.0 -1.002859735 0.0451942902
200298800.0 -0.9996473676 0.0585600744
250298500.0 -0.9973147208 0.0719574319
300298200.0 -0.9860199391 0.0876457702
350297900.0 -0.9940604638 0.0986584577
400297600.0 -0.9931271504 0.1152086205
450297300.0 -0.990887165 0.1289409586
500297000.0 -0.9894976398 0.1438130268
550296700.0 -0.9843490783 0.1561310311
600296400.0 -1.017456215 0.1892532383
650296100.0 -0.9823025231 0.1861004083
700295800.0 -0.9792688153 0.2005467769
750295500.0 -0.9765190144 0.2144887811
800295200.0 -0.9729439459 0.2285464183
850294900.0 -0.9694563908 0.2421873427
900294600.0 -0.9658483125 0.2559363977
950294300.0 -0.9621838306 0.2696877267
1000294000.0 -0.9580046488 0.2838345847
1050293700.0 -0.9536522737 0.2977711299
1100293400.0 -0.9493915895 0.3118879827
1150293100.0 -0.9452859682 0.323807962
1200292800.0 -0.9403688213 0.338194364
1250292500.0 -0.9347058732 0.3515597193
1300292200.0 -0.9289657487 0.3647440912
1350291900.0 -0.9234290032 0.3788185248
1400291600.0 -0.9178422498 0.3919727653
1450291300.0 -0.9124747698 0.4042826379
1500291000.0 -0.9063611453 0.4177534985
1550290700.0 -0.8996332562 0.4311538816
1600290400.0 -0.8931401658 0.44396407
1650290100.0 -0.8867748409 0.4560935487
1700289800.0 -0.8800615962 0.4696363573
1750289500.0 -0.8728649445 0.4816714399
1800289200.0 -0.8654565072 0.4946722125
1850288900.0 -0.8588801366 0.5060522864
1900288600.0 -0.8509322713 0.5191024417
1950288300.0 -0.8428597335 0.5317188623
2000288000.0 -0.8354272141 0.5429849651
2050287700.0 -0.8270529811 0.5553166476
2100287400.0 -0.8192593108 0.5670364801
2150287100.0 -0.8105379096 0.579055713
2200286800.0 -0.8029905848 0.5893211526
2250286500.0 -0.7943125939 0.6014350146
2300286200.0 -0.7852849355 0.6128005104
2350285900.0 -0.7765635852 0.6239874764
2400285600.0 -0.7675058451 0.6348314333
2450285300.0 -0.7589904164 0.6452644058
2500285000.0 -0.749116397 0.6566741132
2550284700.0 -0.740369194 0.6670603729
2600284400.0 -0.7309203294 0.6770569584
2650284100.0 -0.7220585646 0.687806163
2700283800.0 -0.7114607162 0.6981641316
2750283500.0 -0.7013250193 0.7087127112
2800283200.0 -0.6913997113 0.7185536305
2850282900.0 -0.6809304297 0.7281945532
2900282600.0 -0.6706658845 0.7378897236
2950282300.0 -0.6607153865 0.7471125516
3000282000.0 -0.6497228675 0.7567037686
3050281700.0 -0.6383853074 0.7657986713
3100281400.0 -0.6269230716 0.7752782538
3150281100.0 -0.614952539 0.7846137679
3200280800.0 -0.6033427939 0.7930955109
3250280500.0 -0.5924225662 0.8008438259
3300280200.0 -0.5812668121 0.8087547702
3350279900.0 -0.5695146826 0.8164392675
3400279600.0 -0.557413725 0.8238648074
3450279300.0 -0.5462000455 0.8312041497
3500279000.0 -0.5343227322 0.8383559329
3550278700.0 -0.5220208835 0.8457353272
3600278400.0 -0.5098064032 0.8526802322
3650278100.0 -0.4965156457 0.8602555962
3700277800.0 -0.4843752527 0.8667124203
3750277500.0 -0.4723437804 0.873335018
3800277200.0 -0.459971113 0.8797870745
3850276900.0 -0.4478408486 0.8857075433
3900276600.0 -0.4368971128 0.8914148359
3950276300.0 -0.4244211796 0.8974409854
4000276000.0 -0.4125600461 0.9032699217
4050275700.0 -0.3996914697 0.9097380157
4100275400.0 -0.3886993725 0.9149305699
4150275100.0 -0.3755864607 0.9206049064
4200274800.0 -0.3627837249 0.9259083708
4250274500.0 -0.3505650944 0.9310613247
4300274200.0 -0.33740796 0.9366995237
4350273900.0 -0.3237671927 0.9419275932
4400273600.0 -0.3088686478 0.9470514048
4450273300.0 -0.2935938661 0.9521569212
4500273000.0 -0.2799222643 0.9565979884
4550272700.0 -0.2658260522 0.9607975802
4600272400.0 -0.2502922628 0.9648394246
4650272100.0 -0.238658219 0.9681254068
4700271800.0 -0.2253738394 0.9716030046
4750271500.0 -0.2137601798 0.9743686174
4800271200.0 -0.2011964957 0.977245294
4850270900.0 -0.1872992753 0.9799591807
4900270600.0 -0.1733087612 0.9822451923
4950270300.0 -0.1591538856 0.9849109979
5000270000.0 -0.1448967202 0.9870083831
5050269700.0 -0.1312666586 0.9887248815
5100269400.0 -0.1178283922 0.9901437371
5150269100.0 -0.1042452196 0.9921740307
5200268800.0 -0.0910149191 0.9931622567
5250268500.0 -0.0779612742 0.9938010513
5300268200.0 -0.0648342842 0.9950095166
5350267900.0 -0.0525295383 0.9951401249
5400267600.0 -0.0362859751 0.9963486764
5450267300.0 -0.0233126292 0.9968103624
5500267000.0 -0.008035685 0.9970032043
5550266700.0 0.006994381 0.9973661044
5600266400.0 0.0222964343 0.9970402199
5650266100.0 0.0389628919 0.9971875355
5700265800.0 0.0532533312 0.9962134579
5750265500.0 0.0686690856 0.9956826622
5800265200.0 0.0827292493 0.994546184
5850264900.0 0.0958475768 0.9934749586
5900264600.0 0.1122745077 0.991718321
5950264300.0 0.1240329105 0.9896714908
6000264000.0 0.1380374351 0.9883165712
6050263700.0 0.1510003252 0.9872709152
6100263400.0 0.1631385541 0.9849924395
6150263100.0 0.1779371389 0.9827850462
6200262800.0 0.1880530479 0.9807930225
6250262500.0 0.2006779875 0.9786017737
6300262200.0 0.2133535078 0.9758646612
6350261900.0 0.2266464336 0.9729777374
6400261600.0 0.2404100221 0.9693303495
6450261300.0 0.251749716 0.9668184228
6500261000.0 0.2646164875 0.9634821289
6550260700.0 0.2775608264 0.9593890158
6600260400.0 0.2909193813 0.9554314384
6650260100.0 0.3048381415 0.9511253074
6700259800.0 0.3165832016 0.9465413385
6750259500.0 0.33034661 0.9414713077
6800259200.0 0.3439414327 0.9368718039
6850258900.0 0.3558810248 0.9317429101
6900258600.0 0.3679832493 0.9264976117
6950258300.0 0.3806316915 0.9211195109
7000258000.0 0.3926545988 0.9158575119
7050257700.0 0.4048646143 0.9098788319
7100257400.0 0.4177143123 0.9035500417
7150257100.0 0.4281012199 0.898285043
7200256800.0 0.440660985 0.8919322651
7250256500.0 0.4527177528 0.8853821271
7300256200.0 0.4660036098 0.878752525
7350255900.0 0.4782639323 0.8719221292
7400255600.0 0.4916815383 0.8646452204
7450255300.0 0.5066972966 0.8556468727
7500255000.0 0.5184510159 0.8485731739
7550254700.0 0.5323464775 0.8398677099
7600254400.0 0.5448500516 0.8318484028
7650254100.0 0.5564617309 0.8239475231
7700253800.0 0.5682221484 0.8160830176
7750253500.0 0.5795722459 0.8082933002
7800253200.0 0.5903975309 0.800574956
7850252900.0 0.5999633697 0.7934852062
7900252600.0 0.6116362087 0.7847677318
7950252300.0 0.6204043372 0.7783188378
8000252000.0 0.6307929893 0.7705320745
8050251700.0 0.6410255701 0.7624764824
8100251400.0 0.6510306154 0.7542433132
8150251100.0 0.6610446889 0.7455851153
8200250800.0 0.6704738463 0.7376605502
8250250500.0 0.6791619363 0.7298199771
8300250200.0 0.6889454641 0.7209953595
8350249900.0 0.6981220988 0.7123105511
8400249600.0 0.7061307671 0.704448488
8450249300.0 0.7154444019 0.6949312908
8500249000.0 0.7237688956 0.6864227955
8550248700.0 0.7322021758 0.6771261031
8600248400.0 0.7406258071 0.6677082747
8650248100.0 0.7484176181 0.6582749714
8700247800.0 0.7579741691 0.6472028512
8750247500.0 0.766065149 0.6370711419
8800247200.0 0.774352523 0.6266417891
8850246900.0 0.7831807081 0.6152915308
8900246600.0 0.7916417637 0.603885146
8950246300.0 0.801117053 0.5908429748
9000246000.0 0.8105774524 0.578356816
9050245700.0 0.8197285202 0.5655124998
9100245400.0 0.8282202643 0.552730335
9150245100.0 0.8374890069 0.5392041832
9200244800.0 0.8474657601 0.5242079747
9250244500.0 0.8565240711 0.5086718629
9300244200.0 0.8647714521 0.4942749727
9350243900.0 0.8726916273 0.4804055323
9400243600.0 0.8793078727 0.4680513346
9450243300.0 0.8850802843 0.4566012415
9500243000.0 0.8915665372 0.4443144652
9550242700.0 0.8952741185 0.4367741553
9600242400.0 0.8992805048 0.4293012656
9650242100.0 0.9028112158 0.4229140452
9700241800.0 0.9076576834 0.4145377954
9750241500.0 0.9115778722 0.4073122388
9800241200.0 0.9161787809 0.3980126743
9850240900.0 0.9219834607 0.3862525067
9900240600.0 0.9276436073 0.3746084074
9950240300.0 0.9341931909 0.3585280042
10000240000.0 0.9388058884 0.3470436237
10050239700.0 0.9448361213 0.3313935344
10100239400.0 0.9495367602 0.3159666995
10150239100.0 0.9538466153 0.3014823541
10200238800.0 0.9580828846 0.2861623753
10250238500.0 0.9615043267 0.2728593732
10300238200.0 0.964530557 0.259059007
10350237900.0 0.9671326254 0.2458807931
10400237600.0 0.9696626288 0.2325444797
10450237300.0 0.9724036032 0.2188792876
10500237000.0 0.9747795182 0.2066059267
10550236700.0 0.9772112617 0.1919329199
10600236400.0 0.9792120162 0.1790780871
10650236100.0 0.9812108927 0.1641909833
10700235800.0 0.9833128824 0.1518080332
10750235500.0 0.9859848554 0.1384481932
10800235200.0 0.9876549259 0.124598082
10850234900.0 0.9898123821 0.1097325572
10900234600.0 0.9917117846 0.0954257808
10950234300.0 0.9933196954 0.0820543066
11000234000.0 0.9951397086 0.0670578372
11050233700.0 0.9970121621 0.050680095
11100233400.0 0.9983813455 0.0329845287
11150233100.0 0.9995446607 0.0171510214
11200232800.0 1.000252832 0.0024147871
11250232500.0 1.001051315 -0.0143744648
11300232200.0 1.001735012 -0.0325928249
11350231900.0 1.001847743 -0.0480519915
11400231600.0 1.001512069 -0.0633334677
11450231300.0 1.001606575 -0.0797076781
11500231000.0 1.000022835 -0.0951473319
11550230700.0 0.9983056787 -0.1093126115
11600230400.0 0.9973209363 -0.1208470126
11650230100.0 0.994898226 -0.1326270954
11700229800.0 0.9933492017 -0.1472521065
11750229500.0 0.9909629125 -0.1614710147
11800229200.0 0.9883463782 -0.1754621517
11850228900.0 0.984627693 -0.1878031396
11900228600.0 0.9812943386 -0.19774615
11950228300.0 0.9780032998 -0.2079668743
12000228000.0 0.9752210466 -0.2169623573
12050227700.0 0.9712016518 -0.2298827993
12100227400.0 0.9686480987 -0.2404159411
12150227100.0 0.9634567614 -0.2575681149
12200226800.0 0.959539373 -0.2689857982
12250226500.0 0.9553684679 -0.2822846498
12300226200.0 0.951955044 -0.2936989525
12350225900.0 0.9467202825 -0.3073511613
12400225600.0 0.9425729846 -0.3208010365
12450225300.0 0.9376930334 -0.3332086683
12500225000.0 0.9326558484 -0.348064632
12550224700.0 0.9270889729 -0.3619188532
12600224400.0 0.9220975353 -0.3747965296
12650224100.0 0.916316983 -0.3892537082
12700223800.0 0.9110432565 -0.4021185477
12750223500.0 0.905603555 -0.4151397777
12800223200.0 0.9004409495 -0.4274474577
12850222900.0 0.8949176361 -0.4399531384
12900222600.0 0.8892944696 -0.4520825488
12950222300.0 0.8825346405 -0.4649484394
13000222000.0 0.8770627808 -0.476051327
13050221700.0 0.8704464729 -0.4889704129
13100221400.0 0.8636616611 -0.5005636328
13150221100.0 0.8563234381 -0.5129706684
13200220800.0 0.8499756095 -0.5244825382
13250220500.0 0.8427241433 -0.5364156227
13300220200.0 0.8353447584 -0.5474188523
13350219900.0 0.8272245475 -0.5593244249
13400219600.0 0.8189716283 -0.5713639798
13450219300.0 0.8096605544 -0.5848319345
13500219000.0 0.7994435039 -0.598869889
13550218700.0 0.7890494704 -0.611434758
13600218400.0 0.7790197323 -0.6234256466
13650218100.0 0.7695375816 -0.6347008162
13700217800.0 0.758664654 -0.6471813044
13750217500.0 0.7486925029 -0.6583320166
13800217200.0 0.7376032976 -0.6700199538
13850216900.0 0.7265790621 -0.6820065611
13900216600.0 0.7171204933 -0.6894082956
13950216300.0 0.7056823917 -0.7009002333
14000216000.0 0.6952806959 -0.7097415242
14050215700.0 0.686342408 -0.7183816812
14100215400.0 0.6763066259 -0.7278097324
14150215100.0 0.6673993426 -0.7362270121
14200214800.0 0.6576256432 -0.7448156353
14250214500.0 0.6473964398 -0.7541847896
14300214200.0 0.6369133822 -0.763466719
14350213900.0 0.625862735 -0.7731988307
14400213600.0 0.6140470997 -0.7828259999
14450213300.0 0.6010082735 -0.7930720435
14500213000.0 0.5879037628 -0.8030032469
14550212700.0 0.5755905884 -0.8126024002
14600212400.0 0.5629165424 -0.8215062345
14650212100.0 0.5499146832 -0.8301294705
14700211800.0 0.5360378114 -0.8393198388
14750211500.0 0.5238188753 -0.8477674674
14800211200.0 0.5116517597 -0.855850689
14850210900.0 0.4997014594 -0.8633930492
14900210600.0 0.4863006183 -0.8712896705
14950210300.0 0.4728483399 -0.8787410285
15000210000.0 0.4602309556 -0.8854647372
15050209700.0 0.4479171718 -0.8915630376
15100209400.0 0.4353671275 -0.8973586718
15150209100.0 0.4231512839 -0.9035908346
15200208800.0 0.4101121983 -0.9081445783
15250208500.0 0.3993728086 -0.9131147581
15300208200.0 0.3870239097 -0.9176971624
15350207900.0 0.3732356235 -0.9225535598
15400207600.0 0.3591205114 -0.9284996212
15450207300.0 0.345457688 -0.9326890879
15500207000.0 0.3298999871 -0.9375853144
15550206700.0 0.3149684442 -0.9422031177
15600206400.0 0.2990976635 -0.9470513748
15650206100.0 0.2834657395 -0.9509560749
15700205800.0 0.2694981613 -0.9551565596
15750205500.0 0.255005937 -0.9583861186
15800205200.0 0.2405554247 -0.9620539867
15850204900.0 0.2262465529 -0.9653124323
15900204600.0 0.2111705463 -0.9688905809
15950204300.0 0.1971182793 -0.9719692415
16000204000.0 0.1829285298 -0.9748737789
16050203700.0 0.1674584922 -0.9775952193
16100203400.0 0.1534264339 -0.9797726465
16150203100.0 0.1391099138 -0.9826327002
16200202800.0 0.1247138487 -0.9842439448
16250202500.0 0.1098952518 -0.9860869592
16300202200.0 0.0943612055 -0.9878340046
16350201900.0 0.0795945656 -0.9890512528
16400201600.0 0.0648156418 -0.9901790222
16450201300.0 0.0496705165 -0.991441818
16500201000.0 0.0331320653 -0.9920173959
16550200700.0 0.0172620733 -0.9925809436
16600200400.0 0.0019338165 -0.9928138663
16650200100.0 -0.0141148198 -0.9929966262
16700199800.0 -0.0307176301 -0.992228041
16750199500.0 -0.0495626732 -0.991281733
16800199200.0 -0.0647249508 -0.9912297546
16850198900.0 -0.0799967556 -0.989821416
16900198600.0 -0.0938648317 -0.9889344609
16950198300.0 -0.1076664685 -0.98829923
17000198000.0 -0.120261408 -0.9855010219
17050197700.0 -0.1321865671 -0.9847902167
17100197400.0 -0.1463031099 -0.9821963129
17150197100.0 -0.1590570206 -0.980160275
17200196800.0 -0.171194554 -0.9781689157
17250196500.0 -0.1841109822 -0.9759695013
17300196200.0 -0.1966602661 -0.9735963258
17350195900.0 -0.2084303735 -0.9714731694
17400195600.0 -0.2206906152 -0.9688176537
17450195300.0 -0.2335179069 -0.9659610046
17500195000.0 -0.2472293179 -0.96253434
17550194700.0 -0.2611596497 -0.9592182382
17600194400.0 -0.2748538224 -0.955045357
17650194100.0 -0.2887458005 -0.9505314818
17700193800.0 -0.3019156123 -0.9467452599
17750193500.0 -0.316228558 -0.942377071
17800193200.0 -0.3309719938 -0.9372434466
17850192900.0 -0.3456696761 -0.9320282707
17900192600.0 -0.3608028174 -0.9258350769
17950192300.0 -0.3763309376 -0.9182279794
18000192000.0 -0.391283318 -0.9111983917
18050191700.0 -0.4051681661 -0.903336264
18100191400.0 -0.4194577095 -0.8958315551
18150191100.0 -0.4344825074 -0.8877312792
18200190800.0 -0.4512755473 -0.8785594838
18250190500.0 -0.4681552413 -0.8691598985
18300190200.0 -0.4838364051 -0.8604625101
18350189900.0 -0.4986709646 -0.8521305325
18400189600.0 -0.5127088598 -0.8433045751
18450189300.0 -0.5262701449 -0.8356120368
18500189000.0 -0.5394265866 -0.8281349247
18550188700.0 -0.5520856578 -0.8207408592
18600188400.0 -0.5643404969 -0.8138002647
18650188100.0 -0.5752811703 -0.8071441217
18700187800.0 -0.5858384834 -0.8008458504
18750187500.0 -0.5966806185 -0.7940220552
18800187200.0 -0.6073272974 -0.7871756306
18850186900.0 -0.6174256066 -0.7802571735
18900186600.0 -0.6275113725 -0.7728672642
18950186300.0 -0.637430504 -0.7650646507
19000186000.0 -0.6448275875 -0.7592845982
19050185700.0 -0.6542049316 -0.7518489466
19100185400.0 -0.6640235871 -0.7431756298
19150185100.0 -0.6741675899 -0.7351138866
19200184800.0 -0.6834677876 -0.7268140045
19250184500.0 -0.6937549973 -0.7172901034
19300184200.0 -0.7052470006 -0.7084183012
19350183900.0 -0.7164450319 -0.697814723
19400183600.0 -0.725153739 -0.6884115684
19450183300.0 -0.734196154 -0.6778875016
19500183000.0 -0.7429862576 -0.6683675224
19550182700.0 -0.7527034993 -0.6578067711
19600182400.0 -0.7626309428 -0.6457139633
19650182100.0 -0.7737541969 -0.6333274384
19700181800.0 -0.7844975116 -0.6199814826
19750181500.0 -0.7951950236 -0.605938972
19800181200.0 -0.8055862643 -0.5909181404
19850180900.0 -0.8154189534 -0.5756006318
19900180600.0 -0.8232239174 -0.5609215672
19950180300.0 -0.8323566405 -0.5447900836
20000180000.0 -0.8254529772 -0.5474312481
20050179700.0 -0.8336564097 -0.533979589
20100179400.0 -0.842771307 -0.5206467543
20150179100.0 -0.8499627263 -0.5074159145
20200178800.0 -0.8597820156 -0.4948448349
20250178500.0 -0.8686867076 -0.4816084536
20300178200.0 -0.8780594722 -0.4667734264
20350177900.0 -0.8877125065 -0.4524592814
20400177600.0 -0.8961002078 -0.4379474065
20450177300.0 -0.9047143896 -0.4239461238
20500177000.0 -0.9127855623 -0.4099829739
20550176700.0 -0.9206556353 -0.3965276431
20600176400.0 -0.9276650269 -0.3833922439
20650176100.0 -0.9342016914 -0.3706883161
20700175800.0 -0.9406891941 -0.3594017458
20750175500.0 -0.9470965159 -0.3474078136
20800175200.0 -0.9518731356 -0.3370330045
20850174900.0 -0.9564331463 -0.326412881
20900174600.0 -0.9622361634 -0.3146376281
20950174300.0 -0.9655469049 -0.3022299574
21000174000.0 -0.9691419252 -0.2922754242
21050173700.0 -0.9715644113 -0.2810752702
21100173400.0 -0.9757507784 -0.2692041996
21150173100.0 -0.9799156899 -0.2564263753
21200172800.0 -0.9829830183 -0.2433288204
21250172500.0 -0.9858510005 -0.2292919251
21300172200.0 -0.9891448661 -0.2157868956
21350171900.0 -0.9904371467 -0.2009503824
21400171600.0 -0.9920722294 -0.1866551652
21450171300.0 -0.9924592231 -0.1728010283
21500171000.0 -0.9922636386 -0.1569688677
21550170700.0 -0.9925477474 -0.1418956209
21600170400.0 -0.9926037445 -0.1258683981
21650170100.0 -0.9920841791 -0.1094871454
21700169800.0 -0.9902212837 -0.0946583536
21750169500.0 -0.9896433835 -0.0787996297
21800169200.0 -0.9886210328 -0.0623435941
21850168900.0 -0.987076406 -0.045374299
21900168600.0 -0.986286645 -0.0300037025
21950168300.0 -0.9849960555 -0.0137087429
22000168000.0 -0.9841834117 0.0016569067
22050167700.0 -0.983930182 0.0157329681
22100167400.0 -0.984405537 0.030907514
22150167100.0 -0.9850283202 0.0466573028
22200166800.0 -0.9849731948 0.0629684997
22250166500.0 -0.9850227722 0.0799701817
22300166200.0 -0.9843130547 0.096700677
22350165900.0 -0.9829463173 0.1129045532
22400165600.0 -0.9801910203 0.1287002099
22450165300.0 -0.9790693245 0.1437687808
22500165000.0 -0.978026125 0.1561614747
22550164700.0 -0.9761134744 0.1720359941
22600164400.0 -0.9735746976 0.1882256152
22650164100.0 -0.9716104615 0.2034069874
22700163800.0 -0.9696155418 0.2194031273
22750163500.0 -0.9673532825 0.2343719007
22800163200.0 -0.9639713463 0.2478069839
22850162900.0 -0.9618211536 0.2606690246
22900162600.0 -0.9604561664 0.2737380331
22950162300.0 -0.9592284863 0.2868551185
23000162000.0 -0.9579183885 0.2988698689
23050161700.0 -0.9556330423 0.311625127
23100161400.0 -0.9533859264 0.3244914742
23150161100.0 -0.9513419661 0.3370262584
23200160800.0 -0.9484694565 0.3489372614
23250160500.0 -0.9453951923 0.36027755
23300160200.0 -0.9428838581 0.3729776851
23350159900.0 -0.9385675004 0.3862395372
23400159600.0 -0.93372691 0.3998557226
23450159300.0 -0.92915805 0.4128774904
23500159000.0 -0.9246625623 0.425721637
23550158700.0 -0.9200452043 0.4395875109
23600158400.0 -0.9147055617 0.4526130216
23650158100.0 -0.9084060462 0.4667975298
23700157800.0 -0.9006838858 0.4807494295
23750157500.0 -0.8923913404 0.4949773117
23800157200.0 -0.8833782365 0.5079655298
23850156900.0 -0.8746864486 0.5210412796
23900156600.0 -0.8649742953 0.5336025275
23950156300.0 -0.8560049541 0.5462326271
24000156000.0 -0.8468954842 0.5579428093
24050155700.0 -0.8367399451 0.5693666623
24100155400.0 -0.8273688403 0.5819320632
24150155100.0 -0.816738224 0.593500129
24200154800.0 -0.8053088119 0.6047020896
24250154500.0 -0.7943581558 0.6164937624
24300154200.0 -0.7826216521 0.6281765401
24350153900.0 -0.770979768 0.6384633151
24400153600.0 -0.7588514642 0.6489431502
24450153300.0 -0.7473947209 0.6588001007
24500153000.0 -0.7354168923 0.6682876213
24550152700.0 -0.7251833323 0.6782212329
24600152400.0 -0.7124252514 0.6871828862
24650152100.0 -0.7011453514 0.6958811713
