!Created with skrf (http://scikit-rf.org).
# Hz S RI R 50.0 
!freq ReS11 ImS11
300000.0 -0.9750793756 -0.1166772661
50299700.0 -1.000004059 0.0154643246
100299400.0 -0.9979372074 0.0283787889
150299100.0 -1.002621567 0.0453219158
200298800.0 -0.9996270028 0.0586150193
250298500.0 -0.9973541648 0.0721141334
300298200.0 -0.9860480895 0.0879311569
350297900.0 -0.9939407466 0.0988083857
400297600.0 -0.9931393548 0.1154537783
450297300.0 -0.9910549626 0.1292211326
500297000.0 -0.9895539709 0.143852006
550296700.0 -0.984403249 0.1563538916
600296400.0 -1.017261154 0.189512891
650296100.0 -0.9822334479 0.1863137446
700295800.0 -0.979253074 0.2006555592
750295500.0 -0.9763099908 0.2145112463
800295200.0 -0.9729227018 0.2287694707
850294900.0 -0.9696172094 0.2423798946
900294600.0 -0.9658378679 0.25626031
950294300.0 -0.9621808676 0.2697918836
1000294000.0 -0.9582443063 0.283822067
1050293700.0 -0.9536729546 0.2976407111
1100293400.0 -0.9491021824 0.3120945358
1150293100.0 -0.9454594705 0.3240542537
1200292800.0 -0.9400916206 0.3382894296
1250292500.0 -0.9347232066 0.3518315773
1300292200.0 -0.9289056789 0.3650135392
1350291900.0 -0.9234014283 0.3790902061
1400291600.0 -0.9179049205 0.3921496911
1450291300.0 -0.9123266745 0.4045999367
1500291000.0 -0.9062122557 0.4177692797
1550290700.0 -0.8997547508 0.431292297
1600290400.0 -0.8933340689 0.4440859236
1650290100.0 -0.886785073 0.4561796237
1700289800.0 -0.8798780009 0.46977851
1750289500.0 -0.8727375262 0.4818453944
1800289200.0 -0.86550539 0.4947650192
1850288900.0 -0.8585406835 0.5062263684
1900288600.0 -0.8510250077 0.5193199458
1950288300.0 -0.8426750682 0.5317353719
2000288000.0 -0.8351512864 0.5430743717
2050287700.0 -0.8271017122 0.5554949408
2100287400.0 -0.8192417118 0.5669360303
2150287100.0 -0.8104269488 0.579127061
2200286800.0 -0.8027503808 0.5895498638
2250286500.0 -0.7941485866 0.6016844661
2300286200.0 -0.785218822 0.6132405042
2350285900.0 -0.7765219365 0.6243461576
2400285600.0 -0.7674446264 0.635242705
2450285300.0 -0.7588254244 0.6454496801
2500285000.0 -0.7490435623 0.6569022101
2550284700.0 -0.7401641394 0.667336446
2600284400.0 -0.7304779043 0.6772472968
2650284100.0 -0.7217174528 0.6878496411
2700283800.0 -0.7113313416 0.6983337487
2750283500.0 -0.7010714085 0.7089932277
2800283200.0 -0.6913407301 0.7188830569
2850282900.0 -0.6811091214 0.7287361458
2900282600.0 -0.6706087976 0.7380975592
2950282300.0 -0.6604768785 0.7472963813
3000282000.0 -0.6496207251 0.7566173799
3050281700.0 -0.638633481 0.7662014754
3100281400.0 -0.6265664414 0.7755276742
3150281100.0 -0.6147730514 0.7848688331
3200280800.0 -0.6031773765 0.793213352
3250280500.0 -0.5922101395 0.8009087232
3300280200.0 -0.5811906974 0.8089593139
3350279900.0 -0.569515743 0.8164356101
3400279600.0 -0.5572221165 0.8241453948
3450279300.0 -0.5461349073 0.8309247766
3500279000.0 -0.534259793 0.8382611397
3550278700.0 -0.5214993423 0.8455373989
3600278400.0 -0.5095984859 0.8528441255
3650278100.0 -0.4962039352 0.8603335462
3700277800.0 -0.484280309 0.8669146411
3750277500.0 -0.4721824731 0.8733104482
3800277200.0 -0.4595790848 0.8798143879
3850276900.0 -0.447472518 0.8856413688
3900276600.0 -0.4367923167 0.8913060167
3950276300.0 -0.4240969307 0.8976028034
4000276000.0 -0.4120087738 0.903535942
4050275700.0 -0.3993188967 0.9094571028
4100275400.0 -0.3884584675 0.9151451273
4150275100.0 -0.3756403215 0.9206048837
4200274800.0 -0.3627726999 0.9262808024
4250274500.0 -0.3501860811 0.9313125966
4300274200.0 -0.3373623979 0.9367721326
4350273900.0 -0.323468496 0.9417934131
4400273600.0 -0.3085212999 0.9473943397
4450273300.0 -0.2934443489 0.9523048444
4500273000.0 -0.2797335144 0.9565298427
4550272700.0 -0.2656337057 0.9609542428
4600272400.0 -0.2500810577 0.9650429251
4650272100.0 -0.2384676262 0.9683656623
4700271800.0 -0.2250107059 0.971567363
4750271500.0 -0.2134587285 0.9745721107
4800271200.0 -0.2010545651 0.9773276627
4850270900.0 -0.1869958707 0.9800044609
4900270600.0 -0.1732032896 0.9824473434
4950270300.0 -0.1588362939 0.9850928057
5000270000.0 -0.14458678 0.9870725375
5050269700.0 -0.1312080701 0.9886150209
5100269400.0 -0.1172866413 0.9904021425
5150269100.0 -0.1041113823 0.9916702824
5200268800.0 -0.0908538173 0.9931127041
5250268500.0 -0.0778480194 0.9940581561
5300268200.0 -0.0644546629 0.9947038957
5350267900.0 -0.0523003073 0.9954842778
5400267600.0 -0.0363328914 0.9962984647
5450267300.0 -0.0229780911 0.9967190925
5500267000.0 -0.0078590272 0.9971549011
5550266700.0 0.0071149057 0.9973233992
5600266400.0 0.0227766836 0.9972683548
5650266100.0 0.0389529976 0.9966990657
5700265800.0 0.0536141786 0.996088993
5750265500.0 0.0686431719 0.9955703645
5800265200.0 0.0827222365 0.9942135665
5850264900.0 0.0961236381 0.993707229
5900264600.0 0.1129163679 0.9918407246
5950264300.0 0.1244730842 0.9896436859
6000264000.0 0.1386704773 0.988564964
6050263700.0 0.150865253 0.9866887568
6100263400.0 0.1634419443 0.9853147523
6150263100.0 0.1777616104 0.9827991108
6200262800.0 0.1881831474 0.9809443159
6250262500.0 0.2010026632 0.9784727211
6300262200.0 0.2139375591 0.9757506917
6350261900.0 0.2268310375 0.9728651987
6400261600.0 0.240775269 0.969521921
6450261300.0 0.252063306 0.9668531132
6500261000.0 0.264852501 0.9631616188
6550260700.0 0.2780107553 0.9594002908
6600260400.0 0.2911030573 0.9550480489
6650260100.0 0.3048716965 0.9507846653
6700259800.0 0.3173455049 0.9466769422
6750259500.0 0.3307602087 0.9415860069
6800259200.0 0.344071804 0.9365886592
6850258900.0 0.3560596782 0.9314239492
6900258600.0 0.3686099259 0.9265648198
6950258300.0 0.3805884728 0.9212858279
7000258000.0 0.3926889946 0.9158488668
7050257700.0 0.4049703708 0.9097148109
7100257400.0 0.4179022234 0.9034820061
7150257100.0 0.4281647072 0.8982307818
7200256800.0 0.4408181113 0.8917215956
7250256500.0 0.4529710713 0.8854244115
7300256200.0 0.4660261584 0.8785383313
7350255900.0 0.478580853 0.8719781192
7400255600.0 0.491852155 0.86462496
7450255300.0 0.5070279243 0.8556745649
7500255000.0 0.5189362732 0.848439029
7550254700.0 0.5325719974 0.8398559943
7600254400.0 0.5457180275 0.8316012987
7650254100.0 0.557113268 0.8238981497
7700253800.0 0.5688071839 0.8156691357
7750253500.0 0.5797525213 0.8080340817
7800253200.0 0.5905050768 0.8004627277
7850252900.0 0.6001493113 0.7935840989
7900252600.0 0.6117980554 0.7846342798
7950252300.0 0.6206700263 0.7782028382
8000252000.0 0.6308551903 0.7703263819
8050251700.0 0.6413530976 0.7622839526
8100251400.0 0.6513848649 0.7542241259
8150251100.0 0.6612256789 0.7456436631
8200250800.0 0.6707901124 0.7374652678
8250250500.0 0.6798825775 0.7294911729
8300250200.0 0.68899195 0.721168973
8350249900.0 0.6981164914 0.7122915215
8400249600.0 0.706599326 0.7043587192
8450249300.0 0.7154915352 0.6949775893
8500249000.0 0.7240999698 0.686081643
8550248700.0 0.732412108 0.6772247883
8600248400.0 0.7408164463 0.6676152222
8650248100.0 0.7486548206 0.6582611094
8700247800.0 0.7580860222 0.6469615623
8750247500.0 0.7663157723 0.6369308417
8800247200.0 0.7746709377 0.6264411968
8850246900.0 0.7833868419 0.6148966289
8900246600.0 0.7917221288 0.6036861558
8950246300.0 0.8012284541 0.5906123312
9000246000.0 0.8108312132 0.5780567309
9050245700.0 0.81986958 0.5648339934
9100245400.0 0.8285823661 0.5523713637
9150245100.0 0.8375790408 0.5390879157
9200244800.0 0.847414379 0.5235991347
9250244500.0 0.8565384458 0.5081861649
9300244200.0 0.8651456018 0.4936501797
9350243900.0 0.8731444561 0.4798725685
9400243600.0 0.8797567637 0.4675248226
9450243300.0 0.8855688988 0.4559123978
9500243000.0 0.8918244539 0.4438022261
9550242700.0 0.8955083147 0.4362473226
9600242400.0 0.8994551874 0.428925719
9650242100.0 0.9031786961 0.4222384905
9700241800.0 0.9079057548 0.4139659583
9750241500.0 0.9116381071 0.406493884
9800241200.0 0.9164547992 0.3973060286
9850240900.0 0.9221670803 0.3858436139
9900240600.0 0.9276897462 0.3739551852
9950240300.0 0.9341663123 0.3581201919
10000240000.0 0.9385775461 0.3462298291
10050239700.0 0.9447514318 0.3309959232
10100239400.0 0.9495755757 0.3152312837
10150239100.0 0.9539630835 0.3008498096
10200238800.0 0.9581011652 0.2857223577
10250238500.0 0.9614692956 0.2723739134
10300238200.0 0.9646023221 0.2585212711
10350237900.0 0.9673516216 0.2451739228
10400237600.0 0.9696369619 0.2322665818
10450237300.0 0.9724602196 0.2187445117
10500237000.0 0.9746525161 0.2061200958
10550236700.0 0.9771883813 0.1924241828
10600236400.0 0.9792913448 0.1786947901
10650236100.0 0.9811387035 0.1636853903
10700235800.0 0.9836062475 0.1514684381
10750235500.0 0.9856626797 0.1383182639
10800235200.0 0.9874509183 0.1246121569
10850234900.0 0.9893465175 0.1098731099
10900234600.0 0.9920879288 0.0948820028
10950234300.0 0.9934498538 0.0817503001
11000234000.0 0.9952247578 0.0666298914
11050233700.0 0.9969961221 0.0502911696
11100233400.0 0.9985749613 0.0324838786
11150233100.0 0.9993855334 0.016600758
11200232800.0 1.0002799 0.0021580389
11250232500.0 1.001297288 -0.0153361147
11300232200.0 1.00184221 -0.0325476341
11350231900.0 1.002298719 -0.0486889188
11400231600.0 1.001447579 -0.0642410664
11450231300.0 1.001770696 -0.0800910149
11500231000.0 0.9997157092 -0.0969872351
11550230700.0 0.9985269178 -0.1098458939
11600230400.0 0.9974112994 -0.1220658074
11650230100.0 0.9949103199 -0.1333105444
11700229800.0 0.9929190716 -0.1477479124
11750229500.0 0.9907094679 -0.1624375401
11800229200.0 0.9881218662 -0.1761282875
11850228900.0 0.9844204503 -0.1883629
11900228600.0 0.9808478567 -0.1983480954
11950228300.0 0.9776746154 -0.2085939477
12000228000.0 0.9747304284 -0.2177606549
12050227700.0 0.9713996886 -0.230162916
12100227400.0 0.9687638021 -0.2414469008
12150227100.0 0.963980314 -0.2572357543
12200226800.0 0.9600692878 -0.2685627798
12250226500.0 0.9553610008 -0.2814949937
12300226200.0 0.951895392 -0.2939767577
12350225900.0 0.9466855273 -0.3075970145
12400225600.0 0.941982481 -0.3211955124
12450225300.0 0.9376184536 -0.3335006608
12500225000.0 0.9324986998 -0.3484117339
12550224700.0 0.9269167363 -0.3623297832
12600224400.0 0.9220866913 -0.3752512541
12650224100.0 0.9162393983 -0.3894821116
12700223800.0 0.9111307142 -0.4020863098
12750223500.0 0.9055837742 -0.4152599582
12800223200.0 0.9000362603 -0.4279964299
12850222900.0 0.8946076275 -0.4403115179
12900222600.0 0.888859812 -0.4525752355
12950222300.0 0.8826234169 -0.4646430551
13000222000.0 0.8769223295 -0.4759865687
13050221700.0 0.8701538034 -0.4885541268
13100221400.0 0.8633752999 -0.501016134
13150221100.0 0.8566595396 -0.5128691256
13200220800.0 0.8496240763 -0.5247619089
13250220500.0 0.8423545944 -0.5367863814
13300220200.0 0.8351352263 -0.5477780688
13350219900.0 0.8268795855 -0.5595428142
13400219600.0 0.8184025534 -0.5719996992
13450219300.0 0.8090782455 -0.5851678011
13500219000.0 0.7990340194 -0.5992015805
13550218700.0 0.7887268693 -0.612016656
13600218400.0 0.7783918943 -0.6242439205
13650218100.0 0.7695769059 -0.635269019
13700217800.0 0.7577117185 -0.6473849634
13750217500.0 0.7482020918 -0.6590160222
13800217200.0 0.7369751005 -0.6704126718
13850216900.0 0.7259189006 -0.6825338479
13900216600.0 0.7161126512 -0.6919432907
13950216300.0 0.704892089 -0.701501767
14000216000.0 0.6950745749 -0.7104007474
14050215700.0 0.6856261917 -0.718926476
14100215400.0 0.6760550578 -0.7281060055
14150215100.0 0.6663797016 -0.7365112978
14200214800.0 0.6570848467 -0.7451729001
14250214500.0 0.6469361519 -0.7544606842
14300214200.0 0.6366112533 -0.7638494155
14350213900.0 0.6252212957 -0.7734903904
14400213600.0 0.6136210224 -0.7830818284
14450213300.0 0.6006507816 -0.792916624
14500213000.0 0.5879835806 -0.8033397691
14550212700.0 0.5748180576 -0.8130104947
14600212400.0 0.562641468 -0.8210182115
14650212100.0 0.5493881453 -0.8298885327
14700211800.0 0.5357515357 -0.8402332093
14750211500.0 0.5236692776 -0.8482224777
14800211200.0 0.5113798641 -0.8558716886
14850210900.0 0.4992440928 -0.8635643086
14900210600.0 0.4858479782 -0.8711759901
14950210300.0 0.4724617647 -0.8789491854
15000210000.0 0.4596165089 -0.885664233
15050209700.0 0.4476144745 -0.8920231509
15100209400.0 0.4351886037 -0.8979541405
15150209100.0 0.4223675046 -0.9032441443
15200208800.0 0.4095696827 -0.9088556527
15250208500.0 0.3988140275 -0.9136222518
15300208200.0 0.3860948285 -0.9179177284
15350207900.0 0.3735769371 -0.9227968931
15400207600.0 0.3585434376 -0.9284872943
15450207300.0 0.3436345698 -0.9332970405
15500207000.0 0.3287365542 -0.9376849175
15550206700.0 0.3145573608 -0.9429609212
15600206400.0 0.2989435159 -0.9472493357
15650206100.0 0.2829647699 -0.9518306643
15700205800.0 0.2688211863 -0.9551920003
15750205500.0 0.2542702398 -0.9587338641
15800205200.0 0.2397360726 -0.9622271137
15850204900.0 0.2253450039 -0.9656418359
15900204600.0 0.210335974 -0.9691562018
15950204300.0 0.1961062829 -0.9721794869
16000204000.0 0.1821956925 -0.9750035582
16050203700.0 0.1669989843 -0.9781711466
16100203400.0 0.1527623627 -0.9800582816
16150203100.0 0.138257381 -0.9821694169
16200202800.0 0.1241712209 -0.9844760643
16250202500.0 0.1093915833 -0.9862606354
16300202200.0 0.0938732242 -0.987647764
16350201900.0 0.0787787792 -0.9889837198
16400201600.0 0.0640804413 -0.9902248561
16450201300.0 0.0490659189 -0.991052157
16500201000.0 0.0324034177 -0.9920436064
16550200700.0 0.0169188535 -0.9925287598
16600200400.0 0.0012170119 -0.9926505775
16650200100.0 -0.0151282954 -0.9923867777
16700199800.0 -0.0313245516 -0.9922757125
16750199500.0 -0.0507120428 -0.9915261017
16800199200.0 -0.0657275243 -0.9908554438
16850198900.0 -0.081156584 -0.9895053956
16900198600.0 -0.0946698109 -0.9887217314
16950198300.0 -0.1082141114 -0.9873274649
17000198000.0 -0.1208643394 -0.9860757717
17050197700.0 -0.1343678411 -0.9840081327
17100197400.0 -0.1469569998 -0.9814407794
17150197100.0 -0.1592216761 -0.9804125486
17200196800.0 -0.1720053449 -0.977911979
17250196500.0 -0.1854350166 -0.9757665939
17300196200.0 -0.1971041788 -0.973438646
17350195900.0 -0.2091744536 -0.9711021776
17400195600.0 -0.2212499407 -0.9687687131
17450195300.0 -0.2344450729 -0.9657647902
17500195000.0 -0.2476706983 -0.9627161685
17550194700.0 -0.2616543912 -0.9588696072
17600194400.0 -0.2755129247 -0.9548917995
17650194100.0 -0.2895002382 -0.9508031764
17700193800.0 -0.3023685771 -0.9466069097
17750193500.0 -0.3171727389 -0.9421094392
17800193200.0 -0.330805832 -0.9370183625
17850192900.0 -0.345909254 -0.9313072605
17900192600.0 -0.3615228459 -0.9252387446
17950192300.0 -0.3770023807 -0.9181667574
18000192000.0 -0.3919158598 -0.9110178108
18050191700.0 -0.4054938046 -0.9030444768
18100191400.0 -0.4199317228 -0.8955902023
18150191100.0 -0.4347967757 -0.8874404059
18200190800.0 -0.4518796775 -0.8782024301
18250190500.0 -0.4686479668 -0.8686297934
18300190200.0 -0.4842728844 -0.8599378745
18350189900.0 -0.499395274 -0.8516576487
18400189600.0 -0.5136905021 -0.8431603947
18450189300.0 -0.5269233238 -0.8353591356
18500189000.0 -0.5401794703 -0.8269994991
18550188700.0 -0.5530364043 -0.8198186035
18600188400.0 -0.5645197512 -0.8132787217
18650188100.0 -0.5757346009 -0.806539787
18700187800.0 -0.5868205341 -0.80037906
18750187500.0 -0.5970969422 -0.7937351492
18800187200.0 -0.6076064979 -0.7867207209
18850186900.0 -0.6178445864 -0.7796274972
18900186600.0 -0.6281692848 -0.7724288293
18950186300.0 -0.6380708231 -0.7648686098
19000186000.0 -0.6451953324 -0.7586443306
19050185700.0 -0.654385432 -0.751283913
19100185400.0 -0.664608033 -0.7424936195
19150185100.0 -0.6744996436 -0.7343640215
19200184800.0 -0.6835083334 -0.7265378531
19250184500.0 -0.694214918 -0.7169665377
19300184200.0 -0.7055438559 -0.707022907
19350183900.0 -0.7164419882 -0.6978473172
19400183600.0 -0.7257429535 -0.6867804039
19450183300.0 -0.73471454 -0.6780741894
19500183000.0 -0.7432512867 -0.6679504221
19550182700.0 -0.7531989714 -0.6565909508
19600182400.0 -0.7633745951 -0.6444815048
19650182100.0 -0.7744776347 -0.632389245
19700181800.0 -0.7847802379 -0.6192229552
19750181500.0 -0.7958268946 -0.6051379492
19800181200.0 -0.8063294169 -0.590107254
19850180900.0 -0.8158567442 -0.5747768456
19900180600.0 -0.8236617033 -0.5603784084
19950180300.0 -0.8328353453 -0.5441262082
20000180000.0 -0.8261468898 -0.5462419974
20050179700.0 -0.8343520026 -0.5332229842
20100179400.0 -0.8426281126 -0.520244956
20150179100.0 -0.8510845017 -0.5071100838
20200178800.0 -0.8599538024 -0.4939970882
20250178500.0 -0.8691952182 -0.4803933785
20300178200.0 -0.8785086797 -0.4667566722
20350177900.0 -0.8880228835 -0.4520949623
20400177600.0 -0.8964798191 -0.4376086425
20450177300.0 -0.9050971281 -0.4231897062
20500177000.0 -0.9128815215 -0.4092543299
20550176700.0 -0.9208788336 -0.3956120354
20600176400.0 -0.928179773 -0.3830237421
20650176100.0 -0.9340867721 -0.3702780039
20700175800.0 -0.9411067947 -0.3577087762
20750175500.0 -0.9474724713 -0.3469927561
20800175200.0 -0.9528576972 -0.3352321762
20850174900.0 -0.9562511562 -0.3253659021
20900174600.0 -0.9613697299 -0.3128052718
20950174300.0 -0.9654902266 -0.3019581191
21000174000.0 -0.9697447564 -0.2906630416
21050173700.0 -0.9712927127 -0.279787833
21100173400.0 -0.9762546925 -0.2675275007
21150173100.0 -0.9801669197 -0.2552775646
21200172800.0 -0.9835285602 -0.2416705518
21250172500.0 -0.9866415462 -0.2277444536
21300172200.0 -0.9899800294 -0.2140549661
21350171900.0 -0.9908387081 -0.1992692975
21400171600.0 -0.9924497749 -0.1849101016
21450171300.0 -0.9929329119 -0.170812811
21500171000.0 -0.9931154829 -0.1550453172
21550170700.0 -0.9925302836 -0.1398859478
21600170400.0 -0.9924276785 -0.1237038043
21650170100.0 -0.9915310832 -0.1084087641
21700169800.0 -0.9901553316 -0.0937659808
21750169500.0 -0.9886991769 -0.0764137745
21800169200.0 -0.9889325292 -0.06080253
21850168900.0 -0.9866896212 -0.0437049653
21900168600.0 -0.9857706231 -0.0280103473
21950168300.0 -0.984251962 -0.0122877581
22000168000.0 -0.9837908038 0.0024497418
22050167700.0 -0.9833135922 0.0172463879
22100167400.0 -0.9835745491 0.0321716983
22150167100.0 -0.98411595 0.0481026825
22200166800.0 -0.9847079658 0.0645292128
22250166500.0 -0.9840276888 0.0811125138
22300166200.0 -0.9827009898 0.0975136716
22350165900.0 -0.9815105598 0.1143034979
22400165600.0 -0.9800335995 0.1310647637
22450165300.0 -0.9784467733 0.1449492926
22500165000.0 -0.9772050017 0.1585805065
22550164700.0 -0.9753613451 0.1750556755
22600164400.0 -0.9739687851 0.1901256535
22650164100.0 -0.9715886711 0.2045536507
22700163800.0 -0.968499526 0.2203048902
22750163500.0 -0.9659985437 0.2357333326
22800163200.0 -0.9635346146 0.2489953611
22850162900.0 -0.9610997297 0.2622255285
22900162600.0 -0.9597586921 0.2757361456
22950162300.0 -0.9584281803 0.2884935771
23000162000.0 -0.9571667513 0.3001747453
23050161700.0 -0.9552116826 0.3131307739
23100161400.0 -0.9532467016 0.3254804373
23150161100.0 -0.9506107579 0.33828033
23200160800.0 -0.9469322563 0.3505367749
23250160500.0 -0.9448084729 0.3619420797
23300160200.0 -0.9416505332 0.3745339991
23350159900.0 -0.9381545773 0.3870188003
23400159600.0 -0.9336526648 0.4007746152
23450159300.0 -0.928664231 0.4136359444
23500159000.0 -0.9239425723 0.4266087917
23550158700.0 -0.9197950783 0.439872423
23600158400.0 -0.9142175258 0.4533983104
23650158100.0 -0.9079736726 0.4671240505
23700157800.0 -0.900579743 0.4811214293
23750157500.0 -0.8921313881 0.4954172477
23800157200.0 -0.8831315722 0.5088632101
23850156900.0 -0.8742791467 0.5212477494
23900156600.0 -0.8648463649 0.5334378502
23950156300.0 -0.8560446959 0.5464656689
24000156000.0 -0.8469597418 0.5582744653
24050155700.0 -0.836739747 0.5712830567
24100155400.0 -0.8269313986 0.5821608011
24150155100.0 -0.8163713082 0.5936663784
24200154800.0 -0.8051540793 0.605393124
24250154500.0 -0.7936069472 0.6169083975
24300154200.0 -0.7822982175 0.6282876165
24350153900.0 -0.7708162979 0.639103486
24400153600.0 -0.7583329755 0.6495300652
24450153300.0 -0.746374068 0.6588401289
24500153000.0 -0.7354127705 0.6688884217
24550152700.0 -0.7235578438 0.6782546063
24600152400.0 -0.7119062777 0.6877230869
24650152100.0 -0.7005652763 0.6963240074
