!Created with skrf (http://scikit-rf.org).
# Hz S RI R 50.0 
!freq ReS11 ImS11
300000.0 -0.972541517 -0.1238246552
50299700.0 -0.9999463314 0.0149361176
100299400.0 -0.9979769735 0.0279179371
150299100.0 -1.002603149 0.0447396781
200298800.0 -0.9995808078 0.0581252349
250298500.0 -0.9972982249 0.0716059279
300298200.0 -0.9861217154 0.0873938849
350297900.0 -0.9938260711 0.0983056241
400297600.0 -0.9931075285 0.1149647215
450297300.0 -0.9911108673 0.1287244402
500297000.0 -0.9894158755 0.1433526976
550296700.0 -0.9841595012 0.1560185333
600296400.0 -1.017390886 0.1889415045
650296100.0 -0.9823621052 0.1854889862
700295800.0 -0.9793247531 0.1998502801
750295500.0 -0.9764149802 0.213964815
800295200.0 -0.973020139 0.2279766128
850294900.0 -0.9695500851 0.2417479652
900294600.0 -0.9657209932 0.2553118044
950294300.0 -0.9622510025 0.2692708965
1000294000.0 -0.9579570851 0.2832198726
1050293700.0 -0.9535942082 0.2970507473
1100293400.0 -0.9493996112 0.3114190868
1150293100.0 -0.945535422 0.3231834141
1200292800.0 -0.940182017 0.3377327661
1250292500.0 -0.9347635021 0.351268731
1300292200.0 -0.9288854015 0.3644766457
1350291900.0 -0.923412926 0.3783892673
1400291600.0 -0.917831076 0.3913930556
1450291300.0 -0.9124811293 0.4039701497
1500291000.0 -0.9061459525 0.4171339093
1550290700.0 -0.8999628668 0.4306673367
1600290400.0 -0.8934412923 0.4435494407
1650290100.0 -0.8868527026 0.455553944
1700289800.0 -0.8798655592 0.4691609044
1750289500.0 -0.8728574835 0.4816000261
1800289200.0 -0.8654124096 0.4944207346
1850288900.0 -0.8587775862 0.5057947905
1900288600.0 -0.8510020892 0.5186829755
1950288300.0 -0.8427266443 0.5314039923
2000288000.0 -0.8355322995 0.5428681971
2050287700.0 -0.8271060123 0.5551362762
2100287400.0 -0.8193952155 0.5664725365
2150287100.0 -0.8109691522 0.5784403699
2200286800.0 -0.803079017 0.5892318761
2250286500.0 -0.7940502006 0.601426292
2300286200.0 -0.7851976563 0.6127747784
2350285900.0 -0.7767196712 0.6232554044
2400285600.0 -0.7681132509 0.6344063337
2450285300.0 -0.7591094807 0.6450474678
2500285000.0 -0.7491451184 0.6566335135
2550284700.0 -0.7403436665 0.6669861953
2600284400.0 -0.7309833886 0.6768118821
2650284100.0 -0.7223463936 0.6870904978
2700283800.0 -0.7118612958 0.6973983651
2750283500.0 -0.7016742036 0.708148687
2800283200.0 -0.6914082186 0.7177805881
2850282900.0 -0.6812006533 0.7282443575
2900282600.0 -0.6707167834 0.7376115264
2950282300.0 -0.6601871566 0.7472157257
3000282000.0 -0.6495756602 0.75695123
3050281700.0 -0.638462959 0.7661248551
3100281400.0 -0.626978753 0.7749749972
3150281100.0 -0.6156105619 0.7838785244
3200280800.0 -0.6044117388 0.7921977088
3250280500.0 -0.5930377106 0.8001082338
3300280200.0 -0.5815479553 0.8083532988
3350279900.0 -0.5692197422 0.8165949994
3400279600.0 -0.5566373496 0.8245203015
3450279300.0 -0.5454844385 0.8314588209
3500279000.0 -0.5335296424 0.8383701566
3550278700.0 -0.5218159081 0.8457621599
3600278400.0 -0.5097295188 0.8522564427
3650278100.0 -0.4968176817 0.8596962714
3700277800.0 -0.4849505299 0.8665049199
3750277500.0 -0.4722189435 0.873261768
3800277200.0 -0.459612621 0.8796557234
3850276900.0 -0.4478463627 0.8855292867
3900276600.0 -0.4369492876 0.8912057835
3950276300.0 -0.4248979396 0.8969610136
4000276000.0 -0.4131723744 0.9030507517
4050275700.0 -0.4005479723 0.9090683432
4100275400.0 -0.3895239746 0.9142686583
4150275100.0 -0.3761973742 0.920556204
4200274800.0 -0.3627044241 0.9259681631
4250274500.0 -0.3500394458 0.9312150931
4300274200.0 -0.336672431 0.9369479023
4350273900.0 -0.3224382985 0.9423668736
4400273600.0 -0.3076377825 0.9474137488
4450273300.0 -0.2928497918 0.9521412482
4500273000.0 -0.2797991411 0.9563023309
4550272700.0 -0.2660970513 0.9606931694
4600272400.0 -0.2512162276 0.9646256481
4650272100.0 -0.2399260922 0.9677368345
4700271800.0 -0.226973203 0.9711165798
4750271500.0 -0.2153872736 0.9739577237
4800271200.0 -0.2031368418 0.976540937
4850270900.0 -0.1892576531 0.979293191
4900270600.0 -0.1755293786 0.9817097495
4950270300.0 -0.1610030284 0.9843513636
5000270000.0 -0.1465552972 0.9866751577
5050269700.0 -0.132743857 0.9884103942
5100269400.0 -0.1187160217 0.9898822191
5150269100.0 -0.1048080902 0.9916235512
5200268800.0 -0.0913413896 0.9925653922
5250268500.0 -0.0783567794 0.9933994585
5300268200.0 -0.0648200283 0.994636679
5350267900.0 -0.0516258999 0.9951096346
5400267600.0 -0.0355755919 0.9961721473
5450267300.0 -0.0220937511 0.9964682941
5500267000.0 -0.0069374147 0.9968985074
5550266700.0 0.0079236441 0.9972006271
5600266400.0 0.0238948317 0.9971289266
5650266100.0 0.0407333665 0.9969470719
5700265800.0 0.054640662 0.9959620903
5750265500.0 0.0697079152 0.9955344968
5800265200.0 0.0829905964 0.9939398742
5850264900.0 0.096469503 0.9931145745
5900264600.0 0.1130746968 0.9915830002
5950264300.0 0.1241864862 0.9899154262
6000264000.0 0.1379267746 0.9877977024
6050263700.0 0.1496062983 0.9865212728
6100263400.0 0.1617213083 0.9846981272
6150263100.0 0.1762224819 0.9825130879
6200262800.0 0.1858841726 0.980982813
6250262500.0 0.1984695473 0.9787406392
6300262200.0 0.2106303375 0.9760272348
6350261900.0 0.2234685458 0.9734462682
6400261600.0 0.2373530087 0.9702371727
6450261300.0 0.248199639 0.9677505637
6500261000.0 0.2620009378 0.9642625049
6550260700.0 0.2747743234 0.9601848271
6600260400.0 0.2884112696 0.9560029767
6650260100.0 0.3027815967 0.9518843979
6700259800.0 0.3148684635 0.9473871789
6750259500.0 0.3282103716 0.942445373
6800259200.0 0.3419615485 0.9372991406
6850258900.0 0.3541586659 0.9319169567
6900258600.0 0.3672519624 0.9268835607
6950258300.0 0.3796627892 0.9214892137
7000258000.0 0.3909001315 0.9162733523
7050257700.0 0.4030217035 0.9103785678
7100257400.0 0.4165147742 0.9039546131
7150257100.0 0.4271763268 0.8986887958
7200256800.0 0.4402514641 0.8921347342
7250256500.0 0.4531946517 0.8853229473
7300256200.0 0.4659845211 0.8787299508
7350255900.0 0.4786442271 0.8718042334
7400255600.0 0.4930293691 0.8639410321
7450255300.0 0.5085964426 0.8548572575
7500255000.0 0.5213735452 0.8474427904
7550254700.0 0.5354532239 0.838089304
7600254400.0 0.5474287423 0.8298258646
7650254100.0 0.559443081 0.822143262
7700253800.0 0.5713501633 0.8141085992
7750253500.0 0.5818791972 0.8063812784
7800253200.0 0.5927382087 0.7984098902
7850252900.0 0.6024890219 0.7911992829
7900252600.0 0.6137554089 0.7826897241
7950252300.0 0.6223159301 0.7760162077
8000252000.0 0.6319183771 0.7685319862
8050251700.0 0.6424554255 0.7602655869
8100251400.0 0.6524703976 0.7524317853
8150251100.0 0.6623736807 0.7439855913
8200250800.0 0.6719614104 0.7357834638
8250250500.0 0.6807002286 0.7280014494
8300250200.0 0.6898032382 0.7197693738
8350249900.0 0.698754157 0.7106771091
8400249600.0 0.7071319662 0.7028483599
8450249300.0 0.7157033839 0.6940516874
8500249000.0 0.7241990691 0.6853400024
8550248700.0 0.7326254398 0.6760323329
8600248400.0 0.7409352863 0.6668944779
8650248100.0 0.7486783157 0.6572129952
8700247800.0 0.7578008374 0.646254022
8750247500.0 0.7661978676 0.6363038966
8800247200.0 0.7742850393 0.6259181516
8850246900.0 0.7828249533 0.6145898743
8900246600.0 0.7914468783 0.6031633636
8950246300.0 0.8003015128 0.590460297
9000246000.0 0.8092704429 0.5785856563
9050245700.0 0.8175906282 0.5663497206
9100245400.0 0.8258916867 0.5541591193
9150245100.0 0.8345887128 0.5412909397
9200244800.0 0.8441330784 0.526939724
9250244500.0 0.852983954 0.5122471731
9300244200.0 0.8610021257 0.498882926
9350243900.0 0.8685282507 0.4858586691
9400243600.0 0.8752589835 0.4741019605
9450243300.0 0.8806513381 0.4638834472
9500243000.0 0.8869565746 0.4523951582
9550242700.0 0.8909403452 0.4445707179
9600242400.0 0.8953193423 0.4371722902
9650242100.0 0.8993573098 0.4300234325
9700241800.0 0.9044912167 0.4213890443
9750241500.0 0.9087574082 0.4137566194
9800241200.0 0.9139456921 0.4043320281
9850240900.0 0.9197103035 0.3926888339
9900240600.0 0.925672291 0.3805146382
9950240300.0 0.9326435009 0.3638561678
10000240000.0 0.9378556611 0.3514005876
10050239700.0 0.9439652248 0.3353180287
10100239400.0 0.949393877 0.318974671
10150239100.0 0.9541568927 0.3031549427
10200238800.0 0.9584245942 0.2879634702
10250238500.0 0.9616127453 0.274278038
10300238200.0 0.9648022139 0.2605836097
10350237900.0 0.9674427063 0.2470781588
10400237600.0 0.9701593199 0.2336392121
10450237300.0 0.9726129878 0.2199855753
10500237000.0 0.9747053705 0.2076824765
10550236700.0 0.9774502235 0.1928650061
10600236400.0 0.9796874822 0.1788249014
10650236100.0 0.9812562498 0.1648223887
10700235800.0 0.983922663 0.1523598635
10750235500.0 0.9863105898 0.1388592005
10800235200.0 0.9880195976 0.1244314593
10850234900.0 0.9895724828 0.1094337039
10900234600.0 0.99222294 0.0946313078
10950234300.0 0.9936307713 0.081101081
11000234000.0 0.995613975 0.0653800265
11050233700.0 0.9973618351 0.0486888694
11100233400.0 0.9990752326 0.0307647201
11150233100.0 1.000100156 0.0142574892
11200232800.0 1.0008945 -0.0023854653
11250232500.0 1.001986353 -0.0199421618
11300232200.0 1.002316029 -0.0384660964
11350231900.0 1.001925704 -0.0542926523
11400231600.0 1.001465942 -0.0704495977
11450231300.0 1.000508448 -0.0858689072
11500231000.0 1.000257775 -0.1019009523
11550230700.0 0.998444696 -0.1163713049
11600230400.0 0.9967393351 -0.1280906966
11650230100.0 0.9945668269 -0.1403147056
11700229800.0 0.9924127966 -0.1555951538
11750229500.0 0.9900358923 -0.1691200159
11800229200.0 0.9872613371 -0.1825715107
11850228900.0 0.9833651273 -0.1941122863
11900228600.0 0.979873157 -0.203687818
11950228300.0 0.9763952515 -0.2138924406
12000228000.0 0.9733478966 -0.2226844987
12050227700.0 0.96995785 -0.2350717448
12100227400.0 0.9664523792 -0.2462157454
12150227100.0 0.9616154003 -0.2627848873
12200226800.0 0.958246157 -0.2735395186
12250226500.0 0.9534380684 -0.2869851965
12300226200.0 0.9501155829 -0.2987478022
12350225900.0 0.9449210935 -0.3129195202
12400225600.0 0.9400177511 -0.324400102
12450225300.0 0.9357457121 -0.3372171757
12500225000.0 0.9300803685 -0.3522980988
12550224700.0 0.9248700701 -0.3660210206
12600224400.0 0.9198089985 -0.3786978966
12650224100.0 0.9140063476 -0.3929089858
12700223800.0 0.9085972273 -0.4056808604
12750223500.0 0.9029241199 -0.4189190306
12800223200.0 0.8978809295 -0.4314070097
12850222900.0 0.892807383 -0.4432232733
12900222600.0 0.886826269 -0.4558449929
12950222300.0 0.8806321828 -0.4684810813
13000222000.0 0.8749563338 -0.4800038728
13050221700.0 0.8683937102 -0.4922426453
13100221400.0 0.861410613 -0.5048706633
13150221100.0 0.8543882786 -0.5169669729
13200220800.0 0.8474137286 -0.5284953778
13250220500.0 0.8399657754 -0.5407087631
13300220200.0 0.8327237168 -0.5519782407
13350219900.0 0.8244146298 -0.5635685315
13400219600.0 0.8161411527 -0.5753223451
13450219300.0 0.8070638219 -0.5880800448
13500219000.0 0.7970738391 -0.6014742667
13550218700.0 0.7870183553 -0.6138481649
13600218400.0 0.7774000816 -0.6258349476
13650218100.0 0.7678101596 -0.6362859641
13700217800.0 0.7578747087 -0.6484402985
13750217500.0 0.7476396514 -0.6591908525
13800217200.0 0.736489845 -0.6707872714
13850216900.0 0.725329045 -0.6816615007
13900216600.0 0.7159819524 -0.6902501475
13950216300.0 0.7052893877 -0.7002421647
14000216000.0 0.6955410479 -0.7091425611
14050215700.0 0.6861873678 -0.7170454145
14100215400.0 0.6766365028 -0.7261791318
14150215100.0 0.6674601607 -0.7349316497
14200214800.0 0.6579327478 -0.744005171
14250214500.0 0.6476629738 -0.7533143726
14300214200.0 0.637289873 -0.7628292394
14350213900.0 0.6258231958 -0.7724442897
14400213600.0 0.6145319131 -0.7825172577
14450213300.0 0.6012686375 -0.7923974015
14500213000.0 0.5877928248 -0.8024308427
14550212700.0 0.5761067556 -0.8115286942
14600212400.0 0.5628591888 -0.820660262
14650212100.0 0.5511606814 -0.8298259564
14700211800.0 0.5371964087 -0.8391774466
14750211500.0 0.5250366778 -0.8473435183
14800211200.0 0.512725597 -0.8554642955
14850210900.0 0.5000643324 -0.8631779195
14900210600.0 0.4868713271 -0.8709883167
14950210300.0 0.4735074701 -0.8785218553
15000210000.0 0.4607652765 -0.8853932226
15050209700.0 0.4481894552 -0.8913671237
15100209400.0 0.4359420498 -0.8976471187
15150209100.0 0.4233911024 -0.9027211269
15200208800.0 0.4109792974 -0.9083835931
15250208500.0 0.3998475602 -0.9125015526
15300208200.0 0.3875773067 -0.9171926343
15350207900.0 0.374383181 -0.9223350709
15400207600.0 0.359610614 -0.9278899917
15450207300.0 0.345237226 -0.9328869053
15500207000.0 0.3303598788 -0.9370849075
15550206700.0 0.3156616001 -0.9417825076
15600206400.0 0.2990974734 -0.9460189519
15650206100.0 0.2838699524 -0.9511341393
15700205800.0 0.2702061319 -0.9544756547
15750205500.0 0.2563609794 -0.9576666307
15800205200.0 0.2424224492 -0.961053233
15850204900.0 0.2283072063 -0.9644627357
15900204600.0 0.213283678 -0.968299019
15950204300.0 0.1989132012 -0.9712362514
16000204000.0 0.1846630519 -0.9743144459
16050203700.0 0.1690552289 -0.9772421654
16100203400.0 0.1546194284 -0.9797069801
16150203100.0 0.1397524 -0.9819378267
16200202800.0 0.1254352349 -0.9836828231
16250202500.0 0.1101935549 -0.98556072
16300202200.0 0.0950984332 -0.9874159521
16350201900.0 0.0802794737 -0.9887922165
16400201600.0 0.0653722843 -0.9901229113
16450201300.0 0.0498413094 -0.9910660658
16500201000.0 0.0327022133 -0.9919592381
16550200700.0 0.0165815787 -0.9923753295
16600200400.0 0.0006841064 -0.9926657645
16650200100.0 -0.0153630853 -0.9925127265
16700199800.0 -0.0318255065 -0.9921552384
16750199500.0 -0.0509545836 -0.9914218773
16800199200.0 -0.0671304795 -0.9901508015
16850198900.0 -0.0827068806 -0.9895737263
16900198600.0 -0.0963728677 -0.9881697962
16950198300.0 -0.1107761183 -0.9875103975
17000198000.0 -0.1237181433 -0.9855010338
17050197700.0 -0.1361474335 -0.9840070657
17100197400.0 -0.1491653262 -0.9822199536
17150197100.0 -0.1617074957 -0.9799658377
17200196800.0 -0.1752471647 -0.9779623811
17250196500.0 -0.1876297205 -0.9751969614
17300196200.0 -0.199562226 -0.9728068576
17350195900.0 -0.2114483587 -0.9705108907
17400195600.0 -0.2232544197 -0.9679669584
17450195300.0 -0.2360718091 -0.9654230175
17500195000.0 -0.2494128907 -0.961859885
17550194700.0 -0.2631505327 -0.9584405049
17600194400.0 -0.2771677259 -0.9544995791
17650194100.0 -0.290596479 -0.9503438089
17700193800.0 -0.3035103739 -0.9461064381
17750193500.0 -0.3177364542 -0.9417128863
17800193200.0 -0.3314622368 -0.9362283019
17850192900.0 -0.3464587869 -0.9308550487
17900192600.0 -0.3619128505 -0.9247836026
17950192300.0 -0.3774924236 -0.9177681888
18000192000.0 -0.3920892198 -0.9104335796
18050191700.0 -0.4060294143 -0.9026878176
18100191400.0 -0.4202546153 -0.8948360209
18150191100.0 -0.4348962019 -0.8870142147
18200190800.0 -0.4517694892 -0.8779898452
18250190500.0 -0.4687589679 -0.8682734126
18300190200.0 -0.4839496771 -0.8598929162
18350189900.0 -0.4994508733 -0.8509786835
18400189600.0 -0.5136735919 -0.8430360491
18450189300.0 -0.5275743446 -0.8345955078
18500189000.0 -0.5408232486 -0.8264335211
18550188700.0 -0.5538196189 -0.8193051228
18600188400.0 -0.5655628819 -0.8123079724
18650188100.0 -0.5765782973 -0.8050448835
18700187800.0 -0.5879260118 -0.7988217867
18750187500.0 -0.5986660617 -0.7920743729
18800187200.0 -0.6092553639 -0.7851717795
18850186900.0 -0.6194610671 -0.7783194148
18900186600.0 -0.6298458111 -0.7709293994
18950186300.0 -0.6401865582 -0.7630870962
19000186000.0 -0.6475828524 -0.7568994632
19050185700.0 -0.6567469159 -0.7497684553
19100185400.0 -0.6669604309 -0.7418577971
19150185100.0 -0.6768892435 -0.7331040402
19200184800.0 -0.6863314465 -0.724760269
19250184500.0 -0.6966696396 -0.7160032494
19300184200.0 -0.7077913094 -0.7060452525
19350183900.0 -0.7186103773 -0.6967559254
19400183600.0 -0.7288431462 -0.6865574866
19450183300.0 -0.737656959 -0.6764065994
19500183000.0 -0.7453616829 -0.6668235091
19550182700.0 -0.7554440408 -0.6555117597
19600182400.0 -0.7661086592 -0.6438132663
19650182100.0 -0.7765718204 -0.631519429
19700181800.0 -0.786819792 -0.6183978684
19750181500.0 -0.7970762283 -0.6042459337
19800181200.0 -0.8074662253 -0.5893090173
19850180900.0 -0.8170200509 -0.5737183721
19900180600.0 -0.8244562111 -0.5595965524
19950180300.0 -0.8337429562 -0.5434432684
20000180000.0 -0.8236268994 -0.546853923
20050179700.0 -0.8308578219 -0.5343829943
20100179400.0 -0.8398567221 -0.5211850385
20150179100.0 -0.8475816705 -0.5095811711
20200178800.0 -0.8555152505 -0.4984503089
20250178500.0 -0.8654687191 -0.4856089167
20300178200.0 -0.8744264421 -0.4717625006
20350177900.0 -0.884159001 -0.4585390511
20400177600.0 -0.893273813 -0.4437142594
20450177300.0 -0.9015351708 -0.4297631538
20500177000.0 -0.9098021817 -0.4159182689
20550176700.0 -0.9179176194 -0.4022611386
20600176400.0 -0.9247313609 -0.3893532211
20650176100.0 -0.9309596364 -0.3776139178
20700175800.0 -0.9376433986 -0.3649235022
20750175500.0 -0.9442634554 -0.354326372
20800175200.0 -0.9485337453 -0.3429060463
20850174900.0 -0.953288824 -0.3324291052
20900174600.0 -0.958157308 -0.3212720644
20950174300.0 -0.9611454737 -0.3094546772
21000174000.0 -0.9632310309 -0.2996329682
21050173700.0 -0.9649604658 -0.2901753473
21100173400.0 -0.9685761392 -0.2790964758
21150173100.0 -0.9727626935 -0.2667237201
21200172800.0 -0.9762177475 -0.2539685698
21250172500.0 -0.9800179892 -0.2406716514
21300172200.0 -0.9836437747 -0.2265846588
21350171900.0 -0.9857433696 -0.2118861927
21400171600.0 -0.9882456156 -0.1982490848
21450171300.0 -0.9890040263 -0.1841637004
21500171000.0 -0.9893503366 -0.169170527
21550170700.0 -0.9896466465 -0.1545760015
21600170400.0 -0.9909672008 -0.1382057711
21650170100.0 -0.9901912246 -0.1235922568
21700169800.0 -0.989384716 -0.1087369639
21750169500.0 -0.9901483255 -0.0915826339
21800169200.0 -0.9906326052 -0.0742008913
21850168900.0 -0.990383658 -0.0582609316
21900168600.0 -0.9895515867 -0.0423905973
21950168300.0 -0.9894301491 -0.0260814191
22000168000.0 -0.9892073448 -0.0114554487
22050167700.0 -0.9904510854 0.0030040581
22100167400.0 -0.990897186 0.0188575796
22150167100.0 -0.9916988238 0.0353948827
22200166800.0 -0.9922375189 0.0518726667
22250166500.0 -0.9921085303 0.0692484592
22300166200.0 -0.990821848 0.0853937627
22350165900.0 -0.9901978402 0.1013638307
22400165600.0 -0.9882017481 0.1168403616
22450165300.0 -0.9868073877 0.1326200604
22500165000.0 -0.9846904751 0.146865603
22550164700.0 -0.983614332 0.1628275199
22600164400.0 -0.9806858069 0.1800509741
22650164100.0 -0.9781431143 0.1949301823
22700163800.0 -0.9753505355 0.2117202467
22750163500.0 -0.97249917 0.2259736564
22800163200.0 -0.9701687606 0.238854615
22850162900.0 -0.9664628164 0.2525294219
22900162600.0 -0.9652133113 0.2662143932
22950162300.0 -0.963270865 0.2799540574
23000162000.0 -0.9614409454 0.292955472
23050161700.0 -0.9586275501 0.3063127355
23100161400.0 -0.9552288035 0.3201592309
23150161100.0 -0.9528116429 0.3325687016
23200160800.0 -0.9497358267 0.3453793171
23250160500.0 -0.9469654954 0.3580998228
23300160200.0 -0.9442227626 0.3699286349
23350159900.0 -0.9406225564 0.3846621768
23400159600.0 -0.9350482165 0.3984581655
23450159300.0 -0.930011669 0.4121502053
23500159000.0 -0.9249960216 0.4255893712
23550158700.0 -0.9199547252 0.4401926047
23600158400.0 -0.9142631035 0.4539871741
23650158100.0 -0.9067125269 0.468753203
23700157800.0 -0.8981029443 0.4830888969
23750157500.0 -0.8885073064 0.4975100885
23800157200.0 -0.8790060497 0.510877905
23850156900.0 -0.8692161468 0.5233188012
23900156600.0 -0.8586129995 0.5359038993
23950156300.0 -0.8499352107 0.5490732802
24000156000.0 -0.8394915398 0.5614362156
24050155700.0 -0.8283750751 0.5732670497
24100155400.0 -0.8186796604 0.5864921341
24150155100.0 -0.8075877008 0.5983353076
24200154800.0 -0.7968180483 0.6100405546
24250154500.0 -0.7852957562 0.6223145248
24300154200.0 -0.773477393 0.6349937935
24350153900.0 -0.7619874899 0.645581188
24400153600.0 -0.7495235871 0.6565997792
24450153300.0 -0.7372997098 0.667085448
24500153000.0 -0.7256064774 0.6770045108
24550152700.0 -0.7141477767 0.6869069788
24600152400.0 -0.7018330068 0.6957879563
24650152100.0 -0.6899996434 0.7050007505
