!Created with skrf (http://scikit-rf.org).
# Hz S RI R 50.0 
!freq ReS11 ImS11
300000.0 -0.9743063281 -0.1218826178
50299700.0 -0.999839556 0.0151608281
100299400.0 -0.9978195243 0.0281911747
150299100.0 -1.00273239 0.0449322238
200298800.0 -0.9995276637 0.0580835482
250298500.0 -0.9974347428 0.0717499696
300298200.0 -0.985938009 0.0877636361
350297900.0 -0.9940754343 0.0984883416
400297600.0 -0.9929787575 0.1150837123
450297300.0 -0.9909307064 0.1288907167
500297000.0 -0.989559182 0.1436592321
550296700.0 -0.9843026956 0.1560934751
600296400.0 -1.017332972 0.1895259821
650296100.0 -0.9819899007 0.1857632706
700295800.0 -0.9793346583 0.2002485326
750295500.0 -0.9762188823 0.2142513594
800295200.0 -0.9730000716 0.2282576862
850294900.0 -0.9695389347 0.2421300039
900294600.0 -0.9659205679 0.2560255302
950294300.0 -0.9620466967 0.2695616454
1000294000.0 -0.9582338629 0.2835400059
1050293700.0 -0.9535840969 0.2973648528
1100293400.0 -0.9493615178 0.3117046074
1150293100.0 -0.9454954619 0.3239491121
1200292800.0 -0.9402071755 0.3381013063
1250292500.0 -0.9347582042 0.3514407944
1300292200.0 -0.9288712475 0.3644578471
1350291900.0 -0.9234155775 0.3786868399
1400291600.0 -0.9179553938 0.3919079733
1450291300.0 -0.9124862392 0.4041827461
1500291000.0 -0.9062524441 0.4175413456
1550290700.0 -0.8996489957 0.4309537683
1600290400.0 -0.8935379834 0.443878745
1650290100.0 -0.8866654177 0.455995023
1700289800.0 -0.8800752886 0.4695328183
1750289500.0 -0.873004054 0.4816762918
1800289200.0 -0.8655348235 0.4946998169
1850288900.0 -0.8587725297 0.5058750015
1900288600.0 -0.8509329293 0.5189496619
1950288300.0 -0.8427313205 0.5316203113
2000288000.0 -0.8354546015 0.5429975644
2050287700.0 -0.8271321544 0.5552635726
2100287400.0 -0.8191727946 0.5669409145
2150287100.0 -0.810651741 0.5788597492
2200286800.0 -0.8030144619 0.5894078263
2250286500.0 -0.794085263 0.6014186524
2300286200.0 -0.785190218 0.6129810144
2350285900.0 -0.7766257029 0.623989809
2400285600.0 -0.7676394984 0.6349756614
2450285300.0 -0.7589999418 0.6451725589
2500285000.0 -0.7492477878 0.6564396344
2550284700.0 -0.7403838474 0.666874323
2600284400.0 -0.7308338771 0.6769710603
2650284100.0 -0.7219840549 0.6873814673
2700283800.0 -0.7115796462 0.6981143845
2750283500.0 -0.701388892 0.7085782666
2800283200.0 -0.6915023205 0.7186190528
2850282900.0 -0.6811173885 0.728138793
2900282600.0 -0.6707952757 0.7378820755
2950282300.0 -0.6606578862 0.7473058843
3000282000.0 -0.6497138508 0.7566894939
3050281700.0 -0.6385452758 0.765848368
3100281400.0 -0.6266696926 0.775278616
3150281100.0 -0.6152205083 0.7844378367
3200280800.0 -0.6035214927 0.792978243
3250280500.0 -0.5925457777 0.8007690812
3300280200.0 -0.5812196996 0.808746369
3350279900.0 -0.569645134 0.8162925259
3400279600.0 -0.5573993534 0.8241050291
3450279300.0 -0.5461056901 0.8311301563
3500279000.0 -0.5340834405 0.8383015728
3550278700.0 -0.521752932 0.845476575
3600278400.0 -0.5098685488 0.8527246029
3650278100.0 -0.496628043 0.8602031902
3700277800.0 -0.4845882516 0.866740448
3750277500.0 -0.4720772004 0.8732286537
3800277200.0 -0.4597721093 0.8797045643
3850276900.0 -0.4476457492 0.8858065425
3900276600.0 -0.4369283401 0.8913063318
3950276300.0 -0.4247236422 0.897486315
4000276000.0 -0.4125760883 0.9034904853
4050275700.0 -0.3998874201 0.9094191379
4100275400.0 -0.3885566089 0.9148751219
4150275100.0 -0.3755622817 0.920580379
4200274800.0 -0.3627195269 0.9262604295
4250274500.0 -0.3506953502 0.9313300439
4300274200.0 -0.3374540472 0.9364995703
4350273900.0 -0.3235646719 0.9418445954
4400273600.0 -0.3088293446 0.9471649061
4450273300.0 -0.2935748636 0.9523514495
4500273000.0 -0.2801548619 0.9565882406
4550272700.0 -0.2658754111 0.9608056622
4600272400.0 -0.2504906628 0.9649704988
4650272100.0 -0.2389448055 0.9682126423
4700271800.0 -0.2256158325 0.971502028
4750271500.0 -0.2138832537 0.9743833062
4800271200.0 -0.2015558914 0.97693978
4850270900.0 -0.187660058 0.9799417405
4900270600.0 -0.1737093486 0.9822935414
4950270300.0 -0.1593543152 0.9849632965
5000270000.0 -0.1450483776 0.9869535381
5050269700.0 -0.1316807866 0.9885627904
5100269400.0 -0.1178429005 0.9900305492
5150269100.0 -0.1042703335 0.9920778895
5200268800.0 -0.0911889402 0.9929345636
5250268500.0 -0.0777043931 0.9938802647
5300268200.0 -0.064801794 0.9946741056
5350267900.0 -0.0523475882 0.9950268297
5400267600.0 -0.0360798381 0.9963789512
5450267300.0 -0.0229997432 0.9964745581
5500267000.0 -0.0076666471 0.9969555201
5550266700.0 0.0070669 0.9971824441
5600266400.0 0.022755352 0.9975337465
5650266100.0 0.0392337723 0.9970066421
5700265800.0 0.053876097 0.9963197162
5750265500.0 0.0687846492 0.9953947139
5800265200.0 0.0827584136 0.9945106329
5850264900.0 0.0959007145 0.9935682549
5900264600.0 0.1126372935 0.9920384787
5950264300.0 0.1244646195 0.9900751268
6000264000.0 0.1385527177 0.9884066594
6050263700.0 0.1505031108 0.98677618
6100263400.0 0.1628561396 0.985267928
6150263100.0 0.1772998297 0.9826935634
6200262800.0 0.1876535331 0.9807886507
6250262500.0 0.2003891675 0.9784443994
6300262200.0 0.2131560631 0.9757668915
6350261900.0 0.2260387052 0.973115105
6400261600.0 0.2400107725 0.969835565
6450261300.0 0.2511868317 0.9670762294
6500261000.0 0.2641845347 0.9634909236
6550260700.0 0.2769578242 0.9594310523
6600260400.0 0.2904934164 0.9553130912
6650260100.0 0.3042842507 0.9509918361
6700259800.0 0.3164890516 0.9465419585
6750259500.0 0.330608904 0.9417854588
6800259200.0 0.3437692565 0.9368799973
6850258900.0 0.3557630535 0.9314811494
6900258600.0 0.3678575602 0.926569462
6950258300.0 0.3803733925 0.9211085701
7000258000.0 0.3923297018 0.9158189936
7050257700.0 0.4046800075 0.9099179612
7100257400.0 0.41765295 0.9035404038
7150257100.0 0.4280784827 0.8981901972
7200256800.0 0.4408447839 0.8918375654
7250256500.0 0.4527908785 0.8855789406
7300256200.0 0.4658175352 0.8787428959
7350255900.0 0.4781778584 0.8719040825
7400255600.0 0.491720003 0.8645147708
7450255300.0 0.5072240607 0.8554435522
7500255000.0 0.5193368239 0.8484688532
7550254700.0 0.5332633854 0.8396879932
7600254400.0 0.5453456136 0.831218045
7650254100.0 0.5570306382 0.8238609321
7700253800.0 0.5693107784 0.8156917725
7750253500.0 0.5802093591 0.8078907171
7800253200.0 0.5906980874 0.8002338125
7850252900.0 0.6004367038 0.7932653919
7900252600.0 0.6120692814 0.7845755524
7950252300.0 0.6207589949 0.7779682743
8000252000.0 0.6308570834 0.7702417694
8050251700.0 0.641405075 0.7620628771
8100251400.0 0.6513631128 0.753888997
8150251100.0 0.6612567156 0.7455051174
8200250800.0 0.6710323377 0.7373162361
8250250500.0 0.679533127 0.7295478397
8300250200.0 0.6892120081 0.7209288492
8350249900.0 0.6981788497 0.7122555149
8400249600.0 0.7063454119 0.7040762663
8450249300.0 0.7156112306 0.6949850231
8500249000.0 0.7239106348 0.6861026122
8550248700.0 0.7322654112 0.6770130893
8600248400.0 0.7408045754 0.6675501228
8650248100.0 0.7485337894 0.6580471285
8700247800.0 0.7580301572 0.6468518071
8750247500.0 0.7661734965 0.6367316621
8800247200.0 0.774571227 0.6264693083
8850246900.0 0.7830492924 0.6151387029
8900246600.0 0.7915033937 0.6037049175
8950246300.0 0.8010958502 0.5908623322
9000246000.0 0.8103681148 0.5781438584
9050245700.0 0.8195036922 0.565503988
9100245400.0 0.8276312298 0.5530137158
9150245100.0 0.8372020275 0.5393614962
9200244800.0 0.8467251622 0.524463387
9250244500.0 0.8561842671 0.5090445496
9300244200.0 0.8643086514 0.4949154055
9350243900.0 0.8720147976 0.4812687236
9400243600.0 0.8788221859 0.4689489078
9450243300.0 0.8845360265 0.4577218344
9500243000.0 0.8908073377 0.4457361907
9550242700.0 0.8947715844 0.4378067898
9600242400.0 0.8985863762 0.4303968976
9650242100.0 0.9026131455 0.4239274562
9700241800.0 0.9071507455 0.4154253945
9750241500.0 0.9109821089 0.4080232233
9800241200.0 0.9160449442 0.3987887533
9850240900.0 0.9216551843 0.3870500273
9900240600.0 0.9274432068 0.3753224703
9950240300.0 0.933944256 0.3590173306
10000240000.0 0.9384238603 0.3477321442
10050239700.0 0.9445150244 0.3322137962
10100239400.0 0.9497999883 0.3161304869
10150239100.0 0.9541866903 0.3014591993
10200238800.0 0.9580348545 0.2864221194
10250238500.0 0.9614335301 0.2731533012
10300238200.0 0.9645752427 0.2592659082
10350237900.0 0.9673043001 0.2458299748
10400237600.0 0.9699063818 0.2325206141
10450237300.0 0.9725555543 0.2187702065
10500237000.0 0.9749176864 0.2062969798
10550236700.0 0.977034173 0.1923821277
10600236400.0 0.9791002176 0.1787054452
10650236100.0 0.9814653109 0.1640080754
10700235800.0 0.9838136699 0.152236754
10750235500.0 0.9855701215 0.1387883948
10800235200.0 0.9879766021 0.1243264402
10850234900.0 0.989601985 0.1096758998
10900234600.0 0.9919049375 0.0950781693
10950234300.0 0.9935135261 0.0816701771
11000234000.0 0.9953373505 0.0664961341
11050233700.0 0.9969984706 0.0501898016
11100233400.0 0.998459919 0.032538573
11150233100.0 0.9996406721 0.0161416069
11200232800.0 1.000741333 0.0008034167
11250232500.0 1.000816479 -0.0151121366
11300232200.0 1.001434121 -0.0335719135
11350231900.0 1.00187906 -0.0495788293
11400231600.0 1.001475381 -0.0646801271
11450231300.0 1.000792206 -0.0804400907
11500231000.0 0.9996805136 -0.0961905662
11550230700.0 0.9988504228 -0.1098432171
11600230400.0 0.997208498 -0.1230841048
11650230100.0 0.9952981142 -0.134497636
11700229800.0 0.9930407231 -0.1490244592
11750229500.0 0.9906159211 -0.1630895959
11800229200.0 0.9880443396 -0.1770044605
11850228900.0 0.9844789115 -0.1892680181
11900228600.0 0.9806901713 -0.1991191486
11950228300.0 0.9776288358 -0.2092545119
12000228000.0 0.9748524083 -0.2182832577
12050227700.0 0.971084826 -0.2310383602
12100227400.0 0.9678562562 -0.2422157936
12150227100.0 0.9634961536 -0.2591940676
12200226800.0 0.9602020654 -0.2701017553
12250226500.0 0.9557293298 -0.282278077
12300226200.0 0.9517011389 -0.2937977886
12350225900.0 0.9464802021 -0.3090990771
12400225600.0 0.9425583869 -0.3209337788
12450225300.0 0.9370570055 -0.3343013656
12500225000.0 0.9319398195 -0.3488958268
12550224700.0 0.9262940527 -0.3629780049
12600224400.0 0.9217188906 -0.3757020023
12650224100.0 0.9158704979 -0.3900144408
12700223800.0 0.9105830195 -0.4028713108
12750223500.0 0.9049709218 -0.41597088
12800223200.0 0.8995539084 -0.4285656247
12850222900.0 0.8943555757 -0.4407747436
12900222600.0 0.8891669963 -0.4526795551
12950222300.0 0.8826861595 -0.4654046885
13000222000.0 0.8769512665 -0.4771637338
13050221700.0 0.8697298366 -0.4898401731
13100221400.0 0.8632529517 -0.5015676772
13150221100.0 0.8564623417 -0.5140552656
13200220800.0 0.8495557893 -0.5253247779
13250220500.0 0.8420430733 -0.5376730032
13300220200.0 0.8346003436 -0.5484276535
13350219900.0 0.8266354065 -0.5604164751
13400219600.0 0.8182869271 -0.5722896581
13450219300.0 0.8090335873 -0.5857985252
13500219000.0 0.7990706093 -0.5992249029
13550218700.0 0.7887498028 -0.6123310671
13600218400.0 0.778537702 -0.6243668579
13650218100.0 0.7691405303 -0.6350343048
13700217800.0 0.758632995 -0.6478269764
13750217500.0 0.7489056935 -0.6581013897
13800217200.0 0.7375785808 -0.6699752378
13850216900.0 0.7265212718 -0.6810234359
13900216600.0 0.716316519 -0.6903890839
13950216300.0 0.7054429542 -0.7014787744
14000216000.0 0.6957533085 -0.7103342274
14050215700.0 0.6859874646 -0.7183053259
14100215400.0 0.6763564444 -0.7273316747
14150215100.0 0.6671938578 -0.736084455
14200214800.0 0.6576168261 -0.7449582266
14250214500.0 0.6473301643 -0.7540461473
14300214200.0 0.6369833875 -0.7634246873
14350213900.0 0.6257780503 -0.7729562822
14400213600.0 0.6140019222 -0.7829066473
14450213300.0 0.6009279476 -0.793333445
14500213000.0 0.5876601489 -0.8031002214
14550212700.0 0.5746207716 -0.8122845654
14600212400.0 0.5630467356 -0.8212576688
14650212100.0 0.5501750179 -0.8298626466
14700211800.0 0.5354653496 -0.8393213695
14750211500.0 0.5239112867 -0.8477532271
14800211200.0 0.5117119356 -0.8555166755
14850210900.0 0.4998225767 -0.8633457722
14900210600.0 0.4861826193 -0.8713042571
14950210300.0 0.4728998975 -0.878949368
15000210000.0 0.4600970658 -0.8856249853
15050209700.0 0.4478578644 -0.8916994357
15100209400.0 0.4347754548 -0.8975227707
15150209100.0 0.4227893593 -0.9030418562
15200208800.0 0.4100216367 -0.9084134433
15250208500.0 0.3988017938 -0.9129579187
15300208200.0 0.3860358582 -0.9177609228
15350207900.0 0.3731892166 -0.9217857455
15400207600.0 0.3591397764 -0.9279746684
15450207300.0 0.3442974973 -0.9337449297
15500207000.0 0.3294942257 -0.9375377279
15550206700.0 0.3147515227 -0.9418166361
15600206400.0 0.2990351746 -0.947640564
15650206100.0 0.2831226738 -0.9510864685
15700205800.0 0.2694691023 -0.9546742993
15750205500.0 0.2550849747 -0.9584638156
15800205200.0 0.2408022696 -0.9618912447
15850204900.0 0.226354501 -0.9654759521
15900204600.0 0.2111882521 -0.9690334511
15950204300.0 0.1972923017 -0.971983069
16000204000.0 0.1827904479 -0.9748532203
16050203700.0 0.1678149423 -0.9777532727
16100203400.0 0.1532641343 -0.9796778013
16150203100.0 0.1388613966 -0.9823348433
16200202800.0 0.1245177 -0.9845275025
16250202500.0 0.1097483285 -0.9861538476
16300202200.0 0.0941485855 -0.9878669444
16350201900.0 0.0792967953 -0.9892377558
16400201600.0 0.0642948126 -0.989915319
16450201300.0 0.0493376019 -0.9913307767
16500201000.0 0.0324721813 -0.9919855453
16550200700.0 0.0166866867 -0.9924950058
16600200400.0 0.0009244848 -0.9926368536
16650200100.0 -0.0151618249 -0.9928174512
16700199800.0 -0.0312131371 -0.9923731157
16750199500.0 -0.0497544719 -0.9916856244
16800199200.0 -0.0654024006 -0.9911485127
16850198900.0 -0.0811992232 -0.9897452121
16900198600.0 -0.0949712122 -0.9883528758
16950198300.0 -0.1087073871 -0.9874096661
17000198000.0 -0.1212119544 -0.9863113817
17050197700.0 -0.1343063331 -0.984124123
17100197400.0 -0.1469710716 -0.9821725953
17150197100.0 -0.1599746937 -0.9804244017
17200196800.0 -0.1721374516 -0.9781988449
17250196500.0 -0.1852988105 -0.9759896703
17300196200.0 -0.1976671311 -0.9734052074
17350195900.0 -0.209358034 -0.9711413241
17400195600.0 -0.221282461 -0.9687236077
17450195300.0 -0.2345803938 -0.9659256864
17500195000.0 -0.2478716643 -0.9626198478
17550194700.0 -0.2616723686 -0.9592458207
17600194400.0 -0.2755366087 -0.9551087064
17650194100.0 -0.2890218493 -0.950580666
17700193800.0 -0.3024070778 -0.9469254078
17750193500.0 -0.3165898912 -0.9424740224
17800193200.0 -0.3309739842 -0.9365539455
17850192900.0 -0.3457362209 -0.9314808575
17900192600.0 -0.3613209178 -0.9253353372
17950192300.0 -0.3768655926 -0.918371489
18000192000.0 -0.3917842065 -0.9109673644
18050191700.0 -0.4055883152 -0.9031173975
18100191400.0 -0.4197733305 -0.8956003547
18150191100.0 -0.4346669528 -0.8875282079
18200190800.0 -0.4515894271 -0.8784070289
18250190500.0 -0.4687820965 -0.8688320335
18300190200.0 -0.4844677168 -0.8603476773
18350189900.0 -0.4989425097 -0.8519130081
18400189600.0 -0.5134697171 -0.8433209891
18450189300.0 -0.5270720827 -0.8357475476
18500189000.0 -0.5401125713 -0.8276416658
18550188700.0 -0.5529439021 -0.8199533504
18600188400.0 -0.5646945508 -0.8134752341
18650188100.0 -0.5753602199 -0.8066722916
18700187800.0 -0.5866442765 -0.8003298568
18750187500.0 -0.5974865074 -0.7936368896
18800187200.0 -0.607871567 -0.7868781175
18850186900.0 -0.6180381373 -0.7798157258
18900186600.0 -0.6282382196 -0.7724321058
18950186300.0 -0.6383493079 -0.764724069
19000186000.0 -0.6453161574 -0.7587091721
19050185700.0 -0.6544492776 -0.7514001736
19100185400.0 -0.6648240994 -0.7435548535
19150185100.0 -0.6745589672 -0.7345559634
19200184800.0 -0.6842479078 -0.7261236405
19250184500.0 -0.6938558044 -0.7174613935
19300184200.0 -0.7062422892 -0.7077942264
19350183900.0 -0.7163199735 -0.6979814087
19400183600.0 -0.7263184537 -0.687350576
19450183300.0 -0.7351821075 -0.6782306327
19500183000.0 -0.7434212666 -0.6680457637
19550182700.0 -0.7532858111 -0.6572070352
19600182400.0 -0.7636244574 -0.6452645363
19650182100.0 -0.7741383717 -0.6329128811
19700181800.0 -0.7851499504 -0.6198796033
19750181500.0 -0.7957706357 -0.6057031946
19800181200.0 -0.8060079887 -0.5906096332
19850180900.0 -0.8157145138 -0.5753176025
19900180600.0 -0.8235499751 -0.5606292211
19950180300.0 -0.8328167338 -0.544504279
20000180000.0 -0.8254875065 -0.5473193298
20050179700.0 -0.8334250791 -0.5333987991
20100179400.0 -0.8418586875 -0.5203399021
20150179100.0 -0.8501864109 -0.5080995368
20200178800.0 -0.8588130476 -0.495458584
20250178500.0 -0.8687473288 -0.4816708844
20300178200.0 -0.8779103648 -0.4677182393
20350177900.0 -0.8868043983 -0.4538417291
20400177600.0 -0.8958323297 -0.4391523518
20450177300.0 -0.9044231859 -0.4247689543
20500177000.0 -0.9125636993 -0.4111495248
20550176700.0 -0.920207455 -0.3974140512
20600176400.0 -0.9271706408 -0.384675164
20650176100.0 -0.933936013 -0.372142083
20700175800.0 -0.9407533969 -0.3599402143
20750175500.0 -0.9464989786 -0.347815806
20800175200.0 -0.9511650737 -0.3378666105
20850174900.0 -0.9559546848 -0.3273591076
20900174600.0 -0.9602745042 -0.3154408172
20950174300.0 -0.9648114059 -0.3043702453
21000174000.0 -0.9676587682 -0.2935377894
21050173700.0 -0.9705166896 -0.2823814493
21100173400.0 -0.9742558787 -0.2707785047
21150173100.0 -0.9780939973 -0.2586302824
21200172800.0 -0.9819537588 -0.2449265789
21250172500.0 -0.9851021452 -0.2318006247
21300172200.0 -0.9879223685 -0.2173211145
21350171900.0 -0.989753232 -0.2034991721
21400171600.0 -0.9910527618 -0.1890568549
21450171300.0 -0.9913874551 -0.1739439679
21500171000.0 -0.9917471597 -0.158162756
21550170700.0 -0.9925051236 -0.1439086772
21600170400.0 -0.9925996231 -0.1278826842
21650170100.0 -0.992544392 -0.1125378968
21700169800.0 -0.989991403 -0.0966134135
21750169500.0 -0.989706097 -0.0806758399
21800169200.0 -0.9896303905 -0.0644356855
21850168900.0 -0.9879433553 -0.0480811201
21900168600.0 -0.9859926995 -0.0309276259
21950168300.0 -0.9855421387 -0.0154739634
22000168000.0 -0.9849208221 -0.0005625272
22050167700.0 -0.9851609599 0.0136396361
22100167400.0 -0.9851725699 0.0292417463
22150167100.0 -0.9858226699 0.0450889891
22200166800.0 -0.9865549634 0.0612361767
22250166500.0 -0.9855372677 0.0782743323
22300166200.0 -0.9850457734 0.0945518647
22350165900.0 -0.9833906456 0.1113558599
22400165600.0 -0.9822302409 0.1274435163
22450165300.0 -0.9805018112 0.1429831491
22500165000.0 -0.9779362194 0.1553073758
22550164700.0 -0.9772540593 0.1719662211
22600164400.0 -0.9758355484 0.18726941
22650164100.0 -0.9726430953 0.2018045068
22700163800.0 -0.9702494704 0.2180189333
22750163500.0 -0.9678898941 0.2325360252
22800163200.0 -0.9645460107 0.2460528056
22850162900.0 -0.9622884591 0.2597298496
22900162600.0 -0.9609091624 0.2731074914
22950162300.0 -0.9596578152 0.2858338036
23000162000.0 -0.9582367543 0.2979257206
23050161700.0 -0.9563141394 0.31065909
23100161400.0 -0.9536433777 0.3234667908
23150161100.0 -0.9508341079 0.3360097799
23200160800.0 -0.9478736755 0.3486492241
23250160500.0 -0.9454441667 0.3605851691
23300160200.0 -0.9425591519 0.3729687099
23350159900.0 -0.9395640819 0.3858767062
23400159600.0 -0.9341851142 0.3992792775
23450159300.0 -0.9292386543 0.4127701386
23500159000.0 -0.925031039 0.4254316866
23550158700.0 -0.9201064164 0.4393102856
23600158400.0 -0.9148970172 0.452644993
23650158100.0 -0.9082336277 0.4668616126
23700157800.0 -0.9006501642 0.4809445226
23750157500.0 -0.8919033511 0.4953769522
23800157200.0 -0.8826567435 0.5086090346
23850156900.0 -0.8740343471 0.5212814626
23900156600.0 -0.8648922073 0.5334495275
23950156300.0 -0.8556368169 0.5459609078
24000156000.0 -0.8463510602 0.5579029415
24050155700.0 -0.8359038905 0.5701447671
24100155400.0 -0.8264069374 0.5817416363
24150155100.0 -0.8152925298 0.5939851796
24200154800.0 -0.8044663621 0.6049489951
24250154500.0 -0.7928044665 0.6176974565
24300154200.0 -0.7815038302 0.6287167202
24350153900.0 -0.7697584034 0.6396268996
24400153600.0 -0.7573143825 0.6495286841
24450153300.0 -0.7461786763 0.6597767363
24500153000.0 -0.7345304251 0.6695254964
24550152700.0 -0.7229072987 0.6795408987
24600152400.0 -0.7109186191 0.6884757808
24650152100.0 -0.6994095641 0.696199607
