!Created with skrf (http://scikit-rf.org).
# Hz S RI R 50.0 
!freq ReS11 ImS11
300000.0 -0.9788197932 -0.110888805
50299700.0 -1.000059941 0.0158790265
100299400.0 -0.9980058651 0.0288166236
150299100.0 -1.002794285 0.0457193654
200298800.0 -0.9996825617 0.0590122507
250298500.0 -0.9974636078 0.0723873147
300298200.0 -0.9859548638 0.0882183014
350297900.0 -0.9941493892 0.0993015069
400297600.0 -0.9933682598 0.1156382724
450297300.0 -0.9911025928 0.1294777636
500297000.0 -0.9893501229 0.1444437198
550296700.0 -0.9844436788 0.1569269615
600296400.0 -1.017162718 0.190229272
650296100.0 -0.9824130648 0.1868019233
700295800.0 -0.9792002993 0.2011594556
750295500.0 -0.9763501197 0.2151871135
800295200.0 -0.9729659237 0.2292311271
850294900.0 -0.9695657581 0.2431112744
900294600.0 -0.965755798 0.2569825714
950294300.0 -0.9620787567 0.2705739678
1000294000.0 -0.9578086028 0.2843758883
1050293700.0 -0.9535802941 0.2983462955
1100293400.0 -0.9491460513 0.3126314283
1150293100.0 -0.9452338512 0.3244579954
1200292800.0 -0.9400583447 0.3388918535
1250292500.0 -0.9345705721 0.3522500996
1300292200.0 -0.9288290919 0.3655122351
1350291900.0 -0.9233241453 0.3794311598
1400291600.0 -0.9177491767 0.3928427939
1450291300.0 -0.9122721274 0.4051307291
1500291000.0 -0.905975278 0.418303622
1550290700.0 -0.8996137869 0.4314707517
1600290400.0 -0.8932459914 0.4444378073
1650290100.0 -0.8866663621 0.4568655461
1700289800.0 -0.8795838281 0.4702808226
1750289500.0 -0.8726705994 0.48248564
1800289200.0 -0.8652305291 0.4952277556
1850288900.0 -0.8586170058 0.5066658897
1900288600.0 -0.8507985082 0.5196478562
1950288300.0 -0.842644214 0.53235229
2000288000.0 -0.8350132533 0.5435861192
2050287700.0 -0.8268538579 0.5562342213
2100287400.0 -0.8187851246 0.5677705651
2150287100.0 -0.8102771732 0.579769442
2200286800.0 -0.8026475371 0.589978782
2250286500.0 -0.7936173987 0.6022188273
2300286200.0 -0.7848217386 0.6137837033
2350285900.0 -0.7758739243 0.6247464935
2400285600.0 -0.7672531834 0.6356640898
2450285300.0 -0.7584357026 0.6460795405
2500285000.0 -0.7486589369 0.6575662148
2550284700.0 -0.7399337147 0.6678237243
2600284400.0 -0.7301909095 0.6777689164
2650284100.0 -0.7214486967 0.688403222
2700283800.0 -0.7109144785 0.6988901375
2750283500.0 -0.700436395 0.7096370318
2800283200.0 -0.6905301791 0.7189432984
2850282900.0 -0.6804872873 0.7290983843
2900282600.0 -0.6700006248 0.7387636349
2950282300.0 -0.6598959008 0.7477256375
3000282000.0 -0.6491050462 0.757341971
3050281700.0 -0.6379136418 0.7665771597
3100281400.0 -0.6261053145 0.7758902989
3150281100.0 -0.6142204578 0.785313478
3200280800.0 -0.6025393432 0.7938355082
3250280500.0 -0.5918096638 0.8015485097
3300280200.0 -0.580544137 0.8092511694
3350279900.0 -0.5690382066 0.8169673002
3400279600.0 -0.5570745532 0.8245141917
3450279300.0 -0.5458305829 0.8317387329
3500279000.0 -0.5339905504 0.8387837533
3550278700.0 -0.5213103643 0.8461005607
3600278400.0 -0.5090319521 0.8532456684
3650278100.0 -0.4959811285 0.8610202904
3700277800.0 -0.4838082153 0.8671732375
3750277500.0 -0.4715848182 0.8737754742
3800277200.0 -0.4592458591 0.8802072307
3850276900.0 -0.4468450437 0.8862430627
3900276600.0 -0.4360041115 0.8917414919
3950276300.0 -0.4237409254 0.8978000783
4000276000.0 -0.4114326422 0.9040707251
4050275700.0 -0.3989171052 0.9099146323
4100275400.0 -0.3875372796 0.9153146293
4150275100.0 -0.3747759841 0.9210344874
4200274800.0 -0.3617323544 0.926305697
4250274500.0 -0.3496237443 0.9316653416
4300274200.0 -0.3367053197 0.9370199841
4350273900.0 -0.3226929207 0.942269612
4400273600.0 -0.3077495672 0.9476218354
4450273300.0 -0.2924610535 0.952861118
4500273000.0 -0.278913007 0.9569525901
4550272700.0 -0.2645160316 0.9612199286
4600272400.0 -0.2490662834 0.9653750533
4650272100.0 -0.2373240099 0.9685757559
4700271800.0 -0.2241759883 0.9719699449
4750271500.0 -0.2124139669 0.9747989116
4800271200.0 -0.1998727339 0.9773074708
4850270900.0 -0.1860137274 0.9802745882
4900270600.0 -0.1722099378 0.9828023197
4950270300.0 -0.1579246094 0.9852240899
5000270000.0 -0.1436184386 0.9870316258
5050269700.0 -0.1302165958 0.9890708724
5100269400.0 -0.1166550646 0.9905337161
5150269100.0 -0.1033434797 0.9921109513
5200268800.0 -0.0899494108 0.9934561838
5250268500.0 -0.0768713964 0.9942115813
5300268200.0 -0.0640718884 0.9948827541
5350267900.0 -0.0517272099 0.9957071536
5400267600.0 -0.0355633552 0.9967807689
5450267300.0 -0.02260554 0.9968582214
5500267000.0 -0.0072353261 0.9974087876
5550266700.0 0.0077421886 0.9974332057
5600266400.0 0.0232165246 0.9973177372
5650266100.0 0.0400113329 0.9972932584
5700265800.0 0.0542650322 0.9961941839
5750265500.0 0.0699169257 0.995524013
5800265200.0 0.0834895399 0.9944052708
5850264900.0 0.0973060391 0.9940859459
5900264600.0 0.113945238 0.9916887748
5950264300.0 0.1254724929 0.9898478404
6000264000.0 0.1399103338 0.9882170484
6050263700.0 0.1520689934 0.9866779895
6100263400.0 0.1644952655 0.9846831962
6150263100.0 0.1789957858 0.9823838569
6200262800.0 0.18944208 0.9806550439
6250262500.0 0.202287913 0.9782259999
6300262200.0 0.2150365281 0.9754664612
6350261900.0 0.2280269058 0.972418137
6400261600.0 0.2419049708 0.9691897355
6450261300.0 0.2532677238 0.9664133511
6500261000.0 0.2656571202 0.9626550206
6550260700.0 0.2790177309 0.9590085149
6600260400.0 0.2924568988 0.9547310079
6650260100.0 0.3065804364 0.9506423488
6700259800.0 0.3183212389 0.9460705066
6750259500.0 0.3320407765 0.941197188
6800259200.0 0.3449154835 0.9362562395
6850258900.0 0.3572187583 0.9313310194
6900258600.0 0.3694009458 0.926096176
6950258300.0 0.3816847802 0.9207532126
7000258000.0 0.3936950206 0.9154644892
7050257700.0 0.4060423187 0.9094214199
7100257400.0 0.4189559567 0.9032188954
7150257100.0 0.429095993 0.8978953108
7200256800.0 0.4419423146 0.8913162709
7250256500.0 0.4535950093 0.8851755334
7300256200.0 0.4665900588 0.8783882115
7350255900.0 0.4792144696 0.8715208171
7400255600.0 0.4924006547 0.8640769754
7450255300.0 0.5074630244 0.8553142909
7500255000.0 0.5196214999 0.8484548558
7550254700.0 0.5330177879 0.839626318
7600254400.0 0.5455168041 0.8311837892
7650254100.0 0.5572090771 0.8233376034
7700253800.0 0.5692463478 0.815269964
7750253500.0 0.580544844 0.8076812621
7800253200.0 0.5909787649 0.7998328762
7850252900.0 0.6008691365 0.7926885741
7900252600.0 0.6124425051 0.7841826338
7950252300.0 0.6213743183 0.7774030553
8000252000.0 0.6315029605 0.7697082678
8050251700.0 0.6418534712 0.7614582796
8100251400.0 0.6521351524 0.7531422397
8150251100.0 0.6622649248 0.7446612804
8200250800.0 0.6713891022 0.736611732
8250250500.0 0.6804775273 0.7285820224
8300250200.0 0.6899863287 0.7200313847
8350249900.0 0.6989248581 0.7115667244
8400249600.0 0.7072963769 0.7034065261
8450249300.0 0.7164383964 0.694264324
8500249000.0 0.7247822124 0.6854013562
8550248700.0 0.7332415652 0.6765172713
8600248400.0 0.7415729052 0.6667625152
8650248100.0 0.7492487187 0.6573871555
8700247800.0 0.7586155674 0.6462210142
8750247500.0 0.7671346772 0.6360998466
8800247200.0 0.7752394319 0.6256667864
8850246900.0 0.7840794446 0.6143465409
8900246600.0 0.792382895 0.6030047492
8950246300.0 0.8020730822 0.5899866381
9000246000.0 0.8115866578 0.5772076818
9050245700.0 0.820638667 0.5640768126
9100245400.0 0.8288690526 0.5515764712
9150245100.0 0.8386344352 0.5381696136
9200244800.0 0.8481410994 0.5226984138
9250244500.0 0.8576331489 0.5069702513
9300244200.0 0.8662791916 0.4922235936
9350243900.0 0.8739323305 0.4784433089
9400243600.0 0.8805221889 0.4660645498
9450243300.0 0.8866048686 0.4542724637
9500243000.0 0.8928288682 0.4419812964
9550242700.0 0.896394952 0.4343854871
9600242400.0 0.9002463708 0.4269926752
9650242100.0 0.9040717788 0.4205274727
9700241800.0 0.9082790758 0.4124034479
9750241500.0 0.9121815555 0.4049266363
9800241200.0 0.9172589667 0.3956820997
9850240900.0 0.922627561 0.3841293466
9900240600.0 0.928172978 0.3725046812
9950240300.0 0.9346584901 0.3563545195
10000240000.0 0.9394912994 0.3448374937
10050239700.0 0.9452410927 0.3292927373
10100239400.0 0.9501151317 0.3138267429
10150239100.0 0.9541917718 0.2992016274
10200238800.0 0.9584896278 0.2841159988
10250238500.0 0.9618006872 0.2709328326
10300238200.0 0.964952914 0.256970047
10350237900.0 0.9676135593 0.2439713333
10400237600.0 0.9701520628 0.2309465893
10450237300.0 0.9727424488 0.2172194939
10500237000.0 0.9748636866 0.205144115
10550236700.0 0.9770980124 0.1906740994
10600236400.0 0.9792345473 0.1776850819
10650236100.0 0.9811633103 0.1630530382
10700235800.0 0.9837155334 0.1510849172
10750235500.0 0.985536636 0.1379579877
10800235200.0 0.9874137164 0.1235737254
10850234900.0 0.9895702558 0.1089271872
10900234600.0 0.9918706987 0.0941844395
10950234300.0 0.9935019341 0.081072926
11000234000.0 0.9952776924 0.0658732379
11050233700.0 0.997100181 0.0494867918
11100233400.0 0.9984712826 0.0320858476
11150233100.0 0.9995487467 0.0157892261
11200232800.0 1.000344614 0.0006661623
11250232500.0 1.000881179 -0.0158438419
11300232200.0 1.002006186 -0.0337038938
11350231900.0 1.001884154 -0.0502436421
11400231600.0 1.001607641 -0.0652726818
11450231300.0 1.001144636 -0.0814990158
11500231000.0 0.9998716878 -0.0969102668
11550230700.0 0.9984401433 -0.1106627362
11600230400.0 0.9964795146 -0.1237707236
11650230100.0 0.9949481093 -0.1344169257
11700229800.0 0.992711045 -0.1494427199
11750229500.0 0.9904653647 -0.1647743997
11800229200.0 0.9878266846 -0.1782387115
11850228900.0 0.9840120052 -0.190454837
11900228600.0 0.9804037175 -0.2000584787
11950228300.0 0.9775094215 -0.2104981436
12000228000.0 0.9747062278 -0.2200449615
12050227700.0 0.9707960477 -0.2326104935
12100227400.0 0.96758072 -0.2435485285
12150227100.0 0.9630637314 -0.2594876648
12200226800.0 0.9593196199 -0.2708472147
12250226500.0 0.9558276551 -0.2832083999
12300226200.0 0.9509469609 -0.2954184127
12350225900.0 0.9462181399 -0.3098166063
12400225600.0 0.9419323522 -0.3219444915
12450225300.0 0.9375257661 -0.3350959211
12500225000.0 0.931632177 -0.349896432
12550224700.0 0.9266005406 -0.3633796705
12600224400.0 0.9216795983 -0.3759604396
12650224100.0 0.9158772903 -0.3903367105
12700223800.0 0.910724408 -0.4030126024
12750223500.0 0.9051413721 -0.4160476244
12800223200.0 0.8997722526 -0.4284519069
12850222900.0 0.8942034 -0.4409164543
12900222600.0 0.8885044437 -0.4529628621
12950222300.0 0.8819301655 -0.4660678783
13000222000.0 0.8764349765 -0.4769849586
13050221700.0 0.8697073332 -0.4903063819
13100221400.0 0.8630535198 -0.5019932424
13150221100.0 0.8559690193 -0.5140458186
13200220800.0 0.8488996034 -0.5255760502
13250220500.0 0.8418238779 -0.5379845215
13300220200.0 0.8344233908 -0.548671489
13350219900.0 0.8262735586 -0.5606221682
13400219600.0 0.8176534292 -0.5730119112
13450219300.0 0.8083457626 -0.5866508001
13500219000.0 0.7977126287 -0.6007435247
13550218700.0 0.7879575653 -0.6131793778
13600218400.0 0.7779446034 -0.6256530356
13650218100.0 0.7685522459 -0.6368067821
13700217800.0 0.7567111128 -0.6497303723
13750217500.0 0.7456716083 -0.6616081782
13800217200.0 0.7358079484 -0.6722473932
13850216900.0 0.7249061867 -0.68345783
13900216600.0 0.7146277415 -0.6924769615
13950216300.0 0.7033865918 -0.7027950927
14000216000.0 0.6937217729 -0.7121108094
14050215700.0 0.6842887203 -0.7199640855
14100215400.0 0.6743614106 -0.7296009841
14150215100.0 0.6651938785 -0.737494867
14200214800.0 0.6560119427 -0.7463863651
14250214500.0 0.6457014647 -0.7555614714
14300214200.0 0.6353297664 -0.764737641
14350213900.0 0.6243517574 -0.7744153555
14400213600.0 0.6122830256 -0.7840160347
14450213300.0 0.5996181207 -0.7943002726
14500213000.0 0.5863458871 -0.8040109011
14550212700.0 0.5736858004 -0.8136739386
14600212400.0 0.5609705018 -0.8221459243
14650212100.0 0.5484240483 -0.8310433759
14700211800.0 0.5348362607 -0.8402288799
14750211500.0 0.5222890304 -0.8485157743
14800211200.0 0.509684278 -0.8567054174
14850210900.0 0.4978649827 -0.8640698744
14900210600.0 0.4844937998 -0.8720634021
14950210300.0 0.4711778048 -0.8796809175
15000210000.0 0.4581342387 -0.886436317
15050209700.0 0.4456989649 -0.892663207
15100209400.0 0.4328446483 -0.8989710135
15150209100.0 0.4200845331 -0.9041834568
15200208800.0 0.4080368899 -0.9094517105
15250208500.0 0.3959971716 -0.9142001523
15300208200.0 0.3838664642 -0.9185202475
15350207900.0 0.371352618 -0.9232303554
15400207600.0 0.3564587552 -0.9287190576
15450207300.0 0.3410956337 -0.9340272464
15500207000.0 0.3270165541 -0.9382306592
15550206700.0 0.3116684932 -0.9433287648
15600206400.0 0.2960520315 -0.9486125686
15650206100.0 0.2805397136 -0.9525931516
15700205800.0 0.2664826657 -0.9556098127
15750205500.0 0.2519449536 -0.9592330865
15800205200.0 0.2374325971 -0.9626702589
15850204900.0 0.2231202654 -0.9661394553
15900204600.0 0.2079680072 -0.969727253
15950204300.0 0.1939883411 -0.9728168175
16000204000.0 0.1798353021 -0.9754542161
16050203700.0 0.1651538945 -0.977909054
16100203400.0 0.1501836102 -0.9803345315
16150203100.0 0.1363972112 -0.9828250666
16200202800.0 0.1221519173 -0.9840914094
16250202500.0 0.1073926835 -0.9860160348
16300202200.0 0.0924275583 -0.9877879386
16350201900.0 0.0774434021 -0.9888099387
16400201600.0 0.0629079828 -0.9900920441
16450201300.0 0.0474209351 -0.9911669391
16500201000.0 0.030924764 -0.9918463574
16550200700.0 0.0152540995 -0.9924073738
16600200400.0 -0.0006077542 -0.9925714941
16650200100.0 -0.0164486067 -0.9922786921
16700199800.0 -0.0333998903 -0.9919303617
16750199500.0 -0.0526284166 -0.9912211318
16800199200.0 -0.0677262548 -0.9906597099
16850198900.0 -0.0829211976 -0.9893217017
16900198600.0 -0.0965686825 -0.9889228805
16950198300.0 -0.1102899343 -0.986656048
17000198000.0 -0.1230725025 -0.9857590347
17050197700.0 -0.1354562541 -0.9838011571
17100197400.0 -0.1483020041 -0.9816596393
17150197100.0 -0.1610881094 -0.9795662177
17200196800.0 -0.1736635856 -0.9778581806
17250196500.0 -0.1869097039 -0.9752854117
17300196200.0 -0.1989549198 -0.9730195517
17350195900.0 -0.2108669685 -0.9706190767
17400195600.0 -0.2231008618 -0.9681850232
17450195300.0 -0.2362100461 -0.9654043967
17500195000.0 -0.249600117 -0.9620138552
17550194700.0 -0.2636933378 -0.9584527228
17600194400.0 -0.2773897159 -0.9542649589
17650194100.0 -0.2909214756 -0.9503541826
17700193800.0 -0.3043805867 -0.9461138145
17750193500.0 -0.3187605279 -0.9412114435
17800193200.0 -0.3332327503 -0.9361809288
17850192900.0 -0.3480993783 -0.9304549488
17900192600.0 -0.3630394543 -0.9243864096
17950192300.0 -0.3787018245 -0.9175072398
18000192000.0 -0.3933382633 -0.9103410463
18050191700.0 -0.407090696 -0.9022911081
18100191400.0 -0.4213562146 -0.8946668684
18150191100.0 -0.4362162266 -0.8865629809
18200190800.0 -0.4530744807 -0.8772940893
18250190500.0 -0.4700607858 -0.8677885882
18300190200.0 -0.4858771833 -0.859029461
18350189900.0 -0.50047348 -0.8507042814
18400189600.0 -0.5147081257 -0.8420428392
18450189300.0 -0.5283936357 -0.8343308679
18500189000.0 -0.5414095217 -0.8262052113
18550188700.0 -0.5540268771 -0.8187253369
18600188400.0 -0.5662881397 -0.8117681919
18650188100.0 -0.5769346094 -0.8056167931
18700187800.0 -0.587561742 -0.7988975851
18750187500.0 -0.5984501077 -0.7923736818
18800187200.0 -0.6091583112 -0.785468701
18850186900.0 -0.6193106641 -0.7783623769
18900186600.0 -0.6294888882 -0.7709531424
18950186300.0 -0.6395444123 -0.7630544234
19000186000.0 -0.6469389519 -0.7567939087
19050185700.0 -0.6561970978 -0.7498623846
19100185400.0 -0.6665713969 -0.7409250354
19150185100.0 -0.6765477922 -0.7328112844
19200184800.0 -0.6856115893 -0.7247305829
19250184500.0 -0.6958362853 -0.715269948
19300184200.0 -0.7070673398 -0.7058206987
19350183900.0 -0.718562524 -0.6958969893
19400183600.0 -0.7281189811 -0.6857725161
19450183300.0 -0.7372920172 -0.6756944188
19500183000.0 -0.7453740731 -0.66630628
19550182700.0 -0.7548855492 -0.6551675879
19600182400.0 -0.7651183216 -0.6436027006
19650182100.0 -0.7760439877 -0.631118954
19700181800.0 -0.7867644329 -0.6179213045
19750181500.0 -0.7971270135 -0.6037138045
19800181200.0 -0.8073871003 -0.5888820553
19850180900.0 -0.8169972938 -0.5733436154
19900180600.0 -0.8249029259 -0.5589540119
19950180300.0 -0.8338328634 -0.5423761964
20000180000.0 -0.8269936238 -0.5451728924
20050179700.0 -0.8355513313 -0.531935748
20100179400.0 -0.8431064085 -0.5190412493
20150179100.0 -0.851567824 -0.5060053024
20200178800.0 -0.8606664659 -0.4925408336
20250178500.0 -0.8701553143 -0.4800562661
20300178200.0 -0.8797902571 -0.4641932956
20350177900.0 -0.8880426346 -0.4507919367
20400177600.0 -0.8975809366 -0.436298139
20450177300.0 -0.9055722717 -0.42172942
20500177000.0 -0.9134352007 -0.4076250823
20550176700.0 -0.9215239675 -0.394249271
20600176400.0 -0.9280292531 -0.3808798957
20650176100.0 -0.9351660976 -0.3683223557
20700175800.0 -0.941792109 -0.3565930681
20750175500.0 -0.9477539862 -0.3449759713
20800175200.0 -0.9533410551 -0.3346362272
20850174900.0 -0.9578252327 -0.3224541291
20900174600.0 -0.9626361168 -0.3111319526
20950174300.0 -0.9663158322 -0.2998638956
21000174000.0 -0.9700308615 -0.2879893965
21050173700.0 -0.972207356 -0.2771184399
21100173400.0 -0.9779038564 -0.2651923442
21150173100.0 -0.981684575 -0.2525878054
21200172800.0 -0.9849108658 -0.2384045813
21250172500.0 -0.9878153283 -0.2245736024
21300172200.0 -0.9910302814 -0.2107206627
21350171900.0 -0.9922755199 -0.1967455109
21400171600.0 -0.9937696291 -0.1820036286
21450171300.0 -0.9939917645 -0.1672667211
21500171000.0 -0.99317976 -0.1530219555
21550170700.0 -0.9931720709 -0.1373490109
21600170400.0 -0.9933578648 -0.1207646014
21650170100.0 -0.9917188713 -0.1052668324
21700169800.0 -0.9918224208 -0.090133673
21750169500.0 -0.989183411 -0.0747850783
21800169200.0 -0.987805931 -0.0587247317
21850168900.0 -0.9858420513 -0.0419646095
21900168600.0 -0.9851812608 -0.0248835778
21950168300.0 -0.9843455085 -0.0094811526
22000168000.0 -0.9831114862 0.0053056699
22050167700.0 -0.9822767376 0.0194269141
22100167400.0 -0.9825352114 0.03460388
22150167100.0 -0.9830665273 0.049937905
22200166800.0 -0.9838481317 0.066199965
22250166500.0 -0.9826743637 0.0839265429
22300166200.0 -0.9829219018 0.1002533259
22350165900.0 -0.9806097976 0.1165713129
22400165600.0 -0.979328648 0.1322670507
22450165300.0 -0.9774778106 0.1473962012
22500165000.0 -0.9757495056 0.1605108538
22550164700.0 -0.9742469571 0.1751319042
22600164400.0 -0.9726620407 0.1916237762
22650164100.0 -0.9708679117 0.2067282372
22700163800.0 -0.9681189396 0.2228987106
22750163500.0 -0.9654127387 0.2377657573
22800163200.0 -0.9627926423 0.2512578696
22850162900.0 -0.959970156 0.2644772223
22900162600.0 -0.9582433817 0.2783594735
22950162300.0 -0.9575882138 0.29075911
23000162000.0 -0.9566203752 0.3026616704
23050161700.0 -0.9548050484 0.3150017276
23100161400.0 -0.9522838654 0.3281554278
23150161100.0 -0.949487454 0.3401398213
23200160800.0 -0.9463868283 0.3526585959
23250160500.0 -0.9437708378 0.3638730516
23300160200.0 -0.9411198404 0.3755878121
23350159900.0 -0.9375681035 0.3891132272
23400159600.0 -0.9335403601 0.4027057305
23450159300.0 -0.9280588825 0.4161601625
23500159000.0 -0.9234535418 0.4281793441
23550158700.0 -0.9194931663 0.441807589
23600158400.0 -0.9140845577 0.454692773
23650158100.0 -0.9076662942 0.4688157994
23700157800.0 -0.9000003531 0.4824990299
23750157500.0 -0.8914084451 0.4967489133
23800157200.0 -0.8826989253 0.5096683966
23850156900.0 -0.873909682 0.5222899601
23900156600.0 -0.8640233339 0.5349043373
23950156300.0 -0.8553041596 0.5464470139
24000156000.0 -0.8466632251 0.559866664
24050155700.0 -0.8356881977 0.5710034414
24100155400.0 -0.8259906733 0.583464472
24150155100.0 -0.8147683575 0.5944516332
24200154800.0 -0.8042525971 0.6061873697
24250154500.0 -0.7926582662 0.6177341321
24300154200.0 -0.7810700042 0.6299084869
24350153900.0 -0.7692234098 0.6401293734
24400153600.0 -0.7571349652 0.6504307249
24450153300.0 -0.7453509301 0.6599637946
24500153000.0 -0.73362362 0.6695311658
24550152700.0 -0.7227499889 0.6797955837
24600152400.0 -0.7109110466 0.6885530605
24650152100.0 -0.6997829252 0.6975880385
