!Created with skrf (http://scikit-rf.org).
# Hz S RI R 50.0 
!freq ReS11 ImS11
300000.0 -0.9752133546 -0.1175377668
50299700.0 -1.000082742 0.0153047136
100299400.0 -0.9980692719 0.0284441426
150299100.0 -1.002718248 0.0453514003
200298800.0 -0.9996813388 0.0585911101
250298500.0 -0.9975635714 0.072122046
300298200.0 -0.9860974365 0.0878778432
350297900.0 -0.994181445 0.0987192724
400297600.0 -0.9930988272 0.1153163307
450297300.0 -0.9909362179 0.1292080622
500297000.0 -0.9893579102 0.1440077599
550296700.0 -0.9845144517 0.1562642003
600296400.0 -1.017367144 0.1894854988
650296100.0 -0.9823820946 0.1862335246
700295800.0 -0.9792893696 0.2005060939
750295500.0 -0.9764285441 0.2144981662
800295200.0 -0.9731297809 0.228643392
850294900.0 -0.9697235149 0.2424140033
900294600.0 -0.96578357 0.2562383393
950294300.0 -0.9621412948 0.2698975022
1000294000.0 -0.9581410278 0.2838493154
1050293700.0 -0.9536796006 0.2973261243
1100293400.0 -0.9491052568 0.3119926596
1150293100.0 -0.9455885743 0.3239819916
1200292800.0 -0.9401520412 0.3381822023
1250292500.0 -0.9346475608 0.3516976607
1300292200.0 -0.9289607223 0.3649287426
1350291900.0 -0.9235086248 0.3787509208
1400291600.0 -0.9179926797 0.392117915
1450291300.0 -0.912371376 0.4044669269
1500291000.0 -0.9061957044 0.4180089212
1550290700.0 -0.8995857116 0.431183632
1600290400.0 -0.8933482905 0.4440447939
1650290100.0 -0.8865059564 0.456279733
1700289800.0 -0.8799196814 0.4695556809
1750289500.0 -0.8729584195 0.4819678845
1800289200.0 -0.865505927 0.4948803311
1850288900.0 -0.8584986338 0.5063023254
1900288600.0 -0.8510408237 0.5192319272
1950288300.0 -0.8426269739 0.5318326708
2000288000.0 -0.8353903069 0.5431291817
2050287700.0 -0.82725949 0.5555780345
2100287400.0 -0.8193574607 0.5670469078
2150287100.0 -0.8106509965 0.5793150576
2200286800.0 -0.8028455137 0.5895243339
2250286500.0 -0.7940589241 0.6015739861
2300286200.0 -0.7852120064 0.6132526211
2350285900.0 -0.776230004 0.6243577859
2400285600.0 -0.7673920726 0.6351895234
2450285300.0 -0.7589520866 0.6455665878
2500285000.0 -0.7489800864 0.6568059718
2550284700.0 -0.7402151373 0.6675370509
2600284400.0 -0.7309044755 0.6775948348
2650284100.0 -0.7220396819 0.6878463187
2700283800.0 -0.7115633387 0.6984025032
2750283500.0 -0.701037677 0.7089753736
2800283200.0 -0.6911919334 0.7186314208
2850282900.0 -0.6811130005 0.7285987413
2900282600.0 -0.6705748384 0.7382499282
2950282300.0 -0.6603548861 0.7475001843
3000282000.0 -0.6497423837 0.75673674
3050281700.0 -0.638436628 0.7661897694
3100281400.0 -0.62666193 0.7754931169
3150281100.0 -0.6148283695 0.7848197339
3200280800.0 -0.6031015924 0.7933495572
3250280500.0 -0.5923041688 0.8009918505
3300280200.0 -0.5809862638 0.8089244768
3350279900.0 -0.5693902791 0.8164841667
3400279600.0 -0.5572169597 0.8242267996
3450279300.0 -0.5462091615 0.8313334265
3500279000.0 -0.5343002086 0.8383288007
3550278700.0 -0.5216382875 0.8456027539
3600278400.0 -0.5094243654 0.8529178708
3650278100.0 -0.49625487 0.860393769
3700277800.0 -0.4842736548 0.8668231743
3750277500.0 -0.4721374577 0.8734608577
3800277200.0 -0.4595987618 0.8799196071
3850276900.0 -0.4474999494 0.8858266175
3900276600.0 -0.4365476291 0.8916720703
3950276300.0 -0.4242354966 0.8974774769
4000276000.0 -0.412426256 0.9035554507
4050275700.0 -0.39946898 0.9096870074
4100275400.0 -0.3880678325 0.9150367626
4150275100.0 -0.3753295917 0.9205650399
4200274800.0 -0.3625073463 0.926308331
4250274500.0 -0.3504257152 0.9314488583
4300274200.0 -0.3373055584 0.9368169121
4350273900.0 -0.3233814979 0.9422080283
4400273600.0 -0.3084986814 0.9472244393
4450273300.0 -0.2933826433 0.9522084433
4500273000.0 -0.2798781789 0.9566416804
4550272700.0 -0.2655675275 0.9608782134
4600272400.0 -0.2500711921 0.965159185
4650272100.0 -0.2386167285 0.968355168
4700271800.0 -0.2251272492 0.9716920951
4750271500.0 -0.2134477247 0.9745175823
4800271200.0 -0.201054801 0.977167053
4850270900.0 -0.1869720358 0.9800897712
4900270600.0 -0.1732106387 0.9825803108
4950270300.0 -0.15887093 0.9852347902
5000270000.0 -0.1446825457 0.9867551977
5050269700.0 -0.1311781598 0.9887508643
5100269400.0 -0.1175057569 0.9899360219
5150269100.0 -0.1041614942 0.9921943837
5200268800.0 -0.0906835226 0.9928530039
5250268500.0 -0.0775209655 0.994324932
5300268200.0 -0.0644767397 0.9950550582
5350267900.0 -0.0523435471 0.9953999157
5400267600.0 -0.0360627946 0.9963173113
5450267300.0 -0.0230852199 0.9967099932
5500267000.0 -0.00760136 0.9971639665
5550266700.0 0.0069787081 0.9972652382
5600266400.0 0.0227981653 0.9974221436
5650266100.0 0.0391129758 0.9968803715
5700265800.0 0.0537083384 0.9960254684
5750265500.0 0.0687296249 0.9953225135
5800265200.0 0.0829161424 0.9945520752
5850264900.0 0.0957902298 0.9931606402
5900264600.0 0.1125620306 0.991548847
5950264300.0 0.124392482 0.9902968757
6000264000.0 0.1385169631 0.9885450075
6050263700.0 0.1510251253 0.9866915172
6100263400.0 0.1634797487 0.9849789101
6150263100.0 0.1779252803 0.9825415578
6200262800.0 0.1883659574 0.9807813128
6250262500.0 0.2010334128 0.978381152
6300262200.0 0.213748217 0.9756703636
6350261900.0 0.2268098287 0.9727527986
6400261600.0 0.2406769569 0.9695469342
6450261300.0 0.2520992832 0.9668209513
6500261000.0 0.2645695932 0.9632226685
6550260700.0 0.2780172938 0.9594372336
6600260400.0 0.2910985544 0.9551923209
6650260100.0 0.3052352406 0.950795681
6700259800.0 0.3169662089 0.9466594245
6750259500.0 0.3308486452 0.9414948947
6800259200.0 0.3441908251 0.9367752719
6850258900.0 0.3559653487 0.9315669606
6900258600.0 0.368602471 0.9266086301
6950258300.0 0.3809392376 0.9213283656
7000258000.0 0.39260186 0.9158533757
7050257700.0 0.404979551 0.9096985031
7100257400.0 0.4178246133 0.9036626407
7150257100.0 0.4284654794 0.8984185528
7200256800.0 0.44117657 0.8917127987
7250256500.0 0.4528518841 0.885284946
7300256200.0 0.4663263266 0.8785847892
7350255900.0 0.4787588444 0.8716210506
7400255600.0 0.4915755517 0.8645816671
7450255300.0 0.5070823865 0.8556113066
7500255000.0 0.5190015799 0.8483091294
7550254700.0 0.5328042969 0.8396117863
7600254400.0 0.5451426281 0.8315692321
7650254100.0 0.5573001119 0.8237068814
7700253800.0 0.5688395163 0.8157709942
7750253500.0 0.5800339488 0.8079606011
7800253200.0 0.5904742369 0.8002542098
7850252900.0 0.6004042802 0.7933054215
7900252600.0 0.6119882211 0.7843371866
7950252300.0 0.6208182728 0.7778390244
8000252000.0 0.630930628 0.7703707934
8050251700.0 0.6413622836 0.7620189082
8100251400.0 0.6515015526 0.7538321591
8150251100.0 0.6614236922 0.7451411195
8200250800.0 0.6710552444 0.7374080137
8250250500.0 0.6800483328 0.7294489402
8300250200.0 0.6891515449 0.7207974995
8350249900.0 0.698145187 0.7120615971
8400249600.0 0.7065945992 0.7041478164
8450249300.0 0.715655957 0.6949943413
8500249000.0 0.7242321609 0.686016169
8550248700.0 0.7326028251 0.6769074825
8600248400.0 0.740935126 0.6674219268
8650248100.0 0.7487863524 0.6579791921
8700247800.0 0.758224186 0.6467208778
8750247500.0 0.766429472 0.6365380272
8800247200.0 0.7748966544 0.6262927766
8850246900.0 0.7834466029 0.6149207887
8900246600.0 0.7916959491 0.6036244952
8950246300.0 0.8015735809 0.5905579967
9000246000.0 0.8108218259 0.5779324267
9050245700.0 0.8196950343 0.5649095604
9100245400.0 0.827887693 0.5525440615
9150245100.0 0.8374352636 0.5388555685
9200244800.0 0.8472614206 0.5237250356
9250244500.0 0.8570241692 0.508328897
9300244200.0 0.8651770598 0.4939354998
9350243900.0 0.8728912383 0.4799505244
9400243600.0 0.879468088 0.467623358
9450243300.0 0.8854521232 0.4560431302
9500243000.0 0.8917086613 0.4439284098
9550242700.0 0.8954632508 0.4363038035
9600242400.0 0.8994106198 0.4288387429
9650242100.0 0.9030239458 0.422715536
9700241800.0 0.9077056812 0.4143114006
9750241500.0 0.9113973167 0.4069295659
9800241200.0 0.9162514946 0.3979059485
9850240900.0 0.9219174009 0.3860371785
9900240600.0 0.9273693429 0.3747330318
9950240300.0 0.9343507479 0.3580654549
10000240000.0 0.9391473982 0.3465415948
10050239700.0 0.9445486323 0.3315301103
10100239400.0 0.949547919 0.3157203924
10150239100.0 0.9537919954 0.3011593184
10200238800.0 0.9580928545 0.2860364187
10250238500.0 0.9615053614 0.2723945345
10300238200.0 0.9645754259 0.2584941457
10350237900.0 0.9672751181 0.2455921166
10400237600.0 0.9698168366 0.2324484505
10450237300.0 0.9724728993 0.2186798173
10500237000.0 0.9745426537 0.2065605006
10550236700.0 0.9767935271 0.192337977
10600236400.0 0.9792117601 0.1787328713
10650236100.0 0.9810881297 0.164194962
10700235800.0 0.9830079518 0.1514084538
10750235500.0 0.9856384145 0.1386091405
10800235200.0 0.9876508696 0.1243609792
10850234900.0 0.9896600442 0.1096690786
10900234600.0 0.9916145506 0.095042203
10950234300.0 0.9933879149 0.0818689997
11000234000.0 0.9952086026 0.0665124886
11050233700.0 0.9971046119 0.0501551427
11100233400.0 0.9985123123 0.0324766925
11150233100.0 0.9991875562 0.016515933
11200232800.0 1.000238095 0.0014934881
11250232500.0 1.000649329 -0.0147923964
11300232200.0 1.001704804 -0.0338046553
11350231900.0 1.001635102 -0.0485151801
11400231600.0 1.001927991 -0.0645157856
11450231300.0 1.000875845 -0.0798860649
11500231000.0 0.9999668529 -0.0961486943
11550230700.0 0.9985811405 -0.1096275134
11600230400.0 0.99759133 -0.1219598285
11650230100.0 0.9949598691 -0.1333291431
11700229800.0 0.9931261932 -0.148324732
11750229500.0 0.9906850333 -0.1623389728
11800229200.0 0.9880976404 -0.1763364943
11850228900.0 0.9844040189 -0.1887063666
11900228600.0 0.9811465646 -0.1981290112
11950228300.0 0.9776319451 -0.209061733
12000228000.0 0.9748529355 -0.2184368665
12050227700.0 0.971506035 -0.2304737446
12100227400.0 0.9682828714 -0.2415167895
12150227100.0 0.9629287201 -0.2584381942
12200226800.0 0.9594043266 -0.2692943203
12250226500.0 0.9552919212 -0.2824706174
12300226200.0 0.9517206534 -0.2941681848
12350225900.0 0.9462622887 -0.308031301
12400225600.0 0.9416743648 -0.3217262709
12450225300.0 0.9374786073 -0.3341292119
12500225000.0 0.9322479322 -0.3489550508
12550224700.0 0.9266208887 -0.3627286766
12600224400.0 0.9219142018 -0.3754869056
12650224100.0 0.9160441572 -0.3898190098
12700223800.0 0.9108784872 -0.4025077829
12750223500.0 0.905390443 -0.4155221711
12800223200.0 0.8999756071 -0.4282846773
12850222900.0 0.8945528432 -0.4407412147
12900222600.0 0.8888398016 -0.4521666449
12950222300.0 0.8825804731 -0.4654875293
13000222000.0 0.8767165762 -0.4768335292
13050221700.0 0.8700910812 -0.4897499101
13100221400.0 0.8631496651 -0.5014156333
13150221100.0 0.8562441205 -0.5144150071
13200220800.0 0.8493499451 -0.5254664441
13250220500.0 0.8424388809 -0.5374808357
13300220200.0 0.8347774974 -0.5482121568
13350219900.0 0.8268375562 -0.5600749971
13400219600.0 0.8186339862 -0.5722185472
13450219300.0 0.8091054326 -0.5856450457
13500219000.0 0.7989450419 -0.5995656273
13550218700.0 0.788835441 -0.6123073756
13600218400.0 0.7785221297 -0.6253827058
13650218100.0 0.7685266895 -0.635905725
13700217800.0 0.7588175697 -0.6477144475
13750217500.0 0.7474597038 -0.6588721822
13800217200.0 0.7367408812 -0.6709444804
13850216900.0 0.7262405365 -0.6814503427
13900216600.0 0.7157389973 -0.6906417458
13950216300.0 0.704981529 -0.7013360618
14000216000.0 0.695000216 -0.7107890011
14050215700.0 0.6858095459 -0.7187546925
14100215400.0 0.675639696 -0.7278285891
14150215100.0 0.6664664607 -0.7365361017
14200214800.0 0.6570818421 -0.745160749
14250214500.0 0.6467337688 -0.7544610195
14300214200.0 0.6363499392 -0.7637979361
14350213900.0 0.6253461293 -0.7736637447
14400213600.0 0.6137617875 -0.7833417913
14450213300.0 0.6005933066 -0.7934514066
14500213000.0 0.5877555185 -0.8034353226
14550212700.0 0.5745878869 -0.8124274001
14600212400.0 0.5621823845 -0.8217532866
14650212100.0 0.549066406 -0.830404333
14700211800.0 0.5352273912 -0.8398600146
14750211500.0 0.5230009022 -0.8478876878
14800211200.0 0.5111877171 -0.856127946
14850210900.0 0.4989223002 -0.8635414482
14900210600.0 0.4857166203 -0.8714035644
14950210300.0 0.4722901248 -0.8790657087
15000210000.0 0.4597376081 -0.8856018356
15050209700.0 0.4472486871 -0.8920905612
15100209400.0 0.4350222178 -0.8980228289
15150209100.0 0.4227096121 -0.9033010496
15200208800.0 0.409115968 -0.9090267941
15250208500.0 0.3979642465 -0.9130813055
15300208200.0 0.386408839 -0.9190574708
15350207900.0 0.3723435341 -0.9222422673
15400207600.0 0.3580993936 -0.9279509473
15450207300.0 0.3437777945 -0.9330680193
15500207000.0 0.3282222765 -0.9380606299
15550206700.0 0.3144681783 -0.9426758068
15600206400.0 0.2981510279 -0.9474991109
15650206100.0 0.2828383779 -0.9513224623
15700205800.0 0.2689446975 -0.9550776479
15750205500.0 0.2539233615 -0.9586384964
15800205200.0 0.2396392843 -0.962277394
15850204900.0 0.225326157 -0.9655491828
15900204600.0 0.2103537876 -0.9692587062
15950204300.0 0.1964291939 -0.9722193744
16000204000.0 0.1818119268 -0.9752595382
16050203700.0 0.1668386105 -0.9778806625
16100203400.0 0.1526105268 -0.9799683141
16150203100.0 0.1381608153 -0.9822321447
16200202800.0 0.1243015403 -0.9843148279
16250202500.0 0.1094215525 -0.9861389116
16300202200.0 0.0936435957 -0.987737523
16350201900.0 0.078772237 -0.9891844247
16400201600.0 0.0642076943 -0.9902729208
16450201300.0 0.0488911262 -0.9912174272
16500201000.0 0.032255428 -0.9921652974
16550200700.0 0.0165036718 -0.992646057
16600200400.0 0.0006381954 -0.9927526072
16650200100.0 -0.015639496 -0.9926530958
16700199800.0 -0.0320090422 -0.9921943302
16750199500.0 -0.0501063172 -0.991601772
16800199200.0 -0.0661180204 -0.9910066339
16850198900.0 -0.0814822147 -0.9892002348
16900198600.0 -0.0953548244 -0.9887808055
16950198300.0 -0.1086064256 -0.9879414736
17000198000.0 -0.1215232797 -0.9858718002
17050197700.0 -0.1341093016 -0.9840029451
17100197400.0 -0.1470422049 -0.981970865
17150197100.0 -0.1595369546 -0.9802109656
17200196800.0 -0.1725873376 -0.9780733473
17250196500.0 -0.1852862718 -0.9758137504
17300196200.0 -0.1973302664 -0.9734532075
17350195900.0 -0.2093777598 -0.971028413
17400195600.0 -0.221459048 -0.9687445902
17450195300.0 -0.2347062108 -0.9658856978
17500195000.0 -0.2480575087 -0.9624834021
17550194700.0 -0.262101734 -0.9588330846
17600194400.0 -0.2759675923 -0.955234148
17650194100.0 -0.2895913329 -0.9508459215
17700193800.0 -0.302124808 -0.9468945061
17750193500.0 -0.3166759783 -0.9419738957
17800193200.0 -0.3311271839 -0.9367897485
17850192900.0 -0.3463085614 -0.9315139051
17900192600.0 -0.3614509922 -0.9254374718
17950192300.0 -0.3767511718 -0.9183322648
18000192000.0 -0.3915466305 -0.9110637115
18050191700.0 -0.4056960091 -0.9031446324
18100191400.0 -0.4198430271 -0.8953797488
18150191100.0 -0.4349632745 -0.8874969383
18200190800.0 -0.4518839701 -0.878386778
18250190500.0 -0.4689850635 -0.8685059102
18300190200.0 -0.4841599542 -0.859946174
18350189900.0 -0.4992823823 -0.851796902
18400189600.0 -0.513722862 -0.8433624177
18450189300.0 -0.5274519352 -0.8357706611
18500189000.0 -0.5402622501 -0.8270840475
18550188700.0 -0.5531971205 -0.8196805355
18600188400.0 -0.5649206788 -0.8132454924
18650188100.0 -0.5758516703 -0.8066824819
18700187800.0 -0.5866382775 -0.8000759506
18750187500.0 -0.5975264812 -0.7937071982
18800187200.0 -0.608151411 -0.7866756398
18850186900.0 -0.6180873554 -0.7795199499
18900186600.0 -0.628444303 -0.7722739714
18950186300.0 -0.6382721829 -0.7646394865
19000186000.0 -0.6456897322 -0.7583436845
19050185700.0 -0.6545817103 -0.751224239
19100185400.0 -0.6646506767 -0.7429074076
19150185100.0 -0.6745548234 -0.7349736913
19200184800.0 -0.6838952749 -0.726409063
19250184500.0 -0.6942932958 -0.7175620417
19300184200.0 -0.70597335 -0.7081450259
19350183900.0 -0.7171081263 -0.6979022139
19400183600.0 -0.7262680372 -0.6883924294
19450183300.0 -0.73544194 -0.6782965699
19500183000.0 -0.743449188 -0.6677401503
19550182700.0 -0.7530324537 -0.6571532306
19600182400.0 -0.7636902598 -0.6451472985
19650182100.0 -0.7743942118 -0.6330540675
19700181800.0 -0.7850651349 -0.6196269693
19750181500.0 -0.7954603832 -0.6056160695
19800181200.0 -0.8059384152 -0.5906650619
19850180900.0 -0.8156679517 -0.5753203465
19900180600.0 -0.8235155586 -0.5606416544
19950180300.0 -0.8328773564 -0.54417285
20000180000.0 -0.8250242993 -0.5467775549
20050179700.0 -0.8341355587 -0.5343858922
20100179400.0 -0.8427346789 -0.5196697781
20150179100.0 -0.8506505236 -0.5075611884
20200178800.0 -0.8597483741 -0.4948641049
20250178500.0 -0.8687268829 -0.4814511081
20300178200.0 -0.8789991437 -0.4665670197
20350177900.0 -0.8878270092 -0.4524764813
20400177600.0 -0.8968790786 -0.43799543
20450177300.0 -0.9046690214 -0.4240048801
20500177000.0 -0.9128782576 -0.4097696873
20550176700.0 -0.9207400595 -0.396356065
20600176400.0 -0.9276028887 -0.3833092576
20650176100.0 -0.9342299848 -0.3707918491
20700175800.0 -0.9409426971 -0.3589088498
20750175500.0 -0.947293776 -0.3473751894
20800175200.0 -0.9521317862 -0.3362178675
20850174900.0 -0.9571967717 -0.3255847734
20900174600.0 -0.9624149364 -0.3143391917
20950174300.0 -0.9659532977 -0.3029495224
21000174000.0 -0.9685481141 -0.2916425963
21050173700.0 -0.9720360743 -0.281172014
21100173400.0 -0.9757222498 -0.2688273999
21150173100.0 -0.9799847714 -0.2562397711
21200172800.0 -0.9829409922 -0.2428137482
21250172500.0 -0.9863077123 -0.2292339556
21300172200.0 -0.989124815 -0.2149372737
21350171900.0 -0.9905672445 -0.2008731819
21400171600.0 -0.9922510929 -0.1858756794
21450171300.0 -0.9924650908 -0.1714770656
21500171000.0 -0.9915256422 -0.1560947427
21550170700.0 -0.9922369773 -0.1410339259
21600170400.0 -0.9920631273 -0.1244172459
21650170100.0 -0.9903486306 -0.1094594598
21700169800.0 -0.9900022913 -0.0945828113
21750169500.0 -0.988489044 -0.0780348939
21800169200.0 -0.9882228272 -0.0616824408
21850168900.0 -0.9868046596 -0.0447979885
21900168600.0 -0.9855905805 -0.028846336
21950168300.0 -0.985042122 -0.0131284641
22000168000.0 -0.9840310412 0.0017804193
22050167700.0 -0.9834201548 0.0161858126
22100167400.0 -0.9837908911 0.0318122509
22150167100.0 -0.9844365346 0.0471847211
22200166800.0 -0.9849837363 0.0631372285
22250166500.0 -0.9847289505 0.0808584306
22300166200.0 -0.9847913105 0.0969129551
22350165900.0 -0.9822301203 0.1130855105
22400165600.0 -0.9807992188 0.1292846857
22450165300.0 -0.9788417751 0.1438641882
22500165000.0 -0.9777984051 0.1573486763
22550164700.0 -0.9758746914 0.173510223
22600164400.0 -0.973761684 0.1888474864
22650164100.0 -0.9718784565 0.2041678589
22700163800.0 -0.9694939677 0.2189801232
22750163500.0 -0.966822088 0.2347303299
22800163200.0 -0.96377845 0.2475016082
22850162900.0 -0.9614762155 0.2612640101
22900162600.0 -0.9598046742 0.2745673486
22950162300.0 -0.9588313968 0.2875335122
23000162000.0 -0.9579003851 0.2991602798
23050161700.0 -0.95541282 0.3119098787
23100161400.0 -0.9535997745 0.324069888
23150161100.0 -0.9506033688 0.336991014
23200160800.0 -0.9470998659 0.3493240453
23250160500.0 -0.9446071918 0.3614033355
23300160200.0 -0.9426190082 0.3727830094
23350159900.0 -0.9389378147 0.3864944943
23400159600.0 -0.9339008815 0.3995466899
23450159300.0 -0.9293255416 0.4138399527
23500159000.0 -0.9242986247 0.4262545911
23550158700.0 -0.9200146503 0.4396157703
23600158400.0 -0.9147625001 0.4529632441
23650158100.0 -0.9082859288 0.4672298966
23700157800.0 -0.9005911726 0.4809954971
23750157500.0 -0.8918876729 0.4951137018
23800157200.0 -0.8832074085 0.5082255734
23850156900.0 -0.8744743171 0.5209325547
23900156600.0 -0.8652306329 0.5333140179
23950156300.0 -0.8555854803 0.5454473896
24000156000.0 -0.8476942462 0.5573726666
24050155700.0 -0.8361254114 0.5697426722
24100155400.0 -0.826668659 0.5817707466
24150155100.0 -0.8164457697 0.5941170851
24200154800.0 -0.8052164438 0.6047691266
24250154500.0 -0.7940838215 0.6160930466
24300154200.0 -0.7825371078 0.6282969764
24350153900.0 -0.7712018702 0.6386963591
24400153600.0 -0.7587546707 0.6489924152
24450153300.0 -0.7468414065 0.6590045441
24500153000.0 -0.7357217042 0.6683987545
24550152700.0 -0.7237963344 0.6783236989
24600152400.0 -0.7125053829 0.6873955041
24650152100.0 -0.7006806125 0.696311862
