!Created with skrf (http://scikit-rf.org).
# Hz S RI R 50.0 
!freq ReS11 ImS11
300000.0 -0.9741409353 -0.1210194414
50299700.0 -0.9999347473 0.0151051784
100299400.0 -0.9978465162 0.027843017
150299100.0 -1.00271132 0.0449177947
200298800.0 -0.9995837279 0.0582908937
250298500.0 -0.9973619767 0.07180708
300298200.0 -0.9859606311 0.0875240172
350297900.0 -0.9939453134 0.0983709705
400297600.0 -0.9930870417 0.1147603739
450297300.0 -0.9909621182 0.1287554724
500297000.0 -0.9893949252 0.1433916684
550296700.0 -0.9841861961 0.1557848303
600296400.0 -1.017080254 0.1890410299
650296100.0 -0.9823631514 0.1856465019
700295800.0 -0.9790786178 0.1999353258
750295500.0 -0.9764823358 0.2138793439
800295200.0 -0.9730656481 0.2280269961
850294900.0 -0.9696884517 0.2418282672
900294600.0 -0.9659527416 0.2555672718
950294300.0 -0.9622026832 0.2693699397
1000294000.0 -0.9579551347 0.2833256599
1050293700.0 -0.9535224097 0.2971273195
1100293400.0 -0.9491819613 0.3115132157
1150293100.0 -0.9454443206 0.3233419039
1200292800.0 -0.9402826384 0.3378152647
1250292500.0 -0.9345679547 0.3512111174
1300292200.0 -0.9287767508 0.3644638538
1350291900.0 -0.9234586113 0.3785324338
1400291600.0 -0.9178661816 0.3915364355
1450291300.0 -0.9124122702 0.4040759607
1500291000.0 -0.9061113894 0.4173995968
1550290700.0 -0.8996683198 0.4307300238
1600290400.0 -0.8935016957 0.4435091738
1650290100.0 -0.8868327803 0.4558135781
1700289800.0 -0.879967094 0.4692066031
1750289500.0 -0.8731489224 0.4815826837
1800289200.0 -0.8655600519 0.4944394499
1850288900.0 -0.8587341905 0.5058665939
1900288600.0 -0.8511081503 0.5186750205
1950288300.0 -0.8427316371 0.5313757585
2000288000.0 -0.8354435852 0.5428233886
2050287700.0 -0.8271738161 0.5552095282
2100287400.0 -0.8193061553 0.566765415
2150287100.0 -0.8106856552 0.5786724032
2200286800.0 -0.8031269038 0.5891836598
2250286500.0 -0.7940877395 0.601444095
2300286200.0 -0.7852174578 0.612871437
2350285900.0 -0.7768170107 0.6233555998
2400285600.0 -0.7678878249 0.6343858126
2450285300.0 -0.7592539153 0.6451859328
2500285000.0 -0.7489518451 0.6565969935
2550284700.0 -0.7401366049 0.666821816
2600284400.0 -0.7309368822 0.6769913947
2650284100.0 -0.7221809477 0.6871436457
2700283800.0 -0.7119189124 0.6976806685
2750283500.0 -0.701628105 0.7085285071
2800283200.0 -0.6915690175 0.7179872364
2850282900.0 -0.6811464436 0.7283427809
2900282600.0 -0.6706910852 0.7376824464
2950282300.0 -0.6604084794 0.7472422685
3000282000.0 -0.6496496502 0.7566600647
3050281700.0 -0.6382960744 0.7659590973
3100281400.0 -0.6268920184 0.7751512695
3150281100.0 -0.6155710121 0.7839581308
3200280800.0 -0.6040683983 0.7924706195
3250280500.0 -0.5930165029 0.8004297999
3300280200.0 -0.5815697016 0.8085990034
3350279900.0 -0.5693749124 0.8165050284
3400279600.0 -0.556622165 0.8244193259
3450279300.0 -0.5456695634 0.8314850554
3500279000.0 -0.5338646528 0.8385729195
3550278700.0 -0.5216850957 0.8457170206
3600278400.0 -0.5099689518 0.8524609991
3650278100.0 -0.4968888859 0.8600984463
3700277800.0 -0.4845891056 0.86627545
3750277500.0 -0.4724810784 0.8733774751
3800277200.0 -0.4598868649 0.8796767638
3850276900.0 -0.4477805392 0.8857378565
3900276600.0 -0.4367420512 0.8913605112
3950276300.0 -0.4246967215 0.8970768387
4000276000.0 -0.4129452541 0.9032133937
4050275700.0 -0.4003074382 0.9090880765
4100275400.0 -0.3890961752 0.9145028562
4150275100.0 -0.376080718 0.9202383887
4200274800.0 -0.3625413312 0.9260897834
4250274500.0 -0.3499560038 0.9315351867
4300274200.0 -0.3367479866 0.9367578685
4350273900.0 -0.3226741911 0.9419271546
4400273600.0 -0.3077027496 0.947032984
4450273300.0 -0.2928313023 0.9522999357
4500273000.0 -0.2797253239 0.9563423053
4550272700.0 -0.2660724016 0.9605244117
4600272400.0 -0.2510368764 0.9648038581
4650272100.0 -0.2396019079 0.9678190501
4700271800.0 -0.226720563 0.9711278706
4750271500.0 -0.2150673756 0.9739642007
4800271200.0 -0.2025693009 0.9767594279
4850270900.0 -0.1889813668 0.9794901673
4900270600.0 -0.1752127762 0.981971129
4950270300.0 -0.1605979799 0.984694189
5000270000.0 -0.1461131914 0.9864898995
5050269700.0 -0.1327587854 0.9883217671
5100269400.0 -0.1186083882 0.9904440547
5150269100.0 -0.1046016628 0.9917478898
5200268800.0 -0.0913435295 0.9931480857
5250268500.0 -0.0782990819 0.9938453332
5300268200.0 -0.0647683529 0.9945071985
5350267900.0 -0.0518414671 0.9954055367
5400267600.0 -0.0355562352 0.9963794745
5450267300.0 -0.0223889056 0.9966731935
5500267000.0 -0.0070972035 0.9969578073
5550266700.0 0.0076496985 0.9971597925
5600266400.0 0.0235618033 0.9972389002
5650266100.0 0.0403917567 0.9967742643
5700265800.0 0.0547718037 0.996038817
5750265500.0 0.0694902719 0.9951099123
5800265200.0 0.0827801041 0.9939581041
5850264900.0 0.0958444846 0.9925443532
5900264600.0 0.1128985498 0.9913284023
5950264300.0 0.1242145971 0.9892117309
6000264000.0 0.137878215 0.9877321589
6050263700.0 0.1497504247 0.9864456757
6100263400.0 0.1618768349 0.9849290627
6150263100.0 0.1767432404 0.9824081751
6200262800.0 0.1861320619 0.9808736585
6250262500.0 0.1987872797 0.9787973806
6300262200.0 0.2112458615 0.9761547903
6350261900.0 0.2239941934 0.9735044165
6400261600.0 0.237670856 0.9701034085
6450261300.0 0.2490934377 0.9678422087
6500261000.0 0.2624351541 0.9641787946
6550260700.0 0.2755696042 0.9601468414
6600260400.0 0.2888853498 0.9560759023
6650260100.0 0.3027608873 0.9516739323
6700259800.0 0.3152781334 0.9478051764
6750259500.0 0.328865971 0.9424388575
6800259200.0 0.3426188484 0.9374174483
6850258900.0 0.3547404783 0.9319439673
6900258600.0 0.3671809654 0.9268693601
6950258300.0 0.3796202848 0.9215513908
7000258000.0 0.3912133856 0.9162126662
7050257700.0 0.4033656657 0.9104623167
7100257400.0 0.4166709279 0.9039423725
7150257100.0 0.4274635572 0.8984335474
7200256800.0 0.4404144392 0.8922343122
7250256500.0 0.4530487167 0.8856508454
7300256200.0 0.4657804311 0.8786826049
7350255900.0 0.4788551953 0.8718499769
7400255600.0 0.4928901845 0.864240369
7450255300.0 0.5080281418 0.8549609325
7500255000.0 0.5205669818 0.8474023308
7550254700.0 0.5351880722 0.8386344656
7600254400.0 0.5478661077 0.8302124619
7650254100.0 0.5589822623 0.8222980354
7700253800.0 0.5708446348 0.814160875
7750253500.0 0.5819510633 0.8067314814
7800253200.0 0.5923046499 0.798756433
7850252900.0 0.602098619 0.7915190418
7900252600.0 0.613611441 0.7827650927
7950252300.0 0.6220704062 0.7764243299
8000252000.0 0.6319022164 0.7689539641
8050251700.0 0.6423628547 0.7607036232
8100251400.0 0.6522098057 0.7527568409
8150251100.0 0.6624718708 0.744198309
8200250800.0 0.6716677486 0.7360198566
8250250500.0 0.6808882595 0.7282380023
8300250200.0 0.6896008476 0.7197334313
8350249900.0 0.6987780457 0.7108360035
8400249600.0 0.7069680057 0.7030275863
8450249300.0 0.7156288438 0.6940560034
8500249000.0 0.7243409876 0.6853524478
8550248700.0 0.7328109475 0.67632895
8600248400.0 0.7410866003 0.6668726676
8650248100.0 0.7487062101 0.6574851078
8700247800.0 0.7580531054 0.6464614887
8750247500.0 0.7662566397 0.6363534779
8800247200.0 0.7742218184 0.6259274172
8850246900.0 0.7828709865 0.6145300039
8900246600.0 0.7912640215 0.6030866089
8950246300.0 0.8006912499 0.590380267
9000246000.0 0.8095505781 0.5781523453
9050245700.0 0.8181578045 0.5662310643
9100245400.0 0.8261471865 0.5540363523
9150245100.0 0.8350147296 0.5410463602
9200244800.0 0.8440536602 0.5265643201
9250244500.0 0.8536612349 0.5116759463
9300244200.0 0.861513043 0.4981874387
9350243900.0 0.8691833235 0.485087489
9400243600.0 0.8758721546 0.4731580487
9450243300.0 0.8815296536 0.4626244801
9500243000.0 0.8876606773 0.4508496929
9550242700.0 0.8918483568 0.4433478708
9600242400.0 0.8959265449 0.4360206651
9650242100.0 0.8999573605 0.4288800694
9700241800.0 0.9048953837 0.4203597544
9750241500.0 0.9092240254 0.41270379
9800241200.0 0.9142283226 0.403204945
9850240900.0 0.9204601655 0.3913305122
9900240600.0 0.9259889384 0.379662182
9950240300.0 0.9329571877 0.3631604119
10000240000.0 0.9379011669 0.3509279579
10050239700.0 0.9438208507 0.3348958562
10100239400.0 0.9492508672 0.3186549928
10150239100.0 0.9539555239 0.3030837508
10200238800.0 0.9582037729 0.2874839345
10250238500.0 0.9614356953 0.2740879904
10300238200.0 0.9647321048 0.2600589473
10350237900.0 0.9674175331 0.2468494609
10400237600.0 0.9700035299 0.2332732148
10450237300.0 0.9726634071 0.2199253576
10500237000.0 0.9751769326 0.2075793413
10550236700.0 0.9776764522 0.1926928758
10600236400.0 0.9800049234 0.178817753
10650236100.0 0.9816149532 0.1644631329
10700235800.0 0.9839403668 0.1522853209
10750235500.0 0.9858797296 0.1385578396
10800235200.0 0.9880637993 0.1244603916
10850234900.0 0.9900943709 0.1095121236
10900234600.0 0.9921843388 0.0946055919
10950234300.0 0.9937229025 0.0812457709
11000234000.0 0.9955261816 0.0656744675
11050233700.0 0.9973454227 0.0492228168
11100233400.0 0.9989335252 0.0311384052
11150233100.0 0.9999162437 0.0146526131
11200232800.0 1.001021796 -0.0019654211
11250232500.0 1.002230248 -0.0193133763
11300232200.0 1.002318161 -0.03775741
11350231900.0 1.002170169 -0.0534459952
11400231600.0 1.001802629 -0.0685890981
11450231300.0 1.001117893 -0.0849301598
11500231000.0 0.9996810619 -0.1007906586
11550230700.0 0.9979504125 -0.1147408635
11600230400.0 0.9972763637 -0.1276809448
11650230100.0 0.994959331 -0.1394980999
11700229800.0 0.992370152 -0.1536077313
11750229500.0 0.9900477969 -0.1676656672
11800229200.0 0.9872152961 -0.1812134851
11850228900.0 0.9836063605 -0.193044535
11900228600.0 0.9800826276 -0.2024450821
11950228300.0 0.9766241036 -0.2129736965
12000228000.0 0.9740610378 -0.2214057194
12050227700.0 0.9703185508 -0.2341205207
12100227400.0 0.9666736916 -0.2456857464
12150227100.0 0.9618633376 -0.2626346305
12200226800.0 0.9584737066 -0.2728577837
12250226500.0 0.9539002959 -0.2863578193
12300226200.0 0.9493864728 -0.2981176942
12350225900.0 0.9445779717 -0.3112552993
12400225600.0 0.9406891727 -0.3243955125
12450225300.0 0.9357861808 -0.337225546
12500225000.0 0.9304800944 -0.3517064063
12550224700.0 0.92491041 -0.3654514917
12600224400.0 0.9200007936 -0.377830978
12650224100.0 0.9142912364 -0.3923250815
12700223800.0 0.9089442394 -0.4051597675
12750223500.0 0.9035987067 -0.4182275321
12800223200.0 0.8982855576 -0.4307410036
12850222900.0 0.89286311 -0.4433065365
12900222600.0 0.8873205895 -0.4549112705
12950222300.0 0.8813273702 -0.4674878618
13000222000.0 0.8750189582 -0.4797620587
13050221700.0 0.8682806124 -0.4923265992
13100221400.0 0.8613940212 -0.5045473841
13150221100.0 0.8547673584 -0.5165928964
13200220800.0 0.8477020702 -0.5276584194
13250220500.0 0.8404609417 -0.5399852406
13300220200.0 0.8328746989 -0.5511737937
13350219900.0 0.8247402282 -0.5631898116
13400219600.0 0.8162100957 -0.5749799266
13450219300.0 0.8069634192 -0.5880706756
13500219000.0 0.7970506801 -0.601208299
13550218700.0 0.7870666361 -0.6138282028
13600218400.0 0.7771399663 -0.6258054692
13650218100.0 0.7682446654 -0.6362436967
13700217800.0 0.7570761441 -0.6484728842
13750217500.0 0.7471174055 -0.6592721655
13800217200.0 0.7367144269 -0.670509514
13850216900.0 0.7251752203 -0.6814054674
13900216600.0 0.7157845038 -0.6899026228
13950216300.0 0.7051064291 -0.7004128657
14000216000.0 0.6958501545 -0.7093898699
14050215700.0 0.6860842027 -0.7173857717
14100215400.0 0.6763700385 -0.7264290684
14150215100.0 0.6674845354 -0.7350992691
14200214800.0 0.6579026915 -0.7440964589
14250214500.0 0.6476201232 -0.7536229694
14300214200.0 0.6371207092 -0.7630610969
14350213900.0 0.6262202875 -0.7724885618
14400213600.0 0.6143908787 -0.7823717661
14450213300.0 0.60116336 -0.7925411744
14500213000.0 0.5882054573 -0.8024855332
14550212700.0 0.5758672761 -0.8116904802
14600212400.0 0.5632481558 -0.8206994331
14650212100.0 0.5505905249 -0.8294105353
14700211800.0 0.5370729235 -0.8386552703
14750211500.0 0.5250892016 -0.8474955556
14800211200.0 0.5120069533 -0.8555677454
14850210900.0 0.4997607074 -0.8631806551
14900210600.0 0.4866710815 -0.8710359005
14950210300.0 0.4734760726 -0.8786496954
15000210000.0 0.4606429291 -0.8854873077
15050209700.0 0.4484343583 -0.8915833805
15100209400.0 0.4353187358 -0.8976128975
15150209100.0 0.4232425023 -0.9023467475
15200208800.0 0.4103956513 -0.9084433799
15250208500.0 0.3995943778 -0.9125100389
15300208200.0 0.3877056891 -0.9172757899
15350207900.0 0.3745585331 -0.9216287668
15400207600.0 0.3590528731 -0.9277748284
15450207300.0 0.3442775048 -0.9330960536
15500207000.0 0.3303770411 -0.9371589824
15550206700.0 0.3150711363 -0.9419802108
15600206400.0 0.2988644948 -0.9471211364
15650206100.0 0.2840189483 -0.9512018212
15700205800.0 0.2701258929 -0.9543488527
15750205500.0 0.2561435677 -0.9577570976
15800205200.0 0.2422035487 -0.9612722692
15850204900.0 0.2279726784 -0.9648157734
15900204600.0 0.2128338985 -0.968326495
15950204300.0 0.1987084239 -0.9714561348
16000204000.0 0.1839620089 -0.9744400427
16050203700.0 0.1689436858 -0.9776537431
16100203400.0 0.1541457954 -0.9795736697
16150203100.0 0.1394467965 -0.9818388749
16200202800.0 0.1253837214 -0.9845281507
16250202500.0 0.11055072 -0.9857272717
16300202200.0 0.0946911009 -0.9871915856
16350201900.0 0.0799244349 -0.9889701891
16400201600.0 0.0653357245 -0.9902170107
16450201300.0 0.0496071698 -0.9912114017
16500201000.0 0.0326130629 -0.9920547613
16550200700.0 0.0166416974 -0.9925657116
16600200400.0 0.000728399 -0.992692754
16650200100.0 -0.0153542688 -0.9927616523
16700199800.0 -0.0315699508 -0.9925390147
16750199500.0 -0.0510263577 -0.9915734923
16800199200.0 -0.066542077 -0.9908132382
16850198900.0 -0.0826623734 -0.9894437869
16900198600.0 -0.0966510035 -0.9883658382
16950198300.0 -0.1098724395 -0.9870043428
17000198000.0 -0.1231627143 -0.9854812945
17050197700.0 -0.1364169463 -0.9840657964
17100197400.0 -0.1485458829 -0.9822763578
17150197100.0 -0.1617286062 -0.9800080961
17200196800.0 -0.1740779667 -0.9782902488
17250196500.0 -0.1870677335 -0.9757152062
17300196200.0 -0.1995329884 -0.9732484401
17350195900.0 -0.2112024344 -0.9709003438
17400195600.0 -0.2231362264 -0.9681775355
17450195300.0 -0.2360315673 -0.9654598834
17500195000.0 -0.2492536571 -0.9621763622
17550194700.0 -0.2630687523 -0.9586914656
17600194400.0 -0.2769863498 -0.9547588535
17650194100.0 -0.2908631498 -0.9504026805
17700193800.0 -0.3031407416 -0.9465829701
17750193500.0 -0.317728217 -0.9418247837
17800193200.0 -0.3315917514 -0.9368027687
17850192900.0 -0.346806423 -0.9313200707
17900192600.0 -0.3619391533 -0.9249190962
17950192300.0 -0.3772964946 -0.9181320845
18000192000.0 -0.39198705 -0.9107411348
18050191700.0 -0.4059057559 -0.9027205661
18100191400.0 -0.4200626391 -0.8950447122
18150191100.0 -0.4349501263 -0.8870654953
18200190800.0 -0.4518260474 -0.8778829343
18250190500.0 -0.4687061265 -0.8684931645
18300190200.0 -0.4844367024 -0.859872213
18350189900.0 -0.4997046664 -0.8511075619
18400189600.0 -0.5140789987 -0.8428774825
18450189300.0 -0.5277934492 -0.8348856033
18500189000.0 -0.5409369357 -0.8266775804
18550188700.0 -0.5535724925 -0.8189267297
18600188400.0 -0.5653215466 -0.8122333603
18650188100.0 -0.5769513051 -0.8054163135
18700187800.0 -0.5878572648 -0.7988862353
18750187500.0 -0.5986991906 -0.7923269678
18800187200.0 -0.6092831335 -0.7855271268
18850186900.0 -0.6195710411 -0.7784197007
18900186600.0 -0.6298699461 -0.7710884285
18950186300.0 -0.6399435416 -0.7632493711
19000186000.0 -0.647377162 -0.7572968623
19050185700.0 -0.6566980229 -0.7501329357
19100185400.0 -0.6667034187 -0.7415539045
19150185100.0 -0.6770122974 -0.7336497235
19200184800.0 -0.686424304 -0.7258375644
19250184500.0 -0.6967167555 -0.7159558651
19300184200.0 -0.7079847257 -0.7063160143
19350183900.0 -0.7184473751 -0.6968241445
19400183600.0 -0.7284249214 -0.6865206901
19450183300.0 -0.7373114674 -0.6767162334
19500183000.0 -0.745099998 -0.6666759083
19550182700.0 -0.7551504305 -0.6556834522
19600182400.0 -0.7652060386 -0.6444988331
19650182100.0 -0.7759073025 -0.6317387114
19700181800.0 -0.7868126974 -0.6187137149
19750181500.0 -0.7968628674 -0.6048191368
19800181200.0 -0.8072074529 -0.5895439595
19850180900.0 -0.8165785075 -0.574321663
19900180600.0 -0.8245347786 -0.5597497551
19950180300.0 -0.8337168267 -0.5432292789
20000180000.0 -0.8238351771 -0.5469236998
20050179700.0 -0.8315848185 -0.5333877465
20100179400.0 -0.8394064836 -0.5209217969
20150179100.0 -0.8478452826 -0.5096083878
20200178800.0 -0.8560726294 -0.497421391
20250178500.0 -0.8658720126 -0.4853626014
20300178200.0 -0.8751343874 -0.470877162
20350177900.0 -0.8847429198 -0.4574247162
20400177600.0 -0.8936874167 -0.4434673708
20450177300.0 -0.9022966718 -0.428896628
20500177000.0 -0.9100346889 -0.4150114259
20550176700.0 -0.9180332197 -0.401301121
20600176400.0 -0.9248078888 -0.3882479718
20650176100.0 -0.931833571 -0.3762053335
20700175800.0 -0.9379983626 -0.364029111
20750175500.0 -0.9447531362 -0.3523114354
20800175200.0 -0.9494320701 -0.3415202047
20850174900.0 -0.9541366221 -0.3310043159
20900174600.0 -0.9578639861 -0.3199529987
20950174300.0 -0.9612173028 -0.3092228819
21000174000.0 -0.9644878878 -0.2986966113
21050173700.0 -0.9665498787 -0.2888710408
21100173400.0 -0.9696881176 -0.2774364123
21150173100.0 -0.9735379767 -0.2654594166
21200172800.0 -0.9777309067 -0.252856803
21250172500.0 -0.9810444801 -0.2388659715
21300172200.0 -0.9844193167 -0.2245385204
21350171900.0 -0.986630783 -0.2106752297
21400171600.0 -0.9879406899 -0.1963711883
21450171300.0 -0.9891569942 -0.1817553454
21500171000.0 -0.9894586592 -0.1673812938
21550170700.0 -0.9908163946 -0.152353433
21600170400.0 -0.9909380057 -0.1370295334
21650170100.0 -0.9904266338 -0.121426179
21700169800.0 -0.9897139358 -0.1052189274
21750169500.0 -0.9906437947 -0.0907263484
21800169200.0 -0.9894929915 -0.0731790227
21850168900.0 -0.9899956111 -0.0561010245
21900168600.0 -0.9887939483 -0.0401672906
21950168300.0 -0.9888504133 -0.0243142626
22000168000.0 -0.9884843045 -0.0094067699
22050167700.0 -0.9891355883 0.0052242547
22100167400.0 -0.9899260708 0.0210824683
22150167100.0 -0.9906067453 0.0370740099
22200166800.0 -0.9910414184 0.05341841
22250166500.0 -0.9900226801 0.0712935489
22300166200.0 -0.9903964808 0.0869285459
22350165900.0 -0.9887893035 0.1035057351
22400165600.0 -0.9875526351 0.1184118169
22450165300.0 -0.9856461764 0.1338356148
22500165000.0 -0.9832388451 0.1469785101
22550164700.0 -0.9829209668 0.1637892815
22600164400.0 -0.980875973 0.1809028437
22650164100.0 -0.9770983554 0.1961296847
22700163800.0 -0.9751156109 0.2113610256
22750163500.0 -0.9722804692 0.2273476297
22800163200.0 -0.9687534341 0.2398900495
22850162900.0 -0.9658403086 0.253300806
22900162600.0 -0.9640994377 0.2673239999
22950162300.0 -0.9625393273 0.280912754
23000162000.0 -0.9608105776 0.2933304589
23050161700.0 -0.958412931 0.3071003462
23100161400.0 -0.9554634739 0.320494761
23150161100.0 -0.9534088762 0.3334156102
23200160800.0 -0.9494202072 0.345781279
23250160500.0 -0.9467826016 0.3581155527
23300160200.0 -0.9440727041 0.3717311944
23350159900.0 -0.9398085446 0.3852399796
23400159600.0 -0.9343989775 0.3985483131
23450159300.0 -0.9295755508 0.4116889239
23500159000.0 -0.9250436052 0.4255964813
23550158700.0 -0.919807089 0.4395290974
23600158400.0 -0.9139346425 0.4535661412
23650158100.0 -0.9070545481 0.4683571926
23700157800.0 -0.8987755108 0.4824307207
23750157500.0 -0.8889930907 0.4965922066
23800157200.0 -0.87970904 0.5104586446
23850156900.0 -0.8700518742 0.5239337112
23900156600.0 -0.8600909327 0.5358480879
23950156300.0 -0.8504232237 0.5481619919
24000156000.0 -0.8408762136 0.5604343946
24050155700.0 -0.8309368797 0.5725537603
24100155400.0 -0.819924494 0.5854485159
24150155100.0 -0.8089277165 0.5979130895
24200154800.0 -0.7982282488 0.6093389936
24250154500.0 -0.7871415085 0.6212853834
24300154200.0 -0.7755187088 0.6335176945
24350153900.0 -0.7638438151 0.6442734477
24400153600.0 -0.7511270933 0.6551177037
24450153300.0 -0.7387686713 0.6650556398
24500153000.0 -0.7271459656 0.6750558727
24550152700.0 -0.7159096821 0.685667231
24600152400.0 -0.7042757041 0.694645436
