!Created with skrf (http://scikit-rf.org).
# Hz S RI R 50.0 
!freq ReS11 ImS11
300000.0 -0.9791979956 -0.1103377064
50299700.0 -1.000005114 0.0159211982
100299400.0 -0.998108019 0.0288103007
150299100.0 -1.002854684 0.0457147424
200298800.0 -0.99986145 0.0589527816
250298500.0 -0.997415099 0.0724909509
300298200.0 -0.9860755359 0.088380675
350297900.0 -0.994091907 0.0992756743
400297600.0 -0.9934649517 0.1157227061
450297300.0 -0.9911982279 0.1296686108
500297000.0 -0.9894905677 0.1443399993
550296700.0 -0.9844620161 0.1568450632
600296400.0 -1.017159979 0.1903832069
650296100.0 -0.9822629994 0.1867463158
700295800.0 -0.9793310951 0.2012338911
750295500.0 -0.9762165283 0.2152120385
800295200.0 -0.9728844924 0.2293689827
850294900.0 -0.969645573 0.2430480934
900294600.0 -0.9658256832 0.2569609548
950294300.0 -0.9622125456 0.2706550072
1000294000.0 -0.9580134289 0.2844505127
1050293700.0 -0.9534499111 0.2983248621
1100293400.0 -0.9492114743 0.3127822676
1150293100.0 -0.945365148 0.3245803903
1200292800.0 -0.9399381075 0.3389919614
1250292500.0 -0.9344511823 0.352254818
1300292200.0 -0.9287268353 0.3656957673
1350291900.0 -0.9231456018 0.379575422
1400291600.0 -0.9176063462 0.3926629953
1450291300.0 -0.9123699557 0.4050455172
1500291000.0 -0.9059412834 0.4183750855
1550290700.0 -0.8995385517 0.4317130683
1600290400.0 -0.8935363836 0.4447340833
1650290100.0 -0.886446665 0.4567091626
1700289800.0 -0.8796796286 0.4703128359
1750289500.0 -0.8726578771 0.4824628103
1800289200.0 -0.8651591881 0.4953004774
1850288900.0 -0.8584292905 0.5066756158
1900288600.0 -0.8506090349 0.5195174584
1950288300.0 -0.8425359315 0.5323852901
2000288000.0 -0.8350594586 0.5436044529
2050287700.0 -0.8269460729 0.5560257732
2100287400.0 -0.8190376173 0.5675878912
2150287100.0 -0.8102432017 0.5796455979
2200286800.0 -0.8025023376 0.5900121669
2250286500.0 -0.7935860043 0.6022105904
2300286200.0 -0.7846832365 0.6137531713
2350285900.0 -0.7760607236 0.6248020736
2400285600.0 -0.7670101264 0.6357051719
2450285300.0 -0.7583416439 0.6460698337
2500285000.0 -0.7487018083 0.6575606333
2550284700.0 -0.7396517385 0.6676638605
2600284400.0 -0.7303257842 0.678045322
2650284100.0 -0.721116344 0.6883862158
2700283800.0 -0.7105250068 0.6989980259
2750283500.0 -0.700368732 0.7093340433
2800283200.0 -0.6908475081 0.7191868288
2850282900.0 -0.6800258519 0.7287116191
2900282600.0 -0.6699996386 0.7386627794
2950282300.0 -0.660016099 0.7479681057
3000282000.0 -0.64929508 0.7572436028
3050281700.0 -0.6380187267 0.7667494287
3100281400.0 -0.6259847196 0.7758908084
3150281100.0 -0.6142014482 0.7853518086
3200280800.0 -0.6027702363 0.7937723681
3250280500.0 -0.5918996009 0.8015900721
3300280200.0 -0.5804731178 0.8093728281
3350279900.0 -0.5691806733 0.8168356285
3400279600.0 -0.5570214847 0.8245672316
3450279300.0 -0.5460362459 0.8316236042
3500279000.0 -0.5339310129 0.8385846545
3550278700.0 -0.5215360664 0.846223235
3600278400.0 -0.5090940973 0.8534026716
3650278100.0 -0.4958205513 0.8609456477
3700277800.0 -0.483853591 0.8672841962
3750277500.0 -0.4714485708 0.8737359167
3800277200.0 -0.459037062 0.8800692739
3850276900.0 -0.4467470272 0.8861364478
3900276600.0 -0.4362578162 0.8918620212
3950276300.0 -0.423683194 0.8976749293
4000276000.0 -0.4115848339 0.90399886
4050275700.0 -0.398697626 0.9100772616
4100275400.0 -0.3872231829 0.9155120831
4150275100.0 -0.3748181632 0.9210025218
4200274800.0 -0.3618699786 0.9267680799
4250274500.0 -0.3493012405 0.931478201
4300274200.0 -0.3365588454 0.9369586265
4350273900.0 -0.3224682145 0.9421365786
4400273600.0 -0.3078576116 0.9474382747
4450273300.0 -0.2923993375 0.9525655711
4500273000.0 -0.2786934689 0.9569366737
4550272700.0 -0.2645032957 0.9611221992
4600272400.0 -0.2489905724 0.9653806093
4650272100.0 -0.2374561885 0.9685175217
4700271800.0 -0.2240128173 0.9718814874
4750271500.0 -0.2123423737 0.9748183107
4800271200.0 -0.1999453654 0.9771900591
4850270900.0 -0.1859839717 0.9801859934
4900270600.0 -0.1721014501 0.9827704421
4950270300.0 -0.1578316692 0.9851298594
5000270000.0 -0.1437355388 0.9874301455
5050269700.0 -0.1301682872 0.9888429113
5100269400.0 -0.116526097 0.9906985877
5150269100.0 -0.1033047793 0.9920810617
5200268800.0 -0.0901471651 0.9931389487
5250268500.0 -0.076953585 0.9942210468
5300268200.0 -0.0636860883 0.9948564663
5350267900.0 -0.0516610949 0.995469575
5400267600.0 -0.0352778967 0.9962589961
5450267300.0 -0.0223048774 0.9968306418
5500267000.0 -0.0071808188 0.9971370098
5550266700.0 0.0077637359 0.9974306096
5600266400.0 0.0233403324 0.9972114503
5650266100.0 0.0400509942 0.9968079528
5700265800.0 0.0542453618 0.9960003478
5750265500.0 0.0698184722 0.9952613494
5800265200.0 0.0837810254 0.9945211674
5850264900.0 0.096963823 0.9929416724
5900264600.0 0.1138071632 0.9913371488
5950264300.0 0.1258027526 0.989965242
6000264000.0 0.1394167825 0.9879712945
6050263700.0 0.1519427792 0.9866410876
6100263400.0 0.1644541231 0.9846765875
6150263100.0 0.1792082211 0.9824779906
6200262800.0 0.1895501875 0.9805447586
6250262500.0 0.202165243 0.9780078345
6300262200.0 0.2150569468 0.9753227206
6350261900.0 0.2281391324 0.9724495167
6400261600.0 0.241873722 0.9691060432
6450261300.0 0.2532147811 0.9665153227
6500261000.0 0.2662640185 0.9629416384
6550260700.0 0.2789124555 0.9589182013
6600260400.0 0.2925253562 0.9549020108
6650260100.0 0.3065536517 0.9503447015
6700259800.0 0.3179428474 0.9461350799
6750259500.0 0.3322239002 0.9414075626
6800259200.0 0.3452024424 0.9362174962
6850258900.0 0.3573462412 0.9312532812
6900258600.0 0.3693810247 0.9262121093
6950258300.0 0.3817239017 0.9208251625
7000258000.0 0.3939160027 0.9155592722
7050257700.0 0.4059783525 0.909360114
7100257400.0 0.41880668 0.9030754428
7150257100.0 0.4291533596 0.8978547872
7200256800.0 0.4418721335 0.8913953293
7250256500.0 0.4538717682 0.8853384601
7300256200.0 0.466772545 0.8784514057
7350255900.0 0.4789691278 0.8714300679
7400255600.0 0.4925770691 0.8643858152
7450255300.0 0.5074747422 0.8553130738
7500255000.0 0.5192805851 0.8482214436
7550254700.0 0.5332428239 0.8395083742
7600254400.0 0.5461432555 0.8310432448
7650254100.0 0.5579086912 0.8232814179
7700253800.0 0.5696341683 0.8153400659
7750253500.0 0.5804977125 0.807702675
7800253200.0 0.591103473 0.799770189
7850252900.0 0.6008707791 0.7927866334
7900252600.0 0.6126947463 0.7839921268
7950252300.0 0.6213439358 0.7774193153
8000252000.0 0.6316453871 0.7695673379
8050251700.0 0.6420939312 0.7613223901
8100251400.0 0.6522205809 0.7532600123
8150251100.0 0.6621849388 0.7444994826
8200250800.0 0.6714213792 0.7364907375
8250250500.0 0.6806826796 0.7284313486
8300250200.0 0.6900672192 0.7197761612
8350249900.0 0.6988526932 0.7113336132
8400249600.0 0.7071670725 0.703076034
8450249300.0 0.7164324573 0.6940609325
8500249000.0 0.7251154127 0.6852628035
8550248700.0 0.733160605 0.6762722611
8600248400.0 0.7416101084 0.6666472799
8650248100.0 0.7494212106 0.6574153096
8700247800.0 0.7588237526 0.6463052046
8750247500.0 0.7670519633 0.6360659646
8800247200.0 0.7750270927 0.6258165577
8850246900.0 0.7838194822 0.614490756
8900246600.0 0.7925471093 0.6029270884
8950246300.0 0.8021017509 0.5898780772
9000246000.0 0.8109914104 0.577070807
9050245700.0 0.82041549 0.5641674721
9100245400.0 0.8289952859 0.5515871665
9150245100.0 0.8380559782 0.5380334741
9200244800.0 0.848283293 0.5227675012
9250244500.0 0.8577054541 0.5069459323
9300244200.0 0.8661454493 0.4923478724
9350243900.0 0.8738970829 0.4784779722
9400243600.0 0.8804516466 0.4661717565
9450243300.0 0.8862879138 0.4543583707
9500243000.0 0.8925836554 0.4421483171
9550242700.0 0.8963369143 0.4345178871
9600242400.0 0.9002463431 0.4271161659
9650242100.0 0.9037252461 0.4203024012
9700241800.0 0.9084338594 0.4124377369
9750241500.0 0.9125741872 0.4048813374
9800241200.0 0.9170213125 0.3958783302
9850240900.0 0.9227073463 0.3838632273
9900240600.0 0.9281168453 0.3725756163
9950240300.0 0.9349332476 0.3561514775
10000240000.0 0.9390797608 0.3447431803
10050239700.0 0.9447040705 0.3294329316
10100239400.0 0.9500029973 0.314053078
10150239100.0 0.9545429233 0.2989461597
10200238800.0 0.9585066658 0.2842714778
10250238500.0 0.9618789273 0.2709824761
10300238200.0 0.9651370663 0.256923528
10350237900.0 0.9674949796 0.2438237569
10400237600.0 0.9701544644 0.2307433441
10450237300.0 0.9729057102 0.2171721239
10500237000.0 0.9747962367 0.2048364363
10550236700.0 0.9772361827 0.1908361229
10600236400.0 0.9788561537 0.1778326112
10650236100.0 0.9816902382 0.1625908685
10700235800.0 0.9833348575 0.1510279014
10750235500.0 0.9858777154 0.1370939969
10800235200.0 0.9876128382 0.123606923
10850234900.0 0.9895014586 0.1090918105
10900234600.0 0.9916954019 0.0942184071
10950234300.0 0.9936974811 0.0809005816
11000234000.0 0.9953296369 0.0659367445
11050233700.0 0.9971505492 0.0496187414
11100233400.0 0.9982796256 0.0320252896
11150233100.0 0.9994503012 0.0155060562
11200232800.0 1.000016906 0.0007824025
11250232500.0 1.001042468 -0.015509314
11300232200.0 1.001757736 -0.034269536
11350231900.0 1.001763858 -0.0492282853
11400231600.0 1.001531956 -0.0654305044
11450231300.0 1.00035658 -0.0804408746
11500231000.0 0.9997200773 -0.0969589479
11550230700.0 0.9981975414 -0.1104815949
11600230400.0 0.99653906 -0.1235918816
11650230100.0 0.9947878272 -0.1352022077
11700229800.0 0.9927857404 -0.1498266078
11750229500.0 0.9906732226 -0.1641779916
11800229200.0 0.9877514004 -0.1779386456
11850228900.0 0.9841780511 -0.1903329417
11900228600.0 0.9804657361 -0.200093294
11950228300.0 0.9773300426 -0.2103894448
12000228000.0 0.974399321 -0.2196078019
12050227700.0 0.9709357084 -0.2319993306
12100227400.0 0.9673482859 -0.2435787635
12150227100.0 0.9630820338 -0.2601870836
12200226800.0 0.9589077893 -0.270936497
12250226500.0 0.9552379493 -0.282474116
12300226200.0 0.9507750158 -0.2960994463
12350225900.0 0.946146133 -0.3086477981
12400225600.0 0.941578647 -0.3226830086
12450225300.0 0.9371171866 -0.3350117485
12500225000.0 0.9315051853 -0.3496622854
12550224700.0 0.9265662868 -0.3631377163
12600224400.0 0.921654901 -0.3760094595
12650224100.0 0.9158894511 -0.3904568195
12700223800.0 0.9107034189 -0.4030338275
12750223500.0 0.9050007124 -0.4159505011
12800223200.0 0.8998976142 -0.4285040651
12850222900.0 0.8944446602 -0.4404697041
12900222600.0 0.8886974166 -0.4530976282
12950222300.0 0.8823529818 -0.4655760335
13000222000.0 0.8763346827 -0.4762990789
13050221700.0 0.8693252552 -0.4896322217
13100221400.0 0.8629049925 -0.5020374498
13150221100.0 0.8563490595 -0.5140632686
13200220800.0 0.8490481729 -0.5256289086
13250220500.0 0.8418886999 -0.5383692889
13300220200.0 0.8343843495 -0.548681424
13350219900.0 0.8260754796 -0.5606607816
13400219600.0 0.817822479 -0.5731528838
13450219300.0 0.808354096 -0.5863828956
13500219000.0 0.7978894097 -0.6003410615
13550218700.0 0.7876068854 -0.6134543436
13600218400.0 0.7775052087 -0.6262616272
13650218100.0 0.7680529903 -0.6369413418
13700217800.0 0.7570355437 -0.6489664769
13750217500.0 0.7464396742 -0.6611102014
13800217200.0 0.7350262084 -0.6722606669
13850216900.0 0.7247128838 -0.6843302397
13900216600.0 0.7149782143 -0.6927665602
13950216300.0 0.7032611954 -0.7028450632
14000216000.0 0.6940080132 -0.7115505032
14050215700.0 0.6841636224 -0.7203097335
14100215400.0 0.6744579717 -0.729411482
14150215100.0 0.6650321985 -0.7378576591
14200214800.0 0.6558759649 -0.7462948754
14250214500.0 0.6457565872 -0.7555222753
14300214200.0 0.6353932278 -0.7646901957
14350213900.0 0.6244388306 -0.7742047818
14400213600.0 0.6124691771 -0.7838637256
14450213300.0 0.599326055 -0.7941883828
14500213000.0 0.586633166 -0.8037595407
14550212700.0 0.5737544878 -0.813346319
14600212400.0 0.5612452541 -0.8219887646
14650212100.0 0.5484531578 -0.8309500287
14700211800.0 0.5343926418 -0.8404215454
14750211500.0 0.5224415257 -0.8486228885
14800211200.0 0.5102224041 -0.8567288241
14850210900.0 0.498111372 -0.8641246204
14900210600.0 0.4845291555 -0.871957987
14950210300.0 0.4711199098 -0.8796138097
15000210000.0 0.4582334473 -0.8865154558
15050209700.0 0.4456038851 -0.8924881127
15100209400.0 0.433064435 -0.8984791351
15150209100.0 0.4210641615 -0.9038366686
15200208800.0 0.4071845094 -0.9094283557
15250208500.0 0.3965731784 -0.9143723201
15300208200.0 0.384087287 -0.9184433079
15350207900.0 0.3702846051 -0.9232924206
15400207600.0 0.3563007275 -0.9287896511
15450207300.0 0.3418102431 -0.9344945119
15500207000.0 0.326831052 -0.9388024572
15550206700.0 0.3116639668 -0.9432001036
15600206400.0 0.2957673676 -0.9480804322
15650206100.0 0.2806704326 -0.95204083
15700205800.0 0.2660170637 -0.9554193286
15750205500.0 0.2519439746 -0.9590370704
15800205200.0 0.2373213186 -0.9627439284
15850204900.0 0.2229499234 -0.9661167439
15900204600.0 0.2078524781 -0.9697546591
15950204300.0 0.1940392278 -0.9725601565
16000204000.0 0.179794946 -0.9752186517
16050203700.0 0.1650527715 -0.9782601938
16100203400.0 0.1508287589 -0.9803391796
16150203100.0 0.1363213914 -0.9823735232
16200202800.0 0.1220386607 -0.9843101856
16250202500.0 0.1077252152 -0.9862460637
16300202200.0 0.0926029005 -0.9877356674
16350201900.0 0.0775837982 -0.9892409573
16400201600.0 0.0629740038 -0.9901994497
16450201300.0 0.0477190929 -0.9910314556
16500201000.0 0.0309836468 -0.9919355934
16550200700.0 0.015519948 -0.9925324084
16600200400.0 -0.0004399378 -0.9926704272
16650200100.0 -0.0167040166 -0.9922684801
16700199800.0 -0.0330158249 -0.9920460241
16750199500.0 -0.0519863563 -0.991552437
16800199200.0 -0.0674156038 -0.9904234411
16850198900.0 -0.0833737841 -0.9897188323
16900198600.0 -0.0968474438 -0.9887959111
16950198300.0 -0.1107670969 -0.9872965504
17000198000.0 -0.1234115706 -0.986148408
17050197700.0 -0.1364103126 -0.9842514566
17100197400.0 -0.1490570947 -0.9814251282
17150197100.0 -0.1613054267 -0.9797697568
17200196800.0 -0.1740194169 -0.9777491844
17250196500.0 -0.1873658867 -0.9750741042
17300196200.0 -0.1993906931 -0.9729822653
17350195900.0 -0.2111862828 -0.9707158645
17400195600.0 -0.2235223367 -0.9681555093
17450195300.0 -0.2365582847 -0.9651811261
17500195000.0 -0.2497989214 -0.9621358345
17550194700.0 -0.2636368895 -0.9584154986
17600194400.0 -0.2776222375 -0.9541937622
17650194100.0 -0.2915355577 -0.9500578502
17700193800.0 -0.303844851 -0.9458746956
17750193500.0 -0.3183757003 -0.9416196577
17800193200.0 -0.333015293 -0.9359519158
17850192900.0 -0.3482214979 -0.9306924501
17900192600.0 -0.3631513212 -0.9247576619
17950192300.0 -0.3787299195 -0.9175877111
18000192000.0 -0.3935269633 -0.9105238504
18050191700.0 -0.4073350777 -0.9024515315
18100191400.0 -0.421479756 -0.894660085
18150191100.0 -0.4363632471 -0.8867555383
18200190800.0 -0.4531909204 -0.8773882854
18250190500.0 -0.470196583 -0.8679857774
18300190200.0 -0.485681718 -0.8591767303
18350189900.0 -0.500871337 -0.8505724664
18400189600.0 -0.5148205532 -0.8421328952
18450189300.0 -0.5284819863 -0.8343144903
18500189000.0 -0.5419881263 -0.8264537533
18550188700.0 -0.5545610473 -0.8184416971
18600188400.0 -0.5660210248 -0.8118901153
18650188100.0 -0.5771231419 -0.8054828513
18700187800.0 -0.5879195413 -0.7989605626
18750187500.0 -0.598729836 -0.7923581323
18800187200.0 -0.609295654 -0.7851490622
18850186900.0 -0.6193297689 -0.7781695129
18900186600.0 -0.6299052765 -0.7706574931
18950186300.0 -0.6397676978 -0.7629726218
19000186000.0 -0.6469781694 -0.7568159596
19050185700.0 -0.6565894953 -0.7493155281
19100185400.0 -0.6666093389 -0.740962821
19150185100.0 -0.6766482523 -0.7323312404
19200184800.0 -0.685472401 -0.7243600938
19250184500.0 -0.6968596851 -0.7145510363
19300184200.0 -0.7083131938 -0.7052536523
19350183900.0 -0.7181214035 -0.6956223128
19400183600.0 -0.7284771767 -0.6857063115
19450183300.0 -0.7368009373 -0.6758019363
19500183000.0 -0.7455218024 -0.6657696756
19550182700.0 -0.7550926423 -0.6544127977
19600182400.0 -0.765453734 -0.6432275901
19650182100.0 -0.7767724528 -0.6307964841
19700181800.0 -0.7869692996 -0.6178736845
19750181500.0 -0.7975462557 -0.6034645656
19800181200.0 -0.807615995 -0.5885524622
19850180900.0 -0.8172759708 -0.5733545898
19900180600.0 -0.82506659 -0.5587764459
19950180300.0 -0.8339888744 -0.5426743531
20000180000.0 -0.8272019938 -0.5455569048
20050179700.0 -0.8348919388 -0.5320315862
20100179400.0 -0.8438590794 -0.5178111656
20150179100.0 -0.8521696551 -0.5059640077
20200178800.0 -0.860302212 -0.492958142
20250178500.0 -0.8696065037 -0.4793018563
20300178200.0 -0.8793752069 -0.4647821768
20350177900.0 -0.8881860064 -0.4503279009
20400177600.0 -0.8972903334 -0.4358798354
20450177300.0 -0.9055944555 -0.4215270491
20500177000.0 -0.9134232883 -0.4073621458
20550176700.0 -0.9217040075 -0.393830378
20600176400.0 -0.9283326162 -0.3807644313
20650176100.0 -0.9347780253 -0.3682417192
20700175800.0 -0.9422680875 -0.3554198259
20750175500.0 -0.9474294607 -0.3448273499
20800175200.0 -0.9527673966 -0.3342191774
20850174900.0 -0.9573078849 -0.3214262796
20900174600.0 -0.9629256642 -0.3118660563
20950174300.0 -0.9664917437 -0.2993591295
21000174000.0 -0.9701371139 -0.2880827734
21050173700.0 -0.9731186197 -0.2764312323
21100173400.0 -0.9772418261 -0.2645778625
21150173100.0 -0.9817338844 -0.2518695106
21200172800.0 -0.9853127094 -0.2385488988
21250172500.0 -0.9879650357 -0.2243420929
21300172200.0 -0.9909848892 -0.2104319674
21350171900.0 -0.9924530485 -0.1961665806
21400171600.0 -0.9937651937 -0.1819570951
21450171300.0 -0.9941355468 -0.167436448
21500171000.0 -0.9937153848 -0.1513693339
21550170700.0 -0.9931279293 -0.135663224
21600170400.0 -0.993124585 -0.1214172026
21650170100.0 -0.9916482532 -0.1042640072
21700169800.0 -0.990687857 -0.090176553
21750169500.0 -0.9891924984 -0.0741139387
21800169200.0 -0.9880704142 -0.058769147
21850168900.0 -0.9870813285 -0.0421976172
21900168600.0 -0.9856795866 -0.0256182985
21950168300.0 -0.9842663032 -0.0093789827
22000168000.0 -0.9831337545 0.0053040353
22050167700.0 -0.9825280582 0.0195330263
22100167400.0 -0.9826575573 0.0345801856
22150167100.0 -0.9834762299 0.0506096249
22200166800.0 -0.9838902268 0.066727919
22250166500.0 -0.9833047522 0.0840720985
22300166200.0 -0.9823941471 0.1005880797
22350165900.0 -0.9803848219 0.1167626049
22400165600.0 -0.9787899526 0.1323114186
22450165300.0 -0.9774025882 0.1473004526
22500165000.0 -0.9760668617 0.1609731894
22550164700.0 -0.9743612905 0.1770266569
22600164400.0 -0.9729240137 0.1916020478
22650164100.0 -0.9702364646 0.2078913399
22700163800.0 -0.9676348023 0.223061922
22750163500.0 -0.9647566279 0.2380285176
22800163200.0 -0.9626995195 0.2519118688
22850162900.0 -0.9599609036 0.2652928899
22900162600.0 -0.9588259739 0.2782299318
22950162300.0 -0.9577824172 0.2910172429
23000162000.0 -0.9567829472 0.3030831614
23050161700.0 -0.9544476497 0.3151275014
23100161400.0 -0.9523104698 0.3281087637
23150161100.0 -0.949702234 0.3403236364
23200160800.0 -0.9469491156 0.3520411265
23250160500.0 -0.9435836883 0.364523371
23300160200.0 -0.9417070126 0.3764500286
23350159900.0 -0.9383543967 0.3895140092
23400159600.0 -0.9332806819 0.4026497514
23450159300.0 -0.9282388936 0.4159927162
23500159000.0 -0.9234765745 0.4286723174
23550158700.0 -0.9192238046 0.4417672535
23600158400.0 -0.9137852107 0.4553176938
23650158100.0 -0.9072551005 0.4691980635
23700157800.0 -0.8996557979 0.4830597684
23750157500.0 -0.8909885429 0.4970047909
23800157200.0 -0.8828121287 0.5098243251
23850156900.0 -0.8731729752 0.5224670202
23900156600.0 -0.8642449892 0.5348374724
23950156300.0 -0.8544244009 0.5466573817
24000156000.0 -0.8454831805 0.5596014596
24050155700.0 -0.8350103624 0.5716784704
24100155400.0 -0.8255845208 0.5833612168
24150155100.0 -0.8146260708 0.5949536294
24200154800.0 -0.8042063356 0.6064753007
24250154500.0 -0.7924231273 0.6177963317
24300154200.0 -0.7813012965 0.6296292726
24350153900.0 -0.7689459725 0.6403981729
24400153600.0 -0.756733917 0.6506319471
24450153300.0 -0.7450701099 0.6605076224
24500153000.0 -0.7332728374 0.6703334212
24550152700.0 -0.7225398377 0.679673855
24600152400.0 -0.7109098039 0.6893619088
24650152100.0 -0.6986483879 0.6980900666
