!Created with skrf (http://scikit-rf.org).
# Hz S RI R 50.0 
!freq ReS11 ImS11
300000.0 -0.9779951179 -0.1077716863
50299700.0 -0.9999842922 0.0160736342
100299400.0 -0.9979224256 0.028927768
150299100.0 -1.00281218 0.0456785234
200298800.0 -0.9997331702 0.0591951331
250298500.0 -0.9974055639 0.0726309444
300298200.0 -0.9862986104 0.0883366536
350297900.0 -0.9940464402 0.0993259076
400297600.0 -0.9932238384 0.1159353125
450297300.0 -0.9910115598 0.1297541453
500297000.0 -0.9894300877 0.1444958255
550296700.0 -0.9843449184 0.156715441
600296400.0 -1.017146887 0.1902141808
650296100.0 -0.9823691766 0.1867396605
700295800.0 -0.9791990548 0.2010541665
750295500.0 -0.9761730478 0.2152235516
800295200.0 -0.972690155 0.2292093607
850294900.0 -0.9695446584 0.2432710997
900294600.0 -0.9654765569 0.2567786544
950294300.0 -0.9619007923 0.270572912
1000294000.0 -0.9578974481 0.2844867606
1050293700.0 -0.9534897142 0.2984655887
1100293400.0 -0.9489385774 0.3128219377
1150293100.0 -0.9453302312 0.3246886321
1200292800.0 -0.9398308004 0.3390610226
1250292500.0 -0.9343418677 0.3524242584
1300292200.0 -0.9288220926 0.3657128139
1350291900.0 -0.9232171925 0.3795751048
1400291600.0 -0.9175547195 0.3926767932
1450291300.0 -0.9122869703 0.405005005
1500291000.0 -0.9060110427 0.4184714788
1550290700.0 -0.8995591786 0.4317938296
1600290400.0 -0.8932606087 0.4448073807
1650290100.0 -0.8866184955 0.4568206934
1700289800.0 -0.8797499697 0.4699902571
1750289500.0 -0.8726407026 0.4825796748
1800289200.0 -0.8651918324 0.4952650425
1850288900.0 -0.8583621079 0.5067275146
1900288600.0 -0.8503603027 0.5196656961
1950288300.0 -0.8425604049 0.5323806824
2000288000.0 -0.8351194968 0.5437030081
2050287700.0 -0.8266728802 0.5560009183
2100287400.0 -0.818819568 0.5676982262
2150287100.0 -0.8102115363 0.5799538224
2200286800.0 -0.8022123839 0.5900127592
2250286500.0 -0.7936347746 0.6021311973
2300286200.0 -0.784689398 0.6138838179
2350285900.0 -0.7759463085 0.624808548
2400285600.0 -0.7668408863 0.6360374005
2450285300.0 -0.7582804392 0.6460799473
2500285000.0 -0.7485262026 0.6575882018
2550284700.0 -0.7396555241 0.6678511611
2600284400.0 -0.7300904278 0.6778947874
2650284100.0 -0.7210876229 0.6883152651
2700283800.0 -0.7104352423 0.698820841
2750283500.0 -0.7000602119 0.7092865129
2800283200.0 -0.6906178039 0.7193677163
2850282900.0 -0.6803008498 0.7291970101
2900282600.0 -0.6698820623 0.7384906066
2950282300.0 -0.6598445662 0.7479567807
3000282000.0 -0.6488520913 0.7574368408
3050281700.0 -0.6379959757 0.7666162739
3100281400.0 -0.6258636882 0.7759258889
3150281100.0 -0.6144036651 0.7854668178
3200280800.0 -0.6026558309 0.7938804207
3250280500.0 -0.5919297567 0.8015495779
3300280200.0 -0.5805022496 0.8094168617
3350279900.0 -0.5690621238 0.8167213307
3400279600.0 -0.5570710061 0.8244751067
3450279300.0 -0.5457274083 0.8316318165
3500279000.0 -0.5338127659 0.8388412494
3550278700.0 -0.5213712606 0.8460763447
3600278400.0 -0.5091206123 0.8531830953
3650278100.0 -0.495819654 0.861049632
3700277800.0 -0.4836787632 0.8671912536
3750277500.0 -0.471727049 0.8740112976
3800277200.0 -0.4589983205 0.8804336412
3850276900.0 -0.4468392623 0.8862692224
3900276600.0 -0.4360389073 0.8919409722
3950276300.0 -0.4234776497 0.898049133
4000276000.0 -0.4114248103 0.9038366222
4050275700.0 -0.3984184258 0.9100163231
4100275400.0 -0.3872067149 0.9155312893
4150275100.0 -0.374509779 0.921211825
4200274800.0 -0.361534043 0.9266134587
4250274500.0 -0.3491822355 0.9314869468
4300274200.0 -0.336283124 0.9370500264
4350273900.0 -0.3224593423 0.9421210763
4400273600.0 -0.3076054632 0.9474150519
4450273300.0 -0.2922203422 0.9526396728
4500273000.0 -0.2786354397 0.9569231092
4550272700.0 -0.2644405374 0.9611135653
4600272400.0 -0.2491507645 0.9653478723
4650272100.0 -0.2371801625 0.9686717728
4700271800.0 -0.2239722445 0.9718772136
4750271500.0 -0.2122604693 0.9746974182
4800271200.0 -0.1997877016 0.9775641581
4850270900.0 -0.1858775778 0.9801831009
4900270600.0 -0.1719564274 0.9825506901
4950270300.0 -0.1577917219 0.985235242
5000270000.0 -0.1434989181 0.9869850221
5050269700.0 -0.1301911406 0.9890312421
5100269400.0 -0.1165746819 0.9906851566
5150269100.0 -0.103248059 0.9919753574
5200268800.0 -0.0900203363 0.9927609938
5250268500.0 -0.0770500793 0.9937197371
5300268200.0 -0.0636498109 0.9947462218
5350267900.0 -0.0517224916 0.9953111156
5400267600.0 -0.0355058741 0.9966009572
5450267300.0 -0.0225094277 0.9967071258
5500267000.0 -0.0071848233 0.9971738677
5550266700.0 0.0078094577 0.9974868394
5600266400.0 0.0234240318 0.997242244
5650266100.0 0.0399715937 0.9969706654
5700265800.0 0.0543366417 0.9960549388
5750265500.0 0.0694802551 0.9950416694
5800265200.0 0.08354141 0.9943440117
5850264900.0 0.0969410916 0.993344775
5900264600.0 0.1133194816 0.9917415974
5950264300.0 0.1254015592 0.9898871209
6000264000.0 0.1396013071 0.988061973
6050263700.0 0.1519986827 0.9866786876
6100263400.0 0.1646510234 0.9845893672
6150263100.0 0.1790951371 0.9823463904
6200262800.0 0.1895850433 0.980393463
6250262500.0 0.202243871 0.9780583867
6300262200.0 0.2152823367 0.9750921028
6350261900.0 0.2283493187 0.9722285696
6400261600.0 0.2419609333 0.9689946246
6450261300.0 0.2534345665 0.9663732523
6500261000.0 0.2661922316 0.9627598864
6550260700.0 0.2790038768 0.9588249641
6600260400.0 0.2928405537 0.9550740005
6650260100.0 0.3066181714 0.9505874446
6700259800.0 0.3180277074 0.9458650244
6750259500.0 0.3323626276 0.9412701157
6800259200.0 0.345287693 0.9363023844
6850258900.0 0.3570127613 0.9310459534
6900258600.0 0.3693399767 0.9260557622
6950258300.0 0.3818361866 0.9208441795
7000258000.0 0.3938546537 0.9153553162
7050257700.0 0.406189844 0.9094420038
7100257400.0 0.4188548468 0.9029962276
7150257100.0 0.4290751081 0.8978528074
7200256800.0 0.4419075441 0.8916069552
7250256500.0 0.4538009066 0.8852030207
7300256200.0 0.4665527529 0.8782447599
7350255900.0 0.4789379864 0.8714100388
7400255600.0 0.4922269153 0.8641772696
7450255300.0 0.5074718331 0.8553567079
7500255000.0 0.5195549428 0.8480793052
7550254700.0 0.53319682 0.8394674321
7600254400.0 0.5455633438 0.8313151899
7650254100.0 0.5571762224 0.8233469871
7700253800.0 0.5692444561 0.8157168987
7750253500.0 0.5804728281 0.8075434137
7800253200.0 0.5910956859 0.7997823014
7850252900.0 0.6010149699 0.7927947742
7900252600.0 0.612588612 0.7838500454
7950252300.0 0.6216288239 0.7772225441
8000252000.0 0.6316812843 0.7694278135
8050251700.0 0.6422434863 0.7613212758
8100251400.0 0.6521308501 0.7530864556
8150251100.0 0.6622704369 0.7443260406
8200250800.0 0.6718556083 0.7364614454
8250250500.0 0.6806665839 0.7284447317
8300250200.0 0.6896699705 0.7197209276
8350249900.0 0.6989748014 0.7111428188
8400249600.0 0.7074179137 0.7030245844
8450249300.0 0.7166622656 0.6939305779
8500249000.0 0.7250417947 0.6851092468
8550248700.0 0.7332288259 0.676145129
8600248400.0 0.7416461043 0.6664927553
8650248100.0 0.7494565499 0.6572099663
8700247800.0 0.7589300764 0.646013903
8750247500.0 0.7672573601 0.6357735534
8800247200.0 0.775310444 0.6256343521
8850246900.0 0.7840985121 0.6141304778
8900246600.0 0.7923796478 0.6029975702
8950246300.0 0.8020067601 0.5898676096
9000246000.0 0.8112238465 0.5772163867
9050245700.0 0.8206393873 0.5640755242
9100245400.0 0.8293062156 0.5516308645
9150245100.0 0.8383679797 0.537974677
9200244800.0 0.8483675852 0.5226987217
9250244500.0 0.8575468517 0.5072111019
9300244200.0 0.8661357172 0.4925453961
9350243900.0 0.8736631684 0.4785457311
9400243600.0 0.880488703 0.4662198213
9450243300.0 0.88632645 0.4544728628
9500243000.0 0.8927177786 0.4422196897
9550242700.0 0.8965881705 0.4341773228
9600242400.0 0.9002832302 0.4266260607
9650242100.0 0.9039845306 0.4204268978
9700241800.0 0.9084882158 0.4120800248
9750241500.0 0.9121666808 0.4046241444
9800241200.0 0.9171070747 0.3952990114
9850240900.0 0.9227696951 0.3835805136
9900240600.0 0.9285702629 0.3719085091
9950240300.0 0.9345474362 0.3561150085
10000240000.0 0.9396739597 0.3442846942
10050239700.0 0.9451252133 0.3289727322
10100239400.0 0.9501708896 0.3135302592
10150239100.0 0.9543391235 0.2988556554
10200238800.0 0.9584960862 0.2841807856
10250238500.0 0.961888406 0.2707012553
10300238200.0 0.9648303515 0.2569182302
10350237900.0 0.9675097225 0.2436613544
10400237600.0 0.9700019649 0.2305335846
10450237300.0 0.9727871579 0.2170525907
10500237000.0 0.9750422391 0.2048590661
10550236700.0 0.9773027822 0.1904301351
10600236400.0 0.9791210776 0.1776296108
10650236100.0 0.9810575223 0.1630121389
10700235800.0 0.9837428541 0.1504287871
10750235500.0 0.9858009197 0.1371411666
10800235200.0 0.9877745833 0.1238471021
10850234900.0 0.9898682827 0.1088763961
10900234600.0 0.9917535942 0.0944967032
10950234300.0 0.9935890217 0.0810850734
11000234000.0 0.9951846513 0.0658875645
11050233700.0 0.9969808617 0.0496822222
11100233400.0 0.9984745034 0.0322170896
11150233100.0 0.999468085 0.0157206354
11200232800.0 1.000356221 0.0001446762
11250232500.0 1.001125091 -0.0157542736
11300232200.0 1.001900705 -0.0341334543
11350231900.0 1.001823412 -0.049812778
11400231600.0 1.000978509 -0.0646672008
11450231300.0 1.0008505 -0.0809886077
11500231000.0 0.9992513721 -0.0971400668
11550230700.0 0.998116344 -0.1103611044
11600230400.0 0.9964674714 -0.1231784998
11650230100.0 0.994601138 -0.1348470773
11700229800.0 0.9926456256 -0.1499550699
11750229500.0 0.9898912734 -0.1641130895
11800229200.0 0.9873600197 -0.1780773089
11850228900.0 0.983838344 -0.1906116939
11900228600.0 0.9803797068 -0.2002918355
11950228300.0 0.9771961679 -0.2102933881
12000228000.0 0.9743990713 -0.2198090601
12050227700.0 0.970817194 -0.2323114164
12100227400.0 0.9677966083 -0.242983561
12150227100.0 0.9624583266 -0.2600511282
12200226800.0 0.9589852398 -0.2705750386
12250226500.0 0.9547574386 -0.2843206385
12300226200.0 0.9507067569 -0.2963451025
12350225900.0 0.9458671107 -0.3095666621
12400225600.0 0.9415690964 -0.3230305728
12450225300.0 0.9374739758 -0.3347862923
12500225000.0 0.9315619943 -0.3497759747
12550224700.0 0.9264173519 -0.3629316586
12600224400.0 0.9215546791 -0.376047479
12650224100.0 0.9158352375 -0.3904474638
12700223800.0 0.9107308113 -0.4030100699
12750223500.0 0.9051143793 -0.4158785576
12800223200.0 0.8997050782 -0.4287716877
12850222900.0 0.8944996434 -0.4411189309
12900222600.0 0.8888006708 -0.4526489309
12950222300.0 0.8824747535 -0.4657216674
13000222000.0 0.876671179 -0.4767744842
13050221700.0 0.8697939804 -0.4893505005
13100221400.0 0.8627248331 -0.501404018
13150221100.0 0.8558962438 -0.5142218662
13200220800.0 0.8488521509 -0.5253291163
13250220500.0 0.841644516 -0.5376849697
13300220200.0 0.8340826442 -0.5489563802
13350219900.0 0.8260589201 -0.5610970469
13400219600.0 0.8175389849 -0.5731136387
13450219300.0 0.8081506926 -0.5865257432
13500219000.0 0.7979319387 -0.6008001898
13550218700.0 0.78758381 -0.6136785939
13600218400.0 0.7774821681 -0.6258223937
13650218100.0 0.7678112531 -0.6363443257
13700217800.0 0.7562850172 -0.6492859666
13750217500.0 0.7469342833 -0.6602401752
13800217200.0 0.7360727859 -0.6718144109
13850216900.0 0.7241602041 -0.6836631785
13900216600.0 0.7142366974 -0.6929898302
13950216300.0 0.7033211134 -0.7030119411
14000216000.0 0.6936171427 -0.71190794
14050215700.0 0.6833263891 -0.7206181166
14100215400.0 0.6743786271 -0.7296930664
14150215100.0 0.6650596167 -0.7378728848
14200214800.0 0.6558455174 -0.7465609431
14250214500.0 0.6456916293 -0.7556624568
14300214200.0 0.6352642774 -0.7648458732
14350213900.0 0.6240622516 -0.7744824162
14400213600.0 0.6121729274 -0.7840758056
14450213300.0 0.5990943661 -0.7942055981
14500213000.0 0.5862174507 -0.8043199491
14550212700.0 0.573682047 -0.8136505161
14600212400.0 0.561768182 -0.8224280222
14650212100.0 0.5481791187 -0.8308285608
14700211800.0 0.5344541223 -0.8407377022
14750211500.0 0.5224643082 -0.8482661039
14800211200.0 0.5100906132 -0.8565963088
14850210900.0 0.4977523235 -0.8639894004
14900210600.0 0.4844609776 -0.8719476615
14950210300.0 0.4710463736 -0.8794924589
15000210000.0 0.4581782941 -0.8864721471
15050209700.0 0.4458243461 -0.8928960063
15100209400.0 0.4332516817 -0.8987494385
15150209100.0 0.4207657704 -0.9044003077
15200208800.0 0.4071988847 -0.9097993812
15250208500.0 0.3968756922 -0.9144668127
15300208200.0 0.3840945184 -0.9190033799
15350207900.0 0.3707725129 -0.9233724592
15400207600.0 0.3557890123 -0.9286723619
15450207300.0 0.3415332127 -0.9336613656
15500207000.0 0.3264812571 -0.9381123181
15550206700.0 0.3117581011 -0.9432329418
15600206400.0 0.295658193 -0.9479838554
15650206100.0 0.280039426 -0.9521705883
15700205800.0 0.2660100438 -0.9556174385
15750205500.0 0.2515651663 -0.9595278097
15800205200.0 0.2370150613 -0.9629438769
15850204900.0 0.2227426424 -0.9663326701
15900204600.0 0.2078981406 -0.9696411872
15950204300.0 0.1939307059 -0.9727398894
16000204000.0 0.1795544286 -0.975619809
16050203700.0 0.1650335282 -0.9782712119
16100203400.0 0.1504992301 -0.9806143803
16150203100.0 0.1365916896 -0.9826341301
16200202800.0 0.1220460687 -0.9846715358
16250202500.0 0.107536467 -0.9864303798
16300202200.0 0.092654529 -0.9876257791
16350201900.0 0.0776392532 -0.9893091626
16400201600.0 0.063187203 -0.9902413166
16450201300.0 0.04807345 -0.9913539166
16500201000.0 0.0313046343 -0.9919712853
16550200700.0 0.0157994863 -0.9925448081
16600200400.0 -6.40995e-05 -0.9925621481
16650200100.0 -0.0165603914 -0.9925843919
16700199800.0 -0.0330995457 -0.9918816379
16750199500.0 -0.05210646 -0.9911866634
16800199200.0 -0.0674479091 -0.9906369086
16850198900.0 -0.082773434 -0.9892783044
16900198600.0 -0.0962415047 -0.988192137
16950198300.0 -0.1102155353 -0.9873867203
17000198000.0 -0.1232004312 -0.9855057935
17050197700.0 -0.1361748869 -0.9835874691
17100197400.0 -0.1490020955 -0.9817150932
17150197100.0 -0.1615466906 -0.9803564279
17200196800.0 -0.1737210238 -0.9780212284
17250196500.0 -0.1872166446 -0.9751610539
17300196200.0 -0.1993301621 -0.9727323263
17350195900.0 -0.2113144438 -0.9706812401
17400195600.0 -0.2235230743 -0.9681590179
17450195300.0 -0.236815834 -0.965251075
17500195000.0 -0.2501270602 -0.961831994
17550194700.0 -0.2641573717 -0.9582889724
17600194400.0 -0.2776894342 -0.9543551444
17650194100.0 -0.2917500873 -0.9498037627
17700193800.0 -0.3044857572 -0.9459300766
17750193500.0 -0.3189758193 -0.9414510603
17800193200.0 -0.3331186192 -0.9363844818
17850192900.0 -0.348147045 -0.930654689
17900192600.0 -0.3632960479 -0.924536182
17950192300.0 -0.3786063976 -0.9175634651
18000192000.0 -0.3931944857 -0.9106503498
18050191700.0 -0.4070934031 -0.9025622812
18100191400.0 -0.4211923067 -0.8948218129
18150191100.0 -0.436170864 -0.8866694205
18200190800.0 -0.4529546054 -0.8776896105
18250190500.0 -0.4699742826 -0.868035226
18300190200.0 -0.485354429 -0.8589498668
18350189900.0 -0.5005403059 -0.8508555618
18400189600.0 -0.5146887572 -0.8426172975
18450189300.0 -0.5282359572 -0.8341001109
18500189000.0 -0.541530111 -0.826381417
18550188700.0 -0.554490803 -0.8185181742
18600188400.0 -0.5662695744 -0.8116441382
18650188100.0 -0.5777069121 -0.8048523205
18700187800.0 -0.5880086904 -0.7988231206
18750187500.0 -0.5987923908 -0.7921325455
18800187200.0 -0.6093519984 -0.7848192843
18850186900.0 -0.6195468634 -0.7779155706
18900186600.0 -0.6301036708 -0.7703162008
18950186300.0 -0.6402764404 -0.7624420961
19000186000.0 -0.6479864145 -0.7562644904
19050185700.0 -0.6573924305 -0.7491071677
19100185400.0 -0.6674011631 -0.7408549655
19150185100.0 -0.6778739278 -0.7323091317
19200184800.0 -0.686467925 -0.7233407089
19250184500.0 -0.6976228225 -0.7141554667
19300184200.0 -0.7089265936 -0.7045651897
19350183900.0 -0.718955269 -0.6953024018
19400183600.0 -0.7290052027 -0.6850462123
19450183300.0 -0.7374298211 -0.6750077422
19500183000.0 -0.7455580241 -0.6653971206
19550182700.0 -0.7558579152 -0.6543075734
19600182400.0 -0.7659006864 -0.642386608
19650182100.0 -0.7761876708 -0.6306746945
19700181800.0 -0.7868492505 -0.6175901765
19750181500.0 -0.7973374236 -0.6033508093
19800181200.0 -0.8076133007 -0.5884018442
19850180900.0 -0.8169948747 -0.573285981
19900180600.0 -0.8246270004 -0.5588721408
19950180300.0 -0.8339949625 -0.5425722858
20000180000.0 -0.8277158554 -0.5443239581
20050179700.0 -0.8349157937 -0.5316962381
20100179400.0 -0.8441076248 -0.5175963784
20150179100.0 -0.8517111944 -0.5051283588
20200178800.0 -0.8603405792 -0.4930366448
20250178500.0 -0.8696451852 -0.4793814879
20300178200.0 -0.8797001788 -0.4647330394
20350177900.0 -0.8884959081 -0.4497785065
20400177600.0 -0.8971773448 -0.4358575426
20450177300.0 -0.9053988869 -0.4212561777
20500177000.0 -0.9134022332 -0.4075070344
20550176700.0 -0.9211866504 -0.3938764987
20600176400.0 -0.9283758425 -0.3805910773
20650176100.0 -0.9347282653 -0.3680010008
20700175800.0 -0.941913002 -0.3559406131
20750175500.0 -0.948374967 -0.3445172806
20800175200.0 -0.9527639593 -0.3340144917
20850174900.0 -0.9581452245 -0.3217899573
20900174600.0 -0.9628580192 -0.3114213384
20950174300.0 -0.9661943176 -0.2989143527
21000174000.0 -0.9701872014 -0.2866885102
21050173700.0 -0.9738832238 -0.2765256468
21100173400.0 -0.9770006732 -0.2646265344
21150173100.0 -0.9812360203 -0.2520597229
21200172800.0 -0.9844142741 -0.2378989576
21250172500.0 -0.9878758909 -0.2245797014
21300172200.0 -0.9905963279 -0.2103561558
21350171900.0 -0.9917925158 -0.1958915013
21400171600.0 -0.9930707583 -0.1812958064
21450171300.0 -0.9935621866 -0.1669714211
21500171000.0 -0.9931876532 -0.1519108242
21550170700.0 -0.9927104263 -0.1366873335
21600170400.0 -0.9936483954 -0.1201909507
21650170100.0 -0.9919837268 -0.1058990463
21700169800.0 -0.9898530474 -0.0897381564
21750169500.0 -0.9896725803 -0.0745771551
21800169200.0 -0.9881753168 -0.0579089219
21850168900.0 -0.9870405788 -0.0408733402
21900168600.0 -0.9845100058 -0.024201904
21950168300.0 -0.9850337525 -0.0088781457
22000168000.0 -0.9827553475 0.005432119
22050167700.0 -0.9823854708 0.0198394096
22100167400.0 -0.9827032197 0.03526866
22150167100.0 -0.9830641753 0.0502055599
22200166800.0 -0.9833100779 0.066770041
22250166500.0 -0.9827360979 0.083799811
22300166200.0 -0.9817451162 0.1007404138
22350165900.0 -0.9808471287 0.116347347
22400165600.0 -0.9789459526 0.1321258036
22450165300.0 -0.9775315272 0.1474018882
22500165000.0 -0.9752961642 0.1606204766
22550164700.0 -0.9741426323 0.1764073968
22600164400.0 -0.9726601843 0.1917826577
22650164100.0 -0.9705771864 0.2069101199
22700163800.0 -0.9675073086 0.223052132
22750163500.0 -0.9652083947 0.2376089416
22800163200.0 -0.9626363043 0.2512033215
22850162900.0 -0.9597274017 0.2648673091
22900162600.0 -0.9585317538 0.2780150879
22950162300.0 -0.9575833895 0.2908632421
23000162000.0 -0.9564622915 0.3025351965
23050161700.0 -0.9544721513 0.3151129629
23100161400.0 -0.9525846567 0.3280994589
23150161100.0 -0.9490253796 0.3401915362
23200160800.0 -0.9466993545 0.3525735646
23250160500.0 -0.9434032515 0.3640048675
23300160200.0 -0.9408343306 0.3761264698
23350159900.0 -0.9373028183 0.3894445994
23400159600.0 -0.9324408206 0.401857551
23450159300.0 -0.9278077098 0.4161815667
23500159000.0 -0.9235973092 0.4281031
23550158700.0 -0.918834272 0.4416527285
23600158400.0 -0.9131299467 0.4548998114
23650158100.0 -0.9069454558 0.468900597
23700157800.0 -0.8995792781 0.4825251584
23750157500.0 -0.89088426 0.4962813051
23800157200.0 -0.8820369602 0.5095327924
23850156900.0 -0.8733497567 0.5219924213
23900156600.0 -0.8638929672 0.5348107376
23950156300.0 -0.8547126991 0.5474717399
24000156000.0 -0.8459603967 0.5596357985
24050155700.0 -0.8351395009 0.571069631
24100155400.0 -0.8251687086 0.5832295968
24150155100.0 -0.8146906338 0.5946673099
24200154800.0 -0.8027228361 0.6061070968
24250154500.0 -0.7927513628 0.6178682733
24300154200.0 -0.7809636101 0.6293017965
24350153900.0 -0.7689874267 0.6397023211
24400153600.0 -0.7567340998 0.6500198931
24450153300.0 -0.7452611467 0.6602381909
24500153000.0 -0.7334964459 0.6696322922
24550152700.0 -0.7219301754 0.6790029298
24600152400.0 -0.7103224718 0.6893063285
24650152100.0 -0.699413354 0.6962018321
