!Created with skrf (http://scikit-rf.org).
# Hz S RI R 50.0 
!freq ReS11 ImS11
300000.0 -0.9816012902 -0.1009329362
50299700.0 -1.000001086 0.0163316493
100299400.0 -0.9980382188 0.0292124696
150299100.0 -1.002802294 0.0461128335
200298800.0 -0.9995232806 0.0593234001
250298500.0 -0.9974657868 0.0727940562
300298200.0 -0.9860430877 0.0886671433
350297900.0 -0.9939634417 0.0995996169
400297600.0 -0.9933433973 0.1159925951
450297300.0 -0.9909220164 0.1299958193
500297000.0 -0.9893314303 0.14473875
550296700.0 -0.984337345 0.1572809178
600296400.0 -1.017093163 0.1905517245
650296100.0 -0.9820102387 0.1872186127
700295800.0 -0.9792921549 0.2015621987
750295500.0 -0.9760246472 0.2155478718
800295200.0 -0.972828534 0.2296861989
850294900.0 -0.9692601399 0.2434497836
900294600.0 -0.9655658312 0.2571550432
950294300.0 -0.9619092018 0.270716798
1000294000.0 -0.9577720626 0.2846536693
1050293700.0 -0.9532537271 0.2987078478
1100293400.0 -0.9488654067 0.3130844142
1150293100.0 -0.9452686075 0.3249413163
1200292800.0 -0.9397752195 0.3390971299
1250292500.0 -0.9342826785 0.3526308955
1300292200.0 -0.9286208112 0.3659212736
1350291900.0 -0.9228823701 0.3799006484
1400291600.0 -0.917502829 0.3929021146
1450291300.0 -0.9121446047 0.405337884
1500291000.0 -0.9058001206 0.4185903001
1550290700.0 -0.8991923253 0.4320769807
1600290400.0 -0.8931237576 0.4447558083
1650290100.0 -0.8864059562 0.4569023819
1700289800.0 -0.879621948 0.470321554
1750289500.0 -0.8725286503 0.4828583798
1800289200.0 -0.8653489391 0.4955852505
1850288900.0 -0.8583983348 0.5069687092
1900288600.0 -0.8504882574 0.5199227031
1950288300.0 -0.8424285139 0.5324440389
2000288000.0 -0.8350418535 0.5439466951
2050287700.0 -0.826682243 0.5562784813
2100287400.0 -0.818704425 0.5680229351
2150287100.0 -0.8101684234 0.579966889
2200286800.0 -0.8023688861 0.5904503434
2250286500.0 -0.7934092879 0.6023611711
2300286200.0 -0.7845494327 0.6140482747
2350285900.0 -0.7755280694 0.6250777499
2400285600.0 -0.7665967168 0.6360683334
2450285300.0 -0.7581877204 0.6464390929
2500285000.0 -0.7483745935 0.6577536657
2550284700.0 -0.7395956379 0.6679799214
2600284400.0 -0.7297844538 0.6781389225
2650284100.0 -0.7206609687 0.6887230277
2700283800.0 -0.7099786242 0.6994093426
2750283500.0 -0.6999861373 0.7097959705
2800283200.0 -0.6899403826 0.7195641129
2850282900.0 -0.6797873838 0.7294766776
2900282600.0 -0.6695577361 0.7389427144
2950282300.0 -0.6593950253 0.7481353073
3000282000.0 -0.6487734216 0.7576903987
3050281700.0 -0.6377479264 0.7669502743
3100281400.0 -0.625715111 0.7762516815
3150281100.0 -0.6139849531 0.7854011066
3200280800.0 -0.6022959768 0.7941502046
3250280500.0 -0.5914998078 0.8017222107
3300280200.0 -0.5804799127 0.8095913482
3350279900.0 -0.56891934 0.8171121575
3400279600.0 -0.5569807134 0.8246687803
3450279300.0 -0.5458193046 0.8320441177
3500279000.0 -0.5337027526 0.8390308304
3550278700.0 -0.5213681061 0.8461564585
3600278400.0 -0.5091336462 0.853377732
3650278100.0 -0.4957054037 0.8612407398
3700277800.0 -0.48369756 0.8677904227
3750277500.0 -0.4713173679 0.8740257197
3800277200.0 -0.4590358764 0.8805920811
3850276900.0 -0.4467885242 0.8864487859
3900276600.0 -0.4357782886 0.8919224834
3950276300.0 -0.4230863626 0.8981296977
4000276000.0 -0.4112905362 0.904310972
4050275700.0 -0.3977615803 0.9103451417
4100275400.0 -0.3865045235 0.9156893084
4150275100.0 -0.3742347015 0.9216325257
4200274800.0 -0.3612890627 0.9269824283
4250274500.0 -0.3488343735 0.9317746713
4300274200.0 -0.3356392606 0.9371927486
4350273900.0 -0.3219271693 0.9424062252
4400273600.0 -0.307122833 0.9473568344
4450273300.0 -0.2916670836 0.9526272552
4500273000.0 -0.2781551629 0.9570025461
4550272700.0 -0.2640056703 0.9611573646
4600272400.0 -0.2484272641 0.9653103577
4650272100.0 -0.2367775399 0.9687293285
4700271800.0 -0.2235034728 0.9718969096
4750271500.0 -0.2118473273 0.9748241406
4800271200.0 -0.1992973651 0.9776044607
4850270900.0 -0.1852551242 0.9803267163
4900270600.0 -0.1714916328 0.9826632957
4950270300.0 -0.1572947377 0.9853989781
5000270000.0 -0.1432078377 0.9872440294
5050269700.0 -0.1296364994 0.9887398573
5100269400.0 -0.1163262171 0.9906304511
5150269100.0 -0.1030201666 0.9924846637
5200268800.0 -0.0898161582 0.9933376452
5250268500.0 -0.0766728193 0.9939068994
5300268200.0 -0.0634034804 0.9951022983
5350267900.0 -0.051248118 0.9955351221
5400267600.0 -0.0352114503 0.9966970024
5450267300.0 -0.0221733874 0.9967479288
5500267000.0 -0.0070204641 0.9973042326
5550266700.0 0.0079251074 0.9973975535
5600266400.0 0.02359343 0.9971934992
5650266100.0 0.0401519338 0.9967777904
5700265800.0 0.0545842038 0.9957918751
5750265500.0 0.0699181466 0.9954857122
5800265200.0 0.0837608854 0.9941155678
5850264900.0 0.0972506976 0.9934895669
5900264600.0 0.1136666741 0.991225032
5950264300.0 0.1259311927 0.9895977005
6000264000.0 0.1399961798 0.9881917356
6050263700.0 0.1524373008 0.9864336426
6100263400.0 0.1649905799 0.9845527398
6150263100.0 0.1795108365 0.9821374868
6200262800.0 0.1899652462 0.9802146932
6250262500.0 0.202612673 0.9778631799
6300262200.0 0.2156317033 0.9751052368
6350261900.0 0.2286413617 0.9720123482
6400261600.0 0.2425884082 0.9685779611
6450261300.0 0.254145038 0.9660924615
6500261000.0 0.2665479795 0.9624154229
6550260700.0 0.2795407942 0.9585003008
6600260400.0 0.2927269589 0.9545122706
6650260100.0 0.3068635602 0.9502731655
6700259800.0 0.3187437021 0.9456378278
6750259500.0 0.3323882143 0.9409009458
6800259200.0 0.3453906271 0.935591688
6850258900.0 0.3576498083 0.9311164524
6900258600.0 0.3696391304 0.9258844921
6950258300.0 0.3824445842 0.9207686921
7000258000.0 0.3941957879 0.9154842644
7050257700.0 0.406608563 0.9093793376
7100257400.0 0.4192700835 0.903109961
7150257100.0 0.4294217941 0.8976709878
7200256800.0 0.4422303563 0.8915665886
7250256500.0 0.4541229535 0.8848881718
7300256200.0 0.467202727 0.8783546175
7350255900.0 0.4795168454 0.8713653966
7400255600.0 0.4928502638 0.8642956222
7450255300.0 0.5077964758 0.8552644246
7500255000.0 0.5193325538 0.8480886063
7550254700.0 0.5333477375 0.8393856792
7600254400.0 0.5455121603 0.8313392977
7650254100.0 0.5578928382 0.8235261401
7700253800.0 0.5692336723 0.8153882794
7750253500.0 0.5808109044 0.8075392857
7800253200.0 0.5913341775 0.7996914068
7850252900.0 0.6012168558 0.7925797065
7900252600.0 0.612909787 0.7837736406
7950252300.0 0.6217097894 0.7769687811
8000252000.0 0.6320753899 0.7691731584
8050251700.0 0.6427308309 0.7608099319
8100251400.0 0.6527038128 0.7528347982
8150251100.0 0.6628669558 0.7438588556
8200250800.0 0.6721812018 0.7358338042
8250250500.0 0.6811314105 0.7281468765
8300250200.0 0.690246125 0.7194234648
8350249900.0 0.6996563773 0.7106338692
8400249600.0 0.7077097931 0.7025977375
8450249300.0 0.7169678096 0.6933033663
8500249000.0 0.7254822266 0.6844571652
8550248700.0 0.7336930729 0.6755538404
8600248400.0 0.7420948099 0.6660176118
8650248100.0 0.7500189282 0.656569486
8700247800.0 0.7595043956 0.6455124465
8750247500.0 0.7676527771 0.6353892872
8800247200.0 0.7759910417 0.6251730033
8850246900.0 0.7845379788 0.6138040749
8900246600.0 0.7930021109 0.6023247446
8950246300.0 0.8023896358 0.5897425974
9000246000.0 0.8119982995 0.5768205473
9050245700.0 0.8205889254 0.5640968031
9100245400.0 0.8293266878 0.5515558345
9150245100.0 0.8382622175 0.5381175327
9200244800.0 0.8481795764 0.5230157655
9250244500.0 0.8574268455 0.5074994098
9300244200.0 0.8659560711 0.4927592304
9350243900.0 0.8735984625 0.4788072608
9400243600.0 0.8804483737 0.4663306947
9450243300.0 0.8862950248 0.4545256946
9500243000.0 0.8926518543 0.4421543219
9550242700.0 0.8964548698 0.4339577033
9600242400.0 0.9004715887 0.4263035368
9650242100.0 0.9038293328 0.4198695697
9700241800.0 0.9086565835 0.4114180202
9750241500.0 0.9127944612 0.4037465414
9800241200.0 0.9173627568 0.3945961857
9850240900.0 0.9230381384 0.382631621
9900240600.0 0.9283941945 0.3710060272
9950240300.0 0.9348924299 0.3550657527
10000240000.0 0.9393636344 0.3437076119
10050239700.0 0.9450645855 0.3283588105
10100239400.0 0.9499388241 0.3130044315
10150239100.0 0.9544920211 0.2982252029
10200238800.0 0.9587633332 0.283246878
10250238500.0 0.9619473877 0.2701669428
10300238200.0 0.9651504453 0.2561553251
10350237900.0 0.967774945 0.2431579178
10400237600.0 0.9702118371 0.2299337231
10450237300.0 0.9731375323 0.2164330205
10500237000.0 0.975043927 0.2044993233
10550236700.0 0.9776259433 0.1903489061
10600236400.0 0.9794267808 0.1770452545
10650236100.0 0.9813597813 0.1626303161
10700235800.0 0.9841117767 0.1500243726
10750235500.0 0.9863333579 0.136894494
10800235200.0 0.988087082 0.122859749
10850234900.0 0.989790689 0.1085423923
10900234600.0 0.9919030388 0.094049958
10950234300.0 0.9935353973 0.0806327795
11000234000.0 0.9953027463 0.0657674142
11050233700.0 0.9968325494 0.0493244367
11100233400.0 0.9983124543 0.0322288497
11150233100.0 0.9992831005 0.0156697334
11200232800.0 1.000140219 0.0004373578
11250232500.0 1.00083918 -0.0157875988
11300232200.0 1.000862325 -0.0337092414
11350231900.0 1.001164432 -0.0489933453
11400231600.0 1.001510831 -0.0661033323
11450231300.0 1.000344636 -0.0811561911
11500231000.0 0.9995858266 -0.09813095
11550230700.0 0.9981919858 -0.1120743245
11600230400.0 0.9963415637 -0.1242315526
11650230100.0 0.9945009311 -0.1350191866
11700229800.0 0.9921464178 -0.1503953168
11750229500.0 0.9897669497 -0.1649643033
11800229200.0 0.9870022124 -0.1785740165
11850228900.0 0.9834896966 -0.1913078423
11900228600.0 0.9798365605 -0.2013777149
11950228300.0 0.9766236125 -0.2116383305
12000228000.0 0.9738921087 -0.220793547
12050227700.0 0.9699603093 -0.2333831118
12100227400.0 0.9674464861 -0.2445113143
12150227100.0 0.9625586026 -0.2609380671
12200226800.0 0.9588089527 -0.2714880947
12250226500.0 0.9549908935 -0.2840744405
12300226200.0 0.9510290092 -0.2967503029
12350225900.0 0.9454491863 -0.310964872
12400225600.0 0.9413317525 -0.3234144375
12450225300.0 0.9370760288 -0.3357330161
12500225000.0 0.9316891637 -0.3503654242
12550224700.0 0.9261821384 -0.3639705195
12600224400.0 0.9215156141 -0.3764639744
12650224100.0 0.915684066 -0.3906837142
12700223800.0 0.910439769 -0.4032531819
12750223500.0 0.904999636 -0.4162463184
12800223200.0 0.8997166798 -0.4288314405
12850222900.0 0.8944609694 -0.4409023784
12900222600.0 0.8884410926 -0.4529596657
12950222300.0 0.8820854155 -0.4657885856
13000222000.0 0.8759997537 -0.4777388663
13050221700.0 0.869485568 -0.4902812725
13100221400.0 0.8626646434 -0.5020387086
13150221100.0 0.855623227 -0.5146118202
13200220800.0 0.8484644368 -0.5260094462
13250220500.0 0.8411339814 -0.5383647855
13300220200.0 0.8335364738 -0.5497623031
13350219900.0 0.8255292302 -0.5616192113
13400219600.0 0.81700737 -0.5739136903
13450219300.0 0.8073502626 -0.5878310103
13500219000.0 0.7971542849 -0.6017420623
13550218700.0 0.7871101359 -0.6143949912
13600218400.0 0.7761826126 -0.6272804446
13650218100.0 0.7664042428 -0.6378765335
13700217800.0 0.7551450998 -0.649551059
13750217500.0 0.7454847344 -0.6608359537
13800217200.0 0.734496715 -0.6733013415
13850216900.0 0.7234446934 -0.6841903045
13900216600.0 0.7142048914 -0.6932720378
13950216300.0 0.7026936501 -0.7033830694
14000216000.0 0.6930094514 -0.7125935369
14050215700.0 0.6831463854 -0.7215332895
14100215400.0 0.6735224402 -0.7301406082
14150215100.0 0.6646125914 -0.7384474894
14200214800.0 0.6553944502 -0.7468952266
14250214500.0 0.6451342708 -0.756051934
14300214200.0 0.6346772518 -0.7651448205
14350213900.0 0.6236333961 -0.7745654468
14400213600.0 0.6122168514 -0.7842006486
14450213300.0 0.5992909518 -0.7943499532
14500213000.0 0.5863576478 -0.8041047793
14550212700.0 0.574115819 -0.8133412875
14600212400.0 0.5611982737 -0.8222570536
14650212100.0 0.5486693397 -0.8310333239
14700211800.0 0.5345585669 -0.840427822
14750211500.0 0.5221250735 -0.8483822656
14800211200.0 0.5100085358 -0.8566173851
14850210900.0 0.4976567292 -0.8641008944
14900210600.0 0.4842209092 -0.8720690854
14950210300.0 0.4706785128 -0.8795947608
15000210000.0 0.4576116347 -0.8868445102
15050209700.0 0.4449943444 -0.8928820632
15100209400.0 0.4321272264 -0.8991433673
15150209100.0 0.4199491247 -0.9040864568
15200208800.0 0.406447799 -0.9099442862
15250208500.0 0.3958055994 -0.9140222904
15300208200.0 0.3830095845 -0.9190729141
15350207900.0 0.3697868327 -0.9239920718
15400207600.0 0.3542004494 -0.9298628169
15450207300.0 0.3406257643 -0.934249439
15500207000.0 0.3257154692 -0.9386673699
15550206700.0 0.3108048016 -0.9440781206
15600206400.0 0.2948247742 -0.9480462554
15650206100.0 0.2788911837 -0.9524166364
15700205800.0 0.2652803386 -0.9558784989
15750205500.0 0.2507248307 -0.9595276373
15800205200.0 0.2364022101 -0.9630876344
15850204900.0 0.2221078629 -0.9663887205
15900204600.0 0.2070552885 -0.9698880488
15950204300.0 0.1931642744 -0.9726233777
16000204000.0 0.1793046775 -0.9755425523
16050203700.0 0.1648211861 -0.9780420149
16100203400.0 0.1502751798 -0.9806571092
16150203100.0 0.1359223244 -0.9828196164
16200202800.0 0.122368329 -0.9850144026
16250202500.0 0.1074471901 -0.9861350002
16300202200.0 0.0922047037 -0.9877998955
16350201900.0 0.0775732068 -0.9893899903
16400201600.0 0.0630784282 -0.990201125
16450201300.0 0.0479349798 -0.9913205772
16500201000.0 0.0313359776 -0.992002278
16550200700.0 0.0156031388 -0.9924766827
16600200400.0 -0.0002566484 -0.9926333721
16650200100.0 -0.0167131657 -0.992576235
16700199800.0 -0.0334756683 -0.9922571663
16750199500.0 -0.0517642524 -0.9910976184
16800199200.0 -0.0681934202 -0.9905869162
16850198900.0 -0.0834610548 -0.9890478212
16900198600.0 -0.0969245406 -0.9885238749
16950198300.0 -0.1110082137 -0.9869807311
17000198000.0 -0.1234819673 -0.9854861808
17050197700.0 -0.1369775458 -0.9838562391
17100197400.0 -0.1502581512 -0.9814759005
17150197100.0 -0.162937072 -0.9794907264
17200196800.0 -0.175263362 -0.9773243767
17250196500.0 -0.188382581 -0.9749264031
17300196200.0 -0.2003863896 -0.9727132214
17350195900.0 -0.2124318557 -0.9703762235
17400195600.0 -0.2243892586 -0.9679458067
17450195300.0 -0.2376620815 -0.9651153139
17500195000.0 -0.2510176954 -0.9617758403
17550194700.0 -0.2649577053 -0.9582374204
17600194400.0 -0.2786541469 -0.9541138263
17650194100.0 -0.2924565277 -0.9495949968
17700193800.0 -0.3054115026 -0.9459802069
17750193500.0 -0.3196863401 -0.9409794548
17800193200.0 -0.3338162337 -0.9363275844
17850192900.0 -0.3486759152 -0.9308399822
17900192600.0 -0.3638160781 -0.924640135
17950192300.0 -0.3789253846 -0.9176169859
18000192000.0 -0.3937457739 -0.9102932597
18050191700.0 -0.4074587811 -0.9025060034
18100191400.0 -0.4215787862 -0.8948881663
18150191100.0 -0.436531621 -0.8868621852
18200190800.0 -0.4531073731 -0.8777130697
18250190500.0 -0.4703044664 -0.8682953116
18300190200.0 -0.4851988269 -0.8597426506
18350189900.0 -0.5005351792 -0.8511101382
18400189600.0 -0.5146383065 -0.8426751576
18450189300.0 -0.5282869703 -0.8347206325
18500189000.0 -0.5416406792 -0.8264372114
18550188700.0 -0.5541379939 -0.8189094426
18600188400.0 -0.5665518174 -0.8118824493
18650188100.0 -0.5774367251 -0.8047445674
18700187800.0 -0.5881945115 -0.798490177
18750187500.0 -0.5992345872 -0.7915972553
18800187200.0 -0.6099274103 -0.7845850111
18850186900.0 -0.6203368137 -0.7771625627
18900186600.0 -0.6309365435 -0.7696056253
18950186300.0 -0.6410529218 -0.7617012441
19000186000.0 -0.6485727721 -0.7555169307
19050185700.0 -0.6579185835 -0.7479053986
19100185400.0 -0.6680732437 -0.7390518041
19150185100.0 -0.6784569544 -0.7309701104
19200184800.0 -0.688169547 -0.7229517733
19250184500.0 -0.6980691505 -0.7132311046
19300184200.0 -0.7099109321 -0.7029299747
19350183900.0 -0.7203351244 -0.6941232531
19400183600.0 -0.7298166106 -0.6834946458
19450183300.0 -0.7393349971 -0.67445044
19500183000.0 -0.7470730297 -0.6637876915
19550182700.0 -0.7571081986 -0.6526980909
19600182400.0 -0.7672571735 -0.6412211949
19650182100.0 -0.7775498347 -0.6293456054
19700181800.0 -0.7880322544 -0.6164405762
19750181500.0 -0.7983591155 -0.6024023922
19800181200.0 -0.8084430188 -0.5877435976
19850180900.0 -0.8178864653 -0.5728001805
19900180600.0 -0.8252479813 -0.5584744002
19950180300.0 -0.8343866565 -0.5422841726
20000180000.0 -0.8275230963 -0.5444947844
20050179700.0 -0.8355151235 -0.5308079616
20100179400.0 -0.8446319709 -0.5182964059
20150179100.0 -0.8522758605 -0.5056625713
20200178800.0 -0.8602128763 -0.4932765393
20250178500.0 -0.8694733629 -0.4789012668
20300178200.0 -0.8796099268 -0.4643444644
20350177900.0 -0.8882874998 -0.4502968756
20400177600.0 -0.8970414238 -0.4356535979
20450177300.0 -0.9051263586 -0.4210194809
20500177000.0 -0.9129216913 -0.4072832132
20550176700.0 -0.9207790508 -0.3935806768
20600176400.0 -0.9277068108 -0.380298884
20650176100.0 -0.9345238106 -0.3673058534
20700175800.0 -0.9410446162 -0.3556290329
20750175500.0 -0.9478146584 -0.3437524153
20800175200.0 -0.9522390787 -0.3325942961
20850174900.0 -0.9583314389 -0.3213559526
20900174600.0 -0.9624779386 -0.3099339556
20950174300.0 -0.9668759605 -0.2979294173
21000174000.0 -0.9704265677 -0.2866831266
21050173700.0 -0.9731063896 -0.2751216531
21100173400.0 -0.9776306459 -0.2634270288
21150173100.0 -0.9811064304 -0.2503564304
21200172800.0 -0.984779225 -0.2369825857
21250172500.0 -0.9877848127 -0.2227264522
21300172200.0 -0.9906164059 -0.2084149249
21350171900.0 -0.9922857575 -0.1946488736
21400171600.0 -0.9935875275 -0.1802218655
21450171300.0 -0.9938162179 -0.1651112596
21500171000.0 -0.9931941819 -0.1503804774
21550170700.0 -0.9926499254 -0.1350662341
21600170400.0 -0.9936362609 -0.1202582495
21650170100.0 -0.9925608571 -0.1035651367
21700169800.0 -0.9900034199 -0.0886457674
21750169500.0 -0.9900561168 -0.0727350022
21800169200.0 -0.9887869659 -0.0565077655
21850168900.0 -0.9866851697 -0.0397666747
21900168600.0 -0.9855835537 -0.0242715749
21950168300.0 -0.9840788407 -0.0084588492
22000168000.0 -0.982908143 0.0061635394
22050167700.0 -0.9824891301 0.0207347879
22100167400.0 -0.9825620818 0.0353942276
22150167100.0 -0.9831211412 0.0507948184
22200166800.0 -0.9829602963 0.0674983735
22250166500.0 -0.9827848303 0.0845539606
22300166200.0 -0.9824927667 0.1004138194
22350165900.0 -0.9801401168 0.1164898566
22400165600.0 -0.9787383239 0.1324398222
22450165300.0 -0.9766873393 0.1475194044
22500165000.0 -0.9754802428 0.16137916
22550164700.0 -0.9743290146 0.1762264124
22600164400.0 -0.9730374829 0.1922676033
22650164100.0 -0.9706131242 0.2065973349
22700163800.0 -0.9678362033 0.2229202048
22750163500.0 -0.9647039804 0.2378547063
22800163200.0 -0.9619765538 0.2518723724
22850162900.0 -0.9595911084 0.2647438836
22900162600.0 -0.9584489603 0.2784000176
22950162300.0 -0.9572866574 0.2912272011
23000162000.0 -0.9558614301 0.3030435712
23050161700.0 -0.9542553117 0.3151940967
23100161400.0 -0.9516846371 0.32825239
23150161100.0 -0.9488268991 0.3408098266
23200160800.0 -0.9454648963 0.3532748684
23250160500.0 -0.943344099 0.3646047039
23300160200.0 -0.9406052062 0.3773637622
23350159900.0 -0.9366907343 0.3893583897
23400159600.0 -0.9317351665 0.4025091187
23450159300.0 -0.9276357684 0.4157933935
23500159000.0 -0.9228113315 0.4285632627
23550158700.0 -0.917950695 0.441616223
23600158400.0 -0.9130491461 0.4547093795
23650158100.0 -0.9062726534 0.4683980236
23700157800.0 -0.8989792142 0.4820154733
23750157500.0 -0.8904398035 0.4960130139
23800157200.0 -0.8813595888 0.5089261358
23850156900.0 -0.872688436 0.5216490567
23900156600.0 -0.8634931637 0.5337412676
23950156300.0 -0.8539806312 0.545886033
24000156000.0 -0.8453044657 0.5584028759
24050155700.0 -0.834778245 0.5707304379
24100155400.0 -0.8248846208 0.582145981
24150155100.0 -0.8147462416 0.5937546581
24200154800.0 -0.8036149431 0.6052259242
24250154500.0 -0.7919600722 0.6170133529
24300154200.0 -0.7809129464 0.6283889181
24350153900.0 -0.7689692956 0.6393195395
24400153600.0 -0.756874937 0.6497895865
24450153300.0 -0.744819363 0.6595210553
24500153000.0 -0.7333391748 0.6694761986
24550152700.0 -0.7218114131 0.6797555566
24600152400.0 -0.7107565274 0.6889121784
