!Created with skrf (http://scikit-rf.org).
# Hz S RI R 50.0 
!freq ReS11 ImS11
300000.0 -0.9845110255 -0.0872223688
50299700.0 -0.9999669959 0.0163887201
100299400.0 -0.9981387451 0.0292969803
150299100.0 -1.002820482 0.046182591
200298800.0 -0.9997282813 0.0595413476
250298500.0 -0.9972523241 0.0730671783
300298200.0 -0.9860084402 0.088708219
350297900.0 -0.9939827594 0.0997357894
400297600.0 -0.9929830574 0.1162693897
450297300.0 -0.9908494036 0.130016873
500297000.0 -0.9892490075 0.1447954692
550296700.0 -0.9840503483 0.1572188308
600296400.0 -1.016924743 0.1906314566
650296100.0 -0.9819083172 0.1872800014
700295800.0 -0.9790321869 0.2016714511
750295500.0 -0.9757879231 0.2155584353
800295200.0 -0.9723903973 0.2297110642
850294900.0 -0.9690457747 0.2434194399
900294600.0 -0.9652070581 0.2572368633
950294300.0 -0.9614198476 0.271009866
1000294000.0 -0.9575487094 0.2850579469
1050293700.0 -0.9530544819 0.2987835687
1100293400.0 -0.9486693089 0.3128977401
1150293100.0 -0.9448923876 0.3249912574
1200292800.0 -0.9396438533 0.339176386
1250292500.0 -0.9341691376 0.3528255323
1300292200.0 -0.9284636227 0.3658176724
1350291900.0 -0.9229512266 0.379855354
1400291600.0 -0.9173745919 0.3929693991
1450291300.0 -0.9118129836 0.4053570135
1500291000.0 -0.9056034955 0.4186872792
1550290700.0 -0.899197284 0.4318292933
1600290400.0 -0.8931312448 0.4449058147
1650290100.0 -0.8861994521 0.4570223022
1700289800.0 -0.8795680492 0.4701722526
1750289500.0 -0.872399087 0.4825907675
1800289200.0 -0.8649331711 0.4954226155
1850288900.0 -0.8585225332 0.5067654113
1900288600.0 -0.8505950294 0.5196360059
1950288300.0 -0.8424698953 0.5325832696
2000288000.0 -0.8350591104 0.5437871776
2050287700.0 -0.8267314851 0.5560542442
2100287400.0 -0.8188140074 0.5679638347
2150287100.0 -0.8099831542 0.5801667797
2200286800.0 -0.8023339391 0.5900555491
2250286500.0 -0.7932865274 0.6024491938
2300286200.0 -0.784415891 0.6140396658
2350285900.0 -0.7757262383 0.6249659673
2400285600.0 -0.7665429274 0.6360194722
2450285300.0 -0.7579117762 0.6464131575
2500285000.0 -0.7481994159 0.6577172903
2550284700.0 -0.7389224885 0.6680983287
2600284400.0 -0.7295997078 0.6781031734
2650284100.0 -0.7206596984 0.6888241528
2700283800.0 -0.7101383473 0.6992153347
2750283500.0 -0.6999668651 0.7097068391
2800283200.0 -0.6898925951 0.7196554914
2850282900.0 -0.6798319626 0.7292255512
2900282600.0 -0.6695418906 0.7387766476
2950282300.0 -0.6594552058 0.7479828701
3000282000.0 -0.6485774718 0.7572345465
3050281700.0 -0.6373923691 0.7665916659
3100281400.0 -0.6257697739 0.7758715527
3150281100.0 -0.6140423747 0.7852744869
3200280800.0 -0.6024202719 0.7938660654
3250280500.0 -0.5916149205 0.8014745525
3300280200.0 -0.5805335714 0.8092823177
3350279900.0 -0.5692015124 0.8169667014
3400279600.0 -0.5569859762 0.8246427492
3450279300.0 -0.5458443369 0.8316762323
3500279000.0 -0.534017077 0.8390300217
3550278700.0 -0.5213831976 0.8461142764
3600278400.0 -0.5093297109 0.853432205
3650278100.0 -0.4961159833 0.8611751233
3700277800.0 -0.4838851203 0.8672392067
3750277500.0 -0.4715386383 0.8739781239
3800277200.0 -0.4590542239 0.8805336814
3850276900.0 -0.4469850315 0.8865130472
3900276600.0 -0.435747276 0.8920775318
3950276300.0 -0.4233926274 0.8983118717
4000276000.0 -0.4112790475 0.9042794586
4050275700.0 -0.398171868 0.9104040408
4100275400.0 -0.3868027913 0.916000039
4150275100.0 -0.3740009108 0.9212827805
4200274800.0 -0.3608425068 0.9265699682
4250274500.0 -0.3485568714 0.9319104095
4300274200.0 -0.3355152503 0.9372608664
4350273900.0 -0.3218014416 0.9422174763
4400273600.0 -0.3069449256 0.9474025258
4450273300.0 -0.291773752 0.9523642852
4500273000.0 -0.2782888977 0.9568448771
4550272700.0 -0.264234703 0.9609698246
4600272400.0 -0.2487722287 0.9651514152
4650272100.0 -0.2369210695 0.9685209719
4700271800.0 -0.2233970262 0.9716078857
4750271500.0 -0.21164629 0.9745587481
4800271200.0 -0.19915944 0.9772308684
4850270900.0 -0.1850877723 0.9800798827
4900270600.0 -0.1714391641 0.982424634
4950270300.0 -0.157429659 0.9849321356
5000270000.0 -0.1432157666 0.9872894478
5050269700.0 -0.1298533804 0.9887221667
5100269400.0 -0.1160253511 0.9905206268
5150269100.0 -0.1031143083 0.9919790797
5200268800.0 -0.0896450535 0.9929329961
5250268500.0 -0.0765280373 0.9939781514
5300268200.0 -0.0635774571 0.9948169645
5350267900.0 -0.0513828191 0.9956310423
5400267600.0 -0.0353020327 0.9964750962
5450267300.0 -0.022347268 0.9966920862
5500267000.0 -0.0072180858 0.9970284541
5550266700.0 0.0073559786 0.9972143917
5600266400.0 0.0228340259 0.9972456667
5650266100.0 0.039170958 0.9968204217
5700265800.0 0.0536726202 0.9960760019
5750265500.0 0.0691528982 0.9952515108
5800265200.0 0.083009371 0.9941013319
5850264900.0 0.0962940263 0.9932839817
5900264600.0 0.1128409976 0.9915643911
5950264300.0 0.1250406197 0.9897648637
6000264000.0 0.1391179194 0.9878537956
6050263700.0 0.1517793685 0.9861294459
6100263400.0 0.164265939 0.9844869702
6150263100.0 0.1787811521 0.9815782766
6200262800.0 0.1898050019 0.9800634227
6250262500.0 0.2025006105 0.9777525174
6300262200.0 0.2153582597 0.974743507
6350261900.0 0.22841416 0.9719235396
6400261600.0 0.2423813985 0.9684542213
6450261300.0 0.2538843297 0.965755337
6500261000.0 0.2667584942 0.9623733102
6550260700.0 0.2793911618 0.9581007708
6600260400.0 0.2927584701 0.9543006815
6650260100.0 0.306593331 0.9497686628
6700259800.0 0.3188333567 0.945787867
6750259500.0 0.3326680078 0.9411467972
6800259200.0 0.3456576946 0.9362617493
6850258900.0 0.3575436344 0.9309879862
6900258600.0 0.3696470295 0.926008343
6950258300.0 0.3820459319 0.9207670945
7000258000.0 0.3940462318 0.9155912982
7050257700.0 0.4062172194 0.9093114975
7100257400.0 0.4191344652 0.9031611938
7150257100.0 0.4295107043 0.8979104708
7200256800.0 0.4420058557 0.8913841236
7250256500.0 0.4538724607 0.8852123167
7300256200.0 0.4666111505 0.8784809777
7350255900.0 0.4793234992 0.871875429
7400255600.0 0.4920803667 0.864687894
7450255300.0 0.5069195941 0.8559777954
7500255000.0 0.5188693478 0.848937331
7550254700.0 0.5324497779 0.8404465682
7600254400.0 0.5446629437 0.8320379399
7650254100.0 0.5565829303 0.8243941608
7700253800.0 0.5682827019 0.8161949216
7750253500.0 0.5795583202 0.8081856381
7800253200.0 0.5904628309 0.8004540095
7850252900.0 0.6001894268 0.7931974445
7900252600.0 0.6119912597 0.7843006248
7950252300.0 0.6209649755 0.7776420108
8000252000.0 0.6311090786 0.7698119845
8050251700.0 0.6416561754 0.76149218
8100251400.0 0.6521487445 0.7529924164
8150251100.0 0.6621016682 0.7444009876
8200250800.0 0.6717434327 0.7362079024
8250250500.0 0.6806115155 0.7281797412
8300250200.0 0.6898301949 0.7194659528
8350249900.0 0.6991026898 0.7108019662
8400249600.0 0.7073264007 0.7025742957
8450249300.0 0.7163338003 0.6934267689
8500249000.0 0.7254837534 0.6843891261
8550248700.0 0.7335696216 0.6753507798
8600248400.0 0.7421546971 0.6658582556
8650248100.0 0.7499209063 0.6564143795
8700247800.0 0.7593069488 0.6454824695
8750247500.0 0.7673996962 0.6355295558
8800247200.0 0.7754282904 0.6253617098
8850246900.0 0.7843510955 0.6140328474
8900246600.0 0.7926234196 0.6028358305
8950246300.0 0.8021517937 0.5901207659
9000246000.0 0.8113976312 0.5776929052
9050245700.0 0.8201456176 0.5648850375
9100245400.0 0.8286857864 0.5525397414
9150245100.0 0.8377120478 0.5391432581
9200244800.0 0.8473979723 0.5245406874
9250244500.0 0.8567144585 0.5089404024
9300244200.0 0.864795718 0.4946799601
9350243900.0 0.8727827915 0.4806013175
9400243600.0 0.8795632262 0.4679782376
9450243300.0 0.885585759 0.455905196
9500243000.0 0.8920208764 0.4430864163
9550242700.0 0.8960510998 0.4347254836
9600242400.0 0.8999831232 0.4266821308
9650242100.0 0.9037586101 0.4197501074
9700241800.0 0.9086552821 0.4112116476
9750241500.0 0.9127641338 0.4031227535
9800241200.0 0.9170027294 0.3937623258
9850240900.0 0.9228643775 0.3818439662
9900240600.0 0.9276226615 0.370728008
9950240300.0 0.9343048117 0.3548929333
10000240000.0 0.9387084707 0.3431791153
10050239700.0 0.9445145124 0.32833275
10100239400.0 0.9494784164 0.3128444113
10150239100.0 0.9540617273 0.2983487156
10200238800.0 0.9584343128 0.2834272304
10250238500.0 0.9617855206 0.2700496013
10300238200.0 0.9649479233 0.2561011997
10350237900.0 0.9675250037 0.2431005309
10400237600.0 0.9700107178 0.2302763051
10450237300.0 0.9729014572 0.2165709674
10500237000.0 0.9744854354 0.2049565071
10550236700.0 0.9775803392 0.1906535681
10600236400.0 0.9795954902 0.1774920104
10650236100.0 0.981735799 0.1627631006
10700235800.0 0.9840540574 0.1504558819
10750235500.0 0.9859461838 0.1376161691
10800235200.0 0.9881444049 0.1234310024
10850234900.0 0.9896819979 0.1091062394
10900234600.0 0.991696721 0.0948254109
10950234300.0 0.9933284897 0.0816091039
11000234000.0 0.9951810011 0.0667663944
11050233700.0 0.9967684145 0.0509588589
11100233400.0 0.9982438396 0.033687183
11150233100.0 0.9988793537 0.0175547536
11200232800.0 1.000051924 0.0026796155
11250232500.0 1.000725928 -0.014158423
11300232200.0 1.000961861 -0.0316235125
11350231900.0 1.000841381 -0.0465213663
11400231600.0 1.000828889 -0.0631147532
11450231300.0 0.9993863435 -0.0783588556
11500231000.0 0.9987885385 -0.0953761151
11550230700.0 0.9974576935 -0.1082752134
11600230400.0 0.9960846994 -0.1224592661
11650230100.0 0.9942341567 -0.1340142735
11700229800.0 0.9915868931 -0.1486375842
11750229500.0 0.9893552735 -0.1629613102
11800229200.0 0.9868502164 -0.1772249977
11850228900.0 0.9834191711 -0.1898132687
11900228600.0 0.980015581 -0.2001337132
11950228300.0 0.9768582711 -0.2110506787
12000228000.0 0.9738504779 -0.2203034967
12050227700.0 0.9703624115 -0.232502768
12100227400.0 0.967590111 -0.2434101732
12150227100.0 0.9630815577 -0.2600842701
12200226800.0 0.9588274523 -0.270967852
12250226500.0 0.9545814536 -0.2842708427
12300226200.0 0.9507624924 -0.2961822099
12350225900.0 0.9462880974 -0.309837478
12400225600.0 0.9418377402 -0.3219915595
12450225300.0 0.9375056233 -0.3348936107
12500225000.0 0.9318845615 -0.3497635429
12550224700.0 0.9267780528 -0.3629002046
12600224400.0 0.9222764389 -0.3754288447
12650224100.0 0.9163687025 -0.3896495017
12700223800.0 0.9111248344 -0.4022799984
12750223500.0 0.9057265059 -0.4149248644
12800223200.0 0.9004759891 -0.4275087205
12850222900.0 0.8952229966 -0.4393513846
12900222600.0 0.8893435925 -0.4517052449
12950222300.0 0.8830745642 -0.4648509734
13000222000.0 0.8767364772 -0.4765288869
13050221700.0 0.8700774867 -0.4889181944
13100221400.0 0.8630729822 -0.5015922435
13150221100.0 0.8562515773 -0.5134242742
13200220800.0 0.8488330438 -0.5251577316
13250220500.0 0.8416053517 -0.5373674179
13300220200.0 0.8339363767 -0.5486055427
13350219900.0 0.8256272316 -0.5608596764
13400219600.0 0.8170332192 -0.573180829
13450219300.0 0.8079289384 -0.586470896
13500219000.0 0.7973066961 -0.6005181798
13550218700.0 0.7869062156 -0.6136384365
13600218400.0 0.7775379057 -0.625905358
13650218100.0 0.7671781337 -0.6363053634
13700217800.0 0.7558421345 -0.6494297542
13750217500.0 0.7459247807 -0.660212687
13800217200.0 0.7350459864 -0.6721751253
13850216900.0 0.7244194195 -0.6838004105
13900216600.0 0.7145073813 -0.6928091903
13950216300.0 0.7034317167 -0.7030782077
14000216000.0 0.6940969241 -0.7118523007
14050215700.0 0.6844584276 -0.7203799679
14100215400.0 0.6747440482 -0.7294815743
14150215100.0 0.6654353882 -0.7380501241
14200214800.0 0.6561649397 -0.7465192338
14250214500.0 0.6461036168 -0.7555756686
14300214200.0 0.6359178446 -0.7648375662
14350213900.0 0.6249598353 -0.7742194634
14400213600.0 0.613367368 -0.783694268
14450213300.0 0.6004964048 -0.7932579379
14500213000.0 0.5873744941 -0.8032947255
14550212700.0 0.5755584233 -0.8128415038
14600212400.0 0.5629421871 -0.821540332
14650212100.0 0.550193319 -0.8298238119
14700211800.0 0.5360120624 -0.8395768323
14750211500.0 0.5234570756 -0.8474467495
14800211200.0 0.5117205144 -0.8553922801
14850210900.0 0.4991118817 -0.863109626
14900210600.0 0.485747002 -0.8709988083
14950210300.0 0.4723862261 -0.8786643835
15000210000.0 0.459359489 -0.885584666
15050209700.0 0.4469462125 -0.8918548487
15100209400.0 0.4333923746 -0.8982198379
15150209100.0 0.4210492265 -0.9036219092
15200208800.0 0.4077813566 -0.9088935058
15250208500.0 0.3961922528 -0.9138707801
15300208200.0 0.3843563519 -0.9190616018
15350207900.0 0.3704539398 -0.9232829973
15400207600.0 0.3554386299 -0.9287936479
15450207300.0 0.341448993 -0.9333089521
15500207000.0 0.3257108761 -0.9385003072
15550206700.0 0.3109238924 -0.9431322146
15600206400.0 0.2959171851 -0.9481733872
15650206100.0 0.2801114257 -0.9525959665
15700205800.0 0.2663942663 -0.9563875092
15750205500.0 0.2517641647 -0.9596900981
15800205200.0 0.2377005565 -0.9632103149
15850204900.0 0.2235669011 -0.9664051588
15900204600.0 0.2086624145 -0.9699378371
15950204300.0 0.1947007537 -0.9728429491
16000204000.0 0.1808186788 -0.9756867457
16050203700.0 0.1660913932 -0.9782247324
16100203400.0 0.1523948049 -0.9805874144
16150203100.0 0.1376081264 -0.9828322229
16200202800.0 0.1239760666 -0.9847270514
16250202500.0 0.1093288862 -0.986176182
16300202200.0 0.0947358041 -0.9877324787
16350201900.0 0.0796054813 -0.9892456819
16400201600.0 0.0648672589 -0.9905296158
16450201300.0 0.0499198383 -0.9913570785
16500201000.0 0.0336462648 -0.9921747346
16550200700.0 0.0178113629 -0.9926175492
16600200400.0 0.0021717108 -0.9929549771
16650200100.0 -0.0144531241 -0.9926378209
16700199800.0 -0.0310436395 -0.9925016648
16750199500.0 -0.0495168296 -0.991556178
16800199200.0 -0.0657736583 -0.990692189
16850198900.0 -0.0810504379 -0.989491212
16900198600.0 -0.0956240099 -0.988152974
16950198300.0 -0.1092263723 -0.9874559053
17000198000.0 -0.1219836097 -0.9856320377
17050197700.0 -0.1353905209 -0.9836421215
17100197400.0 -0.1480928201 -0.9811897612
17150197100.0 -0.1613676558 -0.9796329064
17200196800.0 -0.1740411906 -0.977959338
17250196500.0 -0.1871229421 -0.9751254968
17300196200.0 -0.19963517 -0.9728357218
17350195900.0 -0.2115403461 -0.9703838613
17400195600.0 -0.2239084441 -0.9679885154
17450195300.0 -0.2371550061 -0.9651515656
17500195000.0 -0.2505270283 -0.9617461859
17550194700.0 -0.2640378064 -0.9581105773
17600194400.0 -0.2779722695 -0.9540262915
17650194100.0 -0.2920366028 -0.9498464319
17700193800.0 -0.3050357777 -0.9459992148
17750193500.0 -0.3190629401 -0.9413071885
17800193200.0 -0.3332832456 -0.9358812602
17850192900.0 -0.3478359958 -0.9310184823
17900192600.0 -0.3628236239 -0.9249817342
17950192300.0 -0.378028883 -0.9178488622
18000192000.0 -0.3925199031 -0.9109338935
18050191700.0 -0.4062881759 -0.9031403922
18100191400.0 -0.4205097152 -0.8955267
18150191100.0 -0.4350337949 -0.8877258891
18200190800.0 -0.4517280644 -0.8786540053
18250190500.0 -0.4684112546 -0.8696272401
18300190200.0 -0.4838757883 -0.8606771274
18350189900.0 -0.498918367 -0.8524573865
18400189600.0 -0.5131056502 -0.8440234464
18450189300.0 -0.5263924686 -0.8360816242
18500189000.0 -0.5398366224 -0.8278590454
18550188700.0 -0.5527497542 -0.8200318284
18600188400.0 -0.564819563 -0.8132760161
18650188100.0 -0.5759659976 -0.8059434729
18700187800.0 -0.5870715855 -0.7993107028
18750187500.0 -0.598238452 -0.7919418781
18800187200.0 -0.609022592 -0.7849624542
18850186900.0 -0.6194301458 -0.7775881801
18900186600.0 -0.6299199341 -0.7699155314
18950186300.0 -0.6403182982 -0.7617770523
19000186000.0 -0.6481713985 -0.7550011799
19050185700.0 -0.6576294592 -0.7477241392
19100185400.0 -0.6677005942 -0.7387270563
19150185100.0 -0.6780125163 -0.7299654999
19200184800.0 -0.6874896425 -0.7225310174
19250184500.0 -0.6974553511 -0.7129102144
19300184200.0 -0.7088794751 -0.7025774209
19350183900.0 -0.7200607132 -0.6927474207
19400183600.0 -0.7291715114 -0.6834839253
19450183300.0 -0.7380473272 -0.6732988886
19500183000.0 -0.7459376427 -0.6630078142
19550182700.0 -0.7558175233 -0.6522889669
19600182400.0 -0.7660480248 -0.6409103573
19650182100.0 -0.7762670118 -0.6290668167
19700181800.0 -0.7866783761 -0.6161786264
19750181500.0 -0.7968904509 -0.6024724248
19800181200.0 -0.8069305175 -0.5881684531
19850180900.0 -0.8164277088 -0.5733025083
19900180600.0 -0.82401505 -0.5595790564
19950180300.0 -0.833123414 -0.5432460647
20000180000.0 -0.8283843524 -0.5445474661
20050179700.0 -0.8358365208 -0.5310007353
20100179400.0 -0.8446278249 -0.5174453915
20150179100.0 -0.8520385795 -0.5055912084
20200178800.0 -0.8613389422 -0.4924577065
20250178500.0 -0.8702814565 -0.478939576
20300178200.0 -0.8793415799 -0.465101019
20350177900.0 -0.8875831742 -0.4500750028
20400177600.0 -0.8960226418 -0.4364089163
20450177300.0 -0.9041092898 -0.4217753991
20500177000.0 -0.9120230835 -0.4078475019
20550176700.0 -0.9198227303 -0.3942890092
20600176400.0 -0.9266982168 -0.3805960792
20650176100.0 -0.9333240156 -0.3682506054
20700175800.0 -0.9395173862 -0.356535433
20750175500.0 -0.9468016774 -0.3438801554
20800175200.0 -0.9513925771 -0.3330230071
20850174900.0 -0.9556689864 -0.3218165511
20900174600.0 -0.9611915811 -0.3093070137
20950174300.0 -0.9658909435 -0.2974833351
21000174000.0 -0.9694292035 -0.2853420957
21050173700.0 -0.9711398418 -0.2743703734
21100173400.0 -0.9763275346 -0.2612599699
21150173100.0 -0.9803051839 -0.2490832999
21200172800.0 -0.9836413301 -0.2356014359
21250172500.0 -0.9869406183 -0.2217267017
21300172200.0 -0.9898170181 -0.2070736421
21350171900.0 -0.9911912522 -0.1929111123
21400171600.0 -0.9928253456 -0.1791475139
21450171300.0 -0.9932479469 -0.1638059961
21500171000.0 -0.9930203479 -0.1488730381
21550170700.0 -0.9929768107 -0.1338203164
21600170400.0 -0.9929130489 -0.1190369151
21650170100.0 -0.9922670671 -0.1029940763
21700169800.0 -0.9913599035 -0.0876196492
21750169500.0 -0.9890583561 -0.0719172122
21800169200.0 -0.9891243205 -0.0576780338
21850168900.0 -0.9879380234 -0.0405184856
21900168600.0 -0.9857675077 -0.0240723896
21950168300.0 -0.9849290337 -0.0093077142
22000168000.0 -0.9836813076 0.0059103644
22050167700.0 -0.9832084409 0.0206062436
22100167400.0 -0.9829683079 0.0351386821
22150167100.0 -0.9833784598 0.0504769494
22200166800.0 -0.9836752452 0.0664766893
22250166500.0 -0.9826055325 0.0831564324
22300166200.0 -0.9827880045 0.0990154511
22350165900.0 -0.9809982572 0.1155949505
22400165600.0 -0.9787060018 0.1319109875
22450165300.0 -0.9771683138 0.1462775274
22500165000.0 -0.9747963803 0.1603148752
22550164700.0 -0.9728813273 0.1746820224
22600164400.0 -0.9715088839 0.1906467372
22650164100.0 -0.9698128212 0.2054551592
22700163800.0 -0.9670479936 0.2216792567
22750163500.0 -0.9642587478 0.2364253475
22800163200.0 -0.9620479094 0.2501138847
22850162900.0 -0.9596427466 0.2635828394
22900162600.0 -0.9578025749 0.2769318597
22950162300.0 -0.956478857 0.2899883666
23000162000.0 -0.955297126 0.301894027
23050161700.0 -0.9531977174 0.314056785
23100161400.0 -0.9507801016 0.3268423094
23150161100.0 -0.9482529648 0.3394144929
23200160800.0 -0.9441447903 0.3519687547
23250160500.0 -0.9425697939 0.3636371212
23300160200.0 -0.9399272408 0.3750050311
23350159900.0 -0.9359729286 0.3886928378
23400159600.0 -0.9314670461 0.4009550977
23450159300.0 -0.9269298407 0.4139139397
23500159000.0 -0.9216460165 0.4267602571
23550158700.0 -0.9175892099 0.4401566969
23600158400.0 -0.9123404812 0.4527292516
23650158100.0 -0.9057617074 0.4662347792
23700157800.0 -0.8984371184 0.4798700096
23750157500.0 -0.8902706125 0.4935186838
23800157200.0 -0.8813840361 0.5068148837
23850156900.0 -0.8726419624 0.5194450682
23900156600.0 -0.8638357922 0.5316783794
23950156300.0 -0.8546725971 0.5437599829
24000156000.0 -0.8465021732 0.5554851242
24050155700.0 -0.835373628 0.5677321868
24100155400.0 -0.8263055693 0.5794102176
24150155100.0 -0.8151922918 0.5912125642
24200154800.0 -0.8048854053 0.6018873446
24250154500.0 -0.7934223985 0.6145082544
24300154200.0 -0.7819592338 0.6257943134
24350153900.0 -0.7706565812 0.6365718707
24400153600.0 -0.7582821693 0.6471229361
24450153300.0 -0.7467600426 0.6572232158
24500153000.0 -0.7354713002 0.6669506116
24550152700.0 -0.7240886776 0.6773549833
24600152400.0 -0.7127892143 0.6859240169
