!Created with skrf (http://scikit-rf.org).
# Hz S RI R 50.0 
!freq ReS11 ImS11
300000.0 -0.9734092813 -0.1209148215
50299700.0 -0.9999134987 0.0150462071
100299400.0 -0.9979183521 0.0279741488
150299100.0 -1.002755444 0.0450471831
200298800.0 -0.9997461712 0.0582281781
250298500.0 -0.9973585592 0.0717148274
300298200.0 -0.9858143634 0.0873978289
350297900.0 -0.9940214766 0.098340795
400297600.0 -0.9929935427 0.1150057638
450297300.0 -0.9910940653 0.1287548047
500297000.0 -0.9894485744 0.1434170528
550296700.0 -0.9844011595 0.1558415373
600296400.0 -1.017401061 0.1892065686
650296100.0 -0.9819887122 0.1860101359
700295800.0 -0.9793788423 0.2001352817
750295500.0 -0.9763026111 0.2141234244
800295200.0 -0.9728683557 0.2282745218
850294900.0 -0.9696162757 0.2420336573
900294600.0 -0.965756051 0.255749587
950294300.0 -0.9621949505 0.2694826551
1000294000.0 -0.9579040384 0.2833834136
1050293700.0 -0.9536809618 0.2971537267
1100293400.0 -0.9490716404 0.3116630839
1150293100.0 -0.9455534299 0.3234132745
1200292800.0 -0.940179005 0.3379826953
1250292500.0 -0.9346096443 0.3513900181
1300292200.0 -0.9288219575 0.3644466782
1350291900.0 -0.9235010367 0.3786396704
1400291600.0 -0.9178851314 0.3916716362
1450291300.0 -0.9125520761 0.4040800689
1500291000.0 -0.9063146909 0.4174119292
1550290700.0 -0.8994794196 0.4307308896
1600290400.0 -0.8933862811 0.4436311547
1650290100.0 -0.8868046738 0.4558743541
1700289800.0 -0.8799808771 0.4692414385
1750289500.0 -0.8727799143 0.4817742029
1800289200.0 -0.8655225042 0.4945730495
1850288900.0 -0.8586517964 0.5060267115
1900288600.0 -0.8510106204 0.5188773921
1950288300.0 -0.842667683 0.5314040382
2000288000.0 -0.8353160342 0.5428118039
2050287700.0 -0.8271943305 0.5555269342
2100287400.0 -0.8192112449 0.5668550949
2150287100.0 -0.8107743495 0.5788308815
2200286800.0 -0.8029965479 0.5890824081
2250286500.0 -0.7941598597 0.6014929901
2300286200.0 -0.7850813833 0.6128690148
2350285900.0 -0.7765724456 0.6235480273
2400285600.0 -0.7678525124 0.6344748309
2450285300.0 -0.7589817645 0.6450766629
2500285000.0 -0.749007748 0.6568880116
2550284700.0 -0.7401515358 0.6668772609
2600284400.0 -0.7309062981 0.6770901646
2650284100.0 -0.7221404471 0.6873163275
2700283800.0 -0.711692022 0.6977218993
2750283500.0 -0.7013572324 0.7084095397
2800283200.0 -0.6913972241 0.7181652331
2850282900.0 -0.6811398425 0.7281312645
2900282600.0 -0.6708764195 0.7379059205
2950282300.0 -0.6603205994 0.7473767078
3000282000.0 -0.6493695913 0.7566193205
3050281700.0 -0.6385026453 0.7659318636
3100281400.0 -0.6268253413 0.7750518781
3150281100.0 -0.6154126757 0.7840263344
3200280800.0 -0.6037132738 0.7924912014
3250280500.0 -0.5929572717 0.8005026046
3300280200.0 -0.5813406223 0.8086304466
3350279900.0 -0.5692103384 0.8162602599
3400279600.0 -0.556999374 0.8244388304
3450279300.0 -0.5457672605 0.8314751987
3500279000.0 -0.533797841 0.8381442653
3550278700.0 -0.5215911184 0.8455239506
3600278400.0 -0.5098117499 0.8524385423
3650278100.0 -0.4966034612 0.8598634558
3700277800.0 -0.4844301516 0.8665123239
3750277500.0 -0.4721996998 0.8732599221
3800277200.0 -0.4598159395 0.879740497
3850276900.0 -0.447555272 0.8855359858
3900276600.0 -0.4369563671 0.8911828502
3950276300.0 -0.4245577728 0.8971800329
4000276000.0 -0.4128715233 0.9031565013
4050275700.0 -0.399864632 0.9091859139
4100275400.0 -0.3888858481 0.9146740926
4150275100.0 -0.3759205752 0.9205526857
4200274800.0 -0.3625332362 0.9260751096
4250274500.0 -0.3501921661 0.931304966
4300274200.0 -0.3369852313 0.9367686165
4350273900.0 -0.3226721556 0.9421458515
4400273600.0 -0.3081345643 0.94709366
4450273300.0 -0.2930843818 0.9521562845
4500273000.0 -0.2796852005 0.9564340025
4550272700.0 -0.2660099435 0.960383534
4600272400.0 -0.2506585657 0.9646225376
4650272100.0 -0.2393082276 0.9678924975
4700271800.0 -0.2261099057 0.9711897958
4750271500.0 -0.2145519163 0.9741827318
4800271200.0 -0.2022344541 0.9768048537
4850270900.0 -0.1884368065 0.9795600372
4900270600.0 -0.1745235224 0.9820234761
4950270300.0 -0.1601308893 0.9847276727
5000270000.0 -0.1457286591 0.9866006443
5050269700.0 -0.132200926 0.9882752864
5100269400.0 -0.1181121723 0.9901810418
5150269100.0 -0.1046707277 0.9919102227
5200268800.0 -0.0910681278 0.9927854886
5250268500.0 -0.078087023 0.9937042036
5300268200.0 -0.0646361646 0.9943991205
5350267900.0 -0.0521223009 0.9950440367
5400267600.0 -0.0356568873 0.9960738487
5450267300.0 -0.0223930742 0.9964717178
5500267000.0 -0.0073250569 0.9969742417
5550266700.0 0.0073850502 0.9970641179
5600266400.0 0.0235252369 0.9971405365
5650266100.0 0.0399377628 0.9968557905
5700265800.0 0.0543484435 0.9957984729
5750265500.0 0.0691714182 0.9950857876
5800265200.0 0.0830461561 0.994328031
5850264900.0 0.0961882891 0.9931431546
5900264600.0 0.1127160447 0.9914448091
5950264300.0 0.1243902619 0.9895446627
6000264000.0 0.1383204634 0.9878527775
6050263700.0 0.1499450172 0.9865537085
6100263400.0 0.162394984 0.9849897176
6150263100.0 0.1770222409 0.9827297272
6200262800.0 0.1869508397 0.9809401683
6250262500.0 0.1995414176 0.9785412746
6300262200.0 0.2119848548 0.9760615868
6350261900.0 0.2248192295 0.9731835366
6400261600.0 0.2387543507 0.9699347821
6450261300.0 0.2499439255 0.9672302579
6500261000.0 0.2629523034 0.9636277015
6550260700.0 0.2759933527 0.9598014716
6600260400.0 0.2895200028 0.9555780588
6650260100.0 0.3036379239 0.9514207702
6700259800.0 0.3158175411 0.9469451594
6750259500.0 0.3291008118 0.9418226028
6800259200.0 0.3431270268 0.9373232593
6850258900.0 0.3552194022 0.9317985695
6900258600.0 0.3674597875 0.926650053
6950258300.0 0.3801252061 0.9213656464
7000258000.0 0.3915905487 0.9160788198
7050257700.0 0.4038407556 0.9100584782
7100257400.0 0.4168577952 0.9038057861
7150257100.0 0.4275249161 0.898469214
7200256800.0 0.4405802054 0.8921852343
7250256500.0 0.4526670215 0.8853243274
7300256200.0 0.4659866093 0.8787627745
7350255900.0 0.4787123487 0.8716594831
7400255600.0 0.4925962405 0.8641241792
7450255300.0 0.5081129775 0.8550848643
7500255000.0 0.5202306952 0.8476964516
7550254700.0 0.5338532011 0.8387613748
7600254400.0 0.5468232368 0.8306435468
7650254100.0 0.5583672769 0.8224860797
7700253800.0 0.5700120962 0.8145651854
7750253500.0 0.5812201886 0.8068884795
7800253200.0 0.5917394954 0.7991098504
7850252900.0 0.6016073915 0.7921845108
7900252600.0 0.6130467017 0.7832628487
7950252300.0 0.6217218819 0.7768076291
8000252000.0 0.6317461684 0.769128237
8050251700.0 0.6421433203 0.7609959654
8100251400.0 0.6520139646 0.7532105909
8150251100.0 0.662255224 0.7445683172
8200250800.0 0.6714596371 0.7363211203
8250250500.0 0.6803653629 0.7285681077
8300250200.0 0.6894071394 0.7202526745
8350249900.0 0.6988418354 0.7114680868
8400249600.0 0.706939217 0.7034564533
8450249300.0 0.7155776778 0.6944793679
8500249000.0 0.724286513 0.6854896741
8550248700.0 0.7327478975 0.676788888
8600248400.0 0.740965647 0.6670645089
8650248100.0 0.7486207404 0.6577249003
8700247800.0 0.7580423899 0.646723259
8750247500.0 0.7663120271 0.6364402335
8800247200.0 0.7745086195 0.6259040473
8850246900.0 0.7832202136 0.6144834504
8900246600.0 0.791216611 0.6032156344
8950246300.0 0.8006835586 0.5905448871
9000246000.0 0.8098037509 0.5782887248
9050245700.0 0.8182566259 0.5657000971
9100245400.0 0.8267015627 0.5535750775
9150245100.0 0.8357896638 0.5403082908
9200244800.0 0.845207197 0.5257351784
9250244500.0 0.8545359623 0.5107554587
9300244200.0 0.8625851747 0.4969662174
9350243900.0 0.8703119724 0.483517202
9400243600.0 0.8769072578 0.4715221169
9450243300.0 0.8825314494 0.4607219786
9500243000.0 0.8888715217 0.4489323458
9550242700.0 0.8927947127 0.4413050914
9600242400.0 0.8970781125 0.4338032595
9650242100.0 0.9012439577 0.4268755382
9700241800.0 0.905701085 0.4185823338
9750241500.0 0.9099899933 0.4109233094
9800241200.0 0.9148870684 0.4013809187
9850240900.0 0.9208058823 0.3897166836
9900240600.0 0.9266942256 0.3780334083
9950240300.0 0.9333913662 0.3614980131
10000240000.0 0.938149436 0.3496332389
10050239700.0 0.9439144175 0.3342558241
10100239400.0 0.9494425223 0.3176233414
10150239100.0 0.9540841811 0.3024154617
10200238800.0 0.9583302872 0.2871898497
10250238500.0 0.9614350655 0.273856974
10300238200.0 0.9646560644 0.2598046755
10350237900.0 0.9672478496 0.2464821819
10400237600.0 0.9698949346 0.2329967473
10450237300.0 0.9726038309 0.2196157755
10500237000.0 0.9746224421 0.2075115074
10550236700.0 0.9770164475 0.1925801159
10600236400.0 0.9794199628 0.1788839161
10650236100.0 0.9813039314 0.1643543534
10700235800.0 0.9836781715 0.1518600519
10750235500.0 0.985884876 0.1387735894
10800235200.0 0.9878598528 0.1242210573
10850234900.0 0.9895765639 0.1098315618
10900234600.0 0.9918394772 0.0950121003
10950234300.0 0.9935308316 0.081413345
11000234000.0 0.9953830065 0.0659076757
11050233700.0 0.9971544415 0.0494018341
11100233400.0 0.9987686019 0.0318271579
11150233100.0 0.9998149791 0.0152275097
11200232800.0 1.000217702 -0.0001822422
11250232500.0 1.001107792 -0.0176310609
11300232200.0 1.002471266 -0.0362963891
11350231900.0 1.002244557 -0.0525557129
11400231600.0 1.00146183 -0.0673540506
11450231300.0 1.000385654 -0.0829062188
11500231000.0 0.9998394963 -0.0995992352
11550230700.0 0.9981178024 -0.1127862221
11600230400.0 0.9970495449 -0.1256797182
11650230100.0 0.9948442023 -0.1374897404
11700229800.0 0.9928926688 -0.1517918359
11750229500.0 0.9903271534 -0.1663527353
11800229200.0 0.9875969099 -0.1797299033
11850228900.0 0.9839628548 -0.1917849155
11900228600.0 0.9801596586 -0.2014334875
11950228300.0 0.9768017678 -0.2114520112
12000228000.0 0.9741639786 -0.2204557082
12050227700.0 0.9704899892 -0.2335726344
12100227400.0 0.9671130333 -0.244080311
12150227100.0 0.9624172689 -0.2608599298
12200226800.0 0.9585679296 -0.2714173177
12250226500.0 0.9540348406 -0.2839902685
12300226200.0 0.9501881672 -0.296903344
12350225900.0 0.9449630205 -0.3113658261
12400225600.0 0.9410462373 -0.3227674063
12450225300.0 0.9368251361 -0.3357139745
12500225000.0 0.9307517183 -0.3507635486
12550224700.0 0.9256229069 -0.3644870671
12600224400.0 0.920725714 -0.3769547785
12650224100.0 0.9148311989 -0.3915604556
12700223800.0 0.9095738871 -0.4042480203
12750223500.0 0.9039233574 -0.4175561235
12800223200.0 0.898758994 -0.4297160303
12850222900.0 0.8932163031 -0.4422728502
12900222600.0 0.8876992127 -0.4543965562
12950222300.0 0.8813200477 -0.466660764
13000222000.0 0.8758347468 -0.4780944587
13050221700.0 0.8688954982 -0.4913576636
13100221400.0 0.8620384006 -0.5032306002
13150221100.0 0.8553656115 -0.5154791332
13200220800.0 0.8478646042 -0.5272639719
13250220500.0 0.8407585282 -0.5389896381
13300220200.0 0.8335674871 -0.5500468878
13350219900.0 0.8255061829 -0.562027607
13400219600.0 0.8171699425 -0.5739428854
13450219300.0 0.8078907029 -0.5869150186
13500219000.0 0.7977509327 -0.6005741054
13550218700.0 0.7879249251 -0.6130048821
13600218400.0 0.7774861524 -0.6251734747
13650218100.0 0.7680274138 -0.6361155875
13700217800.0 0.7571032711 -0.6482824067
13750217500.0 0.7476869375 -0.6589921501
13800217200.0 0.7370669299 -0.6701586225
13850216900.0 0.7257168781 -0.6812125994
13900216600.0 0.7159935158 -0.6895277895
13950216300.0 0.7052550553 -0.7006438329
14000216000.0 0.6952029557 -0.7095387566
14050215700.0 0.686078922 -0.7177598782
14100215400.0 0.6760904436 -0.7268843443
14150215100.0 0.6672402065 -0.7356980938
14200214800.0 0.6576593316 -0.7442914415
14250214500.0 0.6473506842 -0.7537980954
14300214200.0 0.6368527297 -0.7630712711
14350213900.0 0.6257699679 -0.7728414333
14400213600.0 0.6141060031 -0.7823778822
14450213300.0 0.600919488 -0.7929792834
14500213000.0 0.5875552328 -0.8027393547
14550212700.0 0.5754770426 -0.8117794609
14600212400.0 0.5631268092 -0.8206965345
14650212100.0 0.5503853821 -0.82990828
14700211800.0 0.5367347753 -0.8388900517
14750211500.0 0.5244452674 -0.8470775728
14800211200.0 0.5120684169 -0.8554748086
14850210900.0 0.4997497017 -0.8632389645
14900210600.0 0.4863976614 -0.8711506293
14950210300.0 0.4729917932 -0.8786274704
15000210000.0 0.4605321148 -0.8854788636
15050209700.0 0.4480775586 -0.8914981806
15100209400.0 0.4356225098 -0.8973881244
15150209100.0 0.4231977199 -0.902481701
15200208800.0 0.4107401178 -0.9084931389
15250208500.0 0.4003689059 -0.9125578785
15300208200.0 0.3868950156 -0.9173045114
15350207900.0 0.3741157352 -0.9213803515
15400207600.0 0.3588023759 -0.9274306332
15450207300.0 0.3443176496 -0.933117894
15500207000.0 0.3296469444 -0.9366873228
15550206700.0 0.3151826424 -0.9423929279
15600206400.0 0.2993035307 -0.9472044598
15650206100.0 0.2831304601 -0.9509770438
15700205800.0 0.2699344706 -0.9543608018
15750205500.0 0.255583718 -0.9580758989
15800205200.0 0.2414965688 -0.9613694852
15850204900.0 0.2272821144 -0.964985837
15900204600.0 0.2120409496 -0.9683941243
15950204300.0 0.1979375848 -0.971796324
16000204000.0 0.1834626543 -0.9748157321
16050203700.0 0.1684091734 -0.9775676254
16100203400.0 0.1537070397 -0.9793737843
16150203100.0 0.1391364812 -0.9819169606
16200202800.0 0.1247574634 -0.984179098
16250202500.0 0.1101087427 -0.9857965336
16300202200.0 0.0944608158 -0.9872767698
16350201900.0 0.0796726717 -0.9889640562
16400201600.0 0.0648685878 -0.9900384311
16450201300.0 0.049621189 -0.9912474004
16500201000.0 0.0326907519 -0.9919344805
16550200700.0 0.0166361418 -0.9923849345
16600200400.0 0.0009814348 -0.9925569284
16650200100.0 -0.0151560019 -0.9924933935
16700199800.0 -0.0316949363 -0.9923405988
16750199500.0 -0.0502418188 -0.991336126
16800199200.0 -0.066078435 -0.9905737894
16850198900.0 -0.0823300733 -0.989704584
16900198600.0 -0.095766362 -0.9888909217
16950198300.0 -0.1103519192 -0.9873950018
17000198000.0 -0.1222793726 -0.985489603
17050197700.0 -0.1348116021 -0.9836601388
17100197400.0 -0.1482175373 -0.9817404182
17150197100.0 -0.1607714052 -0.9803404374
17200196800.0 -0.1735678839 -0.9777465649
17250196500.0 -0.1866516512 -0.9754443761
17300196200.0 -0.198573367 -0.9733052331
17350195900.0 -0.2103682517 -0.9708084477
17400195600.0 -0.2225341549 -0.9682582662
17450195300.0 -0.2354387345 -0.96556394
17500195000.0 -0.2488259392 -0.9622283218
17550194700.0 -0.2626245393 -0.9588410844
17600194400.0 -0.2765438305 -0.9548402973
17650194100.0 -0.290220995 -0.9506178831
17700193800.0 -0.3029749056 -0.946429905
17750193500.0 -0.317767196 -0.9418867346
17800193200.0 -0.3313588994 -0.9369237058
17850192900.0 -0.3462324148 -0.9312069227
17900192600.0 -0.3614763347 -0.9254692295
17950192300.0 -0.3769779896 -0.9180323887
18000192000.0 -0.3919204933 -0.9109874703
18050191700.0 -0.4055986051 -0.9029169669
18100191400.0 -0.4198975447 -0.8951157096
18150191100.0 -0.4346061131 -0.8871345687
18200190800.0 -0.4516592592 -0.8781846268
18250190500.0 -0.4685821808 -0.8684619316
18300190200.0 -0.4838985393 -0.8599571674
18350189900.0 -0.4992762899 -0.8515270427
18400189600.0 -0.5137428853 -0.842789872
18450189300.0 -0.5270727812 -0.8352541252
18500189000.0 -0.5405891733 -0.8264689374
18550188700.0 -0.553571536 -0.8195448575
18600188400.0 -0.5651949026 -0.8121668334
18650188100.0 -0.5766272497 -0.806163102
18700187800.0 -0.5874566302 -0.7993650841
18750187500.0 -0.5982342386 -0.7926307834
18800187200.0 -0.6087172447 -0.7855744496
18850186900.0 -0.6189868196 -0.7787671844
18900186600.0 -0.629136543 -0.7714274575
18950186300.0 -0.6393128822 -0.7637901269
19000186000.0 -0.6468194983 -0.7577473103
19050185700.0 -0.6559611245 -0.7505689098
19100185400.0 -0.6661003509 -0.7422271839
19150185100.0 -0.6764199825 -0.7341696123
19200184800.0 -0.6858083515 -0.7253330626
19250184500.0 -0.6955256728 -0.716077813
19300184200.0 -0.7072279214 -0.7065785016
19350183900.0 -0.7179411657 -0.6969169783
19400183600.0 -0.7275416701 -0.6870987087
19450183300.0 -0.7362427742 -0.6770842463
19500183000.0 -0.7449581889 -0.6671607566
19550182700.0 -0.7544390065 -0.6558876321
19600182400.0 -0.7643526314 -0.6444499612
19650182100.0 -0.7755722261 -0.6324040715
19700181800.0 -0.785670868 -0.6189579359
19750181500.0 -0.79653402 -0.6050304679
19800181200.0 -0.80688081 -0.5898239312
19850180900.0 -0.8163113312 -0.5745489434
19900180600.0 -0.8242533302 -0.5600043821
19950180300.0 -0.8330599183 -0.5436535572
20000180000.0 -0.8238577583 -0.5463670676
20050179700.0 -0.8321778878 -0.5341093078
20100179400.0 -0.8410849851 -0.5202266181
20150179100.0 -0.8492848753 -0.5087540918
20200178800.0 -0.8574379002 -0.4966510485
20250178500.0 -0.867389595 -0.483126059
20300178200.0 -0.8762230773 -0.4703767595
20350177900.0 -0.8854815255 -0.4555408028
20400177600.0 -0.8947118596 -0.4413619145
20450177300.0 -0.9029604278 -0.4271465969
20500177000.0 -0.9107796888 -0.4132765669
20550176700.0 -0.9188330709 -0.3998899769
20600176400.0 -0.9252791335 -0.3866942065
20650176100.0 -0.9322130273 -0.3742533076
20700175800.0 -0.9391300796 -0.3623818123
20750175500.0 -0.9456569109 -0.3507442911
20800175200.0 -0.9501155323 -0.3415253006
20850174900.0 -0.9548689609 -0.329385763
20900174600.0 -0.9595063223 -0.3181412196
20950174300.0 -0.9630603021 -0.3081684036
21000174000.0 -0.9654241279 -0.2963527049
21050173700.0 -0.9674552095 -0.2859154093
21100173400.0 -0.9713526743 -0.2751558845
21150173100.0 -0.9752920243 -0.2628724409
21200172800.0 -0.9795537842 -0.2497812039
21250172500.0 -0.9828183539 -0.2359200426
21300172200.0 -0.9857070316 -0.2217694832
21350171900.0 -0.9879997686 -0.2079379257
21400171600.0 -0.989592139 -0.1933680578
21450171300.0 -0.9903389149 -0.1783535059
21500171000.0 -0.9905941328 -0.1639722373
21550170700.0 -0.9907442498 -0.1479144444
21600170400.0 -0.9917012307 -0.1337080689
21650170100.0 -0.9905958459 -0.1172678172
21700169800.0 -0.9910581696 -0.1022260366
21750169500.0 -0.9885628721 -0.0855861712
21800169200.0 -0.989021287 -0.0697053126
21850168900.0 -0.9885802008 -0.0518661271
21900168600.0 -0.9878018032 -0.0363394858
21950168300.0 -0.9870557774 -0.0202370047
22000168000.0 -0.9869297591 -0.0057541939
22050167700.0 -0.9871640843 0.0087653199
22100167400.0 -0.9876536611 0.0244159043
22150167100.0 -0.9887265761 0.0404069648
22200166800.0 -0.9893876608 0.056514251
22250166500.0 -0.9888704283 0.0735790342
22300166200.0 -0.9882123627 0.0898006702
22350165900.0 -0.9863444151 0.1067681686
22400165600.0 -0.9850379393 0.1218515801
22450165300.0 -0.983628086 0.1373710341
22500165000.0 -0.9818892346 0.1519746808
22550164700.0 -0.980554562 0.1680874767
22600164400.0 -0.9786825969 0.1833915417
22650164100.0 -0.9757960202 0.1980889596
22700163800.0 -0.9727847411 0.2144795674
22750163500.0 -0.9702307008 0.2296933764
22800163200.0 -0.967212562 0.2431372946
22850162900.0 -0.9647485405 0.2560824958
22900162600.0 -0.962856017 0.2694401983
22950162300.0 -0.9611518755 0.2830895634
23000162000.0 -0.9599877447 0.2955737293
23050161700.0 -0.9574407263 0.308530784
23100161400.0 -0.9552107987 0.3221665201
23150161100.0 -0.9518779884 0.3344290667
23200160800.0 -0.9492849053 0.3473939512
23250160500.0 -0.946217368 0.358972561
23300160200.0 -0.9436009624 0.3727756613
23350159900.0 -0.9395288862 0.3854346283
23400159600.0 -0.9343534033 0.3992717304
23450159300.0 -0.9293249097 0.4127368282
23500159000.0 -0.9246647059 0.4258531452
23550158700.0 -0.9200373454 0.4395513825
23600158400.0 -0.9141719787 0.4534867834
23650158100.0 -0.9072356075 0.4679912072
23700157800.0 -0.8991216289 0.4823479949
23750157500.0 -0.8901508024 0.4960999803
23800157200.0 -0.8811496242 0.5098013129
23850156900.0 -0.8710283015 0.5225086679
23900156600.0 -0.8612821358 0.535270305
23950156300.0 -0.8523954307 0.5475594033
24000156000.0 -0.8435332744 0.5596641924
24050155700.0 -0.8322666417 0.5723601576
24100155400.0 -0.8213390556 0.5847385422
24150155100.0 -0.8101554208 0.5957785753
24200154800.0 -0.8004164286 0.6079044578
24250154500.0 -0.7891081569 0.619955749
24300154200.0 -0.7775784053 0.6320834495
24350153900.0 -0.7659073635 0.643235019
24400153600.0 -0.753501942 0.653102814
24450153300.0 -0.7415599592 0.6634625535
24500153000.0 -0.7298103296 0.6737423073
24550152700.0 -0.7183862111 0.683425232
24600152400.0 -0.7068619402 0.6927444155
