!Created with skrf (http://scikit-rf.org).
# Hz S RI R 50.0 
!freq ReS11 ImS11
300000.0 -0.9748874995 -0.1193752553
50299700.0 -0.9999795176 0.0150794004
100299400.0 -0.997929567 0.0280254888
150299100.0 -1.002685132 0.0447831851
200298800.0 -0.9996519066 0.0582822383
250298500.0 -0.9973011182 0.0717765053
300298200.0 -0.9859930831 0.0875492266
350297900.0 -0.9940398557 0.0983988453
400297600.0 -0.9932195045 0.1148712606
450297300.0 -0.9910255091 0.1287017599
500297000.0 -0.9894071237 0.1435723875
550296700.0 -0.9842303893 0.156033904
600296400.0 -1.017529065 0.1892613189
650296100.0 -0.9821749055 0.1859093745
700295800.0 -0.9792671313 0.2003528971
750295500.0 -0.976386597 0.2141423304
800295200.0 -0.9730060599 0.2282850523
850294900.0 -0.9695277823 0.2421102024
900294600.0 -0.9659127012 0.2559276141
950294300.0 -0.9620959191 0.2693290144
1000294000.0 -0.9582030017 0.2833719813
1050293700.0 -0.9537442422 0.2972944123
1100293400.0 -0.949274309 0.3117431502
1150293100.0 -0.9454428255 0.3235143377
1200292800.0 -0.940380649 0.3377925588
1250292500.0 -0.9345949207 0.3513814307
1300292200.0 -0.9289901937 0.3644901035
1350291900.0 -0.9233860815 0.3786616673
1400291600.0 -0.9179492236 0.3917477746
1450291300.0 -0.9124836844 0.4041125222
1500291000.0 -0.906242246 0.41753595
1550290700.0 -0.8996328591 0.4308517975
1600290400.0 -0.8933512144 0.4438384474
1650290100.0 -0.8869297655 0.4558230852
1700289800.0 -0.8799630752 0.4695126762
1750289500.0 -0.8729060532 0.4816823107
1800289200.0 -0.8656156943 0.4945428482
1850288900.0 -0.858600649 0.5058460619
1900288600.0 -0.8510517886 0.5188143421
1950288300.0 -0.842755625 0.5314539776
2000288000.0 -0.8355725441 0.5428874738
2050287700.0 -0.827203015 0.5553438339
2100287400.0 -0.8192680587 0.5668227451
2150287100.0 -0.8108012373 0.5789569048
2200286800.0 -0.8029250636 0.5892578184
2250286500.0 -0.7941417324 0.6013323412
2300286200.0 -0.7853749367 0.612806443
2350285900.0 -0.776694959 0.623779913
2400285600.0 -0.7677325684 0.6346841464
2450285300.0 -0.7588489266 0.6451845137
2500285000.0 -0.7493787432 0.6566428162
2550284700.0 -0.7404867557 0.6670441345
2600284400.0 -0.730951263 0.6772267236
2650284100.0 -0.7222592768 0.6873006248
2700283800.0 -0.7114146258 0.6977558178
2750283500.0 -0.7013735138 0.7085708983
2800283200.0 -0.6913004808 0.7183015232
2850282900.0 -0.6811030121 0.7281928553
2900282600.0 -0.6707963794 0.7376861628
2950282300.0 -0.6604708392 0.7471388884
3000282000.0 -0.6496853198 0.7564391268
3050281700.0 -0.6384355728 0.7658294278
3100281400.0 -0.6267628627 0.7752752786
3150281100.0 -0.6152161377 0.7843249844
3200280800.0 -0.6036670083 0.7928138157
3250280500.0 -0.5927574341 0.800549128
3300280200.0 -0.5814270777 0.8085904737
3350279900.0 -0.5694819933 0.8162781968
3400279600.0 -0.5572359286 0.8242213257
3450279300.0 -0.5461740798 0.8314577516
3500279000.0 -0.5341701826 0.838278704
3550278700.0 -0.5219383247 0.8456180956
3600278400.0 -0.5097533183 0.8525439296
3650278100.0 -0.4969046899 0.8602286515
3700277800.0 -0.4846967455 0.8666905666
3750277500.0 -0.4723668274 0.8732512025
3800277200.0 -0.4599812756 0.8796387418
3850276900.0 -0.447904955 0.8856065836
3900276600.0 -0.4370928565 0.8914794838
3950276300.0 -0.4246795052 0.8972427455
4000276000.0 -0.4128311587 0.903141301
4050275700.0 -0.3996634847 0.9093320968
4100275400.0 -0.3889030351 0.9147958942
4150275100.0 -0.3759994728 0.9204920045
4200274800.0 -0.3628010655 0.9260725707
4250274500.0 -0.3504489934 0.9314712159
4300274200.0 -0.3372547244 0.9366097868
4350273900.0 -0.3234654512 0.9419680371
4400273600.0 -0.3086454966 0.9472833129
4450273300.0 -0.2932457826 0.9522461233
4500273000.0 -0.2800746349 0.9566619247
4550272700.0 -0.2660162104 0.9607437524
4600272400.0 -0.2505867573 0.9649827275
4650272100.0 -0.2391952024 0.9680688144
4700271800.0 -0.2259480404 0.971338805
4750271500.0 -0.2140965343 0.9741540176
4800271200.0 -0.2019373722 0.9769844534
4850270900.0 -0.187890149 0.9797901519
4900270600.0 -0.1741270259 0.9822856714
4950270300.0 -0.159726368 0.9848475154
5000270000.0 -0.1454253442 0.9868573797
5050269700.0 -0.1318564014 0.988653606
5100269400.0 -0.118011558 0.9901153613
5150269100.0 -0.104578284 0.9919515195
5200268800.0 -0.0911333833 0.9927205113
5250268500.0 -0.0781663603 0.9938432501
5300268200.0 -0.0647502271 0.9942830989
5350267900.0 -0.0523242615 0.9951490494
5400267600.0 -0.0361676234 0.9961372221
5450267300.0 -0.0229914748 0.996626621
5500267000.0 -0.0080119459 0.9971924854
5550266700.0 0.0071942004 0.9970733577
5600266400.0 0.0224677407 0.9971753637
5650266100.0 0.0392568297 0.9969640618
5700265800.0 0.0538179022 0.9960327006
5750265500.0 0.0690793588 0.9954966589
5800265200.0 0.0827873572 0.9942632577
5850264900.0 0.0958676799 0.9934446724
5900264600.0 0.1122636181 0.9914430226
5950264300.0 0.1243457618 0.989984251
6000264000.0 0.1380185869 0.9883122096
6050263700.0 0.1503078242 0.9867631964
6100263400.0 0.1627706754 0.9850114179
6150263100.0 0.1773224092 0.9826241282
6200262800.0 0.1872938018 0.9809341072
6250262500.0 0.1999391545 0.9785756813
6300262200.0 0.2125700883 0.9759613039
6350261900.0 0.2255099613 0.9731152149
6400261600.0 0.239152401 0.9696729386
6450261300.0 0.2505743763 0.9671167005
6500261000.0 0.2635582374 0.963566923
6550260700.0 0.2764198422 0.9594933184
6600260400.0 0.2898148302 0.9554338034
6650260100.0 0.3043091374 0.9511640914
6700259800.0 0.3160024048 0.9469497587
6750259500.0 0.3295913732 0.9416532353
6800259200.0 0.3432590521 0.936997853
6850258900.0 0.3555955074 0.931913157
6900258600.0 0.367933229 0.9268618043
6950258300.0 0.3801985274 0.921426948
7000258000.0 0.3919578485 0.9159916823
7050257700.0 0.4042254301 0.9101084334
7100257400.0 0.417165558 0.9037433336
7150257100.0 0.4277392666 0.8983527766
7200256800.0 0.4408825862 0.8919846175
7250256500.0 0.4527065949 0.8855254107
7300256200.0 0.46565249 0.8787539099
7350255900.0 0.4783963713 0.8717608796
7400255600.0 0.4918994161 0.8643963631
7450255300.0 0.5072219583 0.8555031767
7500255000.0 0.5192607454 0.848398455
7550254700.0 0.5334744939 0.8396726659
7600254400.0 0.545763832 0.8310583766
7650254100.0 0.5571621319 0.8234355892
7700253800.0 0.5694043211 0.8155764978
7750253500.0 0.5801418743 0.8080100133
7800253200.0 0.5910436597 0.8000060789
7850252900.0 0.600622291 0.7929441793
7900252600.0 0.6123208835 0.7843969282
7950252300.0 0.6209183998 0.7776867371
8000252000.0 0.6308441602 0.7700609515
8050251700.0 0.6415803874 0.7620234753
8100251400.0 0.6514496791 0.7537588818
8150251100.0 0.6615349783 0.745216576
8200250800.0 0.6711206107 0.7372746651
8250250500.0 0.6796764591 0.7292009921
8300250200.0 0.6892041258 0.7206682584
8350249900.0 0.6983683895 0.7120416458
8400249600.0 0.7064891146 0.7039438882
8450249300.0 0.715228756 0.6947857955
8500249000.0 0.7241150972 0.6859919589
8550248700.0 0.7322156483 0.677085082
8600248400.0 0.7406529652 0.667539911
8650248100.0 0.7483957909 0.6580467257
8700247800.0 0.7577987663 0.646926642
8750247500.0 0.7661890314 0.6367901928
8800247200.0 0.7742006475 0.6263467727
8850246900.0 0.7829455576 0.6150820842
8900246600.0 0.7917342347 0.603472772
8950246300.0 0.8007839622 0.5907489295
9000246000.0 0.8099200909 0.5782110262
9050245700.0 0.8190752607 0.5656542051
9100245400.0 0.8274672502 0.5533386274
9150245100.0 0.8363652677 0.5400051469
9200244800.0 0.8460855162 0.5249676348
9250244500.0 0.8555011473 0.5098359351
9300244200.0 0.8636231439 0.4956564588
9350243900.0 0.8715110322 0.4821337022
9400243600.0 0.8782412962 0.4698242678
9450243300.0 0.8838879172 0.4586979406
9500243000.0 0.8900518839 0.4467723217
9550242700.0 0.8941204515 0.4391117832
9600242400.0 0.8981275709 0.431747323
9650242100.0 0.9019060186 0.4249487963
9700241800.0 0.9067181387 0.4168133724
9750241500.0 0.9106682008 0.4091089921
9800241200.0 0.9155889432 0.3996416448
9850240900.0 0.9214309954 0.3878611587
9900240600.0 0.9270250784 0.3765959242
9950240300.0 0.9336046145 0.3600718454
10000240000.0 0.9387151811 0.3482731125
10050239700.0 0.9437508688 0.3327315308
10100239400.0 0.9495931986 0.3168995121
10150239100.0 0.9537960673 0.3019349285
10200238800.0 0.9583358918 0.2867874741
10250238500.0 0.9613743519 0.2733943246
10300238200.0 0.9646876772 0.2594859422
10350237900.0 0.9674038611 0.2461724294
10400237600.0 0.9697885049 0.2330988348
10450237300.0 0.9727031603 0.2190777186
10500237000.0 0.9744989987 0.2073477286
10550236700.0 0.9770734121 0.1924472259
10600236400.0 0.9791627235 0.1790743408
10650236100.0 0.9813209301 0.1642776582
10700235800.0 0.9836733955 0.1518877567
10750235500.0 0.9858620574 0.1384384722
10800235200.0 0.9880150738 0.1240931702
10850234900.0 0.989710498 0.1095007806
10900234600.0 0.9917215514 0.0952417544
10950234300.0 0.99370999 0.0817462184
11000234000.0 0.9953255507 0.0665614367
11050233700.0 0.9971567112 0.0500147893
11100233400.0 0.9986068692 0.0326266359
11150233100.0 0.9999846615 0.0160696959
11200232800.0 1.000505796 0.0009892563
11250232500.0 1.0020697 -0.0169300163
11300232200.0 1.001775769 -0.0335143779
11350231900.0 1.00203066 -0.0500312455
11400231600.0 1.001559036 -0.0659005207
11450231300.0 1.000949798 -0.080564074
11500231000.0 0.9995589245 -0.0974988508
11550230700.0 0.9981406388 -0.1102733976
11600230400.0 0.9972578467 -0.1234538381
11650230100.0 0.9950845398 -0.1354070723
11700229800.0 0.992957671 -0.1493528261
11750229500.0 0.9906068244 -0.1638764616
11800229200.0 0.9878621727 -0.1776526616
11850228900.0 0.9842492925 -0.1896886617
11900228600.0 0.9807632687 -0.1994398137
11950228300.0 0.9773951567 -0.2095495897
12000228000.0 0.9746211988 -0.2182049101
12050227700.0 0.9710767114 -0.2313511242
12100227400.0 0.9676777979 -0.242790535
12150227100.0 0.9627530534 -0.2593316711
12200226800.0 0.9593778471 -0.2698466215
12250226500.0 0.9547412027 -0.2837163987
12300226200.0 0.9508363585 -0.2945817328
12350225900.0 0.9456769489 -0.3095650366
12400225600.0 0.9418335757 -0.3216450235
12450225300.0 0.9371593968 -0.3346829167
12500225000.0 0.9314889568 -0.3495734236
12550224700.0 0.9265275896 -0.3630675864
12600224400.0 0.9213965011 -0.3759525549
12650224100.0 0.9155817694 -0.3903901419
12700223800.0 0.9102203121 -0.4032835472
12750223500.0 0.9048151682 -0.4161996728
12800223200.0 0.899652977 -0.4290344317
12850222900.0 0.894171159 -0.4411346819
12900222600.0 0.8883161433 -0.4529982566
12950222300.0 0.8824143334 -0.4651396071
13000222000.0 0.8762619948 -0.4777064201
13050221700.0 0.869525256 -0.490479534
13100221400.0 0.8627500352 -0.5018615708
13150221100.0 0.8559872248 -0.5144462637
13200220800.0 0.8490035909 -0.5255823912
13250220500.0 0.8418639962 -0.5381552457
13300220200.0 0.8342783159 -0.5487428841
13350219900.0 0.826488091 -0.5608222953
13400219600.0 0.817994756 -0.572823116
13450219300.0 0.8088646731 -0.5858691184
13500219000.0 0.798419492 -0.6000980686
13550218700.0 0.7887127162 -0.6118125901
13600218400.0 0.7787236451 -0.6245210731
13650218100.0 0.7686999379 -0.6354700196
13700217800.0 0.7585323803 -0.6475753546
13750217500.0 0.7477470622 -0.6582611044
13800217200.0 0.7372571948 -0.670619091
13850216900.0 0.7260002327 -0.6813615301
13900216600.0 0.7161682011 -0.6903505163
13950216300.0 0.7057431541 -0.7008523706
14000216000.0 0.6955513197 -0.7094611507
14050215700.0 0.6858705985 -0.7179465434
14100215400.0 0.6763798014 -0.7272341125
14150215100.0 0.6673337057 -0.7355081731
14200214800.0 0.6577700939 -0.7445037284
14250214500.0 0.6474180403 -0.7538623938
14300214200.0 0.637023976 -0.7632942787
14350213900.0 0.6261104366 -0.7727998327
14400213600.0 0.6140785993 -0.7828059355
14450213300.0 0.6011298663 -0.7930657655
14500213000.0 0.5880021328 -0.8028653319
14550212700.0 0.5754684644 -0.812413462
14600212400.0 0.5632835616 -0.8208697
14650212100.0 0.5498788125 -0.8297228425
14700211800.0 0.5361564414 -0.8393861044
14750211500.0 0.5243045304 -0.8477012838
14800211200.0 0.51200981 -0.8558095024
14850210900.0 0.4997967978 -0.8631113069
14900210600.0 0.4863059835 -0.8710982424
14950210300.0 0.473050267 -0.8787066521
15000210000.0 0.4605027974 -0.8856920879
15050209700.0 0.4480161891 -0.8914518793
15100209400.0 0.4352656573 -0.8975196384
15150209100.0 0.4234419431 -0.9032285443
15200208800.0 0.4105653216 -0.9088769092
15250208500.0 0.3990019846 -0.9128610669
15300208200.0 0.3866408152 -0.9172259403
15350207900.0 0.3733329524 -0.921849114
15400207600.0 0.3592622833 -0.9282291005
15450207300.0 0.3450286566 -0.9325852236
15500207000.0 0.3301052459 -0.9372046533
15550206700.0 0.3153830032 -0.9421999433
15600206400.0 0.2995439818 -0.9466321227
15650206100.0 0.2837332404 -0.9512051017
15700205800.0 0.2700617774 -0.9544552517
15750205500.0 0.2555275337 -0.9582484341
15800205200.0 0.2411753194 -0.9617391675
15850204900.0 0.2269750697 -0.9652024222
15900204600.0 0.2118528243 -0.9688658403
15950204300.0 0.1974471587 -0.9717695418
16000204000.0 0.1836363911 -0.9747538171
16050203700.0 0.1681309379 -0.977648839
16100203400.0 0.1539234383 -0.9797321749
16150203100.0 0.1388279582 -0.9818739155
16200202800.0 0.1246810701 -0.9843732251
16250202500.0 0.1102463447 -0.9859273198
16300202200.0 0.0947116636 -0.9876127186
16350201900.0 0.0795772715 -0.9891965029
16400201600.0 0.0651393032 -0.9899224233
16450201300.0 0.0496751192 -0.9912910117
16500201000.0 0.0329225607 -0.9920241212
16550200700.0 0.0170612902 -0.9925837943
16600200400.0 0.0015033059 -0.992801725
16650200100.0 -0.0146264395 -0.9925595397
16700199800.0 -0.0310587611 -0.9927997902
16750199500.0 -0.0498031858 -0.9917651243
16800199200.0 -0.065236735 -0.9912888334
16850198900.0 -0.0811837556 -0.9894484886
16900198600.0 -0.0954944516 -0.9887434607
16950198300.0 -0.1082904117 -0.9877958939
17000198000.0 -0.1214123297 -0.9857184699
17050197700.0 -0.1337771487 -0.9843927951
17100197400.0 -0.1469017604 -0.9821290748
17150197100.0 -0.1592818388 -0.9801104213
17200196800.0 -0.1723782834 -0.9780135767
17250196500.0 -0.1852731791 -0.9759786166
17300196200.0 -0.1973036737 -0.9735467213
17350195900.0 -0.2093244633 -0.9710087832
17400195600.0 -0.2213828808 -0.9685970111
17450195300.0 -0.2344520344 -0.9658645482
17500195000.0 -0.247816159 -0.9624446298
17550194700.0 -0.2617770719 -0.9589593183
17600194400.0 -0.275350499 -0.9549258662
17650194100.0 -0.2893307608 -0.9507018071
17700193800.0 -0.3020901523 -0.9466655587
17750193500.0 -0.3164762298 -0.9421143136
17800193200.0 -0.3310087255 -0.9373448981
17850192900.0 -0.3461137848 -0.9314629114
17900192600.0 -0.3609495307 -0.925350816
17950192300.0 -0.3763357845 -0.9184117206
18000192000.0 -0.3913040111 -0.91112111
18050191700.0 -0.4054271428 -0.9031683426
18100191400.0 -0.4195275673 -0.8956085397
18150191100.0 -0.4345148101 -0.8876404486
18200190800.0 -0.4513403807 -0.8785147181
18250190500.0 -0.468481343 -0.8692049914
18300190200.0 -0.4840225769 -0.8601932514
18350189900.0 -0.4988770105 -0.8519931719
18400189600.0 -0.513510297 -0.8435834431
18450189300.0 -0.5267525635 -0.8355503397
18500189000.0 -0.539853795 -0.8277598549
18550188700.0 -0.5526116005 -0.8203193278
18600188400.0 -0.5644563856 -0.8133063084
18650188100.0 -0.5762187416 -0.8072097468
18700187800.0 -0.5864826099 -0.8003096783
18750187500.0 -0.5975102673 -0.7936035021
18800187200.0 -0.6077213528 -0.7866986894
18850186900.0 -0.6180208861 -0.7797186048
18900186600.0 -0.6280407781 -0.7725520534
18950186300.0 -0.6382072152 -0.7647702507
19000186000.0 -0.6454807602 -0.7586632846
19050185700.0 -0.6549836829 -0.7511136869
19100185400.0 -0.6643763582 -0.7429572761
19150185100.0 -0.6753235905 -0.7343183062
19200184800.0 -0.6845201353 -0.7262560621
19250184500.0 -0.6944210205 -0.7172731955
19300184200.0 -0.7057899118 -0.7083540663
19350183900.0 -0.7160605979 -0.6981906504
19400183600.0 -0.7259993336 -0.6881261445
19450183300.0 -0.7354168045 -0.6778317502
19500183000.0 -0.7436325097 -0.6677637796
19550182700.0 -0.7533429659 -0.6571586345
19600182400.0 -0.7635331121 -0.6452285102
19650182100.0 -0.7744700205 -0.6330340712
19700181800.0 -0.7852342802 -0.6197341119
19750181500.0 -0.7957130706 -0.6055792515
19800181200.0 -0.8060106787 -0.5904985275
19850180900.0 -0.8156720544 -0.5751735713
19900180600.0 -0.823476146 -0.560779408
19950180300.0 -0.8327950345 -0.5443398527
20000180000.0 -0.8248086224 -0.5476194249
20050179700.0 -0.833017148 -0.5340689223
20100179400.0 -0.8413140501 -0.5206507694
20150179100.0 -0.8488953962 -0.508245156
20200178800.0 -0.8588673536 -0.4960124376
20250178500.0 -0.8682268079 -0.4822863931
20300178200.0 -0.8775482028 -0.4688193025
20350177900.0 -0.8868619277 -0.4548754346
20400177600.0 -0.8953438469 -0.4401661135
20450177300.0 -0.9036130441 -0.4258559124
20500177000.0 -0.9117381747 -0.4118808507
20550176700.0 -0.9196649861 -0.3983191335
20600176400.0 -0.9265339304 -0.3851517574
20650176100.0 -0.9328357326 -0.3734563643
20700175800.0 -0.9392120984 -0.3613666522
20750175500.0 -0.9455775657 -0.3497239909
20800175200.0 -0.9510127923 -0.3386545523
20850174900.0 -0.956056677 -0.3275429254
20900174600.0 -0.9606034674 -0.3170919241
20950174300.0 -0.963715023 -0.3049926388
21000174000.0 -0.9670364433 -0.2940362452
21050173700.0 -0.9689438051 -0.2843496819
21100173400.0 -0.9738422965 -0.2722027239
21150173100.0 -0.9774256633 -0.2599007976
21200172800.0 -0.9808076398 -0.2469197769
21250172500.0 -0.9844171472 -0.2326327407
21300172200.0 -0.9873975961 -0.2192446108
21350171900.0 -0.9889746535 -0.2049106542
21400171600.0 -0.9905659975 -0.1901432846
21450171300.0 -0.9912681018 -0.1758528696
21500171000.0 -0.9912275861 -0.1606351463
21550170700.0 -0.9911446623 -0.1455665417
21600170400.0 -0.9926280246 -0.1304691228
21650170100.0 -0.9917820038 -0.1134959573
21700169800.0 -0.9896126717 -0.0996175211
21750169500.0 -0.9895413818 -0.0831592772
21800169200.0 -0.9897021003 -0.0669513978
21850168900.0 -0.988259327 -0.0498427246
21900168600.0 -0.986703837 -0.0333755148
21950168300.0 -0.9864492873 -0.017368888
22000168000.0 -0.9855558185 -0.0023909943
22050167700.0 -0.9862065354 0.0118052334
22100167400.0 -0.9861777328 0.0271793779
22150167100.0 -0.9872227143 0.0428494544
22200166800.0 -0.9876613069 0.0592872106
22250166500.0 -0.9865618525 0.0764616531
22300166200.0 -0.9865655915 0.092531985
22350165900.0 -0.9859550575 0.1102690018
22400165600.0 -0.9828027931 0.1248070722
22450165300.0 -0.981435821 0.1407336173
22500165000.0 -0.9793087008 0.1546697249
22550164700.0 -0.9790754612 0.1695599406
22600164400.0 -0.9754957505 0.1855701745
22650164100.0 -0.9736319668 0.2003914749
22700163800.0 -0.9707673101 0.2163815477
22750163500.0 -0.9687969485 0.2314621846
22800163200.0 -0.9653624945 0.2445580524
22850162900.0 -0.9629794238 0.2580494376
22900162600.0 -0.9615078463 0.2716248187
22950162300.0 -0.960109269 0.2848044615
23000162000.0 -0.9587891668 0.2968978836
23050161700.0 -0.9567224326 0.3096342207
23100161400.0 -0.9539745888 0.3226983698
23150161100.0 -0.9511572327 0.3356392047
23200160800.0 -0.9484535177 0.3476626519
23250160500.0 -0.9456573895 0.3599864913
23300160200.0 -0.9430733579 0.3722688031
23350159900.0 -0.9390946172 0.3857696788
23400159600.0 -0.9343055245 0.3991581544
23450159300.0 -0.9293168487 0.4124101843
23500159000.0 -0.9248909808 0.4256299978
23550158700.0 -0.920245665 0.4391370535
23600158400.0 -0.9146021977 0.4529188293
23650158100.0 -0.9079478528 0.4670075593
23700157800.0 -0.9001951908 0.4810444564
23750157500.0 -0.8913895785 0.495237861
23800157200.0 -0.8821950538 0.5088266573
23850156900.0 -0.8734720687 0.5218015194
23900156600.0 -0.8637064302 0.5337827202
23950156300.0 -0.8540470339 0.5463333166
24000156000.0 -0.8449699362 0.559456028
24050155700.0 -0.834670332 0.5700720236
24100155400.0 -0.824551381 0.5827288758
24150155100.0 -0.8135391855 0.5942246947
24200154800.0 -0.8030001726 0.6052268931
24250154500.0 -0.792012572 0.6172492276
24300154200.0 -0.7803576427 0.6293319416
24350153900.0 -0.7684461764 0.6404646189
24400153600.0 -0.7562199104 0.6506823652
24450153300.0 -0.7445936941 0.6608955849
24500153000.0 -0.7328851158 0.6704416643
24550152700.0 -0.7216688486 0.6800506734
24600152400.0 -0.7098617774 0.6895483587
24650152100.0 -0.6984681615 0.6980039122
