!Created with skrf (http://scikit-rf.org).
# Hz S RI R 50.0 
!freq ReS11 ImS11
300000.0 -0.9725283576 -0.1253021076
50299700.0 -0.9999352815 0.0149216186
100299400.0 -0.9981162308 0.0279334681
150299100.0 -1.002728189 0.0448628756
200298800.0 -0.9995590268 0.0582572322
250298500.0 -0.9974287416 0.0716851712
300298200.0 -0.9857368382 0.087577098
350297900.0 -0.9940611659 0.0982814681
400297600.0 -0.9931242472 0.1147142107
450297300.0 -0.9910219315 0.1285005614
500297000.0 -0.9893989694 0.1434053863
550296700.0 -0.9841369304 0.1556647087
600296400.0 -1.017163464 0.1891667672
650296100.0 -0.9819814094 0.185551576
700295800.0 -0.9792184592 0.199995312
750295500.0 -0.9763246554 0.2138825724
800295200.0 -0.9730470844 0.2280483154
850294900.0 -0.9695685899 0.2418417008
900294600.0 -0.9659658167 0.2554453656
950294300.0 -0.9620620554 0.2693208151
1000294000.0 -0.9580741332 0.2831756442
1050293700.0 -0.9536390078 0.2970969044
1100293400.0 -0.9493456277 0.3116708447
1150293100.0 -0.9454842195 0.3233718635
1200292800.0 -0.9403044563 0.3375702379
1250292500.0 -0.9347280127 0.3512435549
1300292200.0 -0.9289304271 0.3644336722
1350291900.0 -0.9235914888 0.3784822028
1400291600.0 -0.9180236584 0.3914493572
1450291300.0 -0.9125881257 0.4038001409
1500291000.0 -0.9063970647 0.4172498799
1550290700.0 -0.8995391926 0.4305983534
1600290400.0 -0.8934307274 0.4436307834
1650290100.0 -0.8867849727 0.4556844987
1700289800.0 -0.8799868057 0.469148421
1750289500.0 -0.8729325468 0.481456195
1800289200.0 -0.8655978403 0.4943292048
1850288900.0 -0.8587952327 0.5058193052
1900288600.0 -0.8509125298 0.5188655784
1950288300.0 -0.8428729481 0.5312969196
2000288000.0 -0.8355978396 0.5429810439
2050287700.0 -0.827263906 0.5552816999
2100287400.0 -0.8195147889 0.5666248349
2150287100.0 -0.8108383519 0.5785471005
2200286800.0 -0.8030777004 0.5891562894
2250286500.0 -0.7940598427 0.6013522426
2300286200.0 -0.7853009688 0.6128124681
2350285900.0 -0.7769631247 0.6234759999
2400285600.0 -0.7681026793 0.6344749999
2450285300.0 -0.759317508 0.6452506601
2500285000.0 -0.749190591 0.6566417163
2550284700.0 -0.7402063574 0.6671618661
2600284400.0 -0.7311720175 0.6769497475
2650284100.0 -0.7223301866 0.6872160575
2700283800.0 -0.7119948804 0.6976173848
2750283500.0 -0.7017558665 0.7082309719
2800283200.0 -0.6916143434 0.7181011546
2850282900.0 -0.6812414018 0.7282677026
2900282600.0 -0.6706248996 0.7376865878
2950282300.0 -0.6604377893 0.7473788973
3000282000.0 -0.649663401 0.7566217724
3050281700.0 -0.6382869467 0.7659195063
3100281400.0 -0.6268210136 0.7749840981
3150281100.0 -0.6155808463 0.7838227895
3200280800.0 -0.6042862188 0.7922823857
3250280500.0 -0.5930774914 0.800257647
3300280200.0 -0.5813909971 0.8081994156
3350279900.0 -0.5691803629 0.8166463093
3400279600.0 -0.5566395145 0.8244831629
3450279300.0 -0.5455430811 0.831808173
3500279000.0 -0.533838101 0.8384555818
3550278700.0 -0.5217422672 0.845628029
3600278400.0 -0.5098422847 0.8524379879
3650278100.0 -0.4967462799 0.8599617583
3700277800.0 -0.4848154344 0.866535579
3750277500.0 -0.4724750219 0.8732728665
3800277200.0 -0.4597319174 0.8795525795
3850276900.0 -0.4479116761 0.8854497659
3900276600.0 -0.4368723575 0.8910059995
3950276300.0 -0.4250001835 0.8970152843
4000276000.0 -0.4131835077 0.9031646319
4050275700.0 -0.4004630145 0.9090837856
4100275400.0 -0.3894049644 0.9143804715
4150275100.0 -0.3761604483 0.9204680393
4200274800.0 -0.362586089 0.9259305479
4250274500.0 -0.349839597 0.9313284192
4300274200.0 -0.3369438332 0.9369017815
4350273900.0 -0.3225669451 0.9421316106
4400273600.0 -0.3078520629 0.9472289225
4450273300.0 -0.2928503406 0.9523987455
4500273000.0 -0.2797676205 0.9565073317
4550272700.0 -0.2660824123 0.9607382456
4600272400.0 -0.250957641 0.9646125128
4650272100.0 -0.2396261994 0.9679606695
4700271800.0 -0.2267999624 0.9711399724
4750271500.0 -0.2152288661 0.9740141248
4800271200.0 -0.2031172519 0.9766238545
4850270900.0 -0.1891280396 0.9795802332
4900270600.0 -0.1755131687 0.9819201497
4950270300.0 -0.1609591146 0.9843928886
5000270000.0 -0.1463751674 0.9866707054
5050269700.0 -0.1328708198 0.9885451991
5100269400.0 -0.1185540201 0.9895777367
5150269100.0 -0.1047832811 0.9915688224
5200268800.0 -0.0913408197 0.9930875463
5250268500.0 -0.0782745936 0.9936036163
5300268200.0 -0.0647844399 0.994187075
5350267900.0 -0.051749808 0.9952243003
5400267600.0 -0.0356542538 0.9963230185
5450267300.0 -0.0222238924 0.9968086285
5500267000.0 -0.007248123 0.9968667604
5550266700.0 0.0081043978 0.9972529169
5600266400.0 0.0237451605 0.9971187001
5650266100.0 0.0404008768 0.9966061751
5700265800.0 0.0547344188 0.9960216894
5750265500.0 0.0696674174 0.9949023392
5800265200.0 0.0830610688 0.9939934353
5850264900.0 0.0962239125 0.9930672591
5900264600.0 0.1128176452 0.991442529
5950264300.0 0.1242985887 0.9896463872
6000264000.0 0.1378074902 0.9877798876
6050263700.0 0.1499307076 0.9867707217
6100263400.0 0.1618850086 0.9848951913
6150263100.0 0.1765904617 0.9825742998
6200262800.0 0.1858584831 0.9812542886
6250262500.0 0.1984854849 0.9788336111
6300262200.0 0.2107996522 0.9763944924
6350261900.0 0.2236850818 0.9734604426
6400261600.0 0.2376421468 0.9703382859
6450261300.0 0.2485375374 0.9677527173
6500261000.0 0.2619808046 0.9641088772
6550260700.0 0.2750487426 0.9600950989
6600260400.0 0.2886659655 0.9564432375
6650260100.0 0.3028821462 0.9517870776
6700259800.0 0.3147437234 0.9472565129
6750259500.0 0.3284290878 0.9426172824
6800259200.0 0.3421600762 0.9373509887
6850258900.0 0.3545486982 0.9320605418
6900258600.0 0.367100498 0.9269173188
6950258300.0 0.3795494571 0.9215973604
7000258000.0 0.3912151023 0.9161063607
7050257700.0 0.4031154534 0.9103958998
7100257400.0 0.4165973865 0.9040154312
7150257100.0 0.4273216337 0.8985801332
7200256800.0 0.4403443378 0.8921437144
7250256500.0 0.4529466774 0.8855748278
7300256200.0 0.4656693636 0.8787484386
7350255900.0 0.4785361513 0.8716917748
7400255600.0 0.4930294557 0.8640797061
7450255300.0 0.5083055869 0.8550766995
7500255000.0 0.5210870986 0.847421238
7550254700.0 0.5348908594 0.8381786591
7600254400.0 0.5475197459 0.8298587977
7650254100.0 0.559684375 0.8220373709
7700253800.0 0.5709770456 0.8141055693
7750253500.0 0.5819471545 0.8062761292
7800253200.0 0.5925323909 0.7986108379
7850252900.0 0.6022972832 0.7913339518
7900252600.0 0.6137166902 0.7826034498
7950252300.0 0.6223105386 0.7761772059
8000252000.0 0.6323124076 0.7685275592
8050251700.0 0.642371353 0.7606659435
8100251400.0 0.6523688077 0.7524937244
8150251100.0 0.6621610584 0.7441651023
8200250800.0 0.6717985276 0.7358323875
8250250500.0 0.6808479787 0.7281166174
8300250200.0 0.6898183169 0.7197652712
8350249900.0 0.6989073522 0.7109138991
8400249600.0 0.70700138 0.7030662917
8450249300.0 0.7158695418 0.6940897043
8500249000.0 0.7244767376 0.685446375
8550248700.0 0.7325509075 0.6763229108
8600248400.0 0.7410021773 0.6667566772
8650248100.0 0.7485779191 0.6573609401
8700247800.0 0.7580181841 0.6464020312
8750247500.0 0.7662852646 0.6362767179
8800247200.0 0.7739171787 0.6259711168
8850246900.0 0.7826726434 0.6145163173
8900246600.0 0.7913190914 0.6030824793
8950246300.0 0.8005302592 0.5906662919
9000246000.0 0.8090464986 0.578627406
9050245700.0 0.8175887127 0.5663691122
9100245400.0 0.8256858264 0.5543017884
9150245100.0 0.8349987639 0.5412346769
9200244800.0 0.8440192596 0.526781353
9250244500.0 0.8535252374 0.5120733703
9300244200.0 0.8612304233 0.4984676759
9350243900.0 0.8688577267 0.4855408093
9400243600.0 0.8753845301 0.4737394571
9450243300.0 0.880935956 0.4632985591
9500243000.0 0.887313926 0.4518902166
9550242700.0 0.8914017554 0.4442799372
9600242400.0 0.8955413569 0.4368093887
9650242100.0 0.8997582215 0.4298330944
9700241800.0 0.904781919 0.4211998406
9750241500.0 0.9087078679 0.4137113219
9800241200.0 0.9140207226 0.403903483
9850240900.0 0.919725399 0.3925201949
9900240600.0 0.9258740803 0.3803269483
9950240300.0 0.9327288928 0.3637547942
10000240000.0 0.9380047209 0.3514161266
10050239700.0 0.943865645 0.3356431454
10100239400.0 0.9494740451 0.3191221714
10150239100.0 0.9538331809 0.3035613981
10200238800.0 0.9582662499 0.2879067318
10250238500.0 0.9615570909 0.2744285524
10300238200.0 0.9647813972 0.2605882631
10350237900.0 0.9673905159 0.2470531192
10400237600.0 0.9699803366 0.2336217736
10450237300.0 0.9728055837 0.2197999971
10500237000.0 0.9751270141 0.2072731545
10550236700.0 0.9774278553 0.1929484529
10600236400.0 0.9794704595 0.1792390049
10650236100.0 0.9815755784 0.1646028303
10700235800.0 0.9835135442 0.1524002241
10750235500.0 0.9860161067 0.1390646328
10800235200.0 0.9879808075 0.124264697
10850234900.0 0.9900436862 0.10955338
10900234600.0 0.9917781333 0.0949040374
10950234300.0 0.9936496554 0.0811951662
11000234000.0 0.9956952103 0.0654232577
11050233700.0 0.9975909466 0.0487857869
11100233400.0 0.9990212457 0.0311616565
11150233100.0 1.000343736 0.0140913109
11200232800.0 1.00085976 -0.00206433
11250232500.0 1.001795924 -0.0193593538
11300232200.0 1.002527995 -0.0384037752
11350231900.0 1.002304972 -0.0544128124
11400231600.0 1.00148005 -0.0696496935
11450231300.0 1.001020303 -0.0853787654
11500231000.0 0.9996803677 -0.1021640737
11550230700.0 0.9980574352 -0.1149588101
11600230400.0 0.9972273111 -0.1279499772
11650230100.0 0.9949165926 -0.1398891844
11700229800.0 0.9929694254 -0.1547820302
11750229500.0 0.9904093894 -0.168314449
11800229200.0 0.9872766985 -0.1818590338
11850228900.0 0.9833925614 -0.193729906
11900228600.0 0.9798018442 -0.2030988855
11950228300.0 0.9763793775 -0.2127611705
12000228000.0 0.97374224 -0.2216110175
12050227700.0 0.9700572196 -0.2345483991
12100227400.0 0.9668550516 -0.2457313144
12150227100.0 0.9614848155 -0.2625641991
12200226800.0 0.957807315 -0.272895161
12250226500.0 0.9537322192 -0.285703669
12300226200.0 0.9492675395 -0.2986536683
12350225900.0 0.9442695474 -0.3122359113
12400225600.0 0.940248661 -0.3244827151
12450225300.0 0.93588959 -0.3372059167
12500225000.0 0.930234934 -0.3521026808
12550224700.0 0.9246877428 -0.3660134015
12600224400.0 0.9198232305 -0.3781911382
12650224100.0 0.9139808573 -0.3925637189
12700223800.0 0.908781502 -0.4055957758
12750223500.0 0.9033498149 -0.4184359783
12800223200.0 0.8980405027 -0.4312690866
12850222900.0 0.892618196 -0.4435644438
12900222600.0 0.8871512589 -0.4556101377
12950222300.0 0.8809985746 -0.4681663891
13000222000.0 0.8753036305 -0.4792972777
13050221700.0 0.8681753367 -0.492144034
13100221400.0 0.8615245126 -0.5049221738
13150221100.0 0.8545675541 -0.5166490287
13200220800.0 0.8474532239 -0.5286488444
13250220500.0 0.8400748015 -0.5404216221
13300220200.0 0.8327186222 -0.551460896
13350219900.0 0.8245515252 -0.5631452077
13400219600.0 0.8161898364 -0.5750836524
13450219300.0 0.8069081841 -0.5882432269
13500219000.0 0.7974460204 -0.6013694874
13550218700.0 0.7872464689 -0.6134910855
13600218400.0 0.7771592375 -0.625390963
13650218100.0 0.7682049361 -0.6361883323
13700217800.0 0.7573508819 -0.6484012237
13750217500.0 0.7477287261 -0.6583158956
13800217200.0 0.7365830917 -0.6703526843
13850216900.0 0.7257962161 -0.6811780289
13900216600.0 0.7156445957 -0.6903444431
13950216300.0 0.7050432491 -0.7006110457
14000216000.0 0.6955122665 -0.709539956
14050215700.0 0.6863277214 -0.7171571123
14100215400.0 0.676586053 -0.7263529895
14150215100.0 0.6675293368 -0.735007707
14200214800.0 0.6581107265 -0.7440309283
14250214500.0 0.6476443879 -0.7533819233
14300214200.0 0.6370901537 -0.7628877515
14350213900.0 0.6260429454 -0.7725508834
14400213600.0 0.6141129984 -0.7820491363
14450213300.0 0.6015618236 -0.7928823756
14500213000.0 0.5888472651 -0.8028933086
14550212700.0 0.5759554237 -0.811900765
14600212400.0 0.5635258337 -0.8201619457
14650212100.0 0.5507718407 -0.8292849244
14700211800.0 0.5372467634 -0.8390651132
14750211500.0 0.5249529232 -0.84734038
14800211200.0 0.5124347931 -0.8555986759
14850210900.0 0.5000524636 -0.8631019879
14900210600.0 0.4866137351 -0.8708749387
14950210300.0 0.4734045087 -0.8786595936
15000210000.0 0.4607012912 -0.8855076709
15050209700.0 0.4483507532 -0.8916875642
15100209400.0 0.4357435292 -0.8975562899
15150209100.0 0.4231873743 -0.9028800655
15200208800.0 0.4110552734 -0.9084386533
15250208500.0 0.4002536174 -0.9127351394
15300208200.0 0.3875155907 -0.9171527916
15350207900.0 0.3743610885 -0.9214068972
15400207600.0 0.3597351027 -0.9266171467
15450207300.0 0.3447452891 -0.9322901027
15500207000.0 0.3305723503 -0.9368060611
15550206700.0 0.3153491438 -0.941764789
15600206400.0 0.2997258092 -0.9469890261
15650206100.0 0.2839327423 -0.9506918265
15700205800.0 0.2702971192 -0.9542930505
15750205500.0 0.2562537541 -0.9576175283
15800205200.0 0.2423260049 -0.9613087428
15850204900.0 0.2281445287 -0.9646829103
15900204600.0 0.2129985021 -0.9682898227
15950204300.0 0.1988252623 -0.9713767794
16000204000.0 0.184212084 -0.9741482378
16050203700.0 0.1691366689 -0.9772595338
16100203400.0 0.1544962272 -0.9796528842
16150203100.0 0.1394460733 -0.9818969544
16200202800.0 0.1253185323 -0.9842395845
16250202500.0 0.1108047194 -0.9859205773
16300202200.0 0.0951546538 -0.9870725405
16350201900.0 0.0800670982 -0.9887992012
16400201600.0 0.0653248541 -0.9899736235
16450201300.0 0.0497457661 -0.9912129167
16500201000.0 0.0327308013 -0.9920171737
16550200700.0 0.0167281479 -0.9926052691
16600200400.0 0.0007174209 -0.9925359202
16650200100.0 -0.0152361391 -0.9924258235
16700199800.0 -0.0318237565 -0.9923226186
16750199500.0 -0.0508906667 -0.9908156077
16800199200.0 -0.0661771322 -0.9908022106
16850198900.0 -0.0826587803 -0.9896039466
16900198600.0 -0.0967503489 -0.9886604462
16950198300.0 -0.1102312475 -0.9872469006
17000198000.0 -0.1236022134 -0.9855150508
17050197700.0 -0.1359244595 -0.9836051066
17100197400.0 -0.1486018663 -0.9818294761
17150197100.0 -0.1614849934 -0.979880293
17200196800.0 -0.174103217 -0.9777072746
17250196500.0 -0.187304074 -0.9751328087
17300196200.0 -0.1993569426 -0.9732206362
17350195900.0 -0.2111601359 -0.9706616797
17400195600.0 -0.2232674322 -0.9682118902
17450195300.0 -0.2359987244 -0.965355292
17500195000.0 -0.2492145846 -0.9620273326
17550194700.0 -0.2628939819 -0.958370596
17600194400.0 -0.2770916622 -0.9543981186
17650194100.0 -0.290561408 -0.9505668084
17700193800.0 -0.303288017 -0.9463389448
17750193500.0 -0.3174275577 -0.9418127597
17800193200.0 -0.3316584659 -0.9363753275
17850192900.0 -0.3464595358 -0.9313451848
17900192600.0 -0.3615614147 -0.9248563508
17950192300.0 -0.377081549 -0.918091899
18000192000.0 -0.3918317856 -0.9106520074
18050191700.0 -0.4058622281 -0.9026008477
18100191400.0 -0.4199555714 -0.8949161358
18150191100.0 -0.4347235553 -0.8869838903
18200190800.0 -0.4518385326 -0.8779315644
18250190500.0 -0.4688119723 -0.8685527481
18300190200.0 -0.4840243824 -0.8596199547
18350189900.0 -0.4989180572 -0.8509295604
18400189600.0 -0.5139231355 -0.8433565078
18450189300.0 -0.5273683382 -0.8344789793
18500189000.0 -0.540523651 -0.8267883977
18550188700.0 -0.5537376931 -0.8191758525
18600188400.0 -0.5654126264 -0.8122818922
18650188100.0 -0.576695092 -0.8055980835
18700187800.0 -0.5877182297 -0.7990581683
18750187500.0 -0.5985270863 -0.792313127
18800187200.0 -0.6091762872 -0.7852667806
18850186900.0 -0.619387496 -0.7784403019
18900186600.0 -0.6297267667 -0.7710789486
18950186300.0 -0.6399031267 -0.7630885272
19000186000.0 -0.6472570694 -0.7572043731
19050185700.0 -0.6567877837 -0.750098127
19100185400.0 -0.6669892284 -0.7413783123
19150185100.0 -0.6769032002 -0.7330860489
19200184800.0 -0.686287544 -0.7253997963
19250184500.0 -0.6964350355 -0.7156244855
19300184200.0 -0.7079404476 -0.7061203447
19350183900.0 -0.7188087763 -0.6963330737
19400183600.0 -0.7284112692 -0.686349225
19450183300.0 -0.7376228593 -0.6770363761
19500183000.0 -0.7463095498 -0.6664119521
19550182700.0 -0.755332032 -0.6557450386
19600182400.0 -0.765488777 -0.6439390853
19650182100.0 -0.7758859995 -0.63174431
19700181800.0 -0.7868548683 -0.6185019723
19750181500.0 -0.7971270743 -0.6042975153
19800181200.0 -0.8072138077 -0.5892879856
19850180900.0 -0.8166698217 -0.5741498512
19900180600.0 -0.8245051702 -0.5596788457
19950180300.0 -0.8337288015 -0.5430524658
20000180000.0 -0.822871604 -0.5464842963
20050179700.0 -0.8313741201 -0.5340855774
20100179400.0 -0.8402279785 -0.5213247401
20150179100.0 -0.8473980824 -0.5089047141
20200178800.0 -0.8561365278 -0.4973178473
20250178500.0 -0.8656679937 -0.4857740931
20300178200.0 -0.8756544534 -0.4717170159
20350177900.0 -0.884865627 -0.4577367666
20400177600.0 -0.8937520097 -0.4434462633
20450177300.0 -0.9023776016 -0.4292530855
20500177000.0 -0.9101632638 -0.4150698167
20550176700.0 -0.9179168061 -0.4015730131
20600176400.0 -0.9250441987 -0.3887730093
20650176100.0 -0.9316451951 -0.3766218708
20700175800.0 -0.9380569609 -0.3645271065
20750175500.0 -0.9450292994 -0.3533422305
20800175200.0 -0.9489249696 -0.3417657939
20850174900.0 -0.9542741746 -0.3315777296
20900174600.0 -0.9581784071 -0.320887091
20950174300.0 -0.960478808 -0.3094717346
21000174000.0 -0.9641311575 -0.2993807423
21050173700.0 -0.9658308285 -0.2888300696
21100173400.0 -0.9692309425 -0.2789870019
21150173100.0 -0.9727357911 -0.2662324335
21200172800.0 -0.9767768457 -0.2533741317
21250172500.0 -0.9807047899 -0.2399136837
21300172200.0 -0.9842420922 -0.225708855
21350171900.0 -0.985979582 -0.210999521
21400171600.0 -0.9877555242 -0.1972669654
21450171300.0 -0.9889206522 -0.1828717035
21500171000.0 -0.9894590761 -0.1680735464
21550170700.0 -0.989925828 -0.1529486956
21600170400.0 -0.9911113841 -0.1374112998
21650170100.0 -0.9911407149 -0.1221055033
21700169800.0 -0.990697658 -0.1076821305
21750169500.0 -0.9901239354 -0.0899138381
21800169200.0 -0.9899666186 -0.0743596783
21850168900.0 -0.9907668663 -0.0568579227
21900168600.0 -0.9900550694 -0.0407204712
21950168300.0 -0.9893182385 -0.0250569022
22000168000.0 -0.9889082344 -0.0098279669
22050167700.0 -0.9899018337 0.0046739833
22100167400.0 -0.9905927081 0.01981542
22150167100.0 -0.9911841547 0.0362322464
22200166800.0 -0.9917514965 0.0524886144
22250166500.0 -0.9916634409 0.0695650818
22300166200.0 -0.9907989537 0.0861428887
22350165900.0 -0.988955247 0.1024738411
22400165600.0 -0.9884849455 0.1184319968
22450165300.0 -0.9869800021 0.1334661058
22500165000.0 -0.9849478878 0.1475500025
22550164700.0 -0.9825041578 0.1642980986
22600164400.0 -0.981567168 0.1799103188
22650164100.0 -0.9779188279 0.1954178166
22700163800.0 -0.9752741305 0.2117960222
22750163500.0 -0.9718758937 0.2259106676
22800163200.0 -0.9692163542 0.239739395
22850162900.0 -0.9663978034 0.2531021138
22900162600.0 -0.9646327889 0.2672231485
22950162300.0 -0.9629165984 0.2809618015
23000162000.0 -0.9611377492 0.2931706055
23050161700.0 -0.9582055839 0.3071355535
23100161400.0 -0.9557190598 0.3206543462
23150161100.0 -0.9527152306 0.3333302188
23200160800.0 -0.9492262482 0.3465126494
23250160500.0 -0.9464950021 0.3586261781
23300160200.0 -0.9441853381 0.3707870262
23350159900.0 -0.9398582502 0.384570416
23400159600.0 -0.9347100007 0.3987547598
23450159300.0 -0.9295064765 0.4123755718
23500159000.0 -0.9252475754 0.4257451062
23550158700.0 -0.920214399 0.4401998481
23600158400.0 -0.9138733302 0.4541647781
23650158100.0 -0.9067561949 0.4688879864
23700157800.0 -0.8981789303 0.4833307889
23750157500.0 -0.8887344759 0.4972932473
23800157200.0 -0.8791003691 0.5107584284
23850156900.0 -0.8695517049 0.5238501555
23900156600.0 -0.8597747322 0.5364767589
23950156300.0 -0.8496359158 0.5491534056
24000156000.0 -0.8395623283 0.5610879723
24050155700.0 -0.8292283444 0.5731643134
24100155400.0 -0.8188017524 0.5856838211
24150155100.0 -0.8084594655 0.598320859
24200154800.0 -0.7969006595 0.6096954938
24250154500.0 -0.7857659115 0.6224918574
24300154200.0 -0.7742955049 0.634363692
24350153900.0 -0.7622172779 0.6456464883
24400153600.0 -0.7499269167 0.6560720434
24450153300.0 -0.7378004105 0.6662250815
24500153000.0 -0.7259331295 0.6763137219
24550152700.0 -0.7144601536 0.6870717703
24600152400.0 -0.7025201027 0.6956731819
24650152100.0 -0.6901202568 0.7038265105
