!Created with skrf (http://scikit-rf.org).
# Hz S RI R 50.0 
!freq ReS11 ImS11
300000.0 -0.973150753 -0.1241292368
50299700.0 -1.000011915 0.0150712739
100299400.0 -0.9978874225 0.0278570652
150299100.0 -1.002685626 0.0446007441
200298800.0 -0.9996272223 0.0580757016
250298500.0 -0.9973960093 0.0715679188
300298200.0 -0.9857931093 0.0876082933
350297900.0 -0.9940192615 0.0982344916
400297600.0 -0.9928986486 0.1150101494
450297300.0 -0.990966663 0.1286712996
500297000.0 -0.9893918761 0.1434289612
550296700.0 -0.9844188014 0.1559287268
600296400.0 -1.017471196 0.18901853
650296100.0 -0.982229626 0.1856396908
700295800.0 -0.9793466913 0.1999738241
750295500.0 -0.9763020091 0.2139061708
800295200.0 -0.9727902621 0.2280568285
850294900.0 -0.9696083712 0.2417804027
900294600.0 -0.965829816 0.2554128692
950294300.0 -0.9622642026 0.2692729114
1000294000.0 -0.9581704507 0.2832634149
1050293700.0 -0.9535842121 0.2969521165
1100293400.0 -0.9492586437 0.3114489767
1150293100.0 -0.9456671478 0.3232809725
1200292800.0 -0.9401797769 0.3377934161
1250292500.0 -0.9347524019 0.3511297115
1300292200.0 -0.9289838204 0.3643345196
1350291900.0 -0.9235227118 0.378462974
1400291600.0 -0.917813113 0.3914813188
1450291300.0 -0.9124066809 0.4039199694
1500291000.0 -0.9061931054 0.4171812267
1550290700.0 -0.8997365147 0.430628671
1600290400.0 -0.8935194901 0.4436228758
1650290100.0 -0.8868407639 0.4556305936
1700289800.0 -0.8799878511 0.4691309773
1750289500.0 -0.8729978559 0.4815620999
1800289200.0 -0.8657111925 0.4942626458
1850288900.0 -0.8587806157 0.5058041218
1900288600.0 -0.8510658835 0.5186039397
1950288300.0 -0.8429287946 0.531100014
2000288000.0 -0.8354969543 0.542666087
2050287700.0 -0.8267757386 0.5552108851
2100287400.0 -0.8193532961 0.5665313924
2150287100.0 -0.811035571 0.578548287
2200286800.0 -0.8029652158 0.5891162007
2250286500.0 -0.7942355569 0.6013196747
2300286200.0 -0.7852905893 0.6127392822
2350285900.0 -0.776902601 0.6234227231
2400285600.0 -0.7681297999 0.6343425813
2450285300.0 -0.7592608818 0.6449895271
2500285000.0 -0.7490711333 0.6563881641
2550284700.0 -0.7401280812 0.666979754
2600284400.0 -0.7311308527 0.6769734564
2650284100.0 -0.7225149912 0.6870132138
2700283800.0 -0.7122626047 0.6976867644
2750283500.0 -0.7016386467 0.7084326683
2800283200.0 -0.6917402465 0.7180187534
2850282900.0 -0.6809748258 0.7281484894
2900282600.0 -0.6706608909 0.7375962279
2950282300.0 -0.6602673421 0.747371198
3000282000.0 -0.649555491 0.7565188563
3050281700.0 -0.6385789657 0.766044947
3100281400.0 -0.6269508679 0.7748995877
3150281100.0 -0.6156466263 0.7839847968
3200280800.0 -0.6042729642 0.7922454594
3250280500.0 -0.5931595029 0.80039643
3300280200.0 -0.5816147971 0.8084105388
3350279900.0 -0.5692263783 0.8164361502
3400279600.0 -0.5565773887 0.8246185148
3450279300.0 -0.5456282218 0.831646526
3500279000.0 -0.5338413276 0.8385709
3550278700.0 -0.5216205322 0.8456226797
3600278400.0 -0.509946099 0.8523449632
3650278100.0 -0.4970444451 0.8598781626
3700277800.0 -0.4845488244 0.8665070211
3750277500.0 -0.4722613071 0.8732691998
3800277200.0 -0.45987302 0.8797041093
3850276900.0 -0.447701993 0.8855837831
3900276600.0 -0.4368870077 0.891213485
3950276300.0 -0.4247444739 0.8971033741
4000276000.0 -0.4133020272 0.9032409039
4050275700.0 -0.400533287 0.9091845923
4100275400.0 -0.3894537936 0.9146424528
4150275100.0 -0.3762724698 0.9203690654
4200274800.0 -0.3626079771 0.926167162
4250274500.0 -0.3500394299 0.9313493612
4300274200.0 -0.3370429075 0.9366301209
4350273900.0 -0.3226647701 0.9419533221
4400273600.0 -0.3077200334 0.94695996
4450273300.0 -0.2928316513 0.9521420089
4500273000.0 -0.279746128 0.956559775
4550272700.0 -0.2662737407 0.9604826641
4600272400.0 -0.2509781305 0.9646207198
4650272100.0 -0.2396893096 0.9676288495
4700271800.0 -0.227056423 0.9710733967
4750271500.0 -0.215217481 0.9739796384
4800271200.0 -0.2030409656 0.976646793
4850270900.0 -0.1891709407 0.9795511959
4900270600.0 -0.1755441755 0.981924914
4950270300.0 -0.1609447403 0.9843682759
5000270000.0 -0.1465914964 0.9866989973
5050269700.0 -0.132880867 0.9878877236
5100269400.0 -0.1186647721 0.989992309
5150269100.0 -0.104672343 0.9918844936
5200268800.0 -0.0914372132 0.9929167217
5250268500.0 -0.0783061584 0.9938817657
5300268200.0 -0.0647020528 0.9946129853
5350267900.0 -0.0517893402 0.9950520465
5400267600.0 -0.0356137033 0.9963190948
5450267300.0 -0.0222046519 0.996743783
5500267000.0 -0.0069353052 0.9972326875
5550266700.0 0.0080323142 0.9971168636
5600266400.0 0.0241063932 0.9971912073
5650266100.0 0.040581424 0.996867226
5700265800.0 0.0549130378 0.9961266387
5750265500.0 0.0696912732 0.9951030519
5800265200.0 0.0831594121 0.9942102592
5850264900.0 0.0963799867 0.9930641287
5900264600.0 0.1131791838 0.991539458
5950264300.0 0.1244939484 0.9897131344
6000264000.0 0.1378179933 0.9876029378
6050263700.0 0.1495321465 0.9862527979
6100263400.0 0.1619830365 0.9848770458
6150263100.0 0.1762168813 0.9824831674
6200262800.0 0.1861864682 0.9812374749
6250262500.0 0.1985045874 0.978841395
6300262200.0 0.2109073873 0.9763126328
6350261900.0 0.2235900077 0.9735424374
6400261600.0 0.2374970408 0.9703616954
6450261300.0 0.2485319017 0.9677494527
6500261000.0 0.2619026853 0.9641010197
6550260700.0 0.2751853726 0.9600738614
6600260400.0 0.2883273658 0.9561534676
6650260100.0 0.3027781052 0.9517895525
6700259800.0 0.3148521838 0.9473621938
6750259500.0 0.3281859003 0.9424866534
6800259200.0 0.3421362899 0.9373954321
6850258900.0 0.3544660955 0.9323255565
6900258600.0 0.3671256307 0.9269835424
6950258300.0 0.3798060225 0.921925949
7000258000.0 0.3910035277 0.9164402155
7050257700.0 0.4030251294 0.9105754703
7100257400.0 0.4165708088 0.9041279606
7150257100.0 0.4272333954 0.8987271967
7200256800.0 0.4401602823 0.8920630545
7250256500.0 0.4529034929 0.8855772855
7300256200.0 0.4657842733 0.8787158966
7350255900.0 0.4789394357 0.8719692433
7400255600.0 0.4926488231 0.8637083405
7450255300.0 0.508057251 0.8547474247
7500255000.0 0.5207311022 0.8471363067
7550254700.0 0.535218842 0.838306077
7600254400.0 0.5481432329 0.830167438
7650254100.0 0.5591770158 0.8221336231
7700253800.0 0.5712962378 0.8142684414
7750253500.0 0.5820787666 0.8064086109
7800253200.0 0.5925244541 0.7984962342
7850252900.0 0.6024081484 0.7914134412
7900252600.0 0.6137358037 0.7825569433
7950252300.0 0.622337308 0.7762048655
8000252000.0 0.6320264579 0.768633039
8050251700.0 0.6428142422 0.7605226642
8100251400.0 0.6525497615 0.752577572
8150251100.0 0.6622374023 0.7442203986
8200250800.0 0.6722481821 0.7358439531
8250250500.0 0.6808523064 0.728105685
8300250200.0 0.6898337388 0.7198387582
8350249900.0 0.6991625203 0.7107615784
8400249600.0 0.7066613139 0.7027992856
8450249300.0 0.7156926997 0.6941735065
8500249000.0 0.7242808802 0.6854507112
8550248700.0 0.7327849719 0.6762751408
8600248400.0 0.7410869473 0.6668884337
8650248100.0 0.7486518504 0.6575132318
8700247800.0 0.7579327535 0.6463456799
8750247500.0 0.7662404161 0.6363054892
8800247200.0 0.7741538974 0.6260952532
8850246900.0 0.7829129764 0.6147279492
8900246600.0 0.7914021243 0.6031778939
8950246300.0 0.8003771248 0.5904603515
9000246000.0 0.808992955 0.5786130446
9050245700.0 0.8173828527 0.5662915938
9100245400.0 0.8258992952 0.5541850818
9150245100.0 0.8345643805 0.5414569818
9200244800.0 0.8436531239 0.527069034
9250244500.0 0.8530671495 0.5123502213
9300244200.0 0.8608783225 0.4989307059
9350243900.0 0.8687440712 0.4855656933
9400243600.0 0.8752376712 0.4739672987
9450243300.0 0.8809044166 0.4634609201
9500243000.0 0.8873254181 0.451990219
9550242700.0 0.8911573102 0.4445679027
9600242400.0 0.8956211354 0.4369385475
9650242100.0 0.8996232759 0.4298618558
9700241800.0 0.9046666172 0.4213816035
9750241500.0 0.9087883762 0.4140719003
9800241200.0 0.913896205 0.4042669008
9850240900.0 0.9199047612 0.3923978017
9900240600.0 0.9256444498 0.3804575244
9950240300.0 0.9330749415 0.3635484217
10000240000.0 0.9378339419 0.3516024943
10050239700.0 0.9439229156 0.3357306816
10100239400.0 0.9494391927 0.3188120173
10150239100.0 0.9542800573 0.3034742879
10200238800.0 0.9584007549 0.2880014227
10250238500.0 0.9615736374 0.274476602
10300238200.0 0.9647214141 0.2604738685
10350237900.0 0.9674288794 0.2472102453
10400237600.0 0.9699969304 0.2336652719
10450237300.0 0.9726416693 0.2201756215
10500237000.0 0.975190576 0.2073989316
10550236700.0 0.9772705821 0.1930189283
10600236400.0 0.9793184178 0.1792228429
10650236100.0 0.9813772609 0.1653736612
10700235800.0 0.9841250317 0.1523274605
10750235500.0 0.9861092868 0.1390439265
10800235200.0 0.9878251524 0.1247862679
10850234900.0 0.9897643368 0.1095972592
10900234600.0 0.9921887594 0.09444661
10950234300.0 0.9937605063 0.0811754605
11000234000.0 0.995648374 0.065509439
11050233700.0 0.9974444247 0.0487261742
11100233400.0 0.9989225035 0.0311915664
11150233100.0 0.9999115138 0.0142267258
11200232800.0 1.000538246 -0.0016002071
11250232500.0 1.001832232 -0.0191252151
11300232200.0 1.002010566 -0.0387563465
11350231900.0 1.002285931 -0.0544002842
11400231600.0 1.001703243 -0.0698241961
11450231300.0 1.001241074 -0.0857598304
11500231000.0 1.000142524 -0.1027198764
11550230700.0 0.9985635238 -0.1147092883
11600230400.0 0.9971793634 -0.1279405374
11650230100.0 0.9946650208 -0.1399450702
11700229800.0 0.9927296562 -0.1550597639
11750229500.0 0.9903620798 -0.1688637083
11800229200.0 0.9875089693 -0.1822276192
11850228900.0 0.9835043338 -0.1937790799
11900228600.0 0.9799193378 -0.2030450456
11950228300.0 0.9763626526 -0.2137202374
12000228000.0 0.9736916672 -0.2220026682
12050227700.0 0.9698083884 -0.2343724918
12100227400.0 0.9666787484 -0.2457830132
12150227100.0 0.9615602359 -0.2627251392
12200226800.0 0.9577713477 -0.2735019123
12250226500.0 0.9540565139 -0.2859747496
12300226200.0 0.9498400456 -0.2985214947
12350225900.0 0.9440533889 -0.3121359832
12400225600.0 0.9403178692 -0.3243669836
12450225300.0 0.9358870182 -0.3373141006
12500225000.0 0.9300742288 -0.352226333
12550224700.0 0.9247089373 -0.3659432194
12600224400.0 0.91985999 -0.3785565511
12650224100.0 0.9140474915 -0.3927886409
12700223800.0 0.9087729578 -0.4055826612
12750223500.0 0.903185055 -0.4188966077
12800223200.0 0.8979323129 -0.4314203093
12850222900.0 0.8926758173 -0.4437981316
12900222600.0 0.8871815598 -0.4555044643
12950222300.0 0.8810820542 -0.4685947382
13000222000.0 0.875167558 -0.4801837013
13050221700.0 0.8685061736 -0.492428517
13100221400.0 0.8612581474 -0.5043390052
13150221100.0 0.8549183219 -0.5170308902
13200220800.0 0.8478017897 -0.5280804587
13250220500.0 0.8402530747 -0.5406227647
13300220200.0 0.8327971171 -0.5512695503
13350219900.0 0.8247800564 -0.5633024279
13400219600.0 0.8163082277 -0.5753305012
13450219300.0 0.8071564139 -0.5882333273
13500219000.0 0.7975415475 -0.601252861
13550218700.0 0.7876860494 -0.6133195164
13600218400.0 0.7770079201 -0.6255089575
13650218100.0 0.7678365178 -0.6362723066
13700217800.0 0.7566675208 -0.6481057323
13750217500.0 0.7475318229 -0.6596635954
13800217200.0 0.735832872 -0.6695226131
13850216900.0 0.7258631235 -0.6813281639
13900216600.0 0.7159621809 -0.6903693876
13950216300.0 0.7050817571 -0.6999769447
14000216000.0 0.6955905382 -0.7086320872
14050215700.0 0.6859188957 -0.716444018
14100215400.0 0.6767018364 -0.7264671164
14150215100.0 0.6674281603 -0.7352458421
14200214800.0 0.6580646505 -0.7440786969
14250214500.0 0.64763319 -0.7534061914
14300214200.0 0.6371100529 -0.7629232675
14350213900.0 0.6260269222 -0.7725406576
14400213600.0 0.6144536773 -0.7822939124
14450213300.0 0.6012939833 -0.7926674733
14500213000.0 0.5881421128 -0.8022445014
14550212700.0 0.5760553626 -0.8119416289
14600212400.0 0.5633421706 -0.8205846844
14650212100.0 0.5512267483 -0.8293822829
14700211800.0 0.5371894805 -0.8387290455
14750211500.0 0.5254168717 -0.8469673578
14800211200.0 0.5127842228 -0.8554852902
14850210900.0 0.5003263245 -0.8632267645
14900210600.0 0.4868575038 -0.871198436
14950210300.0 0.4735778224 -0.8786248101
15000210000.0 0.461026997 -0.8851791473
15050209700.0 0.4484142175 -0.8912857606
15100209400.0 0.4357381185 -0.8970287654
15150209100.0 0.4235907397 -0.9025240086
15200208800.0 0.4118276249 -0.9075122558
15250208500.0 0.4004567733 -0.9125410502
15300208200.0 0.3882269928 -0.9173805086
15350207900.0 0.3745083315 -0.9220200172
15400207600.0 0.3598179287 -0.9279253278
15450207300.0 0.3455200643 -0.9322046856
15500207000.0 0.3310140654 -0.9368510358
15550206700.0 0.3155363357 -0.9419807287
15600206400.0 0.3000948427 -0.9462865126
15650206100.0 0.284169925 -0.9507125418
15700205800.0 0.2704258994 -0.9542406418
15750205500.0 0.2564559301 -0.9576069417
15800205200.0 0.2425670213 -0.961114955
15850204900.0 0.2283833081 -0.9645292964
15900204600.0 0.2132113012 -0.9681485293
15950204300.0 0.1991193668 -0.9711727308
16000204000.0 0.184546925 -0.9745759152
16050203700.0 0.1693642724 -0.9775008659
16100203400.0 0.1545192843 -0.9794900753
16150203100.0 0.1397942787 -0.9820044747
16200202800.0 0.1249356839 -0.9843847806
16250202500.0 0.1105675332 -0.9858416571
16300202200.0 0.094715142 -0.9879764979
16350201900.0 0.07984159 -0.9891712388
16400201600.0 0.0652738559 -0.9900857469
16450201300.0 0.0498760589 -0.9912967126
16500201000.0 0.0327412358 -0.9921793624
16550200700.0 0.0167400775 -0.9925787183
16600200400.0 0.0006776579 -0.9926146098
16650200100.0 -0.0153540045 -0.9925224722
16700199800.0 -0.0317383509 -0.9923082125
16750199500.0 -0.050846634 -0.9917263815
16800199200.0 -0.0666899348 -0.9905724934
16850198900.0 -0.0822114764 -0.9888547705
16900198600.0 -0.0965589282 -0.9883571426
16950198300.0 -0.1102826671 -0.9876255016
17000198000.0 -0.1228681565 -0.9862874993
17050197700.0 -0.1357068335 -0.9841144023
17100197400.0 -0.1484747599 -0.9822230386
17150197100.0 -0.1614641276 -0.9798305973
17200196800.0 -0.1744054161 -0.9779555349
17250196500.0 -0.187390254 -0.9752945985
17300196200.0 -0.1993916203 -0.9729239732
17350195900.0 -0.211168088 -0.9706996151
17400195600.0 -0.223179365 -0.9680539668
17450195300.0 -0.2360676078 -0.9652313143
17500195000.0 -0.249263925 -0.9621022889
17550194700.0 -0.2630062595 -0.9584789015
17600194400.0 -0.2768493892 -0.9546587614
17650194100.0 -0.2904475073 -0.9506462668
17700193800.0 -0.3032247293 -0.9462591544
17750193500.0 -0.317541674 -0.9417090371
17800193200.0 -0.3320589833 -0.9362858594
17850192900.0 -0.3470448178 -0.931112437
17900192600.0 -0.3621986192 -0.9249079976
17950192300.0 -0.377327436 -0.9175940809
18000192000.0 -0.3921503855 -0.9109450393
18050191700.0 -0.4059286101 -0.9028029569
18100191400.0 -0.4199261225 -0.8950652826
18150191100.0 -0.4347581841 -0.8870356535
18200190800.0 -0.4515290401 -0.8779228487
18250190500.0 -0.4686920425 -0.8683770283
18300190200.0 -0.4841745743 -0.8596558002
18350189900.0 -0.4993831958 -0.8515555868
18400189600.0 -0.5140059202 -0.8430695004
18450189300.0 -0.5268605702 -0.8346428491
18500189000.0 -0.5404903044 -0.8265978339
18550188700.0 -0.5534598993 -0.8191074394
18600188400.0 -0.5652234308 -0.8125779827
18650188100.0 -0.576405404 -0.8059811663
18700187800.0 -0.5878876917 -0.799320858
18750187500.0 -0.5984843496 -0.7923427091
18800187200.0 -0.6092435978 -0.7852732449
18850186900.0 -0.6194150796 -0.7783020788
18900186600.0 -0.629628218 -0.7710954576
18950186300.0 -0.6400919398 -0.7632754317
19000186000.0 -0.6474482525 -0.7569626243
19050185700.0 -0.6566980234 -0.7497021119
19100185400.0 -0.6665996891 -0.7415800479
19150185100.0 -0.6768876338 -0.7340490704
19200184800.0 -0.6867892087 -0.7258771591
19250184500.0 -0.69695083 -0.7162274263
19300184200.0 -0.7082062902 -0.7063422107
19350183900.0 -0.7188203197 -0.6973063803
19400183600.0 -0.7289812881 -0.686949982
19450183300.0 -0.737373861 -0.6769762145
19500183000.0 -0.7458362483 -0.6667950141
19550182700.0 -0.7549359982 -0.6555187922
19600182400.0 -0.765941271 -0.6440759994
19650182100.0 -0.7759285698 -0.6319133513
19700181800.0 -0.7867298615 -0.6189345896
19750181500.0 -0.7971017898 -0.6045644585
19800181200.0 -0.8072156721 -0.589437994
19850180900.0 -0.8167489447 -0.5741243569
19900180600.0 -0.8243040327 -0.5597315533
19950180300.0 -0.8334390451 -0.5432857339
20000180000.0 -0.8232193888 -0.5464570855
20050179700.0 -0.8311932108 -0.5347669252
20100179400.0 -0.8395676189 -0.5212720651
20150179100.0 -0.847198338 -0.5099310538
20200178800.0 -0.855875514 -0.4972265254
20250178500.0 -0.865681921 -0.4854102175
20300178200.0 -0.8747112376 -0.4719171469
20350177900.0 -0.8847135488 -0.4580156485
20400177600.0 -0.8932420619 -0.4436574648
20450177300.0 -0.9018159354 -0.4292723357
20500177000.0 -0.9099764879 -0.4154891863
20550176700.0 -0.9179359763 -0.401860826
20600176400.0 -0.9246323414 -0.3890902399
20650176100.0 -0.9313596576 -0.3763556934
20700175800.0 -0.9375939043 -0.3644160582
20750175500.0 -0.9450615503 -0.3538956754
20800175200.0 -0.9495118355 -0.342288457
20850174900.0 -0.9535971108 -0.3311694452
20900174600.0 -0.9565180553 -0.320997151
20950174300.0 -0.9613010542 -0.3104906313
21000174000.0 -0.9641666701 -0.2988379113
21050173700.0 -0.9655156619 -0.2890459137
21100173400.0 -0.9687279575 -0.2794447213
21150173100.0 -0.972820751 -0.2671385348
21200172800.0 -0.9766676025 -0.2539950196
21250172500.0 -0.9802548803 -0.2405803783
21300172200.0 -0.9837462526 -0.2264015331
21350171900.0 -0.9857545342 -0.211941489
21400171600.0 -0.9881306138 -0.1974835829
21450171300.0 -0.9889207321 -0.1834604629
21500171000.0 -0.9894180405 -0.168640108
21550170700.0 -0.9897659181 -0.1532385173
21600170400.0 -0.9905593566 -0.138820282
21650170100.0 -0.9899989155 -0.1223625747
21700169800.0 -0.9901051773 -0.1075216688
21750169500.0 -0.9889765775 -0.0911436654
21800169200.0 -0.989978499 -0.0734331745
21850168900.0 -0.9898709147 -0.0581978774
21900168600.0 -0.989455202 -0.0415608888
21950168300.0 -0.9889402641 -0.0252703724
22000168000.0 -0.9889603613 -0.0111486154
22050167700.0 -0.9897772225 0.0038753206
22100167400.0 -0.9903805213 0.0198727118
22150167100.0 -0.9913800144 0.0359764367
22200166800.0 -0.9920589835 0.0526361022
22250166500.0 -0.9917287668 0.0697407575
22300166200.0 -0.9910255299 0.0856569078
22350165900.0 -0.9894510697 0.1028233146
22400165600.0 -0.9887034994 0.1178790192
22450165300.0 -0.9858382144 0.1324637676
22500165000.0 -0.985110378 0.1471040339
22550164700.0 -0.983200939 0.1634396157
22600164400.0 -0.981441055 0.1798006783
22650164100.0 -0.9784749113 0.1954848015
22700163800.0 -0.975559372 0.2112624967
22750163500.0 -0.9723120842 0.2259336576
22800163200.0 -0.9695869657 0.2391082937
22850162900.0 -0.9671238478 0.2528037903
22900162600.0 -0.9648845978 0.2666894468
22950162300.0 -0.9631543335 0.2804298361
23000162000.0 -0.9612418355 0.2931438556
23050161700.0 -0.9587108135 0.3067524896
23100161400.0 -0.9558672563 0.3197506904
23150161100.0 -0.9530563089 0.3328826773
23200160800.0 -0.9498451118 0.34557895
23250160500.0 -0.9470975871 0.3584299675
23300160200.0 -0.9445329398 0.3713949078
23350159900.0 -0.9401401094 0.3850917791
23400159600.0 -0.9351123151 0.3979127388
23450159300.0 -0.9299281514 0.4122005314
23500159000.0 -0.9248717794 0.4258159004
23550158700.0 -0.9202161649 0.4401438982
23600158400.0 -0.9137153695 0.454277421
23650158100.0 -0.9066053424 0.4690181198
23700157800.0 -0.8980773304 0.4833046884
23750157500.0 -0.8885766336 0.49751073
23800157200.0 -0.8787838228 0.5111407367
23850156900.0 -0.8692087076 0.5239878765
23900156600.0 -0.8591701567 0.5366921938
23950156300.0 -0.8491406516 0.5492234045
24000156000.0 -0.839512824 0.5617097228
24050155700.0 -0.8286261112 0.5745513703
24100155400.0 -0.8188943063 0.5861890488
24150155100.0 -0.8082570627 0.5982451226
24200154800.0 -0.7965483577 0.6094037677
24250154500.0 -0.7854861076 0.6227526869
24300154200.0 -0.7744710824 0.6346379902
24350153900.0 -0.7621890497 0.6454807799
24400153600.0 -0.7497113341 0.6563319034
24450153300.0 -0.7377080373 0.6663598049
24500153000.0 -0.7256941227 0.6767593331
24550152700.0 -0.7146647938 0.6867782784
24600152400.0 -0.7024274876 0.696155549
24650152100.0 -0.6891574668 0.7041577044
