!Created with skrf (http://scikit-rf.org).
# Hz S RI R 50.0 
!freq ReS11 ImS11
300000.0 -0.9727208393 -0.1251145774
50299700.0 -1.000055544 0.0148128
100299400.0 -0.9978472405 0.0279582765
150299100.0 -1.00265813 0.0447465464
200298800.0 -0.9996256991 0.0580660302
250298500.0 -0.9972893984 0.0715920532
300298200.0 -0.9859036637 0.0873437456
350297900.0 -0.9939549554 0.0983795516
400297600.0 -0.9932656094 0.1150370143
450297300.0 -0.9909361384 0.1286584665
500297000.0 -0.9894242733 0.14340898
550296700.0 -0.9842631666 0.1558100884
600296400.0 -1.017390406 0.1891831967
650296100.0 -0.9823162909 0.1858257084
700295800.0 -0.979282353 0.2001376427
750295500.0 -0.97633426 0.2136876449
800295200.0 -0.9728908176 0.2281271952
850294900.0 -0.9693893142 0.2418826079
900294600.0 -0.9657882417 0.2556575044
950294300.0 -0.9621586877 0.269267429
1000294000.0 -0.9581080243 0.2830711217
1050293700.0 -0.9534696887 0.2970934377
1100293400.0 -0.9493718598 0.3113702124
1150293100.0 -0.9455955218 0.323377678
1200292800.0 -0.9401869202 0.3377052515
1250292500.0 -0.9347688558 0.3513007882
1300292200.0 -0.9291820123 0.3643648668
1350291900.0 -0.9234330073 0.3785701045
1400291600.0 -0.9180207087 0.3916301512
1450291300.0 -0.9125703597 0.4040414796
1500291000.0 -0.9062071387 0.4172650729
1550290700.0 -0.8998963699 0.4307357882
1600290400.0 -0.8934702906 0.4435944586
1650290100.0 -0.8869217435 0.455679549
1700289800.0 -0.8798955847 0.4691575624
1750289500.0 -0.8730489482 0.48135963
1800289200.0 -0.865521548 0.4944492965
1850288900.0 -0.858797845 0.5056420295
1900288600.0 -0.8511428267 0.5188937819
1950288300.0 -0.8429596097 0.5312619525
2000288000.0 -0.8356111094 0.542732871
2050287700.0 -0.8270855757 0.555297262
2100287400.0 -0.8194801123 0.5665531998
2150287100.0 -0.8108797377 0.5784779361
2200286800.0 -0.8030956872 0.5892783601
2250286500.0 -0.7940075921 0.6014131004
2300286200.0 -0.7851311783 0.6129278199
2350285900.0 -0.776868741 0.6232189403
2400285600.0 -0.768093869 0.6343172509
2450285300.0 -0.7591679566 0.645112589
2500285000.0 -0.7492746666 0.656651752
2550284700.0 -0.740302063 0.6670104781
2600284400.0 -0.7311161098 0.6770866964
2650284100.0 -0.7224566524 0.6870698338
2700283800.0 -0.7119342482 0.6976381887
2750283500.0 -0.701501738 0.7081073149
2800283200.0 -0.6917559615 0.718190157
2850282900.0 -0.681161462 0.7280134753
2900282600.0 -0.6708479171 0.7378955909
2950282300.0 -0.6603756977 0.7473407231
3000282000.0 -0.6496649207 0.7565639296
3050281700.0 -0.6384512205 0.7658786053
3100281400.0 -0.6269687443 0.7750879518
3150281100.0 -0.6155940047 0.7837341909
3200280800.0 -0.6042977419 0.7922534852
3250280500.0 -0.5930036103 0.8001879549
3300280200.0 -0.581482638 0.8085121376
3350279900.0 -0.5692086311 0.8165961004
3400279600.0 -0.556487602 0.8246689216
3450279300.0 -0.5455058491 0.8318316254
3500279000.0 -0.5337710617 0.8383918723
3550278700.0 -0.5216627134 0.8456956622
3600278400.0 -0.5097954283 0.8523976183
3650278100.0 -0.4967116375 0.8600238574
3700277800.0 -0.4849132214 0.8664400035
3750277500.0 -0.4721894282 0.8731666396
3800277200.0 -0.4596303762 0.8797326414
3850276900.0 -0.447755702 0.885504223
3900276600.0 -0.4368698998 0.8912970004
3950276300.0 -0.4247946102 0.896988471
4000276000.0 -0.4132308908 0.903163693
4050275700.0 -0.400454203 0.9089354462
4100275400.0 -0.3896858386 0.9146384326
4150275100.0 -0.376042985 0.9207544565
4200274800.0 -0.3624742815 0.9263154873
4250274500.0 -0.349822026 0.931490226
4300274200.0 -0.3367870093 0.9370165947
4350273900.0 -0.3224456513 0.942321571
4400273600.0 -0.307561556 0.9471328037
4450273300.0 -0.2928698168 0.9522496273
4500273000.0 -0.2797773601 0.9565311019
4550272700.0 -0.2661169324 0.9605446984
4600272400.0 -0.2511296711 0.9647429507
4650272100.0 -0.2397424503 0.967772629
4700271800.0 -0.2269171979 0.9710255296
4750271500.0 -0.2151282801 0.9740100814
4800271200.0 -0.2030100045 0.9766837537
4850270900.0 -0.1891730824 0.9795119761
4900270600.0 -0.1754181489 0.9818978628
4950270300.0 -0.1608744953 0.9844227698
5000270000.0 -0.1465555921 0.9867852621
5050269700.0 -0.1328195303 0.988288049
5100269400.0 -0.1185894227 0.9893707598
5150269100.0 -0.1047840174 0.9919223839
5200268800.0 -0.0913794218 0.9928092565
5250268500.0 -0.0782162243 0.9937851588
5300268200.0 -0.0646582699 0.994368304
5350267900.0 -0.0512973619 0.9956309904
5400267600.0 -0.0356499375 0.9962938178
5450267300.0 -0.0221224403 0.9965530055
5500267000.0 -0.006673415 0.996986539
5550266700.0 0.0084680394 0.9972057183
5600266400.0 0.0241919459 0.9971153941
5650266100.0 0.0405487782 0.9968882634
5700265800.0 0.0549000762 0.996179869
5750265500.0 0.0696183029 0.9949968065
5800265200.0 0.0833247144 0.9940720427
5850264900.0 0.09653163 0.9931501944
5900264600.0 0.1130492887 0.9913919986
5950264300.0 0.124436186 0.9900282065
6000264000.0 0.1381557743 0.9880509536
6050263700.0 0.1493536295 0.9862686933
6100263400.0 0.1618383283 0.9849130192
6150263100.0 0.1766526915 0.9828730923
6200262800.0 0.1862353341 0.9811160207
6250262500.0 0.1986256987 0.9787249809
6300262200.0 0.2107953213 0.9761825433
6350261900.0 0.2238010585 0.9735540249
6400261600.0 0.2375401393 0.9702817798
6450261300.0 0.2484614282 0.9678040682
6500261000.0 0.2619750353 0.9641727433
6550260700.0 0.2751880031 0.960072338
6600260400.0 0.2886568061 0.956054136
6650260100.0 0.3030118246 0.9517994468
6700259800.0 0.3149243076 0.9473657455
6750259500.0 0.3286525632 0.9427978038
6800259200.0 0.3420186672 0.9372272628
6850258900.0 0.3548560988 0.9321692872
6900258600.0 0.3673433372 0.9270137225
6950258300.0 0.3795560119 0.9213450732
7000258000.0 0.3911758392 0.9162901896
7050257700.0 0.4030958162 0.9105517126
7100257400.0 0.4166980145 0.9040680581
7150257100.0 0.4274234218 0.8986702077
7200256800.0 0.4403227097 0.8921131513
7250256500.0 0.4526861113 0.8854146561
7300256200.0 0.4660131692 0.8788393159
7350255900.0 0.4786469632 0.8715845698
7400255600.0 0.4929796812 0.8638949404
7450255300.0 0.5085511118 0.8547053971
7500255000.0 0.5212985368 0.8475266171
7550254700.0 0.5355623285 0.838235041
7600254400.0 0.5482178559 0.8299139689
7650254100.0 0.5594131588 0.8220682103
7700253800.0 0.571193867 0.8139050556
7750253500.0 0.5822584032 0.8063550943
7800253200.0 0.5927171771 0.7983463515
7850252900.0 0.6025057151 0.791094907
7900252600.0 0.6139999362 0.7824367354
7950252300.0 0.622383711 0.7761377797
8000252000.0 0.6321663585 0.7684840849
8050251700.0 0.6426076022 0.7603508226
8100251400.0 0.6527590054 0.7525311239
8150251100.0 0.6622683209 0.7440563755
8200250800.0 0.6723174773 0.7358279553
8250250500.0 0.6807118233 0.7278810706
8300250200.0 0.6898477597 0.7196947266
8350249900.0 0.699390184 0.7105860171
8400249600.0 0.7072772016 0.7028235341
8450249300.0 0.7158086175 0.6942413761
8500249000.0 0.7244062701 0.6852568516
8550248700.0 0.7327933714 0.676262566
8600248400.0 0.7411369826 0.6669033649
8650248100.0 0.7485512769 0.6574030312
8700247800.0 0.7579491361 0.6463916075
8750247500.0 0.7661257817 0.6361474813
8800247200.0 0.7742156179 0.6259311898
8850246900.0 0.782956991 0.614535704
8900246600.0 0.791313751 0.6031106531
8950246300.0 0.8002655699 0.5906053999
9000246000.0 0.8090163797 0.5786710936
9050245700.0 0.8173876276 0.566259609
9100245400.0 0.8259230193 0.5541179473
9150245100.0 0.834678645 0.5413678516
9200244800.0 0.8441038823 0.5271658135
9250244500.0 0.8531748857 0.5121234927
9300244200.0 0.8612465406 0.4987692486
9350243900.0 0.8689164864 0.485579838
9400243600.0 0.8753801801 0.4739079821
9450243300.0 0.8809473069 0.4634015374
9500243000.0 0.8871645032 0.4518572016
9550242700.0 0.8912916857 0.4445668517
9600242400.0 0.8954894729 0.4370879161
9650242100.0 0.8995388608 0.4299130474
9700241800.0 0.9046922981 0.4212004497
9750241500.0 0.9089010325 0.4138224391
9800241200.0 0.9138567878 0.4040085758
9850240900.0 0.9195200421 0.3926266214
9900240600.0 0.9256248106 0.3805789585
9950240300.0 0.9328410955 0.3636440798
10000240000.0 0.937885357 0.3514939481
10050239700.0 0.9441692241 0.3352439912
10100239400.0 0.9493888194 0.3191902675
10150239100.0 0.9539178475 0.3034634075
10200238800.0 0.9581892677 0.2880321746
10250238500.0 0.9615365555 0.2742566252
10300238200.0 0.9647745736 0.2603521466
10350237900.0 0.9673549924 0.2471441841
10400237600.0 0.9701081316 0.2336616243
10450237300.0 0.9729100169 0.2199136796
10500237000.0 0.974946861 0.2075006165
10550236700.0 0.9774859015 0.1929744806
10600236400.0 0.9795990737 0.1792754723
10650236100.0 0.9813627874 0.1649460224
10700235800.0 0.9836282268 0.1522171105
10750235500.0 0.985834233 0.1385484692
10800235200.0 0.9880646746 0.1241847212
10850234900.0 0.9898006923 0.1095063269
10900234600.0 0.9921057161 0.0945343776
10950234300.0 0.9938632687 0.081123955
11000234000.0 0.995722182 0.0653812045
11050233700.0 0.9974758034 0.0485714807
11100233400.0 0.9990863055 0.031037886
11150233100.0 1.000231129 0.0141187502
11200232800.0 1.000835351 -0.0016284983
11250232500.0 1.002060912 -0.0207494432
11300232200.0 1.002407859 -0.0387543296
11350231900.0 1.001993722 -0.0541157482
11400231600.0 1.002379383 -0.0707063344
11450231300.0 1.001464069 -0.0857677874
11500231000.0 0.9998812107 -0.1022065074
11550230700.0 0.9981993962 -0.1153282289
11600230400.0 0.996822272 -0.1275882665
11650230100.0 0.9945905087 -0.1400714848
11700229800.0 0.9923307177 -0.1551829148
11750229500.0 0.9901840495 -0.1690515483
11800229200.0 0.9873026757 -0.182297891
11850228900.0 0.9834126842 -0.194028476
11900228600.0 0.9797180699 -0.2035828556
11950228300.0 0.97644698 -0.2135528555
12000228000.0 0.9739640159 -0.221657977
12050227700.0 0.9694820842 -0.2351821624
12100227400.0 0.9669857596 -0.2457107524
12150227100.0 0.9614960773 -0.2626686404
12200226800.0 0.9578664599 -0.2742554669
12250226500.0 0.9532441292 -0.287065204
12300226200.0 0.9494564964 -0.2984743188
12350225900.0 0.9447886202 -0.3127429896
12400225600.0 0.9401551098 -0.3256160852
12450225300.0 0.9356846079 -0.3374339468
12500225000.0 0.9300050427 -0.3523177059
12550224700.0 0.92440888 -0.3658174404
12600224400.0 0.919769191 -0.3783995054
12650224100.0 0.9140640473 -0.3929973598
12700223800.0 0.9086461879 -0.4056360915
12750223500.0 0.9032774453 -0.4186423301
12800223200.0 0.8978216821 -0.4313230604
12850222900.0 0.8926905869 -0.443598547
12900222600.0 0.8870780033 -0.4555938171
12950222300.0 0.8808321886 -0.4681418666
13000222000.0 0.8747878098 -0.4799073625
13050221700.0 0.8679787578 -0.4927703975
13100221400.0 0.8614853803 -0.5051694296
13150221100.0 0.8545739633 -0.517001175
13200220800.0 0.8473777961 -0.5281932142
13250220500.0 0.8400721239 -0.5408165173
13300220200.0 0.8326351098 -0.5515499004
13350219900.0 0.8244243231 -0.563379877
13400219600.0 0.8159879488 -0.575467398
13450219300.0 0.806684307 -0.5884526553
13500219000.0 0.7973625138 -0.6012394464
13550218700.0 0.7874882988 -0.6135490666
13600218400.0 0.776970918 -0.6261602126
13650218100.0 0.7681807408 -0.6362562299
13700217800.0 0.756859439 -0.647818694
13750217500.0 0.7471633324 -0.6597229499
13800217200.0 0.7365936609 -0.6699114447
13850216900.0 0.7256275457 -0.6821387082
13900216600.0 0.7151622544 -0.6904524316
13950216300.0 0.7055147426 -0.7004519293
14000216000.0 0.6948087009 -0.7092566673
14050215700.0 0.6859980883 -0.7170467713
14100215400.0 0.6768464316 -0.7263026127
14150215100.0 0.6676222276 -0.7352369902
14200214800.0 0.6579580556 -0.7440972841
14250214500.0 0.6475410359 -0.7534667626
14300214200.0 0.6372937665 -0.7629803112
14350213900.0 0.6258702924 -0.7724494954
14400213600.0 0.6140456348 -0.7825486331
14450213300.0 0.6014238713 -0.7925435359
14500213000.0 0.5882395216 -0.8024307282
14550212700.0 0.5755487001 -0.8119462643
14600212400.0 0.5632620036 -0.8204185966
14650212100.0 0.5506213736 -0.8292258195
14700211800.0 0.537383935 -0.8385917426
14750211500.0 0.5248812057 -0.8469727774
14800211200.0 0.5124800014 -0.8554463576
14850210900.0 0.499996724 -0.8632199764
14900210600.0 0.486638943 -0.8710210532
14950210300.0 0.4732034204 -0.8786052575
15000210000.0 0.4606735828 -0.8852941989
15050209700.0 0.4485094542 -0.8914234784
15100209400.0 0.4358164926 -0.8977020051
15150209100.0 0.423627105 -0.9024653072
15200208800.0 0.4110402087 -0.908230206
15250208500.0 0.3996082324 -0.9129045626
15300208200.0 0.3883469192 -0.9173219456
15350207900.0 0.3745376023 -0.9224424336
15400207600.0 0.3591659855 -0.9273235501
15450207300.0 0.3447937275 -0.9320117603
15500207000.0 0.3305929878 -0.9365048367
15550206700.0 0.3156706575 -0.9413961132
15600206400.0 0.3000346396 -0.946514992
15650206100.0 0.2839947781 -0.9508730551
15700205800.0 0.2707080985 -0.9540119069
15750205500.0 0.2564483764 -0.9576307503
15800205200.0 0.2423470124 -0.9611977442
15850204900.0 0.2280862521 -0.9645894925
15900204600.0 0.2130037472 -0.9682362995
15950204300.0 0.1986265372 -0.9714418049
16000204000.0 0.1842921693 -0.97427136
16050203700.0 0.1691939787 -0.9774929225
16100203400.0 0.1541965322 -0.9799647654
16150203100.0 0.1393872679 -0.9818067266
16200202800.0 0.1254873751 -0.9844410722
16250202500.0 0.1103519304 -0.9862940384
16300202200.0 0.0948976417 -0.9877271092
16350201900.0 0.0798596662 -0.9890466867
16400201600.0 0.0655189565 -0.9899634839
16450201300.0 0.0498385721 -0.9910506798
16500201000.0 0.0326017126 -0.9919823121
16550200700.0 0.0165260162 -0.9925506584
16600200400.0 0.000550511 -0.9926734067
16650200100.0 -0.015602441 -0.9925921957
16700199800.0 -0.0318991722 -0.9922325684
16750199500.0 -0.0509227475 -0.9917454641
16800199200.0 -0.067148641 -0.9906942584
16850198900.0 -0.0829353926 -0.9892042748
16900198600.0 -0.0966687768 -0.9890232383
16950198300.0 -0.110324281 -0.9871726893
17000198000.0 -0.1234995528 -0.9859395981
17050197700.0 -0.1359832014 -0.9844250527
17100197400.0 -0.1490306186 -0.9818818618
17150197100.0 -0.1612727654 -0.9799650101
17200196800.0 -0.1747754108 -0.9778814407
17250196500.0 -0.1872251186 -0.9751964241
17300196200.0 -0.1995685655 -0.9728198727
17350195900.0 -0.2113635233 -0.9706595111
17400195600.0 -0.2231073252 -0.9681686752
17450195300.0 -0.2361930699 -0.9652888642
17500195000.0 -0.2495535278 -0.9618242454
17550194700.0 -0.2631307244 -0.958389503
17600194400.0 -0.2769851795 -0.9547181813
17650194100.0 -0.2904255372 -0.9505398954
17700193800.0 -0.3035457885 -0.946152498
17750193500.0 -0.3171958553 -0.9418259207
17800193200.0 -0.3317044211 -0.9368484889
17850192900.0 -0.3468638126 -0.930858789
17900192600.0 -0.3618409591 -0.9250570382
17950192300.0 -0.3774512774 -0.9178222183
18000192000.0 -0.3920804003 -0.9103720007
18050191700.0 -0.4059903452 -0.9025431917
18100191400.0 -0.4200580961 -0.8950144071
18150191100.0 -0.4348100273 -0.8867883799
18200190800.0 -0.451674106 -0.8775883582
18250190500.0 -0.4687732643 -0.8684657486
18300190200.0 -0.484019731 -0.8592817777
18350189900.0 -0.4994122263 -0.8509125753
18400189600.0 -0.5136803506 -0.8423756655
18450189300.0 -0.5273847741 -0.8349410399
18500189000.0 -0.5409005826 -0.8264919573
18550188700.0 -0.553716837 -0.8186817769
18600188400.0 -0.5657226522 -0.8121644588
18650188100.0 -0.5768779224 -0.8053511475
18700187800.0 -0.5878935216 -0.7986141116
18750187500.0 -0.5988297104 -0.7921004942
18800187200.0 -0.6095440639 -0.7852810989
18850186900.0 -0.6196994808 -0.7782347268
18900186600.0 -0.6299576313 -0.7709673105
18950186300.0 -0.6399011881 -0.7630187023
19000186000.0 -0.6477649233 -0.7570880197
19050185700.0 -0.656863886 -0.7500897451
19100185400.0 -0.6672475845 -0.7419218005
19150185100.0 -0.6769637458 -0.7330963487
19200184800.0 -0.6863958393 -0.7251965713
19250184500.0 -0.6968679909 -0.7155302512
19300184200.0 -0.70853229 -0.7061186964
19350183900.0 -0.7190551725 -0.6963882167
19400183600.0 -0.7286232671 -0.6866204726
19450183300.0 -0.7376273591 -0.6762457526
19500183000.0 -0.7459760162 -0.6663156054
19550182700.0 -0.7557844979 -0.6550585948
19600182400.0 -0.7658782288 -0.6436187906
19650182100.0 -0.7767668356 -0.6313750602
19700181800.0 -0.7870326864 -0.6179525377
19750181500.0 -0.7971593649 -0.6040949722
19800181200.0 -0.8075677077 -0.5890622667
19850180900.0 -0.8170338398 -0.5738395809
19900180600.0 -0.824802933 -0.5592483978
19950180300.0 -0.8340953053 -0.5428467547
20000180000.0 -0.8232717574 -0.5462156541
20050179700.0 -0.8311111325 -0.5337671004
20100179400.0 -0.839206139 -0.5215654028
20150179100.0 -0.8482281186 -0.5091661582
20200178800.0 -0.8559862195 -0.4976708416
20250178500.0 -0.8649632733 -0.4843447617
20300178200.0 -0.8752363029 -0.4716276821
20350177900.0 -0.8842258612 -0.4578115626
20400177600.0 -0.8935644483 -0.4435325136
20450177300.0 -0.902388046 -0.4292428037
20500177000.0 -0.9100993696 -0.4151325251
20550176700.0 -0.9178456091 -0.4018473844
20600176400.0 -0.9249756867 -0.3887830109
20650176100.0 -0.9313449551 -0.3764968304
20700175800.0 -0.9374867812 -0.3651912042
20750175500.0 -0.944950431 -0.3529310444
20800175200.0 -0.9489865341 -0.3419009055
20850174900.0 -0.9530206335 -0.3320652904
20900174600.0 -0.9580757786 -0.3205754391
20950174300.0 -0.9616846061 -0.3099115575
21000174000.0 -0.9639683093 -0.2988423574
21050173700.0 -0.9654547382 -0.2889713788
21100173400.0 -0.968821054 -0.278581691
21150173100.0 -0.9731057237 -0.266367587
21200172800.0 -0.9774627374 -0.2536192258
21250172500.0 -0.9808973897 -0.2395713964
21300172200.0 -0.9843741361 -0.2258827412
21350171900.0 -0.9865302371 -0.2112152649
21400171600.0 -0.9882043759 -0.1975294976
21450171300.0 -0.9884788266 -0.1826530589
21500171000.0 -0.9889354461 -0.1678414139
21550170700.0 -0.990404066 -0.1531052923
21600170400.0 -0.9905575313 -0.1385071587
21650170100.0 -0.9902598564 -0.1232873824
21700169800.0 -0.9902014971 -0.1072761856
21750169500.0 -0.989616575 -0.0902615855
21800169200.0 -0.9899636547 -0.0733087867
21850168900.0 -0.9901529251 -0.0573224204
21900168600.0 -0.9898653203 -0.0406455549
21950168300.0 -0.9894229487 -0.02466433
22000168000.0 -0.9893534586 -0.0108091621
22050167700.0 -0.9896911943 0.0039980657
22100167400.0 -0.9903961728 0.019872052
22150167100.0 -0.9913112434 0.0361351562
22200166800.0 -0.9921157363 0.05232305
22250166500.0 -0.9912861122 0.0694469868
22300166200.0 -0.9910372886 0.0863010793
22350165900.0 -0.9894572219 0.1025966734
22400165600.0 -0.9883567061 0.1181491096
22450165300.0 -0.9865311888 0.1333111334
22500165000.0 -0.9843750927 0.1481634784
22550164700.0 -0.9838491443 0.1637634729
22600164400.0 -0.980482216 0.18031822
22650164100.0 -0.9784612291 0.195188339
22700163800.0 -0.9749099738 0.2111705459
22750163500.0 -0.9722816397 0.2264307436
22800163200.0 -0.9692230697 0.2388821291
22850162900.0 -0.9662824625 0.2528089212
22900162600.0 -0.9648728205 0.2671701635
22950162300.0 -0.9630106076 0.2808110081
23000162000.0 -0.9612505119 0.2934378401
23050161700.0 -0.9585825177 0.3069187394
23100161400.0 -0.9550690829 0.3204106907
23150161100.0 -0.9525373616 0.3327237925
23200160800.0 -0.9501297554 0.3464368934
23250160500.0 -0.9467461927 0.3583639176
23300160200.0 -0.9444338929 0.3716096976
23350159900.0 -0.9402328141 0.384978029
23400159600.0 -0.9354516615 0.3981708295
23450159300.0 -0.929714783 0.4128635774
23500159000.0 -0.9247923772 0.4261365823
23550158700.0 -0.9202625617 0.4400907979
23600158400.0 -0.9139816986 0.4543509841
23650158100.0 -0.9068673669 0.4690573635
23700157800.0 -0.8982260772 0.4833352843
23750157500.0 -0.888707647 0.4974857992
23800157200.0 -0.8791032733 0.5108797378
23850156900.0 -0.8692943554 0.5243971774
23900156600.0 -0.8594630271 0.5366366169
23950156300.0 -0.8495623765 0.5500004792
24000156000.0 -0.8393954992 0.5612329735
24050155700.0 -0.8295156329 0.5729256727
24100155400.0 -0.8185979721 0.5861758422
24150155100.0 -0.8075471229 0.5979645418
24200154800.0 -0.7965889618 0.6096487785
24250154500.0 -0.7853368868 0.6222158707
24300154200.0 -0.7740362358 0.6344606182
24350153900.0 -0.7620200525 0.6458756627
24400153600.0 -0.7492909367 0.6563242596
24450153300.0 -0.7372225946 0.6668358553
24500153000.0 -0.725788139 0.6768858588
24550152700.0 -0.7143495158 0.6872780562
24600152400.0 -0.7023767369 0.6967906573
24650152100.0 -0.6901114047 0.7047045504
