!Created with skrf (http://scikit-rf.org).
# Hz S RI R 50.0 
!freq ReS11 ImS11
300000.0 -0.9720915269 -0.1224412633
50299700.0 -0.9999364427 0.0150639407
100299400.0 -0.9979142685 0.02787603
150299100.0 -1.002738395 0.044931857
200298800.0 -0.999607926 0.0581292056
250298500.0 -0.9974324256 0.071763484
300298200.0 -0.9860427836 0.0875276978
350297900.0 -0.9938490282 0.0983216413
400297600.0 -0.9931863625 0.1148073734
450297300.0 -0.9909672886 0.1285750652
500297000.0 -0.9893534361 0.1433503747
550296700.0 -0.9842548208 0.155812533
600296400.0 -1.017187161 0.1891364365
650296100.0 -0.9822110275 0.1856457874
700295800.0 -0.9794894709 0.2000491248
750295500.0 -0.9762715863 0.2139391032
800295200.0 -0.9730625294 0.2282646963
850294900.0 -0.9696946986 0.2419130129
900294600.0 -0.9657078616 0.255593881
950294300.0 -0.9621024412 0.2691990691
1000294000.0 -0.9581996663 0.2833285253
1050293700.0 -0.9536075712 0.2970710483
1100293400.0 -0.9493554476 0.311577878
1150293100.0 -0.9456490043 0.3235853078
1200292800.0 -0.9401976855 0.3378291986
1250292500.0 -0.9347930642 0.3512476807
1300292200.0 -0.9290692279 0.3644743228
1350291900.0 -0.9235315818 0.3783248764
1400291600.0 -0.917767492 0.3915759043
1450291300.0 -0.9124125461 0.4041463206
1500291000.0 -0.9062092937 0.4173762609
1550290700.0 -0.8996489749 0.4307512439
1600290400.0 -0.8935356275 0.443631727
1650290100.0 -0.8867688974 0.4556778732
1700289800.0 -0.8797043796 0.4694251437
1750289500.0 -0.8727082733 0.4815540644
1800289200.0 -0.8653860078 0.4943272381
1850288900.0 -0.8587256193 0.5059516779
1900288600.0 -0.8512403882 0.5188545785
1950288300.0 -0.8428514707 0.5313323214
2000288000.0 -0.8353308348 0.5428864481
2050287700.0 -0.8270635935 0.5553703876
2100287400.0 -0.8194279612 0.5665712766
2150287100.0 -0.810997109 0.5786804624
2200286800.0 -0.8029939594 0.5892026419
2250286500.0 -0.7942421799 0.6014619104
2300286200.0 -0.7852596552 0.6128927549
2350285900.0 -0.7768987753 0.6235354854
2400285600.0 -0.7680864178 0.6344219911
2450285300.0 -0.7591164156 0.6450327085
2500285000.0 -0.7490268474 0.6568346044
2550284700.0 -0.73989768 0.6670476977
2600284400.0 -0.7307352153 0.6768842962
2650284100.0 -0.7223981772 0.6872179201
2700283800.0 -0.7118925453 0.6978012815
2750283500.0 -0.7015790132 0.708210898
2800283200.0 -0.6913777123 0.7183434649
2850282900.0 -0.6811268646 0.7282566421
2900282600.0 -0.6707084415 0.7380990695
2950282300.0 -0.6600986639 0.747397085
3000282000.0 -0.6495672504 0.7568515618
3050281700.0 -0.6382793402 0.7660105454
3100281400.0 -0.626727828 0.7751069062
3150281100.0 -0.6154882376 0.7840384312
3200280800.0 -0.6039611902 0.7923894066
3250280500.0 -0.5928975274 0.8003329402
3300280200.0 -0.581358424 0.8086024398
3350279900.0 -0.5691524071 0.8165124088
3400279600.0 -0.5565150796 0.8246615331
3450279300.0 -0.545570718 0.8316733547
3500279000.0 -0.5337204809 0.8386331009
3550278700.0 -0.521583041 0.845764458
3600278400.0 -0.5096465785 0.8525351309
3650278100.0 -0.4967386816 0.8599527522
3700277800.0 -0.4845981824 0.8666553125
3750277500.0 -0.4722433316 0.8731479387
3800277200.0 -0.4597361293 0.879781583
3850276900.0 -0.4477114634 0.8858437509
3900276600.0 -0.4366446054 0.8914176346
3950276300.0 -0.4248621796 0.8971878898
4000276000.0 -0.4129670037 0.903102674
4050275700.0 -0.4002333928 0.9093524886
4100275400.0 -0.3891868596 0.9146467143
4150275100.0 -0.375764071 0.9204829357
4200274800.0 -0.3625386733 0.9260872598
4250274500.0 -0.349860609 0.9315357869
4300274200.0 -0.3366023334 0.9367976399
4350273900.0 -0.3223289829 0.9422219925
4400273600.0 -0.3077516502 0.947142394
4450273300.0 -0.2926517647 0.9522588721
4500273000.0 -0.2796293049 0.9564331605
4550272700.0 -0.2659872669 0.9605506429
4600272400.0 -0.2507840561 0.9649313638
4650272100.0 -0.2395729939 0.9678111213
4700271800.0 -0.2266319737 0.9711111947
4750271500.0 -0.2148535517 0.9739744576
4800271200.0 -0.2027269115 0.976706622
4850270900.0 -0.188858795 0.9795560692
4900270600.0 -0.1751690796 0.9820018456
4950270300.0 -0.1607299715 0.9846688197
5000270000.0 -0.1462474648 0.9868296831
5050269700.0 -0.1328760988 0.988204467
5100269400.0 -0.1184705162 0.9902073135
5150269100.0 -0.104568597 0.9920077252
5200268800.0 -0.0910989137 0.9929289934
5250268500.0 -0.0781369671 0.9936227017
5300268200.0 -0.0644084337 0.9949239054
5350267900.0 -0.0515951215 0.995287517
5400267600.0 -0.0354017438 0.9963416221
5450267300.0 -0.0220879441 0.9967020752
5500267000.0 -0.0066289474 0.9969294434
5550266700.0 0.0083463095 0.9973026172
5600266400.0 0.0241483075 0.9973681413
5650266100.0 0.0408403568 0.9969138359
5700265800.0 0.0547427116 0.9958626149
5750265500.0 0.0699335214 0.9954547848
5800265200.0 0.083335179 0.9941781962
5850264900.0 0.0968645295 0.9931368216
5900264600.0 0.1131414926 0.9913068488
5950264300.0 0.1247008134 0.9897590631
6000264000.0 0.1379518725 0.9877382876
6050263700.0 0.1496407968 0.9863372986
6100263400.0 0.1617501275 0.9846223795
6150263100.0 0.1766230405 0.9825086263
6200262800.0 0.1863666229 0.9810424187
6250262500.0 0.1988284218 0.978652581
6300262200.0 0.21121887 0.9761806524
6350261900.0 0.2239311727 0.9732723427
6400261600.0 0.2378301187 0.9701013669
6450261300.0 0.2488144453 0.9676124502
6500261000.0 0.2622497602 0.9638464722
6550260700.0 0.2752920945 0.9599820861
6600260400.0 0.2888354305 0.9559573479
6650260100.0 0.3028777602 0.9516067896
6700259800.0 0.3151762221 0.9473585615
6750259500.0 0.3289240775 0.9426409631
6800259200.0 0.34234702 0.9375118198
6850258900.0 0.3546530972 0.9320069803
6900258600.0 0.3672504447 0.9267234082
6950258300.0 0.3797299689 0.9215807905
7000258000.0 0.391284264 0.9161532688
7050257700.0 0.4033609122 0.9104873913
7100257400.0 0.4166833074 0.9038926975
7150257100.0 0.4274770557 0.8984426324
7200256800.0 0.4407476801 0.8920640761
7250256500.0 0.4533428793 0.8855578435
7300256200.0 0.4663187253 0.878817732
7350255900.0 0.4787673208 0.8718544097
7400255600.0 0.4932494212 0.8639335592
7450255300.0 0.5088656778 0.8549122206
7500255000.0 0.521199477 0.8472742651
7550254700.0 0.5349071918 0.8379973856
7600254400.0 0.547972217 0.8297151025
7650254100.0 0.5590262928 0.8219112779
7700253800.0 0.5711676964 0.8139440383
7750253500.0 0.5820477749 0.8062912193
7800253200.0 0.5928225815 0.798542091
7850252900.0 0.6025721715 0.7911244652
7900252600.0 0.6139224669 0.7823810522
7950252300.0 0.6224694569 0.7761306267
8000252000.0 0.6322027321 0.7682833591
8050251700.0 0.6428140067 0.7604046858
8100251400.0 0.6527261504 0.7523862655
8150251100.0 0.6625162434 0.7439169881
8200250800.0 0.6721420438 0.7356160859
8250250500.0 0.6810370365 0.7277401123
8300250200.0 0.6899098285 0.7195658786
8350249900.0 0.6991589707 0.710722746
8400249600.0 0.7071477497 0.7027406523
8450249300.0 0.7159747983 0.6939125259
8500249000.0 0.7243984147 0.6850004232
8550248700.0 0.7329570626 0.6761351318
8600248400.0 0.7412028842 0.6665164827
8650248100.0 0.7487732586 0.6571851248
8700247800.0 0.758213548 0.6459930828
8750247500.0 0.7665074887 0.6359805952
8800247200.0 0.7742834323 0.6257280201
8850246900.0 0.7829475543 0.6141905285
8900246600.0 0.7916059978 0.6028914732
8950246300.0 0.8007137216 0.5900568026
9000246000.0 0.8095390866 0.5783619998
9050245700.0 0.8178849343 0.5660858639
9100245400.0 0.8264488797 0.5536979442
9150245100.0 0.8351806222 0.5408950649
9200244800.0 0.8441761875 0.5265971648
9250244500.0 0.8533322991 0.5118781315
9300244200.0 0.8616049549 0.4981554706
9350243900.0 0.869184854 0.4849907638
9400243600.0 0.8756878858 0.4732784199
9450243300.0 0.8812724984 0.4629679471
9500243000.0 0.8876071874 0.4512690983
9550242700.0 0.8913675256 0.4437630432
9600242400.0 0.8958670571 0.4361956454
9650242100.0 0.9001054127 0.4291939358
9700241800.0 0.9045920552 0.4207344552
9750241500.0 0.9092181061 0.4129415192
9800241200.0 0.9142817267 0.4034370317
9850240900.0 0.9202108104 0.3919269263
9900240600.0 0.9261325403 0.3798244097
9950240300.0 0.9329606522 0.3631453839
10000240000.0 0.9383630393 0.3508082097
10050239700.0 0.943930775 0.3348039852
10100239400.0 0.9496930282 0.3183461926
10150239100.0 0.9539503732 0.3029611872
10200238800.0 0.9583021642 0.2874517999
10250238500.0 0.9614978487 0.2738754901
10300238200.0 0.9646899156 0.2598503675
10350237900.0 0.9674677836 0.2468334143
10400237600.0 0.9701391598 0.2330210577
10450237300.0 0.9725502847 0.2196610703
10500237000.0 0.9751195054 0.2073642549
10550236700.0 0.9774050269 0.1927171568
10600236400.0 0.9797224219 0.1787559926
10650236100.0 0.9817402875 0.1642606433
10700235800.0 0.9838820906 0.1516340955
10750235500.0 0.9857913484 0.1386887483
10800235200.0 0.9879415341 0.1244732639
10850234900.0 0.9898030906 0.1089378658
10900234600.0 0.992159763 0.094458564
10950234300.0 0.9937793873 0.0808239323
11000234000.0 0.9956537784 0.0652958398
11050233700.0 0.9974190316 0.0483852977
11100233400.0 0.9989069548 0.0308270319
11150233100.0 1.000057983 0.0139938101
11200232800.0 1.000773256 -0.0022401466
11250232500.0 1.00163642 -0.0196205968
11300232200.0 1.002134126 -0.038538434
11350231900.0 1.002319347 -0.0545169657
11400231600.0 1.001551545 -0.0701730222
11450231300.0 1.000943028 -0.0867256203
11500231000.0 0.9997659109 -0.1020643354
11550230700.0 0.9984717171 -0.114996894
11600230400.0 0.997139949 -0.1286998149
11650230100.0 0.9945626189 -0.1405177749
11700229800.0 0.99265672 -0.1551131429
11750229500.0 0.9899545146 -0.169327592
11800229200.0 0.9872332436 -0.1822041602
11850228900.0 0.9834531636 -0.1939571069
11900228600.0 0.9797864906 -0.2036371918
11950228300.0 0.9764976742 -0.2135973845
12000228000.0 0.9734672371 -0.222648531
12050227700.0 0.9699041257 -0.2354539024
12100227400.0 0.966955076 -0.246215562
12150227100.0 0.9616727001 -0.2624416453
12200226800.0 0.957912534 -0.273596464
12250226500.0 0.9536067685 -0.2864272949
12300226200.0 0.9490148955 -0.2988126002
12350225900.0 0.9446860663 -0.3123471415
12400225600.0 0.9399716776 -0.3246790878
12450225300.0 0.9358566362 -0.3370350644
12500225000.0 0.9299188512 -0.352105321
12550224700.0 0.924832884 -0.3658706983
12600224400.0 0.9198936243 -0.3787069083
12650224100.0 0.9140555666 -0.3927350447
12700223800.0 0.908721652 -0.4055484634
12750223500.0 0.9031080272 -0.4187720775
12800223200.0 0.8980350712 -0.4312076682
12850222900.0 0.8926436255 -0.4435905652
12900222600.0 0.8868255725 -0.4555415499
12950222300.0 0.8807908346 -0.468330355
13000222000.0 0.8749375419 -0.4796292425
13050221700.0 0.8680695181 -0.4925497255
13100221400.0 0.8616451485 -0.5045186294
13150221100.0 0.8545890837 -0.5170094748
13200220800.0 0.8479427907 -0.5283192239
13250220500.0 0.8403284419 -0.5404429467
13300220200.0 0.8328132803 -0.5516387937
13350219900.0 0.8244409253 -0.5634823502
13400219600.0 0.8160651271 -0.5755789591
13450219300.0 0.8067296694 -0.5883027437
13500219000.0 0.7966417988 -0.6018347535
13550218700.0 0.7870883796 -0.6138988729
13600218400.0 0.7776585229 -0.6260253402
13650218100.0 0.7673421048 -0.6367611257
13700217800.0 0.7565317266 -0.6486282664
13750217500.0 0.7474418884 -0.6595062645
13800217200.0 0.7359849122 -0.6704927312
13850216900.0 0.7253000503 -0.6814866791
13900216600.0 0.715124076 -0.6906643785
13950216300.0 0.704428429 -0.7007073688
14000216000.0 0.6953262636 -0.7094811621
14050215700.0 0.6860934202 -0.7175829783
14100215400.0 0.6763177718 -0.7267708031
14150215100.0 0.6673467265 -0.7353120746
14200214800.0 0.6576640888 -0.7443643787
14250214500.0 0.6473752181 -0.7536244404
14300214200.0 0.6368193519 -0.7631070777
14350213900.0 0.6256199131 -0.7727458092
14400213600.0 0.6141390942 -0.782640759
14450213300.0 0.600812482 -0.7929733271
14500213000.0 0.5879363701 -0.8025893925
14550212700.0 0.5752796725 -0.8118743917
14600212400.0 0.5629804396 -0.8207446326
14650212100.0 0.5510168084 -0.829248229
14700211800.0 0.536769675 -0.8394500349
14750211500.0 0.5244732539 -0.8473055279
14800211200.0 0.5118589063 -0.8556430937
14850210900.0 0.4996828227 -0.8631699987
14900210600.0 0.4864029223 -0.8711400347
14950210300.0 0.473081585 -0.878805793
15000210000.0 0.4605604325 -0.8855163954
15050209700.0 0.4480170744 -0.8918811262
15100209400.0 0.4352118951 -0.8975758216
15150209100.0 0.4227955854 -0.9027384742
15200208800.0 0.4102909016 -0.9082057781
15250208500.0 0.3986260986 -0.912679476
15300208200.0 0.3869820662 -0.9172821724
15350207900.0 0.3747139876 -0.9226680172
15400207600.0 0.3588357562 -0.9275702514
15450207300.0 0.344293068 -0.9323451192
15500207000.0 0.3297275602 -0.9371175866
15550206700.0 0.3152297583 -0.942367668
15600206400.0 0.2992360918 -0.9468159549
15650206100.0 0.283554335 -0.9508975632
15700205800.0 0.269635662 -0.9544136776
15750205500.0 0.2558223525 -0.9577313573
15800205200.0 0.2418639691 -0.9613243551
15850204900.0 0.2276613964 -0.9648007067
15900204600.0 0.2125907507 -0.9685480082
15950204300.0 0.1983666723 -0.9715907145
16000204000.0 0.1835080776 -0.9746089632
16050203700.0 0.1686446939 -0.9775121847
16100203400.0 0.1539781137 -0.9798645623
16150203100.0 0.1391149255 -0.9822415188
16200202800.0 0.1248568659 -0.9845372398
16250202500.0 0.1098158486 -0.9856656605
16300202200.0 0.0943055632 -0.9874213251
16350201900.0 0.079285428 -0.9890268466
16400201600.0 0.0648359437 -0.9900664942
16450201300.0 0.0491145957 -0.991195406
16500201000.0 0.0320695092 -0.9919752919
16550200700.0 0.015929908 -0.9924141258
16600200400.0 0.0002826294 -0.9925802329
16650200100.0 -0.0157151549 -0.9927766407
16700199800.0 -0.0323804272 -0.9921706575
16750199500.0 -0.0512773458 -0.9917844277
16800199200.0 -0.0673722405 -0.9907774068
16850198900.0 -0.0834354948 -0.9896229016
16900198600.0 -0.0971919859 -0.9883641186
16950198300.0 -0.1107869077 -0.9874200865
17000198000.0 -0.1243543969 -0.9854211286
17050197700.0 -0.1365997204 -0.98403315
17100197400.0 -0.1493737924 -0.9817592066
17150197100.0 -0.1620563225 -0.9797530463
17200196800.0 -0.1746249906 -0.9775459908
17250196500.0 -0.1876734055 -0.9752711557
17300196200.0 -0.2002464842 -0.9730353233
17350195900.0 -0.2118810442 -0.9705513368
17400195600.0 -0.2236615289 -0.9681011008
17450195300.0 -0.2367749418 -0.9652947915
17500195000.0 -0.2498370507 -0.9618883932
17550194700.0 -0.2637769619 -0.9585549212
17600194400.0 -0.2776216044 -0.9545348564
17650194100.0 -0.2910417316 -0.9506049058
17700193800.0 -0.3038057457 -0.9463289623
17750193500.0 -0.3176608434 -0.9415122566
17800193200.0 -0.33224059 -0.9362599355
17850192900.0 -0.3470747917 -0.9314827858
17900192600.0 -0.3620751503 -0.9250902921
17950192300.0 -0.3777659264 -0.9176574843
18000192000.0 -0.3925962044 -0.9105412332
18050191700.0 -0.4061922459 -0.9024204641
18100191400.0 -0.4203822192 -0.8948877606
18150191100.0 -0.4352621033 -0.8867166221
18200190800.0 -0.4521639525 -0.8775837035
18250190500.0 -0.4690555618 -0.8681408551
18300190200.0 -0.4845499974 -0.859686864
18350189900.0 -0.5000040979 -0.8509518945
18400189600.0 -0.5145282784 -0.8425370872
18450189300.0 -0.5275277535 -0.8344184831
18500189000.0 -0.5414811617 -0.826204956
18550188700.0 -0.5540933297 -0.8186335739
18600188400.0 -0.5657043524 -0.8115803576
18650188100.0 -0.5773131072 -0.8049758237
18700187800.0 -0.5883687599 -0.7984863489
18750187500.0 -0.5991524627 -0.7919986165
18800187200.0 -0.6097172682 -0.7850792724
18850186900.0 -0.6199404845 -0.7781206925
18900186600.0 -0.6302089962 -0.7708355226
18950186300.0 -0.640433207 -0.7629348161
19000186000.0 -0.647969931 -0.7567546446
19050185700.0 -0.6570603699 -0.7497834961
19100185400.0 -0.6672833372 -0.7411072905
19150185100.0 -0.6773349714 -0.7333686869
19200184800.0 -0.6868025561 -0.7249527586
19250184500.0 -0.6966518447 -0.7160708294
19300184200.0 -0.7090854652 -0.705802859
19350183900.0 -0.7190863694 -0.6964765613
19400183600.0 -0.7287738483 -0.6865445975
19450183300.0 -0.7373051293 -0.6765923244
19500183000.0 -0.7464220381 -0.6663665098
19550182700.0 -0.7553628337 -0.655460743
19600182400.0 -0.7656035828 -0.6440314406
19650182100.0 -0.7762634398 -0.6313657022
19700181800.0 -0.7868883944 -0.6183270998
19750181500.0 -0.797236208 -0.6040777191
19800181200.0 -0.8074541001 -0.5892614253
19850180900.0 -0.816815564 -0.5738590645
19900180600.0 -0.8247441063 -0.5595285306
19950180300.0 -0.8336005584 -0.5431107481
20000180000.0 -0.8241582755 -0.546917935
20050179700.0 -0.831169244 -0.5344149738
20100179400.0 -0.8399458828 -0.520882389
20150179100.0 -0.8480105106 -0.5095033936
20200178800.0 -0.856282017 -0.4972514437
20250178500.0 -0.8656632333 -0.4853969579
20300178200.0 -0.8748352212 -0.4719208915
20350177900.0 -0.8850509514 -0.4571327599
20400177600.0 -0.8932549229 -0.4434212205
20450177300.0 -0.9018811134 -0.4287254964
20500177000.0 -0.9100849762 -0.4151191859
20550176700.0 -0.9180870254 -0.4015343184
20600176400.0 -0.9246931363 -0.3887153357
20650176100.0 -0.9313930311 -0.3764919066
20700175800.0 -0.9389016444 -0.364716978
20750175500.0 -0.9450715669 -0.3533988587
20800175200.0 -0.9491483472 -0.3412297114
20850174900.0 -0.9538265041 -0.3319383181
20900174600.0 -0.9574569515 -0.3217421733
20950174300.0 -0.961025593 -0.3096567586
21000174000.0 -0.9636900078 -0.2988218448
21050173700.0 -0.9653423091 -0.2885627719
21100173400.0 -0.9690073126 -0.278367856
21150173100.0 -0.9736295259 -0.2662750129
21200172800.0 -0.9771268716 -0.2534144797
21250172500.0 -0.9804989696 -0.2394193201
21300172200.0 -0.984380803 -0.2258312172
21350171900.0 -0.9862355084 -0.2114517192
21400171600.0 -0.9883900411 -0.1964618294
21450171300.0 -0.988999604 -0.1825838933
21500171000.0 -0.9896744481 -0.1675210167
21550170700.0 -0.9901439464 -0.1530132909
21600170400.0 -0.9900898495 -0.1379154483
21650170100.0 -0.9905441746 -0.1220497675
21700169800.0 -0.9901497666 -0.1070323258
21750169500.0 -0.9906767053 -0.0910715263
21800169200.0 -0.9902191894 -0.0735542671
21850168900.0 -0.9903397567 -0.0558020598
21900168600.0 -0.9894027683 -0.040918287
21950168300.0 -0.9894175744 -0.0249038587
22000168000.0 -0.9888407513 -0.0101529532
22050167700.0 -0.989400574 0.0046928368
22100167400.0 -0.9900306977 0.02032124
22150167100.0 -0.991282524 0.0364825667
22200166800.0 -0.9912828558 0.0530016201
22250166500.0 -0.9912476646 0.0702179687
22300166200.0 -0.9906084366 0.086456157
22350165900.0 -0.989325409 0.102821055
22400165600.0 -0.9876264269 0.1189694291
22450165300.0 -0.9858339702 0.134295686
22500165000.0 -0.9843475313 0.1480287202
22550164700.0 -0.9832006603 0.1633764586
22600164400.0 -0.9815825 0.1800266169
22650164100.0 -0.9769057281 0.196494365
22700163800.0 -0.9751020665 0.2114687197
22750163500.0 -0.9720022371 0.2265077839
22800163200.0 -0.9688673124 0.2392956154
22850162900.0 -0.9663237147 0.2532587943
22900162600.0 -0.9645977192 0.267168622
22950162300.0 -0.9624346462 0.2810231678
23000162000.0 -0.9607561615 0.2932837383
23050161700.0 -0.9583200175 0.307228593
23100161400.0 -0.9557477214 0.3202758793
23150161100.0 -0.9526284556 0.3333097888
23200160800.0 -0.9494487639 0.3465147644
23250160500.0 -0.9460703776 0.3588117803
23300160200.0 -0.9443729298 0.3711134907
23350159900.0 -0.9403642291 0.3848548908
23400159600.0 -0.9350926734 0.3981720807
23450159300.0 -0.9299238846 0.4127778133
23500159000.0 -0.925400287 0.4255989387
23550158700.0 -0.920549264 0.44025629
23600158400.0 -0.9142112647 0.4541733357
23650158100.0 -0.9068167863 0.4686296779
23700157800.0 -0.8984592884 0.4829415767
23750157500.0 -0.8890845153 0.4975647939
23800157200.0 -0.8796180758 0.5105318166
23850156900.0 -0.8698947071 0.523920397
23900156600.0 -0.8602189585 0.5364183237
23950156300.0 -0.8501514614 0.5490670384
24000156000.0 -0.840931471 0.5607981191
24050155700.0 -0.8306148737 0.5729179417
24100155400.0 -0.8193542957 0.5854577832
24150155100.0 -0.8083876365 0.5978193602
24200154800.0 -0.797763227 0.6096272983
24250154500.0 -0.7866566334 0.6214766426
24300154200.0 -0.7748919191 0.633951967
24350153900.0 -0.7629371993 0.6450920457
24400153600.0 -0.7503075839 0.6555964316
24450153300.0 -0.7382050366 0.6660581792
24500153000.0 -0.7266221248 0.6760530112
24550152700.0 -0.7148184488 0.6862589675
24600152400.0 -0.7030962562 0.6951065663
24650152100.0 -0.6908308874 0.7034086091
