!Created with skrf (http://scikit-rf.org).
# Hz S RI R 50.0 
!freq ReS11 ImS11
300000.0 -0.9846922137 -0.0912924207
50299700.0 -0.9999545054 0.0164277617
100299400.0 -0.9979379613 0.0293104371
150299100.0 -1.002689498 0.0461845994
200298800.0 -0.9996598408 0.0595339018
250298500.0 -0.997363639 0.0730468205
300298200.0 -0.9858800422 0.0887166504
350297900.0 -0.9939196252 0.0996970927
400297600.0 -0.9929369214 0.1162361021
450297300.0 -0.9910416751 0.1299440198
500297000.0 -0.9892192825 0.144859777
550296700.0 -0.9840897728 0.1571981999
600296400.0 -1.017073384 0.190719074
650296100.0 -0.9818804724 0.1873135826
700295800.0 -0.9792135047 0.2015839998
750295500.0 -0.9761534251 0.2155880829
800295200.0 -0.9727041557 0.2299478107
850294900.0 -0.969282581 0.2435249834
900294600.0 -0.9651725341 0.257207183
950294300.0 -0.961503358 0.2711289552
1000294000.0 -0.9576456912 0.2848610906
1050293700.0 -0.9531144169 0.2987926378
1100293400.0 -0.9486938638 0.31304752
1150293100.0 -0.9449171096 0.3249407909
1200292800.0 -0.9395508469 0.3394239785
1250292500.0 -0.9340829947 0.3528047087
1300292200.0 -0.9284229849 0.3658294854
1350291900.0 -0.9227538198 0.3798752331
1400291600.0 -0.9173093556 0.3931481261
1450291300.0 -0.9120946213 0.4051788336
1500291000.0 -0.9056274637 0.4187557104
1550290700.0 -0.8992315614 0.4318479122
1600290400.0 -0.8931638608 0.4447972446
1650290100.0 -0.8864400551 0.4570054329
1700289800.0 -0.8793819756 0.4704090191
1750289500.0 -0.8724821064 0.482589245
1800289200.0 -0.8650531731 0.4955573842
1850288900.0 -0.8583908138 0.5067899454
1900288600.0 -0.850805529 0.5199630908
1950288300.0 -0.8423213481 0.5323197944
2000288000.0 -0.8348424563 0.5437577357
2050287700.0 -0.8268760794 0.5560796499
2100287400.0 -0.8186045279 0.5679710851
2150287100.0 -0.8101562637 0.579982392
2200286800.0 -0.8022494298 0.5903979455
2250286500.0 -0.7934623252 0.6024073753
2300286200.0 -0.784478528 0.6140093356
2350285900.0 -0.7754334002 0.6250091999
2400285600.0 -0.7665187913 0.6361668381
2450285300.0 -0.7578550499 0.6462742386
2500285000.0 -0.7481867303 0.6577370287
2550284700.0 -0.7391599481 0.6680577684
2600284400.0 -0.7297177261 0.6783340206
2650284100.0 -0.720683479 0.6886864377
2700283800.0 -0.710011119 0.6990638681
2750283500.0 -0.699714017 0.7099680056
2800283200.0 -0.6900146943 0.7194584382
2850282900.0 -0.6797286351 0.7292207414
2900282600.0 -0.6693235807 0.7387650826
2950282300.0 -0.6591666655 0.7480283045
3000282000.0 -0.6486775145 0.7574151706
3050281700.0 -0.6372860045 0.7669146684
3100281400.0 -0.6258566728 0.7761404253
3150281100.0 -0.6140343938 0.785401594
3200280800.0 -0.6024654024 0.7939165797
3250280500.0 -0.5916012355 0.8015544399
3300280200.0 -0.5803931257 0.8095357214
3350279900.0 -0.5688730456 0.8169400023
3400279600.0 -0.5569002704 0.8245333651
3450279300.0 -0.5457345523 0.8320326231
3500279000.0 -0.5338024547 0.8389531081
3550278700.0 -0.5212886813 0.8462759484
3600278400.0 -0.5092706227 0.8532765931
3650278100.0 -0.4958349029 0.861165202
3700277800.0 -0.4838707452 0.8674779476
3750277500.0 -0.4714632686 0.8740134258
3800277200.0 -0.4590951252 0.8805728875
3850276900.0 -0.44678076 0.8865230683
3900276600.0 -0.4357639721 0.892227908
3950276300.0 -0.423246195 0.8985774748
4000276000.0 -0.4109068346 0.9042253462
4050275700.0 -0.3977201449 0.9103319739
4100275400.0 -0.386653598 0.9157591066
4150275100.0 -0.373863606 0.9213025514
4200274800.0 -0.3606677408 0.9267578099
4250274500.0 -0.3485788632 0.9318959052
4300274200.0 -0.3354551383 0.9369971105
4350273900.0 -0.3219543077 0.9421810835
4400273600.0 -0.30693634 0.9478030459
4450273300.0 -0.2916587959 0.9524787844
4500273000.0 -0.2780320277 0.9568901646
4550272700.0 -0.2638562407 0.9611470627
4600272400.0 -0.2484941247 0.965245861
4650272100.0 -0.2366578821 0.9684780594
4700271800.0 -0.223322581 0.9716621249
4750271500.0 -0.2114981912 0.9745711248
4800271200.0 -0.1990580475 0.9773096754
4850270900.0 -0.1852204614 0.9801578017
4900270600.0 -0.171396837 0.9825681593
4950270300.0 -0.1572038524 0.9851266254
5000270000.0 -0.1432014791 0.9871546958
5050269700.0 -0.1296589461 0.9886596254
5100269400.0 -0.1160999056 0.9905093687
5150269100.0 -0.102854331 0.992178115
5200268800.0 -0.0896241429 0.9932004293
5250268500.0 -0.076624834 0.9942813963
5300268200.0 -0.0635311012 0.9949658474
5350267900.0 -0.0510553951 0.9955383406
5400267600.0 -0.0354225545 0.9964874309
5450267300.0 -0.0221750597 0.9967507116
5500267000.0 -0.0073558479 0.9969894706
5550266700.0 0.0076714155 0.9972844208
5600266400.0 0.0233215784 0.9972717146
5650266100.0 0.0392939823 0.9968974216
5700265800.0 0.0539756297 0.9958688155
5750265500.0 0.0694370512 0.9953146456
5800265200.0 0.0833854225 0.9943380671
5850264900.0 0.0966419886 0.9931650603
5900264600.0 0.1130970917 0.9913369199
5950264300.0 0.1252031185 0.9895793768
6000264000.0 0.1394405944 0.9878190019
6050263700.0 0.1523438342 0.9864635651
6100263400.0 0.164726581 0.9844479211
6150263100.0 0.1795910102 0.981916938
6200262800.0 0.1899349932 0.9801200052
6250262500.0 0.2027350882 0.9777011148
6300262200.0 0.2157535715 0.9746590934
6350261900.0 0.2285551981 0.9718273285
6400261600.0 0.24264799 0.9686419181
6450261300.0 0.2541429695 0.9658270196
6500261000.0 0.2667560123 0.9620598476
6550260700.0 0.2799048956 0.9582685423
6600260400.0 0.2929925773 0.9542467607
6650260100.0 0.3067703938 0.949899524
6700259800.0 0.3189854702 0.9457654423
6750259500.0 0.3326823659 0.9411113529
6800259200.0 0.345688465 0.9360066453
6850258900.0 0.3572097512 0.9307933117
6900258600.0 0.3696994669 0.9258647554
6950258300.0 0.382267558 0.9206432684
7000258000.0 0.3940965366 0.9151702203
7050257700.0 0.4065868128 0.9093835791
7100257400.0 0.4192333819 0.9030268454
7150257100.0 0.429600806 0.897884113
7200256800.0 0.4423722005 0.8912861456
7250256500.0 0.4538975924 0.8853212909
7300256200.0 0.4668636341 0.8784753922
7350255900.0 0.4790937324 0.8713214483
7400255600.0 0.4925628555 0.8646735639
7450255300.0 0.5075161823 0.85561899
7500255000.0 0.5189309798 0.8484371363
7550254700.0 0.5325283362 0.8399599154
7600254400.0 0.5451020452 0.831650103
7650254100.0 0.556540367 0.8238263859
7700253800.0 0.5688572177 0.8157438125
7750253500.0 0.580081703 0.8079956932
7800253200.0 0.5910334646 0.8001029204
7850252900.0 0.6004267299 0.7931518508
7900252600.0 0.6122408363 0.7839971416
7950252300.0 0.6213746764 0.7773166864
8000252000.0 0.6315260836 0.7693227474
8050251700.0 0.6420553212 0.7611391072
8100251400.0 0.6523282606 0.7527665339
8150251100.0 0.6625293734 0.7440755462
8200250800.0 0.6719447863 0.7359761128
8250250500.0 0.6806591691 0.727974276
8300250200.0 0.690487659 0.7193028551
8350249900.0 0.6994131301 0.7106275851
8400249600.0 0.7075283486 0.702510094
8450249300.0 0.7168877808 0.6933292444
8500249000.0 0.72513907 0.6843391397
8550248700.0 0.7337601082 0.6753070643
8600248400.0 0.742411183 0.6660147801
8650248100.0 0.7499872078 0.6564378536
8700247800.0 0.7594661883 0.6454138494
8750247500.0 0.7676507526 0.6354021304
8800247200.0 0.7759693715 0.6250644208
8850246900.0 0.7842081417 0.6138678282
8900246600.0 0.7927703009 0.60263382
8950246300.0 0.802449416 0.5897795593
9000246000.0 0.8115710023 0.5771989902
9050245700.0 0.8205583007 0.5643907711
9100245400.0 0.8288825237 0.5520693632
9150245100.0 0.8380420598 0.5385043064
9200244800.0 0.8477936582 0.5238377813
9250244500.0 0.856773978 0.5083661392
9300244200.0 0.8652897529 0.4939322929
9350243900.0 0.8731333409 0.4799790629
9400243600.0 0.8798937997 0.467094256
9450243300.0 0.8859251289 0.455236197
9500243000.0 0.8923593052 0.4426129772
9550242700.0 0.8963045258 0.43452985
9600242400.0 0.900421972 0.4263475969
9650242100.0 0.9042192149 0.4194883043
9700241800.0 0.9087468292 0.4112295341
9750241500.0 0.9124891408 0.4032680343
9800241200.0 0.9172831123 0.393677338
9850240900.0 0.9229399522 0.3817176922
9900240600.0 0.9281487627 0.370812755
9950240300.0 0.9346614444 0.3547039661
10000240000.0 0.9396612293 0.342875945
10050239700.0 0.9445494165 0.3283056118
10100239400.0 0.9498916856 0.3126915878
10150239100.0 0.9542406848 0.2980349026
10200238800.0 0.9582018146 0.283297664
10250238500.0 0.9616446124 0.2698512458
10300238200.0 0.964822221 0.2559521734
10350237900.0 0.967756205 0.2429031637
10400237600.0 0.9701131747 0.2298010058
10450237300.0 0.9727469811 0.2163508714
10500237000.0 0.974934589 0.2046912306
10550236700.0 0.977672921 0.1901350011
10600236400.0 0.97920004 0.1773110877
10650236100.0 0.9815217249 0.1628758011
10700235800.0 0.9833386429 0.1505957658
10750235500.0 0.985581734 0.1377062605
10800235200.0 0.9877289414 0.123469959
10850234900.0 0.9898136398 0.1091204287
10900234600.0 0.9917834199 0.0946179815
10950234300.0 0.9934694811 0.0812671591
11000234000.0 0.995113816 0.0663394458
11050233700.0 0.996804294 0.0503356758
11100233400.0 0.9983607278 0.0329942058
11150233100.0 0.9989625487 0.0167887164
11200232800.0 0.9998330647 0.0013279595
11250232500.0 1.000374946 -0.0143248608
11300232200.0 1.001454065 -0.0324161106
11350231900.0 1.001515693 -0.0484541023
11400231600.0 1.000420043 -0.0638899595
11450231300.0 0.9998500428 -0.0794859247
11500231000.0 0.9987527177 -0.0963528454
11550230700.0 0.9981396437 -0.1101808278
11600230400.0 0.996080809 -0.1221334574
11650230100.0 0.9941071227 -0.1343122817
11700229800.0 0.9915040633 -0.1490961689
11750229500.0 0.9896194849 -0.1639608464
11800229200.0 0.98700216 -0.178248247
11850228900.0 0.9834643598 -0.1906902259
11900228600.0 0.9798087904 -0.2009771495
11950228300.0 0.976477761 -0.2112964576
12000228000.0 0.973835512 -0.2205914632
12050227700.0 0.9699702916 -0.2335582213
12100227400.0 0.9670084315 -0.2449856749
12150227100.0 0.9621814497 -0.2609552682
12200226800.0 0.9590906061 -0.2712238456
12250226500.0 0.9546835397 -0.2845704516
12300226200.0 0.9510699881 -0.2966318362
12350225900.0 0.945768957 -0.3100706598
12400225600.0 0.9416685168 -0.3236542739
12450225300.0 0.9370641191 -0.3357717734
12500225000.0 0.9318146683 -0.3499777639
12550224700.0 0.9265523466 -0.3634593732
12600224400.0 0.9217193122 -0.3759071834
12650224100.0 0.9161966456 -0.390110904
12700223800.0 0.9108545156 -0.4026956538
12750223500.0 0.9054591929 -0.4153929378
12800223200.0 0.9000718325 -0.4280065673
12850222900.0 0.894761561 -0.4402072269
12900222600.0 0.8892390228 -0.4522070004
12950222300.0 0.882507673 -0.4648150027
13000222000.0 0.8766199482 -0.4763609257
13050221700.0 0.8698118782 -0.4890530621
13100221400.0 0.8628155397 -0.5016697508
13150221100.0 0.8557558462 -0.5135365782
13200220800.0 0.8487589653 -0.5260621424
13250220500.0 0.8411484258 -0.5381023134
13300220200.0 0.8337090103 -0.5492163078
13350219900.0 0.8253203054 -0.561171235
13400219600.0 0.8170062385 -0.5737523081
13450219300.0 0.8073006181 -0.5872384168
13500219000.0 0.7971330458 -0.6010026294
13550218700.0 0.7866520563 -0.6137318932
13600218400.0 0.7767987622 -0.625964078
13650218100.0 0.7674605708 -0.6372584782
13700217800.0 0.7560443727 -0.6496188764
13750217500.0 0.7461433602 -0.6608018981
13800217200.0 0.7348937803 -0.6726843485
13850216900.0 0.7242625403 -0.6839076297
13900216600.0 0.7137690204 -0.6930227141
13950216300.0 0.7037611238 -0.7032731754
14000216000.0 0.6935384884 -0.712929138
14050215700.0 0.6839726103 -0.7208950402
14100215400.0 0.6739572047 -0.7299718265
14150215100.0 0.6649271413 -0.7381172115
14200214800.0 0.6557021751 -0.7469302718
14250214500.0 0.6456135343 -0.7557565012
14300214200.0 0.6353518255 -0.7649607157
14350213900.0 0.624389272 -0.774278992
14400213600.0 0.6127388422 -0.7841249408
14450213300.0 0.5999953287 -0.7939018988
14500213000.0 0.5871718129 -0.8036506709
14550212700.0 0.5745187029 -0.813407804
14600212400.0 0.5627381591 -0.8212384527
14650212100.0 0.5492412431 -0.8305130895
14700211800.0 0.5355449974 -0.8398034135
14750211500.0 0.5233724811 -0.8480123112
14800211200.0 0.5108679743 -0.8559699344
14850210900.0 0.498848306 -0.8633643069
14900210600.0 0.4854841635 -0.8713727563
14950210300.0 0.4718780538 -0.8790707469
15000210000.0 0.4587431939 -0.8859410045
15050209700.0 0.4463023255 -0.8922021651
15100209400.0 0.4337014255 -0.8977672457
15150209100.0 0.4207737786 -0.9039615652
15200208800.0 0.4081858838 -0.909060612
15250208500.0 0.395905379 -0.9141004549
15300208200.0 0.3829467644 -0.918550607
15350207900.0 0.370189042 -0.9228072525
15400207600.0 0.3545721597 -0.9289463379
15450207300.0 0.3407509461 -0.933946396
15500207000.0 0.3261917016 -0.9386353345
15550206700.0 0.3114675479 -0.9437769452
15600206400.0 0.2950709853 -0.9482560613
15650206100.0 0.279837619 -0.9522849402
15700205800.0 0.2658062717 -0.9562061323
15750205500.0 0.2510718014 -0.9597783911
15800205200.0 0.2369833834 -0.9631760306
15850204900.0 0.2228284523 -0.9663754793
15900204600.0 0.2078488659 -0.9698865483
15950204300.0 0.1939661853 -0.9728736607
16000204000.0 0.18015949 -0.9756365529
16050203700.0 0.1656323363 -0.978350562
16100203400.0 0.1513355923 -0.9807263073
16150203100.0 0.1371309253 -0.9825756345
16200202800.0 0.1228168476 -0.9847222102
16250202500.0 0.1087116955 -0.9866278631
16300202200.0 0.0933964341 -0.9881171624
16350201900.0 0.0789315776 -0.9892420794
16400201600.0 0.064504301 -0.9901234311
16450201300.0 0.0492019758 -0.9913451939
16500201000.0 0.0328196445 -0.9921017672
16550200700.0 0.0171038558 -0.9925609839
16600200400.0 0.001135389 -0.9926329646
16650200100.0 -0.0150819817 -0.9924951786
16700199800.0 -0.0314604804 -0.9921177725
16750199500.0 -0.0509103653 -0.9913229
16800199200.0 -0.0661000607 -0.9907238212
16850198900.0 -0.0822940209 -0.9887100469
16900198600.0 -0.0956878114 -0.9883829807
16950198300.0 -0.1103344828 -0.9869650582
17000198000.0 -0.1226473405 -0.9858870346
17050197700.0 -0.135680964 -0.9844512251
17100197400.0 -0.1488136156 -0.9816107487
17150197100.0 -0.1617119347 -0.9795574182
17200196800.0 -0.1743836909 -0.9778158575
17250196500.0 -0.1877893006 -0.9753474203
17300196200.0 -0.1998258601 -0.9727179133
17350195900.0 -0.2118646066 -0.9704413315
17400195600.0 -0.224193629 -0.967962271
17450195300.0 -0.2372761655 -0.9650507712
17500195000.0 -0.2509297047 -0.9615841829
17550194700.0 -0.2648524295 -0.9578271437
17600194400.0 -0.2785444984 -0.9539715642
17650194100.0 -0.2921163032 -0.9502831389
17700193800.0 -0.3050651366 -0.9458578518
17750193500.0 -0.3188496515 -0.9415200368
17800193200.0 -0.3331943239 -0.936012435
17850192900.0 -0.3484718361 -0.9309545094
17900192600.0 -0.3629940452 -0.9248763889
17950192300.0 -0.3784800141 -0.9177693035
18000192000.0 -0.3930551369 -0.9107700038
18050191700.0 -0.4066734112 -0.9030959748
18100191400.0 -0.420793368 -0.8954084828
18150191100.0 -0.4355350923 -0.8873843018
18200190800.0 -0.4523089249 -0.8784368086
18250190500.0 -0.4686543781 -0.8690582572
18300190200.0 -0.4839604163 -0.860167877
18350189900.0 -0.4993340713 -0.852081341
18400189600.0 -0.5138978182 -0.8436922149
18450189300.0 -0.5268235467 -0.8358320692
18500189000.0 -0.5406995042 -0.8275620433
18550188700.0 -0.5534429339 -0.8196714401
18600188400.0 -0.565152623 -0.8127299414
18650188100.0 -0.5765754757 -0.8058491014
18700187800.0 -0.5871602454 -0.798879214
18750187500.0 -0.5984393858 -0.7921006031
18800187200.0 -0.6093057708 -0.7848352831
18850186900.0 -0.6197316838 -0.7774480254
18900186600.0 -0.6301044241 -0.7698474951
18950186300.0 -0.6406079447 -0.7616243392
19000186000.0 -0.6483894356 -0.7554588984
19050185700.0 -0.6581237385 -0.7478993623
19100185400.0 -0.6677694816 -0.7388779648
19150185100.0 -0.6784127638 -0.7305971454
19200184800.0 -0.687633123 -0.72180237
19250184500.0 -0.6975974184 -0.7126419282
19300184200.0 -0.7092081372 -0.703077867
19350183900.0 -0.7198450224 -0.6932399701
19400183600.0 -0.7299983832 -0.6832869005
19450183300.0 -0.7384875044 -0.6731707248
19500183000.0 -0.746874658 -0.6630606709
19550182700.0 -0.756464917 -0.6527167251
19600182400.0 -0.7663470522 -0.6409837833
19650182100.0 -0.7765131717 -0.6290544545
19700181800.0 -0.786893429 -0.616161982
19750181500.0 -0.7972794592 -0.6024337156
19800181200.0 -0.807276409 -0.5880286009
19850180900.0 -0.8167370149 -0.5730616705
19900180600.0 -0.8244218805 -0.558959905
19950180300.0 -0.8336309365 -0.5432228772
20000180000.0 -0.8281048188 -0.5439805566
20050179700.0 -0.8359979662 -0.5307325109
20100179400.0 -0.8445002398 -0.5172168195
20150179100.0 -0.8522416395 -0.5050512941
20200178800.0 -0.8606673416 -0.4926062755
20250178500.0 -0.8699131365 -0.4787638721
20300178200.0 -0.8789765129 -0.4640704364
20350177900.0 -0.8876699777 -0.4497434222
20400177600.0 -0.89650517 -0.4355729874
20450177300.0 -0.9045417748 -0.4213514027
20500177000.0 -0.9124468081 -0.4072521707
20550176700.0 -0.9202922699 -0.3939064401
20600176400.0 -0.9271141472 -0.3808292119
20650176100.0 -0.9335797888 -0.3678083003
20700175800.0 -0.9406791336 -0.3557213796
20750175500.0 -0.9468948375 -0.343577062
20800175200.0 -0.9517992531 -0.3322634402
20850174900.0 -0.9567054745 -0.320790859
20900174600.0 -0.9614975878 -0.3087224125
20950174300.0 -0.9660660429 -0.2975255727
21000174000.0 -0.9686320902 -0.2857555057
21050173700.0 -0.9721721633 -0.2746144907
21100173400.0 -0.9767045578 -0.2612232773
21150173100.0 -0.9807324161 -0.2493732487
21200172800.0 -0.9835026893 -0.2352114404
21250172500.0 -0.9872794612 -0.2215405677
21300172200.0 -0.9898914896 -0.2072937689
21350171900.0 -0.9919733909 -0.1926353176
21400171600.0 -0.9926517636 -0.1789574418
21450171300.0 -0.9929388487 -0.164564537
21500171000.0 -0.9927729397 -0.1485940053
21550170700.0 -0.9929571918 -0.1339281178
21600170400.0 -0.994243118 -0.1172916537
21650170100.0 -0.9923854707 -0.1030558306
21700169800.0 -0.9900893785 -0.087237003
21750169500.0 -0.9894038597 -0.0725585004
21800169200.0 -0.988777716 -0.0557582451
21850168900.0 -0.9874946614 -0.0395006809
21900168600.0 -0.9862041913 -0.0238590855
21950168300.0 -0.9847598692 -0.0077107754
22000168000.0 -0.983246778 0.006264944
22050167700.0 -0.9829383909 0.0210937737
22100167400.0 -0.9827854655 0.0358244916
22150167100.0 -0.9831202397 0.0512781335
22200166800.0 -0.9830103153 0.0665320435
22250166500.0 -0.9828963061 0.0839207055
22300166200.0 -0.9819298971 0.1002313995
22350165900.0 -0.9804868218 0.1164769402
22400165600.0 -0.9789136925 0.1320602249
22450165300.0 -0.976226123 0.147233652
22500165000.0 -0.9753667509 0.1607071079
22550164700.0 -0.9737965204 0.1753325721
22600164400.0 -0.9715311774 0.1919318356
22650164100.0 -0.9693724529 0.2067150425
22700163800.0 -0.9673914758 0.2223278761
22750163500.0 -0.9641401482 0.237075508
22800163200.0 -0.9614398512 0.2508313573
22850162900.0 -0.9591083569 0.2642758178
22900162600.0 -0.9578618936 0.2774471499
22950162300.0 -0.956936243 0.290240826
23000162000.0 -0.9554112575 0.3022709759
23050161700.0 -0.9532563644 0.3148552632
23100161400.0 -0.9508197333 0.3277742671
23150161100.0 -0.9476793311 0.3396733925
23200160800.0 -0.9444658334 0.3519860163
23250160500.0 -0.9426514925 0.3637982056
23300160200.0 -0.9402749292 0.376031757
23350159900.0 -0.9370444054 0.3889511422
23400159600.0 -0.9318175086 0.4016069712
23450159300.0 -0.9265375011 0.4143842818
23500159000.0 -0.9221985483 0.4272639985
23550158700.0 -0.9180048495 0.4407765993
23600158400.0 -0.9123275828 0.4534995745
23650158100.0 -0.9060615501 0.4668246854
23700157800.0 -0.898852318 0.480603168
23750157500.0 -0.8905767571 0.4942837878
23800157200.0 -0.881560594 0.5074064369
23850156900.0 -0.8726647366 0.5198303273
23900156600.0 -0.8637272551 0.5325157963
23950156300.0 -0.8546291937 0.5448449043
24000156000.0 -0.8456597583 0.5568451819
24050155700.0 -0.8348119133 0.5686737557
24100155400.0 -0.8249939848 0.5811238103
24150155100.0 -0.8148649179 0.5915359988
24200154800.0 -0.8039196665 0.604078755
24250154500.0 -0.7926492327 0.6154679062
24300154200.0 -0.7813823409 0.626734019
24350153900.0 -0.7699421941 0.6378652093
24400153600.0 -0.7576591252 0.6482052556
24450153300.0 -0.7458483691 0.6584256978
24500153000.0 -0.7341871196 0.6680299909
24550152700.0 -0.7236735396 0.6781702475
24600152400.0 -0.7119868677 0.6871764965
24650152100.0 -0.700337437 0.6954613385
24700151800.0 -0.6903353975 0.7046136213
