!Created with skrf (http://scikit-rf.org).
# Hz S RI R 50.0 
!freq ReS11 ImS11
300000.0 -0.9729150073 -0.122166046
50299700.0 -0.999847328 0.0148290233
100299400.0 -0.9978104171 0.0278739642
150299100.0 -1.002646335 0.0449653751
200298800.0 -0.9994651754 0.0580997555
250298500.0 -0.9973947584 0.0715377915
300298200.0 -0.9858231188 0.0874116888
350297900.0 -0.993907391 0.0983864509
400297600.0 -0.9930303836 0.1147912476
450297300.0 -0.9908047358 0.128596912
500297000.0 -0.9893699102 0.1432408382
550296700.0 -0.9844378224 0.1557910913
600296400.0 -1.017329737 0.1891810025
650296100.0 -0.9821414371 0.1857209866
700295800.0 -0.9792342738 0.2001030362
750295500.0 -0.976424753 0.2139882771
800295200.0 -0.9729045643 0.22799479
850294900.0 -0.9697561948 0.2419174114
900294600.0 -0.9658426345 0.2556601774
950294300.0 -0.9621459091 0.2692725941
1000294000.0 -0.9579790262 0.2831543269
1050293700.0 -0.9535485982 0.2969621832
1100293400.0 -0.9493042805 0.3113915521
1150293100.0 -0.9455584997 0.3231698117
1200292800.0 -0.940277895 0.3376400725
1250292500.0 -0.9348214573 0.3510675581
1300292200.0 -0.9290504206 0.3644186349
1350291900.0 -0.9234874512 0.3784745326
1400291600.0 -0.9180852148 0.3914747803
1450291300.0 -0.9126671968 0.4040318522
1500291000.0 -0.9063228682 0.4170590956
1550290700.0 -0.8998089558 0.4304436589
1600290400.0 -0.8935124352 0.443604519
1650290100.0 -0.8868754687 0.45556545
1700289800.0 -0.880043267 0.4694340608
1750289500.0 -0.8730197948 0.4814200421
1800289200.0 -0.8655746428 0.4944386125
1850288900.0 -0.8588444647 0.505909762
1900288600.0 -0.8511464982 0.5187120107
1950288300.0 -0.843203977 0.5311328335
2000288000.0 -0.8354292287 0.5427536694
2050287700.0 -0.8271719025 0.5550855442
2100287400.0 -0.8194536796 0.5666652114
2150287100.0 -0.8109360691 0.5784729184
2200286800.0 -0.803058948 0.5892471197
2250286500.0 -0.7941462341 0.6013098985
2300286200.0 -0.7853276158 0.6127037973
2350285900.0 -0.7768473631 0.6234505095
2400285600.0 -0.7681200764 0.6342831892
2450285300.0 -0.7590655622 0.6450441785
2500285000.0 -0.749215016 0.6565291825
2550284700.0 -0.7401871687 0.6668399553
2600284400.0 -0.7309721418 0.6767754468
2650284100.0 -0.7224972294 0.6871911808
2700283800.0 -0.7121076815 0.6975668025
2750283500.0 -0.7016834743 0.7081034538
2800283200.0 -0.6917609731 0.718340731
2850282900.0 -0.6810454615 0.7279538631
2900282600.0 -0.6707014039 0.7378094223
2950282300.0 -0.6602701006 0.7472477427
3000282000.0 -0.6496662341 0.7566470532
3050281700.0 -0.6382905621 0.7659828262
3100281400.0 -0.6268510416 0.7749265249
3150281100.0 -0.6157493617 0.783852678
3200280800.0 -0.6042631807 0.7923138539
3250280500.0 -0.5932388641 0.8003009152
3300280200.0 -0.5815444802 0.8085605823
3350279900.0 -0.5692499823 0.8163602015
3400279600.0 -0.5566491513 0.8245097605
3450279300.0 -0.5455144306 0.8315676148
3500279000.0 -0.5337255623 0.8384781499
3550278700.0 -0.5215584033 0.8454659916
3600278400.0 -0.5098597135 0.8524157317
3650278100.0 -0.4968960264 0.8597198978
3700277800.0 -0.4845439179 0.8664558008
3750277500.0 -0.4723008622 0.8732725833
3800277200.0 -0.4598311862 0.8797638092
3850276900.0 -0.4478105876 0.885558603
3900276600.0 -0.4371993152 0.891351804
3950276300.0 -0.4251397372 0.89720888
4000276000.0 -0.4130840599 0.9029441781
4050275700.0 -0.4005158738 0.9092395809
4100275400.0 -0.3895812916 0.914461533
4150275100.0 -0.3762031136 0.9201702865
4200274800.0 -0.3626089824 0.9261005732
4250274500.0 -0.349990402 0.9316423837
4300274200.0 -0.3365912176 0.9366581246
4350273900.0 -0.322396888 0.9418517775
4400273600.0 -0.3078159147 0.947178712
4450273300.0 -0.2927323673 0.9523019022
4500273000.0 -0.2796529803 0.9564483144
4550272700.0 -0.2660661247 0.9605657763
4600272400.0 -0.2509980063 0.9647068295
4650272100.0 -0.2398358548 0.9677182568
4700271800.0 -0.2269039905 0.9711789137
4750271500.0 -0.2153337709 0.9740195793
4800271200.0 -0.2031275813 0.9766950586
4850270900.0 -0.1892046259 0.9795613861
4900270600.0 -0.1755538316 0.9819922917
4950270300.0 -0.1608561906 0.984573863
5000270000.0 -0.1464946403 0.9867437387
5050269700.0 -0.132922849 0.9882449354
5100269400.0 -0.1186966828 0.989942573
5150269100.0 -0.1048035961 0.9920641944
5200268800.0 -0.0913285946 0.9928002073
5250268500.0 -0.0783792739 0.9937927204
5300268200.0 -0.0647509923 0.9944256937
5350267900.0 -0.0516594273 0.9957517358
5400267600.0 -0.0354584231 0.9962936952
5450267300.0 -0.0221918959 0.9967218447
5500267000.0 -0.006872089 0.9970289639
5550266700.0 0.0082095588 0.9971424565
5600266400.0 0.023786573 0.9972748423
5650266100.0 0.0405198659 0.9965845809
5700265800.0 0.0547751151 0.9956462863
5750265500.0 0.0697342452 0.9953796544
5800265200.0 0.0830613836 0.9939335464
5850264900.0 0.0963896743 0.9927329996
5900264600.0 0.1129255833 0.9912467508
5950264300.0 0.1243285298 0.9898970548
6000264000.0 0.1379586793 0.987889077
6050263700.0 0.1494956583 0.9866497074
6100263400.0 0.1616859865 0.9849759259
6150263100.0 0.176247056 0.9825553195
6200262800.0 0.1859470423 0.9810887734
6250262500.0 0.1984927594 0.9786958809
6300262200.0 0.2106760552 0.9762776237
6350261900.0 0.2236190644 0.9735696822
6400261600.0 0.2375483086 0.9705179808
6450261300.0 0.2484259711 0.9674526719
6500261000.0 0.2618814863 0.9642589867
6550260700.0 0.2750094205 0.9602758779
6600260400.0 0.2888522726 0.9562960531
6650260100.0 0.3027708396 0.9518544896
6700259800.0 0.3149519729 0.9474739835
6750259500.0 0.3282620914 0.9424041999
6800259200.0 0.341760408 0.9376039209
6850258900.0 0.354656276 0.9322849089
6900258600.0 0.3670851724 0.9269297442
6950258300.0 0.3797031941 0.9217214394
7000258000.0 0.3911001361 0.9162546397
7050257700.0 0.4030104406 0.9105653036
7100257400.0 0.4166828826 0.9039740955
7150257100.0 0.427108859 0.8985233101
7200256800.0 0.4400691206 0.8920838672
7250256500.0 0.4528626903 0.8854882652
7300256200.0 0.4658869021 0.8788172779
7350255900.0 0.4787332681 0.8717547594
7400255600.0 0.4929938923 0.8640859363
7450255300.0 0.5084402118 0.8548748574
7500255000.0 0.5213393713 0.8473895686
7550254700.0 0.5356814026 0.8382316203
7600254400.0 0.547912576 0.8300330415
7650254100.0 0.5593280921 0.8218316771
7700253800.0 0.5711133563 0.8139031605
7750253500.0 0.5818518713 0.8064565497
7800253200.0 0.5924864391 0.7985567151
7850252900.0 0.6024252003 0.7911715032
7900252600.0 0.6137997008 0.7825448759
7950252300.0 0.6222991105 0.7762155126
8000252000.0 0.6322510384 0.7685817649
8050251700.0 0.6425741611 0.7605062075
8100251400.0 0.6524125656 0.7526957931
8150251100.0 0.6625260932 0.7439851237
8200250800.0 0.6720829652 0.7359901401
8250250500.0 0.6805390897 0.7279859343
8300250200.0 0.6895301754 0.7197584365
8350249900.0 0.6991339052 0.7108272263
8400249600.0 0.7073557724 0.7028803339
8450249300.0 0.7159301302 0.6941483706
8500249000.0 0.7242374463 0.6852976413
8550248700.0 0.7325727956 0.6762404352
8600248400.0 0.7409098546 0.6668461716
8650248100.0 0.7486081931 0.6573379198
8700247800.0 0.7578744231 0.6463578248
8750247500.0 0.7662723623 0.6361206319
8800247200.0 0.7744074445 0.6260733835
8850246900.0 0.7829152061 0.6145095599
8900246600.0 0.7910115703 0.6031148069
8950246300.0 0.8006332253 0.5906321977
9000246000.0 0.8091570046 0.5784437368
9050245700.0 0.8175229813 0.566363534
9100245400.0 0.8256493073 0.5541009809
9150245100.0 0.8348619424 0.5412025304
9200244800.0 0.8442061233 0.5269386902
9250244500.0 0.8529275358 0.5122171407
9300244200.0 0.8613440048 0.4987050674
9350243900.0 0.8688253026 0.4856654625
9400243600.0 0.8754939792 0.4738601555
9450243300.0 0.8808075218 0.4634636288
9500243000.0 0.8870785432 0.4518461373
9550242700.0 0.8910205009 0.4444950281
9600242400.0 0.8953538451 0.4369081852
9650242100.0 0.8995363394 0.4299378512
9700241800.0 0.9046544405 0.4212753976
9750241500.0 0.9088953575 0.413716742
9800241200.0 0.9138421463 0.4042825643
9850240900.0 0.9199354736 0.3925641807
9900240600.0 0.925789402 0.3804416201
9950240300.0 0.9331117839 0.363702987
10000240000.0 0.9378331137 0.3517706873
10050239700.0 0.9437967168 0.3354151564
10100239400.0 0.9495043064 0.3188996544
10150239100.0 0.9541752689 0.3033670712
10200238800.0 0.9582741071 0.2878981273
10250238500.0 0.9615637763 0.2743336429
10300238200.0 0.9647913932 0.260402369
10350237900.0 0.9673465615 0.2471893781
10400237600.0 0.9701908492 0.2330527935
10450237300.0 0.9727876012 0.2198747769
10500237000.0 0.9750454049 0.2072559304
10550236700.0 0.9773061576 0.1932265315
10600236400.0 0.9797418568 0.1789110772
10650236100.0 0.9812048087 0.1645364053
10700235800.0 0.9835449821 0.1521585211
10750235500.0 0.985842246 0.1390211387
10800235200.0 0.9880102901 0.1241402839
10850234900.0 0.9902489189 0.1094810391
10900234600.0 0.9921646274 0.0946169098
10950234300.0 0.9938501998 0.0811780417
11000234000.0 0.9956930664 0.0654740172
11050233700.0 0.9974867281 0.048850302
11100233400.0 0.9989437503 0.0312290171
11150233100.0 1.000124667 0.0141911213
11200232800.0 1.000816846 -0.0014579914
11250232500.0 1.002367872 -0.0196846218
11300232200.0 1.001989619 -0.0384894424
11350231900.0 1.002028797 -0.0541817834
11400231600.0 1.001258037 -0.0696286128
11450231300.0 1.000475677 -0.085933529
11500231000.0 0.999568484 -0.1020278434
11550230700.0 0.9984074732 -0.114928565
11600230400.0 0.9971887662 -0.1283118292
11650230100.0 0.9945720283 -0.1401829648
11700229800.0 0.9924778303 -0.1549150783
11750229500.0 0.9902872541 -0.168974336
11800229200.0 0.9873401801 -0.1820853196
11850228900.0 0.983458644 -0.1939924268
11900228600.0 0.9797833469 -0.2034513511
11950228300.0 0.9767299942 -0.2137298597
12000228000.0 0.9739905652 -0.2221527181
12050227700.0 0.9701518505 -0.2346020496
12100227400.0 0.9671567741 -0.2455718493
12150227100.0 0.9623130679 -0.262704064
12200226800.0 0.9584055168 -0.2736528503
12250226500.0 0.9530572711 -0.2872308955
12300226200.0 0.9499146858 -0.2983187787
12350225900.0 0.9446386964 -0.3120829313
12400225600.0 0.9401066648 -0.3251084933
12450225300.0 0.9356291679 -0.3369172845
12500225000.0 0.9299831549 -0.3523423865
12550224700.0 0.924860724 -0.366085852
12600224400.0 0.9199260403 -0.3784121819
12650224100.0 0.913890263 -0.3927839673
12700223800.0 0.9086468024 -0.4057305489
12750223500.0 0.9032024839 -0.4186799067
12800223200.0 0.8979453135 -0.4312939815
12850222900.0 0.8927415244 -0.4433721668
12900222600.0 0.8870480241 -0.4554429178
12950222300.0 0.880822537 -0.4683058937
13000222000.0 0.8746881541 -0.4794918572
13050221700.0 0.8682894642 -0.4921731691
13100221400.0 0.8615303359 -0.5047752661
13150221100.0 0.8546999622 -0.5166011325
13200220800.0 0.8474059327 -0.5284788769
13250220500.0 0.8404544695 -0.5407287331
13300220200.0 0.8327701489 -0.5516442124
13350219900.0 0.8246213496 -0.5633036498
13400219600.0 0.8161630179 -0.5752145142
13450219300.0 0.8068606841 -0.5883776622
13500219000.0 0.797099632 -0.6011859683
13550218700.0 0.7870628059 -0.613863766
13600218400.0 0.7774005101 -0.6257513907
13650218100.0 0.7677096128 -0.6368127032
13700217800.0 0.7568195607 -0.6474199679
13750217500.0 0.7474128157 -0.6589558184
13800217200.0 0.7363194307 -0.6700391218
13850216900.0 0.7265086857 -0.6813261624
13900216600.0 0.7159982613 -0.6903472103
13950216300.0 0.705265223 -0.7002435714
14000216000.0 0.695425017 -0.7095848681
14050215700.0 0.686232029 -0.7172656988
14100215400.0 0.6765527246 -0.726750357
14150215100.0 0.6678270315 -0.7350347695
14200214800.0 0.6581369931 -0.7437964417
14250214500.0 0.6477539725 -0.7533903695
14300214200.0 0.6372597094 -0.7628509051
14350213900.0 0.6258854281 -0.7725202429
14400213600.0 0.6141446735 -0.7824098882
14450213300.0 0.6012954072 -0.7923310867
14500213000.0 0.588302328 -0.8025017194
14550212700.0 0.5760065381 -0.8117535263
14600212400.0 0.5636717069 -0.8206266555
14650212100.0 0.551262764 -0.8291401549
14700211800.0 0.5373017298 -0.8390862318
14750211500.0 0.5251651302 -0.8472828598
14800211200.0 0.5123351315 -0.8554077298
14850210900.0 0.5000413253 -0.8630362616
14900210600.0 0.4868704028 -0.8710097669
14950210300.0 0.4735399423 -0.8785545066
15000210000.0 0.4608394825 -0.8852630426
15050209700.0 0.4484020018 -0.8917717837
15100209400.0 0.4355482414 -0.8973730738
15150209100.0 0.4232023475 -0.9025055821
15200208800.0 0.4107892725 -0.9084045623
15250208500.0 0.4002623761 -0.9124545636
15300208200.0 0.3872572863 -0.9179312165
15350207900.0 0.3739567745 -0.9215512752
15400207600.0 0.3598829282 -0.9275550232
15450207300.0 0.3444039949 -0.9322588361
15500207000.0 0.329974199 -0.9374854802
15550206700.0 0.3156272638 -0.9425243336
15600206400.0 0.2991051327 -0.94713858
15650206100.0 0.2836618784 -0.9511163905
15700205800.0 0.2707999635 -0.9546542853
15750205500.0 0.2562836157 -0.9576469505
15800205200.0 0.2423630193 -0.9611185458
15850204900.0 0.2283127742 -0.964615008
15900204600.0 0.2132983048 -0.9683691348
15950204300.0 0.1989792373 -0.9714207287
16000204000.0 0.1844236551 -0.9743546343
16050203700.0 0.1694809725 -0.97736376
16100203400.0 0.1547021075 -0.9797509637
16150203100.0 0.1394047179 -0.9817886214
16200202800.0 0.125140062 -0.9837162875
16250202500.0 0.1101618484 -0.9856448419
16300202200.0 0.0947872642 -0.9873295724
16350201900.0 0.0801734061 -0.9889608235
16400201600.0 0.0652749774 -0.9899164856
16450201300.0 0.0496624454 -0.9911555293
16500201000.0 0.0325862306 -0.9920611357
16550200700.0 0.0167052783 -0.9925911112
16600200400.0 0.0006480443 -0.9926313082
16650200100.0 -0.0154450917 -0.9924759257
16700199800.0 -0.031581648 -0.9923895742
16750199500.0 -0.0513923926 -0.9916131515
16800199200.0 -0.0668186918 -0.9907626845
16850198900.0 -0.0826219766 -0.9891448826
16900198600.0 -0.0966534455 -0.9879102456
16950198300.0 -0.110337737 -0.9874137338
17000198000.0 -0.1232605244 -0.9864272628
17050197700.0 -0.1357585728 -0.9839273365
17100197400.0 -0.1490245988 -0.9819477299
17150197100.0 -0.1619818803 -0.9799814468
17200196800.0 -0.1743916553 -0.9774943451
17250196500.0 -0.1875162521 -0.9752868899
17300196200.0 -0.1996911356 -0.973192333
17350195900.0 -0.2115776932 -0.9706644634
17400195600.0 -0.2234044542 -0.9681411032
17450195300.0 -0.2363567789 -0.9652570519
17500195000.0 -0.2493732977 -0.9618723449
17550194700.0 -0.2632336367 -0.9585593962
17600194400.0 -0.2771615282 -0.9546834045
17650194100.0 -0.2904193642 -0.9502513041
17700193800.0 -0.3038460803 -0.9464524212
17750193500.0 -0.3175761774 -0.9416071422
17800193200.0 -0.3318418079 -0.9365606232
17850192900.0 -0.3472481079 -0.9309576658
17900192600.0 -0.3616571706 -0.9248815604
17950192300.0 -0.3777597479 -0.9181028534
18000192000.0 -0.3923384499 -0.9107506851
18050191700.0 -0.4060426933 -0.9025141651
18100191400.0 -0.4201038365 -0.8949104853
18150191100.0 -0.4349370843 -0.8870364823
18200190800.0 -0.4519121054 -0.8776363509
18250190500.0 -0.4687336773 -0.8684955531
18300190200.0 -0.4841323946 -0.8594528227
18350189900.0 -0.4995561339 -0.8512175148
18400189600.0 -0.5136675764 -0.842690814
18450189300.0 -0.5274605914 -0.8343656355
18500189000.0 -0.5407233613 -0.8266483017
18550188700.0 -0.5535011455 -0.8192143002
18600188400.0 -0.5659393588 -0.8118793255
18650188100.0 -0.5765866292 -0.8052141883
18700187800.0 -0.5878732727 -0.7988594186
18750187500.0 -0.599196781 -0.7921500655
18800187200.0 -0.6093592249 -0.7851380602
18850186900.0 -0.619661832 -0.7781374031
18900186600.0 -0.6298168245 -0.7708922225
18950186300.0 -0.6398621275 -0.7633160061
19000186000.0 -0.6473293816 -0.7571496986
19050185700.0 -0.6569324151 -0.7494934036
19100185400.0 -0.6669226947 -0.7416569201
19150185100.0 -0.6769319162 -0.7334854723
19200184800.0 -0.6862223744 -0.7255437437
19250184500.0 -0.6966922943 -0.7157981295
19300184200.0 -0.7080849767 -0.7064055536
19350183900.0 -0.7189662784 -0.6963949747
19400183600.0 -0.7285740868 -0.6867844702
19450183300.0 -0.7371854675 -0.6764596782
19500183000.0 -0.7457453164 -0.6665928918
19550182700.0 -0.7556663783 -0.6558432146
19600182400.0 -0.7657882378 -0.6445079987
19650182100.0 -0.7763082648 -0.631530146
19700181800.0 -0.786812535 -0.617928212
19750181500.0 -0.7971816701 -0.6045329018
19800181200.0 -0.807460277 -0.5893504116
19850180900.0 -0.8168353676 -0.5740626758
19900180600.0 -0.8246439113 -0.5595657389
19950180300.0 -0.8337990054 -0.5433460876
20000180000.0 -0.8235747439 -0.5467541723
20050179700.0 -0.8308723494 -0.5342387444
20100179400.0 -0.84020749 -0.5206740311
20150179100.0 -0.8470931745 -0.5097685253
20200178800.0 -0.8562226414 -0.4984491022
20250178500.0 -0.8657525623 -0.485346422
20300178200.0 -0.8752556188 -0.4715968848
20350177900.0 -0.8843787376 -0.4578854576
20400177600.0 -0.893445008 -0.4435263984
20450177300.0 -0.9019762007 -0.4293879575
20500177000.0 -0.9100334959 -0.4154096866
20550176700.0 -0.9179656054 -0.4017143332
20600176400.0 -0.9250200211 -0.3889301697
20650176100.0 -0.9314305844 -0.3767705674
20700175800.0 -0.9384186749 -0.3647575069
20750175500.0 -0.9442145019 -0.3532682449
20800175200.0 -0.9485505376 -0.3423935512
20850174900.0 -0.9532313896 -0.3326154703
20900174600.0 -0.9584868066 -0.3201446069
20950174300.0 -0.9605122977 -0.3097902461
21000174000.0 -0.9636087711 -0.2995549904
21050173700.0 -0.9653946076 -0.2891103048
21100173400.0 -0.9690071823 -0.2788025231
21150173100.0 -0.972395241 -0.2668259512
21200172800.0 -0.9773029054 -0.2537317391
21250172500.0 -0.9806820045 -0.2406118011
21300172200.0 -0.984292718 -0.226301376
21350171900.0 -0.9860773571 -0.2122796754
21400171600.0 -0.9877566192 -0.1975579804
21450171300.0 -0.9888318766 -0.1837796865
21500171000.0 -0.9893452149 -0.1680829103
21550170700.0 -0.9889649468 -0.1538272383
21600170400.0 -0.9903341519 -0.1383721515
21650170100.0 -0.9909396566 -0.1223932669
21700169800.0 -0.9895243728 -0.1077121035
21750169500.0 -0.9892930404 -0.0913681646
21800169200.0 -0.9902118506 -0.0744740958
21850168900.0 -0.9902268785 -0.056683717
21900168600.0 -0.9895041079 -0.0411600742
21950168300.0 -0.9888316216 -0.0260572284
22000168000.0 -0.9892890802 -0.0106070536
22050167700.0 -0.9900146816 0.0035907356
22100167400.0 -0.9902665773 0.0199713311
22150167100.0 -0.9915626984 0.0356774061
22200166800.0 -0.9923184256 0.0522498357
22250166500.0 -0.9911116114 0.0698535571
22300166200.0 -0.9908378553 0.0861509133
22350165900.0 -0.9892269729 0.1019166481
22400165600.0 -0.9886893908 0.1178918762
22450165300.0 -0.9872530274 0.1325967878
22500165000.0 -0.9844396089 0.1481887417
22550164700.0 -0.9841851749 0.1627864016
22600164400.0 -0.9811980691 0.1789278597
22650164100.0 -0.9782967435 0.1960656815
22700163800.0 -0.9755482111 0.2121185271
22750163500.0 -0.9720100577 0.2259756954
22800163200.0 -0.9690528979 0.2388241115
22850162900.0 -0.9668616838 0.2526615739
22900162600.0 -0.964862227 0.2671675518
22950162300.0 -0.9631671753 0.2806365412
23000162000.0 -0.9614343643 0.2929708103
23050161700.0 -0.9585160201 0.3066423378
23100161400.0 -0.9562227701 0.319861865
23150161100.0 -0.9523771163 0.3329456604
23200160800.0 -0.9495554983 0.3457148488
23250160500.0 -0.9473999734 0.3581978029
23300160200.0 -0.944997577 0.3711387652
23350159900.0 -0.9402466669 0.3847776716
23400159600.0 -0.935144131 0.3984878893
23450159300.0 -0.9301233725 0.4125421967
23500159000.0 -0.9250262307 0.4258411943
23550158700.0 -0.9199763533 0.4403592418
23600158400.0 -0.9139242966 0.4543556514
23650158100.0 -0.9066804483 0.4689166766
23700157800.0 -0.8982558303 0.4831920062
23750157500.0 -0.888632346 0.4972324374
23800157200.0 -0.8789643801 0.5113224151
23850156900.0 -0.8689124194 0.5235410421
23900156600.0 -0.8593670166 0.5363236853
23950156300.0 -0.8500185812 0.5493256837
24000156000.0 -0.840055956 0.5618472631
24050155700.0 -0.8294167655 0.5736402175
24100155400.0 -0.8186729347 0.5862048542
24150155100.0 -0.8078560518 0.5984822206
24200154800.0 -0.7966246358 0.6103003491
24250154500.0 -0.7854203435 0.6222146813
24300154200.0 -0.7742277828 0.6341534337
24350153900.0 -0.7620049897 0.6455602327
24400153600.0 -0.7497575791 0.6561872704
24450153300.0 -0.7374633438 0.6663095738
24500153000.0 -0.725836393 0.6768473563
24550152700.0 -0.7141870895 0.6868231106
24600152400.0 -0.7016650534 0.6962039412
